! TOUCHSTONE file generated by CST MICROWAVE STUDIO
! Date and time: Wed Jul 31 10:43:50 2024
! Project name: WaveGuide_BPF-Ver4.1_U-shape_Ku_T3_C4_CWA_2.cst
! Parameters = {cavity_h=16; cavity_l0=10; cavity_l1=15.2298; cavity_l2=16.8192; cavity_l3=17.0717; cavity_l4=17.2862; cavity_l5=17.136; cavity_l6=17.6114; cavity_r=2.5; cavity_screw_l=0.5; cavity_screw_r=1.5; cavity_w=8; iris_h00=0; iris_h01=8.8359; iris_h112=0; iris_h12=5.6023; iris_h211=3.6569; iris_h23=5.19; iris_h310=3.9609; iris_h34=5.0897; iris_h45=4.9297; iris_h49=4.6099; iris_h56=4.7888; iris_h58=4.4507; iris_h67=6.582; iris_rx=0.1; iris_screw_l=0.5; iris_screw_r=1.5; iris_shift00=0; iris_shift112=0; iris_shift211=3.5; iris_shift310=0; iris_shift49=0; iris_shift58=3.5; iris_shift67=3.5; iris_tx=4.5; iris_tz=4.5; iris_w00=0; iris_w112=0; iris_w211=4; iris_w310=3.9609; iris_w49=4.6099; iris_w58=4; iris_w67=4; mesh_cavity=5; mesh_iris=7; mesh_screw=7; order=12; reset_all=0; sigma=4.8e+07}
! Header version: 2018
! Port assignment regex: !\s*Touchstone port\s*([0-9]+)\s*=\s*(CST MWS port|CST DS port)\s*([0-9]+|Zmin|Zmax)\s*\(\"(.*)\"\)(\s*mode\s*([0-9]+))?.*
! Touchstone port assignment:
! Touchstone port 1 = CST MWS port 1 ("")
! Touchstone port 2 = CST MWS port 2 ("")
# GHz S RI R 50
12.66                0.498102267      0.83819169   0.000235575316 -0.000163972031   0.000235575317 -0.000163972031      0.502985684     0.835216786
12.660028            0.498579176      0.83788538   0.000235844129 -0.000164370522    0.00023584413 -0.000164370522      0.503463042     0.834906251
12.660056            0.499056337     0.837578509   0.000236113181 -0.000164769984   0.000236113182 -0.000164769984      0.503940415     0.834595286
12.660084            0.499533729     0.837271087   0.000236382459 -0.000165170424    0.00023638246 -0.000165170424      0.504417884     0.834283843
12.660112            0.500011333     0.836963125   0.000236651953 -0.000165571849   0.000236651953 -0.000165571849      0.504895529     0.833971875
12.66014             0.500489129     0.836654634   0.000236921651 -0.000165974266   0.000236921652 -0.000165974266      0.505373429     0.833659334
12.660168            0.500967116     0.836345613   0.000237191553 -0.000166377679   0.000237191553 -0.000166377678      0.505851585     0.833346218
12.660196            0.501445307     0.836036053   0.000237461665 -0.000166782085   0.000237461666 -0.000166782085      0.506329943     0.833032559
12.660224            0.501923704     0.835725953   0.000237731987 -0.000167187488   0.000237731988 -0.000167187488      0.506808503     0.832718355
12.660252            0.502402304     0.835415313   0.000238002519  -0.00016759389    0.00023800252  -0.00016759389      0.507287265     0.832403606
12.66028             0.502881109     0.835104131    0.00023827326 -0.000168001294   0.000238273261 -0.000168001294      0.507766229      0.83208831
12.660308            0.503360117     0.834792406    0.00023854421 -0.000168409703   0.000238544211 -0.000168409703      0.508245394     0.831772466
12.660336             0.50383933     0.834480138   0.000238815367 -0.000168819118   0.000238815368 -0.000168819118       0.50872476     0.831456075
12.660364            0.504318746     0.834167326   0.000239086732 -0.000169229543   0.000239086733 -0.000169229542      0.509204327     0.831139134
12.660392            0.504798366     0.833853969   0.000239358305 -0.000169640979   0.000239358305 -0.000169640979      0.509684096     0.830821643
12.66042             0.505278189     0.833540065   0.000239630083  -0.00017005343   0.000239630084  -0.00017005343      0.510164065       0.8305036
12.660448            0.505758215     0.833225615   0.000239902068 -0.000170466899   0.000239902069 -0.000170466898      0.510644235     0.830185006
12.660476            0.506238445     0.832910617   0.000240174258 -0.000170881386   0.000240174259 -0.000170881386      0.511124605     0.829865859
12.660504            0.506718877     0.832595069   0.000240446653 -0.000171296897   0.000240446654 -0.000171296896      0.511605175     0.829546158
12.660532            0.507199513     0.832278972   0.000240719253 -0.000171713431   0.000240719254 -0.000171713431      0.512085946     0.829225902
12.66056             0.507680351     0.831962325   0.000240992056 -0.000172130994   0.000240992057 -0.000172130994      0.512566917      0.82890509
12.660588            0.508161391     0.831645125   0.000241265063 -0.000172549586   0.000241265064 -0.000172549586      0.513048087     0.828583722
12.660616            0.508642634     0.831327373   0.000241538273 -0.000172969211   0.000241538274 -0.000172969211      0.513529457     0.828261796
12.660644            0.509124079     0.831009068   0.000241811685 -0.000173389871   0.000241811685 -0.000173389871      0.514011027     0.827939312
12.660672            0.509605725     0.830690208   0.000242085298 -0.000173811569   0.000242085299 -0.000173811569      0.514492796     0.827616268
12.6607              0.510087574     0.830370792   0.000242359113 -0.000174234308   0.000242359114 -0.000174234307      0.514974764     0.827292663
12.660728            0.510569624     0.830050821   0.000242633128 -0.000174658089   0.000242633129 -0.000174658089      0.515456931     0.826968498
12.660756            0.511051876     0.829730292   0.000242907344 -0.000175082917   0.000242907345 -0.000175082916      0.515939296      0.82664377
12.660784            0.511534329     0.829409205   0.000243181759 -0.000175508792   0.000243181759 -0.000175508792      0.516421861     0.826318478
12.660812            0.512016983     0.829087559   0.000243456372 -0.000175935719   0.000243456373 -0.000175935719      0.516904623     0.825992623
12.66084             0.512499839     0.828765353   0.000243731184   -0.0001763637   0.000243731185 -0.000176363699      0.517387584     0.825666202
12.660868            0.512982895     0.828442586   0.000244006194 -0.000176792736   0.000244006195 -0.000176792736      0.517870743     0.825339216
12.660896            0.513466151     0.828119256   0.000244281401 -0.000177222832   0.000244281402 -0.000177222832        0.5183541     0.825011662
12.660924            0.513949608     0.827795364   0.000244556804  -0.00017765399   0.000244556805 -0.000177653989      0.518837654      0.82468354
12.660952            0.514433266     0.827470909   0.000244832403 -0.000178086212   0.000244832404 -0.000178086211      0.519321406      0.82435485
12.66098             0.514917123     0.827145888   0.000245108198 -0.000178519501   0.000245108199   -0.0001785195      0.519805355     0.824025589
12.661008             0.51540118     0.826820302   0.000245384187 -0.000178953859   0.000245384188 -0.000178953859      0.520289502     0.823695758
12.661036            0.515885437     0.826494149    0.00024566037 -0.000179389291   0.000245660371  -0.00017938929      0.520773845     0.823365354
12.661064            0.516369894     0.826167428   0.000245936747 -0.000179825797   0.000245936748 -0.000179825797      0.521258385     0.823034378
12.661092             0.51685455     0.825840139   0.000246213317 -0.000180263381   0.000246213317 -0.000180263381      0.521743121     0.822702829
12.66112             0.517339405      0.82551228   0.000246490079 -0.000180702046   0.000246490079 -0.000180702046      0.522228054     0.822370704
12.661148            0.517824459      0.82518385   0.000246767032 -0.000181141795   0.000246767033 -0.000181141795      0.522713183     0.822038004
12.661176            0.518309712      0.82485485   0.000247044176 -0.000181582629   0.000247044177 -0.000181582629      0.523198507     0.821704727
12.661204            0.518795164     0.824525276   0.000247321511 -0.000182024553   0.000247321511 -0.000182024552      0.523684028     0.821370873
12.661232            0.519280814      0.82419513   0.000247599035 -0.000182467567   0.000247599035 -0.000182467567      0.524169744      0.82103644
12.66126             0.519766662     0.823864409   0.000247876748 -0.000182911677   0.000247876749 -0.000182911676      0.524655655     0.820701428
12.661288            0.520252708     0.823533112   0.000248154649 -0.000183356883    0.00024815465 -0.000183356883      0.525141762     0.820365835
12.661316            0.520738953      0.82320124   0.000248432738 -0.000183803189   0.000248432739 -0.000183803189      0.525628063      0.82002966
12.661344            0.521225394      0.82286879   0.000248711014 -0.000184250598   0.000248711015 -0.000184250598      0.526114559     0.819692904
12.661372            0.521712034     0.822535761   0.000248989476 -0.000184699112   0.000248989477 -0.000184699112       0.52660125     0.819355563
12.6614               0.52219887     0.822202154   0.000249268124 -0.000185148735   0.000249268125 -0.000185148734      0.527088135     0.819017639
12.661428            0.522685904     0.821867966   0.000249546957 -0.000185599468   0.000249546958 -0.000185599468      0.527575214     0.818679128
12.661456            0.523173134     0.821533198   0.000249825974 -0.000186051316   0.000249825974 -0.000186051315      0.528062487     0.818340032
12.661484            0.523660561     0.821197847   0.000250105174  -0.00018650428   0.000250105175 -0.000186504279      0.528549953     0.818000348
12.661512            0.524148185     0.820861913   0.000250384557 -0.000186958363   0.000250384558 -0.000186958363      0.529037613     0.817660076
12.66154             0.524636004     0.820525395   0.000250664123 -0.000187413569   0.000250664123 -0.000187413569      0.529525466     0.817319214
12.661568             0.52512402     0.820188291   0.000250943869   -0.0001878699    0.00025094387   -0.0001878699      0.530013512     0.816977762
12.661596            0.525612232     0.819850602   0.000251223797 -0.000188327359   0.000251223797 -0.000188327358      0.530501751     0.816635719
12.661624            0.526100639     0.819512326   0.000251503904 -0.000188785948   0.000251503905 -0.000188785948      0.530990183     0.816293083
12.661652            0.526589241     0.819173461    0.00025178419 -0.000189245672   0.000251784191 -0.000189245671      0.531478807     0.815949854
12.66168             0.527078039     0.818834008   0.000252064655 -0.000189706531   0.000252064656 -0.000189706531      0.531967623     0.815606031
12.661708            0.527567032     0.818493964   0.000252345298  -0.00019016853   0.000252345298  -0.00019016853      0.532456631     0.815261613
12.661736             0.52805622      0.81815333   0.000252626117 -0.000190631672   0.000252626118 -0.000190631672       0.53294583     0.814916598
12.661764            0.528545602     0.817812103   0.000252907113 -0.000191095958   0.000252907114 -0.000191095958      0.533435221     0.814570986
12.661792            0.529035178     0.817470284   0.000253188284 -0.000191561393   0.000253188285 -0.000191561393      0.533924803     0.814224775
12.66182             0.529524949      0.81712787    0.00025346963 -0.000192027979   0.000253469631 -0.000192027978      0.534414577     0.813877966
12.661848            0.530014913     0.816784861   0.000253751149 -0.000192495718    0.00025375115 -0.000192495718      0.534904541     0.813530556
12.661876            0.530505071     0.816441257   0.000254032842 -0.000192964614   0.000254032843 -0.000192964614      0.535394695     0.813182544
12.661904            0.530995423     0.816097055   0.000254314707 -0.000193434669   0.000254314708 -0.000193434669       0.53588504      0.81283393
12.661932            0.531485967     0.815752255   0.000254596744 -0.000193905888   0.000254596745 -0.000193905887      0.536375574     0.812484713
12.66196             0.531976705     0.815406856   0.000254878951 -0.000194378271   0.000254878952 -0.000194378271      0.536866299     0.812134892
12.661988            0.532467635     0.815060858   0.000255161329 -0.000194851824   0.000255161329 -0.000194851823      0.537357213     0.811784465
12.662016            0.532958758     0.814714258   0.000255443875 -0.000195326547   0.000255443876 -0.000195326547      0.537848317     0.811433432
12.662044            0.533450074     0.814367056    0.00025572659 -0.000195802445   0.000255726591 -0.000195802445      0.538339609     0.811081791
12.662072            0.533941581     0.814019251   0.000256009472  -0.00019627952   0.000256009473  -0.00019627952       0.53883109     0.810729542
12.6621               0.53443328     0.813670842   0.000256292521 -0.000196757775   0.000256292522 -0.000196757775       0.53932276     0.810376683
12.662128            0.534925171     0.813321827   0.000256575736 -0.000197237214   0.000256575736 -0.000197237213      0.539814618     0.810023214
12.662156            0.535417253     0.812972207   0.000256859115 -0.000197717838   0.000256859116 -0.000197717838      0.540306665     0.809669134
12.662184            0.535909526     0.812621979   0.000257142659 -0.000198199652    0.00025714266 -0.000198199652      0.540798899     0.809314441
12.662212             0.53640199     0.812271144   0.000257426366 -0.000198682658   0.000257426367 -0.000198682658      0.541291321     0.808959134
12.66224             0.536894644     0.811919699   0.000257710236  -0.00019916686   0.000257710237 -0.000199166859       0.54178393     0.808603213
12.662268            0.537387489     0.811567644   0.000257994267 -0.000199652259   0.000257994268 -0.000199652259      0.542276726     0.808246676
12.662296            0.537880524     0.811214977   0.000258278459  -0.00020013886    0.00025827846 -0.000200138859      0.542769709     0.807889523
12.662324            0.538373749     0.810861698    0.00025856281 -0.000200626664   0.000258562811 -0.000200626664      0.543262878     0.807531751
12.662352            0.538867164     0.810507806   0.000258847321 -0.000201115676   0.000258847322 -0.000201115676      0.543756234     0.807173361
12.66238             0.539360768       0.8101533    0.00025913199 -0.000201605899    0.00025913199 -0.000201605899      0.544249776     0.806814352
12.662408            0.539854561     0.809798178   0.000259416815 -0.000202097334   0.000259416816 -0.000202097334      0.544743503     0.806454721
12.662436            0.540348543      0.80944244   0.000259701797 -0.000202589986   0.000259701798 -0.000202589986      0.545237416     0.806094469
12.662464            0.540842714     0.809086084   0.000259986935 -0.000203083858   0.000259986935 -0.000203083858      0.545731514     0.805733594
12.662492            0.541337073      0.80872911   0.000260272226 -0.000203578952   0.000260272227 -0.000203578952      0.546225797     0.805372094
12.66252              0.54183162     0.808371516   0.000260557672 -0.000204075271   0.000260557672 -0.000204075271      0.546720265      0.80500997
12.662548            0.542326355     0.808013302    0.00026084327  -0.00020457282    0.00026084327 -0.000204572819      0.547214918      0.80464722
12.662576            0.542821277     0.807654466   0.000261129019 -0.000205071599    0.00026112902 -0.000205071599      0.547709754     0.804283843
12.662604            0.543316387     0.807295007   0.000261414919 -0.000205571614    0.00026141492 -0.000205571614      0.548204774     0.803919837
12.662632            0.543811684     0.806934925   0.000261700969 -0.000206072867    0.00026170097 -0.000206072867      0.548699978     0.803555203
12.66266             0.544307167     0.806574218   0.000261987168 -0.000206575361   0.000261987169  -0.00020657536      0.549195365     0.803189938
12.662688            0.544802837     0.806212885   0.000262273514 -0.000207079099   0.000262273515 -0.000207079098      0.549690935     0.802824042
12.662716            0.545298694     0.805850925   0.000262560008 -0.000207584084   0.000262560009 -0.000207584083      0.550186688     0.802457513
12.662744            0.545794736     0.805488337   0.000262846647 -0.000208090319   0.000262846648 -0.000208090319      0.550682624     0.802090351
12.662772            0.546290964     0.805125121   0.000263133431 -0.000208597808   0.000263133432 -0.000208597808      0.551178741     0.801722554
12.6628              0.546787377     0.804761274   0.000263420359 -0.000209106554    0.00026342036 -0.000209106554       0.55167504     0.801354122
12.662828            0.547283976     0.804396796    0.00026370743  -0.00020961656   0.000263707431  -0.00020961656      0.552171521     0.800985054
12.662856            0.547780759     0.804031686   0.000263994643 -0.000210127829   0.000263994644 -0.000210127829      0.552668184     0.800615347
12.662884            0.548277727     0.803665942   0.000264281997 -0.000210640364   0.000264281998 -0.000210640363      0.553165027     0.800245002
12.662912             0.54877488     0.803299565   0.000264569491 -0.000211154168   0.000264569492 -0.000211154168      0.553662051     0.799874017
12.66294             0.549272216     0.802932551   0.000264857123 -0.000211669245   0.000264857124 -0.000211669245      0.554159255     0.799502391
12.662968            0.549769736     0.802564902   0.000265144894 -0.000212185597   0.000265144895 -0.000212185597       0.55465664     0.799130123
12.662996            0.550267439     0.802196615   0.000265432801 -0.000212703229   0.000265432802 -0.000212703229      0.555154204     0.798757212
12.663024            0.550765326     0.801827689   0.000265720844 -0.000213222143   0.000265720845 -0.000213222142      0.555651948     0.798383657
12.663052            0.551263395     0.801458124   0.000266009022 -0.000213742342   0.000266009022 -0.000213742341      0.556149871     0.798009457
12.66308             0.551761647     0.801087918   0.000266297333 -0.000214263829   0.000266297334 -0.000214263829      0.556647972      0.79763461
12.663108            0.552260082      0.80071707   0.000266585777 -0.000214786609   0.000266585777 -0.000214786608      0.557146253     0.797259116
12.663136            0.552758698     0.800345579   0.000266874352 -0.000215310683   0.000266874353 -0.000215310683      0.557644712     0.796882973
12.663164            0.553257496     0.799973444   0.000267163058 -0.000215836056   0.000267163059 -0.000215836056      0.558143348     0.796506181
12.663192            0.553756475     0.799600665   0.000267451893  -0.00021636273   0.000267451894  -0.00021636273      0.558642163     0.796128738
12.66322             0.554255635     0.799227239   0.000267740856 -0.000216890709   0.000267740857 -0.000216890709      0.559141154     0.795750644
12.663248            0.554754976     0.798853165   0.000268029947 -0.000217419997   0.000268029947 -0.000217419996      0.559640323     0.795371896
12.663276            0.555254498     0.798478444   0.000268319163 -0.000217950595   0.000268319164 -0.000217950595      0.560139669     0.794992495
12.663304              0.5557542     0.798103073   0.000268608504 -0.000218482508   0.000268608505 -0.000218482508       0.56063919     0.794612439
12.663332            0.556254081     0.797727051   0.000268897969  -0.00021901574    0.00026889797 -0.000219015739      0.561138888     0.794231726
12.66336             0.556754142     0.797350378   0.000269187557 -0.000219550292   0.000269187558 -0.000219550292      0.561638762     0.793850356
12.663388            0.557254383     0.796973052   0.000269477266 -0.000220086169   0.000269477267 -0.000220086169      0.562138811     0.793468328
12.663416            0.557754802     0.796595072   0.000269767096 -0.000220623373   0.000269767097 -0.000220623373      0.562639035     0.793085641
12.663444              0.5582554     0.796216438   0.000270057045 -0.000221161909   0.000270057045 -0.000221161909      0.563139434     0.792702293
12.663472            0.558756176     0.795837147   0.000270347111  -0.00022170178   0.000270347112 -0.000221701779      0.563640007     0.792318283
12.6635               0.55925713       0.7954572   0.000270637295 -0.000222242988   0.000270637296 -0.000222242988      0.564140754     0.791933611
