! TOUCHSTONE file generated by CST MICROWAVE STUDIO
! Date and time: Wed Jul 31 10:46:52 2024
! Project name: WaveGuide_BPF-Ver4.1_U-shape_Ku_T3_C4_CWA_2.cst
! Parameters = {cavity_h=16; cavity_l0=10; cavity_l1=15.2085; cavity_l2=16.8552; cavity_l3=17.0799; cavity_l4=17.2599; cavity_l5=17.1325; cavity_l6=17.639; cavity_r=2.5; cavity_screw_l=0.5; cavity_screw_r=1.5; cavity_w=8; iris_h00=0; iris_h01=8.8243; iris_h112=0; iris_h12=5.6035; iris_h211=3.6643; iris_h23=5.189; iris_h310=3.9638; iris_h34=5.0735; iris_h45=4.9277; iris_h49=4.6184; iris_h56=4.7977; iris_h58=4.4304; iris_h67=6.5895; iris_rx=0.1; iris_screw_l=0.5; iris_screw_r=1.5; iris_shift00=0; iris_shift112=0; iris_shift211=3.5; iris_shift310=0; iris_shift49=0; iris_shift58=3.5; iris_shift67=3.5; iris_tx=4.5; iris_tz=4.5; iris_w00=0; iris_w112=0; iris_w211=4; iris_w310=3.9638; iris_w49=4.6184; iris_w58=4; iris_w67=4; mesh_cavity=5; mesh_iris=7; mesh_screw=7; order=12; reset_all=0; sigma=4.8e+07}
! Header version: 2018
! Port assignment regex: !\s*Touchstone port\s*([0-9]+)\s*=\s*(CST MWS port|CST DS port)\s*([0-9]+|Zmin|Zmax)\s*\(\"(.*)\"\)(\s*mode\s*([0-9]+))?.*
! Touchstone port assignment:
! Touchstone port 1 = CST MWS port 1 ("")
! Touchstone port 2 = CST MWS port 2 ("")
# GHz S RI R 50
12.66                0.379971825     0.902078795   0.000283492302 -0.000145087389   0.000283492302 -0.000145087389      0.382177369     0.901165046
12.660028            0.380403642     0.901879291   0.000283891454 -0.000145475774   0.000283891454 -0.000145475774      0.382608902     0.900964424
12.660056            0.380835706     0.901679407   0.000284291194 -0.000145865236   0.000284291193 -0.000145865236      0.383040729     0.900763401
12.660084            0.381268017     0.901479144   0.000284691523 -0.000146255774   0.000284691523 -0.000146255774      0.383472829     0.900561987
12.660112            0.381700575       0.9012785   0.000285092446  -0.00014664739   0.000285092446  -0.00014664739      0.383905182     0.900360189
12.66014             0.382133379     0.901077475   0.000285493967 -0.000147040084   0.000285493967 -0.000147040085      0.384337767     0.900158015
12.660168             0.38256643     0.900876068   0.000285896087  -0.00014743386   0.000285896087  -0.00014743386      0.384770583     0.899955464
12.660196            0.382999728      0.90067428   0.000286298804 -0.000147828722   0.000286298804 -0.000147828722      0.385203646      0.89975253
12.660224            0.383433274     0.900472108   0.000286702118 -0.000148224674   0.000286702118 -0.000148224674      0.385636955     0.899549212
12.660252            0.383867066     0.900269552   0.000287106031 -0.000148621719   0.000287106031 -0.000148621719       0.38607051     0.899345509
12.66028             0.384301106     0.900066611   0.000287510543 -0.000149019859   0.000287510543 -0.000149019859      0.386504312     0.899141421
12.660308            0.384735393     0.899863286   0.000287915656 -0.000149419099   0.000287915655   -0.0001494191       0.38693836     0.898936947
12.660336            0.385169928     0.899659574   0.000288321368 -0.000149819442   0.000288321368 -0.000149819442      0.387372654     0.898732086
12.660364            0.385604711     0.899455476   0.000288727682 -0.000150220891   0.000288727682 -0.000150220891      0.387807196     0.898526838
12.660392            0.386039742      0.89925099   0.000289134598 -0.000150623449   0.000289134598 -0.000150623449      0.388241984     0.898321202
12.66042              0.38647502     0.899046116   0.000289542117 -0.000151027119   0.000289542117 -0.000151027119      0.388677019     0.898115176
12.660448            0.386910546     0.898840853   0.000289950239 -0.000151431905   0.000289950239 -0.000151431906      0.389112301     0.897908761
12.660476            0.387346321     0.898635201   0.000290358965 -0.000151837811   0.000290358964 -0.000151837811       0.38954783     0.897701956
12.660504            0.387782344     0.898429158   0.000290768295 -0.000152244839   0.000290768295 -0.000152244839      0.389983606      0.89749476
12.660532            0.388218615     0.898222725   0.000291178231 -0.000152652993   0.000291178231 -0.000152652993       0.39041963     0.897287172
12.66056             0.388655135       0.8980159   0.000291588773 -0.000153062276   0.000291588773 -0.000153062276      0.390855901     0.897079191
12.660588            0.389091903     0.897808682   0.000291999922 -0.000153472691   0.000291999922 -0.000153472692      0.391292419     0.896870817
12.660616             0.38952892     0.897601071   0.000292411678 -0.000153884243   0.000292411678 -0.000153884243      0.391729185     0.896662049
12.660644            0.389966186     0.897393066   0.000292824042 -0.000154296934   0.000292824042 -0.000154296934      0.392166199     0.896452887
12.660672            0.390403701     0.897184666   0.000293237016 -0.000154710768   0.000293237015 -0.000154710768      0.392603461     0.896243329
12.6607              0.390841465     0.896975872   0.000293650598 -0.000155125748   0.000293650598 -0.000155125748      0.393040971     0.896033375
12.660728            0.391279478      0.89676668   0.000294064791 -0.000155541878   0.000294064791 -0.000155541878      0.393478729     0.895823024
12.660756             0.39171774     0.896557093   0.000294479594  -0.00015595916   0.000294479594 -0.000155959161      0.393916735     0.895612276
12.660784            0.392156251     0.896347107   0.000294895009   -0.0001563776   0.000294895009   -0.0001563776      0.394354989     0.895401129
12.660812            0.392595012     0.896136723   0.000295311036 -0.000156797199   0.000295311036 -0.000156797199      0.394793492     0.895189583
12.66084             0.393034023      0.89592594   0.000295727676 -0.000157217962   0.000295727676 -0.000157217962      0.395232243     0.894977637
12.660868            0.393473283     0.895714758    0.00029614493 -0.000157639891   0.000296144929 -0.000157639891      0.395671242     0.894765291
12.660896            0.393912793     0.895503175   0.000296562797 -0.000158062991   0.000296562797 -0.000158062991      0.396110491     0.894552543
12.660924            0.394352553      0.89529119    0.00029698128 -0.000158487265   0.000296981279 -0.000158487265      0.396549988     0.894339393
12.660952            0.394792563     0.895078803   0.000297400378 -0.000158912716   0.000297400377 -0.000158912716      0.396989734      0.89412584
12.66098             0.395232823     0.894866014   0.000297820092 -0.000159339349   0.000297820091 -0.000159339349      0.397429729     0.893911884
12.661008            0.395673333     0.894652821   0.000298240423 -0.000159767165   0.000298240422 -0.000159767165      0.397869973     0.893697524
12.661036            0.396114093     0.894439224   0.000298661371  -0.00016019617   0.000298661371  -0.00016019617      0.398310467     0.893482758
12.661064            0.396555104     0.894225222   0.000299082937 -0.000160626366   0.000299082937 -0.000160626367      0.398751209     0.893267587
12.661092            0.396996366     0.894010814   0.000299505123 -0.000161057758   0.000299505123 -0.000161057758      0.399192201     0.893052009
12.66112             0.397437877     0.893795999   0.000299927928 -0.000161490348   0.000299927927 -0.000161490349      0.399633443     0.892836024
12.661148             0.39787964     0.893580777   0.000300351353 -0.000161924141   0.000300351352 -0.000161924141      0.400074934     0.892619631
12.661176            0.398321654     0.893365147   0.000300775398  -0.00016235914   0.000300775398  -0.00016235914      0.400516675     0.892402829
12.661204            0.398763918     0.893149108   0.000301200065 -0.000162795348   0.000301200065 -0.000162795348      0.400958665     0.892185617
12.661232            0.399206433      0.89293266   0.000301625355 -0.000163232769   0.000301625355  -0.00016323277      0.401400906     0.891967995
12.66126               0.3996492     0.892715801   0.000302051267 -0.000163671408   0.000302051267 -0.000163671408      0.401843396     0.891749962
12.661288            0.400092218     0.892498531   0.000302477802 -0.000164111266   0.000302477802 -0.000164111267      0.402286137     0.891531517
12.661316            0.400535487     0.892280849   0.000302904961 -0.000164552349   0.000302904961  -0.00016455235      0.402729127     0.891312659
12.661344            0.400979007     0.892062754   0.000303332746  -0.00016499466   0.000303332745  -0.00016499466      0.403172368     0.891093388
12.661372            0.401422779     0.891844246   0.000303761155 -0.000165438202   0.000303761155 -0.000165438203      0.403615859     0.890873702
12.6614              0.401866803     0.891625324   0.000304190191  -0.00016588298    0.00030419019  -0.00016588298      0.404059601     0.890653602
12.661428            0.402311078     0.891405987   0.000304619853 -0.000166328997   0.000304619852 -0.000166328997      0.404503594     0.890433086
12.661456            0.402755605     0.891186234   0.000305050142 -0.000166776256   0.000305050142 -0.000166776256      0.404947837     0.890212153
12.661484            0.403200384     0.890966064   0.000305481059 -0.000167224761   0.000305481059 -0.000167224761       0.40539233     0.889990803
12.661512            0.403645415     0.890745478   0.000305912605 -0.000167674517   0.000305912605 -0.000167674517      0.405837075     0.889769035
12.66154             0.404090698     0.890524473    0.00030634478 -0.000168125527    0.00030634478 -0.000168125527       0.40628207     0.889546848
12.661568            0.404536233     0.890303049   0.000306777585 -0.000168577794   0.000306777585 -0.000168577794      0.406727317     0.889324242
12.661596            0.404982021     0.890081205    0.00030721102 -0.000169031323    0.00030721102 -0.000169031323      0.407172815     0.889101215
12.661624            0.405428061     0.889858941   0.000307645086 -0.000169486117   0.000307645086 -0.000169486117      0.407618563     0.888877767
12.661652            0.405874354     0.889636256   0.000308079784  -0.00016994218   0.000308079784  -0.00016994218      0.408064563     0.888653896
12.66168             0.406320899     0.889413148   0.000308515115 -0.000170399516   0.000308515115 -0.000170399517      0.408510815     0.888429603
12.661708            0.406767696     0.889189618   0.000308951078 -0.000170858129   0.000308951078 -0.000170858129      0.408957318     0.888204887
12.661736            0.407214747     0.888965664   0.000309387675 -0.000171318023   0.000309387675 -0.000171318023      0.409404073     0.887979746
12.661764             0.40766205     0.888741286   0.000309824906 -0.000171779201   0.000309824906 -0.000171779201      0.409851079      0.88775418
12.661792            0.408109606     0.888516483   0.000310262772 -0.000172241667   0.000310262772 -0.000172241667      0.410298337     0.887528188
12.66182             0.408557416     0.888291253   0.000310701274 -0.000172705425   0.000310701274 -0.000172705425      0.410745847     0.887301769
12.661848            0.409005478     0.888065597   0.000311140412  -0.00017317048   0.000311140411  -0.00017317048      0.411193608     0.887074923
12.661876            0.409453794     0.887839513   0.000311580186 -0.000173636834   0.000311580186 -0.000173636835      0.411641622     0.886847648
12.661904            0.409902363     0.887613001   0.000312020597 -0.000174104493   0.000312020597 -0.000174104493      0.412089888     0.886619944
12.661932            0.410351185     0.887386059   0.000312461647 -0.000174573459   0.000312461647 -0.000174573459      0.412538406      0.88639181
12.66196             0.410800261     0.887158687   0.000312903335 -0.000175043737   0.000312903335 -0.000175043738      0.412987177     0.886163245
12.661988            0.411249591     0.886930885   0.000313345662 -0.000175515331   0.000313345662 -0.000175515332      0.413436199     0.885934249
12.662016            0.411699174     0.886702651   0.000313788629 -0.000175988245   0.000313788629 -0.000175988245      0.413885474      0.88570482
12.662044            0.412149011     0.886473984   0.000314232237 -0.000176462483   0.000314232236 -0.000176462483      0.414335002     0.885474958
12.662072            0.412599101     0.886244884   0.000314676485 -0.000176938048   0.000314676485 -0.000176938048      0.414784782     0.885244662
12.6621              0.413049446      0.88601535   0.000315121375 -0.000177414945   0.000315121375 -0.000177414945      0.415234815     0.885013932
12.662128            0.413500045     0.885785381   0.000315566907 -0.000177893177   0.000315566907 -0.000177893178      0.415685101     0.884782765
12.662156            0.413950898     0.885554977   0.000316013082  -0.00017837275   0.000316013082  -0.00017837275       0.41613564     0.884551162
12.662184            0.414402005     0.885324135     0.0003164599 -0.000178853666     0.0003164599 -0.000178853667      0.416586431     0.884319122
12.662212            0.414853366     0.885092857   0.000316907362 -0.000179335931   0.000316907362 -0.000179335931      0.417037476     0.884086644
12.66224             0.415304982      0.88486114   0.000317355469 -0.000179819547   0.000317355469 -0.000179819547      0.417488774     0.883853726
12.662268            0.415756852     0.884628984   0.000317804221  -0.00018030452    0.00031780422  -0.00018030452      0.417940325     0.883620369
12.662296            0.416208977     0.884396388   0.000318253618 -0.000180790852   0.000318253618 -0.000180790853      0.418392129     0.883386572
12.662324            0.416661356     0.884163352   0.000318703662 -0.000181278549   0.000318703662  -0.00018127855      0.418844186     0.883152333
12.662352             0.41711399     0.883929874   0.000319154353 -0.000181767615   0.000319154353 -0.000181767615      0.419296497     0.882917651
12.66238             0.417566879     0.883695953   0.000319605691 -0.000182258053   0.000319605691 -0.000182258053      0.419749062     0.882682527
12.662408            0.418020022      0.88346159   0.000320057677 -0.000182749868   0.000320057677 -0.000182749868       0.42020188     0.882446958
12.662436            0.418473421     0.883226782   0.000320510312 -0.000183243064   0.000320510312 -0.000183243064      0.420654952     0.882210945
12.662464            0.418927075      0.88299153   0.000320963596 -0.000183737645   0.000320963596 -0.000183737645      0.421108277     0.881974487
12.662492            0.419380983     0.882755831    0.00032141753 -0.000184233615    0.00032141753 -0.000184233615      0.421561857     0.881737581
12.66252             0.419835147     0.882519687   0.000321872114 -0.000184730979   0.000321872114 -0.000184730979       0.42201569     0.881500229
12.662548            0.420289567     0.882283094   0.000322327349  -0.00018522974   0.000322327349  -0.00018522974      0.422469777     0.881262428
12.662576            0.420744241     0.882046054   0.000322783236 -0.000185729904   0.000322783236 -0.000185729904      0.422924118     0.881024179
12.662604            0.421199171     0.881808564   0.000323239775 -0.000186231474   0.000323239774 -0.000186231474      0.423378714     0.880785479
12.662632            0.421654357     0.881570625   0.000323696966 -0.000186734454   0.000323696966 -0.000186734454      0.423833563     0.880546329
12.66266             0.422109798     0.881332234    0.00032415481 -0.000187238849    0.00032415481 -0.000187238849      0.424288667     0.880306727
12.662688            0.422565495     0.881093392   0.000324613308 -0.000187744663   0.000324613308 -0.000187744663      0.424744025     0.880066673
12.662716            0.423021447     0.880854098   0.000325072461 -0.000188251901    0.00032507246 -0.000188251901      0.425199638     0.879826166
12.662744            0.423477656      0.88061435   0.000325532268 -0.000188760566   0.000325532268 -0.000188760566      0.425655505     0.879585205
12.662772             0.42393412     0.880374147    0.00032599273 -0.000189270664    0.00032599273 -0.000189270664      0.426111627     0.879343788
12.6628               0.42439084      0.88013349   0.000326453849 -0.000189782198   0.000326453849 -0.000189782198      0.426568003     0.879101916
12.662828            0.424847816     0.879892377   0.000326915624 -0.000190295172   0.000326915623 -0.000190295172      0.427024634     0.878859587
12.662856            0.425305049     0.879650807   0.000327378055 -0.000190809592   0.000327378055 -0.000190809592       0.42748152     0.878616801
12.662884            0.425762537     0.879408779   0.000327841145 -0.000191325461   0.000327841145 -0.000191325462       0.42793866     0.878373556
12.662912            0.426220282     0.879166293   0.000328304892 -0.000191842785   0.000328304892 -0.000191842785      0.428396056     0.878129852
12.66294             0.426678283     0.878923347   0.000328769298 -0.000192361567   0.000328769298 -0.000192361567      0.428853706     0.877885688
12.662968            0.427136541     0.878679941   0.000329234363 -0.000192881811   0.000329234363 -0.000192881811      0.429311612     0.877641062
12.662996            0.427595055     0.878436073   0.000329700088 -0.000193403523   0.000329700088 -0.000193403523      0.429769772     0.877395975
12.663024            0.428053825     0.878191744   0.000330166473 -0.000193926707   0.000330166473 -0.000193926707      0.430228188     0.877150425
12.663052            0.428512852     0.877946951   0.000330633518 -0.000194451367   0.000330633518 -0.000194451367      0.430686859     0.876904412
12.66308             0.428972136     0.877701695   0.000331101225 -0.000194977507   0.000331101225 -0.000194977507      0.431145786     0.876657934
12.663108            0.429431677     0.877455974   0.000331569594 -0.000195505133   0.000331569594 -0.000195505133      0.431604967      0.87641099
12.663136            0.429891474     0.877209788   0.000332038625 -0.000196034249   0.000332038624 -0.000196034249      0.432064405      0.87616358
12.663164            0.430351528     0.876963135   0.000332508318 -0.000196564859   0.000332508318 -0.000196564859      0.432524097     0.875915703
12.663192             0.43081184     0.876716014   0.000332978675 -0.000197096968   0.000332978675 -0.000197096968      0.432984045     0.875667358
12.66322             0.431272408     0.876468425   0.000333449695  -0.00019763058   0.000333449695  -0.00019763058      0.433444249     0.875418544
12.663248            0.431733233     0.876220368    0.00033392138   -0.0001981657    0.00033392138   -0.0001981657      0.433904709      0.87516926
12.663276            0.432194316      0.87597184   0.000334393729 -0.000198702333   0.000334393729 -0.000198702333      0.434365424     0.874919505
12.663304            0.432655655     0.875722841   0.000334866744 -0.000199240483   0.000334866744 -0.000199240483      0.434826395     0.874669279
12.663332            0.433117252      0.87547337   0.000335340425 -0.000199780155   0.000335340424 -0.000199780155      0.435287622      0.87441858
12.66336             0.433579107     0.875223427   0.000335814771 -0.000200321354   0.000335814771 -0.000200321354      0.435749105     0.874167408
12.663388            0.434041219      0.87497301   0.000336289785 -0.000200864083   0.000336289784 -0.000200864084      0.436210844     0.873915761
12.663416            0.434503588     0.874722118   0.000336765465 -0.000201408349   0.000336765465 -0.000201408349      0.436672839     0.873663639
12.663444            0.434966214     0.874470751   0.000337241813 -0.000201954155   0.000337241813 -0.000201954155       0.43713509     0.873411041
12.663472            0.435429099     0.874218907    0.00033771883 -0.000202501506    0.00033771883 -0.000202501507      0.437597597     0.873157966
12.6635              0.435892241     0.873966586   0.000338196515 -0.000203050408   0.000338196515 -0.000203050408      0.438060361     0.872904413
