! TOUCHSTONE file generated by CST MICROWAVE STUDIO
! Date and time: Wed Jul 31 10:56:20 2024
! Project name: WaveGuide_BPF-Ver4.1_U-shape_Ku_T3_C4_CWA_2.cst
! Parameters = {cavity_h=16; cavity_l0=10; cavity_l1=15.202; cavity_l2=16.8123; cavity_l3=17.14; cavity_l4=17.2793; cavity_l5=17.1533; cavity_l6=17.6235; cavity_r=2.5; cavity_screw_l=0.5; cavity_screw_r=1.5; cavity_w=8; iris_h00=0; iris_h01=8.8171; iris_h112=0; iris_h12=5.587; iris_h211=3.6586; iris_h23=5.1907; iris_h310=3.9668; iris_h34=5.0738; iris_h45=4.9178; iris_h49=4.6185; iris_h56=4.8114; iris_h58=4.4408; iris_h67=6.5906; iris_rx=0.1; iris_screw_l=0.5; iris_screw_r=1.5; iris_shift00=0; iris_shift112=0; iris_shift211=3.5; iris_shift310=0; iris_shift49=0; iris_shift58=3.5; iris_shift67=3.5; iris_tx=4.5; iris_tz=4.5; iris_w00=0; iris_w112=0; iris_w211=4; iris_w310=3.9668; iris_w49=4.6185; iris_w58=4; iris_w67=4; mesh_cavity=5; mesh_iris=7; mesh_screw=7; order=12; reset_all=0; sigma=4.8e+07}
! Header version: 2018
! Port assignment regex: !\s*Touchstone port\s*([0-9]+)\s*=\s*(CST MWS port|CST DS port)\s*([0-9]+|Zmin|Zmax)\s*\(\"(.*)\"\)(\s*mode\s*([0-9]+))?.*
! Touchstone port assignment:
! Touchstone port 1 = CST MWS port 1 ("")
! Touchstone port 2 = CST MWS port 2 ("")
# GHz S RI R 50
12.66                0.300789652     0.934822316   0.000158111878 -6.23649922e-05   0.000158111879 -6.23649926e-05      0.305550214     0.933287726
12.660028            0.301167239     0.934688484   0.000158305844 -6.25191535e-05   0.000158305845 -6.25191539e-05      0.305927516     0.933151825
12.660056            0.301545038     0.934554399   0.000158500056  -6.2673684e-05   0.000158500057 -6.26736843e-05      0.306305046     0.933015662
12.660084            0.301923044      0.93442006   0.000158694513 -6.28285836e-05   0.000158694514  -6.2828584e-05      0.306682794      0.93287924
12.660112            0.302301258     0.934285467   0.000158889218 -6.29838526e-05   0.000158889219  -6.2983853e-05      0.307060752     0.932742562
12.66014             0.302679676      0.93415062    0.00015908417  -6.3139491e-05   0.000159084171 -6.31394914e-05      0.307438908     0.932605629
12.660168              0.3030583     0.934015519   0.000159279371 -6.32954996e-05   0.000159279372    -6.32955e-05      0.307817264     0.932468443
12.660196            0.303437131     0.933880163   0.000159474819   -6.345188e-05    0.00015947482 -6.34518804e-05      0.308195826        0.932331
12.660224            0.303816168     0.933744552   0.000159670516  -6.3608633e-05   0.000159670516 -6.36086334e-05      0.308574594       0.9321933
12.660252            0.304195412     0.933608686    0.00015986646 -6.37657596e-05   0.000159866461   -6.376576e-05      0.308953568     0.932055343
12.66028             0.304574862     0.933472563   0.000160062654 -6.39232607e-05   0.000160062654 -6.39232611e-05      0.309332749     0.931917128
12.660308             0.30495452     0.933336183   0.000160259096 -6.40811372e-05   0.000160259096 -6.40811375e-05      0.309712136     0.931778654
12.660336            0.305334385     0.933199546   0.000160455787   -6.423939e-05   0.000160455787 -6.42393903e-05       0.31009173     0.931639921
12.660364            0.305714458     0.933062652   0.000160652727   -6.439802e-05   0.000160652728 -6.43980203e-05      0.310471531      0.93150093
12.660392            0.306094738       0.9329255   0.000160849916 -6.45570281e-05   0.000160849917 -6.45570285e-05      0.310851538     0.931361678
12.66042             0.306475225      0.93278809   0.000161047356 -6.47164154e-05   0.000161047356 -6.47164158e-05      0.311231752     0.931222167
12.660448             0.30685592     0.932650421   0.000161245045 -6.48761826e-05   0.000161245045  -6.4876183e-05      0.311612174     0.931082395
12.660476            0.307236823     0.932512493   0.000161442984 -6.50363308e-05   0.000161442985 -6.50363312e-05      0.311992803     0.930942362
12.660504            0.307617934     0.932374305   0.000161641173 -6.51968609e-05   0.000161641174 -6.51968613e-05      0.312373639     0.930802068
12.660532            0.307999253     0.932235857   0.000161839613 -6.53577738e-05   0.000161839614 -6.53577742e-05      0.312754682     0.930661512
12.66056              0.30838078     0.932097149   0.000162038304 -6.55190704e-05   0.000162038305 -6.55190708e-05      0.313135933     0.930520694
12.660588            0.308762516     0.931958179   0.000162237246 -6.56807517e-05   0.000162237246 -6.56807521e-05      0.313517392     0.930379613
12.660616            0.309144459     0.931818948   0.000162436439 -6.58428186e-05   0.000162436439  -6.5842819e-05      0.313899059     0.930238269
12.660644            0.309526612     0.931679456   0.000162635883 -6.60052721e-05   0.000162635884 -6.60052725e-05      0.314280933     0.930096661
12.660672            0.309908973     0.931539701   0.000162835579 -6.61681131e-05   0.000162835579 -6.61681135e-05      0.314663016     0.929954789
12.6607              0.310291543     0.931399684   0.000163035526 -6.63313426e-05   0.000163035527 -6.63313429e-05      0.315045307     0.929812653
12.660728            0.310674321     0.931259403   0.000163235726 -6.64949614e-05   0.000163235727 -6.64949618e-05      0.315427806     0.929670252
12.660756            0.311057309     0.931118859   0.000163436178 -6.66589707e-05   0.000163436179  -6.6658971e-05      0.315810514     0.929527585
12.660784            0.311440506     0.930978051   0.000163636882 -6.68233712e-05   0.000163636883 -6.68233716e-05       0.31619343     0.929384653
12.660812            0.311823912     0.930836978    0.00016383784  -6.6988164e-05    0.00016383784 -6.69881644e-05      0.316576555     0.929241454
12.66084             0.312207528      0.93069564    0.00016403905 -6.71533501e-05    0.00016403905 -6.71533505e-05      0.316959888     0.929097989
12.660868            0.312591353     0.930554038   0.000164240513 -6.73189303e-05   0.000164240513 -6.73189307e-05      0.317343431     0.928954257
12.660896            0.312975388     0.930412169   0.000164442229 -6.74849057e-05    0.00016444223 -6.74849061e-05      0.317727183     0.928810257
12.660924            0.313359632     0.930270034   0.000164644199 -6.76512773e-05     0.0001646442 -6.76512776e-05      0.318111143     0.928665989
12.660952            0.313744087     0.930127632   0.000164846423 -6.78180459e-05   0.000164846423 -6.78180463e-05      0.318495313     0.928521452
12.66098             0.314128751     0.929984964     0.0001650489 -6.79852126e-05   0.000165048901  -6.7985213e-05      0.318879693     0.928376647
12.661008            0.314513625     0.929842027   0.000165251632 -6.81527783e-05   0.000165251633 -6.81527787e-05      0.319264282     0.928231572
12.661036             0.31489871     0.929698823   0.000165454618 -6.83207441e-05   0.000165454619 -6.83207445e-05       0.31964908     0.928086227
12.661064            0.315284005      0.92955535   0.000165657859 -6.84891108e-05    0.00016565786 -6.84891112e-05      0.320034089     0.927940612
12.661092            0.315669511     0.929411608   0.000165861355 -6.86578795e-05   0.000165861356 -6.86578799e-05      0.320419307     0.927794726
12.66112             0.316055227     0.929267597   0.000166065105 -6.88270512e-05   0.000166065106 -6.88270516e-05      0.320804735     0.927648569
12.661148            0.316441154     0.929123316   0.000166269111 -6.89966268e-05   0.000166269112 -6.89966272e-05      0.321190373      0.92750214
12.661176            0.316827292     0.928978764   0.000166473372 -6.91666074e-05   0.000166473373 -6.91666078e-05      0.321576222      0.92735544
12.661204            0.317213641     0.928833942   0.000166677889 -6.93369939e-05    0.00016667789 -6.93369942e-05      0.321962281     0.927208466
12.661232            0.317600201     0.928688849   0.000166882662 -6.95077872e-05   0.000166882663 -6.95077876e-05       0.32234855      0.92706122
12.66126             0.317986972     0.928543484   0.000167087691 -6.96789885e-05   0.000167087691 -6.96789889e-05       0.32273503       0.9269137
12.661288            0.318373954     0.928397847   0.000167292976 -6.98505987e-05   0.000167292976 -6.98505991e-05      0.323121721     0.926765906
12.661316            0.318761148     0.928251937   0.000167498517 -7.00226188e-05   0.000167498518 -7.00226192e-05      0.323508622     0.926617838
12.661344            0.319148554     0.928105754   0.000167704315 -7.01950498e-05   0.000167704316 -7.01950502e-05      0.323895735     0.926469494
12.661372            0.319536171     0.927959298    0.00016791037 -7.03678928e-05   0.000167910371 -7.03678932e-05      0.324283058     0.926320876
12.6614                 0.319924     0.927812567   0.000168116682 -7.05411486e-05   0.000168116683  -7.0541149e-05      0.324670593     0.926171981
12.661428            0.320312041     0.927665563   0.000168323251 -7.07148184e-05   0.000168323252 -7.07148188e-05      0.325058339      0.92602281
12.661456            0.320700294     0.927518283   0.000168530078 -7.08889031e-05   0.000168530078 -7.08889035e-05      0.325446297     0.925873363
12.661484            0.321088759     0.927370728   0.000168737162 -7.10634037e-05   0.000168737163 -7.10634041e-05      0.325834466     0.925723638
12.661512            0.321477437     0.927222897   0.000168944504 -7.12383214e-05   0.000168944505 -7.12383217e-05      0.326222846     0.925573636
12.66154             0.321866326      0.92707479   0.000169152104  -7.1413657e-05   0.000169152105 -7.14136574e-05      0.326611439     0.925423355
12.661568            0.322255429     0.926926406   0.000169359963 -7.15894116e-05   0.000169359964  -7.1589412e-05      0.327000243     0.925272796
12.661596            0.322644744     0.926777745    0.00016956808 -7.17655863e-05    0.00016956808 -7.17655866e-05      0.327389259     0.925121957
12.661624            0.323034272     0.926628806   0.000169776455  -7.1942182e-05   0.000169776456 -7.19421824e-05      0.327778488      0.92497084
12.661652            0.323424013     0.926479589    0.00016998509 -7.21191998e-05    0.00016998509 -7.21192002e-05      0.328167929     0.924819442
12.66168             0.323813966     0.926330093   0.000170193983 -7.22966407e-05   0.000170193984 -7.22966411e-05      0.328557582     0.924667763
12.661708            0.324204133     0.926180318   0.000170403136 -7.24745058e-05   0.000170403136 -7.24745062e-05      0.328947447     0.924515804
12.661736            0.324594513     0.926030264   0.000170612548 -7.26527961e-05   0.000170612548 -7.26527965e-05      0.329337526     0.924363563
12.661764            0.324985107     0.925879929   0.000170822219 -7.28315126e-05    0.00017082222  -7.2831513e-05      0.329727816      0.92421104
12.661792            0.325375914     0.925729314   0.000171032151 -7.30106563e-05   0.000171032152 -7.30106567e-05       0.33011832     0.924058234
12.66182             0.325766935     0.925578418   0.000171242342 -7.31902284e-05   0.000171242343 -7.31902288e-05      0.330509037     0.923905146
12.661848            0.326158169     0.925427241   0.000171452794 -7.33702299e-05   0.000171452795 -7.33702303e-05      0.330899967     0.923751774
12.661876            0.326549617     0.925275781   0.000171663506 -7.35506617e-05   0.000171663507 -7.35506621e-05       0.33129111     0.923598119
12.661904            0.326941279     0.925124039   0.000171874479  -7.3731525e-05    0.00017187448 -7.37315254e-05      0.331682466     0.923444179
12.661932            0.327333156     0.924972014   0.000172085712 -7.39128208e-05   0.000172085713 -7.39128212e-05      0.332074036     0.923289954
12.66196             0.327725246     0.924819706   0.000172297207 -7.40945502e-05   0.000172297207 -7.40945506e-05      0.332465819     0.923135444
12.661988            0.328117551     0.924667114   0.000172508962 -7.42767142e-05   0.000172508963 -7.42767146e-05      0.332857816     0.922980648
12.662016             0.32851007     0.924514237   0.000172720979  -7.4459314e-05    0.00017272098 -7.44593144e-05      0.333250027     0.922825566
12.662044            0.328902804     0.924361076   0.000172933257 -7.46423504e-05   0.000172933258 -7.46423508e-05      0.333642451     0.922670197
12.662072            0.329295752     0.924207629   0.000173145797 -7.48258247e-05   0.000173145798 -7.48258251e-05       0.33403509     0.922514541
12.6621              0.329688916     0.924053896   0.000173358599 -7.50097378e-05     0.0001733586 -7.50097383e-05      0.334427943     0.922358597
12.662128            0.330082294     0.923899877   0.000173571663  -7.5194091e-05   0.000173571664 -7.51940914e-05       0.33482101     0.922202364
12.662156            0.330475887     0.923745571   0.000173784989 -7.53788851e-05    0.00017378499 -7.53788855e-05      0.335214291     0.922045843
12.662184            0.330869695     0.923590978   0.000173998578 -7.55641214e-05   0.000173998579 -7.55641218e-05      0.335607787     0.921889033
12.662212            0.331263719     0.923436098   0.000174212429 -7.57498008e-05    0.00017421243 -7.57498012e-05      0.336001497     0.921731933
12.66224             0.331657958     0.923280928   0.000174426543 -7.59359245e-05   0.000174426544 -7.59359249e-05      0.336395422     0.921574543
12.662268            0.332052412     0.923125471    0.00017464092 -7.61224936e-05   0.000174640921  -7.6122494e-05      0.336789562     0.921416862
12.662296            0.332447082     0.922969723   0.000174855561 -7.63095091e-05   0.000174855561 -7.63095095e-05      0.337183917      0.92125889
12.662324            0.332841968     0.922813687   0.000175070464 -7.64969721e-05   0.000175070465 -7.64969725e-05      0.337578487     0.921100627
12.662352             0.33323707     0.922657359   0.000175285631 -7.66848838e-05   0.000175285632 -7.66848842e-05      0.337973272     0.920942071
12.66238             0.333632388     0.922500741   0.000175501062 -7.68732451e-05   0.000175501063 -7.68732456e-05      0.338368272     0.920783222
12.662408            0.334027921     0.922343832   0.000175716756 -7.70620573e-05   0.000175716757 -7.70620577e-05      0.338763488      0.92062408
12.662436            0.334423671     0.922186632   0.000175932715 -7.72513214e-05   0.000175932716 -7.72513218e-05      0.339158919     0.920464645
12.662464            0.334819637     0.922029138   0.000176148938 -7.74410385e-05   0.000176148938 -7.74410389e-05      0.339554566     0.920304915
12.662492             0.33521582     0.921871353   0.000176365425 -7.76312097e-05   0.000176365425 -7.76312101e-05      0.339950429     0.920144891
12.66252             0.335612219     0.921713274   0.000176582176 -7.78218361e-05   0.000176582177 -7.78218365e-05      0.340346507     0.919984571
12.662548            0.336008835     0.921554901   0.000176799193 -7.80129189e-05   0.000176799194 -7.80129193e-05      0.340742801     0.919823956
12.662576            0.336405668     0.921396234   0.000177016474 -7.82044591e-05   0.000177016475 -7.82044595e-05      0.341139312     0.919663045
12.662604            0.336802717     0.921237272    0.00017723402 -7.83964579e-05   0.000177234021 -7.83964583e-05      0.341536039     0.919501836
12.662632            0.337199984     0.921078015   0.000177451832 -7.85889163e-05   0.000177451833 -7.85889167e-05      0.341932982     0.919340331
12.66266             0.337597467     0.920918462   0.000177669909 -7.87818356e-05    0.00017766991  -7.8781836e-05      0.342330141     0.919178528
12.662688            0.337995168     0.920758614   0.000177888251 -7.89752167e-05   0.000177888252 -7.89752171e-05      0.342727517     0.919016426
12.662716            0.338393086     0.920598468    0.00017810686 -7.91690609e-05    0.00017810686 -7.91690614e-05       0.34312511     0.918854026
12.662744            0.338791222     0.920438025   0.000178325734 -7.93633693e-05   0.000178325734 -7.93633697e-05      0.343522919     0.918691327
12.662772            0.339189575     0.920277284   0.000178544874  -7.9558143e-05   0.000178544875 -7.95581434e-05      0.343920945     0.918528328
12.6628              0.339588146     0.920116245    0.00017876428 -7.97533832e-05   0.000178764281 -7.97533836e-05      0.344319188     0.918365028
12.662828            0.339986935     0.919954907   0.000178983953 -7.99490909e-05   0.000178983954 -7.99490913e-05      0.344717649     0.918201428
12.662856            0.340385942      0.91979327   0.000179203892 -8.01452673e-05   0.000179203893 -8.01452677e-05      0.345116326     0.918037526
12.662884            0.340785167     0.919631333   0.000179424098 -8.03419135e-05   0.000179424099  -8.0341914e-05      0.345515221     0.917873323
12.662912            0.341184609     0.919469096   0.000179644571 -8.05390308e-05   0.000179644572 -8.05390312e-05      0.345914333     0.917708817
12.66294             0.341584271     0.919306558   0.000179865311 -8.07366202e-05   0.000179865312 -8.07366206e-05      0.346313663     0.917544009
12.662968             0.34198415     0.919143718   0.000180086318 -8.09346829e-05   0.000180086319 -8.09346834e-05      0.346713211     0.917378897
12.662996            0.342384248     0.918980577   0.000180307592 -8.11332201e-05   0.000180307593 -8.11332205e-05      0.347112976     0.917213481
12.663024            0.342784565     0.918817133   0.000180529134 -8.13322329e-05   0.000180529135 -8.13322333e-05      0.347512959     0.917047761
12.663052              0.3431851     0.918653386   0.000180750943 -8.15317224e-05   0.000180750944 -8.15317228e-05       0.34791316     0.916881735
12.66308             0.343585854     0.918489336    0.00018097302 -8.17316898e-05   0.000180973021 -8.17316902e-05      0.348313579     0.916715405
12.663108            0.343986827     0.918324982   0.000181195366 -8.19321363e-05   0.000181195366 -8.19321367e-05      0.348714217     0.916548768
12.663136             0.34438802     0.918160323   0.000181417979 -8.21330631e-05    0.00018141798 -8.21330635e-05      0.349115073     0.916381825
12.663164            0.344789431      0.91799536    0.00018164086 -8.23344713e-05   0.000181640861 -8.23344717e-05      0.349516147     0.916214574
12.663192            0.345191062     0.917830091    0.00018186401  -8.2536362e-05   0.000181864011 -8.25363625e-05       0.34991744     0.916047016
12.66322             0.345592912     0.917664515   0.000182087428 -8.27387366e-05   0.000182087429  -8.2738737e-05      0.350318951      0.91587915
12.663248            0.345994981     0.917498634   0.000182311115  -8.2941596e-05   0.000182311116 -8.29415964e-05      0.350720681     0.915710976
12.663276            0.346397271     0.917332445   0.000182535071 -8.31449416e-05   0.000182535072  -8.3144942e-05      0.351122631     0.915542492
12.663304             0.34679978     0.917165948   0.000182759296 -8.33487745e-05   0.000182759297 -8.33487749e-05      0.351524799     0.915373699
12.663332            0.347202508     0.916999144    0.00018298379 -8.35530958e-05   0.000182983791 -8.35530962e-05      0.351927186     0.915204595
12.66336             0.347605457      0.91683203   0.000183208553 -8.37579068e-05   0.000183208554 -8.37579073e-05      0.352329792      0.91503518
12.663388            0.348008626     0.916664608   0.000183433586 -8.39632087e-05   0.000183433586 -8.39632091e-05      0.352732618     0.914865455
12.663416            0.348412015     0.916496875   0.000183658888 -8.41690026e-05   0.000183658888 -8.41690031e-05      0.353135663     0.914695417
12.663444            0.348815624     0.916328833   0.000183884459 -8.43752898e-05    0.00018388446 -8.43752903e-05      0.353538928     0.914525067
12.663472            0.349219454     0.916160479   0.000184110301 -8.45820714e-05   0.000184110302 -8.45820719e-05      0.353942412     0.914354404
12.6635              0.349623504     0.915991814   0.000184336412 -8.47893487e-05   0.000184336413 -8.47893491e-05      0.354346116     0.914183428
