! TOUCHSTONE file generated by CST MICROWAVE STUDIO
! Date and time: Wed Jul 31 11:02:37 2024
! Project name: WaveGuide_BPF-Ver4.1_U-shape_Ku_T3_C4_CWA_2.cst
! Parameters = {cavity_h=16; cavity_l0=10; cavity_l1=15.2337; cavity_l2=16.8358; cavity_l3=17.1113; cavity_l4=17.2346; cavity_l5=17.087; cavity_l6=17.6054; cavity_r=2.5; cavity_screw_l=0.5; cavity_screw_r=1.5; cavity_w=8; iris_h00=0; iris_h01=8.8258; iris_h112=0; iris_h12=5.5951; iris_h211=3.6652; iris_h23=5.2112; iris_h310=3.9671; iris_h34=5.0743; iris_h45=4.9257; iris_h49=4.615; iris_h56=4.8067; iris_h58=4.4428; iris_h67=6.5663; iris_rx=0.1; iris_screw_l=0.5; iris_screw_r=1.5; iris_shift00=0; iris_shift112=0; iris_shift211=3.5; iris_shift310=0; iris_shift49=0; iris_shift58=3.5; iris_shift67=3.5; iris_tx=4.5; iris_tz=4.5; iris_w00=0; iris_w112=0; iris_w211=4; iris_w310=3.9671; iris_w49=4.615; iris_w58=4; iris_w67=4; mesh_cavity=5; mesh_iris=7; mesh_screw=7; order=12; reset_all=0; sigma=4.8e+07}
! Header version: 2018
! Port assignment regex: !\s*Touchstone port\s*([0-9]+)\s*=\s*(CST MWS port|CST DS port)\s*([0-9]+|Zmin|Zmax)\s*\(\"(.*)\"\)(\s*mode\s*([0-9]+))?.*
! Touchstone port assignment:
! Touchstone port 1 = CST MWS port 1 ("")
! Touchstone port 2 = CST MWS port 2 ("")
# GHz S RI R 50
12.66                0.471660913     0.853879672   0.000269473063 -0.000177492241   0.000269473063 -0.000177492241      0.481629186     0.848038596
12.660028            0.472137004     0.853594009   0.000269806674 -0.000177943196   0.000269806674 -0.000177943196      0.482108934     0.847742919
12.660056            0.472613412     0.853307781   0.000270140604 -0.000178395333   0.000270140604 -0.000178395332      0.482588915     0.847446705
12.660084              0.4730901     0.853021007    0.00027047486 -0.000178848649   0.000270474861 -0.000178848649      0.483069128     0.847149952
12.660112            0.473567031     0.852733705   0.000270809449 -0.000179303146   0.000270809449 -0.000179303146      0.483549569     0.846852662
12.66014             0.474044169     0.852445893   0.000271144378 -0.000179758822   0.000271144378 -0.000179758822      0.484030237     0.846554834
12.660168            0.474521513     0.852157572   0.000271479645 -0.000180215681   0.000271479646 -0.000180215681      0.484511132     0.846256467
12.660196            0.474999088     0.851868727   0.000271815248 -0.000180673729   0.000271815248 -0.000180673728      0.484992255     0.845957559
12.660224            0.475476894     0.851579356   0.000272151184 -0.000181132968   0.000272151184 -0.000181132967      0.485473605     0.845658111
12.660252            0.475954931      0.85128946   0.000272487453 -0.000181593401   0.000272487454 -0.000181593401      0.485955184      0.84535812
12.66028             0.476433198     0.850999036   0.000272824056 -0.000182055033   0.000272824057 -0.000182055033       0.48643699     0.845057585
12.660308            0.476911696     0.850708085   0.000273160992 -0.000182517867   0.000273160993 -0.000182517867      0.486919023     0.844756507
12.660336            0.477390424     0.850416605   0.000273498261 -0.000182981905   0.000273498261 -0.000182981905      0.487401285     0.844454883
12.660364            0.477869383     0.850124595   0.000273835862 -0.000183447151   0.000273835862 -0.000183447151      0.487883773     0.844152713
12.660392            0.478348572     0.849832055   0.000274173795 -0.000183913608   0.000274173795 -0.000183913608      0.488366489     0.843849996
12.66042             0.478827991     0.849538983   0.000274512059  -0.00018438128   0.000274512059  -0.00018438128      0.488849433      0.84354673
12.660448            0.479307641     0.849245378   0.000274850655  -0.00018485017   0.000274850655  -0.00018485017      0.489332603     0.843242916
12.660476             0.47978752      0.84895124   0.000275189582 -0.000185320281   0.000275189582 -0.000185320281         0.489816     0.842938551
12.660504             0.48026763     0.848656567   0.000275528839 -0.000185791616   0.000275528839 -0.000185791616      0.490299625     0.842633635
12.660532             0.48074797     0.848361359   0.000275868426 -0.000186264179   0.000275868426 -0.000186264179      0.490783476     0.842328167
12.66056             0.481228539     0.848065615   0.000276208343 -0.000186737973   0.000276208344 -0.000186737973      0.491267554     0.842022146
12.660588            0.481709339     0.847769333    0.00027654859 -0.000187213002    0.00027654859 -0.000187213002      0.491751859     0.841715572
12.660616            0.482190368     0.847472513   0.000276889166 -0.000187689268   0.000276889166 -0.000187689268       0.49223639     0.841408441
12.660644            0.482671627     0.847175153    0.00027723007 -0.000188166776   0.000277230071 -0.000188166776      0.492721147     0.841100755
12.660672            0.483153115     0.846877254   0.000277571303 -0.000188645528   0.000277571303 -0.000188645528      0.493206131     0.840792512
12.6607              0.483634833     0.846578813   0.000277912864 -0.000189125529   0.000277912864 -0.000189125529      0.493691341     0.840483711
12.660728             0.48411678      0.84627983   0.000278254752  -0.00018960678   0.000278254752  -0.00018960678      0.494176777     0.840174351
12.660756            0.484598957     0.845980303   0.000278596967 -0.000190089287   0.000278596967 -0.000190089287      0.494662439     0.839864431
12.660784            0.485081363     0.845680233   0.000278939509 -0.000190573051   0.000278939509 -0.000190573051      0.495148327     0.839553949
12.660812            0.485563998     0.845379618   0.000279282377 -0.000191058078   0.000279282377 -0.000191058078      0.495634441     0.839242906
12.66084             0.486046862     0.845078456   0.000279625571 -0.000191544369   0.000279625571 -0.000191544369       0.49612078       0.8389313
12.660868            0.486529955     0.844776747    0.00027996909 -0.000192031929    0.00027996909 -0.000192031929      0.496607345     0.838619129
12.660896            0.487013277     0.844474491   0.000280312934 -0.000192520761   0.000280312934  -0.00019252076      0.497094136     0.838306394
12.660924            0.487496827     0.844171685   0.000280657103 -0.000193010868   0.000280657103 -0.000193010868      0.497581151     0.837993092
12.660952            0.487980607     0.843868329   0.000281001596 -0.000193502254   0.000281001596 -0.000193502254      0.498068392     0.837679223
12.66098             0.488464614     0.843564422   0.000281346412 -0.000193994922   0.000281346413 -0.000193994922      0.498555858     0.837364787
12.661008            0.488948851     0.843259964   0.000281691552 -0.000194488876   0.000281691552 -0.000194488876      0.499043549     0.837049781
12.661036            0.489433316     0.842954952   0.000282037015  -0.00019498412   0.000282037015  -0.00019498412      0.499531465     0.836734205
12.661064            0.489918009     0.842649386   0.000282382799 -0.000195480656     0.0002823828 -0.000195480656      0.500019605     0.836418057
12.661092             0.49040293     0.842343266   0.000282728906 -0.000195978489   0.000282728906 -0.000195978489       0.50050797     0.836101338
12.66112             0.490888079     0.842036589   0.000283075334 -0.000196477622   0.000283075334 -0.000196477622      0.500996559     0.835784046
12.661148            0.491373457     0.841729356   0.000283422082 -0.000196978058   0.000283422083 -0.000196978058      0.501485373     0.835466179
12.661176            0.491859062     0.841421564   0.000283769151 -0.000197479801   0.000283769152 -0.000197479801      0.501974411     0.835147737
12.661204            0.492344895     0.841113214    0.00028411654 -0.000197982855    0.00028411654 -0.000197982855      0.502463673     0.834828718
12.661232            0.492830955     0.840804303   0.000284464248 -0.000198487223   0.000284464249 -0.000198487222      0.502953159     0.834509123
12.66126             0.493317244     0.840494832   0.000284812275 -0.000198992908   0.000284812276 -0.000198992908      0.503442868     0.834188948
12.661288            0.493803759     0.840184799   0.000285160621 -0.000199499915   0.000285160621 -0.000199499915      0.503932802     0.833868195
12.661316            0.494290502     0.839874202   0.000285509284 -0.000200008246   0.000285509284 -0.000200008246      0.504422958     0.833546861
12.661344            0.494777472     0.839563042   0.000285858264 -0.000200517907   0.000285858265 -0.000200517906      0.504913338     0.833224946
12.661372             0.49526467     0.839251317   0.000286207562 -0.000201028899   0.000286207562 -0.000201028899      0.505403942     0.832902448
12.6614              0.495752094     0.838939025   0.000286557175 -0.000201541227   0.000286557175 -0.000201541227      0.505894768     0.832579366
12.661428            0.496239745     0.838626167   0.000286907104 -0.000202054894   0.000286907104 -0.000202054894      0.506385818       0.8322557
12.661456            0.496727623     0.838312741   0.000287257348 -0.000202569904   0.000287257349 -0.000202569904       0.50687709     0.831931448
12.661484            0.497215728     0.837998745   0.000287607907 -0.000203086262   0.000287607908 -0.000203086261      0.507368585      0.83160661
12.661512            0.497704059      0.83768418    0.00028795878 -0.000203603969   0.000287958781 -0.000203603969      0.507860303     0.831281184
12.66154             0.498192617     0.837369043   0.000288309967  -0.00020412303   0.000288309967  -0.00020412303      0.508352243     0.830955168
12.661568            0.498681401     0.837053334   0.000288661466 -0.000204643449   0.000288661466 -0.000204643449      0.508844405     0.830628564
12.661596            0.499170411     0.836737052   0.000289013278  -0.00020516523   0.000289013278  -0.00020516523      0.509336789     0.830301368
12.661624            0.499659647     0.836420196   0.000289365401 -0.000205688375   0.000289365401 -0.000205688375      0.509829395      0.82997358
12.661652            0.500149109     0.836102764   0.000289717836  -0.00020621289   0.000289717836  -0.00020621289      0.510322223     0.829645199
12.66168             0.500638797     0.835784757   0.000290070581 -0.000206738777   0.000290070581 -0.000206738776      0.510815273     0.829316224
12.661708            0.501128711     0.835466171   0.000290423636  -0.00020726604   0.000290423636  -0.00020726604      0.511308544     0.828986653
12.661736             0.50161885     0.835147008      0.000290777 -0.000207794683      0.000290777 -0.000207794683      0.511802036     0.828656487
12.661764            0.502109214     0.834827265   0.000291130673  -0.00020832471   0.000291130673  -0.00020832471       0.51229575     0.828325723
12.661792            0.502599804     0.834506942   0.000291484654 -0.000208856125   0.000291484655 -0.000208856125      0.512789684     0.827994361
12.66182             0.503090619     0.834186037   0.000291838943 -0.000209388931   0.000291838943  -0.00020938893       0.51328384     0.827662399
12.661848            0.503581659      0.83386455   0.000292193539 -0.000209923132   0.000292193539 -0.000209923131      0.513778216     0.827329837
12.661876            0.504072924     0.833542479    0.00029254844 -0.000210458732   0.000292548441 -0.000210458731      0.514272812     0.826996673
12.661904            0.504564414     0.833219824   0.000292903648 -0.000210995734   0.000292903648 -0.000210995734      0.514767629     0.826662906
12.661932            0.505056128     0.832896582    0.00029325916 -0.000211534144    0.00029325916 -0.000211534143      0.515262666     0.826328535
12.66196             0.505548067     0.832572754   0.000293614976 -0.000212073963   0.000293614977 -0.000212073963      0.515757923      0.82599356
12.661988             0.50604023     0.832248339   0.000293971096 -0.000212615197   0.000293971097 -0.000212615197        0.5162534     0.825657979
12.662016            0.506532617     0.831923334   0.000294327519 -0.000213157849    0.00029432752 -0.000213157849      0.516749097      0.82532179
12.662044            0.507025228      0.83159774   0.000294684245 -0.000213701923   0.000294684245 -0.000213701923      0.517245013     0.824984993
12.662072            0.507518063     0.831271554   0.000295041271 -0.000214247422   0.000295041272 -0.000214247422      0.517741149     0.824647588
12.6621              0.508011122     0.830944777   0.000295398599 -0.000214794352   0.000295398599 -0.000214794352      0.518237504     0.824309571
12.662128            0.508504405     0.830617406   0.000295756226 -0.000215342715   0.000295756227 -0.000215342715      0.518734077     0.823970944
12.662156            0.508997911     0.830289441   0.000296114154 -0.000215892515   0.000296114154 -0.000215892515       0.51923087     0.823631703
12.662184             0.50949164     0.829960881   0.000296472379 -0.000216443757    0.00029647238 -0.000216443757      0.519727881      0.82329185
12.662212            0.509985592     0.829631725   0.000296830903 -0.000216996444   0.000296830904 -0.000216996444      0.520225111     0.822951381
12.66224             0.510479768     0.829301971   0.000297189724 -0.000217550581   0.000297189725  -0.00021755058      0.520722558     0.822610297
12.662268            0.510974166     0.828971619   0.000297548842  -0.00021810617   0.000297548842  -0.00021810617      0.521220224     0.822268595
12.662296            0.511468787     0.828640667   0.000297908256 -0.000218663217   0.000297908256 -0.000218663217      0.521718108     0.821926276
12.662324            0.511963631     0.828309114   0.000298267964 -0.000219221725   0.000298267964 -0.000219221725       0.52221621     0.821583337
12.662352            0.512458696      0.82797696   0.000298627967 -0.000219781698   0.000298627967 -0.000219781698      0.522714529     0.821239778
12.66238             0.512953984     0.827644203   0.000298988263  -0.00022034314   0.000298988263  -0.00022034314      0.523213065     0.820895597
12.662408            0.513449495     0.827310842   0.000299348852 -0.000220906055   0.000299348852 -0.000220906055      0.523711819     0.820550794
12.662436            0.513945227     0.826976876   0.000299709733 -0.000221470447   0.000299709733 -0.000221470447      0.524210789     0.820205368
12.662464             0.51444118     0.826642304   0.000300070905 -0.000222036321   0.000300070906 -0.000222036321      0.524709977     0.819859316
12.662492            0.514937356     0.826307125   0.000300432368 -0.000222603679   0.000300432368 -0.000222603679       0.52520938     0.819512639
12.66252             0.515433752     0.825971338    0.00030079412 -0.000223172527    0.00030079412 -0.000223172527         0.525709     0.819165334
12.662548             0.51593037     0.825634941   0.000301156161 -0.000223742868   0.000301156161 -0.000223742868      0.526208837     0.818817402
12.662576            0.516427209     0.825297934    0.00030151849 -0.000224314707    0.00030151849 -0.000224314707      0.526708889      0.81846884
12.662604            0.516924269     0.824960315   0.000301881106 -0.000224888046   0.000301881106 -0.000224888046      0.527209157     0.818119647
12.662632             0.51742155     0.824622083   0.000302244008 -0.000225462892   0.000302244008 -0.000225462892      0.527709641     0.817769824
12.66266             0.517919051     0.824283238   0.000302607196 -0.000226039247   0.000302607196 -0.000226039246       0.52821034     0.817419367
12.662688            0.518416772     0.823943778   0.000302970668 -0.000226617115   0.000302970669 -0.000226617115      0.528711254     0.817068276
12.662716            0.518914714     0.823603702   0.000303334424 -0.000227196502   0.000303334425 -0.000227196501      0.529212383     0.816716551
12.662744            0.519412876     0.823263008   0.000303698463  -0.00022777741   0.000303698464  -0.00022777741      0.529713726     0.816364189
12.662772            0.519911257     0.822921697   0.000304062784 -0.000228359844   0.000304062785 -0.000228359844      0.530215285      0.81601119
12.6628              0.520409858     0.822579766   0.000304427387 -0.000228943809   0.000304427387 -0.000228943809      0.530717057     0.815657553
12.662828            0.520908679     0.822237214   0.000304792269 -0.000229529308   0.000304792269 -0.000229529308      0.531219044     0.815303276
12.662856            0.521407719     0.821894041   0.000305157431 -0.000230116346   0.000305157431 -0.000230116346      0.531721244     0.814948358
12.662884            0.521906978     0.821550245   0.000305522871 -0.000230704926   0.000305522872 -0.000230704926      0.532223658     0.814592799
12.662912            0.522406455     0.821205826   0.000305888589 -0.000231295054   0.000305888589 -0.000231295053      0.532726286     0.814236596
12.66294             0.522906152     0.820860781   0.000306254584 -0.000231886732   0.000306254584 -0.000231886732      0.533229126     0.813879749
12.662968            0.523406067     0.820515111   0.000306620854 -0.000232479966   0.000306620854 -0.000232479966       0.53373218     0.813522257
12.662996              0.5239062     0.820168813   0.000306987399  -0.00023307476   0.000306987399  -0.00023307476      0.534235447     0.813164118
12.663024            0.524406552     0.819821886   0.000307354217 -0.000233671117   0.000307354218 -0.000233671117      0.534738926     0.812805331
12.663052            0.524907121     0.819474331   0.000307721309 -0.000234269043    0.00030772131 -0.000234269043      0.535242617     0.812445896
12.66308             0.525407908     0.819126144   0.000308088673 -0.000234868541   0.000308088673 -0.000234868541       0.53574652     0.812085811
12.663108            0.525908913     0.818777326   0.000308456307 -0.000235469616   0.000308456308 -0.000235469616      0.536250635     0.811725074
12.663136            0.526410135     0.818427875   0.000308824212 -0.000236072272   0.000308824212 -0.000236072271      0.536754962     0.811363685
12.663164            0.526911574     0.818077789   0.000309192385 -0.000236676513   0.000309192386 -0.000236676512        0.5372595     0.811001642
12.663192             0.52741323     0.817727069   0.000309560827 -0.000237282343   0.000309560827 -0.000237282343      0.537764249     0.810638944
12.66322             0.527915102     0.817375712   0.000309929535 -0.000237889768   0.000309929536 -0.000237889768      0.538269209     0.810275591
12.663248            0.528417192     0.817023718    0.00031029851 -0.000238498791    0.00031029851  -0.00023849879       0.53877438     0.809911581
12.663276            0.528919497     0.816671085   0.000310667749 -0.000239109416    0.00031066775 -0.000239109416      0.539279761     0.809546912
12.663304            0.529422019     0.816317812   0.000311037253 -0.000239721648   0.000311037253 -0.000239721648      0.539785352     0.809181583
12.663332            0.529924756     0.815963898   0.000311407019 -0.000240335492   0.000311407019 -0.000240335492      0.540291153     0.808815594
12.66336             0.530427709     0.815609341   0.000311777047 -0.000240950951   0.000311777047 -0.000240950951      0.540797164     0.808448943
12.663388            0.530930878     0.815254142   0.000312147336 -0.000241568031   0.000312147336 -0.000241568031      0.541303384     0.808081629
12.663416            0.531434262     0.814898298   0.000312517885 -0.000242186735   0.000312517885 -0.000242186735      0.541809814     0.807713651
12.663444            0.531937861     0.814541808   0.000312888692 -0.000242807068   0.000312888692 -0.000242807068      0.542316452     0.807345007
12.663472            0.532441674     0.814184672   0.000313259757 -0.000243429034   0.000313259757 -0.000243429034      0.542823299     0.806975696
12.6635              0.532945702     0.813826887   0.000313631078 -0.000244052638   0.000313631079 -0.000244052638      0.543330354     0.806605718
