! TOUCHSTONE file generated by CST MICROWAVE STUDIO
! Date and time: Wed Jul 31 11:11:57 2024
! Project name: WaveGuide_BPF-Ver4.1_U-shape_Ku_T3_C4_CWA_2.cst
! Parameters = {cavity_h=16; cavity_l0=10; cavity_l1=15.2331; cavity_l2=16.8315; cavity_l3=17.075; cavity_l4=17.2262; cavity_l5=17.1717; cavity_l6=17.5674; cavity_r=2.5; cavity_screw_l=0.5; cavity_screw_r=1.5; cavity_w=8; iris_h00=0; iris_h01=8.8; iris_h112=0; iris_h12=5.5911; iris_h211=3.6651; iris_h23=5.1931; iris_h310=3.9734; iris_h34=5.0731; iris_h45=4.9357; iris_h49=4.6165; iris_h56=4.8003; iris_h58=4.4447; iris_h67=6.5792; iris_rx=0.1; iris_screw_l=0.5; iris_screw_r=1.5; iris_shift00=0; iris_shift112=0; iris_shift211=3.5; iris_shift310=0; iris_shift49=0; iris_shift58=3.5; iris_shift67=3.5; iris_tx=4.5; iris_tz=4.5; iris_w00=0; iris_w112=0; iris_w211=4; iris_w310=3.9734; iris_w49=4.6165; iris_w58=4; iris_w67=4; mesh_cavity=5; mesh_iris=7; mesh_screw=7; order=12; reset_all=0; sigma=4.8e+07}
! Header version: 2018
! Port assignment regex: !\s*Touchstone port\s*([0-9]+)\s*=\s*(CST MWS port|CST DS port)\s*([0-9]+|Zmin|Zmax)\s*\(\"(.*)\"\)(\s*mode\s*([0-9]+))?.*
! Touchstone port assignment:
! Touchstone port 1 = CST MWS port 1 ("")
! Touchstone port 2 = CST MWS port 2 ("")
# GHz S RI R 50
12.66                0.362025228     0.909955498   0.000222473063 -0.000107539024   0.000222473063 -0.000107539025      0.366974741     0.907702045
12.660028            0.362450271     0.909770068   0.000222767346 -0.000107819001   0.000222767346 -0.000107819001      0.367406172     0.907510921
12.660056            0.362875629     0.909584256   0.000223062009 -0.000108099731   0.000223062009 -0.000108099731      0.367837966     0.907319385
12.660084            0.363301269     0.909398074   0.000223357061 -0.000108381206   0.000223357061 -0.000108381206       0.36827007     0.907127456
12.660112            0.363727156     0.909211536   0.000223652511 -0.000108663422   0.000223652511 -0.000108663422      0.368702432     0.906935155
12.66014             0.364153258     0.909024652    0.00022394837 -0.000108946372    0.00022394837 -0.000108946372         0.369135     0.906742502
12.660168            0.364579576     0.908837424   0.000224244638 -0.000109230057   0.000224244638 -0.000109230057      0.369567772     0.906549496
12.660196             0.36500613      0.90864984   0.000224541309 -0.000109514486   0.000224541309 -0.000109514486      0.370000784     0.906356123
12.660224            0.365432922     0.908461902   0.000224838383 -0.000109799661   0.000224838383 -0.000109799661      0.370434037     0.906162383
12.660252            0.365859951     0.908273607   0.000225135861 -0.000110085583   0.000225135861 -0.000110085583      0.370867531     0.905968273
12.66028             0.366287218     0.908084956   0.000225433743 -0.000110372255   0.000225433743 -0.000110372255      0.371301265     0.905773795
12.660308            0.366714722     0.907895947   0.000225732029 -0.000110659678   0.000225732029 -0.000110659679      0.371735239     0.905578947
12.660336            0.367142464     0.907706581   0.000226030721 -0.000110947856   0.000226030721 -0.000110947856      0.372169455     0.905383729
12.660364            0.367570444     0.907516857   0.000226329818  -0.00011123679   0.000226329818  -0.00011123679      0.372603912      0.90518814
12.660392            0.367998662     0.907326773    0.00022662932 -0.000111526481    0.00022662932 -0.000111526481      0.373038609     0.904992179
12.66042             0.368427117      0.90713633   0.000226929228 -0.000111816933   0.000226929228 -0.000111816933      0.373473548     0.904795845
12.660448            0.368855811     0.906945526   0.000227229543 -0.000112108147   0.000227229543 -0.000112108147      0.373908728     0.904599138
12.660476            0.369284744     0.906754361   0.000227530265 -0.000112400126   0.000227530264 -0.000112400126      0.374344149     0.904402058
12.660504            0.369713914     0.906562835   0.000227831393 -0.000112692871   0.000227831393 -0.000112692871      0.374779811     0.904204603
12.660532            0.370143323     0.906370946   0.000228132929 -0.000112986385   0.000228132929 -0.000112986385      0.375215715     0.904006774
12.66056              0.37057297     0.906178695   0.000228434873  -0.00011328067   0.000228434873  -0.00011328067       0.37565186     0.903808568
12.660588            0.371002856      0.90598608   0.000228737226 -0.000113575727   0.000228737226 -0.000113575728      0.376088247     0.903609986
12.660616            0.371432981       0.9057931   0.000229039987  -0.00011387156   0.000229039987  -0.00011387156      0.376524876     0.903411027
12.660644            0.371863344     0.905599756   0.000229343157 -0.000114168171   0.000229343157 -0.000114168171      0.376961746     0.903211691
12.660672            0.372293946     0.905406047   0.000229646736  -0.00011446556   0.000229646736  -0.00011446556      0.377398858     0.903011976
12.6607              0.372724787     0.905211971   0.000229950725 -0.000114763732   0.000229950725 -0.000114763732      0.377836213     0.902811882
12.660728            0.373155867     0.905017528   0.000230255124 -0.000115062687   0.000230255124 -0.000115062687      0.378273809     0.902611408
12.660756            0.373587187     0.904822718   0.000230559934 -0.000115362428   0.000230559934 -0.000115362429      0.378711647     0.902410553
12.660784            0.374018745      0.90462754   0.000230865154 -0.000115662958   0.000230865154 -0.000115662958      0.379149727     0.902209318
12.660812            0.374450543     0.904431993   0.000231170786 -0.000115964278   0.000231170786 -0.000115964278       0.37958805     0.902007701
12.66084              0.37488258     0.904236077   0.000231476829 -0.000116266391   0.000231476829 -0.000116266391      0.380026615     0.901805701
12.660868            0.375314857      0.90403979   0.000231783284 -0.000116569298   0.000231783284 -0.000116569298      0.380465423     0.901603318
12.660896            0.375747373     0.903843133   0.000232090151 -0.000116873003   0.000232090151 -0.000116873003      0.380904473     0.901400552
12.660924            0.376180129     0.903646105   0.000232397431 -0.000117177507   0.000232397431 -0.000117177507      0.381343765       0.9011974
12.660952            0.376613125     0.903448704   0.000232705124 -0.000117482812   0.000232705124 -0.000117482812      0.381783301     0.900993864
12.66098             0.377046361     0.903250931    0.00023301323 -0.000117788921    0.00023301323 -0.000117788921      0.382223079     0.900789942
12.661008            0.377479836     0.903052785    0.00023332175 -0.000118095836    0.00023332175 -0.000118095837        0.3826631     0.900585633
12.661036            0.377913552     0.902854264   0.000233630684  -0.00011840356   0.000233630684  -0.00011840356      0.383103364     0.900380937
12.661064            0.378347508     0.902655369   0.000233940032 -0.000118712094   0.000233940032 -0.000118712094       0.38354387     0.900175853
12.661092            0.378781703     0.902456098   0.000234249795 -0.000119021441   0.000234249795 -0.000119021441       0.38398462      0.89997038
12.66112              0.37921614     0.902256451   0.000234559974 -0.000119331603   0.000234559974 -0.000119331603      0.384425613     0.899764518
12.661148            0.379650816     0.902056428   0.000234870567 -0.000119642582   0.000234870567 -0.000119642582      0.384866849     0.899558266
12.661176            0.380085733     0.901856027   0.000235181577 -0.000119954381   0.000235181577 -0.000119954381      0.385308329     0.899351623
12.661204            0.380520891     0.901655248   0.000235493002 -0.000120267002   0.000235493002 -0.000120267002      0.385750052     0.899144589
12.661232            0.380956289     0.901454091   0.000235804844 -0.000120580447   0.000235804844 -0.000120580447      0.386192018     0.898937163
12.66126             0.381391928     0.901252554   0.000236117103 -0.000120894719   0.000236117103 -0.000120894719      0.386634228     0.898729344
12.661288            0.381827807     0.901050637   0.000236429779 -0.000121209819   0.000236429779 -0.000121209819      0.387076682     0.898521131
12.661316            0.382263928     0.900848339   0.000236742873 -0.000121525751   0.000236742873 -0.000121525751      0.387519379     0.898312524
12.661344            0.382700289      0.90064566   0.000237056384 -0.000121842516   0.000237056384 -0.000121842516       0.38796232     0.898103522
12.661372            0.383136892     0.900442599   0.000237370314 -0.000122160118   0.000237370314 -0.000122160118      0.388405505     0.897894125
12.6614              0.383573735     0.900239155   0.000237684662 -0.000122478557   0.000237684662 -0.000122478557      0.388848933     0.897684331
12.661428             0.38401082     0.900035327   0.000237999429 -0.000122797837   0.000237999429 -0.000122797837      0.389292606      0.89747414
12.661456            0.384448147     0.899831115   0.000238314615 -0.000123117959   0.000238314615  -0.00012311796      0.389736523     0.897263551
12.661484            0.384885714     0.899626519   0.000238630221 -0.000123438927   0.000238630221 -0.000123438927      0.390180683     0.897052564
12.661512            0.385323523     0.899421537   0.000238946247 -0.000123760743   0.000238946247 -0.000123760743      0.390625088     0.896841177
12.66154             0.385761574     0.899216168   0.000239262693 -0.000124083409   0.000239262693 -0.000124083409      0.391069738     0.896629391
12.661568            0.386199866     0.899010413   0.000239579559 -0.000124406927   0.000239579559 -0.000124406927      0.391514631     0.896417204
12.661596              0.3866384      0.89880427   0.000239896846 -0.000124731299   0.000239896846   -0.0001247313      0.391959769     0.896204615
12.661624            0.387077175     0.898597739   0.000240214555 -0.000125056529   0.000240214555  -0.00012505653      0.392405152     0.895991625
12.661652            0.387516193     0.898390819   0.000240532685 -0.000125382619   0.000240532685 -0.000125382619      0.392850779     0.895778232
12.66168             0.387955452      0.89818351   0.000240851237 -0.000125709571   0.000240851236 -0.000125709571       0.39329665     0.895564435
12.661708            0.388394953     0.897975809    0.00024117021 -0.000126037387    0.00024117021 -0.000126037387      0.393742767     0.895350234
12.661736            0.388834697     0.897767718   0.000241489607 -0.000126366069   0.000241489607 -0.000126366069      0.394189128     0.895135628
12.661764            0.389274683     0.897559235   0.000241809426 -0.000126695621   0.000241809426 -0.000126695622      0.394635734     0.894920616
12.661792             0.38971491      0.89735036   0.000242129669 -0.000127026045   0.000242129668 -0.000127026045      0.395082584     0.894705198
12.66182             0.390155381     0.897141091   0.000242450334 -0.000127357343   0.000242450334 -0.000127357343       0.39552968     0.894489373
12.661848            0.390596093     0.896931429   0.000242771424 -0.000127689518   0.000242771424 -0.000127689518      0.395977021      0.89427314
12.661876            0.391037048     0.896721371   0.000243092938 -0.000128022571   0.000243092937 -0.000128022572      0.396424607     0.894056498
12.661904            0.391478246     0.896510919   0.000243414876 -0.000128356507   0.000243414876 -0.000128356507      0.396872438     0.893839447
12.661932            0.391919686     0.896300071   0.000243737238 -0.000128691326   0.000243737238 -0.000128691326      0.397320514     0.893621986
12.66196             0.392361369     0.896088825   0.000244060026 -0.000129027032   0.000244060026 -0.000129027032      0.397768835     0.893404114
12.661988            0.392803295     0.895877183   0.000244383239 -0.000129363626   0.000244383239 -0.000129363626      0.398217402      0.89318583
12.662016            0.393245463     0.895665142   0.000244706878 -0.000129701113   0.000244706878 -0.000129701113      0.398666214     0.892967134
12.662044            0.393687875     0.895452702   0.000245030942 -0.000130039493   0.000245030942 -0.000130039493      0.399115272     0.892748026
12.662072            0.394130529     0.895239863   0.000245355433  -0.00013037877   0.000245355433  -0.00013037877      0.399564575     0.892528503
12.6621              0.394573427     0.895026624   0.000245680351 -0.000130718945   0.000245680351 -0.000130718946      0.400014124     0.892308566
12.662128            0.395016567     0.894812983   0.000246005695 -0.000131060023   0.000246005695 -0.000131060023      0.400463918     0.892088213
12.662156            0.395459951     0.894598941   0.000246331466 -0.000131402004   0.000246331466 -0.000131402004      0.400913958     0.891867445
12.662184            0.395903578     0.894384497   0.000246657665 -0.000131744892   0.000246657665 -0.000131744893      0.401364244      0.89164626
12.662212            0.396347449     0.894169649   0.000246984292  -0.00013208869   0.000246984291  -0.00013208869      0.401814776     0.891424657
12.66224             0.396791562     0.893954397   0.000247311346 -0.000132433399   0.000247311346 -0.000132433399      0.402265553     0.891202636
12.662268             0.39723592     0.893738741   0.000247638829 -0.000132779022   0.000247638829 -0.000132779022      0.402716577     0.890980196
12.662296             0.39768052     0.893522679    0.00024796674 -0.000133125563    0.00024796674 -0.000133125563      0.403167846     0.890757336
12.662324            0.398125365     0.893306212   0.000248295081 -0.000133473023   0.000248295081 -0.000133473023      0.403619362     0.890534056
12.662352            0.398570453     0.893089337    0.00024862385 -0.000133821404    0.00024862385 -0.000133821405      0.404071123     0.890310354
12.66238             0.399015785     0.892872055   0.000248953049 -0.000134170711   0.000248953049 -0.000134170711      0.404523131      0.89008623
12.662408            0.399461361     0.892654365   0.000249282678 -0.000134520945   0.000249282678 -0.000134520945      0.404975385     0.889861684
12.662436             0.39990718     0.892436266   0.000249612737 -0.000134872109   0.000249612737 -0.000134872109      0.405427886     0.889636714
12.662464            0.400353244     0.892217757   0.000249943226 -0.000135224205   0.000249943226 -0.000135224205      0.405880632     0.889411319
12.662492            0.400799551     0.891998837   0.000250274146 -0.000135577236   0.000250274145 -0.000135577237      0.406333625       0.8891855
12.66252             0.401246103     0.891779506   0.000250605496 -0.000135931206   0.000250605496 -0.000135931206      0.406786865     0.888959254
12.662548            0.401692899     0.891559764   0.000250937278 -0.000136286115   0.000250937278 -0.000136286115      0.407240351     0.888732582
12.662576            0.402139939     0.891339608   0.000251269491 -0.000136641968   0.000251269491 -0.000136641968      0.407694083     0.888505483
12.662604            0.402587223      0.89111904   0.000251602136 -0.000136998766   0.000251602136 -0.000136998766      0.408148063     0.888277955
12.662632            0.403034751     0.890898057   0.000251935213 -0.000137356513   0.000251935212 -0.000137356513      0.408602288     0.888049999
12.66266             0.403482524     0.890676659   0.000252268722 -0.000137715211   0.000252268721 -0.000137715211      0.409056761     0.887821613
12.662688            0.403930542     0.890454845   0.000252602663 -0.000138074863   0.000252602663 -0.000138074863       0.40951148     0.887592796
12.662716            0.404378804     0.890232615   0.000252937037 -0.000138435471   0.000252937037 -0.000138435471      0.409966446     0.887363548
12.662744             0.40482731     0.890009968   0.000253271845 -0.000138797038   0.000253271844 -0.000138797038      0.410421659     0.887133868
12.662772            0.405276061     0.889786903   0.000253607085 -0.000139159567   0.000253607085 -0.000139159567      0.410877119     0.886903755
12.6628              0.405725057     0.889563419   0.000253942759 -0.000139523061   0.000253942759 -0.000139523061      0.411332826     0.886673208
12.662828            0.406174298     0.889339516   0.000254278867 -0.000139887522   0.000254278867 -0.000139887522       0.41178878     0.886442227
12.662856            0.406623783     0.889115193   0.000254615409 -0.000140252953   0.000254615409 -0.000140252953       0.41224498     0.886210811
12.662884            0.407073513     0.888890448   0.000254952385 -0.000140619356   0.000254952385 -0.000140619356      0.412701428     0.885978959
12.662912            0.407523489     0.888665282   0.000255289796 -0.000140986736   0.000255289796 -0.000140986736      0.413158123      0.88574667
12.66294             0.407973709     0.888439694   0.000255627641 -0.000141355093   0.000255627641 -0.000141355093      0.413615065     0.885513943
12.662968            0.408424174     0.888213682   0.000255965922 -0.000141724432   0.000255965922 -0.000141724432      0.414072255     0.885280779
12.662996            0.408874884     0.887987246   0.000256304638 -0.000142094754   0.000256304638 -0.000142094754      0.414529692     0.885047175
12.663024             0.40932584     0.887760386   0.000256643789 -0.000142466063   0.000256643789 -0.000142466063      0.414987376     0.884813131
12.663052            0.409777041       0.8875331   0.000256983376 -0.000142838361   0.000256983376 -0.000142838361      0.415445307     0.884578646
12.66308             0.410228487     0.887305387     0.0002573234 -0.000143211652   0.000257323399 -0.000143211652      0.415903486      0.88434372
12.663108            0.410680178     0.887077248   0.000257663859 -0.000143585937   0.000257663859 -0.000143585937      0.416361912     0.884108352
12.663136            0.411132114     0.886848681   0.000258004755  -0.00014396122   0.000258004755 -0.000143961221      0.416820585      0.88387254
12.663164            0.411584297     0.886619685   0.000258346087 -0.000144337504   0.000258346087 -0.000144337504      0.417279506     0.883636285
12.663192            0.412036724      0.88639026   0.000258687857 -0.000144714792   0.000258687857 -0.000144714792      0.417738675     0.883399584
12.66322             0.412489397     0.886160404   0.000259030064 -0.000145093085   0.000259030063 -0.000145093085      0.418198091     0.883162438
12.663248            0.412942316     0.885930118   0.000259372708 -0.000145472388   0.000259372707 -0.000145472388      0.418657755     0.882924846
12.663276             0.41339548       0.8856994   0.000259715789 -0.000145852703   0.000259715789 -0.000145852703      0.419117667     0.882686807
12.663304             0.41384889     0.885468249   0.000260059309 -0.000146234032   0.000260059309 -0.000146234032      0.419577826      0.88244832
12.663332            0.414302546     0.885236665   0.000260403266 -0.000146616379   0.000260403266 -0.000146616379      0.420038233     0.882209384
12.66336             0.414756447     0.885004647   0.000260747662 -0.000146999747   0.000260747662 -0.000146999747      0.420498888     0.881969998
12.663388            0.415210594     0.884772195   0.000261092496 -0.000147384139   0.000261092496 -0.000147384139       0.42095979     0.881730162
12.663416            0.415664988     0.884539306   0.000261437769 -0.000147769556   0.000261437769 -0.000147769556      0.421420941     0.881489874
12.663444            0.416119627     0.884305981   0.000261783481 -0.000148156003   0.000261783481 -0.000148156003      0.421882339     0.881249135
12.663472            0.416574512     0.884072219   0.000262129632 -0.000148543483   0.000262129632 -0.000148543483      0.422343985     0.881007943
12.6635              0.417029643     0.883838019   0.000262476222 -0.000148931997   0.000262476222 -0.000148931997      0.422805879     0.880766297
