! TOUCHSTONE file generated by CST MICROWAVE STUDIO
! Date and time: Wed Jul 31 11:15:01 2024
! Project name: WaveGuide_BPF-Ver4.1_U-shape_Ku_T3_C4_CWA_2.cst
! Parameters = {cavity_h=16; cavity_l0=10; cavity_l1=15.1973; cavity_l2=16.8712; cavity_l3=17.1036; cavity_l4=17.2289; cavity_l5=17.1058; cavity_l6=17.6267; cavity_r=2.5; cavity_screw_l=0.5; cavity_screw_r=1.5; cavity_w=8; iris_h00=0; iris_h01=8.8418; iris_h112=0; iris_h12=5.6121; iris_h211=3.6618; iris_h23=5.1924; iris_h310=3.9652; iris_h34=5.0843; iris_h45=4.9296; iris_h49=4.6235; iris_h56=4.7978; iris_h58=4.4415; iris_h67=6.5742; iris_rx=0.1; iris_screw_l=0.5; iris_screw_r=1.5; iris_shift00=0; iris_shift112=0; iris_shift211=3.5; iris_shift310=0; iris_shift49=0; iris_shift58=3.5; iris_shift67=3.5; iris_tx=4.5; iris_tz=4.5; iris_w00=0; iris_w112=0; iris_w211=4; iris_w310=3.9652; iris_w49=4.6235; iris_w58=4; iris_w67=4; mesh_cavity=5; mesh_iris=7; mesh_screw=7; order=12; reset_all=0; sigma=4.8e+07}
! Header version: 2018
! Port assignment regex: !\s*Touchstone port\s*([0-9]+)\s*=\s*(CST MWS port|CST DS port)\s*([0-9]+|Zmin|Zmax)\s*\(\"(.*)\"\)(\s*mode\s*([0-9]+))?.*
! Touchstone port assignment:
! Touchstone port 1 = CST MWS port 1 ("")
! Touchstone port 2 = CST MWS port 2 ("")
# GHz S RI R 50
12.66                0.422985537     0.880877942    0.00036067939 -0.000210891818    0.00036067939 -0.000210891818      0.428675027     0.878045356
12.660028            0.423441418     0.880637917   0.000361207904 -0.000211473381   0.000361207904 -0.000211473381      0.429132546     0.877800657
12.660056            0.423897548      0.88039744   0.000361737226 -0.000212056626   0.000361737226 -0.000212056626      0.429590296     0.877555506
12.660084            0.424353934     0.880156505   0.000362267354 -0.000212641562   0.000362267355 -0.000212641562      0.430048291     0.877309895
12.660112            0.424810581     0.879915109   0.000362798285 -0.000213228196   0.000362798285 -0.000213228196      0.430506546     0.877063817
12.66014             0.425267497     0.879673249   0.000363330013 -0.000213816538   0.000363330014 -0.000213816538      0.430965072     0.876817265
12.660168            0.425724682     0.879430924   0.000363862542 -0.000214406591   0.000363862542 -0.000214406591      0.431423871     0.876570238
12.660196             0.42618213     0.879188133   0.000364395873  -0.00021499836   0.000364395873  -0.00021499836      0.431882933     0.876322738
12.660224            0.426639843     0.878944878   0.000364930008  -0.00021559185   0.000364930008  -0.00021559185      0.432342258     0.876074766
12.660252            0.427097821     0.878701156   0.000365464948 -0.000216187067   0.000365464948 -0.000216187067      0.432801848      0.87582632
12.66028             0.427556063     0.878456966   0.000366000693 -0.000216784016   0.000366000694 -0.000216784016      0.433261701     0.875577399
12.660308             0.42801457     0.878212309   0.000366537245 -0.000217382703   0.000366537245 -0.000217382703      0.433721818     0.875328002
12.660336            0.428473342     0.877967182   0.000367074604 -0.000217983133   0.000367074604 -0.000217983133      0.434182199     0.875078129
12.660364            0.428932379     0.877721585    0.00036761277 -0.000218585312    0.00036761277 -0.000218585312      0.434642844     0.874827778
12.660392             0.42939168     0.877475517   0.000368151745 -0.000219189245   0.000368151745 -0.000219189245      0.435103754     0.874576949
12.66042             0.429851247     0.877228978    0.00036869153 -0.000219794937    0.00036869153 -0.000219794937      0.435564927      0.87432564
12.660448            0.430311079     0.876981965   0.000369232124 -0.000220402395   0.000369232124 -0.000220402395      0.436026365     0.874073851
12.660476            0.430771176     0.876734479    0.00036977353 -0.000221011624    0.00036977353 -0.000221011624      0.436488067     0.873821581
12.660504            0.431231539     0.876486518   0.000370315747  -0.00022162263   0.000370315747  -0.00022162263      0.436950034     0.873568828
12.660532            0.431692167     0.876238081   0.000370858777 -0.000222235418   0.000370858777 -0.000222235418      0.437412265     0.873315592
12.66056             0.432153061     0.875989168    0.00037140262 -0.000222849994    0.00037140262 -0.000222849994      0.437874761     0.873061872
12.660588             0.43261422     0.875739777   0.000371947277 -0.000223466364   0.000371947277 -0.000223466364      0.438337522     0.872807667
12.660616            0.433075646     0.875489908   0.000372492748 -0.000224084533   0.000372492749 -0.000224084533      0.438800547     0.872552975
12.660644            0.433537337     0.875239559   0.000373039036 -0.000224704507   0.000373039036 -0.000224704507      0.439263838     0.872297797
12.660672            0.433999294      0.87498873   0.000373586139 -0.000225326293   0.000373586139 -0.000225326293      0.439727393      0.87204213
12.6607              0.434461517      0.87473742    0.00037413406 -0.000225949894    0.00037413406 -0.000225949894      0.440191214     0.871785975
12.660728            0.434924007     0.874485627   0.000374682798 -0.000226575319   0.000374682799 -0.000226575318        0.4406553      0.87152933
12.660756            0.435386762     0.874233351   0.000375232355 -0.000227202571   0.000375232355 -0.000227202571      0.441119651     0.871272193
12.660784            0.435849784     0.873980591   0.000375782732 -0.000227831657   0.000375782732 -0.000227831657      0.441584267     0.871014565
12.660812            0.436313073     0.873727346   0.000376333928 -0.000228462584   0.000376333928 -0.000228462584      0.442049149     0.870756444
12.66084             0.436776628     0.873473615   0.000376885945 -0.000229095356   0.000376885945 -0.000229095356      0.442514296     0.870497829
12.660868            0.437240449     0.873219397   0.000377438783  -0.00022972998   0.000377438783  -0.00022972998      0.442979709     0.870238719
12.660896            0.437704538      0.87296469   0.000377992444 -0.000230366462   0.000377992444 -0.000230366462      0.443445388     0.869979113
12.660924            0.438168893     0.872709495   0.000378546927 -0.000231004807   0.000378546927 -0.000231004807      0.443911332     0.869719011
12.660952            0.438633515      0.87245381   0.000379102234 -0.000231645021   0.000379102235 -0.000231645021      0.444377542     0.869458411
12.66098             0.439098404     0.872197633   0.000379658366 -0.000232287111   0.000379658366 -0.000232287111      0.444844018     0.869197312
12.661008             0.43956356     0.871940965   0.000380215323 -0.000232931083   0.000380215323 -0.000232931083       0.44531076     0.868935713
12.661036            0.440028983     0.871683804   0.000380773105 -0.000233576942   0.000380773105 -0.000233576941      0.445777768     0.868673614
12.661064            0.440494673     0.871426149   0.000381331714 -0.000234224694   0.000381331714 -0.000234224694      0.446245043     0.868411012
12.661092            0.440960631     0.871167999    0.00038189115 -0.000234874346    0.00038189115 -0.000234874346      0.446712583     0.868147908
12.66112             0.441426856     0.870909354   0.000382451414 -0.000235525904   0.000382451414 -0.000235525904       0.44718039     0.867884301
12.661148            0.441893348     0.870650211   0.000383012506 -0.000236179373   0.000383012506 -0.000236179373      0.447648463     0.867620188
12.661176            0.442360109     0.870390571   0.000383574428  -0.00023683476   0.000383574428  -0.00023683476      0.448116803      0.86735557
12.661204            0.442827136     0.870130432    0.00038413718 -0.000237492071    0.00038413718 -0.000237492071      0.448585409     0.867090445
12.661232            0.443294432     0.869869793   0.000384700762 -0.000238151313   0.000384700762 -0.000238151313      0.449054281     0.866824812
12.66126             0.443761995     0.869608653   0.000385265176  -0.00023881249   0.000385265176  -0.00023881249      0.449523421     0.866558671
12.661288            0.444229827     0.869347011   0.000385830421 -0.000239475611   0.000385830421 -0.000239475611      0.449992827      0.86629202
12.661316            0.444697926     0.869084867     0.0003863965  -0.00024014068     0.0003863965  -0.00024014068        0.4504625     0.866024857
12.661344            0.445166293     0.868822219   0.000386963411 -0.000240807704   0.000386963411 -0.000240807704      0.450932439     0.865757184
12.661372            0.445634928     0.868559066   0.000387531157 -0.000241476689   0.000387531157 -0.000241476689      0.451402646     0.865488997
12.6614              0.446103832     0.868295407   0.000388099737 -0.000242147642   0.000388099737 -0.000242147642       0.45187312     0.865220296
12.661428            0.446573004     0.868031241   0.000388669152 -0.000242820569   0.000388669153 -0.000242820569       0.45234386     0.864951081
12.661456            0.447042444     0.867766568   0.000389239404 -0.000243495476   0.000389239404 -0.000243495476      0.452814868     0.864681349
12.661484            0.447512153     0.867501385   0.000389810492  -0.00024417237   0.000389810492  -0.00024417237      0.453286143     0.864411101
12.661512             0.44798213     0.867235693   0.000390382417 -0.000244851257   0.000390382417 -0.000244851257      0.453757686     0.864140334
12.66154             0.448452376      0.86696949    0.00039095518 -0.000245532143   0.000390955181 -0.000245532143      0.454229495     0.863869049
12.661568             0.44892289     0.866702775   0.000391528782 -0.000246215035   0.000391528782 -0.000246215035      0.454701572     0.863597243
12.661596            0.449393674     0.866435547   0.000392103223 -0.000246899939   0.000392103223 -0.000246899939      0.455173917     0.863324917
12.661624            0.449864726     0.866167805   0.000392678503 -0.000247586862   0.000392678504 -0.000247586862      0.455646529     0.863052068
12.661652            0.450336047     0.865899548   0.000393254624  -0.00024827581   0.000393254624  -0.00024827581      0.456119409     0.862778696
12.66168             0.450807637     0.865630775   0.000393831586  -0.00024896679   0.000393831586  -0.00024896679      0.456592556       0.8625048
12.661708            0.451279495     0.865361485    0.00039440939 -0.000249659808    0.00039440939 -0.000249659808      0.457065971     0.862230378
12.661736            0.451751624     0.865091677   0.000394988035 -0.000250354871   0.000394988036 -0.000250354871      0.457539654     0.861955431
12.661764            0.452224021     0.864821349   0.000395567524 -0.000251051985   0.000395567524 -0.000251051985      0.458013604     0.861679955
12.661792            0.452696687     0.864550502   0.000396147856 -0.000251751158   0.000396147856 -0.000251751158      0.458487823     0.861403952
12.66182             0.453169623     0.864279133   0.000396729032 -0.000252452395   0.000396729032 -0.000252452395      0.458962309     0.861127418
12.661848            0.453642828     0.864007242   0.000397311052 -0.000253155703   0.000397311052 -0.000253155703      0.459437063     0.860850355
12.661876            0.454116302     0.863734828   0.000397893918  -0.00025386109   0.000397893918  -0.00025386109      0.459912086     0.860572759
12.661904            0.454590046     0.863461889   0.000398477629 -0.000254568561   0.000398477629 -0.000254568561      0.460387376     0.860294631
12.661932             0.45506406     0.863188425   0.000399062186 -0.000255278123   0.000399062187 -0.000255278123      0.460862935     0.860015969
12.66196             0.455538343     0.862914434   0.000399647591 -0.000255989784   0.000399647591 -0.000255989784      0.461338762     0.859736772
12.661988            0.456012896     0.862639916   0.000400233843 -0.000256703549   0.000400233843 -0.000256703549      0.461814857      0.85945704
12.662016            0.456487719     0.862364869   0.000400820943 -0.000257419427   0.000400820943 -0.000257419427      0.462291221      0.85917677
12.662044            0.456962811     0.862089292   0.000401408891 -0.000258137422   0.000401408891 -0.000258137422      0.462767853     0.858895962
12.662072            0.457438174     0.861813185   0.000401997688 -0.000258857544   0.000401997688 -0.000258857544      0.463244753     0.858614615
12.6621              0.457913806     0.861536546   0.000402587335 -0.000259579797   0.000402587335 -0.000259579797      0.463721922     0.858332728
12.662128            0.458389708     0.861259374   0.000403177833  -0.00026030419   0.000403177833  -0.00026030419      0.464199359     0.858050299
12.662156            0.458865881     0.860981668    0.00040376918 -0.000261030728    0.00040376918 -0.000261030728      0.464677065     0.857767328
12.662184            0.459342323     0.860703427   0.000404361379  -0.00026175942   0.000404361379  -0.00026175942      0.465155039     0.857483814
12.662212            0.459819036      0.86042465    0.00040495443 -0.000262490271    0.00040495443 -0.000262490271      0.465633282     0.857199754
12.66224             0.460296019     0.860145335   0.000405548333  -0.00026322329   0.000405548333  -0.00026322329      0.466111794     0.856915149
12.662268            0.460773272     0.859865483   0.000406143089 -0.000263958482   0.000406143089 -0.000263958482      0.466590575     0.856629998
12.662296            0.461250796     0.859585091   0.000406738698 -0.000264695856   0.000406738698 -0.000264695856      0.467069624     0.856344298
12.662324             0.46172859     0.859304158    0.00040733516 -0.000265435417    0.00040733516 -0.000265435417      0.467548942     0.856058049
12.662352            0.462206654     0.859022684   0.000407932477 -0.000266177174   0.000407932477 -0.000266177174       0.46802853      0.85577125
12.66238             0.462684989     0.858740667   0.000408530649 -0.000266921132   0.000408530649 -0.000266921132      0.468508386       0.8554839
12.662408            0.463163594     0.858458107   0.000409129675 -0.000267667301   0.000409129675 -0.000267667301       0.46898851     0.855195997
12.662436             0.46364247     0.858175001   0.000409729558 -0.000268415685   0.000409729558 -0.000268415685      0.469468904     0.854907541
12.662464            0.464121617      0.85789135   0.000410330296 -0.000269166294   0.000410330296 -0.000269166294      0.469949567     0.854618531
12.662492            0.464601034     0.857607151   0.000410931891 -0.000269919133   0.000410931891 -0.000269919133      0.470430499     0.854328964
12.66252             0.465080723     0.857322405   0.000411534343  -0.00027067421   0.000411534343  -0.00027067421      0.470911701     0.854038841
12.662548            0.465560682     0.857037109   0.000412137653 -0.000271431533   0.000412137653 -0.000271431533      0.471393171     0.853748159
12.662576            0.466040911     0.856751263    0.00041274182 -0.000272191109    0.00041274182 -0.000272191109       0.47187491     0.853456919
12.662604            0.466521412     0.856464865   0.000413346846 -0.000272952944   0.000413346846 -0.000272952944      0.472356919     0.853165118
12.662632            0.467002184     0.856177914    0.00041395273 -0.000273717047    0.00041395273 -0.000273717047      0.472839197     0.852872756
12.66266             0.467483226      0.85589041   0.000414559474 -0.000274483425   0.000414559474 -0.000274483425      0.473321744     0.852579832
12.662688             0.46796454     0.855602351   0.000415167077 -0.000275252085   0.000415167077 -0.000275252085      0.473804561     0.852286343
12.662716            0.468446125     0.855313736   0.000415775541 -0.000276023034   0.000415775541 -0.000276023034      0.474287647      0.85199229
12.662744            0.468927981     0.855024563   0.000416384864  -0.00027679628   0.000416384865  -0.00027679628      0.474771002     0.851697671
12.662772            0.469410107     0.854734833   0.000416995049 -0.000277571831   0.000416995049 -0.000277571831      0.475254626     0.851402485
12.6628              0.469892506     0.854444543   0.000417606095 -0.000278349693   0.000417606095 -0.000278349693      0.475738521      0.85110673
12.662828            0.470375175     0.854153692   0.000418218002 -0.000279129875   0.000418218002 -0.000279129875      0.476222684     0.850810406
12.662856            0.470858116      0.85386228   0.000418830771 -0.000279912384   0.000418830772 -0.000279912384      0.476707117     0.850513511
12.662884            0.471341328     0.853570304   0.000419444403 -0.000280697228   0.000419444403 -0.000280697228       0.47719182     0.850216045
12.662912            0.471824811     0.853277765   0.000420058897 -0.000281484414   0.000420058898 -0.000281484413      0.477676792     0.849918006
12.66294             0.472308566     0.852984661   0.000420674255 -0.000282273949   0.000420674255 -0.000282273949      0.478162033     0.849619393
12.662968            0.472792592      0.85269099   0.000421290476 -0.000283065842   0.000421290476 -0.000283065842      0.478647544     0.849320204
12.662996            0.473276889     0.852396752    0.00042190756   -0.0002838601    0.00042190756   -0.0002838601      0.479133325     0.849020439
12.663024            0.473761458     0.852101946   0.000422525509 -0.000284656731   0.000422525509 -0.000284656731      0.479619375     0.848720096
12.663052            0.474246299     0.851806569   0.000423144322 -0.000285455742   0.000423144322 -0.000285455742      0.480105695     0.848419175
12.66308             0.474731411     0.851510622   0.000423763999 -0.000286257142   0.000423763999 -0.000286257142      0.480592285     0.848117674
12.663108            0.475216795     0.851214102   0.000424384542 -0.000287060938   0.000424384542 -0.000287060938      0.481079144     0.847815591
12.663136             0.47570245     0.850917009    0.00042500595 -0.000287867137    0.00042500595 -0.000287867137      0.481566273     0.847512926
12.663164            0.476188377     0.850619342   0.000425628224 -0.000288675749   0.000425628224 -0.000288675749      0.482053672     0.847209678
12.663192            0.476674575     0.850321099   0.000426251363  -0.00028948678   0.000426251363  -0.00028948678       0.48254134     0.846905845
12.66322             0.477161045      0.85002228   0.000426875369 -0.000290300239   0.000426875369 -0.000290300239      0.483029278     0.846601426
12.663248            0.477647787     0.849722882   0.000427500241 -0.000291116133   0.000427500241 -0.000291116133      0.483517486      0.84629642
12.663276            0.478134801     0.849422905    0.00042812598 -0.000291934471    0.00042812598 -0.000291934471      0.484005963     0.845990825
12.663304            0.478622086     0.849122348   0.000428752586  -0.00029275526   0.000428752586 -0.000292755259      0.484494711     0.845684641
12.663332            0.479109644      0.84882121   0.000429380059 -0.000293578508    0.00042938006 -0.000293578508      0.484983728     0.845377867
12.66336             0.479597472     0.848519488     0.0004300084 -0.000294404224     0.0004300084 -0.000294404224      0.485473014       0.8450705
12.663388            0.480085573     0.848217183   0.000430637609 -0.000295232415   0.000430637609 -0.000295232415      0.485962571      0.84476254
12.663416            0.480573946     0.847914292   0.000431267685  -0.00029606309   0.000431267685  -0.00029606309      0.486452397     0.844453986
12.663444             0.48106259     0.847610815   0.000431898629 -0.000296896257    0.00043189863 -0.000296896257      0.486942493     0.844144837
12.663472            0.481551507     0.847306751   0.000432530442 -0.000297731923   0.000432530442 -0.000297731923      0.487432859      0.84383509
12.6635              0.482040695     0.847002098   0.000433163124 -0.000298570098   0.000433163124 -0.000298570098      0.487923495     0.843524746
