! TOUCHSTONE file generated by CST MICROWAVE STUDIO
! Date and time: Wed Jul 31 11:18:12 2024
! Project name: WaveGuide_BPF-Ver4.1_U-shape_Ku_T3_C4_CWA_2.cst
! Parameters = {cavity_h=16; cavity_l0=10; cavity_l1=15.2212; cavity_l2=16.8621; cavity_l3=17.1461; cavity_l4=17.2364; cavity_l5=17.165; cavity_l6=17.5804; cavity_r=2.5; cavity_screw_l=0.5; cavity_screw_r=1.5; cavity_w=8; iris_h00=0; iris_h01=8.8071; iris_h112=0; iris_h12=5.6123; iris_h211=3.6561; iris_h23=5.188; iris_h310=3.9625; iris_h34=5.0922; iris_h45=4.926; iris_h49=4.6196; iris_h56=4.7933; iris_h58=4.4324; iris_h67=6.5787; iris_rx=0.1; iris_screw_l=0.5; iris_screw_r=1.5; iris_shift00=0; iris_shift112=0; iris_shift211=3.5; iris_shift310=0; iris_shift49=0; iris_shift58=3.5; iris_shift67=3.5; iris_tx=4.5; iris_tz=4.5; iris_w00=0; iris_w112=0; iris_w211=4; iris_w310=3.9625; iris_w49=4.6196; iris_w58=4; iris_w67=4; mesh_cavity=5; mesh_iris=7; mesh_screw=7; order=12; reset_all=0; sigma=4.8e+07}
! Header version: 2018
! Port assignment regex: !\s*Touchstone port\s*([0-9]+)\s*=\s*(CST MWS port|CST DS port)\s*([0-9]+|Zmin|Zmax)\s*\(\"(.*)\"\)(\s*mode\s*([0-9]+))?.*
! Touchstone port assignment:
! Touchstone port 1 = CST MWS port 1 ("")
! Touchstone port 2 = CST MWS port 2 ("")
# GHz S RI R 50
12.66                0.389688131     0.896765628   0.000317245386 -0.000166911198   0.000317245386 -0.000166911198      0.387917745      0.89744054
12.660028            0.390140339     0.896548988   0.000317700911 -0.000167371257   0.000317700911 -0.000167371257      0.388373123     0.897223385
12.660056            0.390592895     0.896331886   0.000318157081  -0.00016783264   0.000318157081  -0.00016783264      0.388828849     0.897005765
12.660084            0.391045768     0.896114335   0.000318613908 -0.000168295343   0.000318613908 -0.000168295343      0.389284895     0.896787692
12.660112            0.391498928     0.895896346   0.000319071402 -0.000168759362   0.000319071402 -0.000168759362      0.389741231     0.896569176
12.66014             0.391952344     0.895677932   0.000319529573 -0.000169224693   0.000319529573 -0.000169224693      0.390197828      0.89635023
12.660168            0.392406016     0.895459093   0.000319988422  -0.00016969134   0.000319988422  -0.00016969134      0.390654688     0.896130853
12.660196            0.392859965     0.895239818   0.000320447943 -0.000170159312   0.000320447943 -0.000170159312      0.391111828     0.895911035
12.660224            0.393314191     0.895020107   0.000320908136 -0.000170628614   0.000320908136 -0.000170628614      0.391569249     0.895690776
12.660252            0.393768694     0.894799958   0.000321369003 -0.000171099249   0.000321369003 -0.000171099249      0.392026952     0.895470074
12.66028             0.394223474     0.894579372   0.000321830543 -0.000171571222   0.000321830543 -0.000171571222      0.392484937      0.89524893
12.660308            0.394678531     0.894358346   0.000322292758 -0.000172044536   0.000322292758 -0.000172044536      0.392943203     0.895027341
12.660336            0.395133867     0.894136881   0.000322755648 -0.000172519196   0.000322755648 -0.000172519196      0.393401751     0.894805307
12.660364             0.39558948     0.893914975   0.000323219214 -0.000172995206   0.000323219214 -0.000172995206      0.393860582     0.894582828
12.660392             0.39604537     0.893692627   0.000323683455 -0.000173472569   0.000323683455 -0.000173472569      0.394319694     0.894359902
12.66042             0.396501539     0.893469837   0.000324148374 -0.000173951291   0.000324148374 -0.000173951291      0.394779089     0.894136528
12.660448            0.396957986     0.893246604    0.00032461397 -0.000174431375    0.00032461397 -0.000174431375      0.395238767     0.893912705
12.660476            0.397414711     0.893022926   0.000325080244 -0.000174912825   0.000325080244 -0.000174912825      0.395698727     0.893688433
12.660504            0.397871715     0.892798803   0.000325547197 -0.000175395646   0.000325547197 -0.000175395646       0.39615897     0.893463711
12.660532            0.398328998     0.892574234   0.000326014829 -0.000175879841   0.000326014829 -0.000175879841      0.396619496     0.893238537
12.66056             0.398786559     0.892349218    0.00032648314 -0.000176365415    0.00032648314 -0.000176365415      0.397080305     0.893012911
12.660588            0.399244399     0.892123754   0.000326952133 -0.000176852372   0.000326952133 -0.000176852372      0.397541398     0.892786832
12.660616            0.399702518     0.891897841   0.000327421806 -0.000177340717   0.000327421806 -0.000177340717      0.398002773     0.892560299
12.660644            0.400160916     0.891671479    0.00032789216 -0.000177830453    0.00032789216 -0.000177830453      0.398464433     0.892333311
12.660672            0.400619594     0.891444666   0.000328363197 -0.000178321585   0.000328363197 -0.000178321585      0.398926376     0.892105867
12.6607              0.401078551     0.891217402   0.000328834916 -0.000178814117   0.000328834916 -0.000178814117      0.399388603     0.891877966
12.660728            0.401537788     0.890989685   0.000329307319 -0.000179308053   0.000329307319 -0.000179308053      0.399851114     0.891649607
12.660756            0.401997304     0.890761515   0.000329780405 -0.000179803398   0.000329780405 -0.000179803398       0.40031391      0.89142079
12.660784            0.402457101     0.890532891   0.000330254176 -0.000180300155   0.000330254176 -0.000180300155      0.400776989     0.891191513
12.660812            0.402917177     0.890303811   0.000330728632  -0.00018079833   0.000330728632  -0.00018079833      0.401240353     0.890961776
12.66084             0.403377534     0.890074276   0.000331203773 -0.000181297927   0.000331203773 -0.000181297927      0.401704002     0.890731577
12.660868            0.403838171     0.889844284   0.000331679601 -0.000181798949   0.000331679601 -0.000181798949      0.402167936     0.890500916
12.660896            0.404299088     0.889613833   0.000332156115 -0.000182301402   0.000332156115 -0.000182301402      0.402632154     0.890269791
12.660924            0.404760287     0.889382924   0.000332633316 -0.000182805289   0.000332633316 -0.000182805289      0.403096658     0.890038202
12.660952            0.405221766     0.889151555   0.000333111205 -0.000183310615   0.000333111205 -0.000183310615      0.403561446     0.889806147
12.66098             0.405683525     0.888919726   0.000333589782 -0.000183817385   0.000333589782 -0.000183817385      0.404026521     0.889573627
12.661008            0.406145566     0.888687434   0.000334069048 -0.000184325603   0.000334069048 -0.000184325603       0.40449188     0.889340639
12.661036            0.406607888     0.888454681   0.000334549003 -0.000184835273   0.000334549003 -0.000184835272      0.404957526     0.889107183
12.661064            0.407070492     0.888221463   0.000335029649 -0.000185346399   0.000335029649 -0.000185346399      0.405423457     0.888873258
12.661092            0.407533377     0.887987782   0.000335510984 -0.000185858987   0.000335510984 -0.000185858987      0.405889674     0.888638863
12.66112             0.407996543     0.887753635   0.000335993011  -0.00018637304   0.000335993011  -0.00018637304      0.406356177     0.888403997
12.661148            0.408459991     0.887519021   0.000336475728 -0.000186888564   0.000336475728 -0.000186888564      0.406822966     0.888168659
12.661176            0.408923721     0.887283941   0.000336959138 -0.000187405562   0.000336959138 -0.000187405562      0.407290042     0.887932849
12.661204            0.409387734     0.887048392   0.000337443241  -0.00018792404   0.000337443241  -0.00018792404      0.407757404     0.887696564
12.661232            0.409852028     0.886812374   0.000337928036 -0.000188444001   0.000337928036 -0.000188444001      0.408225053     0.887459804
12.66126             0.410316604     0.886575886   0.000338413525  -0.00018896545   0.000338413525  -0.00018896545      0.408692989     0.887222569
12.661288            0.410781463     0.886338926   0.000338899708 -0.000189488392   0.000338899708 -0.000189488392      0.409161211     0.886984857
12.661316            0.411246605     0.886101495   0.000339386585 -0.000190012832   0.000339386585 -0.000190012832      0.409629721     0.886746667
12.661344            0.411712029     0.885863591   0.000339874158 -0.000190538773   0.000339874158 -0.000190538773      0.410098518     0.886507998
12.661372            0.412177737     0.885625213   0.000340362426 -0.000191066221   0.000340362426 -0.000191066221      0.410567602     0.886268849
12.6614              0.412643727      0.88538636    0.00034085139 -0.000191595181    0.00034085139 -0.000191595181      0.411036974      0.88602922
12.661428                0.41311     0.885147031    0.00034134105 -0.000192125656    0.00034134105 -0.000192125656      0.411506633     0.885789109
12.661456            0.413576556     0.884907225   0.000341831408 -0.000192657652   0.000341831408 -0.000192657652       0.41197658     0.885548515
12.661484            0.414043396     0.884666941   0.000342322462 -0.000193191172   0.000342322462 -0.000193191172      0.412446815     0.885307438
12.661512            0.414510519     0.884426179   0.000342814215 -0.000193726223   0.000342814215 -0.000193726223      0.412917338     0.885065876
12.66154             0.414977926     0.884184936   0.000343306667 -0.000194262808   0.000343306667 -0.000194262808      0.413388149     0.884823828
12.661568            0.415445617     0.883943213   0.000343799817 -0.000194800933   0.000343799817 -0.000194800933      0.413859249     0.884581293
12.661596            0.415913592     0.883701009   0.000344293666 -0.000195340601   0.000344293666 -0.000195340601      0.414330637     0.884338271
12.661624             0.41638185     0.883458321   0.000344788215 -0.000195881818   0.000344788215 -0.000195881818      0.414802314      0.88409476
12.661652            0.416850393      0.88321515   0.000345283465 -0.000196424589   0.000345283465 -0.000196424589      0.415274279     0.883850759
12.66168              0.41731922     0.882971494   0.000345779415 -0.000196968918   0.000345779415 -0.000196968918      0.415746533     0.883606268
12.661708            0.417788332     0.882727352   0.000346276067  -0.00019751481   0.000346276067  -0.00019751481      0.416219076     0.883361285
12.661736            0.418257728     0.882482724    0.00034677342  -0.00019806227    0.00034677342  -0.00019806227      0.416691909     0.883115809
12.661764            0.418727409     0.882237608   0.000347271475 -0.000198611302   0.000347271475 -0.000198611302       0.41716503      0.88286984
12.661792            0.419197374     0.881992003   0.000347770232 -0.000199161912   0.000347770232 -0.000199161912      0.417638441     0.882623375
12.66182             0.419667625     0.881745909   0.000348269693 -0.000199714105   0.000348269693 -0.000199714104      0.418112142     0.882376415
12.661848             0.42013816     0.881499324   0.000348769857 -0.000200267884   0.000348769857 -0.000200267884      0.418586132     0.882128958
12.661876            0.420608981     0.881252247   0.000349270724 -0.000200823256   0.000349270724 -0.000200823256      0.419060412     0.881881003
12.661904            0.421080087     0.881004678   0.000349772296 -0.000201380224   0.000349772296 -0.000201380224      0.419534982     0.881632549
12.661932            0.421551478     0.880756615   0.000350274573 -0.000201938795   0.000350274573 -0.000201938795      0.420009841     0.881383596
12.66196             0.422023155     0.880508057   0.000350777554 -0.000202498972   0.000350777554 -0.000202498972      0.420484991     0.881134141
12.661988            0.422495118     0.880259003   0.000351281241 -0.000203060762   0.000351281241 -0.000203060762      0.420960432     0.880884185
12.662016            0.422967367     0.880009453   0.000351785634 -0.000203624168   0.000351785634 -0.000203624167      0.421436162     0.880633725
12.662044            0.423439901     0.879759405   0.000352290733 -0.000204189195   0.000352290733 -0.000204189195      0.421912184     0.880382761
12.662072            0.423912722     0.879508858   0.000352796539  -0.00020475585   0.000352796539  -0.00020475585      0.422388496     0.880131293
12.6621              0.424385828     0.879257811   0.000353303051 -0.000205324136   0.000353303051 -0.000205324136      0.422865099     0.879879318
12.662128            0.424859221     0.879006263   0.000353810271 -0.000205894059   0.000353810271 -0.000205894059      0.423341992     0.879626836
12.662156            0.425332901     0.878754213   0.000354318199 -0.000206465624   0.000354318199 -0.000206465623      0.423819177     0.879373845
12.662184            0.425806866     0.878501661   0.000354826835 -0.000207038835   0.000354826835 -0.000207038835      0.424296653     0.879120345
12.662212            0.426281119     0.878248604    0.00035533618 -0.000207613699    0.00035533618 -0.000207613699       0.42477442     0.878866335
12.66224             0.426755658     0.877995043   0.000355846234 -0.000208190219   0.000355846234 -0.000208190219      0.425252479     0.878611814
12.662268            0.427230485     0.877740975   0.000356356996 -0.000208768402   0.000356356996 -0.000208768402      0.425730829      0.87835678
12.662296            0.427705598     0.877486401   0.000356868469 -0.000209348252   0.000356868469 -0.000209348252      0.426209471     0.878101232
12.662324            0.428180998     0.877231318   0.000357380651 -0.000209929774   0.000357380651 -0.000209929774      0.426688405      0.87784517
12.662352            0.428656686     0.876975726   0.000357893544 -0.000210512974   0.000357893544 -0.000210512974      0.427167631     0.877588592
12.66238             0.429132661     0.876719624   0.000358407147 -0.000211097857   0.000358407147 -0.000211097857      0.427647148     0.877331497
12.662408            0.429608923      0.87646301   0.000358921462 -0.000211684428   0.000358921462 -0.000211684428      0.428126958     0.877073885
12.662436            0.430085473     0.876205884   0.000359436487 -0.000212272692   0.000359436487 -0.000212272692       0.42860706     0.876815753
12.662464            0.430562311     0.875948245   0.000359952225 -0.000212862654   0.000359952225 -0.000212862654      0.429087455     0.876557102
12.662492            0.431039437     0.875690091   0.000360468674  -0.00021345432   0.000360468674  -0.00021345432      0.429568142     0.876297929
12.66252              0.43151685     0.875431422   0.000360985836 -0.000214047694   0.000360985836 -0.000214047694      0.430049121     0.876038234
12.662548            0.431994552     0.875172236    0.00036150371 -0.000214642783    0.00036150371 -0.000214642783      0.430530394     0.875778016
12.662576            0.432472542     0.874912533   0.000362022297 -0.000215239592   0.000362022297 -0.000215239592      0.431011959     0.875517274
12.662604             0.43295082      0.87465231   0.000362541597 -0.000215838125   0.000362541597 -0.000215838125      0.431493817     0.875256006
12.662632            0.433429386     0.874391568   0.000363061611 -0.000216438388   0.000363061611 -0.000216438388      0.431975969     0.874994211
12.66266             0.433908241     0.874130305   0.000363582339 -0.000217040386   0.000363582339 -0.000217040386      0.432458413     0.874731889
12.662688            0.434387385      0.87386852   0.000364103781 -0.000217644126   0.000364103781 -0.000217644126      0.432941151     0.874469038
12.662716            0.434866817     0.873606212   0.000364625937 -0.000218249611   0.000364625937 -0.000218249611      0.433424183     0.874205657
12.662744            0.435346538      0.87334338   0.000365148808 -0.000218856849   0.000365148808 -0.000218856849      0.433907508     0.873941746
12.662772            0.435826548     0.873080022   0.000365672394 -0.000219465843   0.000365672394 -0.000219465843      0.434391126     0.873677302
12.6628              0.436306847     0.872816139   0.000366196694 -0.000220076599   0.000366196694 -0.000220076599      0.434875038     0.873412325
12.662828            0.436787435     0.872551727   0.000366721711 -0.000220689124   0.000366721711 -0.000220689124      0.435359245     0.873146813
12.662856            0.437268312     0.872286788   0.000367247443 -0.000221303422   0.000367247443 -0.000221303421      0.435843745     0.872880766
12.662884            0.437749479     0.872021318   0.000367773891 -0.000221919498   0.000367773891 -0.000221919498      0.436328539     0.872614183
12.662912            0.438230935     0.871755318   0.000368301055 -0.000222537359   0.000368301055 -0.000222537359      0.436813628     0.872347062
12.66294             0.438712681     0.871488786   0.000368828935  -0.00022315701   0.000368828935  -0.00022315701      0.437299011     0.872079402
12.662968            0.439194716     0.871221721   0.000369357532 -0.000223778456   0.000369357532 -0.000223778456      0.437784688     0.871811202
12.662996            0.439677042     0.870954122   0.000369886846 -0.000224401703   0.000369886846 -0.000224401703       0.43827066     0.871542461
12.663024            0.440159657     0.870685988   0.000370416877 -0.000225026757   0.000370416877 -0.000225026757      0.438756926     0.871273177
12.663052            0.440642562     0.870417318   0.000370947625 -0.000225653623   0.000370947625 -0.000225653623      0.439243488     0.871003351
12.66308             0.441125757      0.87014811   0.000371479091 -0.000226282306   0.000371479091 -0.000226282306      0.439730344     0.870732979
12.663108            0.441609242     0.869878364   0.000372011275 -0.000226912813   0.000372011274 -0.000226912813      0.440217495     0.870462063
12.663136            0.442093018     0.869608078   0.000372544176 -0.000227545149   0.000372544176 -0.000227545149      0.440704941     0.870190599
12.663164            0.442577084     0.869337251   0.000373077795  -0.00022817932   0.000373077795  -0.00022817932      0.441192682     0.869918587
12.663192             0.44306144     0.869065882   0.000373612133 -0.000228815331   0.000373612133 -0.000228815331      0.441680719     0.869646027
12.66322             0.443546087      0.86879397   0.000374147188 -0.000229453188   0.000374147188 -0.000229453188       0.44216905     0.869372915
12.663248            0.444031025     0.868521514   0.000374682963 -0.000230092896   0.000374682963 -0.000230092896      0.442657678     0.869099253
12.663276            0.444516253     0.868248513   0.000375219456 -0.000230734463   0.000375219456 -0.000230734463      0.443146601     0.868825038
12.663304            0.445001772     0.867974965   0.000375756668 -0.000231377892   0.000375756668 -0.000231377892      0.443635819     0.868550269
12.663332            0.445487582      0.86770087   0.000376294599 -0.000232023191   0.000376294599 -0.000232023191      0.444125334     0.868274945
12.66336             0.445973684     0.867426226    0.00037683325 -0.000232670365    0.00037683325 -0.000232670364      0.444615144     0.867999065
12.663388            0.446460076     0.867151032   0.000377372619 -0.000233319419   0.000377372619 -0.000233319419       0.44510525     0.867722628
12.663416             0.44694676     0.866875287   0.000377912708 -0.000233970359   0.000377912708 -0.000233970359      0.445595652     0.867445632
12.663444            0.447433735      0.86659899   0.000378453516 -0.000234623192   0.000378453516 -0.000234623192      0.446086351     0.867168077
12.663472            0.447921001     0.866322139   0.000378995045 -0.000235277924   0.000378995045 -0.000235277924      0.446577345     0.866889961
12.6635              0.448408559     0.866044734   0.000379537292 -0.000235934559   0.000379537292 -0.000235934559      0.447068636     0.866611283
