! TOUCHSTONE file generated by CST MICROWAVE STUDIO
! Date and time: Wed Jul 31 11:21:23 2024
! Project name: WaveGuide_BPF-Ver4.1_U-shape_Ku_T3_C4_CWA_2.cst
! Parameters = {cavity_h=16; cavity_l0=10; cavity_l1=15.1712; cavity_l2=16.8484; cavity_l3=17.091; cavity_l4=17.3014; cavity_l5=17.1413; cavity_l6=17.5877; cavity_r=2.5; cavity_screw_l=0.5; cavity_screw_r=1.5; cavity_w=8; iris_h00=0; iris_h01=8.8247; iris_h112=0; iris_h12=5.6026; iris_h211=3.6645; iris_h23=5.2042; iris_h310=3.9609; iris_h34=5.0738; iris_h45=4.9235; iris_h49=4.6173; iris_h56=4.7935; iris_h58=4.4428; iris_h67=6.5857; iris_rx=0.1; iris_screw_l=0.5; iris_screw_r=1.5; iris_shift00=0; iris_shift112=0; iris_shift211=3.5; iris_shift310=0; iris_shift49=0; iris_shift58=3.5; iris_shift67=3.5; iris_tx=4.5; iris_tz=4.5; iris_w00=0; iris_w112=0; iris_w211=4; iris_w310=3.9609; iris_w49=4.6173; iris_w58=4; iris_w67=4; mesh_cavity=5; mesh_iris=7; mesh_screw=7; order=12; reset_all=0; sigma=4.8e+07}
! Header version: 2018
! Port assignment regex: !\s*Touchstone port\s*([0-9]+)\s*=\s*(CST MWS port|CST DS port)\s*([0-9]+|Zmin|Zmax)\s*\(\"(.*)\"\)(\s*mode\s*([0-9]+))?.*
! Touchstone port assignment:
! Touchstone port 1 = CST MWS port 1 ("")
! Touchstone port 2 = CST MWS port 2 ("")
# GHz S RI R 50
12.66                0.253076033     0.950200091   0.000218799288 -7.52554346e-05   0.000218799288 -7.52554346e-05       0.25760509     0.948918584
12.660028            0.253429658     0.950094591   0.000219111721 -7.54612723e-05    0.00021911172 -7.54612723e-05      0.257960336     0.948810705
12.660056            0.253783462     0.949988886   0.000219424677 -7.56676553e-05   0.000219424677 -7.56676553e-05      0.258315708      0.94870263
12.660084            0.254137456     0.949882971   0.000219738156 -7.58745901e-05   0.000219738155 -7.58745901e-05      0.258671243     0.948594351
12.660112            0.254491655     0.949776844   0.000220052153 -7.60820831e-05   0.000220052153 -7.60820831e-05      0.259026975     0.948485857
12.66014             0.254846069       0.9496705   0.000220366667  -7.6290141e-05   0.000220366667  -7.6290141e-05       0.25938294     0.948377139
12.660168            0.255200699     0.949563939   0.000220681699 -7.64987654e-05   0.000220681699 -7.64987654e-05      0.259739137     0.948268197
12.660196            0.255555538     0.949457163   0.000220997252 -7.67079546e-05   0.000220997252 -7.67079546e-05      0.260095545     0.948159035
12.660224            0.255910585     0.949350171   0.000221313326 -7.69177104e-05   0.000221313326 -7.69177104e-05      0.260452162     0.948049655
12.660252            0.256265841     0.949242963   0.000221629924 -7.71280343e-05   0.000221629923 -7.71280343e-05      0.260808989     0.947940055
12.66028             0.256621306     0.949135539   0.000221947044  -7.7338928e-05   0.000221947044  -7.7338928e-05      0.261166026     0.947830235
12.660308            0.256976979     0.949027899    0.00022226469 -7.75503933e-05    0.00022226469 -7.75503933e-05      0.261523274     0.947720194
12.660336            0.257332862     0.948920041   0.000222582861 -7.77624317e-05    0.00022258286 -7.77624317e-05      0.261880732     0.947609933
12.660364            0.257688954     0.948811966   0.000222901558 -7.79750449e-05   0.000222901557 -7.79750449e-05      0.262238401     0.947499451
12.660392            0.258045255     0.948703673   0.000223220782 -7.81882347e-05   0.000223220782 -7.81882347e-05      0.262596281     0.947388748
12.66042             0.258401766     0.948595162   0.000223540535 -7.84020026e-05   0.000223540535 -7.84020026e-05      0.262954372     0.947277822
12.660448            0.258758487     0.948486432   0.000223860817 -7.86163505e-05   0.000223860816 -7.86163505e-05      0.263312674     0.947166674
12.660476            0.259115418     0.948377483   0.000224181629 -7.88312799e-05   0.000224181628 -7.88312799e-05      0.263671188     0.947055303
12.660504            0.259472559     0.948268315   0.000224502971 -7.90467927e-05   0.000224502971 -7.90467927e-05      0.264029913      0.94694371
12.660532            0.259829911     0.948158927   0.000224824846 -7.92628904e-05   0.000224824846 -7.92628904e-05       0.26438885     0.946831893
12.66056             0.260187473     0.948049319   0.000225147254 -7.94795749e-05   0.000225147254 -7.94795749e-05      0.264747999     0.946719851
12.660588            0.260545246      0.94793949   0.000225470195 -7.96968478e-05   0.000225470195 -7.96968478e-05       0.26510736     0.946607586
12.660616            0.260903229      0.94782944   0.000225793672 -7.99147109e-05   0.000225793671 -7.99147109e-05      0.265466933     0.946495096
12.660644            0.261261424     0.947719169   0.000226117684 -8.01331658e-05   0.000226117683 -8.01331658e-05      0.265826719     0.946382381
12.660672             0.26161983     0.947608677   0.000226442232 -8.03522144e-05   0.000226442232 -8.03522144e-05      0.266186718      0.94626944
12.6607              0.261978447     0.947497962   0.000226767318 -8.05718584e-05   0.000226767318 -8.05718584e-05       0.26654693     0.946156274
12.660728            0.262337277     0.947387024   0.000227092943 -8.07920994e-05   0.000227092943 -8.07920994e-05      0.266907354     0.946042881
12.660756            0.262696318     0.947275864   0.000227419107 -8.10129394e-05   0.000227419107 -8.10129394e-05      0.267267992     0.945929261
12.660784             0.26305557      0.94716448   0.000227745811 -8.12343799e-05   0.000227745811 -8.12343799e-05      0.267628843     0.945815415
12.660812            0.263415035     0.947052873   0.000228073057 -8.14564229e-05   0.000228073057 -8.14564229e-05      0.267989908     0.945701341
12.66084             0.263774713     0.946941041   0.000228400845   -8.167907e-05   0.000228400845   -8.167907e-05      0.268351187     0.945587039
12.660868            0.264134603     0.946828985   0.000228729177  -8.1902323e-05   0.000228729176  -8.1902323e-05      0.268712679     0.945472508
12.660896            0.264494705     0.946716704   0.000229058052 -8.21261838e-05   0.000229058052 -8.21261838e-05      0.269074386     0.945357749
12.660924            0.264855021     0.946604198   0.000229387473  -8.2350654e-05   0.000229387472 -8.23506541e-05      0.269436307     0.945242761
12.660952            0.265215549     0.946491466   0.000229717439 -8.25757356e-05   0.000229717439 -8.25757356e-05      0.269798442     0.945127543
12.66098             0.265576291     0.946378508   0.000230047953 -8.28014302e-05   0.000230047953 -8.28014302e-05      0.270160792     0.945012095
12.661008            0.265937247     0.946265323   0.000230379015 -8.30277398e-05   0.000230379015 -8.30277398e-05      0.270523357     0.944896417
12.661036            0.266298415     0.946151912   0.000230710626  -8.3254666e-05   0.000230710625  -8.3254666e-05      0.270886138     0.944780508
12.661064            0.266659798     0.946038273   0.000231042786 -8.34822108e-05   0.000231042786 -8.34822108e-05      0.271249133     0.944664368
12.661092            0.267021395     0.945924406   0.000231375498 -8.37103758e-05   0.000231375497 -8.37103758e-05      0.271612344     0.944547996
12.66112             0.267383205     0.945810311   0.000231708761 -8.39391631e-05   0.000231708761 -8.39391631e-05       0.27197577     0.944431392
12.661148             0.26774523     0.945695988   0.000232042577 -8.41685744e-05   0.000232042577 -8.41685744e-05      0.272339412     0.944314555
12.661176             0.26810747     0.945581435   0.000232376947 -8.43986114e-05   0.000232376947 -8.43986114e-05       0.27270327     0.944197486
12.661204            0.268469924     0.945466653   0.000232711872 -8.46292762e-05   0.000232711872 -8.46292762e-05      0.273067344     0.944080184
12.661232            0.268832594     0.945351642   0.000233047352 -8.48605705e-05   0.000233047352 -8.48605705e-05      0.273431635     0.943962647
12.66126             0.269195478       0.9452364   0.000233383389 -8.50924962e-05   0.000233383389 -8.50924962e-05      0.273796142     0.943844877
12.661288            0.269558577     0.945120927   0.000233719984 -8.53250551e-05   0.000233719984 -8.53250551e-05      0.274160865     0.943726872
12.661316            0.269921892     0.945005224   0.000234057138 -8.55582492e-05   0.000234057137 -8.55582492e-05      0.274525806     0.943608632
12.661344            0.270285423     0.944889289    0.00023439485 -8.57920802e-05    0.00023439485 -8.57920802e-05      0.274890963     0.943490157
12.661372            0.270649169     0.944773122   0.000234733124 -8.60265501e-05   0.000234733124 -8.60265501e-05      0.275256338     0.943371445
12.6614              0.271013131     0.944656723   0.000235071959 -8.62616608e-05   0.000235071959 -8.62616608e-05      0.275621931     0.943252498
12.661428            0.271377309     0.944540091   0.000235411357 -8.64974141e-05   0.000235411356 -8.64974141e-05       0.27598774     0.943133314
12.661456            0.271741704     0.944423226   0.000235751318  -8.6733812e-05   0.000235751317  -8.6733812e-05      0.276353768     0.943013892
12.661484            0.272106315     0.944306127   0.000236091843 -8.69708563e-05   0.000236091843 -8.69708563e-05      0.276720014     0.942894234
12.661512            0.272471143     0.944188795   0.000236432934  -8.7208549e-05   0.000236432934  -8.7208549e-05      0.277086477     0.942774337
12.66154             0.272836188     0.944071228   0.000236774592  -8.7446892e-05   0.000236774591  -8.7446892e-05       0.27745316     0.942654202
12.661568             0.27320145     0.943953426   0.000237116817 -8.76858871e-05   0.000237116816 -8.76858871e-05       0.27782006     0.942533827
12.661596            0.273566929     0.943835389    0.00023745961 -8.79255364e-05    0.00023745961 -8.79255364e-05       0.27818718     0.942413214
12.661624            0.273932626     0.943717117   0.000237802973 -8.81658418e-05   0.000237802972 -8.81658418e-05      0.278554518     0.942292361
12.661652             0.27429854     0.943598608   0.000238146906 -8.84068052e-05   0.000238146905 -8.84068052e-05      0.278922075     0.942171268
12.66168             0.274664672     0.943479863    0.00023849141 -8.86484285e-05    0.00023849141 -8.86484285e-05      0.279289852     0.942049934
12.661708            0.275031022     0.943360881   0.000238836487 -8.88907138e-05   0.000238836487 -8.88907138e-05      0.279657848      0.94192836
12.661736             0.27539759     0.943241661   0.000239182137 -8.91336629e-05   0.000239182137 -8.91336629e-05      0.280026063     0.941806543
12.661764            0.275764376     0.943122204   0.000239528362 -8.93772778e-05   0.000239528362 -8.93772778e-05      0.280394499     0.941684485
12.661792            0.276131381     0.943002508   0.000239875162 -8.96215606e-05   0.000239875162 -8.96215606e-05      0.280763154     0.941562185
12.66182             0.276498605     0.942882574   0.000240222538 -8.98665132e-05   0.000240222538 -8.98665131e-05       0.28113203     0.941439642
12.661848            0.276866048     0.942762401   0.000240570492 -9.01121375e-05   0.000240570492 -9.01121375e-05      0.281501126     0.941316856
12.661876            0.277233709     0.942641988   0.000240919024 -9.03584356e-05   0.000240919024 -9.03584356e-05      0.281870443     0.941193826
12.661904             0.27760159     0.942521335   0.000241268136 -9.06054095e-05   0.000241268135 -9.06054095e-05       0.28223998     0.941070551
12.661932            0.277969691     0.942400442   0.000241617828 -9.08530611e-05   0.000241617827 -9.08530611e-05      0.282609738     0.940947033
12.66196             0.278338011     0.942279308   0.000241968101 -9.11013926e-05     0.0002419681 -9.11013925e-05      0.282979718     0.940823269
12.661988            0.278706551     0.942157933   0.000242318956 -9.13504058e-05   0.000242318956 -9.13504058e-05      0.283349918      0.94069926
12.662016            0.279075311     0.942036316   0.000242670395 -9.16001029e-05   0.000242670395 -9.16001028e-05      0.283720341     0.940575005
12.662044            0.279444291     0.941914456   0.000243022419 -9.18504858e-05   0.000243022418 -9.18504858e-05      0.284090984     0.940450504
12.662072            0.279813492     0.941792355   0.000243375028 -9.21015566e-05   0.000243375027 -9.21015566e-05       0.28446185     0.940325756
12.6621              0.280182913      0.94167001   0.000243728223 -9.23533174e-05   0.000243728222 -9.23533173e-05      0.284832938     0.940200761
12.662128            0.280552555     0.941547422   0.000244082005 -9.26057701e-05   0.000244082005 -9.26057701e-05      0.285204248     0.940075518
12.662156            0.280922417      0.94142459   0.000244436376 -9.28589169e-05   0.000244436376 -9.28589169e-05       0.28557578     0.939950027
12.662184            0.281292501     0.941301513   0.000244791337 -9.31127598e-05   0.000244791337 -9.31127598e-05      0.285947536     0.939824288
12.662212            0.281662807     0.941178192   0.000245146888 -9.33673009e-05   0.000245146888 -9.33673009e-05      0.286319513     0.939698299
12.66224             0.282033333     0.941054625   0.000245503031 -9.36225423e-05    0.00024550303 -9.36225423e-05      0.286691714     0.939572061
12.662268            0.282404082     0.940930813   0.000245859766  -9.3878486e-05   0.000245859765  -9.3878486e-05      0.287064138     0.939445573
12.662296            0.282775052     0.940806755   0.000246217094 -9.41351342e-05   0.000246217094 -9.41351342e-05      0.287436786     0.939318835
12.662324            0.283146244      0.94068245   0.000246575017 -9.43924889e-05   0.000246575017 -9.43924889e-05      0.287809656     0.939191846
12.662352            0.283517659     0.940557898   0.000246933536 -9.46505522e-05   0.000246933536 -9.46505522e-05      0.288182751     0.939064605
12.66238             0.283889296     0.940433099   0.000247292652 -9.49093263e-05   0.000247292651 -9.49093263e-05       0.28855607     0.938937113
12.662408            0.284261156     0.940308051   0.000247652365 -9.51688133e-05   0.000247652364 -9.51688133e-05      0.288929612     0.938809368
12.662436            0.284633238     0.940182756   0.000248012676 -9.54290152e-05   0.000248012676 -9.54290152e-05      0.289303379     0.938681371
12.662464            0.285005544     0.940057211   0.000248373588 -9.56899343e-05   0.000248373587 -9.56899343e-05      0.289677371     0.938553121
12.662492            0.285378072     0.939931417     0.0002487351 -9.59515727e-05     0.0002487351 -9.59515727e-05      0.290051587     0.938424617
12.66252             0.285750824     0.939805374   0.000249097214 -9.62139325e-05   0.000249097213 -9.62139325e-05      0.290426028     0.938295859
12.662548              0.2861238      0.93967908    0.00024945993 -9.64770158e-05    0.00024945993 -9.64770158e-05      0.290800694     0.938166846
12.662576            0.286496999     0.939552535   0.000249823251 -9.67408249e-05   0.000249823251 -9.67408249e-05      0.291175585     0.938037578
12.662604            0.286870423      0.93942574   0.000250187176 -9.70053619e-05   0.000250187176 -9.70053619e-05      0.291550702     0.937908055
12.662632             0.28724407     0.939298692   0.000250551708 -9.72706289e-05   0.000250551707 -9.72706289e-05      0.291926044     0.937778276
12.66266             0.287617942     0.939171393   0.000250916846 -9.75366282e-05   0.000250916846 -9.75366282e-05      0.292301613     0.937648241
12.662688            0.287992038     0.939043841   0.000251282592 -9.78033619e-05   0.000251282592 -9.78033619e-05      0.292677407     0.937517948
12.662716            0.288366359     0.938916037   0.000251648948 -9.80708323e-05   0.000251648947 -9.80708323e-05      0.293053427     0.937387398
12.662744            0.288740904     0.938787978   0.000252015913 -9.83390415e-05   0.000252015913 -9.83390415e-05      0.293429674     0.937256591
12.662772            0.289115675     0.938659666    0.00025238349 -9.86079918e-05   0.000252383489 -9.86079918e-05      0.293806147     0.937125525
12.6628              0.289490671       0.9385311   0.000252751678 -9.88776853e-05   0.000252751678 -9.88776853e-05      0.294182847       0.9369942
12.662828            0.289865893     0.938402279    0.00025312048 -9.91481243e-05    0.00025312048 -9.91481243e-05      0.294559774     0.936862616
12.662856             0.29024134     0.938273202   0.000253489897 -9.94193111e-05   0.000253489896  -9.9419311e-05      0.294936928     0.936730772
12.662884            0.290617013      0.93814387   0.000253859928 -9.96912478e-05   0.000253859928 -9.96912477e-05       0.29531431     0.936598668
12.662912            0.290992912     0.938014281   0.000254230576 -9.99639367e-05   0.000254230576 -9.99639366e-05      0.295691919     0.936466303
12.66294             0.291369037     0.937884436   0.000254601841  -0.00010023738   0.000254601841  -0.00010023738      0.296069755     0.936333677
12.662968            0.291745389     0.937754333   0.000254973725  -0.00010051158   0.000254973725  -0.00010051158       0.29644782      0.93620079
12.662996            0.292121967     0.937623973   0.000255346229 -0.000100786539   0.000255346228 -0.000100786539      0.296826112      0.93606764
12.663024            0.292498772     0.937493355   0.000255719353 -0.000101062259   0.000255719352 -0.000101062259      0.297204633     0.935934227
12.663052            0.292875803     0.937362478   0.000256093098 -0.000101338743   0.000256093098 -0.000101338743      0.297583383     0.935800552
12.66308             0.293253062     0.937231342   0.000256467466 -0.000101615993   0.000256467466 -0.000101615993      0.297962361     0.935666613
12.663108            0.293630549     0.937099947   0.000256842459 -0.000101894011   0.000256842458 -0.000101894011      0.298341567     0.935532409
12.663136            0.294008262     0.936968291   0.000257218076 -0.000102172799   0.000257218075 -0.000102172799      0.298721003     0.935397941
12.663164            0.294386204     0.936836375   0.000257594318  -0.00010245236   0.000257594318  -0.00010245236      0.299100668     0.935263209
12.663192            0.294764373     0.936704198   0.000257971188 -0.000102732696   0.000257971188 -0.000102732696      0.299480563      0.93512821
12.66322             0.295142771     0.936571759   0.000258348686  -0.00010301381   0.000258348686  -0.00010301381      0.299860687     0.934992945
12.663248            0.295521397     0.936439059   0.000258726813 -0.000103295703   0.000258726813 -0.000103295703      0.300241041     0.934857414
12.663276            0.295900251     0.936306096    0.00025910557 -0.000103578379    0.00025910557 -0.000103578379      0.300621625     0.934721616
12.663304            0.296279334      0.93617287   0.000259484959 -0.000103861838   0.000259484958 -0.000103861838      0.301002439      0.93458555
12.663332            0.296658646     0.936039381   0.000259864979 -0.000104146085   0.000259864979 -0.000104146085      0.301383484     0.934449216
12.66336             0.297038187     0.935905627   0.000260245633 -0.000104431121   0.000260245633 -0.000104431121      0.301764759     0.934312614
12.663388            0.297417957      0.93577161   0.000260626922 -0.000104716948   0.000260626922 -0.000104716948      0.302146265     0.934175743
12.663416            0.297797956     0.935637327   0.000261008846 -0.000105003569   0.000261008846 -0.000105003569      0.302528001     0.934038602
12.663444            0.298178185     0.935502779   0.000261391407 -0.000105290986   0.000261391407 -0.000105290986      0.302909969     0.933901191
12.663472            0.298558644     0.935367965   0.000261774605 -0.000105579203   0.000261774605 -0.000105579203      0.303292169     0.933763509
12.6635              0.298939333     0.935232885   0.000262158443  -0.00010586822   0.000262158442  -0.00010586822      0.303674599     0.933625556
