! TOUCHSTONE file generated by CST MICROWAVE STUDIO
! Date and time: Wed Jul 31 11:30:54 2024
! Project name: WaveGuide_BPF-Ver4.1_U-shape_Ku_T3_C4_CWA_2.cst
! Parameters = {cavity_h=16; cavity_l0=10; cavity_l1=15.2206; cavity_l2=16.8226; cavity_l3=17.0947; cavity_l4=17.2669; cavity_l5=17.1517; cavity_l6=17.6213; cavity_r=2.5; cavity_screw_l=0.5; cavity_screw_r=1.5; cavity_w=8; iris_h00=0; iris_h01=8.7992; iris_h112=0; iris_h12=5.6051; iris_h211=3.6585; iris_h23=5.2094; iris_h310=3.976; iris_h34=5.0798; iris_h45=4.9257; iris_h49=4.617; iris_h56=4.7957; iris_h58=4.445; iris_h67=6.566; iris_rx=0.1; iris_screw_l=0.5; iris_screw_r=1.5; iris_shift00=0; iris_shift112=0; iris_shift211=3.5; iris_shift310=0; iris_shift49=0; iris_shift58=3.5; iris_shift67=3.5; iris_tx=4.5; iris_tz=4.5; iris_w00=0; iris_w112=0; iris_w211=4; iris_w310=3.976; iris_w49=4.617; iris_w58=4; iris_w67=4; mesh_cavity=5; mesh_iris=7; mesh_screw=7; order=12; reset_all=0; sigma=4.8e+07}
! Header version: 2018
! Port assignment regex: !\s*Touchstone port\s*([0-9]+)\s*=\s*(CST MWS port|CST DS port)\s*([0-9]+|Zmin|Zmax)\s*\(\"(.*)\"\)(\s*mode\s*([0-9]+))?.*
! Touchstone port assignment:
! Touchstone port 1 = CST MWS port 1 ("")
! Touchstone port 2 = CST MWS port 2 ("")
# GHz S RI R 50
12.66                0.327098941     0.924217226    0.00021194489 -9.28744829e-05    0.00021194489 -9.28744829e-05      0.336582097     0.920687711
12.660028             0.32750719     0.924057879   0.000212226767 -9.31173621e-05   0.000212226767 -9.31173621e-05      0.336992736     0.920522473
12.660056            0.327915642     0.923898233   0.000212509047 -9.33608686e-05   0.000212509047 -9.33608687e-05      0.337403584     0.920356927
12.660084            0.328324311     0.923738282   0.000212791729 -9.36050065e-05   0.000212791729 -9.36050065e-05      0.337814651     0.920191068
12.660112             0.32873321     0.923578022    0.00021307481 -9.38497798e-05    0.00021307481 -9.38497798e-05      0.338225949     0.920024891
12.66014             0.329142352     0.923417448   0.000213358289 -9.40951925e-05   0.000213358289 -9.40951926e-05      0.338637489     0.919858392
12.660168            0.329551738     0.923256559   0.000213642166 -9.43412466e-05   0.000213642166 -9.43412466e-05      0.339049273     0.919691569
12.660196            0.329961358     0.923095358   0.000213926443 -9.45879421e-05   0.000213926444 -9.45879422e-05      0.339461292     0.919524426
12.660224            0.330371213     0.922933843   0.000214211122  -9.4835281e-05   0.000214211122  -9.4835281e-05      0.339873546      0.91935696
12.660252            0.330781303     0.922772015   0.000214496201 -9.50832648e-05   0.000214496201 -9.50832649e-05      0.340286036     0.919189173
12.66028             0.331191628     0.922609873   0.000214781682 -9.53318955e-05   0.000214781682 -9.53318956e-05      0.340698761     0.919021064
12.660308            0.331602189     0.922447416   0.000215067565 -9.55811748e-05   0.000215067566 -9.55811749e-05      0.341111723     0.918852631
12.660336            0.332012985     0.922284644   0.000215353851 -9.58311046e-05   0.000215353851 -9.58311046e-05       0.34152492     0.918683874
12.660364            0.332424016     0.922121556    0.00021564054 -9.60816865e-05    0.00021564054 -9.60816866e-05      0.341938353     0.918514793
12.660392            0.332835283     0.921958151   0.000215927632 -9.63329225e-05   0.000215927632 -9.63329226e-05      0.342352023     0.918345386
12.66042             0.333246786      0.92179443   0.000216215128 -9.65848143e-05   0.000216215128 -9.65848144e-05      0.342765929     0.918175655
12.660448            0.333658525     0.921630391   0.000216503029 -9.68373638e-05   0.000216503029 -9.68373639e-05      0.343180071     0.918005597
12.660476              0.3340705     0.921466034   0.000216791334 -9.70905727e-05   0.000216791334 -9.70905728e-05       0.34359445     0.917835212
12.660504            0.334482711     0.921301359   0.000217080045  -9.7344443e-05   0.000217080045 -9.73444431e-05      0.344009065     0.917664501
12.660532            0.334895159     0.921136364   0.000217369161 -9.75989764e-05   0.000217369161 -9.75989764e-05      0.344423918     0.917493461
12.66056             0.335307842      0.92097105   0.000217658683 -9.78541747e-05   0.000217658684 -9.78541748e-05      0.344839007     0.917322093
12.660588            0.335720763     0.920805415   0.000217948613 -9.81100399e-05   0.000217948613   -9.811004e-05      0.345254333     0.917150396
12.660616             0.33613392      0.92063946   0.000218238949 -9.83665738e-05   0.000218238949 -9.83665738e-05      0.345669897     0.916978369
12.660644            0.336547314     0.920473183   0.000218529693 -9.86237781e-05   0.000218529693 -9.86237782e-05      0.346085698     0.916806012
12.660672            0.336960945     0.920306584   0.000218820845 -9.88816549e-05   0.000218820845 -9.88816549e-05      0.346501736     0.916633325
12.6607              0.337374813     0.920139662   0.000219112405 -9.91402059e-05   0.000219112405 -9.91402059e-05      0.346918012     0.916460306
12.660728            0.337788918     0.919972417   0.000219404374  -9.9399433e-05   0.000219404374 -9.93994331e-05      0.347334526     0.916286954
12.660756            0.338203261     0.919804848   0.000219696753 -9.96593381e-05   0.000219696753 -9.96593382e-05      0.347751277     0.916113271
12.660784            0.338617841     0.919636955   0.000219989541 -9.99199231e-05   0.000219989541 -9.99199232e-05      0.348168267     0.915939254
12.660812            0.339032658     0.919468737   0.000220282739  -0.00010018119    0.00022028274  -0.00010018119      0.348585494     0.915764903
12.66084             0.339447714     0.919300194   0.000220576349  -0.00010044314   0.000220576349  -0.00010044314       0.34900296     0.915590218
12.660868            0.339863007     0.919131324   0.000220870369 -0.000100705776   0.000220870369 -0.000100705776      0.349420664     0.915415198
12.660896            0.340278538     0.918962128   0.000221164801   -0.0001009691   0.000221164801   -0.0001009691      0.349838606     0.915239843
12.660924            0.340694307     0.918792605   0.000221459645 -0.000101233112   0.000221459645 -0.000101233113      0.350256787     0.915064151
12.660952            0.341110315     0.918622753   0.000221754902 -0.000101497817   0.000221754902 -0.000101497817      0.350675207     0.914888123
12.66098             0.341526561     0.918452574   0.000222050571 -0.000101763214   0.000222050571 -0.000101763214      0.351093865     0.914711757
12.661008            0.341943045     0.918282065   0.000222346654 -0.000102029306   0.000222346654 -0.000102029306      0.351512763     0.914535053
12.661036            0.342359768     0.918111226   0.000222643151 -0.000102296096   0.000222643151 -0.000102296096      0.351931899     0.914358011
12.661064             0.34277673     0.917940058   0.000222940062 -0.000102563584   0.000222940062 -0.000102563584      0.352351275     0.914180629
12.661092            0.343193931     0.917768558   0.000223237387 -0.000102831774   0.000223237387 -0.000102831774       0.35277089     0.914002908
12.66112              0.34361137     0.917596728   0.000223535128 -0.000103100666   0.000223535128 -0.000103100666      0.353190744     0.913824846
12.661148            0.344029049     0.917424565   0.000223833284 -0.000103370263   0.000223833285 -0.000103370263      0.353610838     0.913646443
12.661176            0.344446967     0.917252069   0.000224131857 -0.000103640567   0.000224131857 -0.000103640567      0.354031171     0.913467699
12.661204            0.344865125     0.917079241   0.000224430846  -0.00010391158   0.000224430846  -0.00010391158      0.354451745     0.913288612
12.661232            0.345283521     0.916906079   0.000224730252 -0.000104183303   0.000224730252 -0.000104183304      0.354872558     0.913109182
12.66126             0.345702158     0.916732582   0.000225030075  -0.00010445574   0.000225030075  -0.00010445574      0.355293611     0.912929409
12.661288            0.346121034      0.91655875   0.000225330316 -0.000104728891   0.000225330316 -0.000104728891      0.355714904     0.912749292
12.661316             0.34654015     0.916384583   0.000225630975 -0.000105002758   0.000225630975 -0.000105002758      0.356136438      0.91256883
12.661344            0.346959506      0.91621008   0.000225932053 -0.000105277345   0.000225932053 -0.000105277345      0.356558212     0.912388023
12.661372            0.347379103      0.91603524    0.00022623355 -0.000105552652    0.00022623355 -0.000105552652      0.356980226      0.91220687
12.6614              0.347798939     0.915860062   0.000226535467 -0.000105828682   0.000226535467 -0.000105828682      0.357402481      0.91202537
12.661428            0.348219016     0.915684547   0.000226837804 -0.000106105436   0.000226837804 -0.000106105436      0.357824977     0.911843523
12.661456            0.348639333     0.915508693   0.000227140561 -0.000106382917   0.000227140561 -0.000106382917      0.358247713     0.911661328
12.661484            0.349059891       0.9153325   0.000227443739 -0.000106661127   0.000227443739 -0.000106661128      0.358670691     0.911478785
12.661512             0.34948069     0.915155966   0.000227747338 -0.000106940068   0.000227747338 -0.000106940068      0.359093909     0.911295893
12.66154              0.34990173     0.914979093   0.000228051359 -0.000107219742   0.000228051359 -0.000107219742      0.359517369     0.911112651
12.661568             0.35032301     0.914801878   0.000228355802 -0.000107500151   0.000228355802 -0.000107500151       0.35994107     0.910929058
12.661596            0.350744532     0.914624322   0.000228660668 -0.000107781296   0.000228660668 -0.000107781296      0.360365013     0.910745115
12.661624            0.351166295     0.914446424   0.000228965956  -0.00010806318   0.000228965957 -0.000108063181      0.360789197      0.91056082
12.661652            0.351588299     0.914268183   0.000229271669 -0.000108345806   0.000229271669 -0.000108345806      0.361213623     0.910376173
12.66168             0.352010545     0.914089598   0.000229577805 -0.000108629175   0.000229577805 -0.000108629175       0.36163829     0.910191173
12.661708            0.352433032     0.913910669   0.000229884365 -0.000108913288   0.000229884365 -0.000108913288        0.3620632     0.910005819
12.661736            0.352855761     0.913731395    0.00023019135 -0.000109198149   0.000230191351  -0.00010919815      0.362488351     0.909820112
12.661764            0.353278732     0.913551776   0.000230498761  -0.00010948376   0.000230498761  -0.00010948376      0.362913745     0.909634049
12.661792            0.353701945     0.913371811   0.000230806597 -0.000109770122   0.000230806597 -0.000109770122      0.363339381     0.909447631
12.66182               0.3541254       0.9131915   0.000231114859 -0.000110057237   0.000231114859 -0.000110057237      0.363765259     0.909260857
12.661848            0.354549097     0.913010841   0.000231423547 -0.000110345108   0.000231423548 -0.000110345108      0.364191379     0.909073726
12.661876            0.354973036     0.912829834   0.000231732663 -0.000110633737   0.000231732663 -0.000110633737      0.364617743     0.908886238
12.661904            0.355397218     0.912648479   0.000232042206 -0.000110923126   0.000232042206 -0.000110923126      0.365044349     0.908698392
12.661932            0.355821642     0.912466775   0.000232352176 -0.000111213277   0.000232352176 -0.000111213277      0.365471197     0.908510187
12.66196             0.356246309     0.912284721   0.000232662575 -0.000111504191   0.000232662575 -0.000111504191      0.365898289     0.908321623
12.661988            0.356671219     0.912102316   0.000232973402 -0.000111795873   0.000232973402 -0.000111795873      0.366325624     0.908132699
12.662016            0.357096372     0.911919561   0.000233284658 -0.000112088322   0.000233284658 -0.000112088322      0.366753202     0.907943414
12.662044            0.357521768     0.911736454   0.000233596344 -0.000112381542   0.000233596344 -0.000112381542      0.367181023     0.907753769
12.662072            0.357947406     0.911552995   0.000233908459 -0.000112675535   0.000233908459 -0.000112675535      0.367609087     0.907563761
12.6621              0.358373289     0.911369182   0.000234221005 -0.000112970303   0.000234221005 -0.000112970303      0.368037395      0.90737339
12.662128            0.358799414     0.911185017   0.000234533981 -0.000113265847   0.000234533981 -0.000113265847      0.368465947     0.907182657
12.662156            0.359225783     0.911000497   0.000234847389 -0.000113562171   0.000234847389 -0.000113562171      0.368894742     0.906991559
12.662184            0.359652396     0.910815622   0.000235161228 -0.000113859276   0.000235161228 -0.000113859276      0.369323782     0.906800097
12.662212            0.360079252     0.910630392   0.000235475499 -0.000114157165   0.000235475499 -0.000114157165      0.369753065      0.90660827
12.66224             0.360506353     0.910444805   0.000235790202  -0.00011445584   0.000235790202  -0.00011445584      0.370182592     0.906416077
12.662268            0.360933697     0.910258862   0.000236105338 -0.000114755303   0.000236105338 -0.000114755303      0.370612363     0.906223517
12.662296            0.361361285     0.910072561   0.000236420907 -0.000115055555   0.000236420907 -0.000115055555      0.371042379      0.90603059
12.662324            0.361789118     0.909885903    0.00023673691 -0.000115356601    0.00023673691 -0.000115356601      0.371472639     0.905837295
12.662352            0.362217194     0.909698886   0.000237053346  -0.00011565844   0.000237053347  -0.00011565844      0.371903143     0.905643632
12.66238             0.362645516     0.909511509   0.000237370217 -0.000115961077   0.000237370218 -0.000115961077      0.372333892       0.9054496
12.662408            0.363074081     0.909323772   0.000237687523 -0.000116264513   0.000237687524 -0.000116264513      0.372764886     0.905255197
12.662436            0.363502892     0.909135675   0.000238005264  -0.00011656875   0.000238005265  -0.00011656875      0.373196124     0.905060424
12.662464            0.363931947     0.908947216   0.000238323441  -0.00011687379   0.000238323441  -0.00011687379      0.373627608      0.90486528
12.662492            0.364361247     0.908758396   0.000238642054 -0.000117179637   0.000238642054 -0.000117179637      0.374059336     0.904669764
12.66252             0.364790792     0.908569212   0.000238961103 -0.000117486291   0.000238961103 -0.000117486291       0.37449131     0.904473876
12.662548            0.365220583     0.908379666   0.000239280589 -0.000117793756   0.000239280589 -0.000117793756      0.374923529     0.904277614
12.662576            0.365650618     0.908189755   0.000239600512 -0.000118102033   0.000239600513 -0.000118102033      0.375355993     0.904080978
12.662604            0.366080899      0.90799948   0.000239920873 -0.000118411125   0.000239920873 -0.000118411125      0.375788703     0.903883968
12.662632            0.366511425      0.90780884   0.000240241672 -0.000118721035   0.000240241672 -0.000118721035      0.376221658     0.903686582
12.66266             0.366942197     0.907617834   0.000240562909 -0.000119031764    0.00024056291 -0.000119031764      0.376654859     0.903488821
12.662688            0.367373214     0.907426461   0.000240884585 -0.000119343314   0.000240884586 -0.000119343314      0.377088306     0.903290683
12.662716            0.367804478     0.907234721   0.000241206701 -0.000119655689   0.000241206701 -0.000119655689      0.377521998     0.903092167
12.662744            0.368235987     0.907042613   0.000241529256  -0.00011996889   0.000241529256  -0.00011996889      0.377955937     0.902893273
12.662772            0.368667742     0.906850136   0.000241852251  -0.00012028292   0.000241852251  -0.00012028292      0.378390121     0.902694001
12.6628              0.369099743      0.90665729   0.000242175686 -0.000120597781   0.000242175686 -0.000120597781      0.378824552     0.902494349
12.662828            0.369531991     0.906464074   0.000242499562 -0.000120913475   0.000242499562 -0.000120913475      0.379259229     0.902294317
12.662856            0.369964485     0.906270488    0.00024282388 -0.000121230004    0.00024282388 -0.000121230005      0.379694153     0.902093905
12.662884            0.370397225      0.90607653   0.000243148639 -0.000121547372   0.000243148639 -0.000121547372      0.380129323     0.901893111
12.662912            0.370830212       0.9058822   0.000243473839 -0.000121865581    0.00024347384 -0.000121865581       0.38056474     0.901691934
12.66294             0.371263446     0.905687498   0.000243799483 -0.000122184632   0.000243799483 -0.000122184632      0.381000403     0.901490375
12.662968            0.371696926     0.905492422   0.000244125569 -0.000122504528   0.000244125569 -0.000122504528      0.381436313     0.901288432
12.662996            0.372130653     0.905296972   0.000244452098 -0.000122825271   0.000244452098 -0.000122825271       0.38187247     0.901086105
12.663024            0.372564627     0.905101148    0.00024477907 -0.000123146865   0.000244779071 -0.000123146865      0.382308874     0.900883393
12.663052            0.372998849     0.904904948   0.000245106487 -0.000123469311   0.000245106487 -0.000123469311      0.382745525     0.900680296
12.66308             0.373433317     0.904708372   0.000245434348 -0.000123792611   0.000245434348 -0.000123792611      0.383182424     0.900476811
12.663108            0.373868033      0.90451142   0.000245762653 -0.000124116769   0.000245762653 -0.000124116769       0.38361957      0.90027294
12.663136            0.374302996      0.90431409   0.000246091404 -0.000124441786   0.000246091404 -0.000124441786      0.384056963     0.900068681
12.663164            0.374738207     0.904116382   0.000246420599 -0.000124767665     0.0002464206 -0.000124767665      0.384494604     0.899864034
12.663192            0.375173666     0.903918295   0.000246750241 -0.000125094408   0.000246750241 -0.000125094408      0.384932492     0.899658997
12.66322             0.375609372     0.903719828   0.000247080329 -0.000125422018   0.000247080329 -0.000125422018      0.385370628      0.89945357
12.663248            0.376045326     0.903520982   0.000247410863 -0.000125750497   0.000247410863 -0.000125750497      0.385809012     0.899247753
12.663276            0.376481528     0.903321754   0.000247741844 -0.000126079848   0.000247741844 -0.000126079848      0.386247643     0.899041544
12.663304            0.376917978     0.903122145   0.000248073273 -0.000126410073   0.000248073273 -0.000126410073      0.386686523     0.898834943
12.663332            0.377354676     0.902922154   0.000248405149 -0.000126741174   0.000248405149 -0.000126741174      0.387125651      0.89862795
12.66336             0.377791623     0.902721779   0.000248737473 -0.000127073155   0.000248737473 -0.000127073155      0.387565027     0.898420562
12.663388            0.378228818     0.902521021   0.000249070245 -0.000127406017   0.000249070246 -0.000127406017      0.388004652     0.898212781
12.663416            0.378666261     0.902319879   0.000249403467 -0.000127739763   0.000249403467 -0.000127739763      0.388444524     0.898004605
12.663444            0.379103953     0.902118351   0.000249737137 -0.000128074395   0.000249737137 -0.000128074395      0.388884646     0.897796033
12.663472            0.379541894     0.901916438   0.000250071257 -0.000128409917   0.000250071257 -0.000128409917      0.389325016     0.897587064
12.6635              0.379980083     0.901714138   0.000250405826  -0.00012874633   0.000250405826  -0.00012874633      0.389765634     0.897377698
