! TOUCHSTONE file generated by CST MICROWAVE STUDIO
! Date and time: Wed Jul 31 11:33:57 2024
! Project name: WaveGuide_BPF-Ver4.1_U-shape_Ku_T3_C4_CWA_2.cst
! Parameters = {cavity_h=16; cavity_l0=10; cavity_l1=15.2333; cavity_l2=16.8782; cavity_l3=17.0892; cavity_l4=17.2301; cavity_l5=17.1553; cavity_l6=17.5868; cavity_r=2.5; cavity_screw_l=0.5; cavity_screw_r=1.5; cavity_w=8; iris_h00=0; iris_h01=8.8009; iris_h112=0; iris_h12=5.5881; iris_h211=3.6536; iris_h23=5.2121; iris_h310=3.9688; iris_h34=5.0749; iris_h45=4.9242; iris_h49=4.6172; iris_h56=4.7948; iris_h58=4.4331; iris_h67=6.5721; iris_rx=0.1; iris_screw_l=0.5; iris_screw_r=1.5; iris_shift00=0; iris_shift112=0; iris_shift211=3.5; iris_shift310=0; iris_shift49=0; iris_shift58=3.5; iris_shift67=3.5; iris_tx=4.5; iris_tz=4.5; iris_w00=0; iris_w112=0; iris_w211=4; iris_w310=3.9688; iris_w49=4.6172; iris_w58=4; iris_w67=4; mesh_cavity=5; mesh_iris=7; mesh_screw=7; order=12; reset_all=0; sigma=4.8e+07}
! Header version: 2018
! Port assignment regex: !\s*Touchstone port\s*([0-9]+)\s*=\s*(CST MWS port|CST DS port)\s*([0-9]+|Zmin|Zmax)\s*\(\"(.*)\"\)(\s*mode\s*([0-9]+))?.*
! Touchstone port assignment:
! Touchstone port 1 = CST MWS port 1 ("")
! Touchstone port 2 = CST MWS port 2 ("")
# GHz S RI R 50
12.66                0.387713011     0.897208661   0.000356905838 -0.000189734255   0.000356905838 -0.000189734255      0.388492541     0.896953829
12.660028            0.388173572     0.896988587   0.000357459048 -0.000190283955   0.000357459048 -0.000190283955      0.388952381      0.89673368
12.660056            0.388634561     0.896768007   0.000358013156 -0.000190835342   0.000358013156 -0.000190835342      0.389412494     0.896513089
12.660084            0.389095919     0.896546943   0.000358568172 -0.000191388413   0.000358568173 -0.000191388413      0.389872888     0.896292053
12.660112            0.389557588      0.89632542   0.000359124108 -0.000191943166   0.000359124108 -0.000191943165       0.39033357     0.896070567
12.66014             0.390019508     0.896103461   0.000359680975 -0.000192499598   0.000359680975 -0.000192499598      0.390794547     0.895848629
12.660168             0.39048168     0.895881067   0.000360238773 -0.000193057715   0.000360238773 -0.000193057715      0.391255819     0.895626238
12.660196            0.390944144     0.895658219   0.000360797498 -0.000193617529   0.000360797498 -0.000193617529      0.391717382     0.895403393
12.660224            0.391406898     0.895434916   0.000361357151 -0.000194179044   0.000361357151 -0.000194179044      0.392179236     0.895180095
12.660252            0.391869944     0.895211158   0.000361917732 -0.000194742267   0.000361917733 -0.000194742267      0.392641381     0.894956342
12.66028             0.392333282     0.894986944   0.000362479245 -0.000195307202   0.000362479245 -0.000195307202      0.393103817     0.894732133
12.660308            0.392796912     0.894762272   0.000363041689 -0.000195873857   0.000363041689 -0.000195873857      0.393566544     0.894507468
12.660336            0.393260834     0.894537142   0.000363605066 -0.000196442235   0.000363605066 -0.000196442235      0.394029563     0.894282346
12.660364            0.393725048     0.894311552   0.000364169377 -0.000197012344   0.000364169377 -0.000197012344      0.394492874     0.894056765
12.660392            0.394189555     0.894085503   0.000364734623 -0.000197584189   0.000364734623 -0.000197584189      0.394956476     0.893830725
12.66042             0.394654354     0.893858992   0.000365300806 -0.000198157775   0.000365300806 -0.000198157775      0.395420371     0.893604225
12.660448            0.395119445     0.893632019   0.000365867927 -0.000198733109   0.000365867927 -0.000198733109      0.395884557     0.893377263
12.660476             0.39558483     0.893404583   0.000366435988 -0.000199310197   0.000366435988 -0.000199310196      0.396349036     0.893149839
12.660504            0.396050508     0.893176683   0.000367004988 -0.000199889043   0.000367004988 -0.000199889043      0.396813808     0.892921952
12.660532            0.396516479     0.892948318   0.000367574931 -0.000200469654   0.000367574931 -0.000200469654      0.397278872     0.892693601
12.66056             0.396982743     0.892719487   0.000368145816 -0.000201052037   0.000368145816 -0.000201052036      0.397744229     0.892464785
12.660588            0.397449301     0.892490189   0.000368717646 -0.000201636196   0.000368717646 -0.000201636196      0.398209879     0.892235503
12.660616            0.397916152     0.892260424   0.000369290421 -0.000202222137   0.000369290421 -0.000202222137      0.398675823     0.892005754
12.660644            0.398383298     0.892030189   0.000369864142 -0.000202809868   0.000369864143 -0.000202809868      0.399142059     0.891775537
12.660672            0.398850737     0.891799485   0.000370438812 -0.000203399393   0.000370438812 -0.000203399393       0.39960859     0.891544851
12.6607              0.399318471      0.89156831   0.000371014431 -0.000203990719   0.000371014431 -0.000203990719      0.400075413     0.891313695
12.660728            0.399786499     0.891336663      0.000371591 -0.000204583851      0.000371591 -0.000204583851      0.400542531     0.891082068
12.660756            0.400254821     0.891104543   0.000372168521 -0.000205178796   0.000372168521 -0.000205178796      0.401009943      0.89084997
12.660784            0.400723438      0.89087195   0.000372746995  -0.00020577556   0.000372746995  -0.00020577556      0.401477648     0.890617398
12.660812             0.40119235     0.890638882   0.000373326422 -0.000206374149   0.000373326422 -0.000206374149      0.401945648     0.890384353
12.66084             0.401661557     0.890405338   0.000373906806 -0.000206974569   0.000373906806 -0.000206974568      0.402413943     0.890150833
12.660868            0.402131059     0.890171318   0.000374488145 -0.000207576825   0.000374488145 -0.000207576825      0.402882532     0.889916838
12.660896            0.402600856     0.889936819   0.000375070443 -0.000208180925   0.000375070443 -0.000208180925      0.403351416     0.889682365
12.660924            0.403070949     0.889701843   0.000375653699 -0.000208786874     0.0003756537 -0.000208786874      0.403820595     0.889447415
12.660952            0.403541337     0.889466386   0.000376237916 -0.000209394679   0.000376237916 -0.000209394679      0.404290069     0.889211986
12.66098             0.404012022     0.889230449   0.000376823095 -0.000210004346   0.000376823095 -0.000210004346      0.404759838     0.888976077
12.661008            0.404483002     0.888994031   0.000377409236  -0.00021061588   0.000377409236  -0.00021061588      0.405229903     0.888739688
12.661036            0.404954278     0.888757129   0.000377996341 -0.000211229289   0.000377996341 -0.000211229289      0.405700263     0.888502817
12.661064             0.40542585     0.888519744   0.000378584411 -0.000211844579   0.000378584411 -0.000211844578      0.406170919     0.888265463
12.661092            0.405897719     0.888281875   0.000379173447 -0.000212461755   0.000379173447 -0.000212461755      0.406641871     0.888027626
12.66112             0.406369884      0.88804352   0.000379763451 -0.000213080824   0.000379763451 -0.000213080824      0.407113118     0.887789303
12.661148            0.406842346     0.887804678   0.000380354424 -0.000213701794   0.000380354424 -0.000213701793      0.407584662     0.887550495
12.661176            0.407315105     0.887565348   0.000380946367 -0.000214324668   0.000380946367 -0.000214324668      0.408056503     0.887311201
12.661204            0.407788161      0.88732553   0.000381539281 -0.000214949456   0.000381539281 -0.000214949456      0.408528639     0.887071418
12.661232            0.408261514     0.887085221   0.000382133168 -0.000215576162   0.000382133168 -0.000215576162      0.409001073     0.886831147
12.66126             0.408735164     0.886844423   0.000382728028 -0.000216204793   0.000382728028 -0.000216204793      0.409473803     0.886590385
12.661288            0.409209112     0.886603132   0.000383323862 -0.000216835356   0.000383323863 -0.000216835356       0.40994683     0.886349133
12.661316            0.409683357     0.886361348   0.000383920673 -0.000217467857   0.000383920673 -0.000217467857      0.410420154      0.88610739
12.661344              0.4101579     0.886119071   0.000384518461 -0.000218102303   0.000384518462 -0.000218102303      0.410893776     0.885865153
12.661372            0.410632741     0.885876299   0.000385117228   -0.0002187387   0.000385117228   -0.0002187387      0.411367695     0.885622422
12.6614               0.41110788     0.885633031   0.000385716974 -0.000219377054   0.000385716974 -0.000219377054      0.411841911     0.885379196
12.661428            0.411583317     0.885389266   0.000386317701 -0.000220017374   0.000386317701 -0.000220017373      0.412316425     0.885135475
12.661456            0.412059052     0.885145003    0.00038691941 -0.000220659664    0.00038691941 -0.000220659663      0.412791237     0.884891256
12.661484            0.412535087     0.884900241   0.000387522102 -0.000221303931   0.000387522102 -0.000221303931      0.413266347     0.884646539
12.661512            0.413011419     0.884654979   0.000388125778 -0.000221950183   0.000388125778 -0.000221950183      0.413741756     0.884401323
12.66154             0.413488051     0.884409215    0.00038873044 -0.000222598426    0.00038873044 -0.000222598426      0.414217462     0.884155607
12.661568            0.413964981      0.88416295   0.000389336089 -0.000223248667   0.000389336089 -0.000223248667      0.414693467      0.88390939
12.661596            0.414442211     0.883916181   0.000389942725 -0.000223900912   0.000389942725 -0.000223900912       0.41516977      0.88366267
12.661624            0.414919739     0.883668908   0.000390550351 -0.000224555168   0.000390550351 -0.000224555168      0.415646372     0.883415448
12.661652            0.415397567      0.88342113   0.000391158966 -0.000225211442   0.000391158966 -0.000225211442      0.416123273      0.88316772
12.66168             0.415875695     0.883172846   0.000391768573 -0.000225869741   0.000391768573 -0.000225869741      0.416600474     0.882919488
12.661708            0.416354122     0.882924053   0.000392379173 -0.000226530072   0.000392379173 -0.000226530072      0.417077973     0.882670748
12.661736            0.416832849     0.882674753   0.000392990766 -0.000227192441   0.000392990766 -0.000227192441      0.417555771     0.882421502
12.661764            0.417311876     0.882424943   0.000393603354 -0.000227856855   0.000393603354 -0.000227856855      0.418033869     0.882171746
12.661792            0.417791203     0.882174622   0.000394216939 -0.000228523322   0.000394216939 -0.000228523322      0.418512267     0.881921481
12.66182              0.41827083     0.881923789    0.00039483152 -0.000229191848    0.00039483152 -0.000229191848      0.418990964     0.881670706
12.661848            0.418750758     0.881672443   0.000395447099  -0.00022986244     0.0003954471  -0.00022986244      0.419469961     0.881419418
12.661876            0.419230986     0.881420584   0.000396063678 -0.000230535105   0.000396063679 -0.000230535105      0.419949258     0.881167617
12.661904            0.419711515      0.88116821   0.000396681258 -0.000231209851   0.000396681258  -0.00023120985      0.420428856     0.880915303
12.661932            0.420192344     0.880915319   0.000397299839 -0.000231886683    0.00039729984 -0.000231886683      0.420908753     0.880662473
12.66196             0.420673475     0.880661912   0.000397919424  -0.00023256561   0.000397919424  -0.00023256561      0.421388951     0.880409127
12.661988            0.421154906     0.880407986   0.000398540012 -0.000233246638   0.000398540012 -0.000233246638       0.42186945     0.880155264
12.662016            0.421636639      0.88015354   0.000399161605 -0.000233929775   0.000399161605 -0.000233929775      0.422350249     0.879900883
12.662044            0.422118673     0.879898575   0.000399784205 -0.000234615027   0.000399784205 -0.000234615027      0.422831349     0.879645982
12.662072            0.422601009     0.879643088   0.000400407812 -0.000235302403   0.000400407812 -0.000235302402      0.423312751      0.87939056
12.6621              0.423083646     0.879387078   0.000401032427 -0.000235991908   0.000401032427 -0.000235991908      0.423794453     0.879134617
12.662128            0.423566585     0.879130544   0.000401658052  -0.00023668355   0.000401658052  -0.00023668355      0.424276456     0.878878151
12.662156            0.424049826     0.878873486   0.000402284688 -0.000237377337   0.000402284688 -0.000237377337      0.424758761     0.878621162
12.662184            0.424533368     0.878615901   0.000402912336 -0.000238073276   0.000402912336 -0.000238073276      0.425241368     0.878363647
12.662212            0.425017213      0.87835779   0.000403540996 -0.000238771373   0.000403540996 -0.000238771373      0.425724276     0.878105606
12.66224              0.42550136      0.87809915   0.000404170671 -0.000239471638   0.000404170671 -0.000239471637      0.426207486     0.877847038
12.662268             0.42598581     0.877839981    0.00040480136 -0.000240174075    0.00040480136 -0.000240174075      0.426690998     0.877587942
12.662296            0.426470562     0.877580282   0.000405433066 -0.000240878694   0.000405433066 -0.000240878694      0.427174811     0.877328316
12.662324            0.426955617     0.877320051   0.000406065789 -0.000241585502    0.00040606579 -0.000241585502      0.427658927      0.87706816
12.662352            0.427440974     0.877059287   0.000406699531 -0.000242294505   0.000406699531 -0.000242294505      0.428143346     0.876807472
12.66238             0.427926635     0.876797989   0.000407334292 -0.000243005712   0.000407334292 -0.000243005712      0.428628067     0.876546252
12.662408            0.428412598     0.876536157   0.000407970074  -0.00024371913   0.000407970074  -0.00024371913       0.42911309     0.876284497
12.662436            0.428898865     0.876273788   0.000408606877 -0.000244434767   0.000408606877 -0.000244434767      0.429598416     0.876022207
12.662464            0.429385435     0.876010883   0.000409244703 -0.000245152629   0.000409244703 -0.000245152629      0.430084045     0.875759381
12.662492            0.429872308     0.875747439   0.000409883553 -0.000245872725   0.000409883553 -0.000245872725      0.430569977     0.875496018
12.66252             0.430359485     0.875483455   0.000410523427 -0.000246595063   0.000410523427 -0.000246595063      0.431056212     0.875232116
12.662548            0.430846966     0.875218931   0.000411164327 -0.000247319649   0.000411164328 -0.000247319649       0.43154275     0.874967675
12.662576            0.431334751     0.874953865   0.000411806255 -0.000248046492   0.000411806255 -0.000248046491      0.432029592     0.874702693
12.662604            0.431822839     0.874688255    0.00041244921 -0.000248775598    0.00041244921 -0.000248775598      0.432516737     0.874437169
12.662632            0.432311231     0.874422102   0.000413093194 -0.000249506977   0.000413093194 -0.000249506977      0.433004185     0.874171102
12.66266             0.432799928     0.874155404   0.000413738209 -0.000250240636   0.000413738209 -0.000250240636      0.433491937     0.873904491
12.662688            0.433288929     0.873888159   0.000414384254 -0.000250976582   0.000414384254 -0.000250976582      0.433979994     0.873637334
12.662716            0.433778234     0.873620366   0.000415031332 -0.000251714823   0.000415031332 -0.000251714823      0.434468354      0.87336963
12.662744            0.434267844     0.873352025   0.000415679443 -0.000252455367   0.000415679443 -0.000252455367      0.434957018     0.873101379
12.662772            0.434757759     0.873083134   0.000416328588 -0.000253198223   0.000416328588 -0.000253198223      0.435445986      0.87283258
12.6628              0.435247978     0.872813692   0.000416978768 -0.000253943397   0.000416978768 -0.000253943397      0.435935259      0.87256323
12.662828            0.435738502     0.872543697   0.000417629984 -0.000254690898   0.000417629984 -0.000254690898      0.436424836     0.872293328
12.662856            0.436229331     0.872273149   0.000418282238 -0.000255440734   0.000418282238 -0.000255440734      0.436914717     0.872022875
12.662884            0.436720466     0.872002046   0.000418935529 -0.000256192912   0.000418935529 -0.000256192912      0.437404904     0.871751867
12.662912            0.437211905     0.871730388    0.00041958986 -0.000256947442    0.00041958986 -0.000256947441      0.437895395     0.871480305
12.66294              0.43770365     0.871458172   0.000420245231  -0.00025770433   0.000420245232  -0.00025770433      0.438386191     0.871208187
12.662968            0.438195701     0.871185398   0.000420901644 -0.000258463585   0.000420901644 -0.000258463584      0.438877292     0.870935512
12.662996            0.438688057     0.870912065   0.000421559098 -0.000259225215   0.000421559098 -0.000259225214      0.439368698     0.870662279
12.663024            0.439180718     0.870638171   0.000422217596 -0.000259989228   0.000422217596 -0.000259989227      0.439860409     0.870388486
12.663052            0.439673686     0.870363715   0.000422877138 -0.000260755632   0.000422877138 -0.000260755632      0.440352426     0.870114132
12.66308             0.440166959     0.870088697   0.000423537725 -0.000261524436   0.000423537725 -0.000261524435      0.440844748     0.869839216
12.663108            0.440660539     0.869813114   0.000424199358 -0.000262295647   0.000424199358 -0.000262295647      0.441337376     0.869563737
12.663136            0.441154424     0.869536965   0.000424862038 -0.000263069275   0.000424862038 -0.000263069274      0.441830309     0.869287694
12.663164            0.441648616      0.86926025   0.000425525766 -0.000263845326   0.000425525766 -0.000263845326      0.442323549     0.869011085
12.663192            0.442143114     0.868982967   0.000426190542  -0.00026462381   0.000426190543  -0.00026462381      0.442817094     0.868733909
12.66322             0.442637919     0.868705115   0.000426856369 -0.000265404735   0.000426856369 -0.000265404735      0.443310945     0.868456166
12.663248             0.44313303     0.868426693   0.000427523247  -0.00026618811   0.000427523247  -0.00026618811      0.443805102     0.868177853
12.663276            0.443628448     0.868147699   0.000428191176 -0.000266973942   0.000428191176 -0.000266973942      0.444299566      0.86789897
12.663304            0.444124173     0.867868133   0.000428860157  -0.00026776224   0.000428860158  -0.00026776224      0.444794336     0.867619515
12.663332            0.444620204     0.867587992   0.000429530193 -0.000268553013   0.000429530193 -0.000268553013      0.445289412     0.867339487
12.66336             0.445116543     0.867307276   0.000430201283 -0.000269346269   0.000430201283 -0.000269346269      0.445784795     0.867058885
12.663388            0.445613188     0.867025984   0.000430873428 -0.000270142017   0.000430873428 -0.000270142016      0.446280485     0.866777707
12.663416            0.446110141     0.866744114   0.000431546629 -0.000270940264   0.000431546629 -0.000270940264      0.446776481     0.866495953
12.663444            0.446607401     0.866461665   0.000432220888 -0.000271741021   0.000432220888 -0.000271741021      0.447272784     0.866213621
12.663472            0.447104969     0.866178636   0.000432896204 -0.000272544295   0.000432896204 -0.000272544295      0.447769394      0.86593071
12.6635              0.447602844     0.865895026    0.00043357258 -0.000273350096    0.00043357258 -0.000273350095      0.448266311     0.865647219
