! TOUCHSTONE file generated by CST MICROWAVE STUDIO
! Date and time: Wed Jul 31 11:43:14 2024
! Project name: WaveGuide_BPF-Ver4.1_U-shape_Ku_T3_C4_CWA_2.cst
! Parameters = {cavity_h=16; cavity_l0=10; cavity_l1=15.2249; cavity_l2=16.8077; cavity_l3=17.1191; cavity_l4=17.2475; cavity_l5=17.105; cavity_l6=17.5542; cavity_r=2.5; cavity_screw_l=0.5; cavity_screw_r=1.5; cavity_w=8; iris_h00=0; iris_h01=8.8126; iris_h112=0; iris_h12=5.6087; iris_h211=3.6646; iris_h23=5.2046; iris_h310=3.965; iris_h34=5.0706; iris_h45=4.9259; iris_h49=4.6244; iris_h56=4.8075; iris_h58=4.4454; iris_h67=6.5742; iris_rx=0.1; iris_screw_l=0.5; iris_screw_r=1.5; iris_shift00=0; iris_shift112=0; iris_shift211=3.5; iris_shift310=0; iris_shift49=0; iris_shift58=3.5; iris_shift67=3.5; iris_tx=4.5; iris_tz=4.5; iris_w00=0; iris_w112=0; iris_w211=4; iris_w310=3.965; iris_w49=4.6244; iris_w58=4; iris_w67=4; mesh_cavity=5; mesh_iris=7; mesh_screw=7; order=12; reset_all=0; sigma=4.8e+07}
! Header version: 2018
! Port assignment regex: !\s*Touchstone port\s*([0-9]+)\s*=\s*(CST MWS port|CST DS port)\s*([0-9]+|Zmin|Zmax)\s*\(\"(.*)\"\)(\s*mode\s*([0-9]+))?.*
! Touchstone port assignment:
! Touchstone port 1 = CST MWS port 1 ("")
! Touchstone port 2 = CST MWS port 2 ("")
# GHz S RI R 50
12.66                 0.39743783     0.893980498    0.00020919875 -0.000111377948   0.000209198749 -0.000111377946      0.405554242     0.890278352
12.660028            0.397877394     0.893767471    0.00020945505  -0.00011165443   0.000209455049 -0.000111654429      0.405994499     0.890060023
12.660056            0.398317259     0.893554021   0.000209711635 -0.000111931606   0.000209711634 -0.000111931604      0.406434991     0.889841294
12.660084            0.398757397     0.893340161   0.000209968509 -0.000112209473   0.000209968508 -0.000112209472      0.406875715     0.889622165
12.660112            0.399197778     0.893125903   0.000210225676 -0.000112488032   0.000210225674 -0.000112488031       0.40731667     0.889402635
12.66014              0.39963837     0.892911258   0.000210483138 -0.000112767281   0.000210483137  -0.00011276728      0.407757854     0.889182705
12.660168            0.400079173     0.892696228   0.000210740897 -0.000113047222   0.000210740895  -0.00011304722      0.408199266     0.888962374
12.660196            0.400520209     0.892480801   0.000210998949 -0.000113327858   0.000210998948 -0.000113327857      0.408640908     0.888741642
12.660224            0.400961477     0.892264978   0.000211257295 -0.000113609192   0.000211257294  -0.00011360919      0.409082781     0.888520506
12.660252            0.401402978     0.892048758   0.000211515936 -0.000113891224   0.000211515934 -0.000113891223      0.409524883     0.888298967
12.66028              0.40184471      0.89183214    0.00021177487 -0.000114173958   0.000211774869 -0.000114173957      0.409967216     0.888077024
12.660308            0.402286675     0.891615123   0.000212034098 -0.000114457395   0.000212034097 -0.000114457393      0.410409779     0.887854677
12.660336            0.402728872     0.891397707   0.000212293621 -0.000114741536   0.000212293619 -0.000114741534      0.410852572     0.887631923
12.660364            0.403171302     0.891179891   0.000212553437 -0.000115026383   0.000212553436 -0.000115026382      0.411295596     0.887408764
12.660392            0.403613964     0.890961675   0.000212813548 -0.000115311939   0.000212813547 -0.000115311937      0.411738849     0.887185197
12.66042             0.404056858     0.890743056   0.000213073953 -0.000115598204   0.000213073952 -0.000115598203      0.412182334     0.886961223
12.660448            0.404499985     0.890524036   0.000213334653 -0.000115885182   0.000213334651  -0.00011588518      0.412626048     0.886736841
12.660476            0.404943345     0.890304613   0.000213595647 -0.000116172873   0.000213595645 -0.000116172872      0.413069993     0.886512049
12.660504            0.405386937     0.890084787   0.000213856935  -0.00011646128   0.000213856933 -0.000116461279      0.413514169     0.886286848
12.660532            0.405830762     0.889864556   0.000214118518 -0.000116750404   0.000214118516 -0.000116750403      0.413958575     0.886061236
12.66056             0.406274819     0.889643921   0.000214380395 -0.000117040248   0.000214380394 -0.000117040247      0.414403212     0.885835213
12.660588             0.40671911      0.88942288   0.000214642567 -0.000117330813   0.000214642565 -0.000117330811      0.414848079     0.885608778
12.660616            0.407163633     0.889201432   0.000214905033 -0.000117622101   0.000214905032 -0.000117622099      0.415293177      0.88538193
12.660644            0.407608389     0.888979578   0.000215167794 -0.000117914113   0.000215167793 -0.000117914112      0.415738506     0.885154669
12.660672            0.408053377     0.888757316    0.00021543085 -0.000118206853   0.000215430849 -0.000118206851      0.416184065     0.884926994
12.6607              0.408498599     0.888534645   0.000215694201 -0.000118500321   0.000215694199  -0.00011850032      0.416629855     0.884698904
12.660728            0.408944054     0.888311565   0.000215957846  -0.00011879452   0.000215957845 -0.000118794518      0.417075876     0.884470399
12.660756            0.409389741     0.888088076   0.000216221786 -0.000119089451   0.000216221785 -0.000119089449      0.417522127     0.884241478
12.660784            0.409835662     0.887864176   0.000216486021 -0.000119385116    0.00021648602 -0.000119385115       0.41796861     0.884012139
12.660812            0.410281816     0.887639864   0.000216750551 -0.000119681518   0.000216750549 -0.000119681516      0.418415323     0.883782383
12.66084             0.410728202     0.887415141   0.000217015375 -0.000119978658   0.000217015374 -0.000119978656      0.418862267     0.883552208
12.660868            0.411174822     0.887190004   0.000217280495 -0.000120276537   0.000217280493 -0.000120276536      0.419309442     0.883321614
12.660896            0.411621676     0.886964455   0.000217545909 -0.000120575159   0.000217545908 -0.000120575158      0.419756848     0.883090601
12.660924            0.412068762     0.886738491   0.000217811618 -0.000120874525   0.000217811617 -0.000120874524      0.420204485     0.882859167
12.660952            0.412516081     0.886512112   0.000218077623 -0.000121174636   0.000218077621 -0.000121174635      0.420652352     0.882627311
12.66098             0.412963634     0.886285318   0.000218343922 -0.000121475496   0.000218343921 -0.000121475494      0.421100451     0.882395033
12.661008             0.41341142     0.886058107   0.000218610516 -0.000121777105   0.000218610515 -0.000121777103      0.421548781     0.882162333
12.661036             0.41385944     0.885830479   0.000218877405 -0.000122079465   0.000218877404 -0.000122079464      0.421997342     0.881929209
12.661064            0.414307693     0.885602434   0.000219144589 -0.000122382579   0.000219144588 -0.000122382578      0.422446134     0.881695661
12.661092            0.414756179     0.885373969   0.000219412068 -0.000122686449   0.000219412067 -0.000122686447      0.422895157     0.881461687
12.66112             0.415204899     0.885145086   0.000219679842 -0.000122991076   0.000219679841 -0.000122991075      0.423344411     0.881227288
12.661148            0.415653852     0.884915783   0.000219947912 -0.000123296463    0.00021994791 -0.000123296461      0.423793897     0.880992463
12.661176            0.416103039     0.884686058   0.000220216276 -0.000123602611   0.000220216274 -0.000123602609      0.424243613      0.88075721
12.661204            0.416552459     0.884455913   0.000220484935 -0.000123909522   0.000220484933  -0.00012390952      0.424693561     0.880521529
12.661232            0.417002113     0.884225345   0.000220753889 -0.000124217199   0.000220753888 -0.000124217197       0.42514374     0.880285419
12.66126                0.417452     0.883994354   0.000221023138 -0.000124525643   0.000221023137 -0.000124525641       0.42559415      0.88004888
12.661288            0.417902121      0.88376294   0.000221292682 -0.000124834856   0.000221292681 -0.000124834854      0.426044791     0.879811911
12.661316            0.418352476     0.883531101   0.000221562521 -0.000125144841    0.00022156252 -0.000125144839      0.426495664     0.879574511
12.661344            0.418803064     0.883298837   0.000221832655 -0.000125455599   0.000221832654 -0.000125455597      0.426946768     0.879336679
12.661372            0.419253886     0.883066147   0.000222103084 -0.000125767132   0.000222103082  -0.00012576713      0.427398103     0.879098414
12.6614              0.419704942      0.88283303   0.000222373808 -0.000126079443   0.000222373806 -0.000126079441       0.42784967     0.878859716
12.661428            0.420156232     0.882599486   0.000222644826 -0.000126392533   0.000222644825 -0.000126392531      0.428301468     0.878620584
12.661456            0.420607755     0.882365514    0.00022291614 -0.000126706404   0.000222916139 -0.000126706402      0.428753497     0.878381018
12.661484            0.421059512     0.882131113   0.000223187748 -0.000127021059   0.000223187747 -0.000127021057      0.429205758     0.878141016
12.661512            0.421511503     0.881896282   0.000223459651 -0.000127336499    0.00022345965 -0.000127336497       0.42965825     0.877900577
12.66154             0.421963728      0.88166102   0.000223731849 -0.000127652727   0.000223731848 -0.000127652725      0.430110974     0.877659702
12.661568            0.422416187     0.881425328   0.000224004342 -0.000127969744   0.000224004341 -0.000127969742      0.430563928     0.877418389
12.661596            0.422868879     0.881189204    0.00022427713 -0.000128287552   0.000224277128 -0.000128287551      0.431017115     0.877176637
12.661624            0.423321806     0.880952647   0.000224550212 -0.000128606155   0.000224550211 -0.000128606153      0.431470532     0.876934445
12.661652            0.423774966     0.880715656   0.000224823589 -0.000128925553   0.000224823587 -0.000128925551      0.431924182     0.876691814
12.66168             0.424228361     0.880478231    0.00022509726 -0.000129245748   0.000225097259 -0.000129245747      0.432378062     0.876448742
12.661708            0.424681989     0.880240372   0.000225371226 -0.000129566744   0.000225371225 -0.000129566742      0.432832174     0.876205228
12.661736            0.425135852     0.880002076   0.000225645487 -0.000129888541   0.000225645485 -0.000129888539      0.433286518     0.875961272
12.661764            0.425589948     0.879763344   0.000225920042 -0.000130211142    0.00022592004 -0.000130211141      0.433741093     0.875716872
12.661792            0.426044279     0.879524175   0.000226194891 -0.000130534549    0.00022619489 -0.000130534548      0.434195899     0.875472029
12.66182             0.426498843     0.879284568   0.000226470035 -0.000130858765   0.000226470033 -0.000130858763      0.434650937      0.87522674
12.661848            0.426953642     0.879044522   0.000226745473  -0.00013118379   0.000226745471 -0.000131183789      0.435106207     0.874981006
12.661876            0.427408674     0.878804036   0.000227021205 -0.000131509628   0.000227021204 -0.000131509627      0.435561708     0.874734826
12.661904            0.427863941      0.87856311   0.000227297232  -0.00013183628    0.00022729723 -0.000131836279       0.43601744     0.874488199
12.661932            0.428319442     0.878321743   0.000227573552 -0.000132163749   0.000227573551 -0.000132163748      0.436473405     0.874241124
12.66196             0.428775177     0.878079934   0.000227850167 -0.000132492036   0.000227850165 -0.000132492035        0.4369296       0.8739936
12.661988            0.429231146     0.877837683   0.000228127075 -0.000132821145   0.000228127074 -0.000132821143      0.437386027     0.873745627
12.662016            0.429687349     0.877594988   0.000228404278 -0.000133151076   0.000228404277 -0.000133151074      0.437842686     0.873497203
12.662044            0.430143787     0.877351848   0.000228681774 -0.000133481832   0.000228681773  -0.00013348183      0.438299576     0.873248328
12.662072            0.430600459     0.877108264   0.000228959564 -0.000133813415   0.000228959563 -0.000133813413      0.438756698     0.872999002
12.6621              0.431057364     0.876864234   0.000229237648 -0.000134145827   0.000229237647 -0.000134145826      0.439214051     0.872749223
12.662128            0.431514504     0.876619757   0.000229516026 -0.000134479071   0.000229516024  -0.00013447907      0.439671636      0.87249899
12.662156            0.431971879     0.876374833   0.000229794697 -0.000134813149   0.000229794695 -0.000134813147      0.440129452     0.872248304
12.662184            0.432429487     0.876129461   0.000230073661 -0.000135148062    0.00023007366 -0.000135148061        0.4405875     0.871997162
12.662212             0.43288733      0.87588364   0.000230352919 -0.000135483813   0.000230352917 -0.000135483812      0.441045779     0.871745564
12.66224             0.433345407     0.875637369    0.00023063247 -0.000135820405   0.000230632468 -0.000135820403       0.44150429      0.87149351
12.662268            0.433803718     0.875390648   0.000230912314 -0.000136157838   0.000230912312 -0.000136157837      0.441963032     0.871240999
12.662296            0.434262263     0.875143475   0.000231192451 -0.000136496116   0.000231192449 -0.000136496115      0.442422006     0.870988029
12.662324            0.434721043      0.87489585   0.000231472881 -0.000136835241   0.000231472879  -0.00013683524      0.442881212       0.8707346
12.662352            0.435180056     0.874647772   0.000231753604 -0.000137175215   0.000231753602 -0.000137175213      0.443340648     0.870480712
12.66238             0.435639305     0.874399241   0.000232034619 -0.000137516039   0.000232034618 -0.000137516038      0.443800317     0.870226362
12.662408            0.436098787     0.874150255   0.000232315928 -0.000137857717   0.000232315926 -0.000137857716      0.444260217     0.869971552
12.662436            0.436558503     0.873900813   0.000232597528 -0.000138200251   0.000232597527 -0.000138200249      0.444720348     0.869716279
12.662464            0.437018454     0.873650916   0.000232879422 -0.000138543642    0.00023287942  -0.00013854364      0.445180711     0.869460543
12.662492            0.437478639     0.873400562   0.000233161607 -0.000138887893   0.000233161606 -0.000138887891      0.445641305     0.869204343
12.66252             0.437939059      0.87314975   0.000233444085 -0.000139233006   0.000233444083 -0.000139233004      0.446102131     0.868947678
12.662548            0.438399712     0.872898479   0.000233726854 -0.000139578983   0.000233726853 -0.000139578982      0.446563188     0.868690548
12.662576              0.4388606     0.872646749   0.000234009916 -0.000139925827   0.000234009914 -0.000139925826      0.447024476     0.868432952
12.662604            0.439321722     0.872394559   0.000234293269  -0.00014027354   0.000234293268 -0.000140273539      0.447485996     0.868174888
12.662632            0.439783079     0.872141908   0.000234576914 -0.000140622124   0.000234576913 -0.000140622123      0.447947748     0.867916356
12.66266             0.440244669     0.871888795    0.00023486085 -0.000140971582   0.000234860849  -0.00014097158       0.44840973     0.867657356
12.662688            0.440706494      0.87163522   0.000235145078 -0.000141321915   0.000235145077 -0.000141321913      0.448871945     0.867397886
12.662716            0.441168553     0.871381181   0.000235429597 -0.000141673126   0.000235429596 -0.000141673124       0.44933439     0.867137945
12.662744            0.441630847     0.871126678   0.000235714408 -0.000142025217   0.000235714406 -0.000142025215      0.449797067     0.866877534
12.662772            0.442093374      0.87087171   0.000235999509 -0.000142378191   0.000235999507 -0.000142378189      0.450259975      0.86661665
12.6628              0.442556136     0.870616276     0.0002362849 -0.000142732049   0.000236284899 -0.000142732047      0.450723114     0.866355293
12.662828            0.443019132     0.870360375   0.000236570583 -0.000143086794   0.000236570582 -0.000143086793      0.451186485     0.866093462
12.662856            0.443482362     0.870104007   0.000236856556 -0.000143442429   0.000236856554 -0.000143442428      0.451650087     0.865831157
12.662884            0.443945826      0.86984717   0.000237142819 -0.000143798956   0.000237142818 -0.000143798954       0.45211392     0.865568377
12.662912            0.444409525     0.869589865   0.000237429372 -0.000144156376   0.000237429371 -0.000144156374      0.452577984      0.86530512
12.66294             0.444873458     0.869332089   0.000237716216 -0.000144514693   0.000237716214 -0.000144514691       0.45304228     0.865041386
12.662968            0.445337624     0.869073842   0.000238003349 -0.000144873908   0.000238003348 -0.000144873906      0.453506807     0.864777173
12.662996            0.445802025     0.868815124   0.000238290772 -0.000145234024    0.00023829077 -0.000145234023      0.453971564     0.864512483
12.663024            0.446266661     0.868555934   0.000238578484 -0.000145595044   0.000238578483 -0.000145595042      0.454436553     0.864247312
12.663052             0.44673153      0.86829627   0.000238866486 -0.000145956969   0.000238866484 -0.000145956967      0.454901773     0.863981661
12.66308             0.447196633     0.868036131   0.000239154776 -0.000146319802   0.000239154775   -0.0001463198      0.455367225     0.863715529
12.663108            0.447661971     0.867775518   0.000239443356 -0.000146683545   0.000239443355 -0.000146683544      0.455832907     0.863448914
12.663136            0.448127542     0.867514429   0.000239732224 -0.000147048201   0.000239732223   -0.0001470482       0.45629882     0.863181817
12.663164            0.448593348     0.867252863   0.000240021381 -0.000147413772    0.00024002138 -0.000147413771      0.456764964     0.862914235
12.663192            0.449059387      0.86699082   0.000240310826 -0.000147780261   0.000240310825 -0.000147780259      0.457231339     0.862646169
12.66322             0.449525661     0.866728298   0.000240600559 -0.000148147669   0.000240600558 -0.000148147667      0.457697945     0.862377617
12.663248            0.449992168     0.866465297    0.00024089058 -0.000148515999   0.000240890579 -0.000148515998      0.458164782     0.862108579
12.663276             0.45045891     0.866201816   0.000241180889 -0.000148885254   0.000241180888 -0.000148885253       0.45863185     0.861839053
12.663304            0.450925885     0.865937854   0.000241471486 -0.000149255436   0.000241471484 -0.000149255435      0.459099148     0.861569039
12.663332            0.451393095     0.865673411    0.00024176237 -0.000149626547   0.000241762368 -0.000149626546      0.459566678     0.861298536
12.66336             0.451860538     0.865408484    0.00024205354 -0.000149998591   0.000242053539 -0.000149998589      0.460034438     0.861027543
12.663388            0.452328215     0.865143075   0.000242344998 -0.000150371568   0.000242344997 -0.000150371566      0.460502429      0.86075606
12.663416            0.452796126      0.86487718   0.000242636742 -0.000150745482   0.000242636741  -0.00015074548       0.46097065     0.860484084
12.663444            0.453264271     0.864610801   0.000242928773 -0.000151120334   0.000242928772 -0.000151120333      0.461439102     0.860211617
12.663472             0.45373265     0.864343935    0.00024322109 -0.000151496129   0.000243221089 -0.000151496127      0.461907785     0.859938655
12.6635              0.454201262     0.864076583   0.000243513693 -0.000151872867   0.000243513691 -0.000151872865      0.462376699       0.8596652
