! TOUCHSTONE file generated by CST MICROWAVE STUDIO
! Date and time: Wed Jul 31 11:46:25 2024
! Project name: WaveGuide_BPF-Ver4.1_U-shape_Ku_T3_C4_CWA_2.cst
! Parameters = {cavity_h=16; cavity_l0=10; cavity_l1=15.2314; cavity_l2=16.8542; cavity_l3=17.1429; cavity_l4=17.2755; cavity_l5=17.1653; cavity_l6=17.5788; cavity_r=2.5; cavity_screw_l=0.5; cavity_screw_r=1.5; cavity_w=8; iris_h00=0; iris_h01=8.8212; iris_h112=0; iris_h12=5.5989; iris_h211=3.6639; iris_h23=5.2067; iris_h310=3.9616; iris_h34=5.0813; iris_h45=4.932; iris_h49=4.6281; iris_h56=4.7936; iris_h58=4.43; iris_h67=6.5651; iris_rx=0.1; iris_screw_l=0.5; iris_screw_r=1.5; iris_shift00=0; iris_shift112=0; iris_shift211=3.5; iris_shift310=0; iris_shift49=0; iris_shift58=3.5; iris_shift67=3.5; iris_tx=4.5; iris_tz=4.5; iris_w00=0; iris_w112=0; iris_w211=4; iris_w310=3.9616; iris_w49=4.6281; iris_w58=4; iris_w67=4; mesh_cavity=5; mesh_iris=7; mesh_screw=7; order=12; reset_all=0; sigma=4.8e+07}
! Header version: 2018
! Port assignment regex: !\s*Touchstone port\s*([0-9]+)\s*=\s*(CST MWS port|CST DS port)\s*([0-9]+|Zmin|Zmax)\s*\(\"(.*)\"\)(\s*mode\s*([0-9]+))?.*
! Touchstone port assignment:
! Touchstone port 1 = CST MWS port 1 ("")
! Touchstone port 2 = CST MWS port 2 ("")
# GHz S RI R 50
12.66                0.459564852     0.860271986   0.000315250378 -0.000200451661   0.000315250378 -0.000200451661      0.461549581     0.859326801
12.660028            0.460047883     0.859990042   0.000315665746 -0.000200981037   0.000315665746 -0.000200981037      0.462030698     0.859044535
12.660056            0.460531215     0.859707539   0.000316081579  -0.00020151185   0.000316081579  -0.00020151185      0.462512056      0.85876174
12.660084            0.461014828     0.859424485   0.000316497877 -0.000202044103   0.000316497877 -0.000202044103      0.462993663     0.858478413
12.660112            0.461498707     0.859140888   0.000316914643   -0.0002025778   0.000316914643   -0.0002025778      0.463475526     0.858194549
12.66014             0.461982834     0.858856756   0.000317331878 -0.000203112943   0.000317331878 -0.000203112943      0.463957652     0.857910143
12.660168            0.462467208     0.858572088   0.000317749583 -0.000203649536   0.000317749583 -0.000203649536      0.464440041     0.857625193
12.660196            0.462951841     0.858286877   0.000318167756 -0.000204187584   0.000318167756 -0.000204187584      0.464922689     0.857339702
12.660224            0.463436734     0.858001123   0.000318586396 -0.000204727091   0.000318586396 -0.000204727091      0.465405595     0.857053668
12.660252            0.463921886     0.857714823   0.000319005503 -0.000205268062   0.000319005503 -0.000205268062       0.46588876     0.856767091
12.66028             0.464407297     0.857427977   0.000319425078   -0.0002058105   0.000319425078 -0.000205810501      0.466372182     0.856479968
12.660308            0.464892967     0.857140584   0.000319845118  -0.00020635441   0.000319845118  -0.00020635441      0.466855864       0.8561923
12.660336            0.465378897     0.856852642   0.000320265626 -0.000206899796   0.000320265626 -0.000206899796      0.467339803     0.855904084
12.660364            0.465865085     0.856564152   0.000320686599 -0.000207446662   0.000320686599 -0.000207446662      0.467824001     0.855615321
12.660392            0.466351533     0.856275111   0.000321108038 -0.000207995012   0.000321108038 -0.000207995012      0.468308458     0.855326008
12.66042              0.46683824     0.855985518   0.000321529942  -0.00020854485   0.000321529942 -0.000208544851      0.468793173     0.855036146
12.660448            0.467325207     0.855695373   0.000321952311 -0.000209096181   0.000321952311 -0.000209096182      0.469278146     0.854745732
12.660476            0.467812432     0.855404674   0.000322375145 -0.000209649009   0.000322375146 -0.000209649009      0.469763377     0.854454765
12.660504            0.468299917     0.855113421   0.000322798444 -0.000210203338   0.000322798444 -0.000210203338      0.470248867     0.854163246
12.660532             0.46878766     0.854821612   0.000323222207 -0.000210759173   0.000323222207 -0.000210759173      0.470734616     0.853871172
12.66056             0.469275663     0.854529246   0.000323646434 -0.000211316517   0.000323646434 -0.000211316517      0.471220622     0.853578542
12.660588            0.469763925     0.854236322   0.000324071124 -0.000211875374   0.000324071124 -0.000211875374      0.471706887     0.853285356
12.660616            0.470252446      0.85394284   0.000324496277  -0.00021243575   0.000324496277  -0.00021243575       0.47219341     0.852991612
12.660644            0.470741227     0.853648797   0.000324921893 -0.000212997649   0.000324921893 -0.000212997649      0.472680192      0.85269731
12.660672            0.471230266     0.853354193   0.000325347971 -0.000213561074   0.000325347971 -0.000213561074      0.473167231     0.852402447
12.6607              0.471719564     0.853059026   0.000325774511  -0.00021412603   0.000325774512  -0.00021412603       0.47365453     0.852107024
12.660728            0.472209122     0.852763297   0.000326201513 -0.000214692522   0.000326201513 -0.000214692522      0.474142086     0.851811038
12.660756            0.472698938     0.852467003   0.000326628977 -0.000215260554   0.000326628977 -0.000215260554        0.4746299      0.85151449
12.660784            0.473189013     0.852170143   0.000327056901 -0.000215830129   0.000327056901 -0.000215830129      0.475117973     0.851217377
12.660812            0.473679348     0.851872717   0.000327485285 -0.000216401254   0.000327485285 -0.000216401254      0.475606304     0.850919699
12.66084             0.474169941     0.851574723    0.00032791413 -0.000216973931    0.00032791413 -0.000216973931      0.476094893     0.850621454
12.660868            0.474660793      0.85127616   0.000328343434 -0.000217548165   0.000328343434 -0.000217548165       0.47658374     0.850322642
12.660896            0.475151905     0.850977027   0.000328773198 -0.000218123961   0.000328773198 -0.000218123961      0.477072846     0.850023261
12.660924            0.475643275     0.850677323    0.00032920342 -0.000218701323    0.00032920342 -0.000218701323      0.477562209      0.84972331
12.660952            0.476134903     0.850377047     0.0003296341 -0.000219280256     0.0003296341 -0.000219280256      0.478051831     0.849422789
12.66098             0.476626791     0.850076197   0.000330065239 -0.000219860764   0.000330065239 -0.000219860764       0.47854171     0.849121695
12.661008            0.477118938     0.849774774   0.000330496835 -0.000220442851   0.000330496835 -0.000220442851      0.479031848     0.848820029
12.661036            0.477611343     0.849472774   0.000330928888 -0.000221026523   0.000330928888 -0.000221026523      0.479522243     0.848517788
12.661064            0.478104007     0.849170198   0.000331361397 -0.000221611782   0.000331361397 -0.000221611782      0.480012897     0.848214972
12.661092            0.478596929     0.848867044   0.000331794363 -0.000222198635   0.000331794363 -0.000222198635      0.480503808     0.847911579
12.66112             0.479090111     0.848563312   0.000332227784 -0.000222787085   0.000332227784 -0.000222787085      0.480994978     0.847607609
12.661148            0.479583551     0.848258999   0.000332661661 -0.000223377137   0.000332661661 -0.000223377137      0.481486405      0.84730306
12.661176            0.480077249     0.847954105   0.000333095992 -0.000223968795   0.000333095992 -0.000223968795       0.48197809     0.846997931
12.661204            0.480571206     0.847648628   0.000333530777 -0.000224562065   0.000333530777 -0.000224562065      0.482470033     0.846692221
12.661232            0.481065422     0.847342569   0.000333966016  -0.00022515695   0.000333966016  -0.00022515695      0.482962234     0.846385929
12.66126             0.481559896     0.847035924   0.000334401707 -0.000225753455   0.000334401707 -0.000225753455      0.483454692     0.846079054
12.661288            0.482054628     0.846728694   0.000334837852 -0.000226351585   0.000334837852 -0.000226351585      0.483947408     0.845771594
12.661316            0.482549619     0.846420877   0.000335274448 -0.000226951344   0.000335274448 -0.000226951344      0.484440382     0.845463549
12.661344            0.483044868     0.846112472   0.000335711496 -0.000227552738   0.000335711496 -0.000227552738      0.484933613     0.845154917
12.661372            0.483540376     0.845803478   0.000336148995  -0.00022815577   0.000336148995  -0.00022815577      0.485427102     0.844845697
12.6614              0.484036141     0.845493893   0.000336586945 -0.000228760445   0.000336586945 -0.000228760445      0.485920848     0.844535888
12.661428            0.484532165     0.845183717   0.000337025344 -0.000229366768   0.000337025344 -0.000229366768      0.486414852     0.844225489
12.661456            0.485028447     0.844872948   0.000337464192 -0.000229974744   0.000337464192 -0.000229974744      0.486909113     0.843914499
12.661484            0.485524987     0.844561586   0.000337903489 -0.000230584376   0.000337903489 -0.000230584376      0.487403632     0.843602916
12.661512            0.486021786     0.844249628   0.000338343235 -0.000231195671   0.000338343235 -0.000231195671      0.487898408     0.843290739
12.66154             0.486518842     0.843937074   0.000338783428 -0.000231808632   0.000338783428 -0.000231808632      0.488393442     0.842977968
12.661568            0.487016156     0.843623923   0.000339224067 -0.000232423265   0.000339224067 -0.000232423265      0.488888732     0.842664601
12.661596            0.487513728     0.843310174   0.000339665153 -0.000233039574   0.000339665153 -0.000233039574       0.48938428     0.842350636
12.661624            0.488011558     0.842995824   0.000340106685 -0.000233657563   0.000340106685 -0.000233657563      0.489880085     0.842036073
12.661652            0.488509646     0.842680874   0.000340548662 -0.000234277238   0.000340548662 -0.000234277238      0.490376147     0.841720911
12.66168             0.489007991     0.842365322   0.000340991083 -0.000234898604   0.000340991083 -0.000234898604      0.490872466     0.841405148
12.661708            0.489506594     0.842049167   0.000341433948 -0.000235521664   0.000341433948 -0.000235521664      0.491369042     0.841088782
12.661736            0.490005455     0.841732407   0.000341877256 -0.000236146425   0.000341877256 -0.000236146425      0.491865875     0.840771814
12.661764            0.490504573     0.841415042   0.000342321007  -0.00023677289   0.000342321007  -0.00023677289      0.492362965     0.840454242
12.661792            0.491003949      0.84109707   0.000342765199 -0.000237401064   0.000342765199 -0.000237401065      0.492860311     0.840136064
12.66182             0.491503582      0.84077849   0.000343209832 -0.000238030953   0.000343209832 -0.000238030954      0.493357915      0.83981728
12.661848            0.492003472       0.8404593   0.000343654906 -0.000238662562   0.000343654906 -0.000238662562      0.493855775     0.839497888
12.661876             0.49250362     0.840139501    0.00034410042 -0.000239295894    0.00034410042 -0.000239295894      0.494353891     0.839177886
12.661904            0.493004025      0.83981909   0.000344546373 -0.000239930955   0.000344546373 -0.000239930955      0.494852264     0.838857275
12.661932            0.493504687     0.839498066   0.000344992764  -0.00024056775   0.000344992764  -0.00024056775      0.495350894     0.838536052
12.66196             0.494005606     0.839176428   0.000345439592 -0.000241206284   0.000345439592 -0.000241206284       0.49584978     0.838214216
12.661988            0.494506783     0.838854175   0.000345886857 -0.000241846562   0.000345886857 -0.000241846562      0.496348923     0.837891767
12.662016            0.495008216     0.838531305   0.000346334559 -0.000242488588   0.000346334559 -0.000242488588      0.496848321     0.837568702
12.662044            0.495509906     0.838207818   0.000346782696 -0.000243132367   0.000346782696 -0.000243132367      0.497347976     0.837245021
12.662072            0.496011853     0.837883712   0.000347231267 -0.000243777905   0.000347231267 -0.000243777905      0.497847887     0.836920723
12.6621              0.496514056     0.837558986   0.000347680272 -0.000244425207   0.000347680272 -0.000244425207      0.498348054     0.836595806
12.662128            0.497016516     0.837233639   0.000348129711 -0.000245074277   0.000348129711 -0.000245074277      0.498848477     0.836270269
12.662156            0.497519233     0.836907669   0.000348579581  -0.00024572512   0.000348579581  -0.00024572512      0.499349156      0.83594411
12.662184            0.498022206     0.836581075   0.000349029883 -0.000246377742   0.000349029883 -0.000246377742      0.499850091      0.83561733
12.662212            0.498525435     0.836253857   0.000349480616 -0.000247032147   0.000349480616 -0.000247032147      0.500351282     0.835289925
12.66224             0.499028921     0.835926012   0.000349931779 -0.000247688341   0.000349931779 -0.000247688341      0.500852728     0.834961896
12.662268            0.499532663      0.83559754    0.00035038337 -0.000248346329    0.00035038337 -0.000248346329       0.50135443     0.834633241
12.662296            0.500036661     0.835268439    0.00035083539 -0.000249006115    0.00035083539 -0.000249006115      0.501856387     0.834303959
12.662324            0.500540916     0.834938708   0.000351287837 -0.000249667704   0.000351287837 -0.000249667704        0.5023586     0.833974047
12.662352            0.501045426     0.834608346    0.00035174071 -0.000250331103    0.00035174071 -0.000250331103      0.502861068     0.833643506
12.66238             0.501550192     0.834277352    0.00035219401 -0.000250996315    0.00035219401 -0.000250996315      0.503363791     0.833312334
12.662408            0.502055214     0.833945724   0.000352647733 -0.000251663347   0.000352647733 -0.000251663347       0.50386677      0.83298053
12.662436            0.502560491     0.833613461   0.000353101881 -0.000252332202   0.000353101881 -0.000252332202      0.504370003     0.832648092
12.662464            0.503066024     0.833280562   0.000353556452 -0.000253002887   0.000353556452 -0.000253002887      0.504873492     0.832315019
12.662492            0.503571813     0.832947025   0.000354011445 -0.000253675407   0.000354011445 -0.000253675407      0.505377235      0.83198131
12.66252             0.504077857      0.83261285   0.000354466859 -0.000254349766   0.000354466859 -0.000254349766      0.505881233     0.831646964
12.662548            0.504584156     0.832278034   0.000354922693  -0.00025502597   0.000354922693  -0.00025502597      0.506385486     0.831311979
12.662576             0.50509071     0.831942578   0.000355378946 -0.000255704024   0.000355378946 -0.000255704024      0.506889994     0.830976354
12.662604             0.50559752     0.831606479   0.000355835618 -0.000256383933   0.000355835618 -0.000256383934      0.507394756     0.830640088
12.662632            0.506104584     0.831269736   0.000356292707 -0.000257065703   0.000356292707 -0.000257065703      0.507899772     0.830303179
12.66266             0.506611904     0.830932348   0.000356750212 -0.000257749339   0.000356750212 -0.000257749339      0.508405043     0.829965627
12.662688            0.507119478     0.830594314   0.000357208133 -0.000258434846   0.000357208133 -0.000258434846      0.508910568      0.82962743
12.662716            0.507627306     0.830255632   0.000357666469 -0.000259122229   0.000357666469 -0.000259122229      0.509416347     0.829288586
12.662744             0.50813539     0.829916301   0.000358125217 -0.000259811493   0.000358125217 -0.000259811493       0.50992238     0.828949095
12.662772            0.508643728      0.82957632   0.000358584379 -0.000260502645   0.000358584379 -0.000260502645      0.510428667     0.828608955
12.6628               0.50915232     0.829235687   0.000359043951 -0.000261195689   0.000359043951 -0.000261195689      0.510935207     0.828268165
12.662828            0.509661166     0.828894402   0.000359503934  -0.00026189063   0.000359503934  -0.00026189063      0.511442002     0.827926723
12.662856            0.510170266     0.828552463   0.000359964327 -0.000262587474   0.000359964327 -0.000262587474      0.511949049     0.827584628
12.662884            0.510679621     0.828209868   0.000360425127 -0.000263286227   0.000360425127 -0.000263286227      0.512456351      0.82724188
12.662912            0.511189229     0.827866616   0.000360886335 -0.000263986893   0.000360886335 -0.000263986893      0.512963905     0.826898476
12.66294             0.511699091     0.827522707   0.000361347949 -0.000264689478   0.000361347949 -0.000264689479      0.513471713     0.826554416
12.662968            0.512209207     0.827178138   0.000361809968 -0.000265393988   0.000361809968 -0.000265393988      0.513979774     0.826209697
12.662996            0.512719576     0.826832909   0.000362272391 -0.000266100428   0.000362272391 -0.000266100428      0.514488088     0.825864319
12.663024            0.513230198     0.826487017   0.000362735217 -0.000266808803   0.000362735217 -0.000266808803      0.514996655     0.825518281
12.663052            0.513741074     0.826140463   0.000363198445 -0.000267519119   0.000363198445 -0.000267519119      0.515505474     0.825171581
12.66308             0.514252203     0.825793243   0.000363662073 -0.000268231381   0.000363662073 -0.000268231381      0.516014546     0.824824217
12.663108            0.514763585     0.825445358   0.000364126101 -0.000268945594   0.000364126101 -0.000268945595       0.51652387     0.824476189
12.663136             0.51527522     0.825096806   0.000364590527 -0.000269661765   0.000364590527 -0.000269661766      0.517033447     0.824127495
12.663164            0.515787107     0.824747585    0.00036505535 -0.000270379899    0.00036505535 -0.000270379899      0.517543276     0.823778134
12.663192            0.516299247     0.824397694   0.000365520569 -0.000271100001   0.000365520569 -0.000271100001      0.518053357     0.823428104
12.66322              0.51681164     0.824047132   0.000365986183 -0.000271822077   0.000365986183 -0.000271822077       0.51856369     0.823077404
12.663248            0.517324284     0.823695897    0.00036645219 -0.000272546132    0.00036645219 -0.000272546132      0.519074275     0.822726033
12.663276            0.517837181     0.823343989    0.00036691859 -0.000273272172    0.00036691859 -0.000273272172      0.519585112      0.82237399
12.663304             0.51835033     0.822991405   0.000367385381 -0.000274000203   0.000367385381 -0.000274000203        0.5200962     0.822021272
12.663332            0.518863731     0.822638144   0.000367852562  -0.00027473023   0.000367852562  -0.00027473023       0.52060754     0.821667879
12.66336             0.519377384     0.822284206   0.000368320131 -0.000275462258   0.000368320131 -0.000275462258       0.52111913      0.82131381
12.663388            0.519891288     0.821929588   0.000368788088 -0.000276196294   0.000368788088 -0.000276196294      0.521630972     0.820959062
12.663416            0.520405444      0.82157429    0.00036925643 -0.000276932343    0.00036925643 -0.000276932343      0.522143065     0.820603635
12.663444            0.520919851     0.821218309   0.000369725158 -0.000277670411   0.000369725158 -0.000277670411      0.522655409     0.820247528
12.663472            0.521434509     0.820861645   0.000370194269 -0.000278410502   0.000370194269 -0.000278410503      0.523168003     0.819890738
12.6635              0.521949419     0.820504297   0.000370663762 -0.000279152624   0.000370663762 -0.000279152624      0.523680848     0.819533265
