! TOUCHSTONE file generated by CST MICROWAVE STUDIO
! Date and time: Wed Jul 31 11:53:54 2024
! Project name: WaveGuide_BPF-Ver4.1_U-shape_Ku_T3_C4_CWA_2.cst
! Parameters = {cavity_h=16; cavity_l0=10; cavity_l1=15.218; cavity_l2=16.8041; cavity_l3=17.1411; cavity_l4=17.256; cavity_l5=17.1597; cavity_l6=17.606; cavity_r=2.5; cavity_screw_l=0.5; cavity_screw_r=1.5; cavity_w=8; iris_h00=0; iris_h01=8.8219; iris_h112=0; iris_h12=5.5994; iris_h211=3.6643; iris_h23=5.2084; iris_h310=3.9632; iris_h34=5.0739; iris_h45=4.9242; iris_h49=4.6282; iris_h56=4.7952; iris_h58=4.4302; iris_h67=6.5776; iris_rx=0.1; iris_screw_l=0.5; iris_screw_r=1.5; iris_shift00=0; iris_shift112=0; iris_shift211=3.5; iris_shift310=0; iris_shift49=0; iris_shift58=3.5; iris_shift67=3.5; iris_tx=4.5; iris_tz=4.5; iris_w00=0; iris_w112=0; iris_w211=4; iris_w310=3.9632; iris_w49=4.6282; iris_w58=4; iris_w67=4; mesh_cavity=5; mesh_iris=7; mesh_screw=7; order=12; reset_all=0; sigma=4.8e+07}
! Header version: 2018
! Port assignment regex: !\s*Touchstone port\s*([0-9]+)\s*=\s*(CST MWS port|CST DS port)\s*([0-9]+|Zmin|Zmax)\s*\(\"(.*)\"\)(\s*mode\s*([0-9]+))?.*
! Touchstone port assignment:
! Touchstone port 1 = CST MWS port 1 ("")
! Touchstone port 2 = CST MWS port 2 ("")
# GHz S RI R 50
12.66                0.397483503     0.894460615   0.000188217036 -9.74238176e-05   0.000188217036 -9.74238176e-05      0.389299588     0.898343819
12.660028            0.397914336     0.894252294   0.000188439832 -9.76590804e-05   0.000188439832 -9.76590804e-05      0.389725649     0.898142714
12.660056            0.398345429     0.894043582   0.000188662869 -9.78949026e-05   0.000188662869 -9.78949026e-05      0.390151882     0.897941266
12.660084            0.398776766     0.893834483   0.000188886147 -9.81312859e-05   0.000188886147 -9.81312859e-05      0.390578308     0.897739466
12.660112            0.399208331     0.893625004   0.000189109664 -9.83682324e-05   0.000189109664 -9.83682324e-05       0.39100495     0.897537304
12.66014             0.399640108     0.893415151   0.000189333421 -9.86057437e-05   0.000189333421 -9.86057437e-05      0.391431829     0.897334769
12.660168            0.400072098     0.893204925   0.000189557417 -9.88438214e-05   0.000189557417 -9.88438214e-05      0.391858946     0.897131861
12.660196            0.400504311     0.892994319   0.000189781652 -9.90824664e-05   0.000189781652 -9.90824664e-05      0.392286285     0.896928587
12.660224            0.400936747     0.892783332   0.000190006127 -9.93216802e-05   0.000190006127 -9.93216802e-05      0.392713848     0.896724944
12.660252            0.401369407     0.892571965   0.000190230841  -9.9561464e-05   0.000190230841  -9.9561464e-05      0.393141634     0.896520933
12.66028             0.401802289     0.892360217   0.000190455795 -9.98018194e-05   0.000190455795 -9.98018194e-05      0.393569643     0.896316552
12.660308            0.402235395     0.892148086   0.000190680989 -0.000100042748   0.000190680989 -0.000100042748      0.393997875     0.896111802
12.660336            0.402668724     0.891935573   0.000190906422  -0.00010028425   0.000190906422  -0.00010028425      0.394426331     0.895906681
12.660364            0.403102277     0.891722676   0.000191132095 -0.000100526328   0.000191132095 -0.000100526328      0.394855009     0.895701189
12.660392            0.403536053     0.891509396   0.000191358008 -0.000100768983   0.000191358008 -0.000100768983      0.395283912     0.895495326
12.66042             0.403970052      0.89129573   0.000191584159 -0.000101012217    0.00019158416 -0.000101012217      0.395713037      0.89528909
12.660448            0.404404275     0.891081679   0.000191810551  -0.00010125603   0.000191810551  -0.00010125603      0.396142386     0.895082481
12.660476            0.404838721     0.890867242   0.000192037182 -0.000101500425   0.000192037182 -0.000101500425      0.396571959     0.894875499
12.660504            0.405273391     0.890652419   0.000192264052 -0.000101745402   0.000192264053 -0.000101745402      0.397001756     0.894668142
12.660532            0.405708285     0.890437208   0.000192491163 -0.000101990964   0.000192491163 -0.000101990964      0.397431776      0.89446041
12.66056             0.406143402     0.890221609   0.000192718512 -0.000102237111   0.000192718512 -0.000102237111       0.39786202     0.894252303
12.660588            0.406578743     0.890005622   0.000192946101 -0.000102483845   0.000192946101 -0.000102483845      0.398292487      0.89404382
12.660616            0.407014308     0.889789245   0.000193173929 -0.000102731167   0.000193173929 -0.000102731167      0.398723179     0.893834959
12.660644            0.407450097     0.889572478   0.000193401997 -0.000102979079   0.000193401997 -0.000102979079      0.399154094     0.893625722
12.660672             0.40788611      0.88935532   0.000193630304 -0.000103227582   0.000193630304 -0.000103227582      0.399585233     0.893416106
12.6607              0.408322346     0.889137771   0.000193858851 -0.000103476678   0.000193858851 -0.000103476678      0.400016597     0.893206111
12.660728            0.408758807      0.88891983   0.000194087637 -0.000103726368   0.000194087637 -0.000103726368      0.400448184     0.892995737
12.660756            0.409195491     0.888701497   0.000194316662 -0.000103976653   0.000194316662 -0.000103976653      0.400879996     0.892784983
12.660784            0.409632399      0.88848277   0.000194545926 -0.000104227535   0.000194545926 -0.000104227535      0.401312031     0.892573848
12.660812            0.410069532     0.888263649    0.00019477543 -0.000104479016    0.00019477543 -0.000104479016      0.401744291     0.892362332
12.66084             0.410506889     0.888044133   0.000195005173 -0.000104731096   0.000195005173 -0.000104731096      0.402176776     0.892150433
12.660868            0.410944469     0.887824222   0.000195235154 -0.000104983778   0.000195235155 -0.000104983778      0.402609484     0.891938152
12.660896            0.411382274     0.887603915   0.000195465375 -0.000105237062   0.000195465376 -0.000105237062      0.403042417     0.891725488
12.660924            0.411820303     0.887383211   0.000195695836 -0.000105490951   0.000195695836 -0.000105490951      0.403475574      0.89151244
12.660952            0.412258557     0.887162109   0.000195926535 -0.000105745445   0.000195926535 -0.000105745445      0.403908956     0.891299006
12.66098             0.412697035      0.88694061   0.000196157473 -0.000106000547   0.000196157473 -0.000106000547      0.404342563     0.891085188
12.661008            0.413135737     0.886718711    0.00019638865 -0.000106256257    0.00019638865 -0.000106256257      0.404776394     0.890870983
12.661036            0.413574663     0.886496414   0.000196620066 -0.000106512577   0.000196620066 -0.000106512577      0.405210449     0.890656392
12.661064            0.414013814     0.886273716    0.00019685172 -0.000106769509    0.00019685172 -0.000106769509       0.40564473     0.890441414
12.661092            0.414453189     0.886050617   0.000197083614 -0.000107027053   0.000197083614 -0.000107027053      0.406079235     0.890226047
12.66112             0.414892789     0.885827116   0.000197315746 -0.000107285212   0.000197315746 -0.000107285213      0.406513965     0.890010292
12.661148            0.415332613     0.885603214   0.000197548117 -0.000107543988   0.000197548117 -0.000107543988      0.406948919     0.889794147
12.661176            0.415772662     0.885378908   0.000197780726  -0.00010780338   0.000197780726  -0.00010780338      0.407384099     0.889577613
12.661204            0.416212936     0.885154199   0.000198013574 -0.000108063392   0.000198013574 -0.000108063392      0.407819503     0.889360688
12.661232            0.416653434     0.884929085    0.00019824666 -0.000108324024    0.00019824666 -0.000108324024      0.408255133     0.889143371
12.66126             0.417094156     0.884703567   0.000198479985 -0.000108585278   0.000198479985 -0.000108585278      0.408690987     0.888925662
12.661288            0.417535104     0.884477643   0.000198713548 -0.000108847155   0.000198713548 -0.000108847155      0.409127067     0.888707561
12.661316            0.417976276     0.884251312   0.000198947349 -0.000109109658    0.00019894735 -0.000109109658      0.409563372     0.888489066
12.661344            0.418417672     0.884024574   0.000199181389 -0.000109372787   0.000199181389 -0.000109372787      0.409999901     0.888270177
12.661372            0.418859294     0.883797429   0.000199415666 -0.000109636544   0.000199415667 -0.000109636544      0.410436656     0.888050894
12.6614               0.41930114     0.883569874   0.000199650182  -0.00010990093   0.000199650182  -0.00010990093      0.410873637     0.887831215
12.661428            0.419743212     0.883341911   0.000199884936 -0.000110165948   0.000199884936 -0.000110165948      0.411310842      0.88761114
12.661456            0.420185508     0.883113538   0.000200119927 -0.000110431598   0.000200119927 -0.000110431598      0.411748273     0.887390668
12.661484            0.420628029     0.882884754   0.000200355156 -0.000110697882   0.000200355156 -0.000110697882      0.412185929     0.887169798
12.661512            0.421070774     0.882655559   0.000200590623 -0.000110964801   0.000200590623 -0.000110964801      0.412623811     0.886948531
12.66154             0.421513745     0.882425951   0.000200826328 -0.000111232358   0.000200826328 -0.000111232358      0.413061918     0.886726864
12.661568            0.421956941     0.882195931    0.00020106227 -0.000111500554    0.00020106227 -0.000111500554       0.41350025     0.886504798
12.661596            0.422400362     0.881965498   0.000201298449  -0.00011176939   0.000201298449  -0.00011176939      0.413938808     0.886282332
12.661624            0.422844007      0.88173465   0.000201534866 -0.000112038867   0.000201534866 -0.000112038867      0.414377592     0.886059465
12.661652            0.423287878     0.881503387    0.00020177152 -0.000112308988    0.00020177152 -0.000112308988      0.414816601     0.885836196
12.66168             0.423731974     0.881271709   0.000202008411 -0.000112579754   0.000202008411 -0.000112579754      0.415255836     0.885612525
12.661708            0.424176295     0.881039614   0.000202245539 -0.000112851166   0.000202245539 -0.000112851166      0.415695297     0.885388451
12.661736            0.424620841     0.880807103   0.000202482904 -0.000113123226   0.000202482904 -0.000113123226      0.416134983     0.885163973
12.661764            0.425065612     0.880574173   0.000202720506 -0.000113395936   0.000202720506 -0.000113395936      0.416574895     0.884939091
12.661792            0.425510609     0.880340825   0.000202958345 -0.000113669296   0.000202958345 -0.000113669296      0.417015033     0.884713804
12.66182              0.42595583     0.880107058    0.00020319642  -0.00011394331    0.00020319642  -0.00011394331      0.417455396     0.884488111
12.661848            0.426401277     0.879872871   0.000203434732 -0.000114217977   0.000203434732 -0.000114217977      0.417895986     0.884262011
12.661876            0.426846949     0.879638263    0.00020367328 -0.000114493301    0.00020367328 -0.000114493301      0.418336801     0.884035504
12.661904            0.427292846     0.879403234   0.000203912064 -0.000114769282   0.000203912064 -0.000114769282      0.418777843     0.883808589
12.661932            0.427738969     0.879167783   0.000204151085 -0.000115045922   0.000204151085 -0.000115045922       0.41921911     0.883581266
12.66196             0.428185317     0.878931908   0.000204390341 -0.000115323222   0.000204390341 -0.000115323222      0.419660603     0.883353533
12.661988             0.42863189     0.878695611   0.000204629833 -0.000115601185   0.000204629834 -0.000115601185      0.420102323     0.883125391
12.662016            0.429078688     0.878458888   0.000204869562 -0.000115879811   0.000204869562 -0.000115879811      0.420544268     0.882896837
12.662044            0.429525712     0.878221741   0.000205109525 -0.000116159103   0.000205109526 -0.000116159103       0.42098644     0.882667872
12.662072            0.429972961     0.877984168   0.000205349725 -0.000116439062   0.000205349725 -0.000116439062      0.421428837     0.882438495
12.6621              0.430420435     0.877746169   0.000205590159 -0.000116719689   0.000205590159 -0.000116719689      0.421871461     0.882208705
12.662128            0.430868135     0.877507742   0.000205830829 -0.000117000987   0.000205830829 -0.000117000987      0.422314311     0.881978501
12.662156             0.43131606     0.877268887   0.000206071734 -0.000117282956   0.000206071734 -0.000117282956      0.422757387     0.881747883
12.662184            0.431764211     0.877029604   0.000206312874 -0.000117565598   0.000206312874 -0.000117565598       0.42320069      0.88151685
12.662212            0.432212587     0.876789891   0.000206554249 -0.000117848916   0.000206554249 -0.000117848916      0.423644218     0.881285401
12.66224             0.432661188     0.876549747   0.000206795858  -0.00011813291   0.000206795859  -0.00011813291      0.424087974     0.881053536
12.662268            0.433110015     0.876309173   0.000207037702 -0.000118417583   0.000207037702 -0.000118417583      0.424531955     0.880821253
12.662296            0.433559068     0.876068167   0.000207279781 -0.000118702935   0.000207279781 -0.000118702935      0.424976163     0.880588552
12.662324            0.434008345     0.875826729   0.000207522093 -0.000118988969   0.000207522093 -0.000118988969      0.425420597     0.880355433
12.662352            0.434457849     0.875584857    0.00020776464 -0.000119275687    0.00020776464 -0.000119275687      0.425865257     0.880121895
12.66238             0.434907577     0.875342551    0.00020800742 -0.000119563088    0.00020800742 -0.000119563088      0.426310144     0.879887936
12.662408            0.435357532     0.875099811   0.000208250434 -0.000119851177   0.000208250434 -0.000119851177      0.426755258     0.879653556
12.662436            0.435807712     0.874856635   0.000208493682 -0.000120139953   0.000208493682 -0.000120139953      0.427200598     0.879418755
12.662464            0.436258117     0.874613023   0.000208737163  -0.00012042942   0.000208737163  -0.00012042942      0.427646164     0.879183532
12.662492            0.436708748     0.874368973   0.000208980878 -0.000120719577   0.000208980878 -0.000120719577      0.428091957     0.878947885
12.66252             0.437159604     0.874124486   0.000209224825 -0.000121010428   0.000209224825 -0.000121010428      0.428537977     0.878711815
12.662548            0.437610686     0.873879561   0.000209469005 -0.000121301973   0.000209469005 -0.000121301973      0.428984223      0.87847532
12.662576            0.438061993     0.873634196   0.000209713418 -0.000121594215   0.000209713418 -0.000121594215      0.429430696       0.8782384
12.662604            0.438513526     0.873388391   0.000209958064 -0.000121887155   0.000209958064 -0.000121887155      0.429877395     0.878001054
12.662632            0.438965285     0.873142146   0.000210202942 -0.000122180795   0.000210202942 -0.000122180795      0.430324321     0.877763281
12.66266             0.439417269     0.872895459   0.000210448052 -0.000122475136   0.000210448052 -0.000122475136      0.430771474     0.877525081
12.662688            0.439869479     0.872648329   0.000210693394  -0.00012277018   0.000210693394  -0.00012277018      0.431218853     0.877286452
12.662716            0.440321914     0.872400756   0.000210938968 -0.000123065929   0.000210938968 -0.000123065929      0.431666459     0.877047394
12.662744            0.440774575      0.87215274   0.000211184773 -0.000123362384   0.000211184773 -0.000123362384      0.432114292     0.876807907
12.662772            0.441227461     0.871904279    0.00021143081 -0.000123659548    0.00021143081 -0.000123659548      0.432562351     0.876567989
12.6628              0.441680573     0.871655372   0.000211677078 -0.000123957421   0.000211677078 -0.000123957421      0.433010637      0.87632764
12.662828             0.44213391     0.871406019   0.000211923577 -0.000124256006   0.000211923577 -0.000124256006       0.43345915     0.876086859
12.662856            0.442587473     0.871156219   0.000212170306 -0.000124555304   0.000212170306 -0.000124555304       0.43390789     0.875845645
12.662884            0.443041262     0.870905972   0.000212417267 -0.000124855317   0.000212417267 -0.000124855317      0.434356857     0.875603998
12.662912            0.443495276     0.870655276   0.000212664457 -0.000125156047   0.000212664457 -0.000125156047       0.43480605     0.875361917
12.66294             0.443949515      0.87040413   0.000212911878 -0.000125457496   0.000212911878 -0.000125457496       0.43525547       0.8751194
12.662968             0.44440398     0.870152535   0.000213159529 -0.000125759664   0.000213159529 -0.000125759664      0.435705117     0.874876448
12.662996            0.444858671     0.869900488   0.000213407409 -0.000126062554   0.000213407409 -0.000126062554      0.436154991     0.874633059
12.663024            0.445313587      0.86964799   0.000213655519 -0.000126366168   0.000213655519 -0.000126366168      0.436605092     0.874389233
12.663052            0.445768729     0.869395039   0.000213903858 -0.000126670507   0.000213903858 -0.000126670507       0.43705542     0.874144969
12.66308             0.446224096     0.869141636   0.000214152426 -0.000126975573   0.000214152426 -0.000126975573      0.437505974     0.873900266
12.663108            0.446679689     0.868887778   0.000214401223 -0.000127281367   0.000214401223 -0.000127281368      0.437956756     0.873655123
12.663136            0.447135508     0.868633465   0.000214650249 -0.000127587893   0.000214650249 -0.000127587893      0.438407764      0.87340954
12.663164            0.447591551     0.868378697   0.000214899503  -0.00012789515   0.000214899503  -0.00012789515      0.438858999     0.873163516
12.663192            0.448047821     0.868123472   0.000215148985 -0.000128203142   0.000215148985 -0.000128203142      0.439310461      0.87291705
12.66322             0.448504315      0.86786779   0.000215398695 -0.000128511869   0.000215398695 -0.000128511869       0.43976215     0.872670142
12.663248            0.448961036      0.86761165   0.000215648632 -0.000128821334   0.000215648632 -0.000128821334      0.440214066      0.87242279
12.663276            0.449417981     0.867355051   0.000215898797 -0.000129131538   0.000215898797 -0.000129131538      0.440666209     0.872174994
12.663304            0.449875152     0.867097993   0.000216149189 -0.000129442483   0.000216149189 -0.000129442483      0.441118579     0.871926752
12.663332            0.450332549     0.866840474   0.000216399807  -0.00012975417   0.000216399807  -0.00012975417      0.441571176     0.871678065
12.66336             0.450790171     0.866582494   0.000216650653 -0.000130066603   0.000216650653 -0.000130066603         0.442024     0.871428932
12.663388            0.451248018     0.866324052   0.000216901724 -0.000130379781   0.000216901724 -0.000130379781      0.442477051     0.871179351
12.663416            0.451706091     0.866065147   0.000217153022 -0.000130693708   0.000217153022 -0.000130693708      0.442930328     0.870929322
12.663444            0.452164389     0.865805778   0.000217404545 -0.000131008385   0.000217404546 -0.000131008385      0.443383833     0.870678844
12.663472            0.452622913     0.865545945   0.000217656294 -0.000131323813   0.000217656294 -0.000131323813      0.443837565     0.870427916
12.6635              0.453081662     0.865285647   0.000217908269 -0.000131639995   0.000217908269 -0.000131639995      0.444291523     0.870176538
