! TOUCHSTONE file generated by CST MICROWAVE STUDIO
! Date and time: Wed Jul 31 11:57:11 2024
! Project name: WaveGuide_BPF-Ver4.1_U-shape_Ku_T3_C4_CWA_2.cst
! Parameters = {cavity_h=16; cavity_l0=10; cavity_l1=15.2169; cavity_l2=16.8612; cavity_l3=17.0611; cavity_l4=17.2808; cavity_l5=17.1085; cavity_l6=17.5825; cavity_r=2.5; cavity_screw_l=0.5; cavity_screw_r=1.5; cavity_w=8; iris_h00=0; iris_h01=8.8324; iris_h112=0; iris_h12=5.6015; iris_h211=3.6629; iris_h23=5.2111; iris_h310=3.9723; iris_h34=5.0807; iris_h45=4.9241; iris_h49=4.6192; iris_h56=4.7952; iris_h58=4.4493; iris_h67=6.5838; iris_rx=0.1; iris_screw_l=0.5; iris_screw_r=1.5; iris_shift00=0; iris_shift112=0; iris_shift211=3.5; iris_shift310=0; iris_shift49=0; iris_shift58=3.5; iris_shift67=3.5; iris_tx=4.5; iris_tz=4.5; iris_w00=0; iris_w112=0; iris_w211=4; iris_w310=3.9723; iris_w49=4.6192; iris_w58=4; iris_w67=4; mesh_cavity=5; mesh_iris=7; mesh_screw=7; order=12; reset_all=0; sigma=4.8e+07}
! Header version: 2018
! Port assignment regex: !\s*Touchstone port\s*([0-9]+)\s*=\s*(CST MWS port|CST DS port)\s*([0-9]+|Zmin|Zmax)\s*\(\"(.*)\"\)(\s*mode\s*([0-9]+))?.*
! Touchstone port assignment:
! Touchstone port 1 = CST MWS port 1 ("")
! Touchstone port 2 = CST MWS port 2 ("")
# GHz S RI R 50
12.66                0.453129242     0.864519258   0.000341731562 -0.000213286856   0.000341731561 -0.000213286857      0.449896893     0.866173328
12.660028            0.453600078     0.864249921   0.000342209677 -0.000213864415   0.000342209676 -0.000213864416      0.450369835     0.865905108
12.660056            0.454071104      0.86398011   0.000342688456 -0.000214443594   0.000342688456 -0.000214443595      0.450842996     0.865636399
12.660084            0.454542347     0.863709811    0.00034316789 -0.000215024405   0.000343167889 -0.000215024406      0.451316392     0.865367192
12.660112            0.455013834      0.86343901    0.00034364797 -0.000215606857   0.000343647969 -0.000215606858      0.451790038      0.86509748
12.66014             0.455485591     0.863167691   0.000344128687 -0.000216190962   0.000344128686 -0.000216190962       0.45226395     0.864827254
12.660168            0.455957618     0.862895854    0.00034461004 -0.000216776723   0.000344610039 -0.000216776724      0.452738126     0.864556511
12.660196            0.456429897     0.862623507   0.000345092037 -0.000217364143   0.000345092037 -0.000217364144      0.453212558     0.864285258
12.660224            0.456902428      0.86235065   0.000345574679 -0.000217953226   0.000345574678 -0.000217953227      0.453687246     0.864013492
12.660252            0.457375211      0.86207728   0.000346057964 -0.000218543978   0.000346057963 -0.000218543979      0.454162188     0.863741213
12.66028             0.457848247     0.861803398   0.000346541893 -0.000219136404   0.000346541892 -0.000219136405      0.454637386     0.863468419
12.660308            0.458321535     0.861529001   0.000347026467 -0.000219730509   0.000347026466 -0.000219730509      0.455112839      0.86319511
12.660336            0.458795076      0.86125409   0.000347511686 -0.000220326297   0.000347511685 -0.000220326298      0.455588547     0.862921285
12.660364            0.459268869     0.860978663    0.00034799755 -0.000220923774   0.000347997549 -0.000220923775       0.45606451     0.862646943
12.660392            0.459742914     0.860702719   0.000348484059 -0.000221522946   0.000348484059 -0.000221522947      0.456540729     0.862372083
12.66042             0.460217212     0.860426258   0.000348971214 -0.000222123817   0.000348971214 -0.000222123818      0.457017203     0.862096703
12.660448            0.460691762     0.860149277   0.000349459015 -0.000222726393   0.000349459014 -0.000222726393      0.457493932     0.861820803
12.660476            0.461166565     0.859871777   0.000349947462 -0.000223330678   0.000349947461 -0.000223330679      0.457970916     0.861544382
12.660504             0.46164162     0.859593756   0.000350436555 -0.000223936678   0.000350436554 -0.000223936679      0.458448156     0.861267439
12.660532            0.462116927     0.859315213   0.000350926294 -0.000224544399   0.000350926293 -0.000224544399      0.458925651     0.860989973
12.66056             0.462592487     0.859036148    0.00035141668 -0.000225153844   0.000351416679 -0.000225153845      0.459403402     0.860711982
12.660588              0.4630683     0.858756559   0.000351907713 -0.000225765021   0.000351907712 -0.000225765022      0.459881408     0.860433467
12.660616            0.463544364     0.858476445   0.000352399393 -0.000226377934   0.000352399392 -0.000226377934      0.460359669     0.860154425
12.660644            0.464020681     0.858195805    0.00035289172 -0.000226992587   0.000352891719 -0.000226992588      0.460838185     0.859874856
12.660672            0.464497251     0.857914639   0.000353384695 -0.000227608988   0.000353384694 -0.000227608989      0.461316957     0.859594759
12.6607              0.464974073     0.857632945   0.000353878317  -0.00022822714   0.000353878317 -0.000228227141      0.461795984     0.859314132
12.660728            0.465451147     0.857350722   0.000354372588  -0.00022884705   0.000354372587 -0.000228847051      0.462275267     0.859032976
12.660756            0.465928474     0.857067969   0.000354867506 -0.000229468722   0.000354867505 -0.000229468723      0.462754805     0.858751288
12.660784            0.466406053     0.856784686   0.000355363072 -0.000230092163   0.000355363071 -0.000230092164      0.463234598     0.858469068
12.660812            0.466883885     0.856500871   0.000355859287 -0.000230717377   0.000355859286 -0.000230717377      0.463714646     0.858186315
12.66084             0.467361969     0.856216523    0.00035635615  -0.00023134437   0.000356356149  -0.00023134437       0.46419495     0.857903027
12.660868            0.467840306     0.855931642   0.000356853662 -0.000231973147   0.000356853661 -0.000231973147      0.464675509     0.857619204
12.660896            0.468318894     0.855646225   0.000357351823 -0.000232603714   0.000357351822 -0.000232603714      0.465156324     0.857334845
12.660924            0.468797736     0.855360273   0.000357850632 -0.000233236076   0.000357850632 -0.000233236077      0.465637393     0.857049949
12.660952            0.469276829     0.855073784   0.000358350091 -0.000233870239   0.000358350091  -0.00023387024      0.466118719     0.856764514
12.66098             0.469756175     0.854786757   0.000358850199 -0.000234506208   0.000358850199 -0.000234506209      0.466600299      0.85647854
12.661008            0.470235774     0.854499191   0.000359350957 -0.000235143989   0.000359350956  -0.00023514399      0.467082135     0.856192025
12.661036            0.470715624     0.854211085   0.000359852363 -0.000235783587   0.000359852363 -0.000235783588      0.467564226     0.855904969
12.661064            0.471195727     0.853922438    0.00036035442 -0.000236425009   0.000360354419  -0.00023642501      0.468046572      0.85561737
12.661092            0.471676082     0.853633249   0.000360857126 -0.000237068259   0.000360857125 -0.000237068259      0.468529174     0.855329228
12.66112              0.47215669     0.853343518   0.000361360482 -0.000237713343   0.000361360481 -0.000237713343       0.46901203     0.855040541
12.661148             0.47263755     0.853053242   0.000361864488 -0.000238360266   0.000361864487 -0.000238360267      0.469495142     0.854751309
12.661176            0.473118662     0.852762421   0.000362369144 -0.000239009035   0.000362369143 -0.000239009036       0.46997851      0.85446153
12.661204            0.473600027     0.852471053    0.00036287445 -0.000239659655   0.000362874449 -0.000239659656      0.470462132     0.854171203
12.661232            0.474081643     0.852179139   0.000363380406 -0.000240312132   0.000363380405 -0.000240312133       0.47094601     0.853880327
12.66126             0.474563512     0.851886676   0.000363887012 -0.000240966471   0.000363887012 -0.000240966472      0.471430143     0.853588902
12.661288            0.475045633     0.851593664   0.000364394269 -0.000241622679   0.000364394268 -0.000241622679      0.471914531     0.853296925
12.661316            0.475528006     0.851300102   0.000364902176  -0.00024228076   0.000364902176 -0.000242280761      0.472399174     0.853004397
12.661344            0.476010632     0.851005988   0.000365410734  -0.00024294072   0.000365410733 -0.000242940721      0.472884072     0.852711316
12.661372            0.476493509     0.850711322   0.000365919942 -0.000243602567   0.000365919941 -0.000243602567      0.473369225      0.85241768
12.6614              0.476976639     0.850416102   0.000366429801 -0.000244266304     0.0003664298 -0.000244266305      0.473854634      0.85212349
12.661428             0.47746002     0.850120328    0.00036694031 -0.000244931938   0.000366940309 -0.000244931939      0.474340297     0.851828743
12.661456            0.477943654     0.849823998    0.00036745147 -0.000245599475   0.000367451469 -0.000245599476      0.474826215     0.851533439
12.661484            0.478427539     0.849527111    0.00036796328  -0.00024626892    0.00036796328 -0.000246268921      0.475312389     0.851237576
12.661512            0.478911677     0.849229666   0.000368475742 -0.000246940281   0.000368475741 -0.000246940281      0.475798817     0.850941154
12.66154             0.479396067     0.848931663   0.000368988854 -0.000247613561   0.000368988853 -0.000247613562      0.476285501     0.850644172
12.661568            0.479880708       0.8486331   0.000369502616 -0.000248288768   0.000369502615 -0.000248288768      0.476772439     0.850346628
12.661596            0.480365602     0.848333975   0.000370017029 -0.000248965907   0.000370017029 -0.000248965907      0.477259632     0.850048522
12.661624            0.480850747     0.848034289   0.000370532093 -0.000249644984   0.000370532093 -0.000249644984       0.47774708     0.849749851
12.661652            0.481336144     0.847734039   0.000371047808 -0.000250326005   0.000371047807 -0.000250326005      0.478234783     0.849450616
12.66168             0.481821793     0.847433225   0.000371564174 -0.000251008976   0.000371564173 -0.000251008977       0.47872274     0.849150815
12.661708            0.482307693     0.847131846    0.00037208119 -0.000251693903   0.000372081189 -0.000251693904      0.479210953     0.848850447
12.661736            0.482793846     0.846829901   0.000372598856 -0.000252380793   0.000372598855 -0.000252380793       0.47969942      0.84854951
12.661764             0.48328025     0.846527388   0.000373117173  -0.00025306965   0.000373117173 -0.000253069651      0.480188141     0.848248005
12.661792            0.483766905     0.846224306   0.000373636141 -0.000253760482    0.00037363614 -0.000253760482      0.480677118     0.847945929
12.66182             0.484253812     0.845920654   0.000374155759 -0.000254453294   0.000374155759 -0.000254453294      0.481166349     0.847643282
12.661848            0.484740971     0.845616432   0.000374676028 -0.000255148092   0.000374676027 -0.000255148093      0.481655834     0.847340062
12.661876            0.485228381     0.845311638   0.000375196947 -0.000255844883   0.000375196946 -0.000255844883      0.482145574     0.847036269
12.661904            0.485716043     0.845006271   0.000375718516 -0.000256543672   0.000375718515 -0.000256543673      0.482635569     0.846731901
12.661932            0.486203956      0.84470033   0.000376240736 -0.000257244466   0.000376240735 -0.000257244467      0.483125818     0.846426957
12.66196             0.486692121     0.844393814   0.000376763605 -0.000257947271   0.000376763604 -0.000257947272      0.483616321     0.846121436
12.661988            0.487180536     0.844086721   0.000377287125 -0.000258652093   0.000377287124 -0.000258652094      0.484107079     0.845815338
12.662016            0.487669203     0.843779051   0.000377811294 -0.000259358939   0.000377811294 -0.000259358939      0.484598091      0.84550866
12.662044            0.488158122     0.843470802   0.000378336114 -0.000260067814   0.000378336113 -0.000260067815      0.485089357     0.845201401
12.662072            0.488647291     0.843161974   0.000378861583 -0.000260778725   0.000378861582 -0.000260778725      0.485580877     0.844893561
12.6621              0.489136712     0.842852565   0.000379387701 -0.000261491678   0.000379387701 -0.000261491679      0.486072652     0.844585139
12.662128            0.489626383     0.842542574   0.000379914469 -0.000262206679   0.000379914469  -0.00026220668      0.486564681     0.844276133
12.662156            0.490116306        0.842232   0.000380441887 -0.000262923736   0.000380441886 -0.000262923736      0.487056963     0.843966542
12.662184            0.490606479     0.841920842   0.000380969953 -0.000263642853   0.000380969953 -0.000263642854        0.4875495     0.843656366
12.662212            0.491096904     0.841609098   0.000381498669 -0.000264364038   0.000381498668 -0.000264364038      0.488042291     0.843345602
12.66224             0.491587579     0.841296768   0.000382028033 -0.000265087296   0.000382028033 -0.000265087297      0.488535335      0.84303425
12.662268            0.492078505     0.840983851   0.000382558046 -0.000265812635   0.000382558046 -0.000265812636      0.489028634     0.842722308
12.662296            0.492569682     0.840670345   0.000383088708 -0.000266540061   0.000383088707 -0.000266540061      0.489522186     0.842409777
12.662324            0.493061109     0.840356249   0.000383620018 -0.000267269579   0.000383620017  -0.00026726958      0.490015991     0.842096653
12.662352            0.493552787     0.840041563   0.000384151976 -0.000268001197   0.000384151975 -0.000268001198      0.490510051     0.841782937
12.66238             0.494044715     0.839726284   0.000384684582 -0.000268734921   0.000384684581 -0.000268734922      0.491004364     0.841468627
12.662408            0.494536894     0.839410412   0.000385217836 -0.000269470758   0.000385217835 -0.000269470759       0.49149893     0.841153721
12.662436            0.495029324     0.839093945   0.000385751737 -0.000270208714   0.000385751736 -0.000270208715       0.49199375      0.84083822
12.662464            0.495522003     0.838776883   0.000386286285 -0.000270948795   0.000386286284 -0.000270948796      0.492488824     0.840522121
12.662492            0.496014933     0.838459225   0.000386821481 -0.000271691009    0.00038682148  -0.00027169101       0.49298415     0.840205423
12.66252             0.496508113     0.838140968   0.000387357323 -0.000272435361   0.000387357322 -0.000272435362       0.49347973     0.839888126
12.662548            0.497001543     0.837822112   0.000387893812 -0.000273181859   0.000387893811  -0.00027318186      0.493975563     0.839570228
12.662576            0.497495224     0.837502657   0.000388430947 -0.000273930509   0.000388430946  -0.00027393051       0.49447165     0.839251728
12.662604            0.497989154       0.8371826   0.000388968728 -0.000274681317   0.000388968728 -0.000274681318      0.494967989     0.838932624
12.662632            0.498483334      0.83686194   0.000389507155 -0.000275434291   0.000389507154 -0.000275434292      0.495464581     0.838612917
12.66266             0.498977764     0.836540677   0.000390046228 -0.000276189437   0.000390046227 -0.000276189438      0.495961426     0.838292603
12.662688            0.499472443     0.836218809   0.000390585945 -0.000276946762   0.000390585944 -0.000276946763      0.496458524     0.837971683
12.662716            0.499967372     0.835896335   0.000391126308 -0.000277706272   0.000391126307 -0.000277706273      0.496955875     0.837650155
12.662744            0.500462551     0.835573254   0.000391667315 -0.000278467975   0.000391667314 -0.000278467975      0.497453478     0.837328018
12.662772            0.500957979     0.835249564   0.000392208966 -0.000279231876   0.000392208965 -0.000279231877      0.497951334      0.83700527
12.6628              0.501453657     0.834925265   0.000392751261 -0.000279997984   0.000392751261 -0.000279997985      0.498449442     0.836681912
12.662828            0.501949584     0.834600356     0.0003932942 -0.000280766304   0.000393294199 -0.000280766305      0.498947803      0.83635794
12.662856             0.50244576     0.834274834   0.000393837782 -0.000281536844   0.000393837781 -0.000281536845      0.499446416     0.836033354
12.662884            0.502942185     0.833948699   0.000394382007 -0.000282309611   0.000394382006 -0.000282309611      0.499945281     0.835708154
12.662912             0.50343886      0.83362195   0.000394926875  -0.00028308461   0.000394926874 -0.000283084611      0.500444399     0.835382337
12.66294             0.503935783     0.833294585   0.000395472384  -0.00028386185   0.000395472384 -0.000283861851      0.500943768     0.835055903
12.662968            0.504432955     0.832966604   0.000396018536 -0.000284641338   0.000396018535 -0.000284641338       0.50144339      0.83472885
12.662996            0.504930376     0.832638005   0.000396565329 -0.000285423079   0.000396565328  -0.00028542308      0.501943263     0.834401177
12.663024            0.505428046     0.832308787   0.000397112762 -0.000286207082   0.000397112762 -0.000286207082      0.502443388     0.834072883
12.663052            0.505925964     0.831978948   0.000397660837 -0.000286993353   0.000397660836 -0.000286993353      0.502943765     0.833743966
12.66308              0.50642413     0.831648488   0.000398209551 -0.000287781899    0.00039820955 -0.000287781899      0.503444393     0.833414427
12.663108            0.506922545     0.831317405   0.000398758906 -0.000288572727   0.000398758905 -0.000288572728      0.503945273     0.833084262
12.663136            0.507421209     0.830985699   0.000399308899 -0.000289365845   0.000399308898 -0.000289365846      0.504446405     0.832753472
12.663164             0.50792012     0.830653367   0.000399859531 -0.000290161259   0.000399859531  -0.00029016126      0.504947787     0.832422054
12.663192             0.50841928     0.830320409   0.000400410802 -0.000290958977   0.000400410801 -0.000290958978      0.505449421     0.832090008
12.66322             0.508918687     0.829986823   0.000400962711 -0.000291759006    0.00040096271 -0.000291759007      0.505951306     0.831757332
12.663248            0.509418343     0.829652609   0.000401515257 -0.000292561352   0.000401515256 -0.000292561353      0.506453442     0.831424026
12.663276            0.509918246     0.829317764    0.00040206844 -0.000293366024   0.000402068439 -0.000293366025      0.506955829     0.831090087
12.663304            0.510418397     0.828982289    0.00040262226 -0.000294173028   0.000402622259 -0.000294173029      0.507458466     0.830755515
12.663332            0.510918795      0.82864618   0.000403176715 -0.000294982372   0.000403176714 -0.000294982373      0.507961354     0.830420308
12.66336             0.511419441     0.828309438   0.000403731806 -0.000295794063   0.000403731805 -0.000295794063      0.508464493     0.830084466
12.663388            0.511920334     0.827972062   0.000404287532 -0.000296608107   0.000404287531 -0.000296608108      0.508967882     0.829747987
12.663416            0.512421474     0.827634049   0.000404843892 -0.000297424514   0.000404843891 -0.000297424514      0.509471522     0.829410869
12.663444            0.512922862     0.827295398   0.000405400886 -0.000298243289   0.000405400885 -0.000298243289      0.509975412     0.829073111
12.663472            0.513424496     0.826956109   0.000405958513  -0.00029906444   0.000405958512 -0.000299064441      0.510479552     0.828734713
12.6635              0.513926377      0.82661618   0.000406516773 -0.000299887975   0.000406516772 -0.000299887976      0.510983942     0.828395673
