! TOUCHSTONE file generated by CST MICROWAVE STUDIO
! Date and time: Wed Jul 31 12:00:37 2024
! Project name: WaveGuide_BPF-Ver4.1_U-shape_Ku_T3_C4_CWA_2.cst
! Parameters = {cavity_h=16; cavity_l0=10; cavity_l1=15.1902; cavity_l2=16.8296; cavity_l3=17.1128; cavity_l4=17.3052; cavity_l5=17.1615; cavity_l6=17.6409; cavity_r=2.5; cavity_screw_l=0.5; cavity_screw_r=1.5; cavity_w=8; iris_h00=0; iris_h01=8.821; iris_h112=0; iris_h12=5.5909; iris_h211=3.6672; iris_h23=5.2036; iris_h310=3.9706; iris_h34=5.088; iris_h45=4.9344; iris_h49=4.6146; iris_h56=4.8078; iris_h58=4.4327; iris_h67=6.5715; iris_rx=0.1; iris_screw_l=0.5; iris_screw_r=1.5; iris_shift00=0; iris_shift112=0; iris_shift211=3.5; iris_shift310=0; iris_shift49=0; iris_shift58=3.5; iris_shift67=3.5; iris_tx=4.5; iris_tz=4.5; iris_w00=0; iris_w112=0; iris_w211=4; iris_w310=3.9706; iris_w49=4.6146; iris_w58=4; iris_w67=4; mesh_cavity=5; mesh_iris=7; mesh_screw=7; order=12; reset_all=0; sigma=4.8e+07}
! Header version: 2018
! Port assignment regex: !\s*Touchstone port\s*([0-9]+)\s*=\s*(CST MWS port|CST DS port)\s*([0-9]+|Zmin|Zmax)\s*\(\"(.*)\"\)(\s*mode\s*([0-9]+))?.*
! Touchstone port assignment:
! Touchstone port 1 = CST MWS port 1 ("")
! Touchstone port 2 = CST MWS port 2 ("")
# GHz S RI R 50
12.66                0.283659029     0.940701662   0.000184987774 -6.94913599e-05   0.000184987774 -6.94913603e-05      0.286862115     0.939700098
12.660028            0.284027025     0.940578769   0.000185230362 -6.96702842e-05   0.000185230362 -6.96702846e-05      0.287231243     0.939575398
12.660056            0.284395259     0.940455629   0.000185473297 -6.98496574e-05   0.000185473297 -6.98496578e-05      0.287600541      0.93945047
12.660084            0.284763718     0.940332247    0.00018571658 -7.00294809e-05   0.000185716581 -7.00294813e-05      0.287970025     0.939325308
12.660112            0.285132387     0.940208626   0.000185960212 -7.02097561e-05   0.000185960212 -7.02097565e-05      0.288339711     0.939199907
12.66014             0.285501255     0.940084768   0.000186204192 -7.03904845e-05   0.000186204192 -7.03904849e-05      0.288709616     0.939074261
12.660168            0.285870321     0.939960675   0.000186448521 -7.05716671e-05   0.000186448521 -7.05716675e-05       0.28907974     0.938948371
12.660196            0.286239594     0.939836343   0.000186693199 -7.07533051e-05     0.0001866932 -7.07533055e-05      0.289450072     0.938822239
12.660224            0.286609074     0.939711771   0.000186938228 -7.09353997e-05   0.000186938228 -7.09354001e-05      0.289820612     0.938695865
12.660252            0.286978761      0.93958696   0.000187183606  -7.1117952e-05   0.000187183607 -7.11179524e-05      0.290191361     0.938569248
12.66028             0.287348656     0.939461908   0.000187429336 -7.13009633e-05   0.000187429336 -7.13009637e-05      0.290562319     0.938442388
12.660308            0.287718759     0.939336615   0.000187675417 -7.14844348e-05   0.000187675417 -7.14844352e-05      0.290933485     0.938315285
12.660336            0.288089069     0.939211081   0.000187921849 -7.16683676e-05    0.00018792185 -7.16683681e-05       0.29130486     0.938187937
12.660364            0.288459588     0.939085306   0.000188168634 -7.18527631e-05   0.000188168635 -7.18527635e-05      0.291676444     0.938060345
12.660392            0.288830315     0.938959289   0.000188415772 -7.20376224e-05   0.000188415772 -7.20376229e-05      0.292048238     0.937932509
12.66042              0.28920125     0.938833029   0.000188663262 -7.22229468e-05   0.000188663262 -7.22229472e-05      0.292420241     0.937804427
12.660448            0.289572393     0.938706526   0.000188911106 -7.24087375e-05   0.000188911106 -7.24087379e-05      0.292792453     0.937676099
12.660476            0.289943745      0.93857978   0.000189159304 -7.25949956e-05   0.000189159304 -7.25949961e-05      0.293164875     0.937547526
12.660504            0.290315306     0.938452791   0.000189407856 -7.27817225e-05   0.000189407857  -7.2781723e-05      0.293537506     0.937418706
12.660532            0.290687075     0.938325558   0.000189656763 -7.29689194e-05   0.000189656764 -7.29689199e-05      0.293910348     0.937289639
12.66056             0.291059054      0.93819808   0.000189906026 -7.31565875e-05   0.000189906026  -7.3156588e-05        0.2942834     0.937160324
12.660588            0.291431242     0.938070357   0.000190155644 -7.33447281e-05   0.000190155645 -7.33447285e-05      0.294656662     0.937030762
12.660616            0.291803639     0.937942389   0.000190405619 -7.35333424e-05   0.000190405619 -7.35333428e-05      0.295030134     0.936900952
12.660644            0.292176245     0.937814175    0.00019065595 -7.37224317e-05    0.00019065595 -7.37224321e-05      0.295403817     0.936770893
12.660672            0.292549061     0.937685715   0.000190906638 -7.39119971e-05   0.000190906639 -7.39119976e-05       0.29577771     0.936640585
12.6607              0.292922087     0.937557008   0.000191157684 -7.41020401e-05   0.000191157685 -7.41020405e-05      0.296151815     0.936510028
12.660728            0.293295323     0.937428054   0.000191409088 -7.42925618e-05   0.000191409089 -7.42925622e-05       0.29652613     0.936379221
12.660756            0.293668769     0.937298853    0.00019166085 -7.44835634e-05   0.000191660851 -7.44835639e-05      0.296900656     0.936248163
12.660784            0.294042424     0.937169404   0.000191912972 -7.46750464e-05   0.000191912972 -7.46750468e-05      0.297275394     0.936116855
12.660812            0.294416291     0.937039707   0.000192165452 -7.48670118e-05   0.000192165453 -7.48670123e-05      0.297650343     0.935985295
12.66084             0.294790367     0.936909761   0.000192418293 -7.50594611e-05   0.000192418293 -7.50594616e-05      0.298025504     0.935853484
12.660868            0.295164654     0.936779567   0.000192671493 -7.52523955e-05   0.000192671494 -7.52523959e-05      0.298400876     0.935721421
12.660896            0.295539152     0.936649122   0.000192925055 -7.54458163e-05   0.000192925055 -7.54458167e-05       0.29877646     0.935589105
12.660924            0.295913861     0.936518427   0.000193178977 -7.56397247e-05   0.000193178978 -7.56397251e-05      0.299152256     0.935456537
12.660952            0.296288781     0.936387483   0.000193433262  -7.5834122e-05   0.000193433262 -7.58341224e-05      0.299528264     0.935323715
12.66098             0.296663912     0.936256287   0.000193687908 -7.60290096e-05   0.000193687908   -7.602901e-05      0.299904485     0.935190639
12.661008            0.297039255      0.93612484   0.000193942916 -7.62243887e-05   0.000193942917 -7.62243891e-05      0.300280917     0.935057309
12.661036            0.297414809     0.935993141   0.000194198288 -7.64202607e-05   0.000194198288 -7.64202611e-05      0.300657563     0.934923724
12.661064            0.297790574      0.93586119   0.000194454023 -7.66166267e-05   0.000194454023 -7.66166272e-05      0.301034421     0.934789885
12.661092            0.298166551     0.935728986   0.000194710122 -7.68134883e-05   0.000194710122 -7.68134887e-05      0.301411492     0.934655789
12.66112             0.298542741      0.93559653   0.000194966585 -7.70108465e-05   0.000194966585  -7.7010847e-05      0.301788776     0.934521438
12.661148            0.298919142      0.93546382   0.000195223413 -7.72087029e-05   0.000195223413 -7.72087033e-05      0.302166273      0.93438683
12.661176            0.299295755     0.935330856   0.000195480606 -7.74070586e-05   0.000195480606  -7.7407059e-05      0.302543983     0.934251966
12.661204            0.299672581     0.935197638   0.000195738165  -7.7605915e-05   0.000195738165 -7.76059154e-05      0.302921907     0.934116844
12.661232            0.300049619     0.935064165    0.00019599609 -7.78052734e-05    0.00019599609 -7.78052738e-05      0.303300044     0.933981464
12.66126              0.30042687     0.934930437   0.000196254381 -7.80051352e-05   0.000196254381 -7.80051356e-05      0.303678395     0.933845826
12.661288            0.300804334     0.934796453   0.000196513039 -7.82055016e-05    0.00019651304 -7.82055021e-05       0.30405696     0.933709929
12.661316             0.30118201     0.934662213   0.000196772065 -7.84063741e-05   0.000196772065 -7.84063746e-05      0.304435739     0.933573773
12.661344              0.3015599     0.934527717   0.000197031459  -7.8607754e-05   0.000197031459 -7.86077544e-05      0.304814732     0.933437358
12.661372            0.301938003     0.934392964   0.000197291221 -7.88096425e-05   0.000197291221 -7.88096429e-05       0.30519394     0.933300683
12.6614              0.302316319     0.934257953   0.000197551351 -7.90120411e-05   0.000197551352 -7.90120415e-05      0.305573361     0.933163747
12.661428            0.302694849     0.934122684   0.000197811851  -7.9214951e-05   0.000197811852 -7.92149515e-05      0.305952998      0.93302655
12.661456            0.303073592     0.933987157   0.000198072721 -7.94183738e-05   0.000198072721 -7.94183742e-05      0.306332849     0.932889092
12.661484            0.303452549     0.933851371    0.00019833396 -7.96223106e-05   0.000198333961  -7.9622311e-05      0.306712915     0.932751372
12.661512             0.30383172     0.933715327   0.000198595571 -7.98267629e-05   0.000198595571 -7.98267633e-05      0.307093196      0.93261339
12.66154             0.304211105     0.933579022   0.000198857552  -8.0031732e-05   0.000198857552 -8.00317324e-05      0.307473692     0.932475145
12.661568            0.304590705     0.933442457   0.000199119904 -8.02372193e-05   0.000199119905 -8.02372198e-05      0.307854404     0.932336637
12.661596            0.304970518     0.933305632   0.000199382629 -8.04432262e-05   0.000199382629 -8.04432266e-05      0.308235331     0.932197865
12.661624            0.305350547     0.933168546   0.000199645726  -8.0649754e-05   0.000199645726 -8.06497545e-05      0.308616474     0.932058829
12.661652            0.305730789     0.933031198   0.000199909196 -8.08568042e-05   0.000199909196 -8.08568046e-05      0.308997832     0.931919529
12.66168             0.306111247     0.932893589   0.000200173038  -8.1064378e-05   0.000200173039 -8.10643785e-05      0.309379407     0.931779963
12.661708             0.30649192     0.932755717   0.000200437255  -8.1272477e-05   0.000200437255 -8.12724774e-05      0.309761197     0.931640132
12.661736            0.306872807     0.932617582   0.000200701846 -8.14811024e-05   0.000200701846 -8.14811028e-05      0.310143204     0.931500035
12.661764             0.30725391     0.932479184   0.000200966811 -8.16902557e-05   0.000200966811 -8.16902561e-05      0.310525426     0.931359672
12.661792            0.307635229     0.932340522   0.000201232151 -8.18999383e-05   0.000201232152 -8.18999387e-05      0.310907866     0.931219041
12.66182             0.308016763     0.932201596   0.000201497867 -8.21101515e-05   0.000201497867  -8.2110152e-05      0.311290522     0.931078144
12.661848            0.308398512     0.932062405   0.000201763959 -8.23208969e-05   0.000201763959 -8.23208973e-05      0.311673395     0.930936978
12.661876            0.308780477      0.93192295   0.000202030426 -8.25321757e-05   0.000202030427 -8.25321762e-05      0.312056484     0.930795545
12.661904            0.309162659     0.931783228   0.000202297271 -8.27439894e-05   0.000202297272 -8.27439899e-05      0.312439791     0.930653842
12.661932            0.309545056     0.931643241   0.000202564493 -8.29563395e-05   0.000202564494   -8.295634e-05      0.312823315      0.93051187
12.66196              0.30992767     0.931502987   0.000202832093 -8.31692273e-05   0.000202832093 -8.31692278e-05      0.313207057     0.930369629
12.661988              0.3103105     0.931362466    0.00020310007 -8.33826543e-05   0.000203100071 -8.33826547e-05      0.313591016     0.930227117
12.662016            0.310693546     0.931221678   0.000203368427 -8.35966219e-05   0.000203368427 -8.35966223e-05      0.313975192     0.930084335
12.662044             0.31107681     0.931080622   0.000203637162 -8.38111315e-05   0.000203637162 -8.38111319e-05      0.314359586     0.929941282
12.662072             0.31146029     0.930939297   0.000203906277 -8.40261845e-05   0.000203906277  -8.4026185e-05      0.314744199     0.929797957
12.6621              0.311843987     0.930797704   0.000204175771 -8.42417825e-05   0.000204175772  -8.4241783e-05      0.315129029      0.92965436
12.662128            0.312227901     0.930655841   0.000204445646 -8.44579268e-05   0.000204445647 -8.44579273e-05      0.315514078     0.929510491
12.662156            0.312612032     0.930513709   0.000204715902  -8.4674619e-05   0.000204715902 -8.46746194e-05      0.315899344     0.929366348
12.662184            0.312996381     0.930371306   0.000204986539 -8.48918604e-05   0.000204986539 -8.48918608e-05       0.31628483     0.929221932
12.662212            0.313380948     0.930228633   0.000205257557 -8.51096525e-05   0.000205257558 -8.51096529e-05      0.316670534     0.929077242
12.66224             0.313765732     0.930085689   0.000205528958 -8.53279967e-05   0.000205528958 -8.53279972e-05      0.317056457     0.928932278
12.662268            0.314150734     0.929942472   0.000205800741 -8.55468946e-05   0.000205800741 -8.55468951e-05      0.317442599     0.928787039
12.662296            0.314535954     0.929798984   0.000206072907 -8.57663476e-05   0.000206072907 -8.57663481e-05       0.31782896     0.928641524
12.662324            0.314921392     0.929655223   0.000206345456 -8.59863572e-05   0.000206345457 -8.59863576e-05       0.31821554     0.928495733
12.662352            0.315307048     0.929511189    0.00020661839 -8.62069248e-05    0.00020661839 -8.62069253e-05       0.31860234     0.928349666
12.66238             0.315692923     0.929366882   0.000206891707  -8.6428052e-05   0.000206891708 -8.64280524e-05      0.318989359     0.928203323
12.662408            0.316079016       0.9292223    0.00020716541 -8.66497401e-05    0.00020716541 -8.66497406e-05      0.319376598     0.928056701
12.662436            0.316465328     0.929077444   0.000207439497 -8.68719908e-05   0.000207439497 -8.68719912e-05      0.319764056     0.927909802
12.662464            0.316851859     0.928932313    0.00020771397 -8.70948054e-05    0.00020771397 -8.70948059e-05      0.320151735     0.927762625
12.662492            0.317238608     0.928786906   0.000207988829 -8.73181856e-05   0.000207988829  -8.7318186e-05      0.320539634     0.927615169
12.66252             0.317625577     0.928641224   0.000208264075 -8.75421327e-05   0.000208264075 -8.75421332e-05      0.320927753     0.927467433
12.662548            0.318012766     0.928495265   0.000208539707 -8.77666483e-05   0.000208539707 -8.77666488e-05      0.321316092     0.927319418
12.662576            0.318400173     0.928349029   0.000208815727  -8.7991734e-05   0.000208815727 -8.79917344e-05      0.321704652     0.927171123
12.662604              0.3187878     0.928202516   0.000209092134 -8.82173911e-05   0.000209092135 -8.82173916e-05      0.322093433     0.927022546
12.662632            0.319175647     0.928055724    0.00020936893 -8.84436213e-05    0.00020936893 -8.84436218e-05      0.322482434     0.926873689
12.66266             0.319563714     0.927908655   0.000209646114  -8.8670426e-05   0.000209646115 -8.86704265e-05      0.322871657     0.926724549
12.662688            0.319952001     0.927761306   0.000209923688 -8.88978068e-05   0.000209923688 -8.88978073e-05        0.3232611     0.926575128
12.662716            0.320340508     0.927613678   0.000210201651 -8.91257653e-05   0.000210201651 -8.91257657e-05      0.323650765     0.926425423
12.662744            0.320729235     0.927465771   0.000210480004 -8.93543028e-05   0.000210480004 -8.93543033e-05      0.324040652     0.926275436
12.662772            0.321118183     0.927317582   0.000210758747  -8.9583421e-05   0.000210758747 -8.95834215e-05      0.324430759     0.926125164
12.6628              0.321507351     0.927169114   0.000211037881 -8.98131215e-05   0.000211037881  -8.9813122e-05      0.324821089     0.925974609
12.662828             0.32189674     0.927020363   0.000211317406 -9.00434057e-05   0.000211317407 -9.00434062e-05       0.32521164     0.925823768
12.662856             0.32228635     0.926871331   0.000211597323 -9.02742752e-05   0.000211597324 -9.02742757e-05      0.325602414     0.925672643
12.662884             0.32267618     0.926722017   0.000211877632 -9.05057316e-05   0.000211877633 -9.05057321e-05      0.325993409     0.925521231
12.662912            0.323066232     0.926572419   0.000212158334 -9.07377764e-05   0.000212158334 -9.07377769e-05      0.326384627     0.925369533
12.66294             0.323456506     0.926422539   0.000212439429 -9.09704112e-05   0.000212439429 -9.09704117e-05      0.326776067     0.925217549
12.662968               0.323847     0.926272375   0.000212720917 -9.12036376e-05   0.000212720917 -9.12036381e-05       0.32716773     0.925065277
12.662996            0.324237717     0.926121926   0.000213002798 -9.14374571e-05   0.000213002799 -9.14374575e-05      0.327559616     0.924912718
12.663024            0.324628655     0.925971192   0.000213285074 -9.16718712e-05   0.000213285075 -9.16718717e-05      0.327951724      0.92475987
12.663052            0.325019814     0.925820173   0.000213567745 -9.19068817e-05   0.000213567746 -9.19068822e-05      0.328344055     0.924606733
12.66308             0.325411196     0.925668869   0.000213850811   -9.214249e-05   0.000213850811 -9.21424905e-05       0.32873661     0.924453307
12.663108              0.3258028     0.925517278   0.000214134272 -9.23786978e-05   0.000214134273 -9.23786983e-05      0.329129388     0.924299591
12.663136            0.326194627       0.9253654    0.00021441813 -9.26155066e-05    0.00021441813 -9.26155071e-05      0.329522389     0.924145585
12.663164            0.326586675     0.925213235   0.000214702383  -9.2852918e-05   0.000214702384 -9.28529185e-05      0.329915614     0.923991288
12.663192            0.326978947     0.925060781   0.000214987034 -9.30909337e-05   0.000214987034 -9.30909342e-05      0.330309062     0.923836699
12.66322             0.327371441      0.92490804   0.000215272082 -9.33295552e-05   0.000215272082 -9.33295557e-05      0.330702735     0.923681819
12.663248            0.327764158      0.92475501   0.000215557527 -9.35687842e-05   0.000215557527 -9.35687847e-05      0.331096631     0.923526646
12.663276            0.328157098      0.92460169    0.00021584337 -9.38086223e-05   0.000215843371 -9.38086228e-05      0.331490752     0.923371181
12.663304            0.328550261     0.924448081   0.000216129612  -9.4049071e-05   0.000216129613 -9.40490715e-05      0.331885097     0.923215422
12.663332            0.328943647     0.924294181   0.000216416253  -9.4290132e-05   0.000216416254 -9.42901325e-05      0.332279666     0.923059368
12.66336             0.329337257      0.92413999   0.000216703294  -9.4531807e-05   0.000216703294 -9.45318075e-05       0.33267446     0.922903021
12.663388            0.329731091     0.923985507   0.000216990734 -9.47740975e-05   0.000216990734  -9.4774098e-05      0.333069479     0.922746378
12.663416            0.330125148     0.923830733   0.000217278574 -9.50170053e-05   0.000217278574 -9.50170058e-05      0.333464722      0.92258944
12.663444            0.330519429     0.923675666   0.000217566815 -9.52605318e-05   0.000217566815 -9.52605323e-05      0.333860191     0.922432206
12.663472            0.330913934     0.923520307   0.000217855456 -9.55046789e-05   0.000217855457 -9.55046794e-05      0.334255884     0.922274675
12.6635              0.331308663     0.923364653     0.0002181445 -9.57494481e-05     0.0002181445 -9.57494486e-05      0.334651803     0.922116847
