! TOUCHSTONE file generated by CST MICROWAVE STUDIO
! Date and time: Wed Jul 31 12:03:55 2024
! Project name: WaveGuide_BPF-Ver4.1_U-shape_Ku_T3_C4_CWA_2.cst
! Parameters = {cavity_h=16; cavity_l0=10; cavity_l1=15.2102; cavity_l2=16.8559; cavity_l3=17.1291; cavity_l4=17.2778; cavity_l5=17.1024; cavity_l6=17.5647; cavity_r=2.5; cavity_screw_l=0.5; cavity_screw_r=1.5; cavity_w=8; iris_h00=0; iris_h01=8.839; iris_h112=0; iris_h12=5.6024; iris_h211=3.6598; iris_h23=5.1875; iris_h310=3.9639; iris_h34=5.0856; iris_h45=4.9305; iris_h49=4.623; iris_h56=4.7913; iris_h58=4.4309; iris_h67=6.5913; iris_rx=0.1; iris_screw_l=0.5; iris_screw_r=1.5; iris_shift00=0; iris_shift112=0; iris_shift211=3.5; iris_shift310=0; iris_shift49=0; iris_shift58=3.5; iris_shift67=3.5; iris_tx=4.5; iris_tz=4.5; iris_w00=0; iris_w112=0; iris_w211=4; iris_w310=3.9639; iris_w49=4.623; iris_w58=4; iris_w67=4; mesh_cavity=5; mesh_iris=7; mesh_screw=7; order=12; reset_all=0; sigma=4.8e+07}
! Header version: 2018
! Port assignment regex: !\s*Touchstone port\s*([0-9]+)\s*=\s*(CST MWS port|CST DS port)\s*([0-9]+|Zmin|Zmax)\s*\(\"(.*)\"\)(\s*mode\s*([0-9]+))?.*
! Touchstone port assignment:
! Touchstone port 1 = CST MWS port 1 ("")
! Touchstone port 2 = CST MWS port 2 ("")
# GHz S RI R 50
12.66                0.445844588     0.868908496   0.000295336089 -0.000179874417   0.000295336089 -0.000179874417      0.445296909     0.869392177
12.660028            0.446307012     0.868649875   0.000295727463 -0.000180342389   0.000295727463  -0.00018034239        0.4457559     0.869135994
12.660056            0.446769684     0.868390773   0.000296119325 -0.000180811613   0.000296119326 -0.000180811613      0.446215093     0.868879359
12.660084            0.447232602     0.868131191   0.000296511673 -0.000181282092   0.000296511674 -0.000181282093      0.446674505     0.868622264
12.660112            0.447695765     0.867871127   0.000296904503 -0.000181753834   0.000296904504 -0.000181753834      0.447134154     0.868364697
12.66014             0.448159171     0.867610583   0.000297297813 -0.000182226843   0.000297297813 -0.000182226843      0.447594057      0.86810665
12.660168            0.448622822     0.867349556   0.000297691601 -0.000182701123   0.000297691602 -0.000182701123      0.448054216     0.867848121
12.660196            0.449086717     0.867088046   0.000298085872 -0.000183176677   0.000298085872 -0.000183176677      0.448514617     0.867589116
12.660224            0.449550857     0.866826052   0.000298480624 -0.000183653507   0.000298480624 -0.000183653507      0.448975262     0.867329633
12.660252            0.450015242     0.866563572   0.000298875857 -0.000184131618   0.000298875858 -0.000184131618       0.44943615     0.867069673
12.66028             0.450479871     0.866300606   0.000299271572 -0.000184611013   0.000299271573 -0.000184611014       0.44989728     0.866809233
12.660308            0.450944745     0.866037154   0.000299667769 -0.000185091697    0.00029966777 -0.000185091697      0.450358654     0.866548312
12.660336            0.451409864     0.865773213   0.000300064448 -0.000185573671   0.000300064448 -0.000185573672      0.450820271     0.866286911
12.660364            0.451875228     0.865508783   0.000300461608 -0.000186056941   0.000300461609 -0.000186056942      0.451282132     0.866025029
12.660392            0.452340837     0.865243864    0.00030085925  -0.00018654151   0.000300859251 -0.000186541511      0.451744235     0.865762663
12.66042              0.45280669     0.864978454   0.000301257375 -0.000187027382   0.000301257375 -0.000187027382      0.452206582     0.865499814
12.660448            0.453272788     0.864712553   0.000301655981  -0.00018751456   0.000301655981  -0.00018751456      0.452669171      0.86523648
12.660476            0.453739132     0.864446159   0.000302055069 -0.000188003048   0.000302055069 -0.000188003048      0.453132004     0.864972661
12.660504             0.45420572     0.864179271   0.000302454639  -0.00018849285    0.00030245464  -0.00018849285      0.453595081     0.864708355
12.660532            0.454672553     0.863911889   0.000302854691 -0.000188983969   0.000302854692 -0.000188983969        0.4540584     0.864443563
12.66056             0.455139631     0.863644012   0.000303255225  -0.00018947641   0.000303255226  -0.00018947641      0.454521963     0.864178282
12.660588            0.455606954     0.863375639   0.000303656242 -0.000189970175   0.000303656242 -0.000189970175       0.45498577     0.863912512
12.660616            0.456074521     0.863106769    0.00030405774  -0.00019046527    0.00030405774  -0.00019046527      0.455449819     0.863646252
12.660644            0.456542334       0.8628374    0.00030445972 -0.000190961697   0.000304459721 -0.000190961697      0.455914113     0.863379501
12.660672            0.457010392     0.862567533   0.000304862182  -0.00019145946   0.000304862183  -0.00019145946      0.456378649     0.863112259
12.6607              0.457478695     0.862297166   0.000305265127 -0.000191958564   0.000305265127 -0.000191958564      0.456843429     0.862844523
12.660728            0.457947243     0.862026297   0.000305668553 -0.000192459011   0.000305668554 -0.000192459012      0.457308452     0.862576295
12.660756            0.458416035     0.861754928   0.000306072462 -0.000192960807   0.000306072462 -0.000192960807      0.457773719     0.862307571
12.660784            0.458885073     0.861483055   0.000306476852 -0.000193463954   0.000306476853 -0.000193463954      0.458239229     0.862038352
12.660812            0.459354356     0.861210679   0.000306881725 -0.000193968457   0.000306881725 -0.000193968457      0.458704983     0.861768637
12.66084             0.459823884     0.860937798   0.000307287079 -0.000194474319    0.00030728708 -0.000194474319       0.45917098     0.861498424
12.660868            0.460293657     0.860664411   0.000307692915 -0.000194981544   0.000307692916 -0.000194981545       0.45963722     0.861227713
12.660896            0.460763675     0.860390518   0.000308099234 -0.000195490137   0.000308099234 -0.000195490137      0.460103704     0.860956503
12.660924            0.461233938     0.860116118   0.000308506034   -0.0001960001   0.000308506034 -0.000196000101      0.460570432     0.860684793
12.660952            0.461704446     0.859841209   0.000308913316 -0.000196511439   0.000308913316 -0.000196511439      0.461037403     0.860412582
12.66098             0.462175199     0.859565791   0.000309321079 -0.000197024157    0.00030932108 -0.000197024157      0.461504617     0.860139868
12.661008            0.462646197     0.859289862   0.000309729325 -0.000197538257   0.000309729325 -0.000197538257      0.461972075     0.859866652
12.661036             0.46311744     0.859013423   0.000310138052 -0.000198053744   0.000310138052 -0.000198053744      0.462439777     0.859592932
12.661064            0.463588929     0.858736471    0.00031054726 -0.000198570622   0.000310547261 -0.000198570622      0.462907722     0.859318707
12.661092            0.464060662     0.858459006   0.000310956951 -0.000199088894   0.000310956951 -0.000199088895      0.463375911     0.859043976
12.66112              0.46453264     0.858181026   0.000311367122 -0.000199608565   0.000311367123 -0.000199608566      0.463844343     0.858768739
12.661148            0.465004864     0.857902532   0.000311777775 -0.000200129639   0.000311777776  -0.00020012964      0.464313019     0.858492994
12.661176            0.465477332     0.857623522   0.000312188909  -0.00020065212    0.00031218891  -0.00020065212      0.464781938      0.85821674
12.661204            0.465950046     0.857343994   0.000312600525 -0.000201176011   0.000312600525 -0.000201176011      0.465251101     0.857939977
12.661232            0.466423004     0.857063949   0.000313012621 -0.000201701317   0.000313012622 -0.000201701317      0.465720508     0.857662703
12.66126             0.466896208     0.856783384   0.000313425199 -0.000202228041   0.000313425199 -0.000202228042      0.466190158     0.857384918
12.661288            0.467369656       0.8565023   0.000313838257 -0.000202756189   0.000313838258 -0.000202756189      0.466660051      0.85710662
12.661316             0.46784335     0.856220694   0.000314251796 -0.000203285763   0.000314251797 -0.000203285763      0.467130188     0.856827809
12.661344            0.468317289     0.855938567   0.000314665816 -0.000203816768   0.000314665817 -0.000203816768      0.467600569     0.856548484
12.661372            0.468791472     0.855655916   0.000315080317 -0.000204349208   0.000315080317 -0.000204349209      0.468071193     0.856268643
12.6614              0.469265901     0.855372742   0.000315495298 -0.000204883088   0.000315495298 -0.000204883088      0.468542061     0.855988286
12.661428            0.469740574     0.855089043   0.000315910759  -0.00020541841    0.00031591076  -0.00020541841      0.469013172     0.855707412
12.661456            0.470215493     0.854804818   0.000316326701  -0.00020595518   0.000316326701  -0.00020595518      0.469484526     0.855426019
12.661484            0.470690657     0.854520066   0.000316743122 -0.000206493401   0.000316743123 -0.000206493401      0.469956125     0.855144107
12.661512            0.471166065     0.854234787   0.000317160024 -0.000207033078   0.000317160024 -0.000207033078      0.470427966     0.854861675
12.66154             0.471641718     0.853948978   0.000317577405 -0.000207574214   0.000317577405 -0.000207574215      0.470900052     0.854578722
12.661568            0.472117617      0.85366264   0.000317995265 -0.000208116815   0.000317995266 -0.000208116815      0.471372381     0.854295247
12.661596             0.47259376     0.853375771   0.000318413606 -0.000208660884   0.000318413606 -0.000208660884      0.471844953     0.854011248
12.661624            0.473070148      0.85308837   0.000318832425 -0.000209206425   0.000318832426 -0.000209206425      0.472317768     0.853726726
12.661652            0.473546781     0.852800436   0.000319251724 -0.000209753442   0.000319251724 -0.000209753443      0.472790828     0.853441678
12.66168             0.474023659     0.852511968   0.000319671501  -0.00021030194   0.000319671502 -0.000210301941       0.47326413     0.853156105
12.661708            0.474500781     0.852222965   0.000320091758 -0.000210851924   0.000320091758 -0.000210851924      0.473737676     0.852870004
12.661736            0.474978149     0.851933427   0.000320512492 -0.000211403396   0.000320512493 -0.000211403396      0.474211466     0.852583375
12.661764            0.475455761     0.851643351   0.000320933706 -0.000211956362   0.000320933706 -0.000211956362      0.474685498     0.852296217
12.661792            0.475933618     0.851352738   0.000321355397 -0.000212510826   0.000321355398 -0.000212510826      0.475159775     0.852008529
12.66182             0.476411719     0.851061586   0.000321777566 -0.000213066791   0.000321777567 -0.000213066791      0.475634294      0.85172031
12.661848            0.476890066     0.850769894   0.000322200214 -0.000213624263   0.000322200214 -0.000213624263      0.476109057     0.851431559
12.661876            0.477368657     0.850477661   0.000322623338 -0.000214183246   0.000322623339 -0.000214183246      0.476584063     0.851142274
12.661904            0.477847492     0.850184885    0.00032304694 -0.000214743743   0.000323046941 -0.000214743743      0.477059313     0.850852456
12.661932            0.478326573     0.849891567   0.000323471019  -0.00021530576    0.00032347102  -0.00021530576      0.477534806     0.850562103
12.66196             0.478805898     0.849597705   0.000323895575   -0.0002158693   0.000323895576 -0.000215869301      0.478010542     0.850271213
12.661988            0.479285467     0.849303298   0.000324320608 -0.000216434369   0.000324320609 -0.000216434369      0.478486521     0.849979787
12.662016            0.479765281     0.849008345   0.000324746117 -0.000217000969   0.000324746118  -0.00021700097      0.478962744     0.849687822
12.662044            0.480245339     0.848712844   0.000325172102 -0.000217569107   0.000325172103 -0.000217569107      0.479439209     0.849395318
12.662072            0.480725642     0.848416795   0.000325598563 -0.000218138785   0.000325598564 -0.000218138785      0.479915918     0.849102274
12.6621               0.48120619     0.848120198     0.0003260255 -0.000218710009     0.0003260255 -0.000218710009       0.48039287     0.848808689
12.662128            0.481686981     0.847823049   0.000326452912 -0.000219282783   0.000326452912 -0.000219282783      0.480870065     0.848514561
12.662156            0.482168018      0.84752535   0.000326880799 -0.000219857111   0.000326880799 -0.000219857112      0.481347503     0.848219891
12.662184            0.482649298     0.847227098   0.000327309161 -0.000220432998   0.000327309161 -0.000220432999      0.481825184     0.847924676
12.662212            0.483130823     0.846928293   0.000327737997 -0.000221010449   0.000327737997 -0.000221010449      0.482303109     0.847628915
12.66224             0.483612592     0.846628934   0.000328167308 -0.000221589467   0.000328167308 -0.000221589467      0.482781276     0.847332609
12.662268            0.484094605     0.846329018   0.000328597092 -0.000222170057   0.000328597093 -0.000222170058      0.483259686     0.847035755
12.662296            0.484576862     0.846028547    0.00032902735 -0.000222752225   0.000329027351 -0.000222752225      0.483738339     0.846738353
12.662324            0.485059364     0.845727518   0.000329458081 -0.000223335973   0.000329458082 -0.000223335973      0.484217235     0.846440401
12.662352            0.485542109      0.84542593   0.000329889286 -0.000223921307   0.000329889286 -0.000223921307      0.484696374     0.846141899
12.66238             0.486025099     0.845123782   0.000330320963 -0.000224508232   0.000330320963 -0.000224508232      0.485175755     0.845842845
12.662408            0.486508332     0.844821074   0.000330753112 -0.000225096751   0.000330753113 -0.000225096751       0.48565538     0.845543239
12.662436             0.48699181     0.844517803   0.000331185733  -0.00022568687   0.000331185734  -0.00022568687      0.486135247     0.845243079
12.662464            0.487475531      0.84421397   0.000331618826 -0.000226278592   0.000331618827 -0.000226278593      0.486615356     0.844942364
12.662492            0.487959497     0.843909573    0.00033205239 -0.000226871924   0.000332052391 -0.000226871924      0.487095709     0.844641094
12.66252             0.488443706     0.843604611   0.000332486426 -0.000227466868   0.000332486426 -0.000227466869      0.487576304     0.844339266
12.662548            0.488928159     0.843299082   0.000332920931 -0.000228063431   0.000332920932 -0.000228063431      0.488057141     0.844036882
12.662576            0.489412855     0.842992987   0.000333355907 -0.000228661615   0.000333355908 -0.000228661616      0.488538221     0.843733938
12.662604            0.489897795     0.842686323   0.000333791353 -0.000229261427   0.000333791353 -0.000229261428      0.489019544     0.843430434
12.662632            0.490382979     0.842379089   0.000334227268 -0.000229862871   0.000334227268 -0.000229862871      0.489501109     0.843126369
12.66266             0.490868406     0.842071285   0.000334663652 -0.000230465951   0.000334663653 -0.000230465952      0.489982916     0.842821742
12.662688            0.491354077      0.84176291   0.000335100505 -0.000231070672   0.000335100505 -0.000231070673      0.490464966     0.842516552
12.662716            0.491839991     0.841453962   0.000335537826 -0.000231677039   0.000335537826  -0.00023167704      0.490947258     0.842210798
12.662744            0.492326149      0.84114444   0.000335975615 -0.000232285057   0.000335975615 -0.000232285057      0.491429792     0.841904478
12.662772             0.49281255     0.840834344   0.000336413871  -0.00023289473   0.000336413871  -0.00023289473      0.491912568     0.841597592
12.6628              0.493299194     0.840523671   0.000336852594 -0.000233506063   0.000336852594 -0.000233506063      0.492395587     0.841290139
12.662828            0.493786081     0.840212421   0.000337291784  -0.00023411906   0.000337291784  -0.00023411906      0.492878847     0.840982117
12.662856            0.494273212     0.839900594   0.000337731439 -0.000234733727    0.00033773144 -0.000234733728      0.493362349     0.840673525
12.662884            0.494760585     0.839588187   0.000338171561 -0.000235350069   0.000338171561 -0.000235350069      0.493846094     0.840364363
12.662912            0.495248202     0.839275199   0.000338612147 -0.000235968089   0.000338612148 -0.000235968089       0.49433008     0.840054629
12.66294             0.495736061     0.838961631   0.000339053199 -0.000236587793   0.000339053199 -0.000236587794      0.494814308     0.839744322
12.662968            0.496224163     0.838647479   0.000339494714 -0.000237209187   0.000339494715 -0.000237209187      0.495298778     0.839433441
12.662996            0.496712508     0.838332744   0.000339936693 -0.000237832273   0.000339936694 -0.000237832274       0.49578349     0.839121985
12.663024            0.497201096     0.838017424   0.000340379136 -0.000238457058   0.000340379137 -0.000238457059      0.496268443     0.838809953
12.663052            0.497689926     0.837701519   0.000340822041 -0.000239083547   0.000340822042 -0.000239083547      0.496753638     0.838497343
12.66308             0.498178999     0.837385026   0.000341265409 -0.000239711743   0.000341265409 -0.000239711743      0.497239075     0.838184155
12.663108            0.498668315     0.837067945   0.000341709238 -0.000240341653   0.000341709239 -0.000240341653      0.497724753     0.837870388
12.663136            0.499157872     0.836750275   0.000342153529  -0.00024097328    0.00034215353 -0.000240973281      0.498210672      0.83755604
12.663164            0.499647673     0.836432014    0.00034259828 -0.000241606631   0.000342598281 -0.000241606631      0.498696832      0.83724111
12.663192            0.500137715     0.836113162   0.000343043492 -0.000242241709   0.000343043492 -0.000242241709      0.499183234     0.836925598
12.66322                0.500628     0.835793717   0.000343489163  -0.00024287852   0.000343489164  -0.00024287852      0.499669877     0.836609501
12.663248            0.501118527     0.835473678   0.000343935294 -0.000243517069   0.000343935294 -0.000243517069      0.500156761      0.83629282
12.663276            0.501609295     0.835153044   0.000344381882  -0.00024415736   0.000344381883 -0.000244157361      0.500643887     0.835975553
12.663304            0.502100306     0.834831815   0.000344828929   -0.0002447994    0.00034482893   -0.0002447994      0.501131253     0.835657698
12.663332            0.502591559     0.834509988   0.000345276434 -0.000245443192   0.000345276434 -0.000245443192       0.50161886     0.835339255
12.66336             0.503083053     0.834187562   0.000345724395 -0.000246088741   0.000345724395 -0.000246088742      0.502106708     0.835020222
12.663388            0.503574789     0.833864537   0.000346172812 -0.000246736054   0.000346172813 -0.000246736054      0.502594796     0.834700598
12.663416            0.504066767     0.833540912   0.000346621685 -0.000247385134   0.000346621686 -0.000247385135      0.503083126     0.834380383
12.663444            0.504558986     0.833216684   0.000347071013 -0.000248035988   0.000347071014 -0.000248035988      0.503571695     0.834059575
12.663472            0.505051447     0.832891854   0.000347520796 -0.000248688619   0.000347520796 -0.000248688619      0.504060506     0.833738173
12.6635              0.505544149     0.832566419   0.000347971032 -0.000249343033   0.000347971032 -0.000249343034      0.504549557     0.833416175
