! TOUCHSTONE file generated by CST MICROWAVE STUDIO
! Date and time: Wed Jul 31 12:19:38 2024
! Project name: WaveGuide_BPF-Ver4.1_U-shape_Ku_T3_C4_CWA_2.cst
! Parameters = {cavity_h=16; cavity_l0=10; cavity_l1=15.1639; cavity_l2=16.8677; cavity_l3=17.1097; cavity_l4=17.2999; cavity_l5=17.1185; cavity_l6=17.5856; cavity_r=2.5; cavity_screw_l=0.5; cavity_screw_r=1.5; cavity_w=8; iris_h00=0; iris_h01=8.7996; iris_h112=0; iris_h12=5.6094; iris_h211=3.6537; iris_h23=5.2077; iris_h310=3.9736; iris_h34=5.0746; iris_h45=4.9247; iris_h49=4.6116; iris_h56=4.8002; iris_h58=4.4298; iris_h67=6.5889; iris_rx=0.1; iris_screw_l=0.5; iris_screw_r=1.5; iris_shift00=0; iris_shift112=0; iris_shift211=3.5; iris_shift310=0; iris_shift49=0; iris_shift58=3.5; iris_shift67=3.5; iris_tx=4.5; iris_tz=4.5; iris_w00=0; iris_w112=0; iris_w211=4; iris_w310=3.9736; iris_w49=4.6116; iris_w58=4; iris_w67=4; mesh_cavity=5; mesh_iris=7; mesh_screw=7; order=12; reset_all=0; sigma=4.8e+07}
! Header version: 2018
! Port assignment regex: !\s*Touchstone port\s*([0-9]+)\s*=\s*(CST MWS port|CST DS port)\s*([0-9]+|Zmin|Zmax)\s*\(\"(.*)\"\)(\s*mode\s*([0-9]+))?.*
! Touchstone port assignment:
! Touchstone port 1 = CST MWS port 1 ("")
! Touchstone port 2 = CST MWS port 2 ("")
# GHz S RI R 50
12.66                0.174385034     0.969324275   0.000234255603 -6.06898487e-05   0.000234255603 -6.06898481e-05      0.181271299     0.968035798
12.660028            0.174709411     0.969255822   0.000234620038 -6.08761934e-05   0.000234620038 -6.08761928e-05       0.18159689     0.967964655
12.660056            0.175034063     0.969187192   0.000234985158 -6.10630848e-05   0.000234985158 -6.10630841e-05      0.181922597     0.967893361
12.660084            0.175358961      0.96911839   0.000235350964 -6.12505255e-05   0.000235350964 -6.12505249e-05       0.18224846     0.967821908
12.660112            0.175684077      0.96904942   0.000235717458 -6.14385186e-05   0.000235717458  -6.1438518e-05      0.182574519     0.967750288
12.66014             0.176009382     0.968980287    0.00023608464  -6.1627067e-05    0.00023608464 -6.16270664e-05      0.182900812     0.967678494
12.660168            0.176334875     0.968910991   0.000236452512 -6.18161724e-05   0.000236452512 -6.18161718e-05       0.18322734     0.967606526
12.660196            0.176660577     0.968841529   0.000236821075 -6.20058359e-05   0.000236821075 -6.20058353e-05      0.183554078     0.967534388
12.660224            0.176986487     0.968771899   0.000237190331 -6.21960592e-05   0.000237190331 -6.21960586e-05      0.183881024      0.96746208
12.660252            0.177312606     0.968702102   0.000237560282 -6.23868442e-05   0.000237560282 -6.23868436e-05      0.184208181     0.967389601
12.66028             0.177638934     0.968632137   0.000237930929 -6.25781926e-05   0.000237930929 -6.25781919e-05      0.184535547     0.967316951
12.660308            0.177965472     0.968562004   0.000238302274 -6.27701062e-05   0.000238302274 -6.27701056e-05      0.184863123      0.96724413
12.660336            0.178292219     0.968491703   0.000238674318 -6.29625869e-05   0.000238674317 -6.29625863e-05       0.18519091     0.967171138
12.660364            0.178619176     0.968421233   0.000239047062 -6.31556364e-05   0.000239047062 -6.31556358e-05      0.185518907     0.967097973
12.660392            0.178946343     0.968350593   0.000239420508 -6.33492567e-05   0.000239420508 -6.33492561e-05      0.185847115     0.967024637
12.66042             0.179273721     0.968279785   0.000239794658 -6.35434495e-05   0.000239794658 -6.35434489e-05      0.186175534     0.966951128
12.660448            0.179601309     0.968208807   0.000240169513 -6.37382167e-05   0.000240169513  -6.3738216e-05      0.186504165     0.966877446
12.660476            0.179929108     0.968137658   0.000240545075   -6.393356e-05   0.000240545075 -6.39335594e-05      0.186833007     0.966803591
12.660504            0.180257118      0.96806634   0.000240921345 -6.41294815e-05   0.000240921345 -6.41294808e-05       0.18716206     0.966729562
12.660532            0.180585339      0.96799485   0.000241298325 -6.43259828e-05   0.000241298325 -6.43259822e-05      0.187491326      0.96665536
12.66056             0.180913771      0.96792319   0.000241676016 -6.45230659e-05   0.000241676015 -6.45230653e-05      0.187820803     0.966580983
12.660588            0.181242416     0.967851358   0.000242054419 -6.47207327e-05   0.000242054419 -6.47207321e-05      0.188150494     0.966506432
12.660616            0.181571272     0.967779355   0.000242433537 -6.49189851e-05   0.000242433537 -6.49189844e-05      0.188480397     0.966431706
12.660644            0.181900341      0.96770718   0.000242813371 -6.51178248e-05   0.000242813371 -6.51178242e-05      0.188810513     0.966356805
12.660672            0.182229622     0.967634832   0.000243193922 -6.53172539e-05   0.000243193922 -6.53172533e-05      0.189140842     0.966281728
12.6607              0.182559116     0.967562311   0.000243575193 -6.55172741e-05   0.000243575193 -6.55172735e-05      0.189471384     0.966206476
12.660728            0.182888823     0.967489618   0.000243957183 -6.57178875e-05   0.000243957183 -6.57178869e-05       0.18980214     0.966131047
12.660756            0.183218743     0.967416751   0.000244339896 -6.59190959e-05   0.000244339896 -6.59190953e-05      0.190133111     0.966055442
12.660784            0.183548876     0.967343711   0.000244723333 -6.61209013e-05   0.000244723332 -6.61209006e-05      0.190464295     0.965979659
12.660812            0.183879223     0.967270496   0.000245107494 -6.63233055e-05   0.000245107494 -6.63233049e-05      0.190795694       0.9659037
12.66084             0.184209784     0.967197108   0.000245492383 -6.65263105e-05   0.000245492383 -6.65263099e-05      0.191127307     0.965827563
12.660868             0.18454056     0.967123544   0.000245877999 -6.67299182e-05   0.000245877999 -6.67299176e-05      0.191459135     0.965751248
12.660896            0.184871549     0.967049805   0.000246264346 -6.69341307e-05   0.000246264346   -6.693413e-05      0.191791179     0.965674754
12.660924            0.185202754     0.966975892   0.000246651424 -6.71389497e-05   0.000246651424 -6.71389491e-05      0.192123438     0.965598083
12.660952            0.185534173     0.966901802   0.000247039235 -6.73443774e-05   0.000247039235 -6.73443768e-05      0.192455912     0.965521232
12.66098             0.185865807     0.966827536   0.000247427781 -6.75504156e-05   0.000247427781  -6.7550415e-05      0.192788602     0.965444201
12.661008            0.186197657     0.966753094   0.000247817063 -6.77570664e-05   0.000247817063 -6.77570658e-05      0.193121509     0.965366992
12.661036            0.186529723     0.966678475   0.000248207083 -6.79643317e-05   0.000248207083  -6.7964331e-05      0.193454632     0.965289602
12.661064            0.186862004     0.966603679   0.000248597843 -6.81722134e-05   0.000248597843 -6.81722128e-05      0.193787971     0.965212031
12.661092            0.187194501     0.966528706   0.000248989343 -6.83807137e-05   0.000248989343 -6.83807131e-05      0.194121527      0.96513428
12.66112             0.187527215     0.966453555   0.000249381586 -6.85898345e-05   0.000249381586 -6.85898339e-05      0.194455301     0.965056348
12.661148            0.187860146     0.966378226   0.000249774574 -6.87995778e-05   0.000249774574 -6.87995772e-05      0.194789291     0.964978235
12.661176            0.188193293     0.966302718   0.000250168307 -6.90099456e-05   0.000250168307  -6.9009945e-05        0.1951235     0.964899939
12.661204            0.188526658     0.966227031   0.000250562788   -6.922094e-05   0.000250562788 -6.92209394e-05      0.195457926     0.964821462
12.661232             0.18886024     0.966151166   0.000250958018  -6.9432563e-05   0.000250958018 -6.94325623e-05       0.19579257     0.964742802
12.66126             0.189194039      0.96607512   0.000251353998 -6.96448165e-05   0.000251353998 -6.96448159e-05      0.196127433     0.964663959
12.661288            0.189528057     0.965998895   0.000251750731 -6.98577028e-05   0.000251750731 -6.98577021e-05      0.196462515     0.964584933
12.661316            0.189862292      0.96592249   0.000252148218 -7.00712237e-05   0.000252148218 -7.00712231e-05      0.196797815     0.964505723
12.661344            0.190196746     0.965845904   0.000252546461 -7.02853815e-05   0.000252546461 -7.02853809e-05      0.197133334      0.96442633
12.661372            0.190531419     0.965769137   0.000252945461 -7.05001781e-05   0.000252945461 -7.05001774e-05      0.197469073     0.964346752
12.6614               0.19086631     0.965692189   0.000253345219 -7.07156156e-05   0.000253345219  -7.0715615e-05      0.197805031      0.96426699
12.661428            0.191201421     0.965615059   0.000253745739 -7.09316961e-05   0.000253745739 -7.09316955e-05      0.198141209     0.964187042
12.661456            0.191536751     0.965537747    0.00025414702 -7.11484217e-05    0.00025414702 -7.11484211e-05      0.198477608     0.964106909
12.661484              0.1918723     0.965460253   0.000254549066 -7.13657945e-05   0.000254549065 -7.13657939e-05      0.198814226     0.964026591
12.661512             0.19220807     0.965382576   0.000254951876 -7.15838166e-05   0.000254951876  -7.1583816e-05      0.199151066     0.963946086
12.66154             0.192544059     0.965304716   0.000255355455 -7.18024902e-05   0.000255355454 -7.18024895e-05      0.199488126     0.963865395
12.661568            0.192880269     0.965226673   0.000255759801 -7.20218172e-05   0.000255759801 -7.20218166e-05      0.199825407     0.963784517
12.661596              0.1932167     0.965148446   0.000256164919 -7.22417999e-05   0.000256164919 -7.22417993e-05       0.20016291     0.963703451
12.661624            0.193553352     0.965070035   0.000256570809 -7.24624404e-05   0.000256570808 -7.24624398e-05      0.200500634     0.963622198
12.661652            0.193890225     0.964991439   0.000256977472 -7.26837409e-05   0.000256977472 -7.26837402e-05       0.20083858     0.963540758
12.66168             0.194227319     0.964912658   0.000257384911 -7.29057034e-05   0.000257384911 -7.29057028e-05      0.201176749     0.963459128
12.661708            0.194564635     0.964833692   0.000257793127 -7.31283302e-05   0.000257793127 -7.31283296e-05       0.20151514     0.963377311
12.661736            0.194902172      0.96475454   0.000258202122 -7.33516234e-05   0.000258202122 -7.33516228e-05      0.201853753     0.963295304
12.661764            0.195239932     0.964675203   0.000258611898 -7.35755852e-05   0.000258611898 -7.35755846e-05       0.20219259     0.963213107
12.661792            0.195577915     0.964595679   0.000259022456 -7.38002178e-05   0.000259022456 -7.38002171e-05      0.202531649     0.963130721
12.66182              0.19591612     0.964515968   0.000259433798 -7.40255233e-05   0.000259433798 -7.40255227e-05      0.202870933     0.963048145
12.661848            0.196254548      0.96443607   0.000259845926  -7.4251504e-05   0.000259845926 -7.42515034e-05      0.203210439     0.962965378
12.661876              0.1965932     0.964355985   0.000260258841 -7.44781621e-05   0.000260258841 -7.44781614e-05       0.20355017      0.96288242
12.661904            0.196932074     0.964275712   0.000260672546 -7.47054997e-05   0.000260672546 -7.47054991e-05      0.203890125     0.962799271
12.661932            0.197271173     0.964195251   0.000261087041 -7.49335192e-05   0.000261087041 -7.49335186e-05      0.204230305      0.96271593
12.66196             0.197610495     0.964114601   0.000261502329 -7.51622227e-05   0.000261502329  -7.5162222e-05      0.204570709     0.962632397
12.661988            0.197950042     0.964033762   0.000261918411 -7.53916125e-05   0.000261918411 -7.53916118e-05      0.204911338     0.962548671
12.662016            0.198289814     0.963952734   0.000262335289 -7.56216907e-05   0.000262335289 -7.56216901e-05      0.205252193     0.962464753
12.662044             0.19862981     0.963871516   0.000262752965 -7.58524598e-05   0.000262752965 -7.58524592e-05      0.205593273     0.962380641
12.662072            0.198970031     0.963790108    0.00026317144 -7.60839219e-05    0.00026317144 -7.60839213e-05      0.205934579     0.962296336
12.6621              0.199310477      0.96370851   0.000263590717 -7.63160793e-05   0.000263590717 -7.63160787e-05       0.20627611     0.962211837
12.662128            0.199651149     0.963626721   0.000264010796 -7.65489343e-05   0.000264010796 -7.65489337e-05      0.206617869     0.962127143
12.662156            0.199992047      0.96354474   0.000264431681 -7.67824892e-05    0.00026443168 -7.67824886e-05      0.206959853     0.962042255
12.662184            0.200333171     0.963462568   0.000264853371 -7.70167463e-05   0.000264853371 -7.70167456e-05      0.207302065     0.961957172
12.662212            0.200674521     0.963380204    0.00026527587 -7.72517078e-05    0.00026527587 -7.72517071e-05      0.207644504     0.961871892
12.66224             0.201016098     0.963297648   0.000265699179 -7.74873761e-05   0.000265699179 -7.74873755e-05       0.20798717     0.961786417
12.662268            0.201357902     0.963214899     0.0002661233 -7.77237535e-05     0.0002661233 -7.77237529e-05      0.208330064     0.961700746
12.662296            0.201699933     0.963131957   0.000266548234 -7.79608424e-05   0.000266548234 -7.79608418e-05      0.208673185     0.961614878
12.662324            0.202042191     0.963048821   0.000266973984 -7.81986451e-05   0.000266973983 -7.81986444e-05      0.209016535     0.961528813
12.662352            0.202384677     0.962965491    0.00026740055 -7.84371638e-05    0.00026740055 -7.84371632e-05      0.209360114      0.96144255
12.66238             0.202727391     0.962881967   0.000267827935 -7.86764011e-05   0.000267827935 -7.86764004e-05       0.20970392     0.961356089
12.662408            0.203070334     0.962798249   0.000268256142 -7.89163592e-05   0.000268256141 -7.89163585e-05      0.210047956      0.96126943
12.662436            0.203413504     0.962714335    0.00026868517 -7.91570405e-05    0.00026868517 -7.91570398e-05      0.210392222     0.961182572
12.662464            0.203756904     0.962630226   0.000269115023 -7.93984474e-05   0.000269115023 -7.93984468e-05      0.210736716     0.961095515
12.662492            0.204100532     0.962545921   0.000269545701 -7.96405823e-05   0.000269545701 -7.96405817e-05      0.211081441     0.961008259
12.66252              0.20444439     0.962461419   0.000269977208 -7.98834476e-05   0.000269977208 -7.98834469e-05      0.211426395     0.960920803
12.662548            0.204788477     0.962376721   0.000270409544 -8.01270457e-05   0.000270409544  -8.0127045e-05       0.21177158     0.960833146
12.662576            0.205132794     0.962291826   0.000270842711 -8.03713789e-05   0.000270842711 -8.03713783e-05      0.212116995     0.960745289
12.662604            0.205477341     0.962206734   0.000271276712 -8.06164499e-05   0.000271276712 -8.06164492e-05      0.212462642     0.960657231
12.662632            0.205822119     0.962121444   0.000271711548 -8.08622608e-05   0.000271711548 -8.08622602e-05      0.212808519     0.960568971
12.66266             0.206167127     0.962035955   0.000272147221 -8.11088143e-05    0.00027214722 -8.11088137e-05      0.213154628     0.960480509
12.662688            0.206512366     0.961950268   0.000272583732 -8.13561128e-05   0.000272583732 -8.13561121e-05      0.213500968     0.960391845
12.662716            0.206857836     0.961864382   0.000273021084 -8.16041587e-05   0.000273021084  -8.1604158e-05      0.213847541     0.960302978
12.662744            0.207203538     0.961778296   0.000273459278 -8.18529544e-05   0.000273459278 -8.18529538e-05      0.214194345     0.960213907
12.662772            0.207549471     0.961692011   0.000273898316 -8.21025026e-05   0.000273898316 -8.21025019e-05      0.214541382     0.960124634
12.6628              0.207895637     0.961605525   0.000274338201 -8.23528056e-05   0.000274338201 -8.23528049e-05      0.214888652     0.960035156
12.662828            0.208242034     0.961518839   0.000274778933 -8.26038659e-05   0.000274778933 -8.26038652e-05      0.215236155     0.959945474
12.662856            0.208588665     0.961431951   0.000275220515 -8.28556861e-05   0.000275220515 -8.28556855e-05      0.215583891     0.959855587
12.662884            0.208935528     0.961344863   0.000275662949 -8.31082687e-05   0.000275662949  -8.3108268e-05      0.215931861     0.959765495
12.662912            0.209282624     0.961257572   0.000276106236 -8.33616162e-05   0.000276106236 -8.33616155e-05      0.216280065     0.959675197
12.66294             0.209629953     0.961170079   0.000276550379 -8.36157311e-05   0.000276550378 -8.36157304e-05      0.216628502     0.959584694
12.662968            0.209977516     0.961082383   0.000276995378  -8.3870616e-05   0.000276995378 -8.38706153e-05      0.216977175     0.959493983
12.662996            0.210325313     0.960994485   0.000277441237 -8.41262734e-05   0.000277441237 -8.41262727e-05      0.217326081     0.959403066
12.663024            0.210673344     0.960906382   0.000277887956 -8.43827059e-05   0.000277887956 -8.43827052e-05      0.217675223     0.959311942
12.663052             0.21102161     0.960818076   0.000278335539  -8.4639916e-05   0.000278335539 -8.46399154e-05        0.2180246      0.95922061
12.66308              0.21137011     0.960729566   0.000278783986 -8.48979064e-05   0.000278783986 -8.48979058e-05      0.218374213     0.959129069
12.663108            0.211718846     0.960640851     0.0002792333 -8.51566797e-05     0.0002792333  -8.5156679e-05      0.218724061      0.95903732
12.663136            0.212067817      0.96055193   0.000279683482 -8.54162383e-05   0.000279683482 -8.54162377e-05      0.219074146     0.958945363
12.663164            0.212417023     0.960462804   0.000280134534  -8.5676585e-05   0.000280134534 -8.56765844e-05      0.219424466     0.958853195
12.663192            0.212766465     0.960373472   0.000280586459 -8.59377224e-05   0.000280586459 -8.59377217e-05      0.219775024     0.958760818
12.66322             0.213116143     0.960283934   0.000281039258  -8.6199653e-05   0.000281039258 -8.61996524e-05      0.220125818     0.958668231
12.663248            0.213466058     0.960194189   0.000281492933 -8.64623796e-05   0.000281492933 -8.64623789e-05       0.22047685     0.958575433
12.663276            0.213816209     0.960104236   0.000281947486 -8.67259047e-05   0.000281947486 -8.67259041e-05      0.220828119     0.958482423
12.663304            0.214166598     0.960014076   0.000282402919 -8.69902311e-05   0.000282402919 -8.69902304e-05      0.221179625     0.958389202
12.663332            0.214517223     0.959923708   0.000282859234 -8.72553614e-05   0.000282859234 -8.72553607e-05       0.22153137     0.958295769
12.66336             0.214868086     0.959833131   0.000283316432 -8.75212982e-05   0.000283316432 -8.75212975e-05      0.221883353     0.958202124
12.663388            0.215219187     0.959742345   0.000283774517 -8.77880443e-05   0.000283774516 -8.77880436e-05      0.222235575     0.958108266
12.663416            0.215570527      0.95965135   0.000284233488 -8.80556024e-05   0.000284233488 -8.80556017e-05      0.222588035     0.958014194
12.663444            0.215922104     0.959560145    0.00028469335 -8.83239751e-05    0.00028469335 -8.83239744e-05      0.222940735     0.957919909
12.663472             0.21627392      0.95946873   0.000285154103 -8.85931652e-05   0.000285154103 -8.85931645e-05      0.223293674      0.95782541
12.6635              0.216625975     0.959377104   0.000285615749 -8.88631754e-05   0.000285615749 -8.88631747e-05      0.223646853     0.957730696
