! TOUCHSTONE file generated by CST MICROWAVE STUDIO
! Date and time: Wed Jul 31 12:22:45 2024
! Project name: WaveGuide_BPF-Ver4.1_U-shape_Ku_T3_C4_CWA_2.cst
! Parameters = {cavity_h=16; cavity_l0=10; cavity_l1=15.1678; cavity_l2=16.8631; cavity_l3=17.1284; cavity_l4=17.2769; cavity_l5=17.1045; cavity_l6=17.5606; cavity_r=2.5; cavity_screw_l=0.5; cavity_screw_r=1.5; cavity_w=8; iris_h00=0; iris_h01=8.8008; iris_h112=0; iris_h12=5.6139; iris_h211=3.6656; iris_h23=5.1989; iris_h310=3.9657; iris_h34=5.0908; iris_h45=4.9344; iris_h49=4.6152; iris_h56=4.8051; iris_h58=4.4398; iris_h67=6.5802; iris_rx=0.1; iris_screw_l=0.5; iris_screw_r=1.5; iris_shift00=0; iris_shift112=0; iris_shift211=3.5; iris_shift310=0; iris_shift49=0; iris_shift58=3.5; iris_shift67=3.5; iris_tx=4.5; iris_tz=4.5; iris_w00=0; iris_w112=0; iris_w211=4; iris_w310=3.9657; iris_w49=4.6152; iris_w58=4; iris_w67=4; mesh_cavity=5; mesh_iris=7; mesh_screw=7; order=12; reset_all=0; sigma=4.8e+07}
! Header version: 2018
! Port assignment regex: !\s*Touchstone port\s*([0-9]+)\s*=\s*(CST MWS port|CST DS port)\s*([0-9]+|Zmin|Zmax)\s*\(\"(.*)\"\)(\s*mode\s*([0-9]+))?.*
! Touchstone port assignment:
! Touchstone port 1 = CST MWS port 1 ("")
! Touchstone port 2 = CST MWS port 2 ("")
# GHz S RI R 50
12.66                0.193160995     0.965258119   0.000238830337 -6.64799112e-05   0.000238830338 -6.64799116e-05      0.199094657     0.964025294
12.660028            0.193495579     0.965180534   0.000239193443 -6.66783522e-05   0.000239193443 -6.66783526e-05      0.199430565     0.963945175
12.660056            0.193830445     0.965102754   0.000239557204 -6.68773674e-05   0.000239557205 -6.68773678e-05       0.19976664     0.963864883
12.660084            0.194165563     0.965024786   0.000239921623 -6.70769576e-05   0.000239921623  -6.7076958e-05      0.200102903     0.963784412
12.660112            0.194500905     0.964946636     0.0002402867 -6.72771236e-05   0.000240286701  -6.7277124e-05      0.200439374     0.963703758
12.66014             0.194836441     0.964868308   0.000240652438 -6.74778664e-05   0.000240652439 -6.74778668e-05      0.200776074     0.963622917
12.660168            0.195172172     0.964789802   0.000241018839 -6.76791876e-05   0.000241018839  -6.7679188e-05      0.201113005     0.963541888
12.660196            0.195508117     0.964711115   0.000241385902 -6.78810897e-05   0.000241385903 -6.78810901e-05      0.201450151     0.963460674
12.660224            0.195844277     0.964632245    0.00024175363 -6.80835745e-05   0.000241753631 -6.80835749e-05      0.201787514     0.963379273
12.660252            0.196180652     0.964553193   0.000242122024 -6.82866439e-05   0.000242122024 -6.82866443e-05      0.202125093     0.963297687
12.66028             0.196517242     0.964473957   0.000242491085 -6.84902996e-05   0.000242491085 -6.84903001e-05      0.202462889     0.963215914
12.660308            0.196854047     0.964394539   0.000242860814 -6.86945436e-05   0.000242860815  -6.8694544e-05      0.202800903     0.963133955
12.660336            0.197191068     0.964314937   0.000243231214 -6.88993776e-05   0.000243231214  -6.8899378e-05      0.203139133     0.963051808
12.660364            0.197528304      0.96423515   0.000243602284 -6.91048034e-05   0.000243602285 -6.91048038e-05      0.203477581     0.962969474
12.660392            0.197865757      0.96415518   0.000243974027  -6.9310823e-05   0.000243974028 -6.93108234e-05      0.203816247     0.962886952
12.66042             0.198203426     0.964075024   0.000244346444 -6.95174381e-05   0.000244346445 -6.95174385e-05      0.204155131     0.962804242
12.660448            0.198541311     0.963994684   0.000244719537 -6.97246507e-05   0.000244719537 -6.97246511e-05      0.204494233     0.962721343
12.660476            0.198879413     0.963914158   0.000245093306 -6.99324626e-05   0.000245093306  -6.9932463e-05      0.204833554     0.962638255
12.660504            0.199217732     0.963833446   0.000245467753 -7.01408756e-05   0.000245467754 -7.01408761e-05      0.205173093     0.962554977
12.660532            0.199556269     0.963752549    0.00024584288 -7.03498918e-05    0.00024584288 -7.03498922e-05      0.205512852      0.96247151
12.66056             0.199895022     0.963671464   0.000246218687 -7.05595128e-05   0.000246218687 -7.05595132e-05      0.205852829     0.962387853
12.660588            0.200233994     0.963590193   0.000246595176 -7.07697407e-05   0.000246595177 -7.07697411e-05      0.206193027     0.962304006
12.660616            0.200573183     0.963508735   0.000246972349 -7.09805773e-05    0.00024697235 -7.09805777e-05      0.206533444     0.962219968
12.660644            0.200912591     0.963427089   0.000247350207 -7.11920246e-05   0.000247350208  -7.1192025e-05       0.20687408     0.962135738
12.660672            0.201252217     0.963345255   0.000247728751 -7.14040844e-05   0.000247728752 -7.14040848e-05      0.207214938     0.962051317
12.6607              0.201592062     0.963263233   0.000248107983 -7.16167587e-05   0.000248107984 -7.16167591e-05      0.207556015     0.961966704
12.660728            0.201932126     0.963181022   0.000248487904 -7.18300494e-05   0.000248487904 -7.18300498e-05      0.207897313     0.961881899
12.660756            0.202272408     0.963098622   0.000248868515 -7.20439584e-05   0.000248868516 -7.20439588e-05      0.208238833     0.961796901
12.660784            0.202612911     0.963016032   0.000249249819 -7.22584877e-05   0.000249249819 -7.22584881e-05      0.208580573      0.96171171
12.660812            0.202953632     0.962933253   0.000249631815 -7.24736392e-05   0.000249631816 -7.24736396e-05      0.208922535     0.961626325
12.66084             0.203294574     0.962850284   0.000250014506 -7.26894148e-05   0.000250014507 -7.26894152e-05      0.209264718     0.961540747
12.660868            0.203635736     0.962767124   0.000250397893 -7.29058166e-05   0.000250397894  -7.2905817e-05      0.209607124     0.961454974
12.660896            0.203977118     0.962683774   0.000250781978 -7.31228465e-05   0.000250781979 -7.31228469e-05      0.209949751     0.961369007
12.660924            0.204318721     0.962600232   0.000251166762 -7.33405064e-05   0.000251166762 -7.33405068e-05      0.210292601     0.961282845
12.660952            0.204660545     0.962516498   0.000251552246 -7.35587984e-05   0.000251552246 -7.35587988e-05      0.210635674     0.961196488
12.66098             0.205002589     0.962432573   0.000251938431 -7.37777244e-05   0.000251938432 -7.37777248e-05       0.21097897     0.961109935
12.661008            0.205344855     0.962348455    0.00025232532 -7.39972864e-05    0.00025232532 -7.39972868e-05      0.211322489     0.961023186
12.661036            0.205687343     0.962264144   0.000252712913 -7.42174864e-05   0.000252712914 -7.42174869e-05      0.211666231      0.96093624
12.661064            0.206030053      0.96217964   0.000253101212 -7.44383265e-05   0.000253101213 -7.44383269e-05      0.212010197     0.960849098
12.661092            0.206372984     0.962094943   0.000253490219 -7.46598086e-05   0.000253490219  -7.4659809e-05      0.212354387     0.960761758
12.66112             0.206716138     0.962010052   0.000253879934 -7.48819348e-05   0.000253879935 -7.48819352e-05      0.212698801     0.960674221
12.661148            0.207059515     0.961924967    0.00025427036  -7.5104707e-05    0.00025427036 -7.51047075e-05      0.213043439     0.960586486
12.661176            0.207403114     0.961839687   0.000254661497 -7.53281274e-05   0.000254661498 -7.53281278e-05      0.213388302     0.960498552
12.661204            0.207746936     0.961754212   0.000255053348 -7.55521979e-05   0.000255053348 -7.55521984e-05      0.213733391     0.960410419
12.661232            0.208090982     0.961668541   0.000255445913 -7.57769207e-05   0.000255445913 -7.57769211e-05      0.214078704     0.960322088
12.66126             0.208435251     0.961582675   0.000255839194 -7.60022977e-05   0.000255839194 -7.60022981e-05      0.214424242     0.960233556
12.661288            0.208779744     0.961496613   0.000256233192 -7.62283311e-05   0.000256233193 -7.62283315e-05      0.214770007     0.960144825
12.661316            0.209124461     0.961410354    0.00025662791 -7.64550228e-05    0.00025662791 -7.64550232e-05      0.215115997     0.960055894
12.661344            0.209469403     0.961323898   0.000257023347  -7.6682375e-05   0.000257023348 -7.66823754e-05      0.215462214     0.959966761
12.661372            0.209814569     0.961237245   0.000257419507 -7.69103898e-05   0.000257419508 -7.69103902e-05      0.215808656     0.959877428
12.6614               0.21015996     0.961150395    0.00025781639 -7.71390692e-05    0.00025781639 -7.71390697e-05      0.216155326     0.959787893
12.661428            0.210505575     0.961063346   0.000258213998 -7.73684154e-05   0.000258213998 -7.73684159e-05      0.216502223     0.959698156
12.661456            0.210851417     0.960976098   0.000258612331 -7.75984305e-05   0.000258612332 -7.75984309e-05      0.216849346     0.959608216
12.661484            0.211197483     0.960888652   0.000259011393 -7.78291165e-05   0.000259011393 -7.78291169e-05      0.217196698     0.959518074
12.661512            0.211543776     0.960801007   0.000259411183 -7.80604756e-05   0.000259411184  -7.8060476e-05      0.217544277     0.959427729
12.66154             0.211890294     0.960713162   0.000259811705 -7.82925099e-05   0.000259811705 -7.82925103e-05      0.217892083      0.95933718
12.661568            0.212237039     0.960625117   0.000260212958 -7.85252216e-05   0.000260212958  -7.8525222e-05      0.218240119     0.959246428
12.661596            0.212584011     0.960536871   0.000260614945 -7.87586128e-05   0.000260614945 -7.87586132e-05      0.218588382     0.959155471
12.661624            0.212931209     0.960448425   0.000261017667 -7.89926856e-05   0.000261017667  -7.8992686e-05      0.218936875     0.959064309
12.661652            0.213278635     0.960359778   0.000261421125 -7.92274422e-05   0.000261421126 -7.92274426e-05      0.219285596     0.958972942
12.66168             0.213626287     0.960270928   0.000261825322 -7.94628848e-05   0.000261825322 -7.94628852e-05      0.219634547     0.958881369
12.661708            0.213974168     0.960181877   0.000262230257 -7.96990155e-05   0.000262230258  -7.9699016e-05      0.219983727     0.958789591
12.661736            0.214322276     0.960092624   0.000262635934 -7.99358366e-05   0.000262635935  -7.9935837e-05      0.220333137     0.958697606
12.661764            0.214670612     0.960003167   0.000263042354 -8.01733502e-05   0.000263042354 -8.01733506e-05      0.220682777     0.958605414
12.661792            0.215019177     0.959913508   0.000263449517 -8.04115584e-05   0.000263449518 -8.04115589e-05      0.221032647     0.958513015
12.66182              0.21536797     0.959823645   0.000263857426 -8.06504636e-05   0.000263857427  -8.0650464e-05      0.221382748     0.958420409
12.661848            0.215716992     0.959733577   0.000264266082 -8.08900679e-05   0.000264266083 -8.08900683e-05      0.221733079     0.958327594
12.661876            0.216066243     0.959643306   0.000264675487 -8.11303735e-05   0.000264675487  -8.1130374e-05      0.222083642     0.958234571
12.661904            0.216415724     0.959552829   0.000265085641 -8.13713827e-05   0.000265085642 -8.13713832e-05      0.222434436     0.958141339
12.661932            0.216765434     0.959462148   0.000265496547 -8.16130977e-05   0.000265496548 -8.16130982e-05      0.222785462     0.958047898
12.66196             0.217115374     0.959371261   0.000265908206 -8.18555208e-05   0.000265908207 -8.18555212e-05      0.223136719     0.957954247
12.661988            0.217465544     0.959280167    0.00026632062 -8.20986541e-05    0.00026632062 -8.20986545e-05      0.223488209     0.957860387
12.662016            0.217815945     0.959188868   0.000266733789    -8.23425e-05    0.00026673379 -8.23425004e-05      0.223839931     0.957766315
12.662044            0.218166576     0.959097361   0.000267147717 -8.25870606e-05   0.000267147717 -8.25870611e-05      0.224191886     0.957672033
12.662072            0.218517438     0.959005647   0.000267562403 -8.28323384e-05   0.000267562404 -8.28323388e-05      0.224544073     0.957577539
12.6621              0.218868532     0.958913725    0.00026797785 -8.30783355e-05   0.000267977851  -8.3078336e-05      0.224896494     0.957482833
12.662128            0.219219857     0.958821596    0.00026839406 -8.33250543e-05    0.00026839406 -8.33250547e-05      0.225249148     0.957387916
12.662156            0.219571413     0.958729258   0.000268811033  -8.3572497e-05   0.000268811033 -8.35724975e-05      0.225602036     0.957292785
12.662184            0.219923202     0.958636711   0.000269228771  -8.3820666e-05   0.000269228772 -8.38206664e-05      0.225955158     0.957197442
12.662212            0.220275223     0.958543954   0.000269647276 -8.40695636e-05   0.000269647277  -8.4069564e-05      0.226308514     0.957101885
12.66224             0.220627476     0.958450988    0.00027006655  -8.4319192e-05    0.00027006655 -8.43191924e-05      0.226662105     0.957006114
12.662268            0.220979962     0.958357812   0.000270486593 -8.45695536e-05   0.000270486594 -8.45695541e-05       0.22701593     0.956910129
12.662296            0.221332681     0.958264425   0.000270907408 -8.48206508e-05   0.000270907409 -8.48206513e-05       0.22736999     0.956813929
12.662324            0.221685633     0.958170827   0.000271328996  -8.5072486e-05   0.000271328997 -8.50724864e-05      0.227724286     0.956717514
12.662352            0.222038819     0.958077017   0.000271751359 -8.53250613e-05   0.000271751359 -8.53250618e-05      0.228078817     0.956620883
12.66238             0.222392239     0.957982996   0.000272174498 -8.55783793e-05   0.000272174498 -8.55783797e-05      0.228433585     0.956524036
12.662408            0.222745893     0.957888763   0.000272598414 -8.58324423e-05   0.000272598415 -8.58324427e-05      0.228788588     0.956426972
12.662436            0.223099781     0.957794316    0.00027302311 -8.60872526e-05   0.000273023111  -8.6087253e-05      0.229143827     0.956329692
12.662464            0.223453904     0.957699657   0.000273448587 -8.63428127e-05   0.000273448587 -8.63428131e-05      0.229499304     0.956232194
12.662492            0.223808261     0.957604784   0.000273874846 -8.65991249e-05   0.000273874846 -8.65991253e-05      0.229855017     0.956134479
12.66252             0.224162854     0.957509697   0.000274301889 -8.68561917e-05   0.000274301889 -8.68561921e-05      0.230210967     0.956036545
12.662548            0.224517682     0.957414396   0.000274729718 -8.71140154e-05   0.000274729718 -8.71140158e-05      0.230567155     0.955938392
12.662576            0.224872746      0.95731888   0.000275158334 -8.73725985e-05   0.000275158334 -8.73725989e-05      0.230923581     0.955840021
12.662604            0.225228046     0.957223148   0.000275587738 -8.76319434e-05   0.000275587739 -8.76319439e-05      0.231280244     0.955741429
12.662632            0.225583582     0.957127201   0.000276017933 -8.78920526e-05   0.000276017934  -8.7892053e-05      0.231637146     0.955642618
12.66266             0.225939354     0.957031038    0.00027644892 -8.81529285e-05   0.000276448921 -8.81529289e-05      0.231994287     0.955543586
12.662688            0.226295363     0.956934658     0.0002768807 -8.84145735e-05   0.000276880701 -8.84145739e-05      0.232351666     0.955444334
12.662716            0.226651609     0.956838061   0.000277313276 -8.86769901e-05   0.000277313277 -8.86769906e-05      0.232709284      0.95534486
12.662744            0.227008093     0.956741247   0.000277746648 -8.89401808e-05   0.000277746649 -8.89401813e-05      0.233067142     0.955245164
12.662772            0.227364814     0.956644215   0.000278180819 -8.92041481e-05    0.00027818082 -8.92041485e-05      0.233425239     0.955145246
12.6628              0.227721772     0.956546964    0.00027861579 -8.94688944e-05    0.00027861579 -8.94688949e-05      0.233783576     0.955045105
12.662828            0.228078969     0.956449495   0.000279051562 -8.97344223e-05   0.000279051562 -8.97344227e-05      0.234142154     0.954944741
12.662856            0.228436405     0.956351806   0.000279488137 -9.00007342e-05   0.000279488138 -9.00007347e-05      0.234500972     0.954844153
12.662884            0.228794079     0.956253898   0.000279925517 -9.02678327e-05   0.000279925518 -9.02678332e-05       0.23486003     0.954743341
12.662912            0.229151991      0.95615577   0.000280363704 -9.05357203e-05   0.000280363704 -9.05357208e-05       0.23521933     0.954642305
12.66294             0.229510143     0.956057421   0.000280802698 -9.08043996e-05   0.000280802699    -9.08044e-05      0.235578871     0.954541044
12.662968            0.229868535     0.955958851   0.000281242502  -9.1073873e-05   0.000281242503 -9.10738734e-05      0.235938654     0.954439557
12.662996            0.230227166      0.95586006   0.000281683118 -9.13441431e-05   0.000281683118 -9.13441436e-05      0.236298678     0.954337845
12.663024            0.230586037     0.955761047   0.000282124546 -9.16152125e-05   0.000282124547  -9.1615213e-05      0.236658945     0.954235906
12.663052            0.230945148     0.955661812   0.000282566789 -9.18870838e-05    0.00028256679 -9.18870842e-05      0.237019453      0.95413374
12.66308               0.2313045     0.955562354   0.000283009848 -9.21597595e-05   0.000283009849 -9.21597599e-05      0.237380205     0.954031347
12.663108            0.231664093     0.955462672   0.000283453725 -9.24332422e-05   0.000283453726 -9.24332426e-05        0.2377412     0.953928726
12.663136            0.232023927     0.955362767   0.000283898421 -9.27075345e-05   0.000283898422  -9.2707535e-05      0.238102437     0.953825877
12.663164            0.232384002     0.955262638   0.000284343939 -9.29826391e-05   0.000284343939 -9.29826395e-05      0.238463919     0.953722799
12.663192            0.232744319     0.955162284   0.000284790279 -9.32585585e-05    0.00028479028 -9.32585589e-05      0.238825644     0.953619492
12.66322             0.233104878     0.955061705   0.000285237444 -9.35352953e-05   0.000285237444 -9.35352957e-05      0.239187613     0.953515956
12.663248            0.233465679     0.954960901   0.000285685435 -9.38128522e-05   0.000285685435 -9.38128527e-05      0.239549827     0.953412189
12.663276            0.233826722      0.95485987   0.000286134253 -9.40912319e-05   0.000286134254 -9.40912323e-05      0.239912285     0.953308192
12.663304            0.234188008     0.954758614   0.000286583901  -9.4370437e-05   0.000286583901 -9.43704374e-05      0.240274988     0.953203964
12.663332            0.234549538      0.95465713    0.00028703438 -9.46504701e-05    0.00028703438 -9.46504705e-05      0.240637937     0.953099504
12.66336              0.23491131     0.954555419   0.000287485691 -9.49313339e-05   0.000287485692 -9.49313343e-05      0.241001131     0.952994813
12.663388            0.235273326      0.95445348   0.000287937838 -9.52130311e-05   0.000287937838 -9.52130315e-05       0.24136457     0.952889889
12.663416            0.235635586     0.954351313    0.00028839082 -9.54955644e-05    0.00028839082 -9.54955648e-05      0.241728256     0.952784732
12.663444            0.235998091     0.954248917    0.00028884464 -9.57789365e-05    0.00028884464 -9.57789369e-05      0.242092188     0.952679341
12.663472            0.236360839     0.954146292   0.000289299299 -9.60631501e-05   0.000289299299 -9.60631505e-05      0.242456367     0.952573717
12.6635              0.236723833     0.954043437   0.000289754799 -9.63482079e-05     0.0002897548 -9.63482083e-05      0.242820793     0.952467858
