! TOUCHSTONE file generated by CST MICROWAVE STUDIO
! Date and time: Wed Jul 31 12:25:48 2024
! Project name: WaveGuide_BPF-Ver4.1_U-shape_Ku_T3_C4_CWA_2.cst
! Parameters = {cavity_h=16; cavity_l0=10; cavity_l1=15.223; cavity_l2=16.8688; cavity_l3=17.0888; cavity_l4=17.2418; cavity_l5=17.1541; cavity_l6=17.6029; cavity_r=2.5; cavity_screw_l=0.5; cavity_screw_r=1.5; cavity_w=8; iris_h00=0; iris_h01=8.8122; iris_h112=0; iris_h12=5.6132; iris_h211=3.6521; iris_h23=5.1998; iris_h310=3.9725; iris_h34=5.0799; iris_h45=4.9411; iris_h49=4.6086; iris_h56=4.8047; iris_h58=4.4431; iris_h67=6.5837; iris_rx=0.1; iris_screw_l=0.5; iris_screw_r=1.5; iris_shift00=0; iris_shift112=0; iris_shift211=3.5; iris_shift310=0; iris_shift49=0; iris_shift58=3.5; iris_shift67=3.5; iris_tx=4.5; iris_tz=4.5; iris_w00=0; iris_w112=0; iris_w211=4; iris_w310=3.9725; iris_w49=4.6086; iris_w58=4; iris_w67=4; mesh_cavity=5; mesh_iris=7; mesh_screw=7; order=12; reset_all=0; sigma=4.8e+07}
! Header version: 2018
! Port assignment regex: !\s*Touchstone port\s*([0-9]+)\s*=\s*(CST MWS port|CST DS port)\s*([0-9]+|Zmin|Zmax)\s*\(\"(.*)\"\)(\s*mode\s*([0-9]+))?.*
! Touchstone port assignment:
! Touchstone port 1 = CST MWS port 1 ("")
! Touchstone port 2 = CST MWS port 2 ("")
# GHz S RI R 50
12.66                0.420668112     0.881121805   0.000367875643 -0.000213082405   0.000367875643 -0.000213082405      0.421016964     0.881087023
12.660028            0.421141715     0.880873078   0.000368422744 -0.000213684861   0.000368422745 -0.000213684861      0.421488032     0.880839472
12.660056            0.421615672     0.880623823    0.00036897067 -0.000214289107    0.00036897067 -0.000214289107      0.421959341     0.880591449
12.660084            0.422089953     0.880374054   0.000369519422 -0.000214895147   0.000369519423 -0.000214895147      0.422430908     0.880342945
12.660112            0.422564526     0.880123783   0.000370069005 -0.000215502984   0.000370069006 -0.000215502984      0.422902752     0.880093952
12.66014             0.423039364     0.879873023   0.000370619423 -0.000216112622   0.000370619423 -0.000216112622      0.423374889      0.87984446
12.660168            0.423514464     0.879621774   0.000371170676 -0.000216724067   0.000371170676 -0.000216724067       0.42384732     0.879594467
12.660196            0.423989849     0.879370024   0.000371722763 -0.000217337327   0.000371722763 -0.000217337327      0.424320032      0.87934398
12.660224            0.424465517     0.879117774   0.000372275685 -0.000217952406   0.000372275685 -0.000217952406      0.424793027     0.879092996
12.660252            0.424941469     0.878865021   0.000372829442 -0.000218569312   0.000372829442 -0.000218569312      0.425266304     0.878841514
12.66028             0.425417705     0.878611766   0.000373384036 -0.000219188049   0.000373384036 -0.000219188049      0.425739864     0.878589534
12.660308            0.425894225     0.878358006   0.000373939467 -0.000219808624   0.000373939467 -0.000219808624      0.426213706     0.878337054
12.660336            0.426371029     0.878103742   0.000374495736 -0.000220431042   0.000374495736 -0.000220431042       0.42668783     0.878084074
12.660364            0.426848118     0.877848971   0.000375052843  -0.00022105531   0.000375052843  -0.00022105531      0.427162238     0.877830592
12.660392             0.42732549     0.877593693    0.00037561079 -0.000221681434    0.00037561079 -0.000221681434      0.427636928     0.877576608
12.66042             0.427803148     0.877337907   0.000376169577 -0.000222309419   0.000376169577 -0.000222309419      0.428111901      0.87732212
12.660448             0.42828109     0.877081612   0.000376729205 -0.000222939271   0.000376729205 -0.000222939272      0.428587156     0.877067127
12.660476            0.428759316     0.876824806   0.000377289675 -0.000223570998   0.000377289675 -0.000223570998      0.429062695     0.876811629
12.660504            0.429237827      0.87656749   0.000377850987 -0.000224204603   0.000377850987 -0.000224204604      0.429538518     0.876555624
12.660532            0.429716624     0.876309661   0.000378413142 -0.000224840095   0.000378413142 -0.000224840095      0.430014623     0.876299112
12.66056             0.430195705     0.876051319   0.000378976141 -0.000225477478   0.000378976141 -0.000225477478      0.430491012     0.876042091
12.660588            0.430675071     0.875792462   0.000379539984 -0.000226116759   0.000379539984 -0.000226116759      0.430967684      0.87578456
12.660616            0.431154722      0.87553309   0.000380104673 -0.000226757944   0.000380104673 -0.000226757945       0.43144464     0.875526519
12.660644            0.431634658     0.875273201   0.000380670208  -0.00022740104   0.000380670208  -0.00022740104       0.43192188     0.875267965
12.660672             0.43211488     0.875012795   0.000381236589 -0.000228046052    0.00038123659 -0.000228046052      0.432399403     0.875008899
12.6607              0.432595387     0.874751871   0.000381803818 -0.000228692986   0.000381803818 -0.000228692986       0.43287721     0.874749319
12.660728             0.43307618     0.874490427   0.000382371895 -0.000229341849   0.000382371896 -0.000229341849      0.433355301     0.874489224
12.660756            0.433557258     0.874228462   0.000382940821 -0.000229992647   0.000382940821 -0.000229992647      0.433833676     0.874228613
12.660784            0.434038622     0.873965975   0.000383510596 -0.000230645387   0.000383510597 -0.000230645387      0.434312335     0.873967485
12.660812            0.434520271     0.873702966   0.000384081222 -0.000231300074   0.000384081222 -0.000231300074      0.434791279     0.873705839
12.66084             0.435002206     0.873439433   0.000384652699 -0.000231956715   0.000384652699 -0.000231956715      0.435270507     0.873443674
12.660868            0.435484428     0.873175375   0.000385225027 -0.000232615317   0.000385225027 -0.000232615317      0.435750019     0.873180989
12.660896            0.435966935      0.87291079   0.000385798207 -0.000233275884   0.000385798208 -0.000233275885      0.436229815     0.872917783
12.660924            0.436449728     0.872645679   0.000386372241 -0.000233938425   0.000386372241 -0.000233938426      0.436709896     0.872654054
12.660952            0.436932808      0.87238004   0.000386947128 -0.000234602946   0.000386947128 -0.000234602946      0.437190262     0.872389802
12.66098             0.437416173     0.872113871   0.000387522869 -0.000235269452   0.000387522869 -0.000235269452      0.437670912     0.872125025
12.661008            0.437899825     0.871847172   0.000388099465  -0.00023593795   0.000388099465  -0.00023593795      0.438151848     0.871859723
12.661036            0.438383764     0.871579942   0.000388676917 -0.000236608448   0.000388676917 -0.000236608448      0.438633068     0.871593894
12.661064            0.438867989      0.87131218   0.000389255225  -0.00023728095   0.000389255225  -0.00023728095      0.439114573     0.871327538
12.661092              0.4393525     0.871043883    0.00038983439 -0.000237955464    0.00038983439 -0.000237955464      0.439596363     0.871060653
12.66112             0.439837298     0.870775052   0.000390414412 -0.000238631996   0.000390414412 -0.000238631997      0.440078438     0.870793239
12.661148            0.440322383     0.870505686   0.000390995293 -0.000239310554   0.000390995293 -0.000239310554      0.440560799     0.870525293
12.661176            0.440807754     0.870235782   0.000391577032 -0.000239991142   0.000391577033 -0.000239991142      0.441043444     0.870256815
12.661204            0.441293413     0.869965341   0.000392159631 -0.000240673769   0.000392159632 -0.000240673769      0.441526376     0.869987805
12.661232            0.441779358      0.86969436    0.00039274309  -0.00024135844   0.000392743091  -0.00024135844      0.442009592      0.86971826
12.66126             0.442265591      0.86942284    0.00039332741 -0.000242045163    0.00039332741 -0.000242045163      0.442493094      0.86944818
12.661288             0.44275211     0.869150778   0.000393912591 -0.000242733944   0.000393912591 -0.000242733944      0.442976882     0.869177564
12.661316            0.443238917     0.868878174   0.000394498634 -0.000243424789   0.000394498634 -0.000243424789      0.443460955      0.86890641
12.661344            0.443726011     0.868605026   0.000395085539 -0.000244117706   0.000395085539 -0.000244117706      0.443945315     0.868634718
12.661372            0.444213392     0.868331334   0.000395673308   -0.0002448127   0.000395673308 -0.000244812701       0.44442996     0.868362486
12.6614              0.444701061     0.868057096    0.00039626194  -0.00024550978    0.00039626194  -0.00024550978       0.44491489     0.868089714
12.661428            0.445189017     0.867782311   0.000396851436 -0.000246208952   0.000396851437 -0.000246208952      0.445400107     0.867816399
12.661456             0.44567726     0.867506979   0.000397441798 -0.000246910222   0.000397441798 -0.000246910222       0.44588561     0.867542542
12.661484            0.446165791     0.867231097   0.000398033024 -0.000247613597   0.000398033025 -0.000247613597      0.446371399     0.867268141
12.661512             0.44665461     0.866954665   0.000398625117 -0.000248319085   0.000398625118 -0.000248319085      0.446857475     0.866993194
12.66154             0.447143716     0.866677682   0.000399218077 -0.000249026691   0.000399218077 -0.000249026691      0.447343836     0.866717701
12.661568            0.447633111     0.866400146   0.000399811903 -0.000249736424   0.000399811904 -0.000249736424      0.447830484     0.866441661
12.661596            0.448122793     0.866122057   0.000400406598  -0.00025044829   0.000400406598  -0.00025044829      0.448317418     0.866165072
12.661624            0.448612763     0.865843413    0.00040100216 -0.000251162295   0.000401002161 -0.000251162295      0.448804639     0.865887934
12.661652            0.449103021     0.865564213   0.000401598592 -0.000251878448   0.000401598592 -0.000251878448      0.449292146     0.865610245
12.66168             0.449593567     0.865284456   0.000402195892 -0.000252596754   0.000402195893 -0.000252596755       0.44977994     0.865332004
12.661708            0.450084401     0.865004141   0.000402794063 -0.000253317222   0.000402794063 -0.000253317222       0.45026802     0.865053209
12.661736            0.450575523     0.864723267   0.000403393104 -0.000254039857   0.000403393104 -0.000254039858      0.450756387     0.864773861
12.661764            0.451066933     0.864441832   0.000403993016 -0.000254764668   0.000403993016 -0.000254764668      0.451245041     0.864493957
12.661792            0.451558632     0.864159836   0.000404593799 -0.000255491661   0.000404593799 -0.000255491661      0.451733982     0.864213497
12.66182             0.452050619     0.863877277   0.000405195454 -0.000256220843   0.000405195455 -0.000256220843       0.45222321     0.863932479
12.661848            0.452542895     0.863594154   0.000405797982 -0.000256952222   0.000405797982 -0.000256952222      0.452712724     0.863650903
12.661876            0.453035458     0.863310465   0.000406401383 -0.000257685804   0.000406401383 -0.000257685804      0.453202526     0.863368766
12.661904            0.453528311     0.863026211   0.000407005657 -0.000258421598   0.000407005657 -0.000258421598      0.453692615     0.863086069
12.661932            0.454021452     0.862741389   0.000407610805 -0.000259159609   0.000407610805 -0.000259159609      0.454182991     0.862802809
12.66196             0.454514881     0.862455999   0.000408216827 -0.000259899846   0.000408216828 -0.000259899846      0.454673654     0.862518986
12.661988            0.455008599     0.862170038   0.000408823725 -0.000260642316   0.000408823725 -0.000260642316      0.455164604     0.862234598
12.662016            0.455502606     0.861883507   0.000409431497 -0.000261387026   0.000409431497 -0.000261387026      0.455655842     0.861949644
12.662044            0.455996902     0.861596404   0.000410040146 -0.000262133983   0.000410040146 -0.000262133983      0.456147367     0.861664124
12.662072            0.456491486     0.861308727    0.00041064967 -0.000262883194   0.000410649671 -0.000262883194      0.456639179     0.861378036
12.6621              0.456986359     0.861020476   0.000411260072 -0.000263634668   0.000411260072 -0.000263634668      0.457131279     0.861091378
12.662128            0.457481521      0.86073165    0.00041187135 -0.000264388412   0.000411871351 -0.000264388412      0.457623666      0.86080415
12.662156            0.457976972     0.860442246   0.000412483506 -0.000265144432   0.000412483507 -0.000265144432      0.458116341      0.86051635
12.662184            0.458472712     0.860152264    0.00041309654 -0.000265902737   0.000413096541 -0.000265902737      0.458609304     0.860227978
12.662212            0.458968741     0.859861703   0.000413710453 -0.000266663334   0.000413710453 -0.000266663334      0.459102554     0.859939031
12.66224             0.459465059     0.859570562   0.000414325244  -0.00026742623   0.000414325245  -0.00026742623      0.459596092      0.85964951
12.662268            0.459961667     0.859278839   0.000414940915 -0.000268191433   0.000414940915 -0.000268191433      0.460089918     0.859359412
12.662296            0.460458563     0.858986533   0.000415557465 -0.000268958951   0.000415557465 -0.000268958951      0.460584031     0.859068737
12.662324            0.460955749     0.858693642   0.000416174895 -0.000269728791   0.000416174896 -0.000269728791      0.461078432     0.858777483
12.662352            0.461453223     0.858400167   0.000416793206 -0.000270500961   0.000416793206 -0.000270500961      0.461573122     0.858485649
12.66238             0.461950987     0.858106105   0.000417412397 -0.000271275469   0.000417412398 -0.000271275469      0.462068099     0.858193233
12.662408            0.462449041     0.857811455    0.00041803247 -0.000272052321    0.00041803247 -0.000272052321      0.462563364     0.857900236
12.662436            0.462947383     0.857516217   0.000418653424 -0.000272831527   0.000418653425 -0.000272831527      0.463058917     0.857606655
12.662464            0.463446015     0.857220388    0.00041927526 -0.000273613093   0.000419275261 -0.000273613093      0.463554758     0.857312489
12.662492            0.463944937     0.856923968   0.000419897978 -0.000274397027   0.000419897979 -0.000274397027      0.464050887     0.857017737
12.66252             0.464444148     0.856626955   0.000420521579 -0.000275183338    0.00042052158 -0.000275183338      0.464547304     0.856722399
12.662548            0.464943648     0.856329348   0.000421146063 -0.000275972032   0.000421146063 -0.000275972032       0.46504401     0.856426471
12.662576            0.465443438     0.856031147    0.00042177143 -0.000276763119    0.00042177143 -0.000276763119      0.465541004     0.856129954
12.662604            0.465943517     0.855732348    0.00042239768 -0.000277556605   0.000422397681 -0.000277556605      0.466038285     0.855832847
12.662632            0.466443886     0.855432953   0.000423024815 -0.000278352498   0.000423024815 -0.000278352499      0.466535856     0.855535147
12.66266             0.466944545     0.855132958   0.000423652833 -0.000279150808   0.000423652834 -0.000279150808      0.467033714     0.855236854
12.662688            0.467445493     0.854832364   0.000424281736 -0.000279951541   0.000424281737 -0.000279951541      0.467531861     0.854937966
12.662716            0.467946731     0.854531168   0.000424911524 -0.000280754705   0.000424911524 -0.000280754705      0.468030296     0.854638482
12.662744            0.468448258     0.854229369   0.000425542197 -0.000281560309   0.000425542197 -0.000281560309      0.468529019     0.854338402
12.662772            0.468950076     0.853926967   0.000426173755  -0.00028236836   0.000426173755  -0.00028236836      0.469028031     0.854037723
12.6628              0.469452182     0.853623959   0.000426806198 -0.000283178867   0.000426806199 -0.000283178867      0.469527332     0.853736445
12.662828            0.469954579     0.853320346   0.000427439528 -0.000283991838   0.000427439528 -0.000283991838       0.47002692     0.853434566
12.662856            0.470457265     0.853016124   0.000428073743  -0.00028480728   0.000428073743 -0.000284807281      0.470526798     0.853132085
12.662884            0.470960241     0.852711294   0.000428708845 -0.000285625203   0.000428708845 -0.000285625203      0.471026963        0.852829
12.662912            0.471463507     0.852405853   0.000429344833 -0.000286445614   0.000429344833 -0.000286445614      0.471527418     0.852525311
12.66294             0.471967063     0.852099802   0.000429981708 -0.000287268521   0.000429981708 -0.000287268521      0.472028161     0.852221017
12.662968            0.472470908     0.851793137    0.00043061947 -0.000288093933    0.00043061947 -0.000288093933      0.472529192     0.851916115
12.662996            0.472975044     0.851485858   0.000431258119 -0.000288921858   0.000431258119 -0.000288921858      0.473030512     0.851610605
12.663024            0.473479469     0.851177964   0.000431897656 -0.000289752304   0.000431897656 -0.000289752304      0.473532121     0.851304485
12.663052            0.473984184     0.850869454    0.00043253808  -0.00029058528    0.00043253808  -0.00029058528      0.474034018     0.850997755
12.66308             0.474489189     0.850560326   0.000433179391 -0.000291420794   0.000433179392 -0.000291420794      0.474536204     0.850690412
12.663108            0.474994483     0.850250578   0.000433821591 -0.000292258854   0.000433821591 -0.000292258854      0.475038678     0.850382456
12.663136            0.475500068      0.84994021   0.000434464679 -0.000293099469   0.000434464679 -0.000293099469      0.475541441     0.850073885
12.663164            0.476005942     0.849629221   0.000435108654 -0.000293942647   0.000435108655 -0.000293942647      0.476044493     0.849764698
12.663192            0.476512107     0.849317608   0.000435753518 -0.000294788397   0.000435753519 -0.000294788397      0.476547834     0.849454894
12.66322             0.477018561     0.849005371   0.000436399271 -0.000295636727   0.000436399271 -0.000295636727      0.477051463     0.849144472
12.663248            0.477525305     0.848692508   0.000437045912 -0.000296487645   0.000437045913 -0.000296487645      0.477555381     0.848833429
12.663276            0.478032339     0.848379018   0.000437693442 -0.000297341161   0.000437693442 -0.000297341162      0.478059587     0.848521765
12.663304            0.478539663       0.8480649   0.000438341861 -0.000298197283   0.000438341861 -0.000298197284      0.478564083     0.848209479
12.663332            0.479047277     0.847750153   0.000438991168  -0.00029905602   0.000438991169  -0.00029905602      0.479068867     0.847896569
12.66336             0.479555181     0.847434774   0.000439641365  -0.00029991738   0.000439641365  -0.00029991738      0.479573939     0.847583034
12.663388            0.480063374     0.847118763   0.000440292451 -0.000300781372   0.000440292451 -0.000300781372      0.480079301     0.847268872
12.663416            0.480571858     0.846802119   0.000440944425 -0.000301648004   0.000440944426 -0.000301648004      0.480584951     0.846954083
12.663444            0.481080631     0.846484839   0.000441597289 -0.000302517286    0.00044159729 -0.000302517286       0.48109089     0.846638665
12.663472            0.481589695     0.846166924   0.000442251042 -0.000303389226   0.000442251043 -0.000303389226      0.481597118     0.846322616
12.6635              0.482099048      0.84584837   0.000442905685 -0.000304263833   0.000442905685 -0.000304263834      0.482103634     0.846005936
