! TOUCHSTONE file generated by CST MICROWAVE STUDIO
! Date and time: Wed Jul 31 12:35:05 2024
! Project name: WaveGuide_BPF-Ver4.1_U-shape_Ku_T3_C4_CWA_2.cst
! Parameters = {cavity_h=16; cavity_l0=10; cavity_l1=15.2326; cavity_l2=16.8488; cavity_l3=17.1106; cavity_l4=17.2987; cavity_l5=17.0874; cavity_l6=17.6155; cavity_r=2.5; cavity_screw_l=0.5; cavity_screw_r=1.5; cavity_w=8; iris_h00=0; iris_h01=8.8143; iris_h112=0; iris_h12=5.587; iris_h211=3.6575; iris_h23=5.2097; iris_h310=3.9738; iris_h34=5.0702; iris_h45=4.9363; iris_h49=4.6291; iris_h56=4.8105; iris_h58=4.4429; iris_h67=6.587; iris_rx=0.1; iris_screw_l=0.5; iris_screw_r=1.5; iris_shift00=0; iris_shift112=0; iris_shift211=3.5; iris_shift310=0; iris_shift49=0; iris_shift58=3.5; iris_shift67=3.5; iris_tx=4.5; iris_tz=4.5; iris_w00=0; iris_w112=0; iris_w211=4; iris_w310=3.9738; iris_w49=4.6291; iris_w58=4; iris_w67=4; mesh_cavity=5; mesh_iris=7; mesh_screw=7; order=12; reset_all=0; sigma=4.8e+07}
! Header version: 2018
! Port assignment regex: !\s*Touchstone port\s*([0-9]+)\s*=\s*(CST MWS port|CST DS port)\s*([0-9]+|Zmin|Zmax)\s*\(\"(.*)\"\)(\s*mode\s*([0-9]+))?.*
! Touchstone port assignment:
! Touchstone port 1 = CST MWS port 1 ("")
! Touchstone port 2 = CST MWS port 2 ("")
# GHz S RI R 50
12.66                0.414272252     0.885136097   0.000269681789 -0.000152174374   0.000269681789 -0.000152174374      0.420289732     0.882289323
12.660028            0.414728449     0.884902619   0.000270043606 -0.000152574606   0.000270043606 -0.000152574606      0.420745897      0.88205191
12.660056            0.415184918     0.884668689   0.000270405883 -0.000152975919   0.000270405883 -0.000152975919      0.421202343     0.881814036
12.660084            0.415641649     0.884434311   0.000270768624 -0.000153378315   0.000270768623 -0.000153378316      0.421659056     0.881575707
12.660112            0.416098635     0.884199488   0.000271131831 -0.000153781795    0.00027113183 -0.000153781795      0.422116024     0.881336926
12.66014             0.416555866     0.883964224   0.000271495508 -0.000154186359   0.000271495508 -0.000154186359      0.422573233     0.881097701
12.660168            0.417013343     0.883728516   0.000271859657 -0.000154592009   0.000271859656 -0.000154592009      0.423030684     0.880858029
12.660196            0.417471072     0.883492363   0.000272224274 -0.000154998752   0.000272224273 -0.000154998752      0.423488386     0.880617906
12.660224            0.417929052     0.883255762   0.000272589359 -0.000155406589   0.000272589359  -0.00015540659      0.423946338      0.88037733
12.660252            0.418387284     0.883018714   0.000272954914 -0.000155815525   0.000272954914 -0.000155815525       0.42440454     0.880136303
12.66028             0.418845768     0.882781216   0.000273320939 -0.000156225562   0.000273320939 -0.000156225562      0.424862993     0.879894821
12.660308            0.419304504      0.88254327   0.000273687433 -0.000156636703   0.000273687432 -0.000156636703      0.425321697     0.879652885
12.660336            0.419763492     0.882304873   0.000274054396 -0.000157048951   0.000274054396 -0.000157048951      0.425780651     0.879410494
12.660364            0.420222731     0.882066025    0.00027442183  -0.00015746231    0.00027442183  -0.00015746231      0.426239856     0.879167646
12.660392            0.420682223     0.881826725   0.000274789733 -0.000157876783   0.000274789733 -0.000157876783      0.426699312     0.878924342
12.66042             0.421141967     0.881586972   0.000275158107 -0.000158292373   0.000275158107 -0.000158292373      0.427159019     0.878680579
12.660448            0.421601962     0.881346766   0.000275526952 -0.000158709083   0.000275526951 -0.000158709083      0.427618977     0.878436358
12.660476             0.42206221     0.881106105   0.000275896267 -0.000159126916   0.000275896266 -0.000159126916      0.428079185     0.878191678
12.660504            0.422522711     0.880864988   0.000276266053 -0.000159545876   0.000276266052 -0.000159545876      0.428539645     0.877946536
12.660532            0.422983463     0.880623416    0.00027663631 -0.000159965966   0.000276636309 -0.000159965966      0.429000355     0.877700934
12.66056             0.423444468     0.880381386   0.000277007038 -0.000160387188   0.000277007038 -0.000160387188      0.429461317      0.87745487
12.660588            0.423905725     0.880138898   0.000277378237 -0.000160809547   0.000277378237 -0.000160809547       0.42992253     0.877208342
12.660616            0.424367235     0.879895952   0.000277749908 -0.000161233045   0.000277749908 -0.000161233045      0.430383994     0.876961351
12.660644            0.424828997     0.879652546   0.000278122051 -0.000161657686   0.000278122051 -0.000161657686      0.430845709     0.876713895
12.660672            0.425291012      0.87940868   0.000278494666 -0.000162083473   0.000278494666 -0.000162083473      0.431307676     0.876465973
12.6607              0.425753279     0.879164352   0.000278867753 -0.000162510409   0.000278867753 -0.000162510409      0.431769894     0.876217585
12.660728            0.426215799     0.878919562   0.000279241312 -0.000162938497   0.000279241312 -0.000162938497      0.432232363     0.875968729
12.660756            0.426678571     0.878674309   0.000279615343 -0.000163367742   0.000279615343 -0.000163367742      0.432695083     0.875719406
12.660784            0.427141596     0.878428592   0.000279989847 -0.000163798145   0.000279989847 -0.000163798145      0.433158055     0.875469613
12.660812            0.427604875     0.878182411   0.000280364824 -0.000164229711   0.000280364823 -0.000164229711      0.433621279      0.87521935
12.66084             0.428068405     0.877935763   0.000280740273 -0.000164662442   0.000280740273 -0.000164662442      0.434084754     0.874968616
12.660868            0.428532189      0.87768865   0.000281116195 -0.000165096343   0.000281116195 -0.000165096343      0.434548481     0.874717411
12.660896            0.428996226     0.877441068   0.000281492591 -0.000165531416   0.000281492591 -0.000165531416      0.435012459     0.874465733
12.660924            0.429460515     0.877193019    0.00028186946 -0.000165967664   0.000281869459 -0.000165967664      0.435476689     0.874213582
12.660952            0.429925058       0.8769445   0.000282246802 -0.000166405092   0.000282246801 -0.000166405092       0.43594117     0.873960956
12.66098             0.430389854     0.876695512   0.000282624617 -0.000166843702   0.000282624617 -0.000166843702      0.436405903     0.873707856
12.661008            0.430854902     0.876446053   0.000283002906 -0.000167283498   0.000283002906 -0.000167283498      0.436870888     0.873454279
12.661036            0.431320204     0.876196121   0.000283381669 -0.000167724483   0.000283381669 -0.000167724483      0.437336125     0.873200225
12.661064            0.431785759     0.875945718   0.000283760906 -0.000168166661   0.000283760906 -0.000168166661      0.437801614     0.872945693
12.661092            0.432251567      0.87569484   0.000284140617 -0.000168610034   0.000284140617 -0.000168610035      0.438267354     0.872690682
12.66112             0.432717629     0.875443489   0.000284520802 -0.000169054608   0.000284520802 -0.000169054608      0.438733347     0.872435191
12.661148            0.433183944     0.875191662   0.000284901461 -0.000169500384   0.000284901461 -0.000169500384      0.439199591      0.87217922
12.661176            0.433650512     0.874939358   0.000285282594 -0.000169947366   0.000285282594 -0.000169947366      0.439666087     0.871922768
12.661204            0.434117333     0.874686578   0.000285664202 -0.000170395558   0.000285664202 -0.000170395558      0.440132836     0.871665833
12.661232            0.434584408      0.87443332   0.000286046284 -0.000170844963   0.000286046284 -0.000170844963      0.440599836     0.871408415
12.66126             0.435051736     0.874179583   0.000286428841 -0.000171295585   0.000286428841 -0.000171295585      0.441067088     0.871150512
12.661288            0.435519318     0.873925366   0.000286811873 -0.000171747427   0.000286811873 -0.000171747428      0.441534593     0.870892125
12.661316            0.435987153     0.873670668   0.000287195379 -0.000172200493   0.000287195379 -0.000172200493      0.442002349     0.870633251
12.661344            0.436455242     0.873415489    0.00028757936 -0.000172654786    0.00028757936 -0.000172654786      0.442470358     0.870373891
12.661372            0.436923584     0.873159828   0.000287963817  -0.00017311031   0.000287963816  -0.00017311031      0.442938619     0.870114042
12.6614               0.43739218     0.872903683   0.000288348748 -0.000173567067   0.000288348748 -0.000173567067      0.443407132     0.869853705
12.661428            0.437861029     0.872647054   0.000288734154 -0.000174025063   0.000288734154 -0.000174025063      0.443875897     0.869592879
12.661456            0.438330133      0.87238994   0.000289120036 -0.000174484299   0.000289120035 -0.000174484299      0.444344915     0.869331561
12.661484            0.438799489     0.872132339   0.000289506392 -0.000174944781   0.000289506392 -0.000174944781      0.444814184     0.869069752
12.661512              0.4392691     0.871874252   0.000289893224  -0.00017540651   0.000289893224  -0.00017540651      0.445283707     0.868807451
12.66154             0.439738964     0.871615677   0.000290280532 -0.000175869492   0.000290280532 -0.000175869492      0.445753481     0.868544656
12.661568            0.440209082     0.871356613   0.000290668314 -0.000176333729   0.000290668314 -0.000176333729      0.446223508     0.868281367
12.661596            0.440679454     0.871097059   0.000291056573 -0.000176799225   0.000291056572 -0.000176799225      0.446693787     0.868017583
12.661624             0.44115008     0.870837014   0.000291445306 -0.000177265984   0.000291445306 -0.000177265984      0.447164318     0.867753303
12.661652             0.44162096     0.870576478   0.000291834516 -0.000177734009   0.000291834515  -0.00017773401      0.447635102     0.867488526
12.66168             0.442092093      0.87031545     0.0002922242 -0.000178203305     0.0002922242 -0.000178203305      0.448106138      0.86722325
12.661708            0.442563481     0.870053928   0.000292614361 -0.000178673873   0.000292614361 -0.000178673874      0.448577427     0.866957476
12.661736            0.443035122     0.869791911   0.000293004997 -0.000179145719   0.000293004997  -0.00017914572      0.449048968     0.866691201
12.661764            0.443507017     0.869529399   0.000293396109 -0.000179618846   0.000293396109 -0.000179618846      0.449520762     0.866424426
12.661792            0.443979166     0.869266392   0.000293787696 -0.000180093258   0.000293787696 -0.000180093258      0.449992808      0.86615715
12.66182              0.44445157     0.869002887   0.000294179759 -0.000180568957   0.000294179759 -0.000180568957      0.450465107      0.86588937
12.661848            0.444924227     0.868738883   0.000294572298 -0.000181045949   0.000294572298 -0.000181045949      0.450937658     0.865621087
12.661876            0.445397138     0.868474381   0.000294965313 -0.000181524236   0.000294965313 -0.000181524236      0.451410462     0.865352299
12.661904            0.445870303     0.868209379   0.000295358803 -0.000182003823   0.000295358803 -0.000182003823      0.451883518     0.865083005
12.661932            0.446343723     0.867943876   0.000295752769 -0.000182484712   0.000295752769 -0.000182484712      0.452356827     0.864813205
12.66196             0.446817396     0.867677871   0.000296147211 -0.000182966908   0.000296147211 -0.000182966908      0.452830388     0.864542898
12.661988            0.447291324     0.867411364   0.000296542128 -0.000183450415   0.000296542128 -0.000183450415      0.453304202     0.864272082
12.662016            0.447765506     0.867144352   0.000296937522 -0.000183935236   0.000296937521 -0.000183935236      0.453778269     0.864000757
12.662044            0.448239941     0.866876836   0.000297333391 -0.000184421375    0.00029733339 -0.000184421376      0.454252588     0.863728921
12.662072            0.448714631     0.866608814   0.000297729735 -0.000184908836   0.000297729735 -0.000184908837       0.45472716     0.863456575
12.6621              0.449189576     0.866340286   0.000298126555 -0.000185397623   0.000298126555 -0.000185397623      0.455201984     0.863183715
12.662128            0.449664774      0.86607125   0.000298523851 -0.000185887739   0.000298523851 -0.000185887739      0.455677061     0.862910343
12.662156            0.450140226     0.865801706   0.000298921623 -0.000186379188   0.000298921622 -0.000186379188      0.456152391     0.862636456
12.662184            0.450615933     0.865531652    0.00029931987 -0.000186871974   0.000299319869 -0.000186871975      0.456627973     0.862362055
12.662212            0.451091894     0.865261087   0.000299718592 -0.000187366102   0.000299718592 -0.000187366102      0.457103808     0.862087137
12.66224             0.451568109     0.864990012    0.00030011779 -0.000187861574    0.00030011779 -0.000187861574      0.457579895     0.861811702
12.662268            0.452044578     0.864718424   0.000300517463 -0.000188358394   0.000300517463 -0.000188358394      0.458056236     0.861535749
12.662296            0.452521302     0.864446322   0.000300917612 -0.000188856567   0.000300917612 -0.000188856567      0.458532828     0.861259276
12.662324             0.45299828     0.864173707   0.000301318236 -0.000189356096   0.000301318235 -0.000189356096      0.459009674     0.860982284
12.662352            0.453475512     0.863900576   0.000301719335 -0.000189856986   0.000301719335 -0.000189856986      0.459486772     0.860704771
12.66238             0.453952998     0.863626929   0.000302120909 -0.000190359239   0.000302120909 -0.000190359239      0.459964122     0.860426735
12.662408            0.454430739     0.863352764   0.000302522958 -0.000190862861   0.000302522958 -0.000190862861      0.460441726     0.860148177
12.662436            0.454908733     0.863078082   0.000302925483 -0.000191367854   0.000302925482 -0.000191367854      0.460919582     0.859869094
12.662464            0.455386982      0.86280288   0.000303328482 -0.000191874224   0.000303328482 -0.000191874224       0.46139769     0.859589487
12.662492            0.455865486     0.862527158   0.000303731956 -0.000192381973   0.000303731956 -0.000192381973      0.461876051     0.859309353
12.66252             0.456344243     0.862250915   0.000304135905 -0.000192891106   0.000304135904 -0.000192891106      0.462354665     0.859028693
12.662548            0.456823255     0.861974149   0.000304540328 -0.000193401627   0.000304540328 -0.000193401627      0.462833531     0.858747504
12.662576            0.457302521     0.861696861   0.000304945226 -0.000193913539   0.000304945225 -0.000193913539       0.46331265     0.858465787
12.662604            0.457782041     0.861419049   0.000305350598 -0.000194426848   0.000305350598 -0.000194426848      0.463792022     0.858183539
12.662632            0.458261816     0.861140711   0.000305756444 -0.000194941556   0.000305756444 -0.000194941556      0.464271646     0.857900761
12.66266             0.458741845     0.860861848   0.000306162765 -0.000195457668   0.000306162765 -0.000195457668      0.464751523     0.857617451
12.662688            0.459222128     0.860582457   0.000306569559 -0.000195975187   0.000306569559 -0.000195975187      0.465231652     0.857333607
12.662716            0.459702665     0.860302538   0.000306976828 -0.000196494119   0.000306976828 -0.000196494119      0.465712034      0.85704923
12.662744            0.460183456      0.86002209    0.00030738457 -0.000197014466    0.00030738457 -0.000197014466      0.466192668     0.856764317
12.662772            0.460664502     0.859741112   0.000307792786 -0.000197536234   0.000307792786 -0.000197536234      0.466673555     0.856478868
12.6628              0.461145802     0.859459603   0.000308201475 -0.000198059425   0.000308201475 -0.000198059425      0.467154694     0.856192883
12.662828            0.461627356     0.859177562   0.000308610638 -0.000198584044   0.000308610638 -0.000198584045      0.467636086     0.855906359
12.662856            0.462109164     0.858894987   0.000309020274 -0.000199110096   0.000309020273 -0.000199110096       0.46811773     0.855619296
12.662884            0.462591227     0.858611879   0.000309430382 -0.000199637584   0.000309430382 -0.000199637584      0.468599627     0.855331693
12.662912            0.463073543     0.858328235   0.000309840964 -0.000200166513   0.000309840964 -0.000200166513      0.469081776     0.855043549
12.66294             0.463556114     0.858044055   0.000310252018 -0.000200696886   0.000310252018 -0.000200696886      0.469564178     0.854754862
12.662968            0.464038939     0.857759338   0.000310663545 -0.000201228708   0.000310663545 -0.000201228708      0.470046831     0.854465632
12.662996            0.464522018     0.857474083   0.000311075544 -0.000201761983   0.000311075544 -0.000201761983      0.470529738     0.854175858
12.663024            0.465005351     0.857188289   0.000311488015 -0.000202296714   0.000311488015 -0.000202296715      0.471012896     0.853885539
12.663052            0.465488938     0.856901954   0.000311900958 -0.000202832908   0.000311900958 -0.000202832908      0.471496307     0.853594674
12.66308              0.46597278     0.856615078   0.000312314373 -0.000203370566   0.000312314372 -0.000203370566       0.47197997     0.853303261
12.663108            0.466456875      0.85632766   0.000312728259 -0.000203909695   0.000312728258 -0.000203909695      0.472463886     0.853011299
12.663136            0.466941224     0.856039698   0.000313142616 -0.000204450297   0.000313142616 -0.000204450297      0.472948053     0.852718788
12.663164            0.467425828     0.855751192   0.000313557444 -0.000204992377   0.000313557444 -0.000204992377      0.473432473     0.852425727
12.663192            0.467910685     0.855462141   0.000313972744  -0.00020553594   0.000313972743  -0.00020553594      0.473917145     0.852132114
12.66322             0.468395796     0.855172543   0.000314388514 -0.000206080989   0.000314388513 -0.000206080989      0.474402069     0.851837949
12.663248            0.468881161     0.854882397   0.000314804754  -0.00020662753   0.000314804753  -0.00020662753      0.474887246     0.851543229
12.663276            0.469366781     0.854591704   0.000315221464 -0.000207175565   0.000315221464 -0.000207175565      0.475372674     0.851247955
12.663304            0.469852654      0.85430046   0.000315638644   -0.0002077251   0.000315638644   -0.0002077251      0.475858354     0.850952126
12.663332             0.47033878     0.854008666   0.000316056294 -0.000208276139   0.000316056294 -0.000208276139      0.476344287     0.850655739
12.66336             0.470825161      0.85371632   0.000316474413 -0.000208828686   0.000316474413 -0.000208828686      0.476830471     0.850358795
12.663388            0.471311796     0.853423422   0.000316893001 -0.000209382745   0.000316893001 -0.000209382745      0.477316908     0.850061291
12.663416            0.471798684     0.853129969   0.000317312058 -0.000209938322   0.000317312058 -0.000209938322      0.477803596     0.849763228
12.663444            0.472285826     0.852835962   0.000317731584 -0.000210495419   0.000317731583 -0.000210495419      0.478290536     0.849464603
12.663472            0.472773222     0.852541399   0.000318151577 -0.000211054042   0.000318151577 -0.000211054042      0.478777728     0.849165416
12.6635              0.473260871     0.852246279   0.000318572039 -0.000211614195   0.000318572039 -0.000211614195      0.479265171     0.848865666
