! TOUCHSTONE file generated by CST MICROWAVE STUDIO
! Date and time: Wed Jul 31 12:38:08 2024
! Project name: WaveGuide_BPF-Ver4.1_U-shape_Ku_T3_C4_CWA_2.cst
! Parameters = {cavity_h=16; cavity_l0=10; cavity_l1=15.163; cavity_l2=16.8449; cavity_l3=17.1316; cavity_l4=17.2625; cavity_l5=17.1023; cavity_l6=17.5967; cavity_r=2.5; cavity_screw_l=0.5; cavity_screw_r=1.5; cavity_w=8; iris_h00=0; iris_h01=8.7997; iris_h112=0; iris_h12=5.5913; iris_h211=3.6635; iris_h23=5.2035; iris_h310=3.9795; iris_h34=5.0705; iris_h45=4.9361; iris_h49=4.6182; iris_h56=4.7883; iris_h58=4.4337; iris_h67=6.5734; iris_rx=0.1; iris_screw_l=0.5; iris_screw_r=1.5; iris_shift00=0; iris_shift112=0; iris_shift211=3.5; iris_shift310=0; iris_shift49=0; iris_shift58=3.5; iris_shift67=3.5; iris_tx=4.5; iris_tz=4.5; iris_w00=0; iris_w112=0; iris_w211=4; iris_w310=3.9795; iris_w49=4.6182; iris_w58=4; iris_w67=4; mesh_cavity=5; mesh_iris=7; mesh_screw=7; order=12; reset_all=0; sigma=4.8e+07}
! Header version: 2018
! Port assignment regex: !\s*Touchstone port\s*([0-9]+)\s*=\s*(CST MWS port|CST DS port)\s*([0-9]+|Zmin|Zmax)\s*\(\"(.*)\"\)(\s*mode\s*([0-9]+))?.*
! Touchstone port assignment:
! Touchstone port 1 = CST MWS port 1 ("")
! Touchstone port 2 = CST MWS port 2 ("")
# GHz S RI R 50
12.66                0.147183107     0.974994047   0.000163468529 -3.60873744e-05    0.00016346853 -3.60873744e-05      0.153084568     0.974105173
12.660028            0.147482057     0.974940786   0.000163696254 -3.61942721e-05   0.000163696255 -3.61942721e-05      0.153383591     0.974050038
12.660056            0.147781158     0.974887397   0.000163924354 -3.63014593e-05   0.000163924354 -3.63014592e-05      0.153682856      0.97399476
12.660084             0.14808042     0.974833879   0.000164152829  -3.6408935e-05   0.000164152829  -3.6408935e-05      0.153982332     0.973939344
12.660112            0.148379851      0.97478023    0.00016438168 -3.65166984e-05   0.000164381681 -3.65166983e-05       0.15428199     0.973883793
12.66014              0.14867946      0.97472645    0.00016461091 -3.66247485e-05   0.000164610911 -3.66247484e-05      0.154581801     0.973828113
12.660168            0.148979248     0.974672536    0.00016484052 -3.67330861e-05    0.00016484052  -3.6733086e-05      0.154881763     0.973772303
12.660196            0.149279207     0.974618491   0.000165070508 -3.68417131e-05   0.000165070509 -3.68417131e-05      0.155181897      0.97371636
12.660224             0.14957934     0.974564314   0.000165300876 -3.69506305e-05   0.000165300877 -3.69506305e-05      0.155482204     0.973660283
12.660252            0.149879645     0.974510005   0.000165531625  -3.7059839e-05   0.000165531626  -3.7059839e-05      0.155782684     0.973604073
12.66028             0.150180123     0.974455564   0.000165762756 -3.71693395e-05   0.000165762756 -3.71693394e-05      0.156083336     0.973547729
12.660308            0.150480775      0.97440099   0.000165994268 -3.72791327e-05   0.000165994269 -3.72791327e-05      0.156384162      0.97349125
12.660336              0.1507816     0.974346282   0.000166226163 -3.73892195e-05   0.000166226164 -3.73892195e-05       0.15668516     0.973434638
12.660364            0.151082598     0.974291442   0.000166458442 -3.74996008e-05   0.000166458443 -3.74996007e-05      0.156986332      0.97337789
12.660392             0.15138377     0.974236469   0.000166691105 -3.76102772e-05   0.000166691105 -3.76102772e-05      0.157287678     0.973321008
12.66042             0.151685117     0.974181361   0.000166924152 -3.77212498e-05   0.000166924153 -3.77212498e-05      0.157589197     0.973263991
12.660448            0.151986637      0.97412612   0.000167157586 -3.78325193e-05   0.000167157586 -3.78325193e-05      0.157890889     0.973206838
12.660476            0.152288331     0.974070745   0.000167391405 -3.79440866e-05   0.000167391406 -3.79440866e-05      0.158192756      0.97314955
12.660504              0.1525902     0.974015236   0.000167625612 -3.80559525e-05   0.000167625613 -3.80559524e-05      0.158494797     0.973092127
12.660532            0.152892244     0.973959592   0.000167860206 -3.81681178e-05   0.000167860207 -3.81681178e-05      0.158797012     0.973034567
12.66056             0.153194462     0.973903814   0.000168095189 -3.82805834e-05    0.00016809519 -3.82805834e-05      0.159099402     0.972976871
12.660588            0.153496855       0.9738479   0.000168330561 -3.83933502e-05   0.000168330562 -3.83933501e-05      0.159401967     0.972919038
12.660616            0.153799424     0.973791852   0.000168566323 -3.85064189e-05   0.000168566323 -3.85064189e-05      0.159704706     0.972861069
12.660644            0.154102167     0.973735668   0.000168802475 -3.86197905e-05   0.000168802476 -3.86197905e-05       0.16000762     0.972802963
12.660672            0.154405086     0.973679348   0.000169039019 -3.87334658e-05   0.000169039019 -3.87334658e-05       0.16031071      0.97274472
12.6607              0.154708181     0.973622892   0.000169275954 -3.88474457e-05   0.000169275955 -3.88474457e-05      0.160613974      0.97268634
12.660728            0.155011452       0.9735663   0.000169513283  -3.8961731e-05   0.000169513283  -3.8961731e-05      0.160917415     0.972627821
12.660756            0.155314898     0.973509572   0.000169751005 -3.90763226e-05   0.000169751005 -3.90763226e-05      0.161221031     0.972569165
12.660784            0.155618521     0.973452707   0.000169989121 -3.91912214e-05   0.000169989121 -3.91912213e-05      0.161524823     0.972510371
12.660812             0.15592232     0.973395706   0.000170227632 -3.93064282e-05   0.000170227632 -3.93064281e-05      0.161828791     0.972451439
12.66084             0.156226295     0.973338567   0.000170466538 -3.94219439e-05   0.000170466539 -3.94219438e-05      0.162132935     0.972392367
12.660868            0.156530447     0.973281291   0.000170705841 -3.95377693e-05   0.000170705842 -3.95377693e-05      0.162437256     0.972333158
12.660896            0.156834776     0.973223878   0.000170945542 -3.96539055e-05   0.000170945542 -3.96539054e-05      0.162741753     0.972273809
12.660924            0.157139282     0.973166326   0.000171185639 -3.97703531e-05    0.00017118564 -3.97703531e-05      0.163046427      0.97221432
12.660952            0.157443966     0.973108637   0.000171426136 -3.98871132e-05   0.000171426137 -3.98871132e-05      0.163351278     0.972154692
12.66098             0.157748826     0.973050809   0.000171667032 -4.00041866e-05   0.000171667032 -4.00041866e-05      0.163656305     0.972094925
12.661008            0.158053865     0.972992843   0.000171908328 -4.01215742e-05   0.000171908328 -4.01215742e-05      0.163961511     0.972035017
12.661036             0.15835908     0.972934739   0.000172150024 -4.02392769e-05   0.000172150025 -4.02392769e-05      0.164266893     0.971974969
12.661064            0.158664474     0.972876495   0.000172392122 -4.03572956e-05   0.000172392123 -4.03572955e-05      0.164572454     0.971914781
12.661092            0.158970046     0.972818112   0.000172634623 -4.04756311e-05   0.000172634623 -4.04756311e-05      0.164878192     0.971854452
12.66112             0.159275796     0.972759589   0.000172877526 -4.05942844e-05   0.000172877527 -4.05942844e-05      0.165184108     0.971793981
12.661148            0.159581725     0.972700927   0.000173120833 -4.07132564e-05   0.000173120834 -4.07132564e-05      0.165490202      0.97173337
12.661176            0.159887832     0.972642125   0.000173364544  -4.0832548e-05   0.000173364545  -4.0832548e-05      0.165796474     0.971672617
12.661204            0.160194118     0.972583182   0.000173608661 -4.09521601e-05   0.000173608662   -4.095216e-05      0.166102925     0.971611722
12.661232            0.160500583     0.972524099   0.000173853184 -4.10720936e-05   0.000173853185 -4.10720935e-05      0.166409555     0.971550686
12.66126             0.160807227     0.972464876   0.000174098113 -4.11923494e-05   0.000174098114 -4.11923493e-05      0.166716363     0.971489507
12.661288             0.16111405     0.972405512    0.00017434345 -4.13129284e-05   0.000174343451 -4.13129284e-05      0.167023351     0.971428186
12.661316            0.161421053     0.972346006   0.000174589195 -4.14338316e-05   0.000174589196 -4.14338316e-05      0.167330518     0.971366721
12.661344            0.161728236     0.972286359   0.000174835349 -4.15550599e-05    0.00017483535 -4.15550598e-05      0.167637864     0.971305114
12.661372            0.162035598      0.97222657   0.000175081913 -4.16766141e-05   0.000175081914 -4.16766141e-05       0.16794539     0.971243364
12.6614              0.162343141      0.97216664   0.000175328887 -4.17984953e-05   0.000175328888 -4.17984953e-05      0.168253095      0.97118147
12.661428            0.162650863     0.972106567   0.000175576272 -4.19207044e-05   0.000175576273 -4.19207044e-05       0.16856098     0.971119433
12.661456            0.162958766     0.972046352    0.00017582407 -4.20432423e-05    0.00017582407 -4.20432422e-05      0.168869046     0.971057252
12.661484             0.16326685     0.971985994    0.00017607228 -4.21661098e-05    0.00017607228 -4.21661098e-05      0.169177291     0.970994926
12.661512            0.163575114     0.971925493   0.000176320903 -4.22893081e-05   0.000176320904 -4.22893081e-05      0.169485718     0.970932456
12.66154              0.16388356     0.971864849   0.000176569941  -4.2412838e-05   0.000176569942 -4.24128379e-05      0.169794324     0.970869841
12.661568            0.164192186     0.971804062   0.000176819394 -4.25367004e-05   0.000176819395 -4.25367004e-05      0.170103112     0.970807081
12.661596            0.164500994     0.971743131   0.000177069263 -4.26608963e-05   0.000177069263 -4.26608963e-05      0.170412081     0.970744176
12.661624            0.164809983     0.971682056   0.000177319548 -4.27854267e-05   0.000177319548 -4.27854267e-05       0.17072123     0.970681126
12.661652            0.165119154     0.971620837    0.00017757025 -4.29102925e-05   0.000177570251 -4.29102924e-05      0.171030561      0.97061793
12.66168             0.165428506     0.971559473   0.000177821371 -4.30354946e-05   0.000177821371 -4.30354946e-05      0.171340074     0.970554587
12.661708            0.165738041     0.971497965    0.00017807291 -4.31610341e-05   0.000178072911 -4.31610341e-05      0.171649769     0.970491099
12.661736            0.166047758     0.971436312   0.000178324869 -4.32869119e-05    0.00017832487 -4.32869118e-05      0.171959645     0.970427464
12.661764            0.166357657     0.971374514   0.000178577248 -4.34131289e-05   0.000178577249 -4.34131288e-05      0.172269703     0.970363682
12.661792            0.166667739      0.97131257   0.000178830049 -4.35396861e-05   0.000178830049 -4.35396861e-05      0.172579944     0.970299753
12.66182             0.166978004     0.971250481   0.000179083271 -4.36665845e-05   0.000179083272 -4.36665845e-05      0.172890367     0.970235677
12.661848            0.167288451     0.971188245   0.000179336916 -4.37938251e-05   0.000179336917 -4.37938251e-05      0.173200972     0.970171454
12.661876            0.167599082     0.971125864   0.000179590985 -4.39214089e-05   0.000179590986 -4.39214088e-05      0.173511761     0.970107082
12.661904            0.167909896     0.971063336   0.000179845478 -4.40493367e-05   0.000179845479 -4.40493367e-05      0.173822732     0.970042563
12.661932            0.168220893     0.971000661   0.000180100396 -4.41776097e-05   0.000180100397 -4.41776097e-05      0.174133887     0.969977895
12.66196             0.168532074     0.970937839    0.00018035574 -4.43062288e-05    0.00018035574 -4.43062287e-05      0.174445225     0.969913079
12.661988            0.168843439      0.97087487    0.00018061151 -4.44351949e-05   0.000180611511 -4.44351949e-05      0.174756746     0.969848114
12.662016            0.169154988     0.970811754   0.000180867708 -4.45645091e-05   0.000180867708 -4.45645091e-05      0.175068452     0.969782999
12.662044            0.169466721      0.97074849   0.000181124334 -4.46941724e-05   0.000181124334 -4.46941724e-05      0.175380341     0.969717736
12.662072            0.169778639     0.970685077   0.000181381388 -4.48241858e-05   0.000181381389 -4.48241858e-05      0.175692414     0.969652323
12.6621              0.170090741     0.970621517   0.000181638873 -4.49545502e-05   0.000181638874 -4.49545502e-05      0.176004671      0.96958676
12.662128            0.170403028     0.970557808   0.000181896788 -4.50852668e-05   0.000181896789 -4.50852667e-05      0.176317113     0.969521046
12.662156              0.1707155      0.97049395   0.000182155135 -4.52163364e-05   0.000182155136 -4.52163363e-05       0.17662974     0.969455183
12.662184            0.171028157     0.970429943   0.000182413914 -4.53477601e-05   0.000182413914   -4.534776e-05      0.176942551     0.969389168
12.662212            0.171340999     0.970365787   0.000182673125 -4.54795389e-05   0.000182673126 -4.54795388e-05      0.177255548     0.969323003
12.66224             0.171654027     0.970301481    0.00018293277 -4.56116738e-05   0.000182932771 -4.56116738e-05      0.177568729     0.969256687
12.662268            0.171967241     0.970237026    0.00018319285 -4.57441659e-05   0.000183192851 -4.57441659e-05      0.177882096     0.969190219
12.662296            0.172280641      0.97017242   0.000183453365 -4.58770161e-05   0.000183453366 -4.58770161e-05      0.178195649     0.969123599
12.662324            0.172594226     0.970107664   0.000183714317 -4.60102256e-05   0.000183714317 -4.60102256e-05      0.178509387     0.969056827
12.662352            0.172907998     0.970042757   0.000183975705 -4.61437953e-05   0.000183975705 -4.61437952e-05      0.178823311     0.968989903
12.66238             0.173221956     0.969977699   0.000184237531 -4.62777262e-05   0.000184237531 -4.62777262e-05      0.179137422     0.968922826
12.662408            0.173536101      0.96991249   0.000184499795 -4.64120194e-05   0.000184499796 -4.64120194e-05      0.179451718     0.968855597
12.662436            0.173850433      0.96984713   0.000184762499  -4.6546676e-05   0.000184762499  -4.6546676e-05      0.179766202     0.968788215
12.662464            0.174164952     0.969781618   0.000185025643  -4.6681697e-05   0.000185025643  -4.6681697e-05      0.180080872     0.968720679
12.662492            0.174479658     0.969715954   0.000185289227 -4.68170834e-05   0.000185289228 -4.68170833e-05      0.180395728     0.968652989
12.66252             0.174794551     0.969650137   0.000185553254 -4.69528362e-05   0.000185553255 -4.69528362e-05      0.180710772     0.968585146
12.662548            0.175109632     0.969584168   0.000185817723 -4.70889566e-05   0.000185817724 -4.70889566e-05      0.181026003     0.968517148
12.662576            0.175424901     0.969518047   0.000186082636 -4.72254456e-05   0.000186082636 -4.72254455e-05      0.181341422     0.968448996
12.662604            0.175740358     0.969451772   0.000186347992 -4.73623042e-05   0.000186347993 -4.73623041e-05      0.181657028     0.968380689
12.662632            0.176056003     0.969385344   0.000186613794 -4.74995335e-05   0.000186613795 -4.74995335e-05      0.181972822     0.968312228
12.66266             0.176371836     0.969318762   0.000186880041 -4.76371346e-05   0.000186880042 -4.76371345e-05      0.182288804     0.968243611
12.662688            0.176687858     0.969252026   0.000187146736 -4.77751085e-05   0.000187146736 -4.77751085e-05      0.182604974     0.968174838
12.662716            0.177004068     0.969185137   0.000187413877 -4.79134563e-05   0.000187413878 -4.79134563e-05      0.182921332      0.96810591
12.662744            0.177320467     0.969118092   0.000187681467 -4.80521791e-05   0.000187681468 -4.80521791e-05       0.18323788     0.968036825
12.662772            0.177637056     0.969050893   0.000187949506  -4.8191278e-05   0.000187949507  -4.8191278e-05      0.183554615     0.967967584
12.6628              0.177953834     0.968983539   0.000188217995  -4.8330754e-05   0.000188217996  -4.8330754e-05       0.18387154     0.967898186
12.662828            0.178270801      0.96891603   0.000188486935 -4.84706083e-05   0.000188486935 -4.84706083e-05      0.184188654     0.967828632
12.662856            0.178587958     0.968848365   0.000188756326 -4.86108419e-05   0.000188756327 -4.86108418e-05      0.184505958      0.96775892
12.662884            0.178905305     0.968780544    0.00018902617 -4.87514559e-05    0.00018902617 -4.87514558e-05       0.18482345     0.967689051
12.662912            0.179222842     0.968712568   0.000189296467 -4.88924514e-05   0.000189296467 -4.88924513e-05      0.185141133     0.967619024
12.66294             0.179540569     0.968644435   0.000189567218 -4.90338295e-05   0.000189567218 -4.90338294e-05      0.185459006     0.967548839
12.662968            0.179858487     0.968576145   0.000189838424 -4.91755913e-05   0.000189838424 -4.91755913e-05      0.185777068     0.967478495
12.662996            0.180176595     0.968507698   0.000190110085 -4.93177379e-05   0.000190110086 -4.93177379e-05      0.186095321     0.967407993
12.663024            0.180494894     0.968439094   0.000190382203 -4.94602705e-05   0.000190382204 -4.94602704e-05      0.186413765     0.967337332
12.663052            0.180813385     0.968370332   0.000190654779   -4.960319e-05    0.00019065478   -4.960319e-05      0.186732399     0.967266512
12.66308             0.181132066     0.968301413   0.000190927813 -4.97464978e-05   0.000190927814 -4.97464978e-05      0.187051224     0.967195532
12.663108            0.181450939     0.968232336   0.000191201306 -4.98901948e-05   0.000191201307 -4.98901948e-05       0.18737024     0.967124392
12.663136            0.181770003       0.9681631   0.000191475259 -5.00342822e-05    0.00019147526 -5.00342822e-05      0.187689447     0.967053093
12.663164             0.18208926     0.968093705   0.000191749673 -5.01787612e-05   0.000191749673 -5.01787611e-05      0.188008846     0.966981633
12.663192            0.182408708     0.968024152   0.000192024548 -5.03236327e-05   0.000192024549 -5.03236327e-05      0.188328436     0.966910012
12.66322             0.182728349     0.967954439   0.000192299886 -5.04688981e-05   0.000192299886 -5.04688981e-05      0.188648219     0.966838231
12.663248            0.183048181     0.967884567   0.000192575687 -5.06145584e-05   0.000192575688 -5.06145584e-05      0.188968193     0.966766288
12.663276            0.183368207     0.967814535   0.000192851952 -5.07606148e-05   0.000192851953 -5.07606147e-05       0.18928836     0.966694184
12.663304            0.183688425     0.967744343   0.000193128682 -5.09070683e-05   0.000193128683 -5.09070683e-05      0.189608719     0.966621918
12.663332            0.184008837     0.967673991   0.000193405879 -5.10539202e-05   0.000193405879 -5.10539202e-05       0.18992927      0.96654949
12.66336             0.184329441     0.967603478   0.000193683541 -5.12011717e-05   0.000193683542 -5.12011717e-05      0.190250015     0.966476899
12.663388            0.184650239     0.967532804   0.000193961672 -5.13488238e-05   0.000193961673 -5.13488237e-05      0.190570952     0.966404146
12.663416            0.184971231     0.967461969   0.000194240271 -5.14968777e-05   0.000194240272 -5.14968777e-05      0.190892083      0.96633123
12.663444            0.185292416     0.967390972   0.000194519339 -5.16453346e-05    0.00019451934 -5.16453345e-05      0.191213407     0.966258151
12.663472            0.185613795     0.967319814   0.000194798877 -5.17941956e-05   0.000194798878 -5.17941956e-05      0.191534925     0.966184908
12.6635              0.185935369     0.967248493   0.000195078887 -5.19434619e-05   0.000195078887 -5.19434619e-05      0.191856636     0.966111501
