! TOUCHSTONE file generated by CST MICROWAVE STUDIO
! Date and time: Wed Jul 31 12:47:23 2024
! Project name: WaveGuide_BPF-Ver4.1_U-shape_Ku_T3_C4_CWA_2.cst
! Parameters = {cavity_h=16; cavity_l0=10; cavity_l1=15.2186; cavity_l2=16.8383; cavity_l3=17.1344; cavity_l4=17.283; cavity_l5=17.0984; cavity_l6=17.5716; cavity_r=2.5; cavity_screw_l=0.5; cavity_screw_r=1.5; cavity_w=8; iris_h00=0; iris_h01=8.8056; iris_h112=0; iris_h12=5.5962; iris_h211=3.6683; iris_h23=5.1934; iris_h310=3.9796; iris_h34=5.0768; iris_h45=4.9273; iris_h49=4.6222; iris_h56=4.8004; iris_h58=4.4466; iris_h67=6.5728; iris_rx=0.1; iris_screw_l=0.5; iris_screw_r=1.5; iris_shift00=0; iris_shift112=0; iris_shift211=3.5; iris_shift310=0; iris_shift49=0; iris_shift58=3.5; iris_shift67=3.5; iris_tx=4.5; iris_tz=4.5; iris_w00=0; iris_w112=0; iris_w211=4; iris_w310=3.9796; iris_w49=4.6222; iris_w58=4; iris_w67=4; mesh_cavity=5; mesh_iris=7; mesh_screw=7; order=12; reset_all=0; sigma=4.8e+07}
! Header version: 2018
! Port assignment regex: !\s*Touchstone port\s*([0-9]+)\s*=\s*(CST MWS port|CST DS port)\s*([0-9]+|Zmin|Zmax)\s*\(\"(.*)\"\)(\s*mode\s*([0-9]+))?.*
! Touchstone port assignment:
! Touchstone port 1 = CST MWS port 1 ("")
! Touchstone port 2 = CST MWS port 2 ("")
# GHz S RI R 50
12.66                0.342947428     0.918116051   0.000225918309 -0.000101389154   0.000225918309 -0.000101389155      0.335758429     0.920896759
12.660028            0.343360551     0.917946155   0.000226220004 -0.000101654029   0.000226220004 -0.000101654029      0.336170472     0.920731152
12.660056               0.343774     0.917775898   0.000226522109 -0.000101919604   0.000226522109 -0.000101919604      0.336582765     0.920565218
12.660084             0.34418774     0.917605295   0.000226824629 -0.000102185876    0.00022682463 -0.000102185876      0.336995305     0.920398959
12.660112             0.34460173     0.917434359   0.000227127569 -0.000102452843   0.000227127569 -0.000102452844      0.337408087     0.920232377
12.66014             0.345015934     0.917263103   0.000227430933 -0.000102720503   0.000227430933 -0.000102720503      0.337821104     0.920065472
12.660168            0.345430352     0.917091527   0.000227734721 -0.000102988857   0.000227734721 -0.000102988858      0.338234357     0.919898245
12.660196            0.345845009      0.91691962   0.000228038932 -0.000103257911   0.000228038932 -0.000103257911       0.33864785     0.919730693
12.660224            0.346259905     0.916747383   0.000228343565 -0.000103527666   0.000228343565 -0.000103527666      0.339061583     0.919562815
12.660252            0.346675041     0.916574814   0.000228648622 -0.000103798124   0.000228648622 -0.000103798124      0.339475556     0.919394612
12.66028             0.347090416     0.916401913   0.000228954102 -0.000104069287   0.000228954102 -0.000104069287      0.339889769     0.919226082
12.660308            0.347506031     0.916228679   0.000229260006 -0.000104341157   0.000229260006 -0.000104341158      0.340304223     0.919057225
12.660336            0.347921886     0.916055112   0.000229566334 -0.000104613736   0.000229566334 -0.000104613737      0.340718917      0.91888804
12.660364             0.34833798     0.915881211   0.000229873087 -0.000104887026   0.000229873087 -0.000104887027      0.341133852     0.918718527
12.660392            0.348754315     0.915706976   0.000230180265 -0.000105161029   0.000230180265  -0.00010516103      0.341549027     0.918548686
12.66042              0.34917089     0.915532406   0.000230487869 -0.000105435747   0.000230487869 -0.000105435747      0.341964443     0.918378514
12.660448            0.349587705       0.9153575   0.000230795899 -0.000105711181   0.000230795899 -0.000105711182      0.342380101     0.918208013
12.660476            0.350004761     0.915182257   0.000231104356 -0.000105987334   0.000231104356 -0.000105987335      0.342795999     0.918037181
12.660504            0.350422057     0.915006678   0.000231413239 -0.000106264208   0.000231413239 -0.000106264209      0.343212139     0.917866018
12.660532            0.350839594     0.914830761    0.00023172255 -0.000106541805    0.00023172255 -0.000106541805       0.34362852     0.917694523
12.66056             0.351257373     0.914654506   0.000232032289 -0.000106820126   0.000232032289 -0.000106820126      0.344045143     0.917522695
12.660588            0.351675392     0.914477912   0.000232342455 -0.000107099174   0.000232342456 -0.000107099174      0.344462008     0.917350534
12.660616            0.352093652     0.914300978   0.000232653051  -0.00010737895   0.000232653051 -0.000107378951      0.344879114      0.91717804
12.660644            0.352512154     0.914123705   0.000232964075 -0.000107659457   0.000232964075 -0.000107659458      0.345296463     0.917005211
12.660672            0.352930897     0.913946091   0.000233275529 -0.000107940697   0.000233275529 -0.000107940698      0.345714054     0.916832048
12.6607              0.353349881     0.913768136   0.000233587413 -0.000108222672   0.000233587413 -0.000108222672      0.346131887     0.916658549
12.660728            0.353769108     0.913589839   0.000233899727 -0.000108505383   0.000233899727 -0.000108505383      0.346549962     0.916484713
12.660756            0.354188576     0.913411199   0.000234212471 -0.000108788833   0.000234212471 -0.000108788833       0.34696828     0.916310541
12.660784            0.354608286     0.913232217   0.000234525647 -0.000109073023   0.000234525647 -0.000109073024      0.347386841     0.916136032
12.660812            0.355028238      0.91305289   0.000234839254 -0.000109357957   0.000234839254 -0.000109357957      0.347805644     0.915961185
12.66084             0.355448433     0.912873219   0.000235153293 -0.000109643635   0.000235153293 -0.000109643635      0.348224691     0.915785999
12.660868            0.355868869     0.912693204   0.000235467765  -0.00010993006   0.000235467765 -0.000109930061      0.348643981     0.915610473
12.660896            0.356289549     0.912512842   0.000235782669 -0.000110217234   0.000235782669 -0.000110217235      0.349063514     0.915434608
12.660924            0.356710471     0.912332134   0.000236098006 -0.000110505159   0.000236098006  -0.00011050516       0.34948329     0.915258403
12.660952            0.357131635      0.91215108   0.000236413777 -0.000110793837   0.000236413777 -0.000110793838       0.34990331     0.915081856
12.66098             0.357553043     0.911969678   0.000236729982 -0.000111083271   0.000236729982 -0.000111083271      0.350323573     0.914904968
12.661008            0.357974694     0.911787927   0.000237046621 -0.000111373461   0.000237046621 -0.000111373461      0.350744081     0.914727737
12.661036            0.358396588     0.911605828   0.000237363695  -0.00011166441   0.000237363695 -0.000111664411      0.351164832     0.914550164
12.661064            0.358818725      0.91142338   0.000237681204 -0.000111956121   0.000237681204 -0.000111956122      0.351585827     0.914372247
12.661092            0.359241105     0.911240581   0.000237999149 -0.000112248596   0.000237999149 -0.000112248596      0.352007067     0.914193985
12.66112             0.359663729     0.911057432    0.00023831753 -0.000112541836    0.00023831753 -0.000112541836      0.352428551     0.914015379
12.661148            0.360086597     0.910873931   0.000238636347 -0.000112835844   0.000238636347 -0.000112835844      0.352850279     0.913836427
12.661176            0.360509709     0.910690078     0.0002389556 -0.000113130621   0.000238955601 -0.000113130621      0.353272252      0.91365713
12.661204            0.360933064     0.910505872   0.000239275291  -0.00011342617   0.000239275292 -0.000113426171       0.35369447     0.913477485
12.661232            0.361356664     0.910321314    0.00023959542 -0.000113722494    0.00023959542 -0.000113722494      0.354116933     0.913297493
12.66126             0.361780508     0.910136401   0.000239915987 -0.000114019593   0.000239915987 -0.000114019594       0.35453964     0.913117153
12.661288            0.362204596     0.909951134   0.000240236991 -0.000114317471   0.000240236992 -0.000114317471      0.354962593     0.912936465
12.661316            0.362628929     0.909765511   0.000240558435 -0.000114616129   0.000240558435 -0.000114616129      0.355385791     0.912755427
12.661344            0.363053506     0.909579533   0.000240880318  -0.00011491557   0.000240880318  -0.00011491557      0.355809235     0.912574039
12.661372            0.363478328     0.909393197    0.00024120264 -0.000115215795    0.00024120264 -0.000115215796      0.356232924       0.9123923
12.6614              0.363903395     0.909206505   0.000241525402 -0.000115516808   0.000241525402 -0.000115516808      0.356656859     0.912210211
12.661428            0.364328707     0.909019455   0.000241848605 -0.000115818609   0.000241848605 -0.000115818609       0.35708104     0.912027769
12.661456            0.364754263     0.908832046   0.000242172248 -0.000116121202   0.000242172248 -0.000116121202      0.357505466     0.911844975
12.661484            0.365180066     0.908644278   0.000242496332 -0.000116424588   0.000242496332 -0.000116424588      0.357930139     0.911661828
12.661512            0.365606113     0.908456151   0.000242820858 -0.000116728769   0.000242820858  -0.00011672877      0.358355058     0.911478327
12.66154             0.366032406     0.908267662   0.000243145825 -0.000117033749   0.000243145826 -0.000117033749      0.358780223     0.911294471
12.661568            0.366458945     0.908078813   0.000243471235 -0.000117339528   0.000243471235 -0.000117339529      0.359205635      0.91111026
12.661596            0.366885729     0.907889602   0.000243797088  -0.00011764611   0.000243797088  -0.00011764611      0.359631294     0.910925694
12.661624            0.367312759     0.907700028   0.000244123383 -0.000117953496   0.000244123383 -0.000117953496      0.360057199     0.910740771
12.661652            0.367740036     0.907510091   0.000244450122 -0.000118261688   0.000244450122 -0.000118261689      0.360483351     0.910555491
12.66168             0.368167558      0.90731979   0.000244777304  -0.00011857069   0.000244777304  -0.00011857069       0.36090975     0.910369853
12.661708            0.368595327     0.907129125   0.000245104931 -0.000118880502   0.000245104931 -0.000118880502      0.361336397     0.910183857
12.661736            0.369023342     0.906938094   0.000245433002 -0.000119191128   0.000245433002 -0.000119191128      0.361763291     0.909997501
12.661764            0.369451603     0.906746698   0.000245761518 -0.000119502569   0.000245761518 -0.000119502569      0.362190432     0.909810786
12.661792            0.369880111     0.906554935   0.000246090479 -0.000119814828   0.000246090479 -0.000119814828       0.36261782     0.909623711
12.66182             0.370308866     0.906362805   0.000246419886 -0.000120127907   0.000246419886 -0.000120127907      0.363045457     0.909436274
12.661848            0.370737868     0.906170307   0.000246749739 -0.000120441808   0.000246749739 -0.000120441809      0.363473341     0.909248476
12.661876            0.371167117      0.90597744   0.000247080038 -0.000120756534   0.000247080038 -0.000120756535      0.363901473     0.909060316
12.661904            0.371596613     0.905784205   0.000247410784 -0.000121072087   0.000247410784 -0.000121072087      0.364329853     0.908871792
12.661932            0.372026356     0.905590599   0.000247741977 -0.000121388469   0.000247741977 -0.000121388469      0.364758481     0.908682904
12.66196             0.372456346     0.905396622   0.000248073617 -0.000121705682   0.000248073617 -0.000121705683      0.365187358     0.908493652
12.661988            0.372886585     0.905202275   0.000248405705 -0.000122023729   0.000248405705 -0.000122023729      0.365616483     0.908304035
12.662016             0.37331707     0.905007555   0.000248738241 -0.000122342612   0.000248738241 -0.000122342612      0.366045857     0.908114053
12.662044            0.373747804     0.904812463   0.000249071226 -0.000122662333   0.000249071226 -0.000122662334      0.366475479     0.907923703
12.662072            0.374178785     0.904616997    0.00024940466 -0.000122982895    0.00024940466 -0.000122982896      0.366905351     0.907732987
12.6621              0.374610014     0.904421157   0.000249738543   -0.0001233043   0.000249738543   -0.0001233043      0.367335471     0.907541903
12.662128            0.375041492     0.904224943   0.000250072875  -0.00012362655   0.000250072875  -0.00012362655      0.367765841      0.90735045
12.662156            0.375473217     0.904028352   0.000250407657 -0.000123949648   0.000250407658 -0.000123949648      0.368196459     0.907158628
12.662184            0.375905191     0.903831386    0.00025074289 -0.000124273595    0.00025074289 -0.000124273595      0.368627327     0.906966437
12.662212            0.376337414     0.903634043   0.000251078573 -0.000124598395   0.000251078573 -0.000124598395      0.369058445     0.906773875
12.66224             0.376769885     0.903436323   0.000251414708 -0.000124924049   0.000251414708  -0.00012492405      0.369489812     0.906580941
12.662268            0.377202605     0.903238224   0.000251751293 -0.000125250561   0.000251751293 -0.000125250561      0.369921429     0.906387636
12.662296            0.377635573     0.903039746    0.00025208833 -0.000125577931   0.000252088331 -0.000125577932      0.370353296     0.906193958
12.662324            0.378068791     0.902840889    0.00025242582 -0.000125906164    0.00025242582 -0.000125906164      0.370785413     0.905999906
12.662352            0.378502258     0.902641651   0.000252763761  -0.00012623526   0.000252763761 -0.000126235261      0.371217779     0.905805481
12.66238             0.378935974     0.902442032   0.000253102156 -0.000126565223   0.000253102156 -0.000126565224      0.371650397     0.905610681
12.662408            0.379369939     0.902242032   0.000253441003 -0.000126896055   0.000253441003 -0.000126896056      0.372083264     0.905415506
12.662436            0.379804154     0.902041649   0.000253780304 -0.000127227759   0.000253780304 -0.000127227759      0.372516382     0.905219954
12.662464            0.380238618     0.901840883   0.000254120058 -0.000127560335   0.000254120058 -0.000127560336      0.372949751     0.905024026
12.662492            0.380673332     0.901639733   0.000254460266 -0.000127893788   0.000254460267 -0.000127893789       0.37338337      0.90482772
12.66252             0.381108296     0.901438198   0.000254800929  -0.00012822812   0.000254800929  -0.00012822812      0.373817241     0.904631036
12.662548            0.381543509     0.901236278   0.000255142047 -0.000128563332   0.000255142047 -0.000128563332      0.374251362     0.904433973
12.662576            0.381978973     0.901033972   0.000255483619 -0.000128899428   0.000255483619 -0.000128899428      0.374685735     0.904236531
12.662604            0.382414687     0.900831279   0.000255825647 -0.000129236409   0.000255825647  -0.00012923641      0.375120358     0.904038708
12.662632            0.382850651     0.900628199    0.00025616813 -0.000129574279   0.000256168131 -0.000129574279      0.375555233     0.903840504
12.66266             0.383286866      0.90042473    0.00025651107 -0.000129913039    0.00025651107  -0.00012991304       0.37599036     0.903641919
12.662688            0.383723331     0.900220873   0.000256854466 -0.000130252693   0.000256854466 -0.000130252693      0.376425738     0.903442951
12.662716            0.384160046     0.900016626   0.000257198318 -0.000130593242   0.000257198318 -0.000130593243      0.376861368       0.9032436
12.662744            0.384597013     0.899811988   0.000257542627  -0.00013093469   0.000257542628  -0.00013093469       0.37729725     0.903043865
12.662772             0.38503423     0.899606959   0.000257887394 -0.000131277038   0.000257887394 -0.000131277038      0.377733384     0.902843745
12.6628              0.385471698     0.899401539   0.000258232618 -0.000131620288   0.000258232618 -0.000131620289       0.37816977      0.90264324
12.662828            0.385909417     0.899195726     0.0002585783 -0.000131964445     0.0002585783 -0.000131964445      0.378606408     0.902442349
12.662856            0.386347388      0.89898952    0.00025892444  -0.00013230951    0.00025892444  -0.00013230951      0.379043298     0.902241072
12.662884             0.38678561     0.898782919   0.000259271039 -0.000132655485   0.000259271039 -0.000132655485      0.379480441     0.902039406
12.662912            0.387224083     0.898575924   0.000259618096 -0.000133002373   0.000259618097 -0.000133002373      0.379917837     0.901837353
12.66294             0.387662808     0.898368533   0.000259965613 -0.000133350177   0.000259965613 -0.000133350177      0.380355485     0.901634911
12.662968            0.388101784     0.898160747   0.000260313589 -0.000133698899   0.000260313589 -0.000133698899      0.380793386     0.901432079
12.662996            0.388541012     0.897952563   0.000260662025 -0.000134048542   0.000260662025 -0.000134048542       0.38123154     0.901228857
12.663024            0.388980492     0.897743981    0.00026101092 -0.000134399108    0.00026101092 -0.000134399108      0.381669947     0.901025243
12.663052            0.389420225     0.897535001   0.000261360276 -0.000134750599   0.000261360276   -0.0001347506      0.382108608     0.900821238
12.66308             0.389860209     0.897325622   0.000261710093  -0.00013510302   0.000261710093  -0.00013510302      0.382547521      0.90061684
12.663108            0.390300445     0.897115842    0.00026206037  -0.00013545637    0.00026206037 -0.000135456371      0.382986689     0.900412049
12.663136            0.390740934     0.896905662   0.000262411109 -0.000135810655   0.000262411109 -0.000135810655      0.383426109     0.900206864
12.663164            0.391181675     0.896695081   0.000262762309 -0.000136165875   0.000262762309 -0.000136165876      0.383865783     0.900001284
12.663192            0.391622669     0.896484097    0.00026311397 -0.000136522035    0.00026311397 -0.000136522035      0.384305712     0.899795309
12.66322             0.392063915      0.89627271   0.000263466094 -0.000136879135   0.000263466094 -0.000136879135      0.384745894     0.899588937
12.663248            0.392505414      0.89606092    0.00026381868 -0.000137237179    0.00026381868 -0.000137237179       0.38518633     0.899382168
12.663276            0.392947166     0.895848725   0.000264171729  -0.00013759617   0.000264171729  -0.00013759617       0.38562702     0.899175001
12.663304            0.393389171     0.895636125    0.00026452524  -0.00013795611    0.00026452524  -0.00013795611      0.386067964     0.898967436
12.663332            0.393831429     0.895423118   0.000264879214 -0.000138317001   0.000264879214 -0.000138317001      0.386509163     0.898759472
12.66336             0.394273941     0.895209705   0.000265233652 -0.000138678847   0.000265233652 -0.000138678847      0.386950616     0.898551108
12.663388            0.394716705     0.894995885   0.000265588554 -0.000139041649   0.000265588554  -0.00013904165      0.387392324     0.898342343
12.663416            0.395159724     0.894781656   0.000265943919 -0.000139405412   0.000265943919 -0.000139405412      0.387834287     0.898133176
12.663444            0.395602995     0.894567018   0.000266299749 -0.000139770136   0.000266299749 -0.000139770137      0.388276504     0.897923607
12.663472             0.39604652      0.89435197   0.000266656043 -0.000140135826   0.000266656043 -0.000140135826      0.388718976     0.897713635
12.6635              0.396490299     0.894136512   0.000267012802 -0.000140502483   0.000267012802 -0.000140502483      0.389161704      0.89750326
