! TOUCHSTONE file generated by CST MICROWAVE STUDIO
! Date and time: Wed Jul 31 12:50:30 2024
! Project name: WaveGuide_BPF-Ver4.1_U-shape_Ku_T3_C4_CWA_2.cst
! Parameters = {cavity_h=16; cavity_l0=10; cavity_l1=15.2208; cavity_l2=16.8195; cavity_l3=17.1132; cavity_l4=17.2563; cavity_l5=17.149; cavity_l6=17.5658; cavity_r=2.5; cavity_screw_l=0.5; cavity_screw_r=1.5; cavity_w=8; iris_h00=0; iris_h01=8.8007; iris_h112=0; iris_h12=5.6038; iris_h211=3.6673; iris_h23=5.2053; iris_h310=3.9633; iris_h34=5.0865; iris_h45=4.9326; iris_h49=4.6201; iris_h56=4.8037; iris_h58=4.4484; iris_h67=6.5718; iris_rx=0.1; iris_screw_l=0.5; iris_screw_r=1.5; iris_shift00=0; iris_shift112=0; iris_shift211=3.5; iris_shift310=0; iris_shift49=0; iris_shift58=3.5; iris_shift67=3.5; iris_tx=4.5; iris_tz=4.5; iris_w00=0; iris_w112=0; iris_w211=4; iris_w310=3.9633; iris_w49=4.6201; iris_w58=4; iris_w67=4; mesh_cavity=5; mesh_iris=7; mesh_screw=7; order=12; reset_all=0; sigma=4.8e+07}
! Header version: 2018
! Port assignment regex: !\s*Touchstone port\s*([0-9]+)\s*=\s*(CST MWS port|CST DS port)\s*([0-9]+|Zmin|Zmax)\s*\(\"(.*)\"\)(\s*mode\s*([0-9]+))?.*
! Touchstone port assignment:
! Touchstone port 1 = CST MWS port 1 ("")
! Touchstone port 2 = CST MWS port 2 ("")
# GHz S RI R 50
12.66                0.331813849     0.922510053   0.000205400877 -9.06911283e-05   0.000205400877 -9.06911284e-05      0.338934436     0.919823376
12.660028            0.332222163      0.92234833    0.00020566813 -9.09249343e-05    0.00020566813 -9.09249343e-05      0.339345208     0.919656961
12.660056            0.332630784     0.922186269   0.000205935744 -9.11593406e-05   0.000205935744 -9.11593406e-05      0.339756167     0.919490245
12.660084            0.333039679     0.922023881   0.000206203719 -9.13943476e-05   0.000206203719 -9.13943477e-05      0.340167333     0.919323218
12.660112            0.333448816     0.921861177   0.000206472057  -9.1629956e-05   0.000206472057  -9.1629956e-05      0.340578726     0.919155874
12.66014             0.333858165     0.921698166   0.000206740759 -9.18661659e-05   0.000206740759  -9.1866166e-05      0.340990363     0.918988206
12.660168            0.334267725      0.92153485   0.000207009827 -9.21029792e-05   0.000207009827 -9.21029793e-05      0.341402247     0.918820212
12.660196            0.334677517     0.921371219   0.000207279259 -9.23403982e-05   0.000207279259 -9.23403982e-05      0.341814364     0.918651897
12.660224            0.335087542     0.921207274   0.000207549056 -9.25784245e-05   0.000207549056 -9.25784245e-05      0.342226713      0.91848326
12.660252              0.3354978     0.921043013   0.000207819218 -9.28170597e-05   0.000207819218 -9.28170598e-05      0.342639296     0.918314301
12.66028             0.335908291     0.920878436   0.000208089746 -9.30563056e-05   0.000208089746 -9.30563057e-05      0.343052113     0.918145019
12.660308            0.336319014     0.920713542    0.00020836064 -9.32961637e-05    0.00020836064 -9.32961638e-05      0.343465162     0.917975413
12.660336            0.336729971     0.920548331   0.000208631901 -9.35366358e-05   0.000208631901 -9.35366359e-05      0.343878446     0.917805483
12.660364            0.337141161     0.920382803   0.000208903528 -9.37777234e-05   0.000208903528 -9.37777235e-05      0.344291963     0.917635228
12.660392            0.337552585     0.920216956   0.000209175522 -9.40194282e-05   0.000209175522 -9.40194283e-05      0.344705714     0.917464648
12.66042             0.337964242     0.920050791   0.000209447884  -9.4261752e-05   0.000209447884  -9.4261752e-05      0.345119699     0.917293743
12.660448            0.338376132     0.919884306   0.000209720613 -9.45046962e-05   0.000209720613 -9.45046963e-05      0.345533918     0.917122511
12.660476            0.338788257     0.919717501   0.000209993711 -9.47482627e-05   0.000209993711 -9.47482628e-05      0.345948371     0.916950952
12.660504            0.339200615     0.919550376   0.000210267177 -9.49924531e-05   0.000210267177 -9.49924532e-05      0.346363059     0.916779065
12.660532            0.339613207      0.91938293   0.000210541012 -9.52372692e-05   0.000210541012 -9.52372692e-05      0.346777981      0.91660685
12.66056             0.340026034     0.919215162   0.000210815217 -9.54827124e-05   0.000210815217 -9.54827125e-05      0.347193137     0.916434307
12.660588            0.340439095     0.919047072   0.000211089791 -9.57287847e-05   0.000211089791 -9.57287848e-05      0.347608528     0.916261434
12.660616             0.34085239     0.918878659   0.000211364735 -9.59754876e-05   0.000211364735 -9.59754877e-05      0.348024154     0.916088231
12.660644            0.341265919     0.918709923   0.000211640049 -9.62228229e-05   0.000211640049  -9.6222823e-05      0.348440015     0.915914698
12.660672            0.341679684     0.918540862   0.000211915734 -9.64707923e-05   0.000211915734 -9.64707924e-05      0.348856111     0.915740834
12.6607              0.342093683     0.918371478    0.00021219179 -9.67193975e-05   0.000212191791 -9.67193976e-05      0.349272442     0.915566638
12.660728            0.342507917     0.918201768   0.000212468218 -9.69686402e-05   0.000212468218 -9.69686403e-05      0.349689009      0.91539211
12.660756            0.342922386     0.918031733   0.000212745017 -9.72185221e-05   0.000212745018 -9.72185222e-05       0.35010581     0.915217249
12.660784             0.34333709     0.917861371   0.000213022189  -9.7469045e-05   0.000213022189  -9.7469045e-05      0.350522848     0.915042054
12.660812            0.343752029     0.917690683   0.000213299733 -9.77202106e-05   0.000213299733 -9.77202106e-05      0.350940121     0.914866526
12.66084             0.344167204     0.917519667    0.00021357765 -9.79720206e-05    0.00021357765 -9.79720206e-05      0.351357629     0.914690663
12.660868            0.344582614     0.917348323    0.00021385594 -9.82244767e-05    0.00021385594 -9.82244768e-05      0.351775374     0.914514465
12.660896             0.34499826     0.917176651   0.000214134603 -9.84775808e-05   0.000214134604 -9.84775808e-05      0.352193354     0.914337931
12.660924            0.345414141     0.917004649   0.000214413641 -9.87313345e-05   0.000214413641 -9.87313346e-05      0.352611571      0.91416106
12.660952            0.345830259     0.916832318   0.000214693053 -9.89857397e-05   0.000214693053 -9.89857397e-05      0.353030024     0.913983853
12.66098             0.346246612     0.916659657   0.000214972839  -9.9240798e-05   0.000214972839 -9.92407981e-05      0.353448713     0.913806308
12.661008            0.346663202     0.916486664      0.000215253 -9.94965113e-05      0.000215253 -9.94965114e-05      0.353867639     0.913628425
12.661036            0.347080027     0.916313341   0.000215533537 -9.97528813e-05   0.000215533537 -9.97528814e-05      0.354286801     0.913450202
12.661064            0.347497089     0.916139685   0.000215814449  -0.00010000991   0.000215814449  -0.00010000991      0.354706199     0.913271641
12.661092            0.347914388     0.915965696   0.000216095737 -0.000100267599   0.000216095737 -0.000100267599      0.355125835      0.91309274
12.66112             0.348331923     0.915791374   0.000216377402 -0.000100525949   0.000216377402  -0.00010052595      0.355545708     0.912913497
12.661148            0.348749695     0.915616719   0.000216659443 -0.000100784964   0.000216659443 -0.000100784964      0.355965817     0.912733914
12.661176            0.349167703     0.915441728   0.000216941861 -0.000101044644   0.000216941861 -0.000101044645      0.356386164     0.912553989
12.661204            0.349585949     0.915266403   0.000217224657 -0.000101304992   0.000217224657 -0.000101304992      0.356806748     0.912373721
12.661232            0.350004432     0.915090742    0.00021750783 -0.000101566009    0.00021750783 -0.000101566009      0.357227569     0.912193111
12.66126             0.350423151     0.914914745   0.000217791381 -0.000101827697   0.000217791381 -0.000101827697      0.357648628     0.912012157
12.661288            0.350842108     0.914738412   0.000218075311 -0.000102090058   0.000218075311 -0.000102090058      0.358069924     0.911830858
12.661316            0.351261303      0.91456174   0.000218359619 -0.000102353094   0.000218359619 -0.000102353094      0.358491458     0.911649215
12.661344            0.351680735     0.914384731   0.000218644307 -0.000102616806   0.000218644307 -0.000102616806       0.35891323     0.911467226
12.661372            0.352100405     0.914207383   0.000218929374 -0.000102881197   0.000218929374 -0.000102881197       0.35933524      0.91128489
12.6614              0.352520312     0.914029696    0.00021921482 -0.000103146268    0.00021921482 -0.000103146268      0.359757488     0.911102209
12.661428            0.352940458     0.913851668   0.000219500647 -0.000103412021   0.000219500647 -0.000103412021      0.360179974     0.910919179
12.661456            0.353360841     0.913673301   0.000219786854 -0.000103678457   0.000219786854 -0.000103678457      0.360602698     0.910735802
12.661484            0.353781462     0.913494592   0.000220073442  -0.00010394558   0.000220073442  -0.00010394558       0.36102566     0.910552076
12.661512            0.354202322     0.913315542   0.000220360411  -0.00010421339   0.000220360411  -0.00010421339      0.361448862     0.910368001
12.66154              0.35462342     0.913136149   0.000220647761 -0.000104481889   0.000220647761 -0.000104481889      0.361872301     0.910183576
12.661568            0.355044757     0.912956414   0.000220935493  -0.00010475108   0.000220935493  -0.00010475108       0.36229598     0.909998801
12.661596            0.355466332     0.912776335   0.000221223607 -0.000105020964   0.000221223607 -0.000105020964      0.362719897     0.909813675
12.661624            0.355888146     0.912595911   0.000221512104 -0.000105291544   0.000221512104 -0.000105291544      0.363144053     0.909628196
12.661652            0.356310198     0.912415144   0.000221800983  -0.00010556282   0.000221800983  -0.00010556282      0.363568448     0.909442366
12.66168              0.35673249      0.91223403   0.000222090245 -0.000105834795   0.000222090245 -0.000105834795      0.363993083     0.909256182
12.661708            0.357155021     0.912052571   0.000222379891  -0.00010610747   0.000222379891  -0.00010610747      0.364417956     0.909069645
12.661736            0.357577791     0.911870765    0.00022266992 -0.000106380849   0.000222669921 -0.000106380849      0.364843069     0.908882754
12.661764              0.3580008     0.911688612   0.000222960334 -0.000106654932   0.000222960334 -0.000106654932      0.365268422     0.908695507
12.661792            0.358424048     0.911506111   0.000223251132 -0.000106929721   0.000223251132 -0.000106929721      0.365694014     0.908507905
12.66182             0.358847536     0.911323262   0.000223542314 -0.000107205219   0.000223542314 -0.000107205219      0.366119846     0.908319947
12.661848            0.359271264     0.911140063   0.000223833882 -0.000107481427   0.000223833882 -0.000107481427      0.366545918     0.908131632
12.661876            0.359695231     0.910956515   0.000224125835 -0.000107758347   0.000224125835 -0.000107758348      0.366972229      0.90794296
12.661904            0.360119438     0.910772616   0.000224418173 -0.000108035982   0.000224418173 -0.000108035982      0.367398781     0.907753929
12.661932            0.360543885     0.910588367   0.000224710897 -0.000108314333   0.000224710897 -0.000108314333      0.367825572      0.90756454
12.66196             0.360968573     0.910403765   0.000225004008 -0.000108593401   0.000225004008 -0.000108593401      0.368252604     0.907374792
12.661988              0.3613935     0.910218812   0.000225297505  -0.00010887319   0.000225297505  -0.00010887319      0.368679877     0.907184683
12.662016            0.361818668     0.910033506    0.00022559139 -0.000109153701    0.00022559139 -0.000109153701      0.369107389     0.906994214
12.662044            0.362244076     0.909847846   0.000225885661 -0.000109434935   0.000225885661 -0.000109434935      0.369535143     0.906803383
12.662072            0.362669725     0.909661832    0.00022618032 -0.000109716896    0.00022618032 -0.000109716896      0.369963136     0.906612191
12.6621              0.363095614     0.909475463   0.000226475367 -0.000109999584   0.000226475367 -0.000109999584      0.370391371     0.906420635
12.662128            0.363521744     0.909288739   0.000226770802 -0.000110283002   0.000226770802 -0.000110283002      0.370819847     0.906228717
12.662156            0.363948115     0.909101659   0.000227066625 -0.000110567152   0.000227066625 -0.000110567152      0.371248563     0.906036435
12.662184            0.364374727     0.908914222   0.000227362837 -0.000110852036   0.000227362837 -0.000110852036      0.371677521     0.905843788
12.662212             0.36480158     0.908726428   0.000227659439 -0.000111137655   0.000227659439 -0.000111137655       0.37210672     0.905650775
12.66224             0.365228674     0.908538275   0.000227956429 -0.000111424012   0.000227956429 -0.000111424012       0.37253616     0.905457397
12.662268            0.365656009     0.908349764    0.00022825381 -0.000111711109    0.00022825381  -0.00011171111      0.372965842     0.905263653
12.662296            0.366083586     0.908160894    0.00022855158 -0.000111998948    0.00022855158 -0.000111998948      0.373395765     0.905069541
12.662324            0.366511405     0.907971664   0.000228849741 -0.000112287531   0.000228849741 -0.000112287531      0.373825929     0.904875061
12.662352            0.366939465     0.907782074   0.000229148292  -0.00011257686   0.000229148292  -0.00011257686      0.374256336     0.904680213
12.66238             0.367367766     0.907592122   0.000229447234 -0.000112866936   0.000229447234 -0.000112866936      0.374686984     0.904484995
12.662408             0.36779631     0.907401808   0.000229746567 -0.000113157762   0.000229746567 -0.000113157762      0.375117874     0.904289408
12.662436            0.368225095     0.907211132   0.000230046292 -0.000113449341   0.000230046292 -0.000113449341      0.375549006      0.90409345
12.662464            0.368654123     0.907020093   0.000230346409 -0.000113741673   0.000230346409 -0.000113741673      0.375980381     0.903897121
12.662492            0.369083393     0.906828689   0.000230646918 -0.000114034761   0.000230646918 -0.000114034761      0.376411997      0.90370042
12.66252             0.369512905     0.906636922   0.000230947819 -0.000114328608   0.000230947819 -0.000114328608      0.376843856     0.903503346
12.662548            0.369942659     0.906444789   0.000231249113 -0.000114623214   0.000231249113 -0.000114623214      0.377275957     0.903305899
12.662576            0.370372656      0.90625229   0.000231550799 -0.000114918583   0.000231550799 -0.000114918583      0.377708301     0.903108078
12.662604            0.370802896     0.906059425   0.000231852879 -0.000115214716   0.000231852879 -0.000115214716      0.378140887     0.902909883
12.662632            0.371233378     0.905866193   0.000232155353 -0.000115511615   0.000232155353 -0.000115511615      0.378573716     0.902711313
12.66266             0.371664103     0.905672593    0.00023245822 -0.000115809283    0.00023245822 -0.000115809283      0.379006788     0.902512366
12.662688            0.372095071     0.905478624   0.000232761482 -0.000116107722   0.000232761482 -0.000116107722      0.379440103     0.902313043
12.662716            0.372526282     0.905284287   0.000233065138 -0.000116406933   0.000233065138 -0.000116406933      0.379873661     0.902113343
12.662744            0.372957736     0.905089579   0.000233369188 -0.000116706918   0.000233369188 -0.000116706919      0.380307462     0.901913265
12.662772            0.373389433     0.904894501   0.000233673634 -0.000117007681   0.000233673634 -0.000117007681      0.380741506     0.901712808
12.6628              0.373821374     0.904699052   0.000233978474 -0.000117309223   0.000233978474 -0.000117309223      0.381175794     0.901511971
12.662828            0.374253558     0.904503232   0.000234283711 -0.000117611546   0.000234283711 -0.000117611546      0.381610324     0.901310755
12.662856            0.374685986     0.904307038   0.000234589343 -0.000117914651   0.000234589343 -0.000117914652      0.382045099     0.901109158
12.662884            0.375118657     0.904110472   0.000234895371 -0.000118218543   0.000234895371 -0.000118218543      0.382480117      0.90090718
12.662912            0.375551572     0.903913532   0.000235201795 -0.000118523222   0.000235201795 -0.000118523222      0.382915379     0.900704819
12.66294             0.375984731     0.903716217   0.000235508616  -0.00011882869   0.000235508616  -0.00011882869      0.383350884     0.900502076
12.662968            0.376418134     0.903518527   0.000235815834  -0.00011913495   0.000235815834  -0.00011913495      0.383786634     0.900298949
12.662996            0.376851781     0.903320461   0.000236123449 -0.000119442005    0.00023612345 -0.000119442005      0.384222627     0.900095438
12.663024            0.377285672     0.903122019   0.000236431462 -0.000119749855   0.000236431462 -0.000119749855      0.384658865     0.899891542
12.663052            0.377719807       0.9029232   0.000236739872 -0.000120058503   0.000236739872 -0.000120058504      0.385095346     0.899687261
12.66308             0.378154187     0.902724002   0.000237048681 -0.000120367952   0.000237048681 -0.000120367953      0.385532072     0.899482593
12.663108            0.378588811     0.902524426   0.000237357887 -0.000120678204   0.000237357887 -0.000120678204      0.385969043     0.899277538
12.663136             0.37902368     0.902324471   0.000237667492 -0.000120989261   0.000237667492 -0.000120989261      0.386406257     0.899072096
12.663164            0.379458793     0.902124136   0.000237977496 -0.000121301124   0.000237977496 -0.000121301124      0.386843717     0.898866265
12.663192            0.379894151      0.90192342   0.000238287898 -0.000121613797   0.000238287898 -0.000121613797      0.387281421     0.898660046
12.66322             0.380329754     0.901722322     0.0002385987 -0.000121927281     0.0002385987 -0.000121927281       0.38771937     0.898453436
12.663248            0.380765602     0.901520843   0.000238909902 -0.000122241579   0.000238909902 -0.000122241579      0.388157563     0.898246436
12.663276            0.381201695     0.901318981   0.000239221503 -0.000122556692   0.000239221503 -0.000122556692      0.388596002     0.898039045
12.663304            0.381638033     0.901116736   0.000239533504 -0.000122872624   0.000239533504 -0.000122872624      0.389034685     0.897831261
12.663332            0.382074616     0.900914106   0.000239845906 -0.000123189376   0.000239845906 -0.000123189376      0.389473614     0.897623086
12.66336             0.382511445     0.900711092   0.000240158708 -0.000123506951   0.000240158708 -0.000123506951      0.389912788     0.897414517
12.663388            0.382948519     0.900507692    0.00024047191  -0.00012382535    0.00024047191  -0.00012382535      0.390352207     0.897205553
12.663416            0.383385839     0.900303905   0.000240785514 -0.000124144576   0.000240785514 -0.000124144576      0.390791871     0.896996195
12.663444            0.383823404     0.900099732   0.000241099519 -0.000124464632   0.000241099519 -0.000124464632      0.391231781     0.896786442
12.663472            0.384261216     0.899895172   0.000241413926 -0.000124785519   0.000241413926 -0.000124785519      0.391671937     0.896576292
12.6635              0.384699272     0.899690223   0.000241728734  -0.00012510724   0.000241728734  -0.00012510724      0.392112338     0.896365745
