! TOUCHSTONE file generated by CST MICROWAVE STUDIO
! Date and time: Wed Jul 31 12:53:31 2024
! Project name: WaveGuide_BPF-Ver4.1_U-shape_Ku_T3_C4_CWA_2.cst
! Parameters = {cavity_h=16; cavity_l0=10; cavity_l1=15.1746; cavity_l2=16.868; cavity_l3=17.1454; cavity_l4=17.231; cavity_l5=17.1455; cavity_l6=17.5824; cavity_r=2.5; cavity_screw_l=0.5; cavity_screw_r=1.5; cavity_w=8; iris_h00=0; iris_h01=8.8159; iris_h112=0; iris_h12=5.611; iris_h211=3.651; iris_h23=5.2071; iris_h310=3.9702; iris_h34=5.0789; iris_h45=4.9238; iris_h49=4.622; iris_h56=4.8061; iris_h58=4.4462; iris_h67=6.5676; iris_rx=0.1; iris_screw_l=0.5; iris_screw_r=1.5; iris_shift00=0; iris_shift112=0; iris_shift211=3.5; iris_shift310=0; iris_shift49=0; iris_shift58=3.5; iris_shift67=3.5; iris_tx=4.5; iris_tz=4.5; iris_w00=0; iris_w112=0; iris_w211=4; iris_w310=3.9702; iris_w49=4.622; iris_w58=4; iris_w67=4; mesh_cavity=5; mesh_iris=7; mesh_screw=7; order=12; reset_all=0; sigma=4.8e+07}
! Header version: 2018
! Port assignment regex: !\s*Touchstone port\s*([0-9]+)\s*=\s*(CST MWS port|CST DS port)\s*([0-9]+|Zmin|Zmax)\s*\(\"(.*)\"\)(\s*mode\s*([0-9]+))?.*
! Touchstone port assignment:
! Touchstone port 1 = CST MWS port 1 ("")
! Touchstone port 2 = CST MWS port 2 ("")
# GHz S RI R 50
12.66                0.257646896     0.948137967   0.000269363677 -9.46311108e-05   0.000269363678 -9.46311108e-05      0.255404582     0.948912741
12.660028            0.258018492     0.948023643   0.000269778263  -9.4905204e-05   0.000269778264  -9.4905204e-05      0.255772426     0.948800613
12.660056            0.258390357     0.947909065     0.0002701936 -9.51800882e-05   0.000270193601 -9.51800883e-05      0.256140421     0.948688268
12.660084            0.258762482     0.947794236   0.000270609687 -9.54557696e-05   0.000270609688 -9.54557696e-05      0.256508608     0.948575695
12.660112            0.259134855      0.94767916   0.000271026524  -9.5732254e-05   0.000271026524 -9.57322541e-05      0.256877023     0.948462883
12.66014             0.259507466     0.947563837   0.000271444108 -9.60095476e-05   0.000271444109 -9.60095477e-05      0.257245705     0.948349823
12.660168            0.259880317     0.947448267   0.000271862442  -9.6287653e-05   0.000271862443  -9.6287653e-05      0.257614656     0.948236513
12.660196            0.260253413     0.947332449   0.000272281529 -9.65665703e-05    0.00027228153 -9.65665703e-05      0.257983849     0.948122961
12.660224            0.260626755     0.947216381    0.00027270137 -9.68463022e-05   0.000272701371 -9.68463022e-05      0.258353284     0.948009164
12.660252            0.261000344     0.947100064   0.000273121967 -9.71268513e-05   0.000273121968 -9.71268513e-05      0.258722963     0.947895123
12.66028              0.26137418     0.946983496   0.000273543321 -9.74082201e-05   0.000273543322 -9.74082201e-05      0.259092885     0.947780838
12.660308            0.261748262     0.946866677   0.000273965433 -9.76904113e-05   0.000273965434 -9.76904114e-05      0.259463051     0.947666307
12.660336            0.262122592     0.946749606   0.000274388306 -9.79734276e-05   0.000274388306 -9.79734276e-05       0.25983346     0.947551531
12.660364             0.26249717     0.946632284    0.00027481194 -9.82572715e-05    0.00027481194 -9.82572715e-05      0.260204114     0.947436509
12.660392            0.262871996     0.946514709   0.000275236337 -9.85419456e-05   0.000275236337 -9.85419457e-05      0.260575012      0.94732124
12.66042             0.263247069     0.946396881   0.000275661498 -9.88274527e-05   0.000275661499 -9.88274528e-05      0.260946154     0.947205724
12.660448            0.263622391       0.9462788   0.000276087425 -9.91137954e-05   0.000276087426 -9.91137955e-05      0.261317542      0.94708996
12.660476            0.263997962     0.946160465    0.00027651412 -9.94009764e-05    0.00027651412 -9.94009765e-05      0.261689174     0.946973948
12.660504            0.264373781     0.946041875   0.000276941583 -9.96889983e-05   0.000276941584 -9.96889984e-05      0.262061052     0.946857688
12.660532             0.26474985     0.945923031   0.000277369817 -9.99778639e-05   0.000277369818 -9.99778639e-05      0.262433176     0.946741178
12.66056             0.265126168      0.94580393   0.000277798823 -0.000100267576   0.000277798824 -0.000100267576      0.262805546     0.946624419
12.660588            0.265502736     0.945684574   0.000278228602 -0.000100558137   0.000278228603 -0.000100558137      0.263178162      0.94650741
12.660616            0.265879554     0.945564961   0.000278659156 -0.000100849549   0.000278659157 -0.000100849549      0.263551024      0.94639015
12.660644            0.266256623     0.945445091   0.000279090486 -0.000101141817   0.000279090487 -0.000101141817      0.263924133     0.946272638
12.660672            0.266633941     0.945324963   0.000279522594 -0.000101434941   0.000279522595 -0.000101434941      0.264297489     0.946154876
12.6607              0.267011511     0.945204578   0.000279955482 -0.000101728925   0.000279955482 -0.000101728925      0.264671093     0.946036861
12.660728            0.267389331     0.945083933    0.00028038915 -0.000102023772    0.00028038915 -0.000102023773      0.265044944     0.945918593
12.660756            0.267767403      0.94496303     0.0002808236 -0.000102319485   0.000280823601 -0.000102319485      0.265419043     0.945800072
12.660784            0.268145727     0.944841866   0.000281258834 -0.000102616066   0.000281258835 -0.000102616066      0.265793389     0.945681298
12.660812            0.268524303     0.944720443   0.000281694854 -0.000102913518   0.000281694855 -0.000102913518      0.266167985     0.945562269
12.66084              0.26890313     0.944598758    0.00028213166 -0.000103211844   0.000282131661 -0.000103211844      0.266542829     0.945442986
12.660868             0.26928221     0.944476813   0.000282569255 -0.000103511046   0.000282569256 -0.000103511046      0.266917921     0.945323447
12.660896            0.269661543     0.944354605    0.00028300764 -0.000103811128   0.000283007641 -0.000103811128      0.267293264     0.945203652
12.660924            0.270041129     0.944232135   0.000283446816 -0.000104112092   0.000283446817 -0.000104112092      0.267668855     0.945083602
12.660952            0.270420968     0.944109402   0.000283886785 -0.000104413941   0.000283886786 -0.000104413941      0.268044696     0.944963294
12.66098             0.270801061     0.943986406   0.000284327549 -0.000104716679   0.000284327549 -0.000104716679      0.268420787     0.944842729
12.661008            0.271181407     0.943863146   0.000284769108 -0.000105020307   0.000284769108 -0.000105020307      0.268797129     0.944721906
12.661036            0.271562007     0.943739621   0.000285211465 -0.000105324829   0.000285211465 -0.000105324829      0.269173721     0.944600825
12.661064            0.271942862     0.943615831   0.000285654621 -0.000105630247   0.000285654621 -0.000105630247      0.269550564     0.944479485
12.661092            0.272323972     0.943491776   0.000286098577 -0.000105936565   0.000286098578 -0.000105936565      0.269927658     0.944357885
12.66112             0.272705336     0.943367454   0.000286543336 -0.000106243785   0.000286543336 -0.000106243785      0.270305003     0.944236026
12.661148            0.273086956     0.943242866   0.000286988898  -0.00010655191   0.000286988899  -0.00010655191        0.2706826     0.944113906
12.661176            0.273468831      0.94311801   0.000287435265 -0.000106860944   0.000287435266 -0.000106860944      0.271060449     0.943991525
12.661204            0.273850961     0.942992887   0.000287882439 -0.000107170889    0.00028788244 -0.000107170889       0.27143855     0.943868882
12.661232            0.274233348     0.942867495   0.000288330422 -0.000107481747   0.000288330422 -0.000107481747      0.271816903     0.943745978
12.66126             0.274615991     0.942741834   0.000288779214 -0.000107793523   0.000288779215 -0.000107793523      0.272195509      0.94362281
12.661288            0.274998891     0.942615904   0.000289228818 -0.000108106219   0.000289228818 -0.000108106219      0.272574368      0.94349938
12.661316            0.275382047     0.942489704   0.000289679234 -0.000108419837   0.000289679235 -0.000108419837      0.272953481     0.943375686
12.661344            0.275765461     0.942363233   0.000290130465 -0.000108734382   0.000290130465 -0.000108734382      0.273332847     0.943251727
12.661372            0.276149132     0.942236491   0.000290582512 -0.000109049855   0.000290582512 -0.000109049855      0.273712467     0.943127504
12.6614              0.276533061     0.942109478   0.000291035376  -0.00010936626   0.000291035377  -0.00010936626      0.274092341     0.943003015
12.661428            0.276917247     0.941982192    0.00029148906   -0.0001096836   0.000291489061   -0.0001096836      0.274472469      0.94287826
12.661456            0.277301692     0.941854633   0.000291943565 -0.000110001878   0.000291943565 -0.000110001878      0.274852852     0.942753239
12.661484            0.277686396     0.941726801   0.000292398891 -0.000110321097   0.000292398892 -0.000110321097       0.27523349     0.942627951
12.661512            0.278071358     0.941598695   0.000292855042  -0.00011064126   0.000292855043  -0.00011064126      0.275614384     0.942502396
12.66154             0.278456579     0.941470315   0.000293312018  -0.00011096237   0.000293312019  -0.00011096237      0.275995533     0.942376572
12.661568             0.27884206     0.941341659   0.000293769821  -0.00011128443   0.000293769822  -0.00011128443      0.276376937      0.94225048
12.661596              0.2792278     0.941212728   0.000294228453 -0.000111607443   0.000294228454 -0.000111607443      0.276758598     0.942124119
12.661624            0.279613801     0.941083521   0.000294687915 -0.000111931413   0.000294687915 -0.000111931413      0.277140515     0.941997487
12.661652            0.280000061     0.940954037   0.000295148209 -0.000112256342   0.000295148209 -0.000112256342      0.277522689     0.941870586
12.66168             0.280386582     0.940824275   0.000295609336 -0.000112582233   0.000295609336 -0.000112582233      0.277905119     0.941743413
12.661708            0.280773364     0.940694236   0.000296071297  -0.00011290909   0.000296071298  -0.00011290909      0.278287807      0.94161597
12.661736            0.281160407     0.940563918   0.000296534096 -0.000113236916   0.000296534096 -0.000113236916      0.278670752     0.941488254
12.661764            0.281547711      0.94043332   0.000296997733 -0.000113565713   0.000296997733 -0.000113565713      0.279053955     0.941360265
12.661792            0.281935277     0.940302444   0.000297462209 -0.000113895486   0.000297462209 -0.000113895486      0.279437417     0.941232004
12.66182             0.282323105     0.940171287   0.000297927527 -0.000114226236   0.000297927527 -0.000114226236      0.279821136     0.941103469
12.661848            0.282711195     0.940039849   0.000298393687 -0.000114557968   0.000298393688 -0.000114557969      0.280205114     0.940974659
12.661876            0.283099547     0.939908129   0.000298860692 -0.000114890685   0.000298860693 -0.000114890685      0.280589351     0.940845575
12.661904            0.283488163     0.939776128   0.000299328543 -0.000115224389   0.000299328544  -0.00011522439      0.280973847     0.940716215
12.661932            0.283877041     0.939643844   0.000299797242 -0.000115559085   0.000299797243 -0.000115559085      0.281358603      0.94058658
12.66196             0.284266183     0.939511277   0.000300266791 -0.000115894774   0.000300266791 -0.000115894774      0.281743618     0.940456667
12.661988            0.284655588     0.939378426    0.00030073719 -0.000116231461   0.000300737191 -0.000116231461      0.282128894     0.940326478
12.662016            0.285045258     0.939245291   0.000301208442 -0.000116569149   0.000301208443 -0.000116569149      0.282514429     0.940196011
12.662044            0.285435191      0.93911187   0.000301680548  -0.00011690784   0.000301680549  -0.00011690784      0.282900226     0.940065266
12.662072             0.28582539     0.938978164    0.00030215351 -0.000117247539   0.000302153511 -0.000117247539      0.283286283     0.939934242
12.6621              0.286215852     0.938844172    0.00030262733 -0.000117588248    0.00030262733 -0.000117588248      0.283672602     0.939802938
12.662128             0.28660658     0.938709894   0.000303102008 -0.000117929971   0.000303102009 -0.000117929971      0.284059182     0.939671355
12.662156            0.286997574     0.938575327   0.000303577547 -0.000118272711   0.000303577548 -0.000118272711      0.284446023     0.939539491
12.662184            0.287388833     0.938440473   0.000304053949 -0.000118616471   0.000304053949 -0.000118616471      0.284833127     0.939407345
12.662212            0.287780358      0.93830533   0.000304531214 -0.000118961255   0.000304531215 -0.000118961255      0.285220493     0.939274918
12.66224             0.288172149     0.938169899   0.000305009345 -0.000119307066   0.000305009346 -0.000119307066      0.285608122     0.939142209
12.662268            0.288564207     0.938034177   0.000305488344 -0.000119653908   0.000305488344 -0.000119653908      0.285996014     0.939009216
12.662296            0.288956532     0.937898165   0.000305968211 -0.000120001783   0.000305968211 -0.000120001783      0.286384169      0.93887594
12.662324            0.289349124     0.937761862   0.000306448949 -0.000120350695   0.000306448949 -0.000120350695      0.286772587      0.93874238
12.662352            0.289741983     0.937625267   0.000306930559 -0.000120700648   0.000306930559 -0.000120700648      0.287161269     0.938608535
12.66238              0.29013511      0.93748838   0.000307413042 -0.000121051645   0.000307413043 -0.000121051645      0.287550216     0.938474405
12.662408            0.290528505       0.9373512   0.000307896402 -0.000121403689   0.000307896402 -0.000121403689      0.287939426     0.938339989
12.662436            0.290922168     0.937213727   0.000308380638 -0.000121756784   0.000308380639 -0.000121756784      0.288328902     0.938205286
12.662464              0.2913161     0.937075959   0.000308865753 -0.000122110933   0.000308865754 -0.000122110933      0.288718642     0.938070296
12.662492            0.291710301     0.936937897   0.000309351749 -0.000122466139   0.000309351749 -0.000122466139      0.289108648     0.937935018
12.66252             0.292104771      0.93679954   0.000309838626 -0.000122822407   0.000309838627 -0.000122822407      0.289498919     0.937799452
12.662548            0.292499511     0.936660886   0.000310326388 -0.000123179739   0.000310326388 -0.000123179739      0.289889456     0.937663597
12.662576             0.29289452     0.936521936   0.000310815035  -0.00012353814   0.000310815035  -0.00012353814      0.290280259     0.937527453
12.662604            0.293289799     0.936382689   0.000311304569 -0.000123897612   0.000311304569 -0.000123897612      0.290671329     0.937391018
12.662632            0.293685349     0.936243144   0.000311794992 -0.000124258159   0.000311794992 -0.000124258159      0.291062665     0.937254293
12.66266             0.294081169       0.9361033   0.000312286305 -0.000124619784   0.000312286305 -0.000124619784      0.291454269     0.937117276
12.662688            0.294477261     0.935963158    0.00031277851 -0.000124982492   0.000312778511 -0.000124982492      0.291846139     0.936979967
12.662716            0.294873623     0.935822715   0.000313271609 -0.000125346285    0.00031327161 -0.000125346285      0.292238278     0.936842366
12.662744            0.295270258     0.935681972   0.000313765604 -0.000125711168   0.000313765604 -0.000125711168      0.292630684     0.936704471
12.662772            0.295667164     0.935540929   0.000314260496 -0.000126077143   0.000314260496 -0.000126077143      0.293023358     0.936566282
12.6628              0.296064342     0.935399583   0.000314756286 -0.000126444215   0.000314756287 -0.000126444215      0.293416301     0.936427799
12.662828            0.296461793     0.935257935   0.000315252977 -0.000126812387   0.000315252978 -0.000126812387      0.293809513     0.936289021
12.662856            0.296859516     0.935115985   0.000315750571 -0.000127181662   0.000315750571 -0.000127181662      0.294202994     0.936149946
12.662884            0.297257513      0.93497373   0.000316249068 -0.000127552045   0.000316249069 -0.000127552045      0.294596744     0.936010576
12.662912            0.297655783     0.934831172   0.000316748471 -0.000127923539   0.000316748471 -0.000127923539      0.294990764     0.935870909
12.66294             0.298054326     0.934688308   0.000317248781 -0.000128296147   0.000317248782 -0.000128296147      0.295385054     0.935730943
12.662968            0.298453144     0.934545139       0.00031775 -0.000128669873   0.000317750001 -0.000128669873      0.295779615      0.93559068
12.662996            0.298852236     0.934401664    0.00031825213 -0.000129044721   0.000318252131 -0.000129044721      0.296174446     0.935450118
12.663024            0.299251602     0.934257882   0.000318755172 -0.000129420695   0.000318755173 -0.000129420695      0.296569548     0.935309256
12.663052            0.299651244     0.934113792   0.000319259129 -0.000129797798   0.000319259129 -0.000129797798      0.296964921     0.935168094
12.66308              0.30005116     0.933969395   0.000319764001 -0.000130176034   0.000319764001 -0.000130176034      0.297360565     0.935026631
12.663108            0.300451352     0.933824688    0.00032026979 -0.000130555407   0.000320269791 -0.000130555407      0.297756482     0.934884867
12.663136             0.30085182     0.933679672   0.000320776499  -0.00013093592     0.0003207765  -0.00013093592       0.29815267       0.9347428
12.663164            0.301252564     0.933534346   0.000321284129 -0.000131317578    0.00032128413 -0.000131317578      0.298549131     0.934600431
12.663192            0.301653584     0.933388709   0.000321792682 -0.000131700383   0.000321792682 -0.000131700383      0.298945865     0.934457758
12.66322             0.302054881     0.933242761   0.000322302159 -0.000132084341   0.000322302159 -0.000132084341      0.299342872     0.934314782
12.663248            0.302456455       0.9330965   0.000322812562 -0.000132469454   0.000322812562 -0.000132469454      0.299740152       0.9341715
12.663276            0.302858307     0.932949927   0.000323323892 -0.000132855726   0.000323323893 -0.000132855726      0.300137706     0.934027914
12.663304            0.303260435      0.93280304   0.000323836153 -0.000133243162   0.000323836153 -0.000133243162      0.300535533     0.933884021
12.663332            0.303662842     0.932655839   0.000324349344 -0.000133631765   0.000324349345 -0.000133631765      0.300933635     0.933739822
12.66336             0.304065528     0.932508323   0.000324863469 -0.000134021538    0.00032486347 -0.000134021538      0.301332012     0.933595315
12.663388            0.304468491     0.932360492   0.000325378529 -0.000134412487   0.000325378529 -0.000134412487      0.301730663       0.9334505
12.663416            0.304871734     0.932212344   0.000325894524 -0.000134804614   0.000325894525 -0.000134804614      0.302129589     0.933305377
12.663444            0.305275255     0.932063879   0.000326411459 -0.000135197924   0.000326411459 -0.000135197924      0.302528791     0.933159944
12.663472            0.305679057     0.931915097   0.000326929333  -0.00013559242   0.000326929333 -0.000135592421      0.302928269     0.933014202
12.6635              0.306083138     0.931765997   0.000327448148 -0.000135988107   0.000327448149 -0.000135988107      0.303328023     0.932868148
