! TOUCHSTONE file generated by CST MICROWAVE STUDIO
! Date and time: Wed Jul 31 13:02:54 2024
! Project name: WaveGuide_BPF-Ver4.1_U-shape_Ku_T3_C4_CWA_2.cst
! Parameters = {cavity_h=16; cavity_l0=10; cavity_l1=15.2095; cavity_l2=16.8454; cavity_l3=17.1184; cavity_l4=17.288; cavity_l5=17.1695; cavity_l6=17.5757; cavity_r=2.5; cavity_screw_l=0.5; cavity_screw_r=1.5; cavity_w=8; iris_h00=0; iris_h01=8.8363; iris_h112=0; iris_h12=5.5895; iris_h211=3.659; iris_h23=5.1936; iris_h310=3.9684; iris_h34=5.0881; iris_h45=4.9262; iris_h49=4.6235; iris_h56=4.8093; iris_h58=4.4432; iris_h67=6.5717; iris_rx=0.1; iris_screw_l=0.5; iris_screw_r=1.5; iris_shift00=0; iris_shift112=0; iris_shift211=3.5; iris_shift310=0; iris_shift49=0; iris_shift58=3.5; iris_shift67=3.5; iris_tx=4.5; iris_tz=4.5; iris_w00=0; iris_w112=0; iris_w211=4; iris_w310=3.9684; iris_w49=4.6235; iris_w58=4; iris_w67=4; mesh_cavity=5; mesh_iris=7; mesh_screw=7; order=12; reset_all=0; sigma=4.8e+07}
! Header version: 2018
! Port assignment regex: !\s*Touchstone port\s*([0-9]+)\s*=\s*(CST MWS port|CST DS port)\s*([0-9]+|Zmin|Zmax)\s*\(\"(.*)\"\)(\s*mode\s*([0-9]+))?.*
! Touchstone port assignment:
! Touchstone port 1 = CST MWS port 1 ("")
! Touchstone port 2 = CST MWS port 2 ("")
# GHz S RI R 50
12.66                0.412418338     0.887082955   0.000245898589 -0.000135465581   0.000245898589 -0.000135465581      0.409409549     0.888466303
12.660028            0.412855579     0.886861472    0.00024621879 -0.000135810426   0.000246218789 -0.000135810426      0.409848626     0.888245786
12.660056            0.413293143     0.886639544   0.000246539384 -0.000136156174   0.000246539384 -0.000136156174      0.410287927     0.888024869
12.660084             0.41373099      0.88641719   0.000246860377 -0.000136502823   0.000246860377 -0.000136502823      0.410727457     0.887803551
12.660112            0.414169082     0.886194424   0.000247181774 -0.000136850372   0.000247181774 -0.000136850372       0.41116722     0.887581827
12.66014             0.414607381     0.885971265    0.00024750358  -0.00013719882    0.00024750358  -0.00013719882      0.411607219     0.887359697
12.660168            0.415045886     0.885747712   0.000247825796 -0.000137548169   0.000247825795  -0.00013754817      0.412047455     0.887137158
12.660196            0.415484624     0.885523752   0.000248148417 -0.000137898425   0.000248148417 -0.000137898426      0.412487926     0.886914213
12.660224            0.415923594     0.885299384   0.000248471445  -0.00013824959   0.000248471445  -0.00013824959       0.41292863     0.886690859
12.660252            0.416362796     0.885074608    0.00024879488 -0.000138601666    0.00024879488 -0.000138601666      0.413369569     0.886467096
12.66028              0.41680223     0.884849424   0.000249118721 -0.000138954656   0.000249118721 -0.000138954656      0.413810742     0.886242923
12.660308            0.417241898     0.884623829    0.00024944297 -0.000139308562   0.000249442969 -0.000139308563       0.41425215     0.886018341
12.660336            0.417681797     0.884397824   0.000249767625 -0.000139663387   0.000249767625 -0.000139663387      0.414693792     0.885793347
12.660364             0.41812193     0.884171409   0.000250092688 -0.000140019133   0.000250092688 -0.000140019134      0.415135669     0.885567941
12.660392            0.418562295     0.883944581   0.000250418159 -0.000140375804   0.000250418159 -0.000140375804       0.41557778     0.885342123
12.66042             0.419002893      0.88371734   0.000250744038   -0.0001407334   0.000250744037   -0.0001407334      0.416020126     0.885115892
12.660448            0.419443724     0.883489687   0.000251070324 -0.000141091926   0.000251070324 -0.000141091926      0.416462707     0.884889246
12.660476            0.419884787     0.883261619   0.000251397019 -0.000141451382   0.000251397019 -0.000141451383      0.416905522     0.884662186
12.660504            0.420326084     0.883033136   0.000251724122 -0.000141811773   0.000251724122 -0.000141811774      0.417348572     0.884434711
12.660532            0.420767613     0.882804238   0.000252051633 -0.000142173101   0.000252051633 -0.000142173101      0.417791858     0.884206819
12.66056             0.421209376     0.882574923   0.000252379554 -0.000142535367   0.000252379554 -0.000142535368      0.418235378      0.88397851
12.660588            0.421651372     0.882345192   0.000252707883 -0.000142898576   0.000252707883 -0.000142898576      0.418679133     0.883749783
12.660616              0.4220936     0.882115042   0.000253036621 -0.000143262728   0.000253036621 -0.000143262729      0.419123123     0.883520638
12.660644            0.422536062     0.881884474   0.000253365769 -0.000143627828   0.000253365769 -0.000143627828      0.419567348     0.883291074
12.660672            0.422978758     0.881653487   0.000253695326 -0.000143993877   0.000253695326 -0.000143993877      0.420011809      0.88306109
12.6607              0.423421686      0.88142208   0.000254025293 -0.000144360878   0.000254025293 -0.000144360878      0.420456504     0.882830685
12.660728            0.423864848     0.881190252   0.000254355669 -0.000144728833   0.000254355669 -0.000144728834      0.420901435     0.882599858
12.660756            0.424308244     0.880958002   0.000254686456 -0.000145097746   0.000254686455 -0.000145097747      0.421346601     0.882368609
12.660784            0.424751872      0.88072533   0.000255017652 -0.000145467619   0.000255017652  -0.00014546762      0.421792003     0.882136938
12.660812            0.425195735     0.880492235   0.000255349259 -0.000145838455   0.000255349259 -0.000145838455       0.42223764     0.881904842
12.66084             0.425639831     0.880258716   0.000255681276 -0.000146210255   0.000255681276 -0.000146210256      0.422683512     0.881672322
12.660868             0.42608416     0.880024773   0.000256013704 -0.000146583024   0.000256013704 -0.000146583024       0.42312962     0.881439377
12.660896            0.426528723     0.879790404   0.000256346542 -0.000146956763   0.000256346542 -0.000146956763      0.423575964     0.881206005
12.660924             0.42697352     0.879555609   0.000256679792 -0.000147331475   0.000256679791 -0.000147331475      0.424022543     0.880972207
12.660952            0.427418551     0.879320387   0.000257013452 -0.000147707163   0.000257013452 -0.000147707163      0.424469358     0.880737982
12.66098             0.427863815     0.879084738   0.000257347524 -0.000148083829   0.000257347524  -0.00014808383      0.424916408     0.880503327
12.661008            0.428309313      0.87884866   0.000257682007 -0.000148461477   0.000257682006 -0.000148461477      0.425363695     0.880268244
12.661036            0.428755046     0.878612153   0.000258016901 -0.000148840109   0.000258016901 -0.000148840109      0.425811217     0.880032731
12.661064            0.429201012     0.878375216   0.000258352207 -0.000149219727   0.000258352207 -0.000149219727      0.426258975     0.879796787
12.661092            0.429647212     0.878137849   0.000258687925 -0.000149600334   0.000258687925 -0.000149600334      0.426706968     0.879560412
12.66112             0.430093646      0.87790005   0.000259024055 -0.000149981934   0.000259024054 -0.000149981934      0.427155198     0.879323605
12.661148            0.430540314     0.877661818   0.000259360596 -0.000150364528   0.000259360596 -0.000150364528      0.427603664     0.879086364
12.661176            0.430987216     0.877423154    0.00025969755 -0.000150748119    0.00025969755 -0.000150748119      0.428052366      0.87884869
12.661204            0.431434352     0.877184056   0.000260034916 -0.000151132711   0.000260034916 -0.000151132711      0.428501303     0.878610582
12.661232            0.431881723     0.876944523   0.000260372694 -0.000151518306   0.000260372694 -0.000151518306      0.428950477     0.878372037
12.66126             0.432329328     0.876704555   0.000260710885 -0.000151904906   0.000260710885 -0.000151904906      0.429399888     0.878133057
12.661288            0.432777167      0.87646415   0.000261049489 -0.000152292515   0.000261049489 -0.000152292515      0.429849534      0.87789364
12.661316             0.43322524     0.876223309   0.000261388505 -0.000152681135   0.000261388505 -0.000152681135      0.430299416     0.877653785
12.661344            0.433673548      0.87598203   0.000261727935 -0.000153070769   0.000261727934 -0.000153070769      0.430749535     0.877413492
12.661372             0.43412209     0.875740312   0.000262067777  -0.00015346142   0.000262067776  -0.00015346142       0.43119989      0.87717276
12.6614              0.434570867     0.875498155   0.000262408032  -0.00015385309   0.000262408032  -0.00015385309      0.431650482     0.876931587
12.661428            0.435019878     0.875255558     0.0002627487 -0.000154245783     0.0002627487 -0.000154245783       0.43210131     0.876689974
12.661456            0.435469123      0.87501252   0.000263089782 -0.000154639501   0.000263089782 -0.000154639501      0.432552374     0.876447919
12.661484            0.435918603      0.87476904   0.000263431277 -0.000155034247   0.000263431277 -0.000155034247      0.433003675     0.876205421
12.661512            0.436368318     0.874525118   0.000263773186 -0.000155430023   0.000263773185 -0.000155430024      0.433455212      0.87596248
12.66154             0.436818267     0.874280753   0.000264115508 -0.000155826834   0.000264115508 -0.000155826834      0.433906986     0.875719095
12.661568            0.437268451     0.874035943   0.000264458244 -0.000156224681   0.000264458243 -0.000156224681      0.434358997     0.875475266
12.661596             0.43771887     0.873790689   0.000264801393 -0.000156623567   0.000264801393 -0.000156623567      0.434811244      0.87523099
12.661624            0.438169523     0.873544988   0.000265144956 -0.000157023495   0.000265144956 -0.000157023496      0.435263727     0.874986268
12.661652            0.438620411     0.873298842   0.000265488934 -0.000157424469   0.000265488933 -0.000157424469      0.435716448     0.874741099
12.66168             0.439071534     0.873052248   0.000265833325  -0.00015782649   0.000265833325 -0.000157826491      0.436169405     0.874495482
12.661708            0.439522892     0.872805206    0.00026617813 -0.000158229562    0.00026617813 -0.000158229563      0.436622599     0.874249416
12.661736            0.439974484     0.872557715    0.00026652335 -0.000158633688    0.00026652335 -0.000158633689      0.437076029       0.8740029
12.661764            0.440426312     0.872309774   0.000266868983 -0.000159038871   0.000266868983 -0.000159038871      0.437529697     0.873755934
12.661792            0.440878374     0.872061383   0.000267215031 -0.000159445113   0.000267215031 -0.000159445113      0.437983601     0.873508516
12.66182             0.441330671      0.87181254   0.000267561494 -0.000159852417   0.000267561494 -0.000159852418      0.438437742     0.873260647
12.661848            0.441783203     0.871563245    0.00026790837 -0.000160260787    0.00026790837 -0.000160260787       0.43889212     0.873012324
12.661876            0.442235971     0.871313497   0.000268255662 -0.000160670225   0.000268255661 -0.000160670225      0.439346735     0.872763547
12.661904            0.442688973     0.871063295   0.000268603367 -0.000161080734   0.000268603367 -0.000161080735      0.439801587     0.872514316
12.661932             0.44314221     0.870812639   0.000268951488 -0.000161492318   0.000268951487 -0.000161492318      0.440256676      0.87226463
12.66196             0.443595682     0.870561527   0.000269300023 -0.000161904978   0.000269300022 -0.000161904978      0.440712002     0.872014487
12.661988             0.44404939     0.870309959   0.000269648972 -0.000162318719   0.000269648972 -0.000162318719      0.441167566     0.871763887
12.662016            0.444503332     0.870057934   0.000269998336 -0.000162733542   0.000269998336 -0.000162733542      0.441623366     0.871512829
12.662044             0.44495751      0.86980545   0.000270348115 -0.000163149452   0.000270348115 -0.000163149452      0.442079403     0.871261312
12.662072            0.445411923     0.869552509   0.000270698309  -0.00016356645   0.000270698309 -0.000163566451      0.442535677     0.871009336
12.6621              0.445866571     0.869299107   0.000271048918 -0.000163984541   0.000271048917 -0.000163984541      0.442992189       0.8707569
12.662128            0.446321454     0.869045245   0.000271399941 -0.000164403726   0.000271399941 -0.000164403727      0.443448937     0.870504002
12.662156            0.446776573     0.868790922   0.000271751379  -0.00016482401   0.000271751379  -0.00016482401      0.443905923     0.870250642
12.662184            0.447231927     0.868536136   0.000272103233 -0.000165245394   0.000272103232 -0.000165245395      0.444363146     0.869996819
12.662212            0.447687516     0.868280888   0.000272455501 -0.000165667883     0.0002724555 -0.000165667883      0.444820607     0.869742532
12.66224              0.44814334     0.868025175   0.000272808184 -0.000166091479   0.000272808183 -0.000166091479      0.445278304     0.869487781
12.662268              0.4485994     0.867768999   0.000273161282 -0.000166516185   0.000273161281 -0.000166516185      0.445736239     0.869232564
12.662296            0.449055695     0.867512356   0.000273514795 -0.000166942004   0.000273514794 -0.000166942004      0.446194411     0.868976881
12.662324            0.449512225     0.867255248   0.000273868722 -0.000167368939   0.000273868722 -0.000167368939      0.446652821     0.868720731
12.662352            0.449968991     0.866997672   0.000274223065 -0.000167796994   0.000274223065 -0.000167796994      0.447111467     0.868464113
12.66238             0.450425992     0.866739628   0.000274577823 -0.000168226171   0.000274577823 -0.000168226171      0.447570351     0.868207026
12.662408            0.450883229     0.866481115   0.000274932996 -0.000168656473   0.000274932995 -0.000168656474      0.448029473     0.867949469
12.662436            0.451340701     0.866222133   0.000275288583 -0.000169087905   0.000275288583 -0.000169087905      0.448488832     0.867691442
12.662464            0.451798408      0.86596268   0.000275644586 -0.000169520467   0.000275644585 -0.000169520468      0.448948428     0.867432943
12.662492            0.452256351     0.865702755   0.000276001003 -0.000169954165   0.000276001003 -0.000169954166      0.449408262     0.867173972
12.66252             0.452714529     0.865442358   0.000276357836 -0.000170389001   0.000276357835 -0.000170389001      0.449868333     0.866914528
12.662548            0.453172943     0.865181488   0.000276715083 -0.000170824978   0.000276715082 -0.000170824978      0.450328641      0.86665461
12.662576            0.453631593     0.864920144   0.000277072745 -0.000171262099   0.000277072744 -0.000171262099      0.450789187     0.866394217
12.662604            0.454090477     0.864658326   0.000277430822 -0.000171700367   0.000277430821 -0.000171700367      0.451249971     0.866133348
12.662632            0.454549598     0.864396031   0.000277789313 -0.000172139786   0.000277789313 -0.000172139786      0.451710992     0.865872003
12.66266             0.455008954      0.86413326    0.00027814822 -0.000172580358   0.000278148219 -0.000172580359       0.45217225      0.86561018
12.662688            0.455468545     0.863870011   0.000278507541 -0.000173022088    0.00027850754 -0.000173022088      0.452633746     0.865347879
12.662716            0.455928372     0.863606284   0.000278867276 -0.000173464977   0.000278867276 -0.000173464978      0.453095479     0.865085098
12.662744            0.456388434     0.863342078   0.000279227427  -0.00017390903   0.000279227426  -0.00017390903       0.45355745     0.864821838
12.662772            0.456848732     0.863077391   0.000279587991 -0.000174354249   0.000279587991  -0.00017435425      0.454019659     0.864558096
12.6628              0.457309266     0.862812224   0.000279948971 -0.000174800638    0.00027994897 -0.000174800639      0.454482105     0.864293873
12.662828            0.457770035     0.862546575   0.000280310364   -0.0001752482   0.000280310364   -0.0001752482      0.454944788     0.864029167
12.662856             0.45823104     0.862280443   0.000280672172 -0.000175696938   0.000280672172 -0.000175696938      0.455407709     0.863763978
12.662884             0.45869228     0.862013827   0.000281034395 -0.000176146855   0.000281034395 -0.000176146856      0.455870868     0.863498304
12.662912            0.459153756     0.861746727   0.000281397031 -0.000176597955   0.000281397031 -0.000176597956      0.456334264     0.863232144
12.66294             0.459615467     0.861479141   0.000281760082 -0.000177050241   0.000281760082 -0.000177050241      0.456797897     0.862965498
12.662968            0.460077414      0.86121107   0.000282123547 -0.000177503716   0.000282123547 -0.000177503716      0.457261769     0.862698365
12.662996            0.460539597     0.860942511   0.000282487426 -0.000177958383   0.000282487426 -0.000177958384      0.457725877     0.862430744
12.663024            0.461002015     0.860673464   0.000282851718 -0.000178414246   0.000282851718 -0.000178414247      0.458190224     0.862162635
12.663052            0.461464668     0.860403928   0.000283216425 -0.000178871308   0.000283216425 -0.000178871309      0.458654807     0.861894035
12.66308             0.461927558     0.860133902   0.000283581545 -0.000179329573   0.000283581545 -0.000179329573      0.459119629     0.861624944
12.663108            0.462390682     0.859863385   0.000283947079 -0.000179789043   0.000283947079 -0.000179789043      0.459584688     0.861355362
12.663136            0.462854043     0.859592377   0.000284313026 -0.000180249722   0.000284313026 -0.000180249722      0.460049984     0.861085288
12.663164            0.463317639     0.859320877   0.000284679387 -0.000180711613   0.000284679386 -0.000180711613      0.460515518      0.86081472
12.663192             0.46378147     0.859048882   0.000285046161  -0.00018117472    0.00028504616  -0.00018117472       0.46098129     0.860543657
12.66322             0.464245537     0.858776394   0.000285413348 -0.000181639045   0.000285413347 -0.000181639046      0.461447299       0.8602721
12.663248             0.46470984      0.85850341   0.000285780948 -0.000182104593   0.000285780947 -0.000182104594      0.461913545     0.860000046
12.663276            0.465174378      0.85822993   0.000286148961 -0.000182571367    0.00028614896 -0.000182571367       0.46238003     0.859727495
12.663304            0.465639152     0.857955953   0.000286517386  -0.00018303937   0.000286517386  -0.00018303937      0.462846751     0.859454446
12.663332            0.466104161     0.857681478   0.000286886225 -0.000183508605   0.000286886224 -0.000183508605       0.46331371     0.859180898
12.66336             0.466569406     0.857406505   0.000287255475 -0.000183979076   0.000287255475 -0.000183979076      0.463780907     0.858906851
12.663388            0.467034886     0.857131031   0.000287625139 -0.000184450786   0.000287625138 -0.000184450787      0.464248341     0.858632303
12.663416            0.467500602     0.856855057   0.000287995214 -0.000184923739   0.000287995214  -0.00018492374      0.464716013     0.858357253
12.663444            0.467966553     0.856578581   0.000288365701 -0.000185397938   0.000288365701 -0.000185397939      0.465183922       0.8580817
12.663472             0.46843274     0.856301602   0.000288736601 -0.000185873387     0.0002887366 -0.000185873387      0.465652068     0.857805644
12.6635              0.468899162      0.85602412   0.000289107912 -0.000186350089   0.000289107911 -0.000186350089      0.466120452     0.857529084
