! TOUCHSTONE file generated by CST MICROWAVE STUDIO
! Date and time: Wed Jul 31 13:09:00 2024
! Project name: WaveGuide_BPF-Ver4.1_U-shape_Ku_T3_C4_CWA_2.cst
! Parameters = {cavity_h=16; cavity_l0=10; cavity_l1=15.2178; cavity_l2=16.8678; cavity_l3=17.1013; cavity_l4=17.3066; cavity_l5=17.1499; cavity_l6=17.6128; cavity_r=2.5; cavity_screw_l=0.5; cavity_screw_r=1.5; cavity_w=8; iris_h00=0; iris_h01=8.799; iris_h112=0; iris_h12=5.609; iris_h211=3.6569; iris_h23=5.2034; iris_h310=3.9704; iris_h34=5.0918; iris_h45=4.9278; iris_h49=4.6157; iris_h56=4.8069; iris_h58=4.4374; iris_h67=6.5652; iris_rx=0.1; iris_screw_l=0.5; iris_screw_r=1.5; iris_shift00=0; iris_shift112=0; iris_shift211=3.5; iris_shift310=0; iris_shift49=0; iris_shift58=3.5; iris_shift67=3.5; iris_tx=4.5; iris_tz=4.5; iris_w00=0; iris_w112=0; iris_w211=4; iris_w310=3.9704; iris_w49=4.6157; iris_w58=4; iris_w67=4; mesh_cavity=5; mesh_iris=7; mesh_screw=7; order=12; reset_all=0; sigma=4.8e+07}
! Header version: 2018
! Port assignment regex: !\s*Touchstone port\s*([0-9]+)\s*=\s*(CST MWS port|CST DS port)\s*([0-9]+|Zmin|Zmax)\s*\(\"(.*)\"\)(\s*mode\s*([0-9]+))?.*
! Touchstone port assignment:
! Touchstone port 1 = CST MWS port 1 ("")
! Touchstone port 2 = CST MWS port 2 ("")
# GHz S RI R 50
12.66                0.344906212     0.916305525   0.000325580451 -0.000152238319    0.00032558045 -0.000152238319       0.34589989     0.916007664
12.660028            0.345340457     0.916123878   0.000326076171 -0.000152673456   0.000326076171 -0.000152673456       0.34633283     0.915826011
12.660056            0.345775023     0.915941841   0.000326572698 -0.000153109894   0.000326572698 -0.000153109893      0.346766146     0.915643949
12.660084            0.346209893      0.91575942   0.000327070042 -0.000153547627   0.000327070041 -0.000153547627      0.347199797     0.915461491
12.660112            0.346645048      0.91557662   0.000327568211 -0.000153986652    0.00032756821 -0.000153986652      0.347633742     0.915278652
12.66014             0.347080472     0.915393448   0.000328067216 -0.000154426964   0.000328067215 -0.000154426964      0.348067938     0.915095447
12.660168            0.347516164     0.915209902   0.000328567059 -0.000154868568   0.000328567058 -0.000154868568      0.348502387     0.914911876
12.660196            0.347952136     0.915025978   0.000329067734 -0.000155311473   0.000329067733 -0.000155311473      0.348937116     0.914727927
12.660224            0.348388389     0.914841674   0.000329569243 -0.000155755683   0.000329569243 -0.000155755683      0.349372125     0.914543599
12.660252            0.348824923     0.914656989   0.000330071588 -0.000156201203   0.000330071588 -0.000156201203      0.349807415     0.914358891
12.66028             0.349261738     0.914471924   0.000330574769 -0.000156648037   0.000330574769 -0.000156648036      0.350242986     0.914173804
12.660308            0.349698834     0.914286478   0.000331078788 -0.000157096188   0.000331078788 -0.000157096188      0.350678837     0.913988335
12.660336            0.350136212     0.914100648   0.000331583646 -0.000157545662   0.000331583646 -0.000157545662       0.35111497     0.913802485
12.660364            0.350573871     0.913914436   0.000332089344 -0.000157996462   0.000332089344 -0.000157996462      0.351551384     0.913616253
12.660392            0.351011813     0.913727839   0.000332595884 -0.000158448593   0.000332595883 -0.000158448592       0.35198808     0.913429637
12.66042             0.351450036     0.913540858   0.000333103266 -0.000158902058   0.000333103266 -0.000158902058      0.352425058     0.913242637
12.660448            0.351888542     0.913353491   0.000333611492 -0.000159356863   0.000333611492 -0.000159356863      0.352862317     0.913055253
12.660476            0.352327331     0.913165737   0.000334120564 -0.000159813011   0.000334120563 -0.000159813011      0.353299859     0.912867482
12.660504            0.352766402     0.912977597   0.000334630482 -0.000160270507   0.000334630481 -0.000160270507      0.353737684     0.912679326
12.660532            0.353205756     0.912789068   0.000335141247 -0.000160729355   0.000335141247 -0.000160729355      0.354175791     0.912490782
12.66056             0.353645393      0.91260015   0.000335652861 -0.000161189559   0.000335652861 -0.000161189559      0.354614181      0.91230185
12.660588            0.354085314     0.912410844   0.000336165326 -0.000161651124   0.000336165325 -0.000161651124      0.355052854      0.91211253
12.660616            0.354525519     0.912221146   0.000336678642 -0.000162114054   0.000336678641 -0.000162114054       0.35549181     0.911922819
12.660644            0.354966007     0.912031058    0.00033719281 -0.000162578354    0.00033719281 -0.000162578354       0.35593105     0.911732719
12.660672            0.355406779     0.911840577   0.000337707833 -0.000163044028   0.000337707832 -0.000163044027      0.356370574     0.911542227
12.6607              0.355847835     0.911649704    0.00033822371 -0.000163511079    0.00033822371 -0.000163511079      0.356810382     0.911351344
12.660728            0.356289176     0.911458437   0.000338740444 -0.000163979514   0.000338740443 -0.000163979514      0.357250474     0.911160068
12.660756            0.356730801     0.911266776   0.000339258035 -0.000164449336   0.000339258035 -0.000164449335       0.35769085     0.910968398
12.660784            0.357172712      0.91107472   0.000339776485 -0.000164920549   0.000339776485 -0.000164920549       0.35813151     0.910776333
12.660812            0.357614907     0.910882268   0.000340295796 -0.000165393158   0.000340295795 -0.000165393158      0.358572456     0.910583874
12.66084             0.358057387     0.910689419   0.000340815967 -0.000165867168   0.000340815967 -0.000165867168      0.359013687     0.910391019
12.660868            0.358500153     0.910496172   0.000341337001 -0.000166342583   0.000341337001 -0.000166342583      0.359455202     0.910197766
12.660896            0.358943205     0.910302527   0.000341858899 -0.000166819407   0.000341858898 -0.000166819407      0.359897004     0.910004117
12.660924            0.359386543     0.910108483   0.000342381662 -0.000167297646   0.000342381661 -0.000167297646       0.36033909     0.909810068
12.660952            0.359830166     0.909914038   0.000342905291 -0.000167777303    0.00034290529 -0.000167777303      0.360781463     0.909615621
12.66098             0.360274076     0.909719193   0.000343429787 -0.000168258383   0.000343429787 -0.000168258383      0.361224122     0.909420773
12.661008            0.360718273     0.909523946   0.000343955152 -0.000168740892   0.000343955152 -0.000168740891      0.361667067     0.909225525
12.661036            0.361162756     0.909328297   0.000344481387 -0.000169224832   0.000344481387 -0.000169224832      0.362110298     0.909029874
12.661064            0.361607526     0.909132244   0.000345008494  -0.00016971021   0.000345008493  -0.00016971021      0.362553816     0.908833822
12.661092            0.362052583     0.908935787   0.000345536472 -0.000170197029   0.000345536472 -0.000170197029      0.362997622     0.908637366
12.66112             0.362497928     0.908738925   0.000346065325 -0.000170685294   0.000346065324 -0.000170685294      0.363441714     0.908440505
12.661148             0.36294356     0.908541657   0.000346595052 -0.000171175011   0.000346595051  -0.00017117501      0.363886093      0.90824324
12.661176            0.363389479     0.908343983   0.000347125655 -0.000171666183   0.000347125654 -0.000171666182       0.36433076     0.908045569
12.661204            0.363835687     0.908145901   0.000347657136 -0.000172158815   0.000347657135 -0.000172158815      0.364775715     0.907847491
12.661232            0.364282183     0.907947411   0.000348189495 -0.000172652912   0.000348189494 -0.000172652912      0.365220957     0.907649005
12.66126             0.364728967     0.907748511   0.000348722734 -0.000173148479   0.000348722733 -0.000173148479      0.365666488     0.907450111
12.661288             0.36517604     0.907549202   0.000349256854 -0.000173645521   0.000349256853  -0.00017364552      0.366112307     0.907250808
12.661316            0.365623402     0.907349481   0.000349791856 -0.000174144041   0.000349791855 -0.000174144041      0.366558415     0.907051095
12.661344            0.366071052     0.907149349   0.000350327742 -0.000174644046   0.000350327741 -0.000174644046      0.367004812     0.906850971
12.661372            0.366518992     0.906948804   0.000350864512 -0.000175145539   0.000350864512 -0.000175145539      0.367451497     0.906650435
12.6614              0.366967221     0.906747846   0.000351402169 -0.000175648526   0.000351402168 -0.000175648526      0.367898472     0.906449486
12.661428             0.36741574     0.906546473   0.000351940712 -0.000176153012   0.000351940712 -0.000176153011      0.368345736     0.906248124
12.661456            0.367864548     0.906344686   0.000352480144    -0.000176659   0.000352480143    -0.000176659      0.368793289     0.906046348
12.661484            0.368313647     0.906142482   0.000353020466 -0.000177166497   0.000353020465 -0.000177166497      0.369241133     0.905844156
12.661512            0.368763035     0.905939862   0.000353561678 -0.000177675507   0.000353561677 -0.000177675507      0.369689266     0.905641548
12.66154             0.369212714     0.905736823   0.000354103782 -0.000178186035   0.000354103782 -0.000178186035       0.37013769     0.905438524
12.661568            0.369662684     0.905533367    0.00035464678 -0.000178698085    0.00035464678 -0.000178698085      0.370586404     0.905235081
12.661596            0.370112945      0.90532949   0.000355190672 -0.000179211663   0.000355190672 -0.000179211663      0.371035409      0.90503122
12.661624            0.370563496     0.905125194    0.00035573546 -0.000179726774    0.00035573546 -0.000179726774      0.371484704      0.90482694
12.661652            0.371014339     0.904920476   0.000356281145 -0.000180243423   0.000356281145 -0.000180243423      0.371934291     0.904622239
12.66168             0.371465473     0.904715336   0.000356827728 -0.000180761614   0.000356827728 -0.000180761614      0.372384169     0.904417116
12.661708            0.371916899     0.904509773   0.000357375211 -0.000181281353    0.00035737521 -0.000181281352      0.372834338     0.904211572
12.661736            0.372368616     0.904303787   0.000357923594 -0.000181802644   0.000357923593 -0.000181802644      0.373284799     0.904005604
12.661764            0.372820626     0.904097375   0.000358472878 -0.000182325493   0.000358472878 -0.000182325493      0.373735552     0.903799213
12.661792            0.373272928     0.903890538   0.000359023066 -0.000182849905   0.000359023066 -0.000182849904      0.374186597     0.903592397
12.66182             0.373725522     0.903683275   0.000359574158 -0.000183375884   0.000359574158 -0.000183375884      0.374637934     0.903385155
12.661848            0.374178409     0.903475584   0.000360126156 -0.000183903436   0.000360126155 -0.000183903436      0.375089564     0.903177487
12.661876            0.374631589     0.903267465    0.00036067906 -0.000184432567    0.00036067906 -0.000184432566      0.375541487     0.902969391
12.661904            0.375085062     0.903058917   0.000361232872  -0.00018496328   0.000361232872  -0.00018496328      0.375993702     0.902760866
12.661932            0.375538828     0.902849939   0.000361787593 -0.000185495581   0.000361787593 -0.000185495581       0.37644621     0.902551913
12.66196             0.375992888      0.90264053   0.000362343225 -0.000186029476   0.000362343224 -0.000186029476      0.376899012     0.902342529
12.661988            0.376447241     0.902430689   0.000362899768 -0.000186564969   0.000362899767 -0.000186564969      0.377352107     0.902132715
12.662016            0.376901888     0.902220415   0.000363457223 -0.000187102066   0.000363457223 -0.000187102066      0.377805496     0.901922468
12.662044            0.377356829     0.902009708   0.000364015593 -0.000187640772   0.000364015592 -0.000187640772      0.378259179     0.901711789
12.662072            0.377812064     0.901798566   0.000364574877 -0.000188181093   0.000364574877 -0.000188181092      0.378713156     0.901500675
12.6621              0.378267594     0.901586989   0.000365135078 -0.000188723032   0.000365135078 -0.000188723032      0.379167428     0.901289128
12.662128            0.378723419     0.901374975   0.000365696196 -0.000189266596   0.000365696196 -0.000189266596      0.379621994     0.901077144
12.662156            0.379179538     0.901162524   0.000366258234  -0.00018981179   0.000366258233  -0.00018981179      0.380076854     0.900864724
12.662184            0.379635952     0.900949635    0.00036682119  -0.00019035862    0.00036682119  -0.00019035862       0.38053201     0.900651867
12.662212            0.380092662     0.900736307   0.000367385069  -0.00019090709   0.000367385068  -0.00019090709      0.380987461     0.900438571
12.66224             0.380549667     0.900522538   0.000367949869 -0.000191457206   0.000367949868 -0.000191457205      0.381443207     0.900224836
12.662268            0.381006968     0.900308329   0.000368515593 -0.000192008973   0.000368515592 -0.000192008973      0.381899248     0.900010661
12.662296            0.381464564     0.900093678   0.000369082241 -0.000192562397   0.000369082241 -0.000192562396      0.382355586     0.899796045
12.662324            0.381922457     0.899878584   0.000369649815 -0.000193117483   0.000369649815 -0.000193117482      0.382812219     0.899580987
12.662352            0.382380646     0.899663047   0.000370218317 -0.000193674236   0.000370218316 -0.000193674236      0.383269149     0.899365486
12.66238             0.382839131     0.899447065   0.000370787746 -0.000194232662   0.000370787746 -0.000194232662      0.383726375     0.899149541
12.662408            0.383297913     0.899230637   0.000371358105 -0.000194792766   0.000371358105 -0.000194792766      0.384183897     0.898933152
12.662436            0.383756992     0.899013763   0.000371929395 -0.000195354555   0.000371929394 -0.000195354555      0.384641716     0.898716316
12.662464            0.384216368     0.898796441   0.000372501616 -0.000195918032   0.000372501616 -0.000195918032      0.385099832     0.898499034
12.662492            0.384676041     0.898578671    0.00037307477 -0.000196483205    0.00037307477 -0.000196483205      0.385558246     0.898281305
12.66252             0.385136011     0.898360451   0.000373648859 -0.000197050078   0.000373648858 -0.000197050077      0.386016956     0.898063126
12.662548            0.385596279     0.898141782   0.000374223882 -0.000197618656   0.000374223882 -0.000197618656      0.386475965     0.897844499
12.662576            0.386056845     0.897922661   0.000374799842 -0.000198188946   0.000374799842 -0.000198188946      0.386935271      0.89762542
12.662604            0.386517709     0.897703088    0.00037537674 -0.000198760953    0.00037537674 -0.000198760953      0.387394875     0.897405891
12.662632            0.386978871     0.897483062   0.000375954577 -0.000199334683   0.000375954576 -0.000199334683      0.387854777     0.897185909
12.66266             0.387440332     0.897262581   0.000376533353 -0.000199910141   0.000376533353 -0.000199910141      0.388314977     0.896965474
12.662688            0.387902091     0.897041646   0.000377113071 -0.000200487333   0.000377113071 -0.000200487333      0.388775476     0.896744584
12.662716            0.388364149     0.896820254   0.000377693731 -0.000201066265   0.000377693731 -0.000201066265      0.389236274     0.896523239
12.662744            0.388826506     0.896598406   0.000378275335 -0.000201646942   0.000378275334 -0.000201646941      0.389697371     0.896301438
12.662772            0.389289162       0.8963761   0.000378857883  -0.00020222937   0.000378857882 -0.000202229369      0.390158767      0.89607918
12.6628              0.389752118     0.896153335   0.000379441377 -0.000202813554   0.000379441376 -0.000202813554      0.390620462     0.895856464
12.662828            0.390215373      0.89593011   0.000380025817 -0.000203399501   0.000380025817 -0.000203399501      0.391082457     0.895633289
12.662856            0.390678928     0.895706424   0.000380611206 -0.000203987216   0.000380611206 -0.000203987216      0.391544751     0.895409653
12.662884            0.391142783     0.895482276   0.000381197544 -0.000204576706   0.000381197544 -0.000204576705      0.392007346     0.895185557
12.662912            0.391606938     0.895257666   0.000381784833 -0.000205167975   0.000381784832 -0.000205167974       0.39247024     0.894960998
12.66294             0.392071393     0.895032592   0.000382373073 -0.000205761029   0.000382373072 -0.000205761029      0.392933435     0.894735977
12.662968            0.392536149     0.894807053   0.000382962266 -0.000206355876   0.000382962265 -0.000206355875      0.393396931     0.894510492
12.662996            0.393001206     0.894581048   0.000383552412 -0.000206952519   0.000383552412 -0.000206952519      0.393860727     0.894284541
12.663024            0.393466563     0.894354577   0.000384143514 -0.000207550966   0.000384143513 -0.000207550966      0.394324824     0.894058125
12.663052            0.393932222     0.894127638   0.000384735571 -0.000208151222   0.000384735571 -0.000208151222      0.394789222     0.893831242
12.66308             0.394398182      0.89390023   0.000385328586 -0.000208753293   0.000385328585 -0.000208753293      0.395253922      0.89360389
12.663108            0.394864444     0.893672353   0.000385922559 -0.000209357185   0.000385922558 -0.000209357185      0.395718923      0.89337607
12.663136            0.395331007     0.893444004   0.000386517492 -0.000209962904   0.000386517491 -0.000209962904      0.396184226      0.89314778
12.663164            0.395797872     0.893215185   0.000387113385 -0.000210570457   0.000387113384 -0.000210570456      0.396649831     0.892919019
12.663192            0.396265039     0.892985892    0.00038771024 -0.000211179848   0.000387710239 -0.000211179847      0.397115737     0.892689786
12.66322             0.396732509     0.892756126   0.000388308057 -0.000211791084   0.000388308057 -0.000211791084      0.397581947      0.89246008
12.663248            0.397200281     0.892525885   0.000388906839 -0.000212404171   0.000388906839 -0.000212404171      0.398048458     0.892229901
12.663276            0.397668355     0.892295168   0.000389506586 -0.000213019116   0.000389506585 -0.000213019116      0.398515272     0.891999246
12.663304            0.398136733     0.892063975   0.000390107299 -0.000213635924   0.000390107298 -0.000213635924      0.398982389     0.891768115
12.663332            0.398605413     0.891832304   0.000390708979 -0.000214254601   0.000390708979 -0.000214254601       0.39944981     0.891536507
12.66336             0.399074397     0.891600154   0.000391311628 -0.000214875154   0.000391311627 -0.000214875154      0.399917533     0.891304422
12.663388            0.399543684     0.891367524   0.000391915246 -0.000215497589   0.000391915246 -0.000215497589       0.40038556     0.891071857
12.663416            0.400013274     0.891134414   0.000392519835 -0.000216121912   0.000392519834 -0.000216121911       0.40085389     0.890838812
12.663444            0.400483169     0.890900822   0.000393125396 -0.000216748128   0.000393125395 -0.000216748128      0.401322525     0.890605286
12.663472            0.400953367     0.890666747   0.000393731929 -0.000217376246   0.000393731928 -0.000217376245      0.401791463     0.890371278
12.6635              0.401423869     0.890432188   0.000394339436 -0.000218006269   0.000394339436 -0.000218006269      0.402260706     0.890136787
