! TOUCHSTONE file generated by CST MICROWAVE STUDIO
! Date and time: Wed Jul 31 13:12:04 2024
! Project name: WaveGuide_BPF-Ver4.1_U-shape_Ku_T3_C4_CWA_2.cst
! Parameters = {cavity_h=16; cavity_l0=10; cavity_l1=15.1814; cavity_l2=16.8836; cavity_l3=17.0948; cavity_l4=17.2883; cavity_l5=17.141; cavity_l6=17.6021; cavity_r=2.5; cavity_screw_l=0.5; cavity_screw_r=1.5; cavity_w=8; iris_h00=0; iris_h01=8.8376; iris_h112=0; iris_h12=5.5944; iris_h211=3.668; iris_h23=5.193; iris_h310=3.9627; iris_h34=5.0899; iris_h45=4.9214; iris_h49=4.6148; iris_h56=4.7998; iris_h58=4.4386; iris_h67=6.5906; iris_rx=0.1; iris_screw_l=0.5; iris_screw_r=1.5; iris_shift00=0; iris_shift112=0; iris_shift211=3.5; iris_shift310=0; iris_shift49=0; iris_shift58=3.5; iris_shift67=3.5; iris_tx=4.5; iris_tz=4.5; iris_w00=0; iris_w112=0; iris_w211=4; iris_w310=3.9627; iris_w49=4.6148; iris_w58=4; iris_w67=4; mesh_cavity=5; mesh_iris=7; mesh_screw=7; order=12; reset_all=0; sigma=4.8e+07}
! Header version: 2018
! Port assignment regex: !\s*Touchstone port\s*([0-9]+)\s*=\s*(CST MWS port|CST DS port)\s*([0-9]+|Zmin|Zmax)\s*\(\"(.*)\"\)(\s*mode\s*([0-9]+))?.*
! Touchstone port assignment:
! Touchstone port 1 = CST MWS port 1 ("")
! Touchstone port 2 = CST MWS port 2 ("")
# GHz S RI R 50
12.66                0.332219757     0.922435812   0.000330659658 -0.000150191721   0.000330659658 -0.000150191721      0.338242109     0.920201788
12.660028            0.332626785     0.922273091   0.000331176092 -0.000150618869   0.000331176092 -0.000150618869       0.33864979     0.920035683
12.660056            0.333034089     0.922110038   0.000331693445 -0.000151047289   0.000331693445 -0.000151047289       0.33905773     0.919869248
12.660084            0.333441663     0.921946654   0.000332211719 -0.000151476983   0.000332211718 -0.000151476984      0.339465927     0.919702482
12.660112            0.333849496     0.921782943   0.000332730917 -0.000151907954   0.000332730917 -0.000151907955      0.339874381     0.919535385
12.66014             0.334257581     0.921618907   0.000333251043 -0.000152340205   0.000333251042 -0.000152340205      0.340283092     0.919367956
12.660168            0.334665918     0.921454545   0.000333772097  -0.00015277374   0.000333772097  -0.00015277374      0.340692059     0.919200196
12.660196            0.335074512     0.921289854   0.000334294082 -0.000153208563   0.000334294082 -0.000153208564      0.341101285     0.919032102
12.660224            0.335483365     0.921124834   0.000334816999  -0.00015364468   0.000334816998  -0.00015364468      0.341510768     0.918863675
12.660252            0.335892476     0.920959484   0.000335340848 -0.000154082094   0.000335340848 -0.000154082095      0.341920509     0.918694914
12.66028             0.336301846     0.920793803   0.000335865633 -0.000154520811   0.000335865633 -0.000154520811      0.342330508     0.918525818
12.660308            0.336711474     0.920627792   0.000336391354 -0.000154960833   0.000336391354 -0.000154960833      0.342740766     0.918356386
12.660336            0.337121361     0.920461448   0.000336918014 -0.000155402165   0.000336918014 -0.000155402165      0.343151282     0.918186618
12.660364            0.337531508     0.920294772   0.000337445614 -0.000155844812   0.000337445614 -0.000155844812      0.343562058     0.918016513
12.660392            0.337941914     0.920127763   0.000337974156 -0.000156288778   0.000337974155 -0.000156288778      0.343973092      0.91784607
12.66042             0.338352579      0.91996042   0.000338503641 -0.000156734067   0.000338503641 -0.000156734067      0.344384386     0.917675289
12.660448            0.338763505     0.919792743   0.000339034071 -0.000157180683   0.000339034071 -0.000157180683      0.344795939      0.91750417
12.660476             0.33917469      0.91962473   0.000339565449 -0.000157628632   0.000339565449 -0.000157628632      0.345207752      0.91733271
12.660504            0.339586136     0.919456382   0.000340097775 -0.000158077917   0.000340097775 -0.000158077917      0.345619825     0.917160911
12.660532            0.339997842     0.919287697   0.000340631051 -0.000158528542   0.000340631051 -0.000158528542      0.346032158      0.91698877
12.66056             0.340409809     0.919118675    0.00034116528 -0.000158980513    0.00034116528 -0.000158980513      0.346444751     0.916816288
12.660588            0.340822037     0.918949315   0.000341700462 -0.000159433833   0.000341700462 -0.000159433833      0.346857606     0.916643464
12.660616            0.341234526     0.918779617     0.0003422366 -0.000159888508     0.0003422366 -0.000159888508       0.34727072     0.916470296
12.660644            0.341647277     0.918609579   0.000342773696  -0.00016034454   0.000342773695  -0.00016034454      0.347684096     0.916296785
12.660672            0.342060289     0.918439202    0.00034331175 -0.000160801936    0.00034331175 -0.000160801936      0.348097734     0.916122929
12.6607              0.342473563     0.918268484   0.000343850765 -0.000161260699   0.000343850764 -0.000161260699      0.348511632     0.915948729
12.660728            0.342887099     0.918097425   0.000344390742 -0.000161720834   0.000344390742 -0.000161720834      0.348925793     0.915774182
12.660756            0.343300897     0.917926024   0.000344931684 -0.000162182346   0.000344931683 -0.000162182346      0.349340215      0.91559929
12.660784            0.343714958      0.91775428   0.000345473591 -0.000162645238   0.000345473591 -0.000162645238      0.349754899      0.91542405
12.660812            0.344129281     0.917582193   0.000346016467 -0.000163109516   0.000346016466 -0.000163109516      0.350169846     0.915248462
12.66084             0.344543868     0.917409762   0.000346560311 -0.000163575185   0.000346560311 -0.000163575185      0.350585056     0.915072526
12.660868            0.344958717     0.917236986   0.000347105127 -0.000164042248   0.000347105127 -0.000164042248      0.351000528      0.91489624
12.660896             0.34537383     0.917063865   0.000347650915  -0.00016451071   0.000347650915  -0.00016451071      0.351416263     0.914719604
12.660924            0.345789206     0.916890398   0.000348197679 -0.000164980576   0.000348197678 -0.000164980576      0.351832261     0.914542618
12.660952            0.346204847     0.916716584   0.000348745418 -0.000165451851   0.000348745418 -0.000165451851      0.352248523     0.914365281
12.66098             0.346620751     0.916542423   0.000349294136 -0.000165924539   0.000349294136 -0.000165924539      0.352665048     0.914187591
12.661008             0.34703692     0.916367914   0.000349843834 -0.000166398645   0.000349843834 -0.000166398645      0.353081838     0.914009549
12.661036            0.347453353     0.916193055   0.000350394513 -0.000166874174   0.000350394513 -0.000166874174      0.353498891     0.913831153
12.661064             0.34787005     0.916017848   0.000350946176  -0.00016735113   0.000350946176  -0.00016735113      0.353916209     0.913652403
12.661092            0.348287013      0.91584229   0.000351498824 -0.000167829518   0.000351498824 -0.000167829519      0.354333791     0.913473298
12.66112             0.348704241     0.915666381   0.000352052459 -0.000168309343   0.000352052458 -0.000168309344      0.354751638     0.913293838
12.661148            0.349121734      0.91549012   0.000352607082  -0.00016879061   0.000352607082  -0.00016879061       0.35516975     0.913114021
12.661176            0.349539492     0.915313507   0.000353162696 -0.000169273323   0.000353162696 -0.000169273323      0.355588127     0.912933847
12.661204            0.349957517     0.915136541   0.000353719302 -0.000169757487   0.000353719302 -0.000169757487      0.356006769     0.912753316
12.661232            0.350375807     0.914959221   0.000354276902 -0.000170243107   0.000354276902 -0.000170243107      0.356425677     0.912572426
12.66126             0.350794364     0.914781547   0.000354835498 -0.000170730188   0.000354835498 -0.000170730188      0.356844851     0.912391176
12.661288            0.351213187     0.914603517   0.000355395092 -0.000171218735   0.000355395091 -0.000171218735      0.357264291     0.912209567
12.661316            0.351632277     0.914425132   0.000355955684 -0.000171708752   0.000355955684 -0.000171708752      0.357683997     0.912027597
12.661344            0.352051634     0.914246389   0.000356517278 -0.000172200245   0.000356517278 -0.000172200245       0.35810397     0.911845266
12.661372            0.352471258      0.91406729   0.000357079875 -0.000172693217   0.000357079874 -0.000172693218      0.358524209     0.911662572
12.6614              0.352891149     0.913887832   0.000357643476 -0.000173187676   0.000357643476 -0.000173187676      0.358944715     0.911479516
12.661428            0.353311308     0.913708015   0.000358208083 -0.000173683624   0.000358208083 -0.000173683624      0.359365489     0.911296096
12.661456            0.353731735     0.913527839   0.000358773699 -0.000174181067   0.000358773699 -0.000174181068      0.359786529     0.911112312
12.661484             0.35415243     0.913347303   0.000359340325 -0.000174680011   0.000359340325 -0.000174680011      0.360207838     0.910928163
12.661512            0.354573392     0.913166405   0.000359907963  -0.00017518046   0.000359907962  -0.00017518046      0.360629414     0.910743648
12.66154             0.354994624     0.912985146   0.000360476614 -0.000175682419   0.000360476613 -0.000175682419      0.361051258     0.910558766
12.661568            0.355416124     0.912803524    0.00036104628 -0.000176185893    0.00036104628 -0.000176185893       0.36147337     0.910373517
12.661596            0.355837893     0.912621539   0.000361616964 -0.000176690887   0.000361616963 -0.000176690887      0.361895751       0.9101879
12.661624            0.356259931     0.912439191   0.000362188666 -0.000177197407   0.000362188666 -0.000177197407      0.362318401     0.910001914
12.661652            0.356682238     0.912256477   0.000362761389 -0.000177705457   0.000362761389 -0.000177705457      0.362741319     0.909815559
12.66168             0.357104815     0.912073398   0.000363335135 -0.000178215042   0.000363335135 -0.000178215042      0.363164506     0.909628833
12.661708            0.357527662     0.911889953   0.000363909905 -0.000178726168   0.000363909905 -0.000178726168      0.363587963     0.909441736
12.661736            0.357950779      0.91170614   0.000364485701  -0.00017923884   0.000364485701  -0.00017923884       0.36401169     0.909254268
12.661764            0.358374166     0.911521961   0.000365062525 -0.000179753063   0.000365062525 -0.000179753063      0.364435686     0.909066427
12.661792            0.358797823     0.911337412   0.000365640379 -0.000180268842   0.000365640379 -0.000180268842      0.364859952     0.908878212
12.66182             0.359221751     0.911152495   0.000366219264 -0.000180786182   0.000366219264 -0.000180786182      0.365284488     0.908689624
12.661848             0.35964595     0.910967207   0.000366799183 -0.000181305089   0.000366799183 -0.000181305089      0.365709294      0.90850066
12.661876             0.36007042     0.910781549   0.000367380137 -0.000181825567   0.000367380137 -0.000181825567      0.366134372     0.908311321
12.661904            0.360495162     0.910595519   0.000367962128 -0.000182347623   0.000367962128 -0.000182347623       0.36655972     0.908121606
12.661932            0.360920175     0.910409117   0.000368545157 -0.000182871261   0.000368545157 -0.000182871261      0.366985339     0.907931513
12.66196              0.36134546     0.910222343   0.000369129228 -0.000183396486   0.000369129227 -0.000183396486      0.367411229     0.907741043
12.661988            0.361771017     0.910035194    0.00036971434 -0.000183923305    0.00036971434 -0.000183923305      0.367837391     0.907550194
12.662016            0.362196846     0.909847671   0.000370300497 -0.000184451721   0.000370300497 -0.000184451721      0.368263825     0.907358965
12.662044            0.362622947     0.909659772     0.0003708877 -0.000184981742     0.0003708877 -0.000184981742      0.368690531     0.907167356
12.662072            0.363049322     0.909471498   0.000371475951 -0.000185513371    0.00037147595 -0.000185513371      0.369117509     0.906975366
12.6621              0.363475969     0.909282847   0.000372065251 -0.000186046615   0.000372065251 -0.000186046615      0.369544759     0.906782994
12.662128            0.363902889     0.909093818   0.000372655603 -0.000186581478   0.000372655603 -0.000186581479      0.369972281      0.90659024
12.662156            0.364330083     0.908904411   0.000373247008 -0.000187117967   0.000373247008 -0.000187117968      0.370400077     0.906397102
12.662184             0.36475755     0.908714624   0.000373839469 -0.000187656087   0.000373839468 -0.000187656087      0.370828146      0.90620358
12.662212            0.365185291     0.908524458   0.000374432986 -0.000188195843   0.000374432986 -0.000188195843      0.371256488     0.906009674
12.66224             0.365613306     0.908333911   0.000375027562  -0.00018873724   0.000375027562 -0.000188737241      0.371685103     0.905815381
12.662268            0.366041595     0.908142983   0.000375623199 -0.000189280285   0.000375623199 -0.000189280285      0.372113992     0.905620702
12.662296            0.366470159     0.907951672   0.000376219899 -0.000189824983   0.000376219898 -0.000189824983      0.372543155     0.905425635
12.662324            0.366898997     0.907759978   0.000376817662 -0.000190371339   0.000376817662 -0.000190371339      0.372972592     0.905230181
12.662352             0.36732811       0.9075679   0.000377416492 -0.000190919359   0.000377416492 -0.000190919359      0.373402303     0.905034337
12.66238             0.367757499     0.907375438    0.00037801639 -0.000191469048    0.00037801639 -0.000191469048      0.373832289     0.904838104
12.662408            0.368187162      0.90718259   0.000378617358 -0.000192020412   0.000378617358 -0.000192020413       0.37426255      0.90464148
12.662436            0.368617102     0.906989356   0.000379219397 -0.000192573458   0.000379219397 -0.000192573458      0.374693086     0.904444464
12.662464            0.369047317     0.906795735    0.00037982251 -0.000193128189    0.00037982251  -0.00019312819      0.375123897     0.904247057
12.662492            0.369477808     0.906601727   0.000380426699 -0.000193684613   0.000380426698 -0.000193684614      0.375554983     0.904049257
12.66252             0.369908575     0.906407329   0.000381031964 -0.000194242735   0.000381031964 -0.000194242735      0.375986345     0.903851062
12.662548            0.370339619     0.906212542   0.000381638309  -0.00019480256   0.000381638309 -0.000194802561      0.376417983     0.903652474
12.662576             0.37077094     0.906017365   0.000382245735 -0.000195364095   0.000382245734 -0.000195364095      0.376849897     0.903453489
12.662604            0.371202537     0.905821797   0.000382854243 -0.000195927345   0.000382854243 -0.000195927345      0.377282087     0.903254109
12.662632            0.371634412     0.905625837   0.000383463836 -0.000196492316   0.000383463835 -0.000196492316      0.377714554     0.903054331
12.66266             0.372066564     0.905429484   0.000384074515 -0.000197059013   0.000384074515 -0.000197059013      0.378147298     0.902854156
12.662688            0.372498993     0.905232738   0.000384686283 -0.000197627443   0.000384686282 -0.000197627443      0.378580319     0.902653582
12.662716              0.3729317     0.905035598   0.000385299141 -0.000198197612    0.00038529914 -0.000198197612      0.379013616     0.902452608
12.662744            0.373364686     0.904838062   0.000385913091 -0.000198769524    0.00038591309 -0.000198769524      0.379447191     0.902251234
12.662772            0.373797949     0.904640131   0.000386528134 -0.000199343187   0.000386528134 -0.000199343187      0.379881044     0.902049459
12.6628              0.374231491     0.904441802   0.000387144274 -0.000199918606   0.000387144273 -0.000199918606      0.380315175     0.901847282
12.662828            0.374665312     0.904243076   0.000387761511 -0.000200495787   0.000387761511 -0.000200495787      0.380749583     0.901644702
12.662856            0.375099411     0.904043952   0.000388379847 -0.000201074737   0.000388379847 -0.000201074737       0.38118427     0.901441718
12.662884             0.37553379     0.903844429   0.000388999285  -0.00020165546   0.000388999285  -0.00020165546      0.381619236      0.90123833
12.662912            0.375968448     0.903644505   0.000389619826 -0.000202237963   0.000389619826 -0.000202237963       0.38205448     0.901034536
12.66294             0.376403386     0.903444181   0.000390241472 -0.000202822252   0.000390241472 -0.000202822253      0.382490003     0.900830337
12.662968            0.376838603     0.903243454   0.000390864226 -0.000203408334   0.000390864225 -0.000203408334      0.382925805      0.90062573
12.662996            0.377274101     0.903042325   0.000391488087 -0.000203996214   0.000391488087 -0.000203996214      0.383361887     0.900420715
12.663024            0.377709878     0.902840793    0.00039211306 -0.000204585898   0.000392113059 -0.000204585898      0.383798248     0.900215291
12.663052            0.378145936     0.902638857   0.000392739145 -0.000205177393   0.000392739144 -0.000205177393      0.384234889     0.900009458
12.66308             0.378582275     0.902436515   0.000393366344 -0.000205770704   0.000393366344 -0.000205770704       0.38467181     0.899803214
12.663108            0.379018895     0.902233768    0.00039399466 -0.000206365838   0.000393994659 -0.000206365838      0.385109011     0.899596559
12.663136            0.379455796     0.902030613   0.000394624093 -0.000206962801   0.000394624093 -0.000206962801      0.385546493     0.899389492
12.663164            0.379892978     0.901827051   0.000395254647 -0.000207561599   0.000395254647 -0.000207561599      0.385984255     0.899182012
12.663192            0.380330442     0.901623081   0.000395886323 -0.000208162239   0.000395886322 -0.000208162239      0.386422298     0.898974117
12.66322             0.380768188     0.901418701   0.000396519122 -0.000208764726   0.000396519122 -0.000208764727      0.386860623     0.898765808
12.663248            0.381206215     0.901213911   0.000397153047 -0.000209369068   0.000397153047 -0.000209369068      0.387299228     0.898557084
12.663276            0.381644525      0.90100871   0.000397788099  -0.00020997527   0.000397788099  -0.00020997527      0.387738116     0.898347943
12.663304            0.382083118     0.900803097   0.000398424281 -0.000210583338   0.000398424281 -0.000210583339      0.388177284     0.898138384
12.663332            0.382521993     0.900597071   0.000399061594  -0.00021119328   0.000399061594  -0.00021119328      0.388616735     0.897928407
12.66336              0.38296115     0.900390631    0.00039970004 -0.000211805101    0.00039970004 -0.000211805101      0.389056468     0.897718011
12.663388            0.383400592     0.900183777   0.000400339622 -0.000212418808   0.000400339621 -0.000212418808      0.389496484     0.897507195
12.663416            0.383840316     0.899976508    0.00040098034 -0.000213034407   0.000400980339 -0.000213034407      0.389936782     0.897295958
12.663444            0.384280324     0.899768822   0.000401622196 -0.000213651905   0.000401622196 -0.000213651905      0.390377363     0.897084299
12.663472            0.384720616     0.899560719   0.000402265194 -0.000214271308   0.000402265194 -0.000214271309      0.390818227     0.896872218
12.6635              0.385161191     0.899352198   0.000402909334 -0.000214892623   0.000402909334 -0.000214892624      0.391259374     0.896659713
