! TOUCHSTONE file generated by CST MICROWAVE STUDIO
! Date and time: Wed Jul 31 13:15:14 2024
! Project name: WaveGuide_BPF-Ver4.1_U-shape_Ku_T3_C4_CWA_2.cst
! Parameters = {cavity_h=16; cavity_l0=10; cavity_l1=15.2121; cavity_l2=16.8059; cavity_l3=17.1119; cavity_l4=17.3052; cavity_l5=17.1372; cavity_l6=17.6075; cavity_r=2.5; cavity_screw_l=0.5; cavity_screw_r=1.5; cavity_w=8; iris_h00=0; iris_h01=8.8179; iris_h112=0; iris_h12=5.6081; iris_h211=3.6639; iris_h23=5.1969; iris_h310=3.9674; iris_h34=5.0835; iris_h45=4.9381; iris_h49=4.6119; iris_h56=4.7977; iris_h58=4.4379; iris_h67=6.5648; iris_rx=0.1; iris_screw_l=0.5; iris_screw_r=1.5; iris_shift00=0; iris_shift112=0; iris_shift211=3.5; iris_shift310=0; iris_shift49=0; iris_shift58=3.5; iris_shift67=3.5; iris_tx=4.5; iris_tz=4.5; iris_w00=0; iris_w112=0; iris_w211=4; iris_w310=3.9674; iris_w49=4.6119; iris_w58=4; iris_w67=4; mesh_cavity=5; mesh_iris=7; mesh_screw=7; order=12; reset_all=0; sigma=4.8e+07}
! Header version: 2018
! Port assignment regex: !\s*Touchstone port\s*([0-9]+)\s*=\s*(CST MWS port|CST DS port)\s*([0-9]+|Zmin|Zmax)\s*\(\"(.*)\"\)(\s*mode\s*([0-9]+))?.*
! Touchstone port assignment:
! Touchstone port 1 = CST MWS port 1 ("")
! Touchstone port 2 = CST MWS port 2 ("")
# GHz S RI R 50
12.66                0.367143478     0.908404955   0.000189372295 -9.05707671e-05   0.000189372294  -9.0570767e-05      0.363037506     0.910061915
12.660028            0.367558537     0.908221817   0.000189603581 -9.07935151e-05    0.00018960358  -9.0793515e-05      0.363453923     0.909880426
12.660056            0.367973866     0.908038324   0.000189835136  -9.1016809e-05   0.000189835135 -9.10168089e-05      0.363870581     0.909698595
12.660084            0.368389446     0.907854485   0.000190066963 -9.12406476e-05   0.000190066962 -9.12406475e-05      0.364287473     0.909516424
12.660112            0.368805253     0.907670307   0.000190299064 -9.14650299e-05   0.000190299064 -9.14650298e-05       0.36470459     0.909333917
12.66014             0.369221267     0.907485798   0.000190531444 -9.16899549e-05   0.000190531443 -9.16899548e-05      0.365121926     0.909151076
12.660168            0.369637487     0.907300958   0.000190764101 -9.19154238e-05     0.0001907641 -9.19154237e-05      0.365539479     0.908967899
12.660196            0.370053929      0.90711578   0.000190997034 -9.21414397e-05   0.000190997033 -9.21414396e-05      0.365957256     0.908784385
12.660224            0.370470591     0.906930264   0.000191230243 -9.23680039e-05   0.000191230243 -9.23680038e-05      0.366375256     0.908600533
12.660252            0.370887475     0.906744409   0.000191463729 -9.25951178e-05   0.000191463728 -9.25951177e-05       0.36679348     0.908416342
12.66028              0.37130458     0.906558215   0.000191697491 -9.28227828e-05    0.00019169749 -9.28227827e-05      0.367211927     0.908231812
12.660308            0.371721906      0.90637168    0.00019193153 -9.30510002e-05   0.000191931529 -9.30510002e-05      0.367630599     0.908046942
12.660336            0.372139454     0.906184806   0.000192165845 -9.32797715e-05   0.000192165845 -9.32797714e-05      0.368049493     0.907861731
12.660364            0.372557223      0.90599759   0.000192400438  -9.3509098e-05   0.000192400437 -9.35090979e-05      0.368468612     0.907676179
12.660392            0.372975214     0.905810032   0.000192635307 -9.37389812e-05   0.000192635307 -9.37389811e-05      0.368887955     0.907490286
12.66042             0.373393427     0.905622133   0.000192870454 -9.39694223e-05   0.000192870454 -9.39694222e-05      0.369307521     0.907304051
12.660448            0.373811861      0.90543389   0.000193105878 -9.42004228e-05   0.000193105878 -9.42004227e-05      0.369727312     0.907117473
12.660476            0.374230517     0.905245304    0.00019334158 -9.44319841e-05   0.000193341579  -9.4431984e-05      0.370147327     0.906930551
12.660504            0.374649395     0.905056374   0.000193577559 -9.46641076e-05   0.000193577558 -9.46641075e-05      0.370567566     0.906743286
12.660532            0.375068495     0.904867099   0.000193813815 -9.48967947e-05   0.000193813815 -9.48967946e-05       0.37098803     0.906555676
12.66056             0.375487817     0.904677479    0.00019405035 -9.51300469e-05   0.000194050349 -9.51300468e-05      0.371408718      0.90636772
12.660588            0.375907362     0.904487514   0.000194287162 -9.53638654e-05   0.000194287162 -9.53638653e-05       0.37182963     0.906179419
12.660616            0.376327128     0.904297202   0.000194524253 -9.55982518e-05   0.000194524252 -9.55982517e-05      0.372250767     0.905990772
12.660644            0.376747117     0.904106543   0.000194761622 -9.58332075e-05   0.000194761621 -9.58332074e-05      0.372672129     0.905801778
12.660672            0.377167328     0.903915536   0.000194999269 -9.60687338e-05   0.000194999268 -9.60687337e-05      0.373093715     0.905612436
12.6607              0.377587761     0.903724182   0.000195237194 -9.63048323e-05   0.000195237194 -9.63048322e-05      0.373515527     0.905422747
12.660728            0.378008417     0.903532479   0.000195475398 -9.65415043e-05   0.000195475398 -9.65415042e-05      0.373937563     0.905232708
12.660756            0.378429296     0.903340426   0.000195713881 -9.67787513e-05    0.00019571388 -9.67787512e-05      0.374359824      0.90504232
12.660784            0.378850397     0.903148023   0.000195952643 -9.70165747e-05   0.000195952642 -9.70165746e-05       0.37478231     0.904851583
12.660812            0.379271721      0.90295527   0.000196191683 -9.72549759e-05   0.000196191682 -9.72549758e-05      0.375205022     0.904660494
12.66084             0.379693268     0.902762166   0.000196431002 -9.74939565e-05   0.000196431002 -9.74939564e-05      0.375627958     0.904469055
12.660868            0.380115038      0.90256871   0.000196670601 -9.77335178e-05     0.0001966706 -9.77335177e-05       0.37605112     0.904277264
12.660896             0.38053703     0.902374902   0.000196910479 -9.79736613e-05   0.000196910478 -9.79736612e-05      0.376474507     0.904085121
12.660924            0.380959246     0.902180741   0.000197150636 -9.82143884e-05   0.000197150635 -9.82143883e-05       0.37689812     0.903892625
12.660952            0.381381685     0.901986226   0.000197391073 -9.84557007e-05   0.000197391072 -9.84557006e-05      0.377321958     0.903699775
12.66098             0.381804347     0.901791357   0.000197631789 -9.86975996e-05   0.000197631788 -9.86975994e-05      0.377746021     0.903506571
12.661008            0.382227232     0.901596133   0.000197872785 -9.89400864e-05   0.000197872784 -9.89400863e-05      0.378170311     0.903313013
12.661036             0.38265034     0.901400554    0.00019811406 -9.91831628e-05    0.00019811406 -9.91831627e-05      0.378594826     0.903119099
12.661064            0.383073672      0.90120462   0.000198355616 -9.94268302e-05   0.000198355615 -9.94268301e-05      0.379019567     0.902924829
12.661092            0.383497228     0.901008328   0.000198597451 -9.96710901e-05   0.000198597451   -9.967109e-05      0.379444533     0.902730203
12.66112             0.383921007      0.90081168   0.000198839567 -9.99159439e-05   0.000198839566 -9.99159438e-05      0.379869726     0.902535219
12.661148            0.384345009     0.900614673   0.000199081962 -0.000100161393   0.000199081962 -0.000100161393      0.380295145     0.902339878
12.661176            0.384769235     0.900417308   0.000199324638 -0.000100407439   0.000199324638 -0.000100407439       0.38072079     0.902144178
12.661204            0.385193685     0.900219585   0.000199567595 -0.000100654084   0.000199567594 -0.000100654084      0.381146661     0.901948119
12.661232            0.385618359     0.900021501   0.000199810832 -0.000100901328   0.000199810831 -0.000100901328      0.381572758     0.901751701
12.66126             0.386043256     0.899823058   0.000200054349 -0.000101149174   0.000200054348 -0.000101149174      0.381999082     0.901554922
12.661288            0.386468378     0.899624253   0.000200298147 -0.000101397623   0.000200298146 -0.000101397623      0.382425632     0.901357783
12.661316            0.386893723     0.899425087   0.000200542226 -0.000101646676   0.000200542225 -0.000101646676      0.382852408     0.901160282
12.661344            0.387319293     0.899225559   0.000200786585 -0.000101896335   0.000200786585 -0.000101896335      0.383279411     0.900962419
12.661372            0.387745086     0.899025668   0.000201031226 -0.000102146602   0.000201031225 -0.000102146602      0.383706641     0.900764193
12.6614              0.388171104     0.898825414   0.000201276147 -0.000102397477   0.000201276147 -0.000102397477      0.384134097     0.900565603
12.661428            0.388597346     0.898624796    0.00020152135 -0.000102648963   0.000201521349 -0.000102648963       0.38456178      0.90036665
12.661456            0.389023813     0.898423813   0.000201766834 -0.000102901061   0.000201766833 -0.000102901061       0.38498969     0.900167332
12.661484            0.389450504     0.898222466   0.000202012599 -0.000103153773   0.000202012598 -0.000103153772      0.385417827     0.899967649
12.661512            0.389877419     0.898020752   0.000202258645 -0.000103407099   0.000202258644 -0.000103407099       0.38584619       0.8997676
12.66154             0.390304559     0.897818672   0.000202504973 -0.000103661042   0.000202504972 -0.000103661042      0.386274781     0.899567185
12.661568            0.390731924     0.897616224   0.000202751582 -0.000103915603   0.000202751581 -0.000103915603      0.386703599     0.899366402
12.661596            0.391159513     0.897413409   0.000202998473 -0.000104170784   0.000202998472 -0.000104170784      0.387132644     0.899165252
12.661624            0.391587327     0.897210226   0.000203245645 -0.000104426587   0.000203245644 -0.000104426586      0.387561916     0.898963733
12.661652            0.392015365     0.897006674   0.000203493099 -0.000104683012   0.000203493099 -0.000104683011      0.387991415     0.898761845
12.66168             0.392443629     0.896802752   0.000203740835 -0.000104940061   0.000203740834 -0.000104940061      0.388421142     0.898559588
12.661708            0.392872117      0.89659846   0.000203988853 -0.000105197736   0.000203988852 -0.000105197736      0.388851096      0.89835696
12.661736            0.393300831     0.896393797   0.000204237152 -0.000105456039   0.000204237152 -0.000105456039      0.389281278     0.898153961
12.661764            0.393729769     0.896188762   0.000204485734  -0.00010571497   0.000204485733  -0.00010571497      0.389711687     0.897950591
12.661792            0.394158933     0.895983355   0.000204734597 -0.000105974533   0.000204734597 -0.000105974532      0.390142324     0.897746848
12.66182             0.394588321     0.895777576   0.000204983743 -0.000106234727   0.000204983742 -0.000106234727      0.390573188     0.897542733
12.661848            0.395017935     0.895571423   0.000205233171 -0.000106495555    0.00020523317 -0.000106495555      0.391004281     0.897338244
12.661876            0.395447775     0.895364896   0.000205482881 -0.000106757019    0.00020548288 -0.000106757018      0.391435601      0.89713338
12.661904            0.395877839     0.895157994   0.000205732873 -0.000107019119   0.000205732872 -0.000107019119      0.391867149     0.896928142
12.661932            0.396308129     0.894950717   0.000205983147 -0.000107281858   0.000205983147 -0.000107281858      0.392298924     0.896722529
12.66196             0.396738644     0.894743063   0.000206233704 -0.000107545237   0.000206233704 -0.000107545237      0.392730928     0.896516539
12.661988            0.397169385     0.894535033   0.000206484544 -0.000107809258   0.000206484543 -0.000107809257       0.39316316     0.896310173
12.662016            0.397600352     0.894326626   0.000206735666 -0.000108073922   0.000206735665 -0.000108073921       0.39359562     0.896103429
12.662044            0.398031544     0.894117841    0.00020698707  -0.00010833923   0.000206987069  -0.00010833923      0.394028308     0.895896307
12.662072            0.398462962     0.893908677   0.000207238757 -0.000108605186   0.000207238756 -0.000108605186      0.394461225     0.895688807
12.6621              0.398894605     0.893699134   0.000207490726 -0.000108871789   0.000207490726 -0.000108871789       0.39489437     0.895480927
12.662128            0.399326475     0.893489211   0.000207742979 -0.000109139042   0.000207742978 -0.000109139042      0.395327743     0.895272667
12.662156             0.39975857     0.893278907   0.000207995513 -0.000109406947   0.000207995513 -0.000109406947      0.395761344     0.895064026
12.662184            0.400190891     0.893068223   0.000208248331 -0.000109675505    0.00020824833 -0.000109675505      0.396195174     0.894855004
12.662212            0.400623438     0.892857156   0.000208501431 -0.000109944717   0.000208501431 -0.000109944717      0.396629233       0.8946456
12.66224             0.401056211     0.892645706   0.000208754814 -0.000110214585   0.000208754814 -0.000110214585       0.39706352     0.894435814
12.662268             0.40148921     0.892433874    0.00020900848 -0.000110485112    0.00020900848 -0.000110485111      0.397498036     0.894225644
12.662296            0.401922436     0.892221657   0.000209262429 -0.000110756297   0.000209262429 -0.000110756297       0.39793278      0.89401509
12.662324            0.402355887     0.892009057   0.000209516661 -0.000111028144    0.00020951666 -0.000111028144      0.398367753     0.893804151
12.662352            0.402789565      0.89179607   0.000209771176 -0.000111300654   0.000209771175 -0.000111300654      0.398802955     0.893592827
12.66238             0.403223469     0.891582698   0.000210025973 -0.000111573828   0.000210025973 -0.000111573828      0.399238386     0.893381117
12.662408            0.403657599      0.89136894   0.000210281054 -0.000111847669   0.000210281053 -0.000111847669      0.399674046      0.89316902
12.662436            0.404091956     0.891154794   0.000210536417 -0.000112122177   0.000210536417 -0.000112122177      0.400109935     0.892956536
12.662464            0.404526539      0.89094026   0.000210792064 -0.000112397355   0.000210792063 -0.000112397354      0.400546053     0.892743664
12.662492            0.404961349     0.890725338   0.000211047993 -0.000112673203   0.000211047993 -0.000112673203        0.4009824     0.892530403
12.66252             0.405396385     0.890510027   0.000211304206 -0.000112949725   0.000211304206 -0.000112949725      0.401418976     0.892316753
12.662548            0.405831648     0.890294325   0.000211560702 -0.000113226921   0.000211560701 -0.000113226921      0.401855782     0.892102713
12.662576            0.406267137     0.890078234   0.000211817481 -0.000113504793    0.00021181748 -0.000113504793      0.402292816     0.891888282
12.662604            0.406702853     0.889861751   0.000212074542 -0.000113783343   0.000212074542 -0.000113783343       0.40273008      0.89167346
12.662632            0.407138796     0.889644876   0.000212331887 -0.000114062572   0.000212331887 -0.000114062572      0.403167573     0.891458246
12.66266             0.407574966     0.889427608   0.000212589515 -0.000114342483   0.000212589515 -0.000114342483      0.403605296     0.891242638
12.662688            0.408011362     0.889209947   0.000212847426 -0.000114623076   0.000212847426 -0.000114623076      0.404043248     0.891026638
12.662716            0.408447986     0.888991892   0.000213105621 -0.000114904355    0.00021310562 -0.000114904354       0.40448143     0.890810243
12.662744            0.408884836     0.888773443   0.000213364098 -0.000115186319   0.000213364097 -0.000115186319      0.404919841     0.890593454
12.662772            0.409321913     0.888554598   0.000213622858 -0.000115468972   0.000213622858 -0.000115468971      0.405358482     0.890376269
12.6628              0.409759217     0.888335357   0.000213881902 -0.000115752314   0.000213881901 -0.000115752314      0.405797353     0.890158688
12.662828            0.410196749      0.88811572   0.000214141228 -0.000116036347   0.000214141228 -0.000116036347      0.406236453      0.88994071
12.662856            0.410634507     0.887895685   0.000214400838 -0.000116321074   0.000214400837 -0.000116321074      0.406675783     0.889722334
12.662884            0.411072493     0.887675252   0.000214660731 -0.000116606496    0.00021466073 -0.000116606496      0.407115343      0.88950356
12.662912            0.411510706      0.88745442   0.000214920907 -0.000116892614   0.000214920906 -0.000116892614      0.407555132     0.889284388
12.66294             0.411949146     0.887233189   0.000215181365 -0.000117179431   0.000215181365 -0.000117179431      0.407995152     0.889064815
12.662968            0.412387813     0.887011558   0.000215442107 -0.000117466948   0.000215442107 -0.000117466948      0.408435402     0.888844842
12.662996            0.412826707     0.886789526   0.000215703132 -0.000117755167   0.000215703131 -0.000117755166      0.408875881     0.888624469
12.663024            0.413265829     0.886567092    0.00021596444 -0.000118044089   0.000215964439 -0.000118044089      0.409316591     0.888403693
12.663052            0.413705179     0.886344257    0.00021622603 -0.000118333716    0.00021622603 -0.000118333716       0.40975753     0.888182515
12.66308             0.414144756     0.886121018   0.000216487904 -0.000118624051   0.000216487904 -0.000118624051        0.4101987     0.887960934
12.663108             0.41458456     0.885897376   0.000216750061 -0.000118915094    0.00021675006 -0.000118915094        0.4106401     0.887738949
12.663136            0.415024592     0.885673329     0.0002170125 -0.000119206848     0.0002170125 -0.000119206848       0.41108173      0.88751656
12.663164            0.415464851     0.885448877   0.000217275222 -0.000119499315   0.000217275222 -0.000119499315      0.411523591     0.887293765
12.663192            0.415905338      0.88522402   0.000217538227 -0.000119792496   0.000217538227 -0.000119792495      0.411965681     0.887070564
12.66322             0.416346053     0.884998756   0.000217801515 -0.000120086392   0.000217801515 -0.000120086392      0.412408002     0.886846957
12.663248            0.416786995     0.884773085   0.000218065086 -0.000120381006   0.000218065085 -0.000120381006      0.412850554     0.886622942
12.663276            0.417228165     0.884547006   0.000218328939  -0.00012067634   0.000218328938  -0.00012067634      0.413293336      0.88639852
12.663304            0.417669563     0.884320519   0.000218593075 -0.000120972395   0.000218593074 -0.000120972395      0.413736348     0.886173688
12.663332            0.418111189     0.884093622   0.000218857493 -0.000121269173   0.000218857493 -0.000121269173      0.414179591     0.885948447
12.66336             0.418553042     0.883866315   0.000219122194 -0.000121566676   0.000219122194 -0.000121566676      0.414623064     0.885722796
12.663388            0.418995124     0.883638598   0.000219387178 -0.000121864905   0.000219387177 -0.000121864905      0.415066768     0.885496733
12.663416            0.419437433     0.883410469   0.000219652444 -0.000122163864   0.000219652443 -0.000122163863      0.415510703     0.885270259
12.663444             0.41987997     0.883181929   0.000219917992 -0.000122463552   0.000219917991 -0.000122463552      0.415954868     0.885043373
12.663472            0.420322735     0.882952975   0.000220183822 -0.000122763972   0.000220183822 -0.000122763972      0.416399264     0.884816074
12.6635              0.420765728     0.882723608   0.000220449935 -0.000123065126   0.000220449935 -0.000123065126      0.416843891      0.88458836
