! TOUCHSTONE file generated by CST MICROWAVE STUDIO
! Date and time: Wed Jul 31 13:21:34 2024
! Project name: WaveGuide_BPF-Ver4.1_U-shape_Ku_T3_C4_CWA_2.cst
! Parameters = {cavity_h=16; cavity_l0=10; cavity_l1=15.1728; cavity_l2=16.8018; cavity_l3=17.0696; cavity_l4=17.245; cavity_l5=17.1349; cavity_l6=17.5874; cavity_r=2.5; cavity_screw_l=0.5; cavity_screw_r=1.5; cavity_w=8; iris_h00=0; iris_h01=8.8026; iris_h112=0; iris_h12=5.6014; iris_h211=3.6606; iris_h23=5.2; iris_h310=3.9626; iris_h34=5.0921; iris_h45=4.9201; iris_h49=4.6277; iris_h56=4.805; iris_h58=4.434; iris_h67=6.5735; iris_rx=0.1; iris_screw_l=0.5; iris_screw_r=1.5; iris_shift00=0; iris_shift112=0; iris_shift211=3.5; iris_shift310=0; iris_shift49=0; iris_shift58=3.5; iris_shift67=3.5; iris_tx=4.5; iris_tz=4.5; iris_w00=0; iris_w112=0; iris_w211=4; iris_w310=3.9626; iris_w49=4.6277; iris_w58=4; iris_w67=4; mesh_cavity=5; mesh_iris=7; mesh_screw=7; order=12; reset_all=0; sigma=4.8e+07}
! Header version: 2018
! Port assignment regex: !\s*Touchstone port\s*([0-9]+)\s*=\s*(CST MWS port|CST DS port)\s*([0-9]+|Zmin|Zmax)\s*\(\"(.*)\"\)(\s*mode\s*([0-9]+))?.*
! Touchstone port assignment:
! Touchstone port 1 = CST MWS port 1 ("")
! Touchstone port 2 = CST MWS port 2 ("")
# GHz S RI R 50
12.66                0.183573363     0.968247991    0.00012963328 -3.26471296e-05   0.000129633281 -3.26471298e-05      0.182590226     0.968349486
12.660028            0.183883257     0.968181049    0.00012979741 -3.27355588e-05   0.000129797412  -3.2735559e-05      0.182902949     0.968282232
12.660056            0.184193347     0.968113957    0.00012996178 -3.28242086e-05   0.000129961781 -3.28242089e-05      0.183215865     0.968214827
12.660084             0.18450362     0.968046717    0.00013012639 -3.29130782e-05   0.000130126391 -3.29130784e-05      0.183528965     0.968147273
12.660112            0.184814063     0.967979332   0.000130291241 -3.30021665e-05   0.000130291242 -3.30021668e-05      0.183842236      0.96807957
12.66014             0.185124663     0.967911803   0.000130456335 -3.30914726e-05   0.000130456336 -3.30914728e-05      0.184155668     0.968011722
12.660168            0.185435419     0.967844131   0.000130621671  -3.3180997e-05   0.000130621673 -3.31809972e-05      0.184469261     0.967943728
12.660196            0.185746342     0.967776314   0.000130787251 -3.32707413e-05   0.000130787252 -3.32707415e-05      0.184783023     0.967875587
12.660224             0.18605743     0.967708351   0.000130953074 -3.33607061e-05   0.000130953075 -3.33607063e-05      0.185096953     0.967807297
12.660252            0.186368684     0.967640243    0.00013111914 -3.34508919e-05   0.000131119141 -3.34508921e-05      0.185411052     0.967738859
12.66028             0.186680104     0.967571988    0.00013128545 -3.35412994e-05   0.000131285451 -3.35412996e-05       0.18572532     0.967670273
12.660308            0.186991691     0.967503588   0.000131452004  -3.3631929e-05   0.000131452006 -3.36319292e-05      0.186039756     0.967601538
12.660336            0.187303444      0.96743504   0.000131618804 -3.37227814e-05   0.000131618805 -3.37227816e-05      0.186354362     0.967532655
12.660364            0.187615363     0.967366347   0.000131785848 -3.38138572e-05   0.000131785849 -3.38138574e-05      0.186669138     0.967463622
12.660392            0.187927449     0.967297506   0.000131953138 -3.39051568e-05   0.000131953139 -3.39051571e-05      0.186984082     0.967394441
12.66042             0.188239702     0.967228518   0.000132120673  -3.3996681e-05   0.000132120675 -3.39966812e-05      0.187299196     0.967325109
12.660448            0.188552122     0.967159383   0.000132288455 -3.40884302e-05   0.000132288457 -3.40884305e-05       0.18761448     0.967255628
12.660476            0.188864709       0.9670901   0.000132456484 -3.41804051e-05   0.000132456485 -3.41804054e-05      0.187929934     0.967185997
12.660504            0.189177463      0.96702067    0.00013262476 -3.42726063e-05   0.000132624761 -3.42726065e-05      0.188245557     0.967116215
12.660532            0.189490384     0.966951091   0.000132793283 -3.43650342e-05   0.000132793284 -3.43650345e-05      0.188561351     0.967046283
12.66056             0.189803473     0.966881364   0.000132962054 -3.44576896e-05   0.000132962055 -3.44576899e-05      0.188877315     0.966976201
12.660588             0.19011673     0.966811488   0.000133131073  -3.4550573e-05   0.000133131075 -3.45505732e-05      0.189193449     0.966905967
12.660616            0.190430154     0.966741464   0.000133300341  -3.4643685e-05   0.000133300342 -3.46436852e-05      0.189509753     0.966835582
12.660644            0.190743746     0.966671291   0.000133469858 -3.47370261e-05   0.000133469859 -3.47370264e-05      0.189826228     0.966765046
12.660672            0.191057505     0.966600969   0.000133639624 -3.48305971e-05   0.000133639626 -3.48305973e-05      0.190142874     0.966694358
12.6607              0.191371433     0.966530497    0.00013380964 -3.49243984e-05   0.000133809642 -3.49243986e-05      0.190459691     0.966623518
12.660728             0.19168553     0.966459875   0.000133979907 -3.50184307e-05   0.000133979908 -3.50184309e-05      0.190776678     0.966552526
12.660756            0.191999794     0.966389104   0.000134150424 -3.51126945e-05   0.000134150425 -3.51126948e-05      0.191093837     0.966481382
12.660784            0.192314227     0.966318182   0.000134321192 -3.52071905e-05   0.000134321193 -3.52071908e-05      0.191411167     0.966410085
12.660812            0.192628828      0.96624711   0.000134492211 -3.53019193e-05   0.000134492212 -3.53019196e-05      0.191728668     0.966338635
12.66084             0.192943599     0.966175887   0.000134663482 -3.53968815e-05   0.000134663484 -3.53968817e-05      0.192046341     0.966267032
12.660868            0.193258538     0.966104513   0.000134835005 -3.54920776e-05   0.000134835007 -3.54920778e-05      0.192364185     0.966195276
12.660896            0.193573646     0.966032988   0.000135006781 -3.55875083e-05   0.000135006783 -3.55875086e-05      0.192682202     0.966123365
12.660924            0.193888923     0.965961312    0.00013517881 -3.56831742e-05   0.000135178812 -3.56831745e-05       0.19300039     0.966051301
12.660952            0.194204369     0.965889485   0.000135351093 -3.57790759e-05   0.000135351094 -3.57790762e-05       0.19331875     0.965979083
12.66098             0.194519985     0.965817505   0.000135523629 -3.58752141e-05    0.00013552363 -3.58752143e-05      0.193637282     0.965906711
12.661008            0.194835771     0.965745373   0.000135696419 -3.59715892e-05   0.000135696421 -3.59715895e-05      0.193955987     0.965834184
12.661036            0.195151726     0.965673089   0.000135869464  -3.6068202e-05   0.000135869466 -3.60682023e-05      0.194274864     0.965761502
12.661064             0.19546785     0.965600653   0.000136042764 -3.61650531e-05   0.000136042765 -3.61650533e-05      0.194593913     0.965688665
12.661092            0.195784145     0.965528063   0.000136216319  -3.6262143e-05   0.000136216321 -3.62621433e-05      0.194913136     0.965615673
12.66112              0.19610061     0.965455321    0.00013639013 -3.63594724e-05   0.000136390132 -3.63594727e-05      0.195232531     0.965542525
12.661148            0.196417244     0.965382425   0.000136564198  -3.6457042e-05   0.000136564199 -3.64570422e-05      0.195552099     0.965469221
12.661176            0.196734049     0.965309376   0.000136738522 -3.65548523e-05   0.000136738523 -3.65548525e-05       0.19587184     0.965395761
12.661204            0.197051025     0.965236173   0.000136913103 -3.66529039e-05   0.000136913104 -3.66529042e-05      0.196191754     0.965322145
12.661232            0.197368171     0.965162816   0.000137087941 -3.67511976e-05   0.000137087943 -3.67511979e-05      0.196511842     0.965248373
12.66126             0.197685488     0.965089305   0.000137263038 -3.68497339e-05   0.000137263039 -3.68497342e-05      0.196832103     0.965174443
12.661288            0.198002975     0.965015639   0.000137438392 -3.69485135e-05   0.000137438394 -3.69485137e-05      0.197152538     0.965100356
12.661316            0.198320634     0.964941818   0.000137614005 -3.70475369e-05   0.000137614007 -3.70475372e-05      0.197473147     0.965026112
12.661344            0.198638463     0.964867843   0.000137789878 -3.71468049e-05   0.000137789879 -3.71468051e-05      0.197793929     0.964951711
12.661372            0.198956464     0.964793712   0.000137966009  -3.7246318e-05   0.000137966011 -3.72463182e-05      0.198114886     0.964877151
12.6614              0.199274636     0.964719426   0.000138142401 -3.73460769e-05   0.000138142402 -3.73460772e-05      0.198436016     0.964802434
12.661428             0.19959298     0.964644984   0.000138319053 -3.74460823e-05   0.000138319054 -3.74460825e-05      0.198757321     0.964727558
12.661456            0.199911495     0.964570385   0.000138495966 -3.75463347e-05   0.000138495967  -3.7546335e-05      0.199078801     0.964652523
12.661484            0.200230182     0.964495631   0.000138673139 -3.76468349e-05   0.000138673141 -3.76468351e-05      0.199400455      0.96457733
12.661512            0.200549041      0.96442072   0.000138850575 -3.77475834e-05   0.000138850576 -3.77475837e-05      0.199722283     0.964501978
12.66154             0.200868071     0.964345653   0.000139028272 -3.78485809e-05   0.000139028273 -3.78485812e-05      0.200044287     0.964426466
12.661568            0.201187274     0.964270429   0.000139206231 -3.79498282e-05   0.000139206233 -3.79498284e-05      0.200366465     0.964350794
12.661596            0.201506649     0.964195047   0.000139384454 -3.80513257e-05   0.000139384455 -3.80513259e-05      0.200688819     0.964274963
12.661624            0.201826197     0.964119508   0.000139562939 -3.81530742e-05   0.000139562941 -3.81530744e-05      0.201011347     0.964198972
12.661652            0.202145917     0.964043811   0.000139741688 -3.82550743e-05    0.00013974169 -3.82550746e-05      0.201334051      0.96412282
12.66168             0.202465809     0.963967956   0.000139920702 -3.83573267e-05   0.000139920703 -3.83573269e-05      0.201656931     0.964046507
12.661708            0.202785875     0.963891943   0.000140099979  -3.8459832e-05   0.000140099981 -3.84598323e-05      0.201979986     0.963970034
12.661736            0.203106113     0.963815771   0.000140279522 -3.85625909e-05   0.000140279523 -3.85625912e-05      0.202303217       0.9638934
12.661764            0.203426525     0.963739441   0.000140459329 -3.86656041e-05   0.000140459331 -3.86656044e-05      0.202626624     0.963816604
12.661792            0.203747109     0.963662951   0.000140639403 -3.87688722e-05   0.000140639404 -3.87688725e-05      0.202950207     0.963739646
12.66182             0.204067867     0.963586303   0.000140819742 -3.88723959e-05   0.000140819744 -3.88723961e-05      0.203273966     0.963662527
12.661848            0.204388799     0.963509495   0.000141000348 -3.89761758e-05    0.00014100035 -3.89761761e-05      0.203597902     0.963585245
12.661876            0.204709904     0.963432527   0.000141181221 -3.90802126e-05   0.000141181223 -3.90802129e-05      0.203922014     0.963507801
12.661904            0.205031182     0.963355399   0.000141362362 -3.91845071e-05   0.000141362363 -3.91845074e-05      0.204246302     0.963430194
12.661932            0.205352635     0.963278111    0.00014154377 -3.92890598e-05   0.000141543771 -3.92890601e-05      0.204570767     0.963352424
12.66196             0.205674261     0.963200662   0.000141725446 -3.93938715e-05   0.000141725448 -3.93938717e-05      0.204895409     0.963274491
12.661988            0.205996062     0.963123053   0.000141907391 -3.94989427e-05   0.000141907393  -3.9498943e-05      0.205220228     0.963196394
12.662016            0.206318037     0.963045282   0.000142089605 -3.96042743e-05   0.000142089607 -3.96042746e-05      0.205545224     0.963118134
12.662044            0.206640186     0.962967351   0.000142272089 -3.97098668e-05    0.00014227209 -3.97098671e-05      0.205870398     0.963039709
12.662072             0.20696251     0.962889257   0.000142454842  -3.9815721e-05   0.000142454844 -3.98157213e-05      0.206195749      0.96296112
12.6621              0.207285008     0.962811002   0.000142637866 -3.99218375e-05   0.000142637868 -3.99218378e-05      0.206521277     0.962882367
12.662128            0.207607681     0.962732585   0.000142821161 -4.00282171e-05   0.000142821162 -4.00282174e-05      0.206846983     0.962803449
12.662156             0.20793053     0.962654006   0.000143004726 -4.01348604e-05   0.000143004728 -4.01348607e-05      0.207172867     0.962724366
12.662184            0.208253553     0.962575263   0.000143188564 -4.02417681e-05   0.000143188565 -4.02417684e-05      0.207498928     0.962645117
12.662212            0.208576751     0.962496359   0.000143372673 -4.03489409e-05   0.000143372675 -4.03489411e-05      0.207825168     0.962565703
12.66224             0.208900125      0.96241729   0.000143557055 -4.04563794e-05   0.000143557057 -4.04563797e-05      0.208151586     0.962486123
12.662268            0.209223674     0.962338059    0.00014374171 -4.05640845e-05   0.000143741711 -4.05640848e-05      0.208478182     0.962406377
12.662296            0.209547398     0.962258664   0.000143926638 -4.06720567e-05   0.000143926639  -4.0672057e-05      0.208804957     0.962326464
12.662324            0.209871299     0.962179105    0.00014411184 -4.07802969e-05   0.000144111841 -4.07802972e-05      0.209131911     0.962246385
12.662352            0.210195375     0.962099382   0.000144297316 -4.08888056e-05   0.000144297317 -4.08888059e-05      0.209459043     0.962166138
12.66238             0.210519627     0.962019494   0.000144483066 -4.09975836e-05   0.000144483068 -4.09975839e-05      0.209786354     0.962085725
12.662408            0.210844055     0.961939442   0.000144669092 -4.11066316e-05   0.000144669094 -4.11066319e-05      0.210113844     0.962005144
12.662436             0.21116866     0.961859225   0.000144855393 -4.12159503e-05   0.000144855395 -4.12159506e-05      0.210441513     0.961924395
12.662464            0.211493441     0.961778843    0.00014504197 -4.13255405e-05   0.000145041972 -4.13255408e-05      0.210769362     0.961843478
12.662492            0.211818399     0.961698295   0.000145228824 -4.14354027e-05   0.000145228825  -4.1435403e-05       0.21109739     0.961762393
12.66252             0.212143533     0.961617581   0.000145415954 -4.15455378e-05   0.000145415956 -4.15455381e-05      0.211425597     0.961681139
12.662548            0.212468844     0.961536702   0.000145603361 -4.16559465e-05   0.000145603363 -4.16559468e-05      0.211753985     0.961599716
12.662576            0.212794332     0.961455656   0.000145791047 -4.17666294e-05   0.000145791048 -4.17666297e-05      0.212082552     0.961518125
12.662604            0.213119996     0.961374443    0.00014597901 -4.18775873e-05   0.000145979011 -4.18775876e-05      0.212411299     0.961436363
12.662632            0.213445839     0.961293064   0.000146167251  -4.1988821e-05   0.000146167253 -4.19888213e-05      0.212740226     0.961354432
12.66266             0.213771858     0.961211518   0.000146355772  -4.2100331e-05   0.000146355774 -4.21003313e-05      0.213069334     0.961272332
12.662688            0.214098055     0.961129804   0.000146544572 -4.22121183e-05   0.000146544574 -4.22121186e-05      0.213398622     0.961190061
12.662716            0.214424429     0.961047923   0.000146733652 -4.23241834e-05   0.000146733654 -4.23241837e-05       0.21372809     0.961107619
12.662744            0.214750982     0.960965874   0.000146923012 -4.24365272e-05   0.000146923014 -4.24365275e-05      0.214057739     0.961025007
12.662772            0.215077712     0.960883656   0.000147112653 -4.25491503e-05   0.000147112655 -4.25491506e-05      0.214387569     0.960942223
12.6628               0.21540462     0.960801271   0.000147302575 -4.26620535e-05   0.000147302577 -4.26620538e-05       0.21471758     0.960859268
12.662828            0.215731706     0.960718716   0.000147492779 -4.27752375e-05   0.000147492781 -4.27752378e-05      0.215047772     0.960776142
12.662856            0.216058971     0.960635993   0.000147683265 -4.28887031e-05   0.000147683266 -4.28887034e-05      0.215378145     0.960692844
12.662884            0.216386414       0.9605531   0.000147874033  -4.3002451e-05   0.000147874035 -4.30024513e-05        0.2157087     0.960609373
12.662912            0.216714035     0.960470038   0.000148065084  -4.3116482e-05   0.000148065086 -4.31164823e-05      0.216039436      0.96052573
12.66294             0.217041836     0.960386806   0.000148256419 -4.32307967e-05    0.00014825642  -4.3230797e-05      0.216370354     0.960441915
12.662968            0.217369815     0.960303404   0.000148448037  -4.3345396e-05   0.000148448039 -4.33453963e-05      0.216701453     0.960357926
12.662996            0.217697973     0.960219831    0.00014863994 -4.34602805e-05   0.000148639941 -4.34602808e-05      0.217032734     0.960273764
12.663024             0.21802631     0.960136088   0.000148832127 -4.35754511e-05   0.000148832129 -4.35754514e-05      0.217364198     0.960189428
12.663052            0.218354826     0.960052174     0.0001490246 -4.36909085e-05   0.000149024601 -4.36909088e-05      0.217695844     0.960104919
12.66308             0.218683522     0.959968089   0.000149217358 -4.38066535e-05   0.000149217359 -4.38066538e-05      0.218027671     0.960020236
12.663108            0.219012397     0.959883833   0.000149410402 -4.39226867e-05   0.000149410403  -4.3922687e-05      0.218359682     0.959935378
12.663136            0.219341452     0.959799405   0.000149603732  -4.4039009e-05   0.000149603734 -4.40390093e-05      0.218691875     0.959850345
12.663164            0.219670687     0.959714804    0.00014979735 -4.41556212e-05   0.000149797352 -4.41556215e-05      0.219024251     0.959765137
12.663192            0.220000101     0.959630032   0.000149991255 -4.42725239e-05   0.000149991256 -4.42725242e-05       0.21935681     0.959679754
12.66322             0.220329696     0.959545087   0.000150185448  -4.4389718e-05   0.000150185449 -4.43897183e-05      0.219689551     0.959594196
12.663248             0.22065947     0.959459969   0.000150379929 -4.45072042e-05    0.00015037993 -4.45072045e-05      0.220022476     0.959508461
12.663276            0.220989426     0.959374678   0.000150574699 -4.46249833e-05     0.0001505747 -4.46249836e-05      0.220355584     0.959422551
12.663304            0.221319561     0.959289213   0.000150769758  -4.4743056e-05   0.000150769759 -4.47430563e-05      0.220688876     0.959336464
12.663332            0.221649877     0.959203575   0.000150965106 -4.48614232e-05   0.000150965108 -4.48614235e-05      0.221022351       0.9592502
12.66336             0.221980374     0.959117763   0.000151160745 -4.49800857e-05   0.000151160747  -4.4980086e-05       0.22135601      0.95916376
12.663388            0.222311052     0.959031777   0.000151356675 -4.50990441e-05   0.000151356676 -4.50990444e-05      0.221689853     0.959077142
12.663416            0.222641911     0.958945616   0.000151552895 -4.52182993e-05   0.000151552897 -4.52182996e-05       0.22202388     0.958990346
12.663444            0.222972951     0.958859281   0.000151749407  -4.5337852e-05   0.000151749408 -4.53378524e-05      0.222358091     0.958903373
12.663472            0.223304172      0.95877277   0.000151946211 -4.54577032e-05   0.000151946212 -4.54577035e-05      0.222692486     0.958816221
12.6635              0.223635574     0.958686084   0.000152143307 -4.55778534e-05   0.000152143308 -4.55778537e-05      0.223027066     0.958728891
