! TOUCHSTONE file generated by CST MICROWAVE STUDIO
! Date and time: Wed Jul 31 13:27:52 2024
! Project name: WaveGuide_BPF-Ver4.1_U-shape_Ku_T3_C4_CWA_2.cst
! Parameters = {cavity_h=16; cavity_l0=10; cavity_l1=15.1983; cavity_l2=16.8663; cavity_l3=17.1326; cavity_l4=17.2898; cavity_l5=17.0928; cavity_l6=17.5677; cavity_r=2.5; cavity_screw_l=0.5; cavity_screw_r=1.5; cavity_w=8; iris_h00=0; iris_h01=8.8362; iris_h112=0; iris_h12=5.6053; iris_h211=3.6659; iris_h23=5.196; iris_h310=3.9611; iris_h34=5.0775; iris_h45=4.9233; iris_h49=4.61; iris_h56=4.7883; iris_h58=4.4484; iris_h67=6.5841; iris_rx=0.1; iris_screw_l=0.5; iris_screw_r=1.5; iris_shift00=0; iris_shift112=0; iris_shift211=3.5; iris_shift310=0; iris_shift49=0; iris_shift58=3.5; iris_shift67=3.5; iris_tx=4.5; iris_tz=4.5; iris_w00=0; iris_w112=0; iris_w211=4; iris_w310=3.9611; iris_w49=4.61; iris_w58=4; iris_w67=4; mesh_cavity=5; mesh_iris=7; mesh_screw=7; order=12; reset_all=0; sigma=4.8e+07}
! Header version: 2018
! Port assignment regex: !\s*Touchstone port\s*([0-9]+)\s*=\s*(CST MWS port|CST DS port)\s*([0-9]+|Zmin|Zmax)\s*\(\"(.*)\"\)(\s*mode\s*([0-9]+))?.*
! Touchstone port assignment:
! Touchstone port 1 = CST MWS port 1 ("")
! Touchstone port 2 = CST MWS port 2 ("")
# GHz S RI R 50
12.66                0.395062859     0.894907317   0.000325199061  -0.00017607254   0.000325199061  -0.00017607254      0.403975983     0.890720468
12.660028            0.395504067     0.894693245   0.000325666909 -0.000176550771   0.000325666908 -0.000176550771      0.404420697     0.890499089
12.660056            0.395945526     0.894478764   0.000326135457 -0.000177030348   0.000326135457 -0.000177030348      0.404865663     0.890277289
12.660084            0.396387242     0.894263871   0.000326604706 -0.000177511278   0.000326604706 -0.000177511277      0.405310886     0.890055065
12.660112            0.396829218     0.894048563   0.000327074654 -0.000177993564   0.000327074654 -0.000177993564      0.405756368     0.889832415
12.66014             0.397271459     0.893832839   0.000327545301 -0.000178477213   0.000327545301 -0.000178477213      0.406202116     0.889609335
12.660168            0.397713966     0.893616697   0.000328016647 -0.000178962229   0.000328016647 -0.000178962228       0.40664813     0.889385825
12.660196            0.398156735     0.893400137   0.000328488695 -0.000179448614   0.000328488694 -0.000179448614      0.407094406     0.889161885
12.660224            0.398599767     0.893183159   0.000328961444 -0.000179936374   0.000328961443 -0.000179936374      0.407540944     0.888937515
12.660252            0.399043062     0.892965762   0.000329434895 -0.000180425512   0.000329434895 -0.000180425512      0.407987746     0.888712713
12.66028              0.39948662     0.892747945    0.00032990905 -0.000180916033    0.00032990905 -0.000180916033       0.40843481     0.888487479
12.660308            0.399930441     0.892529707   0.000330383909 -0.000181407941   0.000330383908  -0.00018140794      0.408882137     0.888261812
12.660336            0.400374526     0.892311047   0.000330859472 -0.000181901239   0.000330859471 -0.000181901239      0.409329728      0.88803571
12.660364            0.400818874     0.892091965    0.00033133574 -0.000182395933    0.00033133574 -0.000182395933      0.409777582     0.887809174
12.660392            0.401263485      0.89187246   0.000331812715 -0.000182892026   0.000331812715 -0.000182892026      0.410225699     0.887582202
12.66042             0.401708361      0.89165253   0.000332290396 -0.000183389524   0.000332290396 -0.000183389523       0.41067408     0.887354794
12.660448              0.4021535     0.891432176   0.000332768785 -0.000183888429   0.000332768784 -0.000183888428      0.411122724     0.887126948
12.660476            0.402598903     0.891211395   0.000333247881 -0.000184388746   0.000333247881 -0.000184388746      0.411571633     0.886898664
12.660504             0.40304457     0.890990189   0.000333727687 -0.000184890481   0.000333727687  -0.00018489048      0.412020805     0.886669941
12.660532            0.403490502     0.890768554   0.000334208202 -0.000185393636   0.000334208202 -0.000185393636      0.412470242     0.886440778
12.66056             0.403936698     0.890546492   0.000334689427 -0.000185898217   0.000334689427 -0.000185898216      0.412919942     0.886211174
12.660588            0.404383159        0.890324   0.000335171363 -0.000186404227   0.000335171363 -0.000186404227      0.413369907     0.885981128
12.660616            0.404829884     0.890101078   0.000335654011 -0.000186911671    0.00033565401 -0.000186911671      0.413820137     0.885750639
12.660644            0.405276875     0.889877726    0.00033613737 -0.000187420554    0.00033613737 -0.000187420554      0.414270631     0.885519707
12.660672             0.40572413     0.889653942   0.000336621443  -0.00018793088   0.000336621443  -0.00018793088       0.41472139     0.885288331
12.6607              0.406171651     0.889429725   0.000337106229 -0.000188442653   0.000337106229 -0.000188442653      0.415172414     0.885056509
12.660728            0.406619436     0.889205074   0.000337591729 -0.000188955878   0.000337591729 -0.000188955877      0.415623702     0.884824242
12.660756            0.407067487      0.88897999   0.000338077944 -0.000189470558   0.000338077944 -0.000189470558      0.416075256     0.884591527
12.660784            0.407515804      0.88875447   0.000338564875   -0.0001899867   0.000338564875   -0.0001899867      0.416527075     0.884358364
12.660812            0.407964387     0.888528515   0.000339052522 -0.000190504306   0.000339052522 -0.000190504306       0.41697916     0.884124753
12.66084             0.408413235     0.888302122   0.000339540886 -0.000191023382   0.000339540886 -0.000191023382       0.41743151     0.883890692
12.660868            0.408862349     0.888075292   0.000340029967 -0.000191543932   0.000340029967 -0.000191543932      0.417884125      0.88365618
12.660896            0.409311729     0.887848023   0.000340519767 -0.000192065961   0.000340519767 -0.000192065961      0.418337007     0.883421217
12.660924            0.409761376     0.887620315   0.000341010285 -0.000192589472   0.000341010285 -0.000192589472      0.418790154     0.883185802
12.660952            0.410211289     0.887392166   0.000341501523 -0.000193114472   0.000341501523 -0.000193114471      0.419243567     0.882949933
12.66098             0.410661468     0.887163577   0.000341993481 -0.000193640963   0.000341993481 -0.000193640963      0.419697246      0.88271361
12.661008            0.411111914     0.886934545    0.00034248616 -0.000194168951    0.00034248616 -0.000194168951      0.420151192     0.882476832
12.661036            0.411562627      0.88670507   0.000342979561 -0.000194698441    0.00034297956  -0.00019469844      0.420605403     0.882239599
12.661064            0.412013607     0.886475151   0.000343473683 -0.000195229436   0.000343473683 -0.000195229436      0.421059882     0.882001908
12.661092            0.412464854     0.886244788   0.000343968528 -0.000195761942   0.000343968528 -0.000195761942      0.421514627      0.88176376
12.66112             0.412916368     0.886013979   0.000344464096 -0.000196295963   0.000344464096 -0.000196295963      0.421969638     0.881525152
12.661148            0.413368149     0.885782724   0.000344960389 -0.000196831504   0.000344960388 -0.000196831504      0.422424917     0.881286086
12.661176            0.413820198     0.885551021   0.000345457406  -0.00019736857   0.000345457405 -0.000197368569      0.422880462     0.881046559
12.661204            0.414272514      0.88531887   0.000345955148 -0.000197907164   0.000345955148 -0.000197907164      0.423336275      0.88080657
12.661232            0.414725098      0.88508627   0.000346453616 -0.000198447293   0.000346453616 -0.000198447293      0.423792354     0.880566119
12.66126              0.41517795     0.884853219    0.00034695281  -0.00019898896    0.00034695281  -0.00019898896      0.424248701     0.880325205
12.661288             0.41563107     0.884619718   0.000347452732  -0.00019953217   0.000347452732  -0.00019953217      0.424705316     0.880083826
12.661316            0.416084458     0.884385765   0.000347953381 -0.000200076929   0.000347953381 -0.000200076929      0.425162198     0.879841983
12.661344            0.416538114     0.884151359   0.000348454759  -0.00020062324   0.000348454758  -0.00020062324      0.425619347     0.879599673
12.661372            0.416992039       0.8839165   0.000348956865 -0.000201171109   0.000348956865 -0.000201171108      0.426076765     0.879356897
12.6614              0.417446232     0.883681186   0.000349459701  -0.00020172054   0.000349459701  -0.00020172054       0.42653445     0.879113652
12.661428            0.417900694     0.883445416   0.000349963267 -0.000202271538   0.000349963267 -0.000202271538      0.426992403     0.878869939
12.661456            0.418355424      0.88320919   0.000350467564 -0.000202824108   0.000350467564 -0.000202824108      0.427450625     0.878625756
12.661484            0.418810424     0.882972507   0.000350972592 -0.000203378255   0.000350972592 -0.000203378255      0.427909115     0.878381102
12.661512            0.419265692     0.882735365   0.000351478352 -0.000203933984   0.000351478352 -0.000203933984      0.428367873     0.878135977
12.66154             0.419721229     0.882497765   0.000351984845 -0.000204491299   0.000351984844 -0.000204491299      0.428826899     0.877890379
12.661568            0.420177036     0.882259704    0.00035249207 -0.000205050206    0.00035249207 -0.000205050205      0.429286194     0.877644307
12.661596            0.420633112     0.882021182   0.000353000029 -0.000205610709   0.000353000029 -0.000205610708      0.429745758     0.877397761
12.661624            0.421089458     0.881782199   0.000353508723 -0.000206172813   0.000353508722 -0.000206172812      0.430205591      0.87715074
12.661652            0.421546074     0.881542753   0.000354018151 -0.000206736523    0.00035401815 -0.000206736522      0.430665692     0.876903242
12.66168             0.422002959     0.881302843   0.000354528314 -0.000207301844   0.000354528314 -0.000207301844      0.431126063     0.876655267
12.661708            0.422460114     0.881062468   0.000355039214 -0.000207868781   0.000355039213 -0.000207868781      0.431586703     0.876406813
12.661736            0.422917539     0.880821627    0.00035555085 -0.000208437339   0.000355550849 -0.000208437339      0.432047612      0.87615788
12.661764            0.423375234      0.88058032   0.000356063222 -0.000209007524   0.000356063222 -0.000209007523       0.43250879     0.875908467
12.661792            0.423833199     0.880338546   0.000356576333 -0.000209579339   0.000356576333 -0.000209579339      0.432970238     0.875658573
12.66182             0.424291435     0.880096303   0.000357090182  -0.00021015279   0.000357090181  -0.00021015279      0.433431955     0.875408197
12.661848            0.424749942     0.879853591   0.000357604769 -0.000210727883   0.000357604769 -0.000210727882      0.433893943     0.875157337
12.661876            0.425208719     0.879610409   0.000358120096 -0.000211304621   0.000358120095 -0.000211304621        0.4343562     0.874905994
12.661904            0.425667767     0.879366755   0.000358636162 -0.000211883011   0.000358636162 -0.000211883011      0.434818726     0.874654165
12.661932            0.426127085     0.879122629   0.000359152969 -0.000212463057   0.000359152969 -0.000212463057      0.435281523      0.87440185
12.66196             0.426586675      0.87887803   0.000359670516 -0.000213044764   0.000359670516 -0.000213044764       0.43574459     0.874149049
12.661988            0.427046536     0.878632956   0.000360188805 -0.000213628138   0.000360188805 -0.000213628138      0.436207928     0.873895759
12.662016            0.427506668     0.878387408   0.000360707836 -0.000214213184   0.000360707836 -0.000214213184      0.436671535      0.87364198
12.662044            0.427967071     0.878141384   0.000361227609 -0.000214799907   0.000361227609 -0.000214799906      0.437135413     0.873387711
12.662072            0.428427746     0.877894882   0.000361748126 -0.000215388311   0.000361748125 -0.000215388311      0.437599562     0.873132952
12.6621              0.428888693     0.877647903   0.000362269385 -0.000215978403   0.000362269385 -0.000215978403      0.438063981       0.8728777
12.662128            0.429349911     0.877400445   0.000362791389 -0.000216570187   0.000362791389 -0.000216570187      0.438528671     0.872621955
12.662156            0.429811401     0.877152507   0.000363314137 -0.000217163669   0.000363314137 -0.000217163669      0.438993632     0.872365717
12.662184            0.430273163     0.876904088    0.00036383763 -0.000217758854    0.00036383763 -0.000217758853      0.439458864     0.872108983
12.662212            0.430735197     0.876655187   0.000364361869 -0.000218355746   0.000364361868 -0.000218355746      0.439924367     0.871851754
12.66224             0.431197504     0.876405803   0.000364886853 -0.000218954353   0.000364886853 -0.000218954352      0.440390141     0.871594027
12.662268            0.431660082     0.876155936   0.000365412584 -0.000219554678   0.000365412584 -0.000219554677      0.440856186     0.871335803
12.662296            0.432122934     0.875905584   0.000365939062 -0.000220156727   0.000365939061 -0.000220156726      0.441322503      0.87107708
12.662324            0.432586057     0.875654746   0.000366466287 -0.000220760505   0.000366466287 -0.000220760505      0.441789091     0.870817857
12.662352            0.433049454     0.875403422    0.00036699426 -0.000221366018    0.00036699426 -0.000221366018      0.442255951     0.870558132
12.66238             0.433513123     0.875151609   0.000367522981 -0.000221973271   0.000367522981 -0.000221973271      0.442723082     0.870297906
12.662408            0.433977065     0.874899308   0.000368052451  -0.00022258227   0.000368052451  -0.00022258227      0.443190485     0.870037177
12.662436             0.43444128     0.874646518   0.000368582671  -0.00022319302   0.000368582671 -0.000223193019       0.44365816     0.869775943
12.662464            0.434905768     0.874393236    0.00036911364 -0.000223805525    0.00036911364 -0.000223805525      0.444126107     0.869514205
12.662492            0.435370529     0.874139463   0.000369645359 -0.000224419793   0.000369645359 -0.000224419793      0.444594326     0.869251961
12.66252             0.435835564     0.873885198   0.000370177829 -0.000225035828   0.000370177829 -0.000225035827      0.445062817     0.868989209
12.662548            0.436300872     0.873630438    0.00037071105 -0.000225653635    0.00037071105 -0.000225653635      0.445531581     0.868725949
12.662576            0.436766454     0.873375184   0.000371245023  -0.00022627322   0.000371245022  -0.00022627322      0.446000617      0.86846218
12.662604            0.437232309     0.873119434   0.000371779747  -0.00022689459   0.000371779747 -0.000226894589      0.446469925     0.868197901
12.662632            0.437698438     0.872863188   0.000372315224 -0.000227517748   0.000372315224 -0.000227517748      0.446939505     0.867933111
12.66266             0.438164841     0.872606443   0.000372851453 -0.000228142701   0.000372851453 -0.000228142701      0.447409359     0.867667808
12.662688            0.438631518       0.8723492   0.000373388436 -0.000228769454   0.000373388436 -0.000228769454      0.447879485     0.867401992
12.662716            0.439098469     0.872091458   0.000373926173 -0.000229398013   0.000373926172 -0.000229398013      0.448349884     0.867135662
12.662744            0.439565695     0.871833214   0.000374464663 -0.000230028384   0.000374464663 -0.000230028384      0.448820555     0.866868816
12.662772            0.440033194     0.871574469   0.000375003908 -0.000230660572   0.000375003907 -0.000230660571        0.4492915     0.866601454
12.6628              0.440500968     0.871315221   0.000375543907 -0.000231294582   0.000375543907 -0.000231294582      0.449762718     0.866333574
12.662828            0.440969017     0.871055469   0.000376084662 -0.000231930421   0.000376084662  -0.00023193042      0.450234209     0.866065176
12.662856             0.44143734     0.870795212   0.000376626172 -0.000232568093   0.000376626172 -0.000232568093      0.450705973     0.865796258
12.662884            0.441905939      0.87053445   0.000377168439 -0.000233207606   0.000377168439 -0.000233207605      0.451178011     0.865526819
12.662912            0.442374811      0.87027318   0.000377711461 -0.000233848964   0.000377711461 -0.000233848963      0.451650322     0.865256858
12.66294             0.442843959     0.870011403   0.000378255241 -0.000234492173   0.000378255241 -0.000234492172      0.452122906     0.864986375
12.662968            0.443313382     0.869749116   0.000378799777 -0.000235137239   0.000378799777 -0.000235137238      0.452595764     0.864715368
12.662996             0.44378308     0.869486319   0.000379345071 -0.000235784167   0.000379345071 -0.000235784167      0.453068896     0.864443836
12.663024            0.444253054     0.869223012   0.000379891123 -0.000236432964   0.000379891123 -0.000236432964      0.453542301     0.864171777
12.663052            0.444723302     0.868959192   0.000380437933 -0.000237083636   0.000380437933 -0.000237083635      0.454015981     0.863899192
12.66308             0.445193826     0.868694859   0.000380985501 -0.000237736187   0.000380985501 -0.000237736187      0.454489934     0.863626078
12.663108            0.445664626     0.868430011   0.000381533829 -0.000238390625   0.000381533828 -0.000238390624      0.454964161     0.863352436
12.663136            0.446135702     0.868164649   0.000382082915 -0.000239046954   0.000382082915 -0.000239046953      0.455438663     0.863078262
12.663164            0.446607053      0.86789877   0.000382632761  -0.00023970518   0.000382632761  -0.00023970518      0.455913438     0.862803558
12.663192             0.44707868     0.867632373   0.000383183366 -0.000240365311   0.000383183366  -0.00024036531      0.456388488      0.86252832
12.66322             0.447550583     0.867365459   0.000383734732 -0.000241027351   0.000383734732  -0.00024102735      0.456863812      0.86225255
12.663248            0.448022762     0.867098024   0.000384286858 -0.000241691306   0.000384286858 -0.000241691306      0.457339411     0.861976244
12.663276            0.448495217     0.866830069   0.000384839745 -0.000242357183   0.000384839745 -0.000242357182      0.457815284     0.861699402
12.663304            0.448967948     0.866561593   0.000385393393 -0.000243024987   0.000385393393 -0.000243024986      0.458291432     0.861422024
12.663332            0.449440956     0.866292593   0.000385947803 -0.000243694724   0.000385947802 -0.000243694724      0.458767854     0.861144108
12.66336              0.44991424      0.86602307   0.000386502974 -0.000244366401   0.000386502973   -0.0002443664      0.459244551     0.860865652
12.663388            0.450387801     0.865753022   0.000387058906 -0.000245040023   0.000387058906 -0.000245040022      0.459721523     0.860586656
12.663416            0.450861639     0.865482447   0.000387615601 -0.000245715596   0.000387615601 -0.000245715596       0.46019877     0.860307119
12.663444            0.451335753     0.865211346   0.000388173059 -0.000246393128   0.000388173059 -0.000246393127      0.460676291     0.860027039
12.663472            0.451810144     0.864939717   0.000388731279 -0.000247072622   0.000388731279 -0.000247072622      0.461154088     0.859746416
12.6635              0.452284812     0.864667558   0.000389290262 -0.000247754087   0.000389290262 -0.000247754086       0.46163216     0.859465248
