! TOUCHSTONE file generated by CST MICROWAVE STUDIO
! Date and time: Wed Jul 31 13:34:02 2024
! Project name: WaveGuide_BPF-Ver4.1_U-shape_Ku_T3_C4_CWA_2.cst
! Parameters = {cavity_h=16; cavity_l0=10; cavity_l1=15.1863; cavity_l2=16.8749; cavity_l3=17.0974; cavity_l4=17.255; cavity_l5=17.1344; cavity_l6=17.5838; cavity_r=2.5; cavity_screw_l=0.5; cavity_screw_r=1.5; cavity_w=8; iris_h00=0; iris_h01=8.7991; iris_h112=0; iris_h12=5.5887; iris_h211=3.6667; iris_h23=5.2053; iris_h310=3.9773; iris_h34=5.0813; iris_h45=4.934; iris_h49=4.6113; iris_h56=4.801; iris_h58=4.4297; iris_h67=6.5726; iris_rx=0.1; iris_screw_l=0.5; iris_screw_r=1.5; iris_shift00=0; iris_shift112=0; iris_shift211=3.5; iris_shift310=0; iris_shift49=0; iris_shift58=3.5; iris_shift67=3.5; iris_tx=4.5; iris_tz=4.5; iris_w00=0; iris_w112=0; iris_w211=4; iris_w310=3.9773; iris_w49=4.6113; iris_w58=4; iris_w67=4; mesh_cavity=5; mesh_iris=7; mesh_screw=7; order=12; reset_all=0; sigma=4.8e+07}
! Header version: 2018
! Port assignment regex: !\s*Touchstone port\s*([0-9]+)\s*=\s*(CST MWS port|CST DS port)\s*([0-9]+|Zmin|Zmax)\s*\(\"(.*)\"\)(\s*mode\s*([0-9]+))?.*
! Touchstone port assignment:
! Touchstone port 1 = CST MWS port 1 ("")
! Touchstone port 2 = CST MWS port 2 ("")
# GHz S RI R 50
12.66                0.214088756     0.960076152    0.00025572436 -7.82135796e-05    0.00025572436 -7.82135797e-05      0.221205586     0.958451088
12.660028             0.21443789      0.95998676   0.000256126079 -7.84481003e-05   0.000256126079 -7.84481003e-05       0.22155573     0.958358689
12.660056            0.214787233     0.959897169   0.000256528561 -7.86833039e-05   0.000256528562  -7.8683304e-05      0.221906009     0.958266105
12.660084            0.215136792     0.959807378   0.000256931805 -7.89191983e-05   0.000256931806 -7.89191984e-05      0.222256461     0.958173327
12.660112            0.215486574     0.959717385    0.00025733581 -7.91557912e-05    0.00025733581 -7.91557912e-05      0.222607125     0.958080346
12.66014             0.215836586     0.959627188   0.000257740573 -7.93930902e-05   0.000257740573 -7.93930903e-05       0.22295804     0.957987154
12.660168            0.216186827     0.959536786   0.000258146096 -7.96310978e-05   0.000258146096 -7.96310978e-05      0.223309205     0.957893748
12.660196            0.216537294     0.959446181   0.000258552384 -7.98698125e-05   0.000258552384 -7.98698125e-05      0.223660596     0.957800136
12.660224            0.216887987     0.959355371   0.000258959437 -8.01092366e-05   0.000258959437 -8.01092367e-05      0.224012212     0.957706316
12.660252            0.217238906     0.959264356   0.000259367258 -8.03493725e-05   0.000259367258 -8.03493726e-05      0.224364054     0.957612288
12.66028             0.217590051     0.959173137   0.000259775848 -8.05902225e-05   0.000259775848 -8.05902225e-05      0.224716122     0.957518051
12.660308            0.217941423     0.959081712   0.000260185208 -8.08317888e-05   0.000260185208 -8.08317888e-05      0.225068417     0.957423606
12.660336            0.218293021     0.958990081   0.000260595341 -8.10740738e-05   0.000260595341 -8.10740739e-05      0.225420938     0.957328952
12.660364            0.218644847     0.958898244   0.000261006247 -8.13170799e-05   0.000261006248   -8.131708e-05      0.225773686     0.957234089
12.660392              0.2189969       0.9588062    0.00026141793 -8.15608094e-05    0.00026141793 -8.15608095e-05      0.226126661     0.957139015
12.66042              0.21934918      0.95871395   0.000261830389 -8.18052646e-05    0.00026183039 -8.18052647e-05      0.226479863     0.957043731
12.660448            0.219701689     0.958621491   0.000262243628  -8.2050448e-05   0.000262243628 -8.20504481e-05      0.226833293     0.956948236
12.660476            0.220054425     0.958528825   0.000262657647 -8.22963619e-05   0.000262657647 -8.22963619e-05       0.22718695     0.956852531
12.660504             0.22040739     0.958435951   0.000263072449 -8.25430086e-05   0.000263072449 -8.25430087e-05      0.227540836     0.956756613
12.660532            0.220760583     0.958342868   0.000263488034 -8.27903906e-05   0.000263488035 -8.27903907e-05       0.22789495     0.956660484
12.66056             0.221114005     0.958249576   0.000263904406 -8.30385103e-05   0.000263904406 -8.30385103e-05      0.228249292     0.956564142
12.660588            0.221467656     0.958156075   0.000264321564   -8.328737e-05   0.000264321564 -8.32873701e-05      0.228603863     0.956467588
12.660616            0.221821536     0.958062363   0.000264739512 -8.35369722e-05   0.000264739512 -8.35369723e-05      0.228958663      0.95637082
12.660644            0.222175646     0.957968442    0.00026515825 -8.37873194e-05    0.00026515825 -8.37873194e-05      0.229313692     0.956273838
12.660672            0.222529985     0.957874309   0.000265577781 -8.40384139e-05   0.000265577781 -8.40384139e-05      0.229668951     0.956176643
12.6607              0.222884554     0.957779966   0.000265998106 -8.42902582e-05   0.000265998106 -8.42902582e-05      0.230024439     0.956079233
12.660728            0.223239354     0.957685411   0.000266419227 -8.45428547e-05   0.000266419227 -8.45428548e-05      0.230380157     0.955981608
12.660756            0.223594384     0.957590644   0.000266841145  -8.4796206e-05   0.000266841145  -8.4796206e-05      0.230736106     0.955883768
12.660784            0.223949645     0.957495665   0.000267263862 -8.50503144e-05   0.000267263863 -8.50503145e-05      0.231092284     0.955785713
12.660812            0.224305136     0.957400473   0.000267687381 -8.53051825e-05   0.000267687381 -8.53051826e-05      0.231448694     0.955687441
12.66084             0.224660859     0.957305068   0.000268111702 -8.55608127e-05   0.000268111702 -8.55608128e-05      0.231805334     0.955588953
12.660868            0.225016813     0.957209449   0.000268536828 -8.58172076e-05   0.000268536828 -8.58172077e-05      0.232162206     0.955490247
12.660896            0.225372999     0.957113616   0.000268962759 -8.60743696e-05    0.00026896276 -8.60743697e-05      0.232519309     0.955391325
12.660924            0.225729417     0.957017569   0.000269389499 -8.63323013e-05   0.000269389499 -8.63323014e-05      0.232876643     0.955292184
12.660952            0.226086068     0.956921307   0.000269817048 -8.65910052e-05   0.000269817048 -8.65910053e-05      0.233234209     0.955192825
12.66098              0.22644295      0.95682483   0.000270245409 -8.68504838e-05   0.000270245409 -8.68504839e-05      0.233592008     0.955093248
12.661008            0.226800065     0.956728137   0.000270674582 -8.71107397e-05   0.000270674583 -8.71107397e-05      0.233950039     0.954993451
12.661036            0.227157414     0.956631228   0.000271104571 -8.73717754e-05   0.000271104571 -8.73717754e-05      0.234308302     0.954893435
12.661064            0.227514995     0.956534103   0.000271535376 -8.76335934e-05   0.000271535376 -8.76335935e-05      0.234666798     0.954793199
12.661092             0.22787281      0.95643676   0.000271966999 -8.78961965e-05      0.000271967 -8.78961965e-05      0.235025528     0.954692743
12.66112             0.228230858       0.9563392   0.000272399443  -8.8159587e-05   0.000272399443 -8.81595871e-05       0.23538449     0.954592066
12.661148            0.228589141     0.956241423   0.000272832708 -8.84237677e-05   0.000272832708 -8.84237678e-05      0.235743687     0.954491168
12.661176            0.228947657     0.956143427   0.000273266797 -8.86887411e-05   0.000273266797 -8.86887412e-05      0.236103117     0.954390048
12.661204            0.229306408     0.956045212   0.000273701712 -8.89545099e-05   0.000273701712 -8.89545099e-05      0.236462781     0.954288706
12.661232            0.229665394     0.955946779   0.000274137453 -8.92210766e-05   0.000274137453 -8.92210766e-05       0.23682268     0.954187141
12.66126             0.230024614     0.955848125   0.000274574024 -8.94884438e-05   0.000274574024 -8.94884439e-05      0.237182813     0.954085353
12.661288             0.23038407     0.955749252   0.000275011425 -8.97566143e-05   0.000275011425 -8.97566144e-05      0.237543181     0.953983342
12.661316            0.230743761     0.955650159   0.000275449659 -9.00255907e-05   0.000275449659 -9.00255907e-05      0.237903784     0.953881107
12.661344            0.231103688     0.955550845   0.000275888727 -9.02953755e-05   0.000275888727 -9.02953756e-05      0.238264622     0.953778648
12.661372            0.231463851     0.955451309   0.000276328631 -9.05659716e-05   0.000276328631 -9.05659717e-05      0.238625696     0.953675964
12.6614               0.23182425     0.955351552   0.000276769373 -9.08373815e-05   0.000276769373 -9.08373816e-05      0.238987006     0.953573055
12.661428            0.232184885     0.955251572   0.000277210955  -9.1109608e-05   0.000277210955 -9.11096081e-05      0.239348551      0.95346992
12.661456            0.232545758      0.95515137   0.000277653378 -9.13826538e-05   0.000277653378 -9.13826538e-05      0.239710333      0.95336656
12.661484            0.232906867     0.955050945   0.000278096645 -9.16565215e-05   0.000278096645 -9.16565215e-05      0.240072352     0.953262972
12.661512            0.233268213     0.954950297   0.000278540756 -9.19312138e-05   0.000278540756 -9.19312139e-05      0.240434608     0.953159158
12.66154             0.233629797     0.954849425   0.000278985715 -9.22067336e-05   0.000278985715 -9.22067337e-05        0.2407971     0.953055117
12.661568            0.233991618     0.954748328   0.000279431522 -9.24830835e-05   0.000279431523 -9.24830836e-05       0.24115983     0.952950847
12.661596            0.234353677     0.954647007    0.00027987818 -9.27602663e-05   0.000279878181 -9.27602663e-05      0.241522797     0.952846349
12.661624            0.234715975      0.95454546   0.000280325691 -9.30382847e-05   0.000280325691 -9.30382848e-05      0.241886003     0.952741623
12.661652            0.235078511     0.954443688   0.000280774056 -9.33171415e-05   0.000280774056 -9.33171416e-05      0.242249446     0.952636667
12.66168             0.235441286     0.954341689   0.000281223277 -9.35968395e-05   0.000281223277 -9.35968396e-05      0.242613128     0.952531482
12.661708              0.2358043     0.954239464   0.000281673356 -9.38773815e-05   0.000281673356 -9.38773816e-05      0.242977048     0.952426067
12.661736            0.236167553     0.954137012   0.000282124294 -9.41587703e-05   0.000282124294 -9.41587703e-05      0.243341207     0.952320421
12.661764            0.236531045     0.954034333   0.000282576095 -9.44410086e-05   0.000282576095 -9.44410087e-05      0.243705605     0.952214544
12.661792            0.236894777     0.953931425   0.000283028758 -9.47240993e-05   0.000283028758 -9.47240994e-05      0.244070243     0.952108435
12.66182              0.23725875      0.95382829   0.000283482288 -9.50080453e-05   0.000283482288 -9.50080454e-05       0.24443512     0.952002095
12.661848            0.237622962     0.953724925   0.000283936684 -9.52928493e-05   0.000283936684 -9.52928494e-05      0.244800237     0.951895522
12.661876            0.237987415     0.953621331    0.00028439195 -9.55785142e-05    0.00028439195 -9.55785143e-05      0.245165594     0.951788716
12.661904            0.238352109     0.953517508   0.000284848086 -9.58650429e-05   0.000284848086  -9.5865043e-05      0.245531191     0.951681677
12.661932            0.238717044     0.953413454   0.000285305095 -9.61524383e-05   0.000285305096 -9.61524383e-05      0.245897029     0.951574405
12.66196              0.23908222      0.95330917    0.00028576298 -9.64407031e-05    0.00028576298 -9.64407032e-05      0.246263108     0.951466898
12.661988            0.239447638     0.953204654    0.00028622174 -9.67298404e-05    0.00028622174 -9.67298405e-05      0.246629428     0.951359156
12.662016            0.239813298     0.953099907    0.00028668138  -9.7019853e-05    0.00028668138 -9.70198531e-05      0.246995989     0.951251179
12.662044            0.240179199     0.952994928   0.000287141899 -9.73107439e-05   0.000287141899  -9.7310744e-05      0.247362792     0.951142967
12.662072            0.240545343     0.952889716   0.000287603301 -9.76025159e-05   0.000287603301  -9.7602516e-05      0.247729837     0.951034518
12.6621               0.24091173     0.952784272   0.000288065587  -9.7895172e-05   0.000288065587 -9.78951721e-05      0.248097124     0.950925833
12.662128            0.241278359     0.952678594    0.00028852876 -9.81887152e-05    0.00028852876 -9.81887152e-05      0.248464654     0.950816911
12.662156            0.241645232     0.952572682    0.00028899282 -9.84831483e-05    0.00028899282 -9.84831484e-05      0.248832426     0.950707751
12.662184            0.242012348     0.952466536    0.00028945777 -9.87784744e-05    0.00028945777 -9.87784745e-05      0.249200441     0.950598353
12.662212            0.242379708     0.952360155   0.000289923612 -9.90746965e-05   0.000289923612 -9.90746966e-05      0.249568699     0.950488717
12.66224             0.242747311     0.952253538   0.000290390348 -9.93718175e-05   0.000290390348 -9.93718176e-05      0.249937201     0.950378842
12.662268            0.243115159     0.952146686    0.00029085798 -9.96698404e-05    0.00029085798 -9.96698405e-05      0.250305946     0.950268727
12.662296            0.243483251     0.952039598   0.000291326509 -9.99687683e-05   0.000291326509 -9.99687684e-05      0.250674936     0.950158373
12.662324            0.243851588     0.951932273   0.000291795938 -0.000100268604   0.000291795938 -0.000100268604      0.251044169     0.950047778
12.662352             0.24422017      0.95182471   0.000292266268 -0.000100569351   0.000292266268 -0.000100569351      0.251413647     0.949936942
12.66238             0.244588997      0.95171691   0.000292737502 -0.000100871012   0.000292737502 -0.000100871012       0.25178337     0.949825865
12.662408             0.24495807     0.951608872   0.000293209641  -0.00010117359   0.000293209641  -0.00010117359      0.252153338     0.949714546
12.662436            0.245327388     0.951500595   0.000293682687 -0.000101477088   0.000293682688 -0.000101477088      0.252523551     0.949602985
12.662464            0.245696952      0.95139208   0.000294156643  -0.00010178151   0.000294156643  -0.00010178151       0.25289401     0.949491181
12.662492            0.246066763     0.951283324    0.00029463151 -0.000102086858   0.000294631511 -0.000102086858      0.253264714     0.949379134
12.66252              0.24643682     0.951174329   0.000295107291 -0.000102393135   0.000295107291 -0.000102393135      0.253635665     0.949266843
12.662548            0.246807124     0.951065093   0.000295583987 -0.000102700345   0.000295583987 -0.000102700345      0.254006862     0.949154308
12.662576            0.247177676     0.950955615   0.000296061599 -0.000103008491   0.000296061599 -0.000103008491      0.254378305     0.949041527
12.662604            0.247548474     0.950845897   0.000296540131 -0.000103317575   0.000296540131 -0.000103317575      0.254749995     0.948928502
12.662632             0.24791952     0.950735936   0.000297019585 -0.000103627601   0.000297019585 -0.000103627602      0.255121932     0.948815231
12.66266             0.248290814     0.950625733   0.000297499961 -0.000103938573   0.000297499961 -0.000103938573      0.255494117     0.948701714
12.662688            0.248662357     0.950515287   0.000297981262 -0.000104250493   0.000297981262 -0.000104250493      0.255866549      0.94858795
12.662716            0.249034147     0.950404597   0.000298463491 -0.000104563364   0.000298463491 -0.000104563365       0.25623923     0.948473939
12.662744            0.249406187     0.950293664   0.000298946649 -0.000104877191   0.000298946649 -0.000104877191      0.256612158      0.94835968
12.662772            0.249778475     0.950182486   0.000299430738 -0.000105191975   0.000299430738 -0.000105191975      0.256985335     0.948245172
12.6628              0.250151013     0.950071063    0.00029991576  -0.00010550772    0.00029991576  -0.00010550772       0.25735876     0.948130416
12.662828              0.2505238     0.949959394   0.000300401717  -0.00010582443   0.000300401717  -0.00010582443      0.257732435     0.948015411
12.662856            0.250896837      0.94984748   0.000300888612 -0.000106142107   0.000300888612 -0.000106142107      0.258106359     0.947900156
12.662884            0.251270123     0.949735319   0.000301376445 -0.000106460755   0.000301376445 -0.000106460755      0.258480532     0.947784651
12.662912            0.251643661     0.949622911    0.00030186522 -0.000106780377    0.00030186522 -0.000106780377      0.258854955     0.947668895
12.66294             0.252017449     0.949510256   0.000302354938 -0.000107100977   0.000302354938 -0.000107100977      0.259229628     0.947552888
12.662968            0.252391487     0.949397353   0.000302845602 -0.000107422558   0.000302845602 -0.000107422558      0.259604551     0.947436629
12.662996            0.252765777     0.949284201   0.000303337213 -0.000107745122   0.000303337213 -0.000107745122      0.259979725     0.947320118
12.663024            0.253140319       0.9491708   0.000303829773 -0.000108068674   0.000303829773 -0.000108068674       0.26035515     0.947203354
12.663052            0.253515112      0.94905715   0.000304323285 -0.000108393217   0.000304323285 -0.000108393217      0.260730826     0.947086337
12.66308             0.253890157      0.94894325    0.00030481775 -0.000108718753    0.00030481775 -0.000108718753      0.261106753     0.946969066
12.663108            0.254265454     0.948829099   0.000305313171 -0.000109045287   0.000305313171 -0.000109045287      0.261482932     0.946851541
12.663136            0.254641003     0.948714698    0.00030580955 -0.000109372822    0.00030580955 -0.000109372822      0.261859362     0.946733761
12.663164            0.255016806     0.948600045   0.000306306888 -0.000109701361   0.000306306888 -0.000109701361      0.262236045     0.946615725
12.663192            0.255392861     0.948485139   0.000306805188 -0.000110030908   0.000306805188 -0.000110030908      0.262612981     0.946497434
12.66322              0.25576917     0.948369982   0.000307304452 -0.000110361465   0.000307304452 -0.000110361465      0.262990169     0.946378886
12.663248            0.256145733     0.948254571   0.000307804681 -0.000110693037   0.000307804681 -0.000110693037       0.26336761     0.946260081
12.663276            0.256522549     0.948138907   0.000308305879 -0.000111025627   0.000308305879 -0.000111025627      0.263745304     0.946141019
12.663304             0.25689962     0.948022988   0.000308808047 -0.000111359238   0.000308808047 -0.000111359238      0.264123252     0.946021699
12.663332            0.257276945     0.947906815   0.000309311187 -0.000111693873   0.000309311187 -0.000111693873      0.264501454      0.94590212
12.66336             0.257654524     0.947790387   0.000309815302 -0.000112029537   0.000309815302 -0.000112029537       0.26487991     0.945782283
12.663388            0.258032359     0.947673703   0.000310320393 -0.000112366233   0.000310320393 -0.000112366233       0.26525862     0.945662186
12.663416            0.258410449     0.947556763   0.000310826462 -0.000112703964   0.000310826462 -0.000112703964      0.265637585     0.945541828
12.663444            0.258788795     0.947439566   0.000311333512 -0.000113042733   0.000311333513 -0.000113042733      0.266016805     0.945421211
12.663472            0.259167396     0.947322113   0.000311841545 -0.000113382545   0.000311841545 -0.000113382545      0.266396279     0.945300332
12.6635              0.259546253     0.947204401   0.000312350563 -0.000113723402   0.000312350563 -0.000113723402       0.26677601     0.945179191
