! TOUCHSTONE file generated by CST MICROWAVE STUDIO
! Date and time: Wed Jul 31 13:40:07 2024
! Project name: WaveGuide_BPF-Ver4.1_U-shape_Ku_T3_C4_CWA_2.cst
! Parameters = {cavity_h=16; cavity_l0=10; cavity_l1=15.1774; cavity_l2=16.853; cavity_l3=17.1206; cavity_l4=17.2337; cavity_l5=17.166; cavity_l6=17.5871; cavity_r=2.5; cavity_screw_l=0.5; cavity_screw_r=1.5; cavity_w=8; iris_h00=0; iris_h01=8.8184; iris_h112=0; iris_h12=5.5876; iris_h211=3.6609; iris_h23=5.2024; iris_h310=3.9721; iris_h34=5.089; iris_h45=4.9378; iris_h49=4.6106; iris_h56=4.7943; iris_h58=4.442; iris_h67=6.5734; iris_rx=0.1; iris_screw_l=0.5; iris_screw_r=1.5; iris_shift00=0; iris_shift112=0; iris_shift211=3.5; iris_shift310=0; iris_shift49=0; iris_shift58=3.5; iris_shift67=3.5; iris_tx=4.5; iris_tz=4.5; iris_w00=0; iris_w112=0; iris_w211=4; iris_w310=3.9721; iris_w49=4.6106; iris_w58=4; iris_w67=4; mesh_cavity=5; mesh_iris=7; mesh_screw=7; order=12; reset_all=0; sigma=4.8e+07}
! Header version: 2018
! Port assignment regex: !\s*Touchstone port\s*([0-9]+)\s*=\s*(CST MWS port|CST DS port)\s*([0-9]+|Zmin|Zmax)\s*\(\"(.*)\"\)(\s*mode\s*([0-9]+))?.*
! Touchstone port assignment:
! Touchstone port 1 = CST MWS port 1 ("")
! Touchstone port 2 = CST MWS port 2 ("")
# GHz S RI R 50
12.66                0.239461926     0.954100012   0.000203396433 -6.60453959e-05   0.000203396433 -6.60453959e-05      0.239490711     0.954030568
12.660028            0.239808089     0.954002217   0.000203686036 -6.62276492e-05   0.000203686035 -6.62276491e-05      0.239839657     0.953931984
12.660056            0.240154556     0.953904195   0.000203976113 -6.64104016e-05   0.000203976113 -6.64104016e-05      0.240188781     0.953833203
12.660084            0.240501283     0.953805958   0.000204266668 -6.65936519e-05   0.000204266667 -6.65936518e-05      0.240538095     0.953734222
12.660112             0.24084823     0.953707515   0.000204557702 -6.67773984e-05   0.000204557702 -6.67773983e-05      0.240887613     0.953635036
12.66014             0.241195354     0.953608877    0.00020484922 -6.69616397e-05   0.000204849219 -6.69616396e-05      0.241237345     0.953535644
12.660168            0.241542654     0.953510043   0.000205141221 -6.71463771e-05    0.00020514122  -6.7146377e-05      0.241587292     0.953436044
12.660196            0.241890159     0.953411006   0.000205433705 -6.73316141e-05   0.000205433704  -6.7331614e-05      0.241937446     0.953336239
12.660224            0.242237869     0.953311765   0.000205726673 -6.75173521e-05   0.000205726673 -6.75173521e-05      0.242287808     0.953236227
12.660252            0.242585786     0.953212321   0.000206020126 -6.77035927e-05   0.000206020126 -6.77035926e-05      0.242638377     0.953136008
12.66028             0.242933908     0.953112672   0.000206314065 -6.78903373e-05   0.000206314065 -6.78903372e-05      0.242989155     0.953035583
12.660308            0.243282236     0.953012819   0.000206608491 -6.80775872e-05    0.00020660849 -6.80775872e-05       0.24334014      0.95293495
12.660336             0.24363077     0.952912761   0.000206903404 -6.82653442e-05   0.000206903403 -6.82653441e-05      0.243691333      0.95283411
12.660364            0.243979511     0.952812497   0.000207198805 -6.84536095e-05   0.000207198805 -6.84536094e-05      0.244042735     0.952733062
12.660392            0.244328458     0.952712028   0.000207494696 -6.86423846e-05   0.000207494696 -6.86423845e-05      0.244394345     0.952631805
12.66042             0.244677612     0.952611353   0.000207791077 -6.88316712e-05   0.000207791077 -6.88316711e-05      0.244746164     0.952530339
12.660448            0.245026973     0.952510471   0.000208087949 -6.90214706e-05   0.000208087948 -6.90214705e-05      0.245098192     0.952428664
12.660476            0.245376541     0.952409383   0.000208385313 -6.92117843e-05   0.000208385312 -6.92117842e-05      0.245450429      0.95232678
12.660504            0.245726316     0.952308088   0.000208683169 -6.94026139e-05   0.000208683169 -6.94026139e-05      0.245802875     0.952224686
12.660532            0.246076299     0.952206585   0.000208981519 -6.95939609e-05   0.000208981519 -6.95939608e-05      0.246155531     0.952122381
12.66056             0.246426489     0.952104874   0.000209280364 -6.97858268e-05   0.000209280363 -6.97858267e-05      0.246508397     0.952019866
12.660588            0.246776887     0.952002955   0.000209579704  -6.9978213e-05   0.000209579703 -6.99782129e-05      0.246861472      0.95191714
12.660616            0.247127494     0.951900827    0.00020987954 -7.01711212e-05    0.00020987954 -7.01711211e-05      0.247214757     0.951814202
12.660644            0.247478308      0.95179849   0.000210179873 -7.03645528e-05   0.000210179873 -7.03645527e-05      0.247568252     0.951711053
12.660672            0.247829331     0.951695944   0.000210480705 -7.05585093e-05   0.000210480704 -7.05585092e-05      0.247921958     0.951607691
12.6607              0.248180563     0.951593188   0.000210782035 -7.07529924e-05   0.000210782034 -7.07529923e-05      0.248275875     0.951504117
12.660728            0.248532003     0.951490222   0.000211083865 -7.09480035e-05   0.000211083864 -7.09480034e-05      0.248630002      0.95140033
12.660756            0.248883652     0.951387045   0.000211386196 -7.11435442e-05   0.000211386195 -7.11435441e-05       0.24898434      0.95129633
12.660784             0.24923551     0.951283658   0.000211689028  -7.1339616e-05   0.000211689027 -7.13396159e-05      0.249338889     0.951192116
12.660812            0.249587578     0.951180059   0.000211992363 -7.15362206e-05   0.000211992362 -7.15362205e-05       0.24969365     0.951087688
12.66084             0.249939855     0.951076249   0.000212296201 -7.17333593e-05     0.0002122962 -7.17333593e-05      0.250048622     0.950983045
12.660868            0.250292342     0.950972227   0.000212600543  -7.1931034e-05   0.000212600542 -7.19310339e-05      0.250403806     0.950878187
12.660896            0.250645039     0.950867992    0.00021290539  -7.2129246e-05   0.000212905389 -7.21292459e-05      0.250759202     0.950773115
12.660924            0.250997946     0.950763544   0.000213210743 -7.23279969e-05   0.000213210743 -7.23279968e-05      0.251114809     0.950667826
12.660952            0.251351063     0.950658884   0.000213516604 -7.25272884e-05   0.000213516603 -7.25272884e-05       0.25147063     0.950562322
12.66098             0.251704391     0.950554009   0.000213822972 -7.27271221e-05   0.000213822971  -7.2727122e-05      0.251826662     0.950456601
12.661008            0.252057929     0.950448921   0.000214129848 -7.29274995e-05   0.000214129848 -7.29274994e-05      0.252182907     0.950350663
12.661036            0.252411679     0.950343619   0.000214437235 -7.31284222e-05   0.000214437234 -7.31284221e-05      0.252539365     0.950244508
12.661064            0.252765639     0.950238102   0.000214745131 -7.33298918e-05   0.000214745131 -7.33298917e-05      0.252896036     0.950138136
12.661092             0.25311981     0.950132369    0.00021505354 -7.35319099e-05   0.000215053539 -7.35319098e-05      0.253252921     0.950031546
12.66112             0.253474193     0.950026422    0.00021536246 -7.37344782e-05    0.00021536246 -7.37344781e-05      0.253610018     0.949924737
12.661148            0.253828787     0.949920258   0.000215671894 -7.39375982e-05   0.000215671893 -7.39375981e-05      0.253967329     0.949817709
12.661176            0.254183594     0.949813878   0.000215981842 -7.41412716e-05   0.000215981841 -7.41412715e-05      0.254324854     0.949710463
12.661204            0.254538612     0.949707282   0.000216292305    -7.43455e-05   0.000216292304 -7.43454999e-05      0.254682593     0.949602997
12.661232            0.254893842     0.949600468   0.000216603283  -7.4550285e-05   0.000216603283 -7.45502849e-05      0.255040547      0.94949531
12.66126             0.255249285     0.949493437   0.000216914779 -7.47556283e-05   0.000216914778 -7.47556283e-05      0.255398714     0.949387404
12.661288             0.25560494     0.949386188   0.000217226792 -7.49615316e-05   0.000217226792 -7.49615315e-05      0.255757096     0.949279277
12.661316            0.255960808     0.949278721   0.000217539324 -7.51679963e-05   0.000217539324 -7.51679962e-05      0.256115693     0.949170928
12.661344            0.256316889     0.949171036   0.000217852376 -7.53750243e-05   0.000217852376 -7.53750242e-05      0.256474504     0.949062358
12.661372            0.256673183     0.949063131   0.000218165948 -7.55826172e-05   0.000218165948 -7.55826171e-05      0.256833531     0.948953566
12.6614               0.25702969     0.948955007   0.000218480042 -7.57907766e-05   0.000218480041 -7.57907765e-05      0.257192773     0.948844552
12.661428            0.257386411     0.948846663   0.000218794658 -7.59995042e-05   0.000218794657 -7.59995041e-05      0.257552231     0.948735315
12.661456            0.257743346     0.948738099   0.000219109797 -7.62088016e-05   0.000219109797 -7.62088015e-05      0.257911904     0.948625855
12.661484            0.258100494     0.948629315   0.000219425461 -7.64186707e-05    0.00021942546 -7.64186706e-05      0.258271793     0.948516171
12.661512            0.258457857     0.948520309   0.000219741649 -7.66291129e-05   0.000219741648 -7.66291128e-05      0.258631898     0.948406264
12.66154             0.258815433     0.948411082   0.000220058364 -7.68401301e-05   0.000220058363   -7.684013e-05       0.25899222     0.948296132
12.661568            0.259173224     0.948301633   0.000220375605 -7.70517239e-05   0.000220375605 -7.70517238e-05      0.259352758     0.948185775
12.661596             0.25953123     0.948191963   0.000220693375 -7.72638961e-05   0.000220693374  -7.7263896e-05      0.259713512     0.948075193
12.661624            0.259889451     0.948082069   0.000221011673 -7.74766483e-05   0.000221011672 -7.74766482e-05      0.260074483     0.947964385
12.661652            0.260247887     0.947971952   0.000221330501 -7.76899822e-05     0.0002213305 -7.76899821e-05      0.260435672     0.947853352
12.66168             0.260606538     0.947861612    0.00022164986 -7.79038996e-05   0.000221649859 -7.79038995e-05      0.260797077     0.947742092
12.661708            0.260965404     0.947751049    0.00022196975 -7.81184022e-05   0.000221969749 -7.81184021e-05        0.2611587     0.947630605
12.661736            0.261324486     0.947640261   0.000222290173 -7.83334917e-05   0.000222290172 -7.83334916e-05      0.261520541     0.947518891
12.661764            0.261683784     0.947529248   0.000222611129 -7.85491699e-05   0.000222611129 -7.85491698e-05      0.261882599     0.947406949
12.661792            0.262043297      0.94741801    0.00022293262 -7.87654385e-05   0.000222932619 -7.87654384e-05      0.262244876     0.947294779
12.66182             0.262403027     0.947306547   0.000223254646 -7.89822991e-05   0.000223254646  -7.8982299e-05       0.26260737     0.947182381
12.661848            0.262762974     0.947194858   0.000223577209 -7.91997537e-05   0.000223577208 -7.91997536e-05      0.262970083     0.947069753
12.661876            0.263123136     0.947082943   0.000223900308  -7.9417804e-05   0.000223900308 -7.94178039e-05      0.263333015     0.946956897
12.661904            0.263483516     0.946970801   0.000224223946 -7.96364516e-05   0.000224223946 -7.96364515e-05      0.263696165     0.946843811
12.661932            0.263844113     0.946858432   0.000224548123 -7.98556984e-05   0.000224548123 -7.98556983e-05      0.264059534     0.946730494
12.66196             0.264204926     0.946745835   0.000224872841 -8.00755462e-05    0.00022487284 -8.00755461e-05      0.264423123     0.946616947
12.661988            0.264565958     0.946633011   0.000225198099 -8.02959967e-05   0.000225198098 -8.02959966e-05       0.26478693     0.946503169
12.662016            0.264927206     0.946519958   0.000225523899 -8.05170517e-05   0.000225523899 -8.05170516e-05      0.265150958     0.946389159
12.662044            0.265288673     0.946406676   0.000225850242  -8.0738713e-05   0.000225850242 -8.07387129e-05      0.265515205     0.946274918
12.662072            0.265650357     0.946293165   0.000226177129 -8.09609824e-05   0.000226177129 -8.09609823e-05      0.265879672     0.946160444
12.6621              0.266012259     0.946179425   0.000226504561 -8.11838618e-05   0.000226504561 -8.11838617e-05      0.266244359     0.946045738
12.662128             0.26637438     0.946065455   0.000226832539 -8.14073528e-05   0.000226832539 -8.14073527e-05      0.266609266     0.945930799
12.662156            0.266736719     0.945951254   0.000227161064 -8.16314574e-05   0.000227161063 -8.16314573e-05      0.266974394     0.945815626
12.662184            0.267099278     0.945836822   0.000227490136 -8.18561773e-05   0.000227490135 -8.18561772e-05      0.267339742     0.945700219
12.662212            0.267462054     0.945722159   0.000227819757 -8.20815145e-05   0.000227819756 -8.20815144e-05      0.267705312     0.945584577
12.66224              0.26782505     0.945607264   0.000228149927 -8.23074706e-05   0.000228149927 -8.23074705e-05      0.268071102     0.945468701
12.662268            0.268188266     0.945492137   0.000228480648 -8.25340476e-05   0.000228480648 -8.25340474e-05      0.268437114     0.945352589
12.662296            0.268551701     0.945376778   0.000228811921 -8.27612472e-05   0.000228811921 -8.27612471e-05      0.268803348     0.945236242
12.662324            0.268915355     0.945261185   0.000229143746 -8.29890714e-05   0.000229143746 -8.29890713e-05      0.269169803     0.945119659
12.662352             0.26927923      0.94514536   0.000229476125  -8.3217522e-05   0.000229476125 -8.32175219e-05       0.26953648     0.945002839
12.66238             0.269643324       0.9450293   0.000229809058 -8.34466009e-05   0.000229809058 -8.34466008e-05      0.269903379     0.944885782
12.662408            0.270007639     0.944913006   0.000230142547 -8.36763099e-05   0.000230142547 -8.36763098e-05        0.2702705     0.944768488
12.662436            0.270372174     0.944796477   0.000230476592 -8.39066509e-05   0.000230476592 -8.39066508e-05      0.270637844     0.944650955
12.662464             0.27073693     0.944679713   0.000230811195 -8.41376258e-05   0.000230811194 -8.41376257e-05       0.27100541     0.944533185
12.662492            0.271101907     0.944562714   0.000231146356 -8.43692365e-05   0.000231146355 -8.43692363e-05        0.2713732     0.944415175
12.66252             0.271467105     0.944445479   0.000231482076 -8.46014848e-05   0.000231482075 -8.46014847e-05      0.271741212     0.944296927
12.662548            0.271832524     0.944328007   0.000231818356 -8.48343727e-05   0.000231818356 -8.48343726e-05      0.272109448     0.944178438
12.662576            0.272198165     0.944210298   0.000232155198  -8.5067902e-05   0.000232155197 -8.50679019e-05      0.272477907      0.94405971
12.662604            0.272564027     0.944092352   0.000232492602 -8.53020747e-05   0.000232492601 -8.53020746e-05       0.27284659     0.943940741
12.662632            0.272930112     0.943974168   0.000232830569 -8.55368928e-05   0.000232830569 -8.55368927e-05      0.273215496     0.943821532
12.66266             0.273296418     0.943855746   0.000233169101  -8.5772358e-05     0.0002331691 -8.57723579e-05      0.273584627      0.94370208
12.662688            0.273662947     0.943737086   0.000233508197 -8.60084724e-05   0.000233508197 -8.60084723e-05      0.273953982     0.943582387
12.662716            0.274029698     0.943618186    0.00023384786 -8.62452379e-05    0.00023384786 -8.62452378e-05      0.274323561     0.943462452
12.662744            0.274396671     0.943499047    0.00023418809 -8.64826564e-05    0.00023418809 -8.64826563e-05      0.274693365     0.943342274
12.662772            0.274763868     0.943379668   0.000234528889 -8.67207299e-05   0.000234528888 -8.67207298e-05      0.275063394     0.943221852
12.6628              0.275131288     0.943260048   0.000234870256 -8.69594603e-05   0.000234870256 -8.69594602e-05      0.275433648     0.943101187
12.662828            0.275498931     0.943140188   0.000235212194 -8.71988496e-05   0.000235212193 -8.71988495e-05      0.275804127     0.942980278
12.662856            0.275866797     0.943020086   0.000235554702 -8.74388998e-05   0.000235554702 -8.74388996e-05      0.276174832     0.942859125
12.662884            0.276234887     0.942899743   0.000235897783 -8.76796128e-05   0.000235897783 -8.76796127e-05      0.276545762     0.942737726
12.662912            0.276603201     0.942779157   0.000236241437 -8.79209906e-05   0.000236241437 -8.79209905e-05      0.276916919     0.942616082
12.66294             0.276971739     0.942658329   0.000236585665 -8.81630352e-05   0.000236585665 -8.81630351e-05      0.277288301     0.942494192
12.662968            0.277340501     0.942537258   0.000236930469 -8.84057486e-05   0.000236930468 -8.84057485e-05      0.277659909     0.942372055
12.662996            0.277709488     0.942415943   0.000237275848 -8.86491328e-05   0.000237275848 -8.86491327e-05      0.278031744     0.942249672
12.663024            0.278078699     0.942294384   0.000237621805 -8.88931899e-05   0.000237621804 -8.88931897e-05      0.278403806     0.942127041
12.663052            0.278448135     0.942172581   0.000237968339 -8.91379217e-05   0.000237968339 -8.91379216e-05      0.278776094     0.942004163
12.66308             0.278817797     0.942050532   0.000238315453 -8.93833304e-05   0.000238315452 -8.93833303e-05       0.27914861     0.941881036
12.663108            0.279187683     0.941928239   0.000238663147 -8.96294179e-05   0.000238663146 -8.96294178e-05      0.279521352     0.941757661
12.663136            0.279557795       0.9418057   0.000239011422 -8.98761863e-05   0.000239011421 -8.98761862e-05      0.279894322     0.941634037
12.663164            0.279928133     0.941682914   0.000239360279 -9.01236377e-05   0.000239360279 -9.01236376e-05       0.28026752     0.941510163
12.663192            0.280298696     0.941559882    0.00023970972  -9.0371774e-05   0.000239709719 -9.03717739e-05      0.280640946     0.941386039
12.66322             0.280669486     0.941436602   0.000240059744 -9.06205974e-05   0.000240059744 -9.06205973e-05        0.2810146     0.941261664
12.663248            0.281040502     0.941313075   0.000240410354 -9.08701099e-05   0.000240410353 -9.08701098e-05      0.281388482     0.941137038
12.663276            0.281411744       0.9411893    0.00024076155 -9.11203135e-05   0.000240761549 -9.11203134e-05      0.281762592     0.941012161
12.663304            0.281783214     0.941065276   0.000241113333 -9.13712104e-05   0.000241113332 -9.13712103e-05      0.282136931     0.940887032
12.663332             0.28215491     0.940941003   0.000241465704 -9.16228026e-05   0.000241465704 -9.16228025e-05      0.282511499     0.940761651
12.66336             0.282526833     0.940816481   0.000241818665 -9.18750922e-05   0.000241818664 -9.18750921e-05      0.282886296     0.940636016
12.663388            0.282898983     0.940691709   0.000242172216 -9.21280813e-05   0.000242172215 -9.21280812e-05      0.283261323     0.940510129
12.663416            0.283271361     0.940566686   0.000242526358  -9.2381772e-05   0.000242526357 -9.23817718e-05      0.283636578     0.940383987
12.663444            0.283643967     0.940441412   0.000242881092 -9.26361663e-05   0.000242881092 -9.26361662e-05      0.284012064     0.940257591
12.663472              0.2840168     0.940315887    0.00024323642 -9.28912665e-05    0.00024323642 -9.28912664e-05      0.284387779     0.940130941
12.6635              0.284389862     0.940190111   0.000243592342 -9.31470747e-05   0.000243592342 -9.31470746e-05      0.284763725     0.940004035
