! TOUCHSTONE file generated by CST MICROWAVE STUDIO
! Date and time: Wed Jul 31 13:46:17 2024
! Project name: WaveGuide_BPF-Ver4.1_U-shape_Ku_T3_C4_CWA_2.cst
! Parameters = {cavity_h=16; cavity_l0=10; cavity_l1=15.1798; cavity_l2=16.8186; cavity_l3=17.1255; cavity_l4=17.2614; cavity_l5=17.0943; cavity_l6=17.6072; cavity_r=2.5; cavity_screw_l=0.5; cavity_screw_r=1.5; cavity_w=8; iris_h00=0; iris_h01=8.8231; iris_h112=0; iris_h12=5.6037; iris_h211=3.6664; iris_h23=5.2062; iris_h310=3.9609; iris_h34=5.0896; iris_h45=4.9258; iris_h49=4.6164; iris_h56=4.8033; iris_h58=4.4377; iris_h67=6.5679; iris_rx=0.1; iris_screw_l=0.5; iris_screw_r=1.5; iris_shift00=0; iris_shift112=0; iris_shift211=3.5; iris_shift310=0; iris_shift49=0; iris_shift58=3.5; iris_shift67=3.5; iris_tx=4.5; iris_tz=4.5; iris_w00=0; iris_w112=0; iris_w211=4; iris_w310=3.9609; iris_w49=4.6164; iris_w58=4; iris_w67=4; mesh_cavity=5; mesh_iris=7; mesh_screw=7; order=12; reset_all=0; sigma=4.8e+07}
! Header version: 2018
! Port assignment regex: !\s*Touchstone port\s*([0-9]+)\s*=\s*(CST MWS port|CST DS port)\s*([0-9]+|Zmin|Zmax)\s*\(\"(.*)\"\)(\s*mode\s*([0-9]+))?.*
! Touchstone port assignment:
! Touchstone port 1 = CST MWS port 1 ("")
! Touchstone port 2 = CST MWS port 2 ("")
# GHz S RI R 50
12.66                0.269841194     0.945282307   0.000175209733 -6.27494602e-05   0.000175209733 -6.27494605e-05      0.274449593     0.943925403
12.660028            0.270199707     0.945168698    0.00017543593 -6.29101079e-05    0.00017543593 -6.29101082e-05      0.274808981     0.943809583
12.660056            0.270558448     0.945054861   0.000175662443 -6.30711605e-05   0.000175662443 -6.30711607e-05      0.275168624     0.943693524
12.660084            0.270917406     0.944940798   0.000175889274 -6.32326161e-05   0.000175889275 -6.32326163e-05      0.275528497     0.943577233
12.660112            0.271276569     0.944826513   0.000176116427 -6.33944729e-05   0.000176116427 -6.33944732e-05      0.275888578     0.943460716
12.66014             0.271635924     0.944712008   0.000176343904 -6.35567292e-05   0.000176343904 -6.35567294e-05      0.276248845     0.943343979
12.660168            0.271995471     0.944597284   0.000176571704 -6.37193858e-05   0.000176571705  -6.3719386e-05      0.276609296     0.943227022
12.660196            0.272355219     0.944482337   0.000176799828 -6.38824458e-05   0.000176799829 -6.38824461e-05      0.276969949     0.943109839
12.660224            0.272715169     0.944367168   0.000177028276 -6.40459103e-05   0.000177028276 -6.40459105e-05      0.277330802     0.942992432
12.660252            0.273075319     0.944251775   0.000177257048 -6.42097802e-05   0.000177257048 -6.42097805e-05      0.277691857     0.942874798
12.66028              0.27343567     0.944136158   0.000177486144 -6.43740567e-05   0.000177486144  -6.4374057e-05      0.278053112     0.942756938
12.660308            0.273796223     0.944020318   0.000177715565 -6.45387408e-05   0.000177715565 -6.45387411e-05       0.27841457     0.942638852
12.660336            0.274156978     0.943904253   0.000177945311 -6.47038336e-05   0.000177945311 -6.47038338e-05      0.278776228     0.942520539
12.660364            0.274517934     0.943787964   0.000178175383 -6.48693361e-05   0.000178175383 -6.48693363e-05      0.279138088     0.942401998
12.660392            0.274879091     0.943671449   0.000178405781 -6.50352494e-05   0.000178405782 -6.50352496e-05       0.27950015      0.94228323
12.66042             0.275240451     0.943554709   0.000178636506 -6.52015745e-05   0.000178636507 -6.52015748e-05      0.279862414     0.942164234
12.660448            0.275602013     0.943437744   0.000178867558 -6.53683126e-05   0.000178867558 -6.53683129e-05      0.280224881     0.942045009
12.660476            0.275963777     0.943320551   0.000179098937 -6.55354648e-05   0.000179098938  -6.5535465e-05      0.280587549     0.941925555
12.660504            0.276325744     0.943203133   0.000179330644  -6.5703032e-05   0.000179330645 -6.57030322e-05       0.28095042     0.941805872
12.660532            0.276687913     0.943085487    0.00017956268 -6.58710154e-05    0.00017956268 -6.58710157e-05      0.281313493      0.94168596
12.66056             0.277050285     0.942967614   0.000179795044 -6.60394161e-05   0.000179795044 -6.60394163e-05      0.281676769     0.941565817
12.660588             0.27741286     0.942849513   0.000180027737 -6.62082351e-05   0.000180027738 -6.62082354e-05      0.282040247     0.941445444
12.660616            0.277775637     0.942731184    0.00018026076 -6.63774736e-05   0.000180260761 -6.63774739e-05      0.282403929      0.94132484
12.660644            0.278138618     0.942612626   0.000180494113 -6.65471326e-05   0.000180494114 -6.65471329e-05      0.282767814     0.941204005
12.660672            0.278501802      0.94249384   0.000180727796 -6.67172133e-05   0.000180727797 -6.67172136e-05      0.283131902     0.941082938
12.6607              0.278865189     0.942374824   0.000180961811 -6.68877167e-05   0.000180961811  -6.6887717e-05      0.283496193     0.940961639
12.660728             0.27922878     0.942255579   0.000181196156  -6.7058644e-05   0.000181196157 -6.70586442e-05      0.283860688     0.940840108
12.660756            0.279592575     0.942136103   0.000181430833 -6.72299961e-05   0.000181430834 -6.72299964e-05      0.284225387     0.940718344
12.660784            0.279956574     0.942016397   0.000181665843 -6.74017744e-05   0.000181665843 -6.74017746e-05      0.284590289     0.940596347
12.660812            0.280320776      0.94189646   0.000181901184 -6.75739798e-05   0.000181901185 -6.75739801e-05      0.284955395     0.940474117
12.66084             0.280685183     0.941776291   0.000182136859 -6.77466135e-05    0.00018213686 -6.77466138e-05      0.285320706     0.940351652
12.660868            0.281049794     0.941655891   0.000182372867 -6.79196766e-05   0.000182372868 -6.79196769e-05       0.28568622     0.940228953
12.660896             0.28141461     0.941535259    0.00018260921 -6.80931703e-05    0.00018260921 -6.80931705e-05      0.286051939     0.940106019
12.660924             0.28177963     0.941414395   0.000182845886 -6.82670955e-05   0.000182845886 -6.82670958e-05      0.286417863      0.93998285
12.660952            0.282144854     0.941293297   0.000183082897 -6.84414536e-05   0.000183082897 -6.84414538e-05      0.286783991     0.939859446
12.66098             0.282510284     0.941171967   0.000183320243 -6.86162456e-05   0.000183320243 -6.86162458e-05      0.287150325     0.939735806
12.661008            0.282875919     0.941050402   0.000183557925 -6.87914726e-05   0.000183557925 -6.87914728e-05      0.287516863     0.939611929
12.661036            0.283241759     0.940928604   0.000183795942 -6.89671357e-05   0.000183795943  -6.8967136e-05      0.287883606     0.939487815
12.661064            0.283607804     0.940806571   0.000184034296 -6.91432362e-05   0.000184034297 -6.91432365e-05      0.288250554     0.939363464
12.661092            0.283974055     0.940684303   0.000184272987 -6.93197752e-05   0.000184272988 -6.93197754e-05      0.288617708     0.939238876
12.66112             0.284340511       0.9405618   0.000184512016 -6.94967538e-05   0.000184512016  -6.9496754e-05      0.288985068      0.93911405
12.661148            0.284707173     0.940439062   0.000184751381 -6.96741731e-05   0.000184751382 -6.96741733e-05      0.289352633     0.938988985
12.661176            0.285074041     0.940316087   0.000184991085 -6.98520343e-05   0.000184991086 -6.98520346e-05      0.289720404     0.938863682
12.661204            0.285441115     0.940192876   0.000185231128 -7.00303386e-05   0.000185231128 -7.00303388e-05      0.290088381     0.938738139
12.661232            0.285808395     0.940069428   0.000185471509 -7.02090871e-05    0.00018547151 -7.02090873e-05      0.290456564     0.938612356
12.66126             0.286175882     0.939945743    0.00018571223  -7.0388281e-05   0.000185712231 -7.03882812e-05      0.290824953     0.938486334
12.661288            0.286543575      0.93982182   0.000185953291 -7.05679214e-05   0.000185953291 -7.05679217e-05      0.291193549     0.938360071
12.661316            0.286911475     0.939697659   0.000186194692 -7.07480096e-05   0.000186194692 -7.07480098e-05      0.291562351     0.938233568
12.661344            0.287279581     0.939573259   0.000186436433 -7.09285466e-05   0.000186436434 -7.09285469e-05       0.29193136     0.938106823
12.661372            0.287647895     0.939448621   0.000186678516 -7.11095337e-05   0.000186678516  -7.1109534e-05      0.292300576     0.937979836
12.6614              0.288016415     0.939323743    0.00018692094  -7.1290972e-05   0.000186920941 -7.12909723e-05      0.292669999     0.937852608
12.661428            0.288385143     0.939198626   0.000187163706 -7.14728628e-05   0.000187163707 -7.14728631e-05      0.293039629     0.937725137
12.661456            0.288754078     0.939073268   0.000187406815 -7.16552072e-05   0.000187406815 -7.16552074e-05      0.293409467     0.937597423
12.661484            0.289123221      0.93894767   0.000187650266 -7.18380063e-05   0.000187650267 -7.18380066e-05      0.293779511     0.937469465
12.661512            0.289492571     0.938821831   0.000187894061 -7.20212614e-05   0.000187894061 -7.20212617e-05      0.294149764     0.937341264
12.66154             0.289862129      0.93869575   0.000188138199 -7.22049738e-05     0.0001881382  -7.2204974e-05      0.294520224     0.937212819
12.661568            0.290231895     0.938569428   0.000188382682 -7.23891444e-05   0.000188382682 -7.23891447e-05      0.294890892     0.937084129
12.661596            0.290601869     0.938442864   0.000188627508 -7.25737747e-05   0.000188627509 -7.25737749e-05      0.295261768     0.936955194
12.661624            0.290972052     0.938316057    0.00018887268 -7.27588657e-05   0.000188872681  -7.2758866e-05      0.295632852     0.936826014
12.661652            0.291342443     0.938189007   0.000189118198 -7.29444187e-05   0.000189118198  -7.2944419e-05      0.296004144     0.936696588
12.66168             0.291713042     0.938061713   0.000189364061 -7.31304349e-05   0.000189364061 -7.31304352e-05      0.296375645     0.936566916
12.661708            0.292083851     0.937934176    0.00018961027 -7.33169155e-05    0.00018961027 -7.33169158e-05      0.296747354     0.936436997
12.661736            0.292454868     0.937806394   0.000189856826 -7.35038617e-05   0.000189856826  -7.3503862e-05      0.297119273     0.936306831
12.661764            0.292826094     0.937678368   0.000190103729 -7.36912748e-05   0.000190103729 -7.36912751e-05        0.2974914     0.936176417
12.661792            0.293197529     0.937550096    0.00019035098  -7.3879156e-05    0.00019035098 -7.38791562e-05      0.297863736     0.936045756
12.66182             0.293569173     0.937421579   0.000190598578 -7.40675064e-05   0.000190598578 -7.40675066e-05      0.298236281     0.935914846
12.661848            0.293941027     0.937292816   0.000190846525 -7.42563273e-05   0.000190846525 -7.42563276e-05      0.298609036     0.935783687
12.661876            0.294313091     0.937163807   0.000191094821   -7.444562e-05   0.000191094821 -7.44456203e-05         0.298982     0.935652279
12.661904            0.294685364     0.937034551   0.000191343466 -7.46353857e-05   0.000191343466  -7.4635386e-05      0.299355173     0.935520621
12.661932            0.295057847     0.936905047    0.00019159246 -7.48256256e-05   0.000191592461 -7.48256259e-05      0.299728557     0.935388714
12.66196              0.29543054     0.936775296   0.000191841805  -7.5016341e-05   0.000191841805 -7.50163413e-05       0.30010215     0.935256555
12.661988            0.295803443     0.936645297     0.0001920915 -7.52075332e-05     0.0001920915 -7.52075334e-05      0.300475954     0.935124146
12.662016            0.296176557     0.936515049   0.000192341546 -7.53992033e-05   0.000192341546 -7.53992035e-05      0.300849967     0.934991485
12.662044            0.296549881     0.936384553   0.000192591943 -7.55913526e-05   0.000192591944 -7.55913528e-05      0.301224191     0.934858573
12.662072            0.296923416     0.936253807   0.000192842693 -7.57839824e-05   0.000192842693 -7.57839826e-05      0.301598625     0.934725408
12.6621              0.297297161     0.936122811   0.000193093794 -7.59770939e-05   0.000193093795 -7.59770942e-05       0.30197327     0.934591991
12.662128            0.297671118     0.935991565   0.000193345248 -7.61706885e-05   0.000193345249 -7.61706887e-05      0.302348126      0.93445832
12.662156            0.298045285     0.935860068   0.000193597056 -7.63647673e-05   0.000193597056 -7.63647676e-05      0.302723193     0.934324396
12.662184            0.298419664      0.93572832   0.000193849216 -7.65593317e-05   0.000193849217 -7.65593319e-05      0.303098471     0.934190218
12.662212            0.298794254     0.935596321   0.000194101731 -7.67543828e-05   0.000194101731 -7.67543831e-05       0.30347396     0.934055786
12.66224             0.299169055     0.935464069     0.0001943546 -7.69499221e-05     0.0001943546 -7.69499224e-05       0.30384966     0.933921098
12.662268            0.299544068     0.935331565   0.000194607823 -7.71459508e-05   0.000194607824 -7.71459511e-05      0.304225572     0.933786156
12.662296            0.299919293     0.935198809   0.000194861402 -7.73424701e-05   0.000194861403 -7.73424704e-05      0.304601695     0.933650957
12.662324             0.30029473     0.935065799   0.000195115337 -7.75394814e-05   0.000195115337 -7.75394816e-05       0.30497803     0.933515503
12.662352            0.300670379     0.934932535   0.000195369628 -7.77369859e-05   0.000195369628 -7.77369862e-05      0.305354578     0.933379791
12.66238             0.301046241     0.934799017   0.000195624275 -7.79349849e-05   0.000195624275 -7.79349852e-05      0.305731337     0.933243823
12.662408            0.301422314     0.934665245   0.000195879279 -7.81334798e-05   0.000195879279 -7.81334801e-05      0.306108308     0.933107597
12.662436            0.301798601     0.934531217    0.00019613464 -7.83324718e-05   0.000196134641 -7.83324721e-05      0.306485492     0.932971113
12.662464            0.302175099     0.934396934   0.000196390359 -7.85319623e-05    0.00019639036 -7.85319626e-05      0.306862889     0.932834371
12.662492            0.302551811     0.934262395   0.000196646436 -7.87319525e-05   0.000196646437 -7.87319528e-05      0.307240498      0.93269737
12.66252             0.302928736       0.9341276   0.000196902872 -7.89324438e-05   0.000196902873  -7.8932444e-05       0.30761832     0.932560109
12.662548            0.303305874     0.933992548   0.000197159667 -7.91334374e-05   0.000197159668 -7.91334377e-05      0.307996354     0.932422589
12.662576            0.303683225     0.933857238   0.000197416822 -7.93349348e-05   0.000197416822 -7.93349351e-05      0.308374602     0.932284808
12.662604            0.304060789     0.933721671   0.000197674336 -7.95369372e-05   0.000197674336 -7.95369374e-05      0.308753063     0.932146767
12.662632            0.304438568     0.933585846    0.00019793221 -7.97394459e-05   0.000197932211 -7.97394462e-05      0.309131738     0.932008465
12.66266             0.304816559     0.933449762   0.000198190446 -7.99424623e-05   0.000198190446 -7.99424626e-05      0.309510626     0.931869901
12.662688            0.305194765     0.933313419   0.000198449042 -8.01459877e-05   0.000198449043  -8.0145988e-05      0.309889728     0.931731075
12.662716            0.305573185     0.933176816      0.000198708 -8.03500235e-05   0.000198708001 -8.03500238e-05      0.310269043     0.931591987
12.662744            0.305951819     0.933039954    0.00019896732  -8.0554571e-05   0.000198967321 -8.05545713e-05      0.310648573     0.931452636
12.662772            0.306330667     0.932902831   0.000199227003 -8.07596315e-05   0.000199227003 -8.07596318e-05      0.311028316     0.931313021
12.6628               0.30670973     0.932765447   0.000199487048 -8.09652064e-05   0.000199487048 -8.09652067e-05      0.311408274     0.931173142
12.662828            0.307089007     0.932627802   0.000199747456 -8.11712971e-05   0.000199747457 -8.11712973e-05      0.311788447     0.931032999
12.662856            0.307468499     0.932489895   0.000200008229 -8.13779048e-05   0.000200008229 -8.13779051e-05      0.312168833     0.930892592
12.662884            0.307848206     0.932351726   0.000200269365  -8.1585031e-05   0.000200269365 -8.15850313e-05      0.312549435     0.930751919
12.662912            0.308228128     0.932213295   0.000200530866  -8.1792677e-05   0.000200530866 -8.17926773e-05      0.312930251      0.93061098
12.66294             0.308608265       0.9320746   0.000200792732 -8.20008442e-05   0.000200792732 -8.20008445e-05      0.313311283     0.930469775
12.662968            0.308988618     0.931935641   0.000201054963  -8.2209534e-05   0.000201054963 -8.22095343e-05      0.313692529     0.930328304
12.662996            0.309369186     0.931796419    0.00020131756 -8.24187477e-05    0.00020131756  -8.2418748e-05      0.314073991     0.930186565
12.663024            0.309749969     0.931656931   0.000201580523 -8.26284867e-05   0.000201580523  -8.2628487e-05      0.314455668     0.930044559
12.663052            0.310130969     0.931517179   0.000201843853 -8.28387524e-05   0.000201843853 -8.28387527e-05      0.314837561     0.929902285
12.66308             0.310512184     0.931377162    0.00020210755 -8.30495462e-05    0.00020210755 -8.30495465e-05      0.315219669     0.929759743
12.663108            0.310893616     0.931236878   0.000202371614 -8.32608694e-05   0.000202371615 -8.32608697e-05      0.315601994     0.929616931
12.663136            0.311275263     0.931096328   0.000202636047 -8.34727236e-05   0.000202636047 -8.34727238e-05      0.315984534      0.92947385
12.663164            0.311657128     0.930955512   0.000202900847 -8.36851099e-05   0.000202900848 -8.36851102e-05      0.316367291     0.929330499
12.663192            0.312039208     0.930814428   0.000203166017   -8.389803e-05   0.000203166017 -8.38980302e-05      0.316750263     0.929186878
12.66322             0.312421506     0.930673076   0.000203431555 -8.41114851e-05   0.000203431556 -8.41114854e-05      0.317133453     0.929042986
12.663248             0.31280402     0.930531456   0.000203697463 -8.43254766e-05   0.000203697464 -8.43254769e-05      0.317516858     0.928898823
12.663276            0.313186751     0.930389567   0.000203963741 -8.45400061e-05   0.000203963742 -8.45400064e-05      0.317900481     0.928754388
12.663304            0.313569699     0.930247409    0.00020423039 -8.47550749e-05    0.00020423039 -8.47550752e-05       0.31828432      0.92860968
12.663332            0.313952865     0.930104981   0.000204497409 -8.49706844e-05    0.00020449741 -8.49706846e-05      0.318668377       0.9284647
12.66336             0.314336248     0.929962283     0.0002047648  -8.5186836e-05     0.0002047648 -8.51868363e-05       0.31905265     0.928319447
12.663388            0.314719848     0.929819315   0.000205032562 -8.54035312e-05   0.000205032563 -8.54035315e-05      0.319437141      0.92817392
12.663416            0.315103666     0.929676075   0.000205300696 -8.56207714e-05   0.000205300697 -8.56207717e-05      0.319821849     0.928028118
12.663444            0.315487702     0.929532564   0.000205569203 -8.58385581e-05   0.000205569204 -8.58385583e-05      0.320206775     0.927882043
12.663472            0.315871956     0.929388781   0.000205838083 -8.60568926e-05   0.000205838083 -8.60568929e-05      0.320591919     0.927735691
12.6635              0.316256429     0.929244726   0.000206107336 -8.62757764e-05   0.000206107337 -8.62757767e-05      0.320977281     0.927589065
