! TOUCHSTONE file generated by CST MICROWAVE STUDIO
! Date and time: Wed Jul 31 13:49:23 2024
! Project name: WaveGuide_BPF-Ver4.1_U-shape_Ku_T3_C4_CWA_2.cst
! Parameters = {cavity_h=16; cavity_l0=10; cavity_l1=15.1989; cavity_l2=16.8156; cavity_l3=17.0939; cavity_l4=17.2873; cavity_l5=17.143; cavity_l6=17.5837; cavity_r=2.5; cavity_screw_l=0.5; cavity_screw_r=1.5; cavity_w=8; iris_h00=0; iris_h01=8.8123; iris_h112=0; iris_h12=5.5964; iris_h211=3.6572; iris_h23=5.1967; iris_h310=3.9628; iris_h34=5.0772; iris_h45=4.9245; iris_h49=4.6215; iris_h56=4.8054; iris_h58=4.4468; iris_h67=6.5931; iris_rx=0.1; iris_screw_l=0.5; iris_screw_r=1.5; iris_shift00=0; iris_shift112=0; iris_shift211=3.5; iris_shift310=0; iris_shift49=0; iris_shift58=3.5; iris_shift67=3.5; iris_tx=4.5; iris_tz=4.5; iris_w00=0; iris_w112=0; iris_w211=4; iris_w310=3.9628; iris_w49=4.6215; iris_w58=4; iris_w67=4; mesh_cavity=5; mesh_iris=7; mesh_screw=7; order=12; reset_all=0; sigma=4.8e+07}
! Header version: 2018
! Port assignment regex: !\s*Touchstone port\s*([0-9]+)\s*=\s*(CST MWS port|CST DS port)\s*([0-9]+|Zmin|Zmax)\s*\(\"(.*)\"\)(\s*mode\s*([0-9]+))?.*
! Touchstone port assignment:
! Touchstone port 1 = CST MWS port 1 ("")
! Touchstone port 2 = CST MWS port 2 ("")
# GHz S RI R 50
12.66                0.287723615     0.939216821   0.000170529767 -6.50489555e-05   0.000170529767 -6.50489547e-05       0.29407066       0.9372262
12.660028            0.288096839     0.939090448   0.000170748736 -6.52149564e-05   0.000170748737 -6.52149556e-05      0.294444604     0.937096741
12.660056            0.288470297     0.938963824   0.000170968012 -6.53813701e-05   0.000170968013 -6.53813693e-05      0.294818724     0.936967046
12.660084            0.288843975     0.938836952   0.000171187596 -6.55481978e-05   0.000171187596  -6.5548197e-05      0.295193033     0.936837108
12.660112            0.289217864     0.938709835   0.000171407487 -6.57154407e-05   0.000171407487 -6.57154399e-05      0.295567544     0.936706925
12.66014             0.289591952     0.938582476   0.000171627686    -6.58831e-05   0.000171627686 -6.58830993e-05       0.29594227     0.936576492
12.660168            0.289966239     0.938454875   0.000171848192  -6.6051177e-05   0.000171848193 -6.60511762e-05      0.296317212     0.936445808
12.660196            0.290340733     0.938327029   0.000172069008 -6.62196725e-05   0.000172069009 -6.62196717e-05       0.29669236     0.936314875
12.660224            0.290715434     0.938198938   0.000172290133 -6.63885876e-05   0.000172290133 -6.63885868e-05      0.297067716     0.936183694
12.660252            0.291090342     0.938070601   0.000172511567 -6.65579235e-05   0.000172511567 -6.65579227e-05      0.297443279     0.936052263
12.66028             0.291465458     0.937942018    0.00017273331 -6.67276813e-05   0.000172733311 -6.67276805e-05      0.297819049     0.935920583
12.660308             0.29184078     0.937813188   0.000172955364  -6.6897862e-05   0.000172955365 -6.68978612e-05      0.298195027     0.935788652
12.660336            0.292216311     0.937684111   0.000173177729 -6.70684668e-05    0.00017317773 -6.70684661e-05      0.298571212     0.935656471
12.660364            0.292592048     0.937554786   0.000173400405 -6.72394969e-05   0.000173400405 -6.72394961e-05      0.298947604     0.935524039
12.660392            0.292967994     0.937425214   0.000173623392 -6.74109532e-05   0.000173623392 -6.74109524e-05      0.299324205     0.935391356
12.66042             0.293344147     0.937295393   0.000173846691  -6.7582837e-05   0.000173846691 -6.75828362e-05      0.299701013     0.935258421
12.660448            0.293720509     0.937165324   0.000174070301 -6.77551494e-05   0.000174070302 -6.77551486e-05      0.300078029     0.935125234
12.660476            0.294097079     0.937035005   0.000174294225 -6.79278914e-05   0.000174294226 -6.79278907e-05      0.300455254     0.934991794
12.660504            0.294473857     0.936904437   0.000174518462 -6.81010643e-05   0.000174518462 -6.81010636e-05      0.300832687     0.934858101
12.660532            0.294850843     0.936773619   0.000174743011 -6.82746692e-05   0.000174743012 -6.82746684e-05      0.301210328     0.934724154
12.66056             0.295228038     0.936642551   0.000174967875 -6.84487071e-05   0.000174967876 -6.84487063e-05      0.301588178     0.934589954
12.660588            0.295605441     0.936511232   0.000175193053 -6.86231793e-05   0.000175193053 -6.86231785e-05      0.301966237     0.934455499
12.660616            0.295983054     0.936379661   0.000175418545 -6.87980869e-05   0.000175418546 -6.87980861e-05      0.302344504      0.93432079
12.660644            0.296360875     0.936247839   0.000175644352  -6.8973431e-05   0.000175644353 -6.89734302e-05       0.30272298     0.934185825
12.660672            0.296738905     0.936115765   0.000175870475 -6.91492127e-05   0.000175870475  -6.9149212e-05      0.303101665     0.934050605
12.6607              0.297117145     0.935983439   0.000176096913 -6.93254333e-05   0.000176096914 -6.93254326e-05       0.30348056     0.933915129
12.660728            0.297495593     0.935850859   0.000176323667 -6.95020939e-05   0.000176323668 -6.95020931e-05      0.303859664     0.933779396
12.660756            0.297874252     0.935718026   0.000176550738 -6.96791957e-05   0.000176550739 -6.96791949e-05      0.304238977     0.933643406
12.660784            0.298253119     0.935584939   0.000176778126 -6.98567397e-05   0.000176778127 -6.98567389e-05        0.3046185     0.933507159
12.660812            0.298632197     0.935451599   0.000177005831 -7.00347272e-05   0.000177005832 -7.00347265e-05      0.304998233     0.933370654
12.66084             0.299011484     0.935318003   0.000177233854 -7.02131594e-05   0.000177233854 -7.02131586e-05      0.305378175     0.933233891
12.660868            0.299390982     0.935184152   0.000177462194 -7.03920374e-05   0.000177462195 -7.03920366e-05      0.305758327     0.933096869
12.660896            0.299770689     0.935050046   0.000177690854 -7.05713624e-05   0.000177690854 -7.05713616e-05       0.30613869     0.932959588
12.660924            0.300150606     0.934915684   0.000177919832 -7.07511355e-05   0.000177919832 -7.07511348e-05      0.306519262     0.932822048
12.660952            0.300530734     0.934781066   0.000178149129  -7.0931358e-05    0.00017814913 -7.09313573e-05      0.306900045     0.932684248
12.66098             0.300911073     0.934646191   0.000178378746 -7.11120311e-05   0.000178378747 -7.11120303e-05      0.307281039     0.932546187
12.661008            0.301291622     0.934511059   0.000178608683 -7.12931559e-05   0.000178608684 -7.12931551e-05      0.307662243     0.932407865
12.661036            0.301672382     0.934375669   0.000178838941 -7.14747336e-05   0.000178838941 -7.14747328e-05      0.308043658     0.932269282
12.661064            0.302053352     0.934240021   0.000179069519 -7.16567654e-05    0.00017906952 -7.16567647e-05      0.308425283     0.932130438
12.661092            0.302434534     0.934104114   0.000179300419 -7.18392526e-05   0.000179300419 -7.18392518e-05       0.30880712     0.931991331
12.66112             0.302815926     0.933967948    0.00017953164 -7.20221962e-05   0.000179531641 -7.20221955e-05      0.309189167     0.931851962
12.661148             0.30319753     0.933831523   0.000179763183 -7.22055976e-05   0.000179763184 -7.22055969e-05      0.309571426     0.931712329
12.661176            0.303579346     0.933694839   0.000179995049 -7.23894579e-05    0.00017999505 -7.23894572e-05      0.309953897     0.931572433
12.661204            0.303961372     0.933557893   0.000180227237 -7.25737784e-05   0.000180227238 -7.25737776e-05      0.310336578     0.931432273
12.661232            0.304343611     0.933420688   0.000180459749 -7.27585602e-05    0.00018045975 -7.27585595e-05      0.310719472     0.931291849
12.66126             0.304726061     0.933283221   0.000180692584 -7.29438047e-05   0.000180692585 -7.29438039e-05      0.311102577      0.93115116
12.661288            0.305108723     0.933145492   0.000180925743 -7.31295129e-05   0.000180925744 -7.31295121e-05      0.311485894     0.931010205
12.661316            0.305491597     0.933007501   0.000181159227 -7.33156861e-05   0.000181159228 -7.33156854e-05      0.311869423     0.930868985
12.661344            0.305874683     0.932869248   0.000181393035 -7.35023256e-05   0.000181393036 -7.35023249e-05      0.312253164     0.930727498
12.661372            0.306257982     0.932730732   0.000181627169 -7.36894326e-05    0.00018162717 -7.36894319e-05      0.312637117     0.930585745
12.6614              0.306641493     0.932591953   0.000181861628 -7.38770084e-05   0.000181861629 -7.38770076e-05      0.313021282     0.930443725
12.661428            0.307025216      0.93245291   0.000182096413 -7.40650541e-05   0.000182096414 -7.40650533e-05      0.313405661     0.930301438
12.661456            0.307409152     0.932313602   0.000182331525  -7.4253571e-05   0.000182331525 -7.42535702e-05      0.313790251     0.930158882
12.661484            0.307793301      0.93217403   0.000182566963 -7.44425604e-05   0.000182566964 -7.44425596e-05      0.314175055     0.930016058
12.661512            0.308177663     0.932034192   0.000182802728 -7.46320234e-05   0.000182802729 -7.46320227e-05      0.314560071     0.929872965
12.66154             0.308562237     0.931894089   0.000183038821 -7.48219615e-05   0.000183038822 -7.48219607e-05        0.3149453     0.929729602
12.661568            0.308947025      0.93175372   0.000183275242 -7.50123757e-05   0.000183275243  -7.5012375e-05      0.315330743      0.92958597
12.661596            0.309332026     0.931613084   0.000183511991 -7.52032675e-05   0.000183511992 -7.52032667e-05      0.315716399     0.929442067
12.661624            0.309717241     0.931472182   0.000183749069  -7.5394638e-05    0.00018374907 -7.53946372e-05      0.316102268     0.929297894
12.661652            0.310102669     0.931331012   0.000183986476 -7.55864885e-05   0.000183986476 -7.55864877e-05       0.31648835     0.929153449
12.66168             0.310488311     0.931189574   0.000184224212 -7.57788202e-05   0.000184224213 -7.57788195e-05      0.316874647     0.929008733
12.661708            0.310874166     0.931047868   0.000184462278 -7.59716346e-05   0.000184462279 -7.59716338e-05      0.317261156     0.928863745
12.661736            0.311260236     0.930905892   0.000184700675 -7.61649328e-05   0.000184700676  -7.6164932e-05       0.31764788     0.928718484
12.661764             0.31164652     0.930763648   0.000184939402  -7.6358716e-05   0.000184939403 -7.63587153e-05      0.318034818      0.92857295
12.661792            0.312033017     0.930621134   0.000185178461 -7.65529857e-05   0.000185178461  -7.6552985e-05       0.31842197     0.928427142
12.66182             0.312419729      0.93047835   0.000185417851 -7.67477431e-05   0.000185417851 -7.67477424e-05      0.318809336     0.928281061
12.661848            0.312806656     0.930335295   0.000185657572 -7.69429895e-05   0.000185657573 -7.69429888e-05      0.319196917     0.928134705
12.661876            0.313193797     0.930191969   0.000185897626 -7.71387261e-05   0.000185897627 -7.71387254e-05      0.319584712     0.927988074
12.661904            0.313581152     0.930048372   0.000186138013 -7.73349544e-05   0.000186138014 -7.73349536e-05      0.319972721     0.927841168
12.661932            0.313968723     0.929904502   0.000186378732 -7.75316755e-05   0.000186378733 -7.75316748e-05      0.320360946     0.927693986
12.66196             0.314356508      0.92976036   0.000186619786 -7.77288908e-05   0.000186619786 -7.77288901e-05      0.320749385     0.927546527
12.661988            0.314744509     0.929615945   0.000186861172 -7.79266016e-05   0.000186861173 -7.79266009e-05      0.321138039     0.927398792
12.662016            0.315132724     0.929471257   0.000187102894 -7.81248092e-05   0.000187102894 -7.81248085e-05      0.321526909     0.927250779
12.662044            0.315521155     0.929326295   0.000187344949  -7.8323515e-05    0.00018734495 -7.83235143e-05      0.321915993     0.927102489
12.662072            0.315909802     0.929181058    0.00018758734 -7.85227202e-05   0.000187587341 -7.85227195e-05      0.322305293     0.926953921
12.6621              0.316298664     0.929035547   0.000187830066 -7.87224262e-05   0.000187830067 -7.87224255e-05      0.322694809     0.926805073
12.662128            0.316687741      0.92888976   0.000188073128 -7.89226343e-05   0.000188073129 -7.89226336e-05       0.32308454     0.926655947
12.662156            0.317077035     0.928743698   0.000188316526 -7.91233459e-05   0.000188316527 -7.91233452e-05      0.323474487     0.926506541
12.662184            0.317466544     0.928597359   0.000188560261 -7.93245622e-05   0.000188560261 -7.93245615e-05      0.323864649     0.926356855
12.662212            0.317856269     0.928450744   0.000188804332 -7.95262847e-05   0.000188804333  -7.9526284e-05      0.324255028     0.926206888
12.66224             0.318246211     0.928303852   0.000189048741 -7.97285146e-05   0.000189048742 -7.97285139e-05      0.324645623      0.92605664
12.662268            0.318636369     0.928156682   0.000189293488 -7.99312534e-05   0.000189293489 -7.99312526e-05      0.325036434     0.925906111
12.662296            0.319026743     0.928009234   0.000189538573 -8.01345023e-05   0.000189538573 -8.01345015e-05      0.325427461       0.9257553
12.662324            0.319417334     0.927861507   0.000189783996 -8.03382627e-05   0.000189783997  -8.0338262e-05      0.325818705     0.925604206
12.662352            0.319808142     0.927713501   0.000190029758  -8.0542536e-05   0.000190029759 -8.05425353e-05      0.326210166     0.925452829
12.66238             0.320199166     0.927565216    0.00019027586 -8.07473235e-05   0.000190275861 -8.07473228e-05      0.326601843     0.925301168
12.662408            0.320590408      0.92741665   0.000190522301 -8.09526267e-05   0.000190522302  -8.0952626e-05      0.326993737     0.925149224
12.662436            0.320981866     0.927267804   0.000190769082 -8.11584468e-05   0.000190769083 -8.11584461e-05      0.327385848     0.924996995
12.662464            0.321373542     0.927118678   0.000191016204 -8.13647853e-05   0.000191016205 -8.13647846e-05      0.327778176     0.924844481
12.662492            0.321765434     0.926969269   0.000191263667 -8.15716435e-05   0.000191263668 -8.15716428e-05      0.328170721     0.924691682
12.66252             0.322157545     0.926819579   0.000191511471 -8.17790229e-05   0.000191511471 -8.17790221e-05      0.328563484     0.924538596
12.662548            0.322549873     0.926669606   0.000191759616 -8.19869247e-05   0.000191759617  -8.1986924e-05      0.328956464     0.924385225
12.662576            0.322942418     0.926519351   0.000192008104 -8.21953504e-05   0.000192008105 -8.21953497e-05      0.329349661     0.924231566
12.662604            0.323335182     0.926368812   0.000192256934 -8.24043014e-05   0.000192256935 -8.24043007e-05      0.329743077      0.92407762
12.662632            0.323728163     0.926217989   0.000192506107 -8.26137791e-05   0.000192506107 -8.26137784e-05       0.33013671     0.923923386
12.66266             0.324121362     0.926066882   0.000192755623 -8.28237849e-05   0.000192755623 -8.28237842e-05      0.330530561     0.923768864
12.662688             0.32451478      0.92591549   0.000193005482 -8.30343202e-05   0.000193005483 -8.30343195e-05       0.33092463     0.923614053
12.662716            0.324908415     0.925763813   0.000193255686 -8.32453863e-05   0.000193255687 -8.32453856e-05      0.331318918     0.923458953
12.662744             0.32530227      0.92561185   0.000193506234 -8.34569848e-05   0.000193506234 -8.34569841e-05      0.331713423     0.923303562
12.662772            0.325696342       0.9254596   0.000193757126  -8.3669117e-05   0.000193757127 -8.36691163e-05      0.332108148     0.923147881
12.6628              0.326090634     0.925307064   0.000194008364 -8.38817844e-05   0.000194008365 -8.38817837e-05       0.33250309      0.92299191
12.662828            0.326485144      0.92515424   0.000194259947 -8.40949883e-05   0.000194259948 -8.40949876e-05      0.332898252     0.922835647
12.662856            0.326879873     0.925001129   0.000194511877 -8.43087302e-05   0.000194511877 -8.43087295e-05      0.333293632     0.922679092
12.662884            0.327274821     0.924847729   0.000194764152 -8.45230116e-05   0.000194764153 -8.45230109e-05      0.333689231     0.922522245
12.662912            0.327669989     0.924694041   0.000195016774 -8.47378339e-05   0.000195016775 -8.47378332e-05      0.334085049     0.922365104
12.66294             0.328065375     0.924540063   0.000195269743 -8.49531984e-05   0.000195269744 -8.49531977e-05      0.334481086     0.922207671
12.662968            0.328460981     0.924385795    0.00019552306 -8.51691068e-05   0.000195523061 -8.51691061e-05      0.334877343     0.922049943
12.662996            0.328856807     0.924231238   0.000195776725 -8.53855603e-05   0.000195776725 -8.53855596e-05      0.335273819     0.921891922
12.663024            0.329252852     0.924076389   0.000196030737 -8.56025605e-05   0.000196030738 -8.56025598e-05      0.335670514     0.921733605
12.663052            0.329649117     0.923921249   0.000196285099 -8.58201088e-05     0.0001962851 -8.58201081e-05      0.336067429     0.921574993
12.66308             0.330045602     0.923765818   0.000196539809 -8.60382067e-05    0.00019653981 -8.60382061e-05      0.336464564     0.921416085
12.663108            0.330442307     0.923610094   0.000196794869 -8.62568557e-05    0.00019679487  -8.6256855e-05      0.336861919      0.92125688
12.663136            0.330839232     0.923454077   0.000197050278 -8.64760572e-05   0.000197050279 -8.64760565e-05      0.337259493     0.921097379
12.663164            0.331236377     0.923297767   0.000197306038 -8.66958127e-05   0.000197306039  -8.6695812e-05      0.337657288      0.92093758
12.663192            0.331633743     0.923141163   0.000197562148 -8.69161236e-05   0.000197562149 -8.69161229e-05      0.338055303     0.920777483
12.66322             0.332031329     0.922984265   0.000197818609 -8.71369915e-05    0.00019781861 -8.71369908e-05      0.338453539     0.920617088
12.663248            0.332429136     0.922827072   0.000198075421 -8.73584178e-05   0.000198075422 -8.73584172e-05      0.338851995     0.920456394
12.663276            0.332827163     0.922669584   0.000198332585 -8.75804041e-05   0.000198332586 -8.75804034e-05      0.339250671       0.9202954
12.663304            0.333225412       0.9225118   0.000198590101 -8.78029518e-05   0.000198590102 -8.78029511e-05      0.339649568     0.920134106
12.663332            0.333623881      0.92235372    0.00019884797 -8.80260624e-05   0.000198847971 -8.80260617e-05      0.340048686     0.919972512
12.66336             0.334022571     0.922195343   0.000199106191 -8.82497375e-05   0.000199106192 -8.82497368e-05      0.340448025     0.919810616
12.663388            0.334421483     0.922036668   0.000199364766 -8.84739784e-05   0.000199364766 -8.84739778e-05      0.340847585     0.919648419
12.663416            0.334820616     0.921877696   0.000199623694 -8.86987869e-05   0.000199623694 -8.86987862e-05      0.341247366      0.91948592
12.663444             0.33521997     0.921718425   0.000199882976 -8.89241642e-05   0.000199882976 -8.89241636e-05      0.341647369     0.919323118
12.663472            0.335619547     0.921558855   0.000200142612 -8.91501121e-05   0.000200142613 -8.91501114e-05      0.342047593     0.919160013
12.6635              0.336019344     0.921398986   0.000200402603  -8.9376632e-05   0.000200402604 -8.93766313e-05      0.342448038     0.918996605
