! TOUCHSTONE file generated by CST MICROWAVE STUDIO
! Date and time: Wed Jul 31 13:55:37 2024
! Project name: WaveGuide_BPF-Ver4.1_U-shape_Ku_T3_C4_CWA_2.cst
! Parameters = {cavity_h=16; cavity_l0=10; cavity_l1=15.2281; cavity_l2=16.8093; cavity_l3=17.1424; cavity_l4=17.2324; cavity_l5=17.1269; cavity_l6=17.633; cavity_r=2.5; cavity_screw_l=0.5; cavity_screw_r=1.5; cavity_w=8; iris_h00=0; iris_h01=8.8234; iris_h112=0; iris_h12=5.6083; iris_h211=3.6518; iris_h23=5.2002; iris_h310=3.9716; iris_h34=5.0751; iris_h45=4.9263; iris_h49=4.6235; iris_h56=4.8064; iris_h58=4.4398; iris_h67=6.5658; iris_rx=0.1; iris_screw_l=0.5; iris_screw_r=1.5; iris_shift00=0; iris_shift112=0; iris_shift211=3.5; iris_shift310=0; iris_shift49=0; iris_shift58=3.5; iris_shift67=3.5; iris_tx=4.5; iris_tz=4.5; iris_w00=0; iris_w112=0; iris_w211=4; iris_w310=3.9716; iris_w49=4.6235; iris_w58=4; iris_w67=4; mesh_cavity=5; mesh_iris=7; mesh_screw=7; order=12; reset_all=0; sigma=4.8e+07}
! Header version: 2018
! Port assignment regex: !\s*Touchstone port\s*([0-9]+)\s*=\s*(CST MWS port|CST DS port)\s*([0-9]+|Zmin|Zmax)\s*\(\"(.*)\"\)(\s*mode\s*([0-9]+))?.*
! Touchstone port assignment:
! Touchstone port 1 = CST MWS port 1 ("")
! Touchstone port 2 = CST MWS port 2 ("")
# GHz S RI R 50
12.66                0.451566725     0.865905989   0.000212206473 -0.000130310066   0.000212206472 -0.000130310067      0.457555031      0.86266317
12.660028            0.452028022      0.86564501   0.000212451362 -0.000130625207   0.000212451362 -0.000130625207      0.458017969     0.862396967
12.660056             0.45248961     0.865383528   0.000212696462 -0.000130941115   0.000212696462 -0.000130941115      0.458481137     0.862130285
12.660084            0.452951462     0.865121559   0.000212941775 -0.000131257789   0.000212941775 -0.000131257789      0.458944532     0.861863125
12.660112            0.453413547     0.864859115   0.000213187306 -0.000131575229   0.000213187305 -0.000131575229       0.45940815     0.861595487
12.66014             0.453875837     0.864596211   0.000213433058 -0.000131893434   0.000213433058 -0.000131893435       0.45987199     0.861327372
12.660168            0.454338331     0.864332845   0.000213679032 -0.000132212407   0.000213679031 -0.000132212407       0.46033605     0.861058779
12.660196             0.45480105     0.864069008   0.000213925224 -0.000132532149   0.000213925223  -0.00013253215      0.460800333     0.860789706
12.660224            0.455263993     0.863804699   0.000214171634 -0.000132852665   0.000214171633 -0.000132852665       0.46126484     0.860520153
12.660252            0.455727159     0.863539916   0.000214418261 -0.000133173955   0.000214418261 -0.000133173955      0.461729568     0.860250118
12.66028             0.456190549     0.863274659   0.000214665107 -0.000133496021   0.000214665106 -0.000133496021       0.46219452     0.859979602
12.660308            0.456654164     0.863008927   0.000214912169 -0.000133818865   0.000214912169 -0.000133818865      0.462659694     0.859708602
12.660336            0.457118002     0.862742719   0.000215159448 -0.000134142489   0.000215159448  -0.00013414249      0.463125091     0.859437118
12.660364            0.457582063     0.862476034   0.000215406944 -0.000134466896   0.000215406944 -0.000134466896      0.463590711      0.85916515
12.660392            0.458046349     0.862208872   0.000215654657 -0.000134792086   0.000215654656 -0.000134792087      0.464056552     0.858892696
12.66042             0.458510858     0.861941232   0.000215902585 -0.000135118063   0.000215902585 -0.000135118063      0.464522617     0.858619756
12.660448            0.458975591     0.861673112   0.000216150729 -0.000135444827   0.000216150729 -0.000135444827      0.464988904     0.858346328
12.660476            0.459440547     0.861404513   0.000216399089  -0.00013577238   0.000216399088 -0.000135772381      0.465455413     0.858072413
12.660504            0.459905727     0.861135433   0.000216647663 -0.000136100726   0.000216647663 -0.000136100726      0.465922144     0.857798009
12.660532            0.460371131     0.860865871   0.000216896453 -0.000136429865   0.000216896452 -0.000136429865      0.466389098     0.857523114
12.66056             0.460836758     0.860595826   0.000217145457 -0.000136759799   0.000217145456 -0.000136759799      0.466856274      0.85724773
12.660588            0.461302608     0.860325299   0.000217394675 -0.000137090531   0.000217394675 -0.000137090531      0.467323672     0.856971853
12.660616            0.461768682     0.860054287   0.000217644107 -0.000137422063   0.000217644107 -0.000137422063      0.467791292     0.856695485
12.660644            0.462234979      0.85978279   0.000217893753 -0.000137754395   0.000217893752 -0.000137754396      0.468259134     0.856418623
12.660672              0.4627015     0.859510808   0.000218143612 -0.000138087532   0.000218143612 -0.000138087532      0.468727198     0.856141268
12.6607              0.463168244     0.859238339   0.000218393684 -0.000138421473   0.000218393683 -0.000138421473      0.469195484     0.855863417
12.660728             0.46363521     0.858965382   0.000218643968 -0.000138756222   0.000218643968 -0.000138756222      0.469663992     0.855585071
12.660756              0.4641024     0.858691937   0.000218894465  -0.00013909178   0.000218894465  -0.00013909178      0.470132722     0.855306228
12.660784            0.464569814     0.858418003   0.000219145174 -0.000139428149   0.000219145174 -0.000139428149      0.470601674     0.855026888
12.660812             0.46503745     0.858143578   0.000219396095 -0.000139765331   0.000219396094 -0.000139765332      0.471070847     0.854747049
12.66084             0.465505309     0.857868663   0.000219647226 -0.000140103329   0.000219647226 -0.000140103329      0.471540241     0.854466712
12.660868            0.465973391     0.857593256   0.000219898569 -0.000140442144   0.000219898569 -0.000140442144      0.472009858     0.854185874
12.660896            0.466441696     0.857317357   0.000220150122 -0.000140781778   0.000220150122 -0.000140781778      0.472479695     0.853904535
12.660924            0.466910223     0.857040964   0.000220401886 -0.000141122233   0.000220401885 -0.000141122234      0.472949754     0.853622695
12.660952            0.467378974     0.856764077   0.000220653859 -0.000141463512   0.000220653859 -0.000141463512      0.473420035     0.853340352
12.66098             0.467847947     0.856486694   0.000220906042 -0.000141805616   0.000220906041 -0.000141805616      0.473890537     0.853057505
12.661008            0.468317143     0.856208816   0.000221158434 -0.000142148547   0.000221158433 -0.000142148547       0.47436126     0.852774154
12.661036            0.468786561      0.85593044   0.000221411034 -0.000142492307   0.000221411034 -0.000142492307      0.474832204     0.852490298
12.661064            0.469256202     0.855651567   0.000221663844 -0.000142836898   0.000221663843 -0.000142836899      0.475303369     0.852205935
12.661092            0.469726065     0.855372196   0.000221916861 -0.000143182323   0.000221916861 -0.000143182323      0.475774755     0.851921066
12.66112             0.470196151     0.855092325   0.000222170086 -0.000143528583   0.000222170085 -0.000143528583      0.476246362     0.851635689
12.661148            0.470666459     0.854811953   0.000222423518 -0.000143875681   0.000222423518 -0.000143875681       0.47671819     0.851349803
12.661176            0.471136989      0.85453108   0.000222677157 -0.000144223618   0.000222677157 -0.000144223618      0.477190238     0.851063407
12.661204            0.471607742     0.854249706   0.000222931003 -0.000144572396   0.000222931002 -0.000144572396      0.477662508     0.850776501
12.661232            0.472078716     0.853967828   0.000223185054 -0.000144922018   0.000223185054 -0.000144922018      0.478134998     0.850489083
12.66126             0.472549913     0.853685446   0.000223439312 -0.000145272486   0.000223439311 -0.000145272486      0.478607708     0.850201153
12.661288            0.473021332      0.85340256   0.000223693775 -0.000145623801   0.000223693774 -0.000145623801      0.479080639     0.849912709
12.661316            0.473492972     0.853119168   0.000223948442 -0.000145975966   0.000223948442 -0.000145975966      0.479553791     0.849623752
12.661344            0.473964835      0.85283527   0.000224203314 -0.000146328983   0.000224203314 -0.000146328983      0.480027162     0.849334279
12.661372            0.474436919     0.852550864   0.000224458391 -0.000146682853    0.00022445839 -0.000146682854      0.480500754     0.849044291
12.6614              0.474909225     0.852265951   0.000224713671  -0.00014703758    0.00022471367  -0.00014703758      0.480974566     0.848753786
12.661428            0.475381753     0.851980528   0.000224969154 -0.000147393164   0.000224969154 -0.000147393165      0.481448598     0.848462763
12.661456            0.475854502     0.851694595    0.00022522484 -0.000147749609    0.00022522484 -0.000147749609       0.48192285     0.848171222
12.661484            0.476327472     0.851408151   0.000225480729 -0.000148106916   0.000225480728 -0.000148106916      0.482397322     0.847879161
12.661512            0.476800664     0.851121195   0.000225736819 -0.000148465087   0.000225736819 -0.000148465088      0.482872013     0.847586579
12.66154             0.477274078     0.850833727   0.000225993111 -0.000148824125   0.000225993111 -0.000148824125      0.483346925     0.847293477
12.661568            0.477747712     0.850545745   0.000226249605 -0.000149184031   0.000226249604 -0.000149184032      0.483822056     0.846999852
12.661596            0.478221568     0.850257249   0.000226506299 -0.000149544808   0.000226506298 -0.000149544809      0.484297406     0.846705704
12.661624            0.478695645     0.849968237   0.000226763193 -0.000149906458   0.000226763192 -0.000149906458      0.484772976     0.846411032
12.661652            0.479169943     0.849678709   0.000227020287 -0.000150268982   0.000227020286 -0.000150268983      0.485248765     0.846115835
12.66168             0.479644462     0.849388664    0.00022727758 -0.000150632384    0.00022727758 -0.000150632384      0.485724774     0.845820112
12.661708            0.480119202     0.849098101   0.000227535072 -0.000150996665   0.000227535072 -0.000150996665      0.486201002     0.845523862
12.661736            0.480594162     0.848807019   0.000227792763 -0.000151361827   0.000227792762 -0.000151361827      0.486677448     0.845227085
12.661764            0.481069343     0.848515418   0.000228050651 -0.000151727872   0.000228050651 -0.000151727873      0.487154114     0.844929779
12.661792            0.481544745     0.848223295   0.000228308737 -0.000152094803   0.000228308737 -0.000152094804      0.487630998     0.844631944
12.66182             0.482020368     0.847930651    0.00022856702 -0.000152462622    0.00022856702 -0.000152462623      0.488108102     0.844333578
12.661848             0.48249621     0.847637484   0.000228825499 -0.000152831331   0.000228825499 -0.000152831331      0.488585424      0.84403468
12.661876            0.482972273     0.847343794   0.000229084175 -0.000153200932   0.000229084175 -0.000153200932      0.489062964     0.843735251
12.661904            0.483448557     0.847049579   0.000229343046 -0.000153571427   0.000229343046 -0.000153571427      0.489540723     0.843435288
12.661932             0.48392506     0.846754839   0.000229602112 -0.000153942818   0.000229602112 -0.000153942819        0.4900187     0.843134791
12.66196             0.484401783     0.846459573   0.000229861373 -0.000154315108   0.000229861372 -0.000154315109      0.490496896     0.842833758
12.661988            0.484878727      0.84616378   0.000230120828 -0.000154688299   0.000230120827 -0.000154688299       0.49097531      0.84253219
12.662016             0.48535589     0.845867458   0.000230380476 -0.000155062393   0.000230380475 -0.000155062393      0.491453941     0.842230085
12.662044            0.485833273     0.845570608   0.000230640317 -0.000155437392   0.000230640317 -0.000155437392      0.491932791     0.841927442
12.662072            0.486310876     0.845273228   0.000230900351 -0.000155813298   0.000230900351 -0.000155813298      0.492411859      0.84162426
12.6621              0.486788698     0.844975317   0.000231160577 -0.000156190114   0.000231160577 -0.000156190114      0.492891144     0.841320538
12.662128             0.48726674     0.844676874   0.000231420994 -0.000156567841   0.000231420994 -0.000156567841      0.493370647     0.841016276
12.662156            0.487745001     0.844377899   0.000231681603 -0.000156946483   0.000231681602 -0.000156946483      0.493850367     0.840711472
12.662184            0.488223482      0.84407839   0.000231942401  -0.00015732604   0.000231942401  -0.00015732604      0.494330305     0.840406125
12.662212            0.488702182     0.843778346    0.00023220339 -0.000157706516    0.00023220339 -0.000157706516       0.49481046     0.840100235
12.66224               0.4891811     0.843477767   0.000232464568 -0.000158087913   0.000232464568 -0.000158087913      0.495290832       0.8397938
12.662268            0.489660238     0.843176651   0.000232725935 -0.000158470232   0.000232725935 -0.000158470233      0.495771421      0.83948682
12.662296            0.490139595     0.842874999    0.00023298749 -0.000158853477    0.00023298749 -0.000158853477      0.496252227     0.839179293
12.662324             0.49061917     0.842572808   0.000233249233 -0.000159237649   0.000233249233 -0.000159237649       0.49673325     0.838871219
12.662352            0.491098964     0.842270077   0.000233511163  -0.00015962275   0.000233511163 -0.000159622751      0.497214489     0.838562597
12.66238             0.491578976     0.841966807    0.00023377328 -0.000160008784   0.000233773279 -0.000160008784      0.497695946     0.838253425
12.662408            0.492059207     0.841662995   0.000234035582 -0.000160395751   0.000234035582 -0.000160395751      0.498177618     0.837943704
12.662436            0.492539657     0.841358642   0.000234298071 -0.000160783655    0.00023429807 -0.000160783655      0.498659507     0.837633431
12.662464            0.493020324     0.841053745   0.000234560744 -0.000161172497   0.000234560743 -0.000161172497      0.499141612     0.837322605
12.662492             0.49350121     0.840748304   0.000234823601  -0.00016156228     0.0002348236 -0.000161562281      0.499623933     0.837011227
12.66252             0.493982313     0.840442319   0.000235086642 -0.000161953007   0.000235086642 -0.000161953007       0.50010647     0.836699295
12.662548            0.494463634     0.840135788   0.000235349866 -0.000162344678   0.000235349866 -0.000162344679      0.500589223     0.836386807
12.662576            0.494945174     0.839828709   0.000235613273 -0.000162737298   0.000235613272 -0.000162737298      0.501072191     0.836073764
12.662604             0.49542693     0.839521084   0.000235876861 -0.000163130868   0.000235876861 -0.000163130868      0.501555375     0.835760163
12.662632            0.495908905     0.839212909   0.000236140631 -0.000163525389   0.000236140631  -0.00016352539      0.502038775     0.835446005
12.66266             0.496391096     0.838904185   0.000236404582 -0.000163920866   0.000236404582 -0.000163920866      0.502522389     0.835131287
12.662688            0.496873505      0.83859491   0.000236668713 -0.000164317299   0.000236668712   -0.0001643173      0.503006219      0.83481601
12.662716            0.497356131     0.838285083   0.000236933023 -0.000164714692   0.000236933023 -0.000164714692      0.503490264     0.834500172
12.662744            0.497838974     0.837974704   0.000237197512 -0.000165113046   0.000237197512 -0.000165113046      0.503974524     0.834183772
12.662772            0.498322034     0.837663772   0.000237462179 -0.000165512364   0.000237462179 -0.000165512364      0.504458998     0.833866809
12.6628              0.498805311     0.837352285   0.000237727024 -0.000165912648   0.000237727024 -0.000165912648      0.504943687     0.833549282
12.662828            0.499288804     0.837040242   0.000237992046 -0.000166313901   0.000237992046 -0.000166313901      0.505428591      0.83323119
12.662856            0.499772514     0.836727643   0.000238257244 -0.000166716124   0.000238257244 -0.000166716125      0.505913708     0.832912532
12.662884            0.500256441     0.836414487   0.000238522618 -0.000167119321   0.000238522618 -0.000167119321       0.50639904     0.832593308
12.662912            0.500740583     0.836100772   0.000238788167 -0.000167523493   0.000238788167 -0.000167523494      0.506884586     0.832273516
12.66294             0.501224942     0.835786498    0.00023905389 -0.000167928643    0.00023905389 -0.000167928644      0.507370346     0.831953155
12.662968            0.501709516     0.835471663   0.000239319787 -0.000168334774   0.000239319787 -0.000168334774       0.50785632     0.831632224
12.662996            0.502194307     0.835156267   0.000239585857 -0.000168741887   0.000239585857 -0.000168741887      0.508342507     0.831310722
12.663024            0.502679313     0.834840309   0.000239852099 -0.000169149985   0.000239852099 -0.000169149985      0.508828907     0.830988649
12.663052            0.503164535     0.834523788   0.000240118513  -0.00016955907   0.000240118513  -0.00016955907      0.509315521     0.830666003
12.66308             0.503649972     0.834206702   0.000240385098 -0.000169969145   0.000240385098 -0.000169969145      0.509802348     0.830342783
12.663108            0.504135624     0.833889051   0.000240651853 -0.000170380212   0.000240651853 -0.000170380213      0.510289388     0.830018988
12.663136            0.504621492     0.833570834   0.000240918778 -0.000170792274   0.000240918778 -0.000170792274      0.510776641     0.829694617
12.663164            0.505107575     0.833252049   0.000241185872 -0.000171205332   0.000241185871 -0.000171205333      0.511264106      0.82936967
12.663192            0.505593872     0.832932696   0.000241453133  -0.00017161939   0.000241453133 -0.000171619391      0.511751784     0.829044145
12.66322             0.506080385     0.832612774   0.000241720563  -0.00017203445   0.000241720562  -0.00017203445      0.512239675      0.82871804
12.663248            0.506567111     0.832292282   0.000241988159 -0.000172450513   0.000241988158 -0.000172450513      0.512727777     0.828391356
12.663276            0.507054053     0.831971218   0.000242255921 -0.000172867583    0.00024225592 -0.000172867584      0.513216092     0.828064092
12.663304            0.507541208     0.831649583   0.000242523848 -0.000173285662   0.000242523848 -0.000173285662      0.513704618     0.827736245
12.663332            0.508028578     0.831327374    0.00024279194 -0.000173704752    0.00024279194 -0.000173704753      0.514193356     0.827407815
12.66336             0.508516161     0.831004591   0.000243060196 -0.000174124856   0.000243060195 -0.000174124857      0.514682306     0.827078801
12.663388            0.509003959     0.830681232   0.000243328615 -0.000174545977   0.000243328614 -0.000174545977      0.515171467     0.826749203
12.663416             0.50949197     0.830357297   0.000243597196 -0.000174968116   0.000243597195 -0.000174968116      0.515660839     0.826419018
12.663444            0.509980195     0.830032785   0.000243865938 -0.000175391276   0.000243865938 -0.000175391276      0.516150422     0.826088247
12.663472            0.510468633     0.829707695   0.000244134842 -0.000175815459   0.000244134842 -0.000175815459      0.516640216     0.825756887
12.6635              0.510957284     0.829382025   0.000244403906 -0.000176240668   0.000244403905 -0.000176240669      0.517130221     0.825424938
