! TOUCHSTONE file generated by CST MICROWAVE STUDIO
! Date and time: Wed Jul 31 13:58:44 2024
! Project name: WaveGuide_BPF-Ver4.1_U-shape_Ku_T3_C4_CWA_2.cst
! Parameters = {cavity_h=16; cavity_l0=10; cavity_l1=15.2333; cavity_l2=16.8522; cavity_l3=17.1096; cavity_l4=17.2632; cavity_l5=17.1168; cavity_l6=17.6288; cavity_r=2.5; cavity_screw_l=0.5; cavity_screw_r=1.5; cavity_w=8; iris_h00=0; iris_h01=8.8013; iris_h112=0; iris_h12=5.5944; iris_h211=3.6533; iris_h23=5.2111; iris_h310=3.9734; iris_h34=5.0754; iris_h45=4.9393; iris_h49=4.6246; iris_h56=4.793; iris_h58=4.4462; iris_h67=6.5756; iris_rx=0.1; iris_screw_l=0.5; iris_screw_r=1.5; iris_shift00=0; iris_shift112=0; iris_shift211=3.5; iris_shift310=0; iris_shift49=0; iris_shift58=3.5; iris_shift67=3.5; iris_tx=4.5; iris_tz=4.5; iris_w00=0; iris_w112=0; iris_w211=4; iris_w310=3.9734; iris_w49=4.6246; iris_w58=4; iris_w67=4; mesh_cavity=5; mesh_iris=7; mesh_screw=7; order=12; reset_all=0; sigma=4.8e+07}
! Header version: 2018
! Port assignment regex: !\s*Touchstone port\s*([0-9]+)\s*=\s*(CST MWS port|CST DS port)\s*([0-9]+|Zmin|Zmax)\s*\(\"(.*)\"\)(\s*mode\s*([0-9]+))?.*
! Touchstone port assignment:
! Touchstone port 1 = CST MWS port 1 ("")
! Touchstone port 2 = CST MWS port 2 ("")
# GHz S RI R 50
12.66                0.382003328      0.90035597   0.000280098017 -0.000145975003   0.000280098017 -0.000145975003       0.39146674     0.896154344
12.660028            0.382451222     0.900146899   0.000280491984 -0.000146371445   0.000280491985 -0.000146371445      0.391917165     0.895938224
12.660056            0.382899501     0.899937367    0.00028088651 -0.000146768998    0.00028088651 -0.000146768999      0.392367806     0.895721704
12.660084            0.383348113     0.899727396   0.000281281598 -0.000147167663   0.000281281598 -0.000147167663      0.392818682     0.895504773
12.660112            0.383797006     0.899517005   0.000281677254 -0.000147567439   0.000281677254 -0.000147567439      0.393269816     0.895287423
12.66014             0.384246129     0.899306216   0.000282073482 -0.000147968325   0.000282073482 -0.000147968326      0.393721226     0.895069643
12.660168            0.384695482     0.899095027   0.000282470284 -0.000148370326   0.000282470284 -0.000148370326      0.394172914     0.894851433
12.660196            0.385145099     0.898883424   0.000282867656 -0.000148773446   0.000282867656 -0.000148773446      0.394624866     0.894632798
12.660224             0.38559498     0.898671406     0.0002832656 -0.000149177689     0.0002832656  -0.00014917769      0.395077082     0.894413737
12.660252            0.386045126     0.898458971   0.000283664116 -0.000149583059   0.000283664116 -0.000149583059      0.395529562     0.894194249
12.66028             0.386495536      0.89824612   0.000284063204 -0.000149989558   0.000284063204 -0.000149989559      0.395982306     0.893974333
12.660308            0.386946212     0.898032851   0.000284462865 -0.000150397191   0.000284462866 -0.000150397191      0.396435314     0.893753989
12.660336            0.387397152     0.897819164     0.0002848631  -0.00015080596     0.0002848631 -0.000150805961      0.396888587     0.893533215
12.660364            0.387848357     0.897605057   0.000285263909 -0.000151215869   0.000285263909  -0.00015121587      0.397342124     0.893312012
12.660392            0.388299828     0.897390531   0.000285665292 -0.000151626922   0.000285665292 -0.000151626922      0.397795926     0.893090377
12.66042             0.388751563     0.897175583   0.000286067251 -0.000152039121   0.000286067251 -0.000152039121      0.398249993     0.892868311
12.660448            0.389203565     0.896960214   0.000286469785  -0.00015245247   0.000286469785 -0.000152452471      0.398704324     0.892645812
12.660476            0.389655831     0.896744423   0.000286872895 -0.000152866973   0.000286872895 -0.000152866974      0.399158921      0.89242288
12.660504            0.390108363     0.896528208   0.000287276582 -0.000153282633   0.000287276582 -0.000153282634      0.399613782     0.892199514
12.660532            0.390561162     0.896311569   0.000287680846 -0.000153699454   0.000287680846 -0.000153699454      0.400068909     0.891975712
12.66056             0.391014225     0.896094505   0.000288085688 -0.000154117439   0.000288085688 -0.000154117439      0.400524301     0.891751475
12.660588            0.391467555     0.895877016   0.000288491108 -0.000154536591   0.000288491108 -0.000154536591      0.400979958     0.891526801
12.660616            0.391921151       0.8956591   0.000288897106 -0.000154956914   0.000288897106 -0.000154956914      0.401435881     0.891301689
12.660644            0.392375013     0.895440757   0.000289303684 -0.000155378411   0.000289303684 -0.000155378412      0.401892069     0.891076139
12.660672            0.392829142     0.895221985   0.000289710842 -0.000155801087   0.000289710842 -0.000155801087      0.402348523     0.890850149
12.6607              0.393283537     0.895002785    0.00029011858 -0.000156224944    0.00029011858 -0.000156224944      0.402805243      0.89062372
12.660728            0.393738198     0.894783154   0.000290526898 -0.000156649986   0.000290526899 -0.000156649986      0.403262229     0.890396849
12.660756            0.394193126     0.894563093   0.000290935798 -0.000157076216   0.000290935799 -0.000157076217       0.40371948     0.890169537
12.660784            0.394648321     0.894342601    0.00029134528 -0.000157503639    0.00029134528 -0.000157503639      0.404176998     0.889941782
12.660812            0.395103783     0.894121676   0.000291755344 -0.000157932258   0.000291755344 -0.000157932258      0.404634782     0.889713584
12.66084             0.395559512     0.893900319   0.000292165991 -0.000158362075   0.000292165991 -0.000158362076      0.405092832     0.889484941
12.660868            0.396015508     0.893678527   0.000292577221 -0.000158793096   0.000292577221 -0.000158793097      0.405551149     0.889255853
12.660896            0.396471771       0.8934563   0.000292989035 -0.000159225323   0.000292989035 -0.000159225324      0.406009732     0.889026319
12.660924            0.396928301     0.893233638   0.000293401433 -0.000159658761   0.000293401433 -0.000159658761      0.406468581     0.888796338
12.660952            0.397385099      0.89301054   0.000293814415 -0.000160093412   0.000293814416 -0.000160093412      0.406927698     0.888565909
12.66098             0.397842164     0.892787004   0.000294227983  -0.00016052928   0.000294227984 -0.000160529281      0.407387081     0.888335031
12.661008            0.398299497      0.89256303   0.000294642137  -0.00016096637   0.000294642137  -0.00016096637      0.407846731     0.888103704
12.661036            0.398757098     0.892338617   0.000295056877 -0.000161404684   0.000295056877 -0.000161404684      0.408306648     0.887871927
12.661064            0.399214966     0.892113764   0.000295472203 -0.000161844227   0.000295472204 -0.000161844227      0.408766832     0.887639698
12.661092            0.399673103      0.89188847   0.000295888117 -0.000162285001   0.000295888117 -0.000162285002      0.409227283     0.887407017
12.66112             0.400131507     0.891662735   0.000296304618 -0.000162727012   0.000296304618 -0.000162727012      0.409688001     0.887173883
12.661148             0.40059018     0.891436557   0.000296721707 -0.000163170262   0.000296721708 -0.000163170262      0.410148987     0.886940296
12.661176            0.401049121     0.891209937   0.000297139385 -0.000163614755   0.000297139386 -0.000163614755       0.41061024     0.886706253
12.661204             0.40150833     0.890982872   0.000297557652 -0.000164060495   0.000297557652 -0.000164060495      0.411071761     0.886471755
12.661232            0.401967808     0.890755362   0.000297976509 -0.000164507486   0.000297976509 -0.000164507486       0.41153355     0.886236801
12.66126             0.402427555     0.890527406   0.000298395955 -0.000164955731   0.000298395955 -0.000164955731      0.411995606     0.886001389
12.661288             0.40288757     0.890299004   0.000298815992 -0.000165405234   0.000298815992 -0.000165405234       0.41245793     0.885765518
12.661316            0.403347854     0.890070154   0.000299236619 -0.000165855999   0.000299236619    -0.000165856      0.412920522     0.885529189
12.661344            0.403808406     0.889840855   0.000299657838  -0.00016630803   0.000299657838 -0.000166308031      0.413383382       0.8852924
12.661372            0.404269228     0.889611108   0.000300079649 -0.000166761331   0.000300079649 -0.000166761331       0.41384651     0.885055149
12.6614              0.404730319      0.88938091   0.000300502052 -0.000167215905   0.000300502052 -0.000167215905      0.414309906     0.884817437
12.661428            0.405191679     0.889150261   0.000300925047 -0.000167671756   0.000300925048 -0.000167671757       0.41477357     0.884579262
12.661456            0.405653309     0.888919161   0.000301348636 -0.000168128888   0.000301348636 -0.000168128889      0.415237503     0.884340623
12.661484            0.406115208     0.888687607   0.000301772818 -0.000168587306   0.000301772819 -0.000168587306      0.415701704      0.88410152
12.661512            0.406577376       0.8884556   0.000302197595 -0.000169047012   0.000302197595 -0.000169047012      0.416166174     0.883861951
12.66154             0.407039814     0.888223138   0.000302622965  -0.00016950801   0.000302622965 -0.000169508011      0.416630913     0.883621916
12.661568            0.407502521     0.887990221   0.000303048931 -0.000169970306   0.000303048931 -0.000169970306       0.41709592     0.883381414
12.661596            0.407965499     0.887756848   0.000303475492 -0.000170433901   0.000303475492 -0.000170433902      0.417561196     0.883140444
12.661624            0.408428746     0.887523017   0.000303902648 -0.000170898801   0.000303902648 -0.000170898802      0.418026741     0.882899005
12.661652            0.408892263     0.887288729   0.000304330401  -0.00017136501   0.000304330401  -0.00017136501      0.418492555     0.882657095
12.66168             0.409356051     0.887053981    0.00030475875  -0.00017183253   0.000304758751 -0.000171832531      0.418958638     0.882414715
12.661708            0.409820108     0.886818774   0.000305187697 -0.000172301367   0.000305187697 -0.000172301367       0.41942499     0.882171863
12.661736            0.410284436     0.886583106    0.00030561724 -0.000172771524   0.000305617241 -0.000172771524      0.419891611     0.881928538
12.661764            0.410749034     0.886346976   0.000306047382 -0.000173243005   0.000306047382 -0.000173243005      0.420358501      0.88168474
12.661792            0.411213903     0.886110384   0.000306478122 -0.000173715814   0.000306478122 -0.000173715815      0.420825661     0.881440467
12.66182             0.411679042     0.885873328    0.00030690946 -0.000174189956    0.00030690946 -0.000174189956      0.421293091     0.881195719
12.661848            0.412144452     0.885635808   0.000307341398 -0.000174665433   0.000307341398 -0.000174665434       0.42176079     0.880950494
12.661876            0.412610132     0.885397823   0.000307773935 -0.000175142251   0.000307773935 -0.000175142251      0.422228758     0.880704792
12.661904            0.413076084     0.885159371   0.000308207071 -0.000175620413   0.000308207072 -0.000175620413      0.422696997     0.880458611
12.661932            0.413542306     0.884920453   0.000308640809 -0.000176099923   0.000308640809 -0.000176099923      0.423165505     0.880211952
12.66196             0.414008799     0.884681066   0.000309075146 -0.000176580786   0.000309075147 -0.000176580786      0.423634283     0.879964812
12.661988            0.414475564     0.884441211   0.000309510085 -0.000177063005   0.000309510085 -0.000177063005      0.424103331     0.879717191
12.662016            0.414942599     0.884200886   0.000309945625 -0.000177546584   0.000309945626 -0.000177546584      0.424572649     0.879469089
12.662044            0.415409906      0.88396009   0.000310381767 -0.000178031528   0.000310381768 -0.000178031529      0.425042237     0.879220503
12.662072            0.415877484     0.883718823   0.000310818511 -0.000178517841   0.000310818512 -0.000178517842      0.425512095     0.878971433
12.6621              0.416345334     0.883477083   0.000311255858 -0.000179005527   0.000311255859 -0.000179005527      0.425982223     0.878721879
12.662128            0.416813455     0.883234869   0.000311693808  -0.00017949459   0.000311693808  -0.00017949459      0.426452622     0.878471839
12.662156            0.417281848     0.882992181   0.000312132361 -0.000179985034   0.000312132361 -0.000179985034      0.426923291     0.878221312
12.662184            0.417750513     0.882749018   0.000312571518 -0.000180476863   0.000312571518 -0.000180476864      0.427394231     0.877970298
12.662212            0.418219449     0.882505379   0.000313011278 -0.000180970082   0.000313011279 -0.000180970083      0.427865441     0.877718794
12.66224             0.418688657     0.882261263   0.000313451644 -0.000181464695   0.000313451644 -0.000181464695      0.428336922     0.877466802
12.662268            0.419158138     0.882016668   0.000313892614 -0.000181960706   0.000313892614 -0.000181960706      0.428808673     0.877214319
12.662296             0.41962789     0.881771594   0.000314334189 -0.000182458119   0.000314334189 -0.000182458119      0.429280696     0.876961344
12.662324            0.420097914     0.881526041   0.000314776369 -0.000182956938   0.000314776369 -0.000182956938      0.429752989     0.876707877
12.662352            0.420568211     0.881280006   0.000315219155 -0.000183457168   0.000315219156 -0.000183457169      0.430225553     0.876453916
12.66238              0.42103878      0.88103349   0.000315662548 -0.000183958813   0.000315662548 -0.000183958814      0.430698388     0.876199461
12.662408            0.421509621     0.880786491   0.000316106547 -0.000184461877   0.000316106547 -0.000184461878      0.431171494     0.875944511
12.662436            0.421980735     0.880539008   0.000316551153 -0.000184966365   0.000316551153 -0.000184966366      0.431644871     0.875689064
12.662464            0.422452121      0.88029104   0.000316996366 -0.000185472281   0.000316996366 -0.000185472281      0.432118519      0.87543312
12.662492             0.42292378     0.880042587   0.000317442186 -0.000185979629   0.000317442187 -0.000185979629      0.432592438     0.875176678
12.66252             0.423395711     0.879793647   0.000317888615 -0.000186488413   0.000317888615 -0.000186488414      0.433066629     0.874919737
12.662548            0.423867916      0.87954422   0.000318335651 -0.000186998639   0.000318335651 -0.000186998639      0.433541091     0.874662295
12.662576            0.424340393     0.879294304   0.000318783296 -0.000187510309   0.000318783296 -0.000187510309      0.434015825     0.874404352
12.662604            0.424813143     0.879043898    0.00031923155 -0.000188023429    0.00031923155  -0.00018802343       0.43449083     0.874145907
12.662632            0.425286166     0.878793003   0.000319680413 -0.000188538003   0.000319680413 -0.000188538004      0.434966107     0.873886959
12.66266             0.425759462     0.878541616   0.000320129885 -0.000189054036   0.000320129885 -0.000189054036      0.435441655     0.873627506
12.662688            0.426233032     0.878289736   0.000320579967 -0.000189571531   0.000320579967 -0.000189571532      0.435917475     0.873367549
12.662716            0.426706874     0.878037363   0.000321030659 -0.000190090494   0.000321030659 -0.000190090494      0.436393566     0.873107085
12.662744             0.42718099     0.877784496   0.000321481961 -0.000190610928   0.000321481961 -0.000190610929       0.43686993     0.872846114
12.662772            0.427655379     0.877531134   0.000321933874 -0.000191132839   0.000321933874 -0.000191132839      0.437346565     0.872584635
12.6628              0.428130042     0.877277276   0.000322386398  -0.00019165623   0.000322386398  -0.00019165623      0.437823472     0.872322647
12.662828            0.428604978      0.87702292   0.000322839533 -0.000192181106   0.000322839533 -0.000192181107      0.438300651     0.872060149
12.662856            0.429080188     0.876768066   0.000323293279 -0.000192707472   0.000323293279 -0.000192707473      0.438778102      0.87179714
12.662884            0.429555671     0.876512713   0.000323747637 -0.000193235332   0.000323747637 -0.000193235333      0.439255826     0.871533618
12.662912            0.430031429      0.87625686   0.000324202607 -0.000193764691   0.000324202607 -0.000193764692      0.439733821     0.871269584
12.66294             0.430507459     0.876000506   0.000324658189 -0.000194295554    0.00032465819 -0.000194295554      0.440212089     0.871005035
12.662968            0.430983764     0.875743649   0.000325114384 -0.000194827924   0.000325114385 -0.000194827924      0.440690628     0.870739971
12.662996            0.431460343      0.87548629   0.000325571192 -0.000195361806   0.000325571192 -0.000195361806       0.44116944     0.870474391
12.663024            0.431937196     0.875228426   0.000326028613 -0.000195897205   0.000326028613 -0.000195897206      0.441648525     0.870208293
12.663052            0.432414322     0.874970058   0.000326486646 -0.000196434127   0.000326486647 -0.000196434127      0.442127882     0.869941678
12.66308             0.432891723     0.874711183   0.000326945294 -0.000196972574   0.000326945294 -0.000196972574      0.442607511     0.869674543
12.663108            0.433369398     0.874451801   0.000327404555 -0.000197512552   0.000327404555 -0.000197512552      0.443087413     0.869406888
12.663136            0.433847348     0.874191911    0.00032786443 -0.000198054066   0.000327864431 -0.000198054066      0.443567587     0.869138711
12.663164            0.434325571     0.873931512    0.00032832492  -0.00019859712    0.00032832492  -0.00019859712      0.444048034     0.868870013
12.663192            0.434804069     0.873670603   0.000328786024 -0.000199141718   0.000328786024 -0.000199141719      0.444528753     0.868600791
12.66322             0.435282842     0.873409183   0.000329247742 -0.000199687867   0.000329247743 -0.000199687867      0.445009746     0.868331044
12.663248            0.435761889     0.873147251   0.000329710076 -0.000200235569   0.000329710076  -0.00020023557      0.445491011     0.868060772
12.663276             0.43624121     0.872884806   0.000330173025 -0.000200784831   0.000330173025 -0.000200784832      0.445972548     0.867789974
12.663304            0.436720806     0.872621846   0.000330636589 -0.000201335657   0.000330636589 -0.000201335657      0.446454359     0.867518648
12.663332            0.437200677     0.872358372   0.000331100768 -0.000201888051   0.000331100768 -0.000201888051      0.446936442     0.867246793
12.66336             0.437680822     0.872094381   0.000331565563 -0.000202442018   0.000331565564 -0.000202442018      0.447418798     0.866974409
12.663388            0.438161242     0.871829873   0.000332030975 -0.000202997563   0.000332030975 -0.000202997564      0.447901428     0.866701495
12.663416            0.438641938     0.871564847   0.000332497002 -0.000203554692   0.000332497002 -0.000203554692       0.44838433     0.866428048
12.663444            0.439122908     0.871299302   0.000332963646 -0.000204113408   0.000332963646 -0.000204113408      0.448867505     0.866154069
12.663472            0.439604152     0.871033236   0.000333430906 -0.000204673716   0.000333430906 -0.000204673716      0.449350953     0.865879556
12.6635              0.440085672     0.870766649   0.000333898783 -0.000205235622   0.000333898783 -0.000205235622      0.449834675     0.865604508
