! TOUCHSTONE file generated by CST MICROWAVE STUDIO
! Date and time: Wed Jul 31 14:01:49 2024
! Project name: WaveGuide_BPF-Ver4.1_U-shape_Ku_T3_C4_CWA_2.cst
! Parameters = {cavity_h=16; cavity_l0=10; cavity_l1=15.202; cavity_l2=16.8794; cavity_l3=17.1333; cavity_l4=17.2795; cavity_l5=17.127; cavity_l6=17.5765; cavity_r=2.5; cavity_screw_l=0.5; cavity_screw_r=1.5; cavity_w=8; iris_h00=0; iris_h01=8.8005; iris_h112=0; iris_h12=5.603; iris_h211=3.6614; iris_h23=5.1987; iris_h310=3.9744; iris_h34=5.079; iris_h45=4.9178; iris_h49=4.6154; iris_h56=4.789; iris_h58=4.4389; iris_h67=6.5961; iris_rx=0.1; iris_screw_l=0.5; iris_screw_r=1.5; iris_shift00=0; iris_shift112=0; iris_shift211=3.5; iris_shift310=0; iris_shift49=0; iris_shift58=3.5; iris_shift67=3.5; iris_tx=4.5; iris_tz=4.5; iris_w00=0; iris_w112=0; iris_w211=4; iris_w310=3.9744; iris_w49=4.6154; iris_w58=4; iris_w67=4; mesh_cavity=5; mesh_iris=7; mesh_screw=7; order=12; reset_all=0; sigma=4.8e+07}
! Header version: 2018
! Port assignment regex: !\s*Touchstone port\s*([0-9]+)\s*=\s*(CST MWS port|CST DS port)\s*([0-9]+|Zmin|Zmax)\s*\(\"(.*)\"\)(\s*mode\s*([0-9]+))?.*
! Touchstone port assignment:
! Touchstone port 1 = CST MWS port 1 ("")
! Touchstone port 2 = CST MWS port 2 ("")
# GHz S RI R 50
12.66                0.290850392     0.936721022    0.00032219493 -0.000128085083   0.000322194931 -0.000128085084      0.290608096     0.936985417
12.660028            0.291255036      0.93657939   0.000322708548 -0.000128464421   0.000322708549 -0.000128464422      0.291008604     0.936845462
12.660056             0.29165993     0.936437459   0.000323223121   -0.0001288449   0.000323223121   -0.0001288449      0.291409336     0.936705221
12.660084            0.292065084     0.936295224   0.000323738645 -0.000129226527   0.000323738646 -0.000129226527      0.291810312     0.936564686
12.660112            0.292470512     0.936152682    0.00032425512 -0.000129609312   0.000324255121 -0.000129609312      0.292211553      0.93642385
12.66014             0.292876224     0.936009828   0.000324772543 -0.000129993262   0.000324772543 -0.000129993263      0.292613082     0.936282707
12.660168            0.293282222     0.935866662   0.000325290915 -0.000130378383   0.000325290916 -0.000130378384      0.293014897     0.936141255
12.660196            0.293688496     0.935723185   0.000325810242 -0.000130764675   0.000325810243 -0.000130764675      0.293416986     0.935999499
12.660224            0.294095049     0.935579396   0.000326330525 -0.000131152142   0.000326330525 -0.000131152142      0.293819349     0.935857438
12.660252            0.294501879     0.935435296   0.000326851766 -0.000131540787   0.000326851766 -0.000131540787      0.294221986      0.93571507
12.66028             0.294908988     0.935290883   0.000327373966 -0.000131930614   0.000327373967 -0.000131930614      0.294624898     0.935572396
12.660308            0.295316376     0.935146156   0.000327897128 -0.000132321628   0.000327897129 -0.000132321628      0.295028084     0.935429414
12.660336            0.295724042     0.935001115   0.000328421254 -0.000132713832   0.000328421255 -0.000132713833      0.295431545     0.935286125
12.660364            0.296131988      0.93485576   0.000328946345 -0.000133107231   0.000328946346 -0.000133107231      0.295835281     0.935142527
12.660392            0.296540213     0.934710089   0.000329472403 -0.000133501828   0.000329472404 -0.000133501829      0.296239293      0.93499862
12.66042             0.296948719     0.934564103    0.00032999943 -0.000133897628   0.000329999431 -0.000133897628       0.29664358     0.934854403
12.660448            0.297357504     0.934417799   0.000330527428 -0.000134294634   0.000330527429 -0.000134294634      0.297048143     0.934709876
12.660476            0.297766569     0.934271179   0.000331056399  -0.00013469285   0.000331056399  -0.00013469285      0.297452983     0.934565038
12.660504            0.298175916      0.93412424   0.000331586344 -0.000135092281   0.000331586345 -0.000135092281        0.2978581     0.934419887
12.660532            0.298585543     0.933976983   0.000332117266  -0.00013549293   0.000332117266  -0.00013549293      0.298263493     0.934274425
12.66056             0.298995452     0.933829406   0.000332649166 -0.000135894802   0.000332649166 -0.000135894802      0.298669164     0.934128649
12.660588            0.299405642     0.933681509   0.000333182046 -0.000136297901   0.000333182047 -0.000136297901      0.299075112     0.933982559
12.660616            0.299816114     0.933533292   0.000333715908  -0.00013670223   0.000333715909 -0.000136702231      0.299481337     0.933836155
12.660644            0.300226868     0.933384753   0.000334250755 -0.000137107795   0.000334250755 -0.000137107795      0.299887841     0.933689436
12.660672            0.300637904     0.933235892   0.000334786587 -0.000137514598   0.000334786587 -0.000137514599      0.300294624     0.933542401
12.6607              0.301049223     0.933086708   0.000335323406 -0.000137922645   0.000335323407 -0.000137922645      0.300701684      0.93339505
12.660728            0.301460825     0.932937201   0.000335861216 -0.000138331939   0.000335861216  -0.00013833194      0.301109024     0.933247381
12.660756            0.301872711     0.932787369   0.000336400016 -0.000138742485   0.000336400017 -0.000138742485      0.301516643     0.933099395
12.660784             0.30228488     0.932637213   0.000336939811 -0.000139154287   0.000336939811 -0.000139154287      0.301924542      0.93295109
12.660812            0.302697333     0.932486731     0.0003374806 -0.000139567348   0.000337480601 -0.000139567348       0.30233272     0.932802467
12.66084              0.30311007     0.932335923   0.000338022386 -0.000139981674   0.000338022387 -0.000139981674      0.302741178     0.932653523
12.660868            0.303523091     0.932184788   0.000338565172 -0.000140397268   0.000338565173 -0.000140397268      0.303149917     0.932504259
12.660896            0.303936397     0.932033326   0.000339108958 -0.000140814135   0.000339108959 -0.000140814136      0.303558936     0.932354674
12.660924            0.304349988     0.931881535   0.000339653748 -0.000141232279   0.000339653748  -0.00014123228      0.303968236     0.932204767
12.660952            0.304763865     0.931729415   0.000340199542 -0.000141651705   0.000340199542 -0.000141651705      0.304377818     0.932054537
12.66098             0.305178027     0.931576966   0.000340746342 -0.000142072416   0.000340746343 -0.000142072416      0.304787681     0.931903985
12.661008            0.305592475     0.931424186   0.000341294152 -0.000142494416   0.000341294152 -0.000142494417      0.305197826     0.931753108
12.661036             0.30600721     0.931271075   0.000341842971 -0.000142917712   0.000341842972 -0.000142917712      0.305608253     0.931601907
12.661064             0.30642223     0.931117632   0.000342392804 -0.000143342306   0.000342392804 -0.000143342306      0.306018962      0.93145038
12.661092            0.306837538     0.930963857    0.00034294365 -0.000143768202   0.000342943651 -0.000143768203      0.306429954     0.931298528
12.66112             0.307253133     0.930809748   0.000343495513 -0.000144195407   0.000343495513 -0.000144195407      0.306841229     0.931146349
12.661148            0.307669015     0.930655306   0.000344048393 -0.000144623923   0.000344048394 -0.000144623923      0.307252787     0.930993843
12.661176            0.308085184     0.930500528   0.000344602294 -0.000145053755   0.000344602295 -0.000145053756      0.307664629     0.930841008
12.661204            0.308501642     0.930345416   0.000345157217 -0.000145484908   0.000345157218 -0.000145484909      0.308076755     0.930687845
12.661232            0.308918388     0.930189967   0.000345713164 -0.000145917387   0.000345713165 -0.000145917387      0.308489165     0.930534353
12.66126             0.309335423     0.930034181   0.000346270137 -0.000146351194   0.000346270137 -0.000146351195      0.308901859      0.93038053
12.661288            0.309752746     0.929878058   0.000346828137 -0.000146786336   0.000346828138 -0.000146786337      0.309314838     0.930226376
12.661316            0.310170359     0.929721597   0.000347387168 -0.000147222817   0.000347387168 -0.000147222817      0.309728102     0.930071891
12.661344            0.310588261     0.929564796   0.000347947229 -0.000147660641    0.00034794723 -0.000147660641      0.310141651     0.929917073
12.661372            0.311006452     0.929407656   0.000348508325 -0.000148099812   0.000348508326 -0.000148099812      0.310555486     0.929761923
12.6614              0.311424934     0.929250176   0.000349070456 -0.000148540336   0.000349070457 -0.000148540336      0.310969607     0.929606439
12.661428            0.311843706     0.929092354   0.000349633625 -0.000148982216   0.000349633626 -0.000148982216      0.311384014      0.92945062
12.661456            0.312262769      0.92893419   0.000350197833 -0.000149425458   0.000350197834 -0.000149425458      0.311798708     0.929294467
12.661484            0.312682123     0.928775683   0.000350763083 -0.000149870066   0.000350763083 -0.000149870066      0.312213688     0.929137977
12.661512            0.313101768     0.928616833   0.000351329376 -0.000150316044   0.000351329377 -0.000150316045      0.312628955     0.928981151
12.66154             0.313521704     0.928457639   0.000351896714 -0.000150763398   0.000351896715 -0.000150763398       0.31304451     0.928823988
12.661568            0.313941933       0.9282981     0.0003524651 -0.000151212132   0.000352465101 -0.000151212132      0.313460353     0.928666486
12.661596            0.314362453     0.928138216   0.000353034535  -0.00015166225   0.000353034536  -0.00015166225      0.313876483     0.928508646
12.661624            0.314783266     0.927977985   0.000353605022 -0.000152113757   0.000353605022 -0.000152113758      0.314292902     0.928350466
12.661652            0.315204372     0.927817407   0.000354176561 -0.000152566659   0.000354176562 -0.000152566659      0.314709609     0.928191946
12.66168             0.315625771     0.927656481   0.000354749156 -0.000153020959   0.000354749156  -0.00015302096      0.315126606     0.928033086
12.661708            0.316047463     0.927495206   0.000355322808 -0.000153476663   0.000355322808 -0.000153476664      0.315543891     0.927873883
12.661736            0.316469448     0.927333582   0.000355897519 -0.000153933775   0.000355897519 -0.000153933776      0.315961466     0.927714338
12.661764            0.316891728     0.927171608   0.000356473291 -0.000154392301   0.000356473292 -0.000154392301       0.31637933      0.92755445
12.661792            0.317314302     0.927009282   0.000357050126 -0.000154852244   0.000357050127 -0.000154852244      0.316797485     0.927394218
12.66182              0.31773717     0.926846606   0.000357628027 -0.000155313609   0.000357628027  -0.00015531361       0.31721593     0.927233642
12.661848            0.318160334     0.926683576   0.000358206994 -0.000155776403   0.000358206995 -0.000155776403      0.317634666      0.92707272
12.661876            0.318583792     0.926520194   0.000358787031 -0.000156240628   0.000358787031 -0.000156240629      0.318053693     0.926911452
12.661904            0.319007546     0.926356457   0.000359368139 -0.000156706291   0.000359368139 -0.000156706291      0.318473011     0.926749837
12.661932            0.319431596     0.926192366   0.000359950319 -0.000157173396    0.00035995032 -0.000157173396       0.31889262     0.926587874
12.66196             0.319855941     0.926027919   0.000360533575 -0.000157641948   0.000360533576 -0.000157641948      0.319312522     0.926425563
12.661988            0.320280583     0.925863116   0.000361117908 -0.000158111952   0.000361117909 -0.000158111952      0.319732715     0.926262903
12.662016            0.320705522     0.925697956    0.00036170332 -0.000158583413   0.000361703321 -0.000158583413      0.320153201     0.926099893
12.662044            0.321130758     0.925532438   0.000362289813 -0.000159056336   0.000362289814 -0.000159056336       0.32057398     0.925936532
12.662072            0.321556291     0.925366561   0.000362877389 -0.000159530725    0.00036287739 -0.000159530726      0.320995052      0.92577282
12.6621              0.321982121     0.925200325    0.00036346605 -0.000160006587   0.000363466051 -0.000160006587      0.321416417     0.925608756
12.662128             0.32240825     0.925033729   0.000364055799 -0.000160483925   0.000364055799 -0.000160483926      0.321838076     0.925444339
12.662156            0.322834676     0.924866771   0.000364646636 -0.000160962746   0.000364646637 -0.000160962746      0.322260029     0.925279568
12.662184            0.323261401     0.924699452   0.000365238565 -0.000161443053   0.000365238565 -0.000161443053      0.322682276     0.925114442
12.662212            0.323688425     0.924531771   0.000365831586 -0.000161924852   0.000365831587 -0.000161924853      0.323104818     0.924948962
12.66224             0.324115748     0.924363726   0.000366425703 -0.000162408149   0.000366425704 -0.000162408149      0.323527654     0.924783125
12.662268             0.32454337     0.924195316   0.000367020917 -0.000162892948   0.000367020918 -0.000162892948      0.323950786     0.924616931
12.662296            0.324971293     0.924026542   0.000367617231 -0.000163379254   0.000367617231 -0.000163379254      0.324374214      0.92445038
12.662324            0.325399515     0.923857402   0.000368214645 -0.000163867073   0.000368214646 -0.000163867073      0.324797937     0.924283471
12.662352            0.325828037     0.923687896   0.000368813163  -0.00016435641   0.000368813164  -0.00016435641      0.325221956     0.924116202
12.66238              0.32625686     0.923518022   0.000369412786 -0.000164847269   0.000369412787  -0.00016484727      0.325646272     0.923948574
12.662408            0.326685984      0.92334778   0.000370013517 -0.000165339657   0.000370013517 -0.000165339657      0.326070884     0.923780584
12.662436            0.327115409     0.923177169   0.000370615357 -0.000165833578   0.000370615357 -0.000165833579      0.326495793     0.923612234
12.662464            0.327545136     0.923006188   0.000371218308 -0.000166329038   0.000371218309 -0.000166329039         0.326921      0.92344352
12.662492            0.327975165     0.922834837   0.000371822373 -0.000166826042   0.000371822373 -0.000166826042      0.327346504     0.923274444
12.66252             0.328405496     0.922663114   0.000372427553 -0.000167324595   0.000372427554 -0.000167324595      0.327772307     0.923105004
12.662548            0.328836129     0.922491018   0.000373033851 -0.000167824703   0.000373033852 -0.000167824703      0.328198407     0.922935199
12.662576            0.329267065      0.92231855   0.000373641268  -0.00016832637   0.000373641269 -0.000168326371      0.328624806     0.922765029
12.662604            0.329698305     0.922145708   0.000374249808 -0.000168829603   0.000374249808 -0.000168829603      0.329051504     0.922594492
12.662632            0.330129847     0.921972491    0.00037485947 -0.000169334406   0.000374859471 -0.000169334407      0.329478501     0.922423589
12.66266             0.330561694     0.921798899   0.000375470259 -0.000169840786    0.00037547026 -0.000169840786      0.329905798     0.922252317
12.662688            0.330993844      0.92162493   0.000376082175 -0.000170348746   0.000376082176 -0.000170348747      0.330333394     0.922080677
12.662716            0.331426299     0.921450584   0.000376695222 -0.000170858294   0.000376695222 -0.000170858294       0.33076129     0.921908667
12.662744            0.331859058      0.92127586     0.0003773094 -0.000171369434   0.000377309401 -0.000171369434      0.331189487     0.921736287
12.662772            0.332292123     0.921100757   0.000377924712 -0.000171882172   0.000377924713 -0.000171882172      0.331617985     0.921563535
12.6628              0.332725492     0.920925275    0.00037854116 -0.000172396513   0.000378541161 -0.000172396513      0.332046783     0.921390412
12.662828            0.333159168     0.920749411   0.000379158747 -0.000172912463   0.000379158747 -0.000172912463      0.332475883     0.921216916
12.662856            0.333593149     0.920573167   0.000379777473 -0.000173430027   0.000379777474 -0.000173430027      0.332905285     0.921043046
12.662884            0.334027436      0.92039654   0.000380397342 -0.000173949211   0.000380397343 -0.000173949211      0.333334988     0.920868802
12.662912             0.33446203      0.92021953   0.000381018356 -0.000174470021   0.000381018356 -0.000174470021      0.333764994     0.920694182
12.66294             0.334896931     0.920042136   0.000381640515 -0.000174992461   0.000381640516 -0.000174992462      0.334195302     0.920519186
12.662968            0.335332139     0.919864357   0.000382263823 -0.000175516539   0.000382263824 -0.000175516539      0.334625913     0.920343814
12.662996            0.335767654     0.919686193   0.000382888282 -0.000176042259   0.000382888283 -0.000176042259      0.335056828     0.920168063
12.663024            0.336203477     0.919507642   0.000383513893 -0.000176569627   0.000383513894 -0.000176569627      0.335488046     0.919991934
12.663052            0.336639608     0.919328703    0.00038414066 -0.000177098648    0.00038414066 -0.000177098648      0.335919567     0.919815426
12.66308             0.337076048     0.919149377   0.000384768582 -0.000177629329   0.000384768583  -0.00017762933      0.336351393     0.919638537
12.663108            0.337512796     0.918969661   0.000385397664 -0.000178161675   0.000385397665 -0.000178161676      0.336783523     0.919461267
12.663136            0.337949854     0.918789555   0.000386027907 -0.000178695693   0.000386027908 -0.000178695693      0.337215958     0.919283615
12.663164             0.33838722     0.918609058   0.000386659313 -0.000179231386   0.000386659314 -0.000179231387      0.337648698     0.919105581
12.663192            0.338824897      0.91842817   0.000387291884 -0.000179768763   0.000387291885 -0.000179768763      0.338081744     0.918927162
12.66322             0.339262883     0.918246889   0.000387925622 -0.000180307827   0.000387925623 -0.000180307828      0.338515095     0.918748359
12.663248             0.33970118     0.918065215    0.00038856053 -0.000180848586   0.000388560531 -0.000180848587      0.338948752     0.918569171
12.663276            0.340139787     0.917883146   0.000389196609 -0.000181391045    0.00038919661 -0.000181391046      0.339382715     0.918389596
12.663304            0.340578705     0.917700682   0.000389833862  -0.00018193521   0.000389833863  -0.00018193521      0.339816985     0.918209634
12.663332            0.341017934     0.917517822    0.00039047229 -0.000182481087   0.000390472291 -0.000182481087      0.340251562     0.918029285
12.66336             0.341457475     0.917334564   0.000391111897 -0.000183028681   0.000391111897 -0.000183028682      0.340686446     0.917848546
12.663388            0.341897328     0.917150909   0.000391752683 -0.000183577999   0.000391752683    -0.000183578      0.341121638     0.917667418
12.663416            0.342337493     0.916966855   0.000392394651 -0.000184129047   0.000392394651 -0.000184129048      0.341557138     0.917485899
12.663444            0.342777971     0.916782402   0.000393037803 -0.000184681831   0.000393037803 -0.000184681831      0.341992946     0.917303988
12.663472            0.343218761     0.916597547   0.000393682141 -0.000185236356   0.000393682142 -0.000185236356      0.342429062     0.917121685
12.6635              0.343659864     0.916412291   0.000394327667 -0.000185792629   0.000394327668  -0.00018579263      0.342865487     0.916938989
