! TOUCHSTONE file generated by CST MICROWAVE STUDIO
! Date and time: Wed Jul 31 14:04:58 2024
! Project name: WaveGuide_BPF-Ver4.1_U-shape_Ku_T3_C4_CWA_2.cst
! Parameters = {cavity_h=16; cavity_l0=10; cavity_l1=15.1709; cavity_l2=16.8301; cavity_l3=17.0843; cavity_l4=17.2356; cavity_l5=17.1437; cavity_l6=17.579; cavity_r=2.5; cavity_screw_l=0.5; cavity_screw_r=1.5; cavity_w=8; iris_h00=0; iris_h01=8.8112; iris_h112=0; iris_h12=5.5989; iris_h211=3.6674; iris_h23=5.2036; iris_h310=3.9701; iris_h34=5.0797; iris_h45=4.9348; iris_h49=4.6104; iris_h56=4.7917; iris_h58=4.4474; iris_h67=6.5705; iris_rx=0.1; iris_screw_l=0.5; iris_screw_r=1.5; iris_shift00=0; iris_shift112=0; iris_shift211=3.5; iris_shift310=0; iris_shift49=0; iris_shift58=3.5; iris_shift67=3.5; iris_tx=4.5; iris_tz=4.5; iris_w00=0; iris_w112=0; iris_w211=4; iris_w310=3.9701; iris_w49=4.6104; iris_w58=4; iris_w67=4; mesh_cavity=5; mesh_iris=7; mesh_screw=7; order=12; reset_all=0; sigma=4.8e+07}
! Header version: 2018
! Port assignment regex: !\s*Touchstone port\s*([0-9]+)\s*=\s*(CST MWS port|CST DS port)\s*([0-9]+|Zmin|Zmax)\s*\(\"(.*)\"\)(\s*mode\s*([0-9]+))?.*
! Touchstone port assignment:
! Touchstone port 1 = CST MWS port 1 ("")
! Touchstone port 2 = CST MWS port 2 ("")
# GHz S RI R 50
12.66                0.202442764     0.963757367   0.000168092142 -4.72014696e-05   0.000168092142 -4.72014699e-05      0.207261708     0.962748997
12.660028            0.202767306      0.96367996   0.000168320313 -4.73310527e-05   0.000168320313 -4.73310529e-05       0.20758631     0.962669869
12.660056            0.203092189     0.963602355   0.000168548843 -4.74609776e-05   0.000168548843 -4.74609778e-05      0.207911006     0.962590593
12.660084            0.203417344     0.963524566   0.000168777735  -4.7591243e-05   0.000168777735 -4.75912432e-05      0.208235833     0.962511162
12.660112            0.203742705     0.963446607    0.00016900699 -4.77218473e-05    0.00016900699 -4.77218475e-05      0.208560829     0.962431567
12.66014             0.204068202     0.963368491    0.00016923661  -4.7852789e-05   0.000169236611 -4.78527893e-05      0.208886032       0.9623518
12.660168            0.204393837     0.963290219   0.000169466596 -4.79840692e-05   0.000169466597 -4.79840694e-05      0.209211442      0.96227186
12.660196            0.204719654     0.963211781   0.000169696948 -4.81156903e-05   0.000169696949 -4.81156905e-05      0.209537034     0.962191754
12.660224            0.205045654     0.963133176   0.000169927666 -4.82476532e-05   0.000169927667 -4.82476534e-05      0.209862809     0.962111479
12.660252            0.205371837     0.963054405   0.000170158752  -4.8379959e-05   0.000170158752 -4.83799592e-05      0.210188767     0.962031036
12.66028             0.205698203     0.962975467   0.000170390204 -4.85126086e-05   0.000170390205 -4.85126088e-05      0.210514907     0.961950426
12.660308            0.206024752     0.962896361   0.000170622025 -4.86456029e-05   0.000170622026 -4.86456032e-05       0.21084123     0.961869646
12.660336            0.206351485     0.962817087   0.000170854215  -4.8778943e-05   0.000170854216 -4.87789432e-05      0.211167736     0.961788699
12.660364            0.206678401     0.962737646   0.000171086775 -4.89126297e-05   0.000171086775 -4.89126299e-05      0.211494425     0.961707582
12.660392            0.207005501     0.962658036   0.000171319704  -4.9046664e-05   0.000171319705 -4.90466642e-05      0.211821297     0.961626295
12.66042             0.207332785     0.962578259   0.000171553005 -4.91810469e-05   0.000171553005 -4.91810471e-05      0.212148353     0.961544839
12.660448            0.207660253     0.962498312   0.000171786677 -4.93157793e-05   0.000171786677 -4.93157795e-05      0.212475592     0.961463213
12.660476            0.207987905     0.962418196   0.000172020721 -4.94508623e-05   0.000172020721 -4.94508625e-05      0.212803015     0.961381418
12.660504            0.208315742     0.962337911   0.000172255137 -4.95862967e-05   0.000172255138  -4.9586297e-05      0.213130622     0.961299451
12.660532            0.208643763     0.962257457   0.000172489927 -4.97220837e-05   0.000172489928 -4.97220839e-05      0.213458413     0.961217314
12.66056             0.208971969     0.962176832   0.000172725092 -4.98582241e-05   0.000172725092 -4.98582243e-05      0.213786388     0.961135006
12.660588            0.209300359     0.962096038   0.000172960631 -4.99947189e-05   0.000172960631 -4.99947192e-05      0.214114547     0.961052526
12.660616            0.209628934     0.962015073   0.000173196545 -5.01315692e-05   0.000173196546 -5.01315694e-05      0.214442891     0.960969875
12.660644            0.209957695     0.961933937   0.000173432835 -5.02687759e-05   0.000173432836 -5.02687761e-05       0.21477142     0.960887052
12.660672            0.210286641      0.96185263   0.000173669502   -5.040634e-05   0.000173669503 -5.04063402e-05      0.215100133     0.960804057
12.6607              0.210615772     0.961771152   0.000173906547 -5.05442625e-05   0.000173906547 -5.05442627e-05      0.215429031      0.96072089
12.660728            0.210945088     0.961689503   0.000174143969 -5.06825444e-05    0.00017414397 -5.06825446e-05      0.215758115     0.960637549
12.660756            0.211274591     0.961607681    0.00017438177 -5.08211867e-05   0.000174381771 -5.08211869e-05      0.216087383     0.960554036
12.660784            0.211604279     0.961525688   0.000174619951 -5.09601904e-05   0.000174619951 -5.09601906e-05      0.216416837      0.96047035
12.660812            0.211934154     0.961443522   0.000174858511 -5.10995565e-05   0.000174858512 -5.10995567e-05      0.216746477     0.960386489
12.66084             0.212264214     0.961361183   0.000175097452  -5.1239286e-05   0.000175097453 -5.12392862e-05      0.217076302     0.960302455
12.660868            0.212594461     0.961278671   0.000175336774   -5.137938e-05   0.000175336775 -5.13793802e-05      0.217406314     0.960218247
12.660896            0.212924894     0.961195986   0.000175576479 -5.15198394e-05   0.000175576479 -5.15198396e-05      0.217736511     0.960133864
12.660924            0.213255514     0.961113128   0.000175816566 -5.16606653e-05   0.000175816566 -5.16606655e-05      0.218066894     0.960049307
12.660952            0.213586321     0.961030095   0.000176057036 -5.18018587e-05   0.000176057037 -5.18018589e-05      0.218397464     0.959964574
12.66098             0.213917315     0.960946888    0.00017629789 -5.19434206e-05   0.000176297891 -5.19434208e-05       0.21872822     0.959879666
12.661008            0.214248496     0.960863507   0.000176539129 -5.20853521e-05    0.00017653913 -5.20853523e-05      0.219059163     0.959794582
12.661036            0.214579864     0.960779951   0.000176780753 -5.22276541e-05   0.000176780754 -5.22276544e-05      0.219390293     0.959709323
12.661064             0.21491142      0.96069622   0.000177022764 -5.23703278e-05   0.000177022764  -5.2370328e-05       0.21972161     0.959623887
12.661092            0.215243163     0.960612314    0.00017726516 -5.25133741e-05   0.000177265161 -5.25133743e-05      0.220053113     0.959538275
12.66112             0.215575094     0.960528232   0.000177507945 -5.26567941e-05   0.000177507945 -5.26567944e-05      0.220384804     0.959452485
12.661148            0.215907213     0.960443974   0.000177751117 -5.28005889e-05   0.000177751118 -5.28005891e-05      0.220716683     0.959366519
12.661176            0.216239519      0.96035954   0.000177994678 -5.29447594e-05   0.000177994679 -5.29447597e-05      0.221048749     0.959280375
12.661204            0.216572015     0.960274929   0.000178238628 -5.30893068e-05   0.000178238629  -5.3089307e-05      0.221381003     0.959194054
12.661232            0.216904698     0.960190142   0.000178482969 -5.32342321e-05   0.000178482969 -5.32342323e-05      0.221713444     0.959107555
12.66126              0.21723757     0.960105177     0.0001787277 -5.33795363e-05     0.0001787277 -5.33795366e-05      0.222046074     0.959020877
12.661288            0.217570631     0.960020035   0.000178972822 -5.35252206e-05   0.000178972823 -5.35252208e-05      0.222378892      0.95893402
12.661316             0.21790388     0.959934715   0.000179218337 -5.36712859e-05   0.000179218337 -5.36712861e-05      0.222711898     0.958846985
12.661344            0.218237319     0.959849218   0.000179464244 -5.38177334e-05   0.000179464245 -5.38177336e-05      0.223045093      0.95875977
12.661372            0.218570946     0.959763542   0.000179710545 -5.39645641e-05   0.000179710546 -5.39645643e-05      0.223378476     0.958672376
12.6614              0.218904763     0.959677687    0.00017995724  -5.4111779e-05   0.000179957241 -5.41117792e-05      0.223712048     0.958584802
12.661428            0.219238769     0.959591653    0.00018020433 -5.42593794e-05   0.000180204331 -5.42593796e-05       0.22404581     0.958497048
12.661456            0.219572966      0.95950544   0.000180451815 -5.44073661e-05   0.000180451816 -5.44073664e-05       0.22437976     0.958409114
12.661484            0.219907351     0.959419048   0.000180699697 -5.45557404e-05   0.000180699698 -5.45557407e-05        0.2247139     0.958320999
12.661512            0.220241927     0.959332476   0.000180947976 -5.47045034e-05   0.000180947976 -5.47045036e-05      0.225048229     0.958232703
12.66154             0.220576693     0.959245723   0.000181196652  -5.4853656e-05   0.000181196652 -5.48536562e-05      0.225382747     0.958144225
12.661568            0.220911649      0.95915879   0.000181445726 -5.50031994e-05   0.000181445727 -5.50031996e-05      0.225717456     0.958055566
12.661596            0.221246795     0.959071677   0.000181695199 -5.51531347e-05     0.0001816952  -5.5153135e-05      0.226052354     0.957966724
12.661624            0.221582132     0.958984382   0.000181945073 -5.53034631e-05   0.000181945073 -5.53034633e-05      0.226387443     0.957877701
12.661652             0.22191766     0.958896906   0.000182195346 -5.54541855e-05   0.000182195347 -5.54541857e-05      0.226722721     0.957788495
12.66168             0.222253379     0.958809249   0.000182446021 -5.56053031e-05   0.000182446021 -5.56053033e-05       0.22705819     0.957699106
12.661708            0.222589289     0.958721409   0.000182697097  -5.5756817e-05   0.000182697097 -5.57568173e-05       0.22739385     0.957609534
12.661736            0.222925389     0.958633387   0.000182948576 -5.59087284e-05   0.000182948576 -5.59087287e-05        0.2277297     0.957519778
12.661764            0.223261682     0.958545183   0.000183200458 -5.60610383e-05   0.000183200458 -5.60610386e-05      0.228065742     0.957429839
12.661792            0.223598166     0.958456795   0.000183452744 -5.62137479e-05   0.000183452744 -5.62137482e-05      0.228401974     0.957339715
12.66182             0.223934841     0.958368225   0.000183705434 -5.63668583e-05   0.000183705435 -5.63668586e-05      0.228738397     0.957249407
12.661848            0.224271708     0.958279471    0.00018395853 -5.65203706e-05    0.00018395853 -5.65203709e-05      0.229075012     0.957158914
12.661876            0.224608768     0.958190533   0.000184212031  -5.6674286e-05   0.000184212032 -5.66742862e-05      0.229411818     0.957068237
12.661904            0.224946019     0.958101411    0.00018446594 -5.68286055e-05    0.00018446594 -5.68286058e-05      0.229748816     0.956977373
12.661932            0.225283463     0.958012104   0.000184720256 -5.69833304e-05   0.000184720256 -5.69833306e-05      0.230086006     0.956886325
12.66196             0.225621099     0.957922613    0.00018497498 -5.71384617e-05    0.00018497498  -5.7138462e-05      0.230423388      0.95679509
12.661988            0.225958928     0.957832937   0.000185230113 -5.72940007e-05   0.000185230113 -5.72940009e-05      0.230760962     0.956703668
12.662016             0.22629695     0.957743075   0.000185485655 -5.74499484e-05   0.000185485655 -5.74499486e-05      0.231098728     0.956612061
12.662044            0.226635164     0.957653028   0.000185741608  -5.7606306e-05   0.000185741608 -5.76063062e-05      0.231436686     0.956520266
12.662072            0.226973572     0.957562794   0.000185997971 -5.77630747e-05   0.000185997972 -5.77630749e-05      0.231774838     0.956428284
12.6621              0.227312173     0.957472374   0.000186254746 -5.79202556e-05   0.000186254747 -5.79202558e-05      0.232113182     0.956336114
12.662128            0.227650968     0.957381768   0.000186511934 -5.80778499e-05   0.000186511935 -5.80778501e-05      0.232451718     0.956243757
12.662156            0.227989956     0.957290974   0.000186769535 -5.82358587e-05   0.000186769535 -5.82358589e-05      0.232790448     0.956151211
12.662184            0.228329137     0.957199994   0.000187027549 -5.83942833e-05    0.00018702755 -5.83942835e-05      0.233129372     0.956058476
12.662212            0.228668513     0.957108825   0.000187285979 -5.85531247e-05   0.000187285979  -5.8553125e-05      0.233468488     0.955965553
12.66224             0.229008083     0.957017469   0.000187544823 -5.87123843e-05   0.000187544824 -5.87123845e-05      0.233807799     0.955872441
12.662268            0.229347847     0.956925924   0.000187804084 -5.88720631e-05   0.000187804084 -5.88720633e-05      0.234147303     0.955779139
12.662296            0.229687806     0.956834191   0.000188063761 -5.90321623e-05   0.000188063761 -5.90321625e-05      0.234487001     0.955685647
12.662324            0.230027959     0.956742269   0.000188323856 -5.91926832e-05   0.000188323856 -5.91926834e-05      0.234826892     0.955591965
12.662352            0.230368306     0.956650158   0.000188584368 -5.93536269e-05   0.000188584369 -5.93536271e-05      0.235166979     0.955498093
12.66238             0.230708849     0.956557857     0.0001888453 -5.95149945e-05   0.000188845301 -5.95149948e-05      0.235507259      0.95540403
12.662408            0.231049587     0.956465367   0.000189106652 -5.96767875e-05   0.000189106652 -5.96767877e-05      0.235847734     0.955309776
12.662436             0.23139052     0.956372686   0.000189368423 -5.98390068e-05   0.000189368424  -5.9839007e-05      0.236188404      0.95521533
12.662464            0.231731648     0.956279815   0.000189630616 -6.00016537e-05   0.000189630617  -6.0001654e-05      0.236529268     0.955120692
12.662492            0.232072972     0.956186752   0.000189893231 -6.01647295e-05   0.000189893232 -6.01647297e-05      0.236870328     0.955025863
12.66252             0.232414491     0.956093499   0.000190156268 -6.03282353e-05   0.000190156269 -6.03282356e-05      0.237211583      0.95493084
12.662548            0.232756207     0.956000054   0.000190419729 -6.04921724e-05   0.000190419729 -6.04921727e-05      0.237553033     0.954835626
12.662576            0.233098118     0.955906418   0.000190683614  -6.0656542e-05   0.000190683614 -6.06565422e-05      0.237894679     0.954740218
12.662604            0.233440226     0.955812589   0.000190947923 -6.08213453e-05   0.000190947924 -6.08213455e-05       0.23823652     0.954644616
12.662632            0.233782529     0.955718568   0.000191212658 -6.09865835e-05   0.000191212658 -6.09865837e-05      0.238578557     0.954548821
12.66266              0.23412503     0.955624354   0.000191477819 -6.11522579e-05    0.00019147782 -6.11522581e-05       0.23892079     0.954452832
12.662688            0.234467727     0.955529946   0.000191743407 -6.13183697e-05   0.000191743408 -6.13183699e-05      0.239263219     0.954356648
12.662716            0.234810621     0.955435346   0.000192009423 -6.14849202e-05   0.000192009424 -6.14849204e-05      0.239605845      0.95426027
12.662744            0.235153712     0.955340551   0.000192275867 -6.16519105e-05   0.000192275868 -6.16519107e-05      0.239948667     0.954163696
12.662772               0.235497     0.955245563   0.000192542741  -6.1819342e-05   0.000192542742 -6.18193422e-05      0.240291686     0.954066927
12.6628              0.235840485      0.95515038   0.000192810045 -6.19872159e-05   0.000192810045 -6.19872161e-05      0.240634901     0.953969963
12.662828            0.236184168     0.955055002   0.000193077779 -6.21555334e-05   0.000193077779 -6.21555336e-05      0.240978314     0.953872802
12.662856            0.236528049     0.954959429   0.000193345945 -6.23242958e-05   0.000193345945 -6.23242961e-05      0.241321923     0.953775445
12.662884            0.236872127      0.95486366   0.000193614543 -6.24935044e-05   0.000193614543 -6.24935047e-05       0.24166573     0.953677891
12.662912            0.237216403     0.954767696   0.000193883573 -6.26631605e-05   0.000193883574 -6.26631607e-05      0.242009734      0.95358014
12.66294             0.237560878     0.954671536   0.000194153038 -6.28332652e-05   0.000194153039 -6.28332655e-05      0.242353936     0.953482191
12.662968            0.237905551     0.954575179   0.000194422937   -6.300382e-05   0.000194422938 -6.30038202e-05      0.242698336     0.953384045
12.662996            0.238250422     0.954478625   0.000194693271  -6.3174826e-05   0.000194693272 -6.31748262e-05      0.243042933     0.953285701
12.663024            0.238595492     0.954381874   0.000194964042 -6.33462845e-05   0.000194964042 -6.33462848e-05      0.243387729     0.953187158
12.663052            0.238940761     0.954284926   0.000195235249 -6.35181969e-05   0.000195235249 -6.35181972e-05      0.243732723     0.953088416
12.66308             0.239286228      0.95418778   0.000195506893 -6.36905645e-05   0.000195506894 -6.36905647e-05      0.244077916     0.952989475
12.663108            0.239631895     0.954090435   0.000195778976 -6.38633884e-05   0.000195778977 -6.38633886e-05      0.244423307     0.952890335
12.663136            0.239977761     0.953992892   0.000196051498 -6.40366701e-05   0.000196051499 -6.40366703e-05      0.244768896     0.952790995
12.663164            0.240323827     0.953895151   0.000196324459 -6.42104108e-05    0.00019632446  -6.4210411e-05      0.245114685     0.952691455
12.663192            0.240670092      0.95379721   0.000196597862 -6.43846118e-05   0.000196597862  -6.4384612e-05      0.245460673     0.952591714
12.66322             0.241016557     0.953699069   0.000196871705 -6.45592745e-05   0.000196871706 -6.45592747e-05       0.24580686     0.952491772
12.663248            0.241363222     0.953600729    0.00019714599 -6.47344001e-05   0.000197145991 -6.47344003e-05      0.246153246     0.952391629
12.663276            0.241710087     0.953502188   0.000197420719   -6.490999e-05   0.000197420719 -6.49099902e-05      0.246499832     0.952291285
12.663304            0.242057152     0.953403447   0.000197695891 -6.50860455e-05   0.000197695891 -6.50860457e-05      0.246846618     0.952190739
12.663332            0.242404418     0.953304505   0.000197971507 -6.52625679e-05   0.000197971508 -6.52625682e-05      0.247193604      0.95208999
12.66336             0.242751884     0.953205362   0.000198247568 -6.54395587e-05   0.000198247569 -6.54395589e-05      0.247540789     0.951989039
12.663388            0.243099551     0.953106017   0.000198524076  -6.5617019e-05   0.000198524076 -6.56170192e-05      0.247888175     0.951887885
12.663416            0.243447419      0.95300647    0.00019880103 -6.57949502e-05    0.00019880103 -6.57949504e-05      0.248235762     0.951786527
12.663444            0.243795489     0.952906721   0.000199078431 -6.59733537e-05   0.000199078432  -6.5973354e-05      0.248583549     0.951684966
12.663472            0.244143759     0.952806769   0.000199356281 -6.61522309e-05   0.000199356281 -6.61522311e-05      0.248931536     0.951583201
12.6635              0.244492231     0.952706614    0.00019963458  -6.6331583e-05    0.00019963458 -6.63315833e-05      0.249279725     0.951481232
