! TOUCHSTONE file generated by CST MICROWAVE STUDIO
! Date and time: Wed Jul 31 14:11:13 2024
! Project name: WaveGuide_BPF-Ver4.1_U-shape_Ku_T3_C4_CWA_2.cst
! Parameters = {cavity_h=16; cavity_l0=10; cavity_l1=15.18; cavity_l2=16.8832; cavity_l3=17.111; cavity_l4=17.2805; cavity_l5=17.0939; cavity_l6=17.6156; cavity_r=2.5; cavity_screw_l=0.5; cavity_screw_r=1.5; cavity_w=8; iris_h00=0; iris_h01=8.8227; iris_h112=0; iris_h12=5.6093; iris_h211=3.6637; iris_h23=5.2014; iris_h310=3.9608; iris_h34=5.0766; iris_h45=4.9252; iris_h49=4.6146; iris_h56=4.7911; iris_h58=4.4308; iris_h67=6.5802; iris_rx=0.1; iris_screw_l=0.5; iris_screw_r=1.5; iris_shift00=0; iris_shift112=0; iris_shift211=3.5; iris_shift310=0; iris_shift49=0; iris_shift58=3.5; iris_shift67=3.5; iris_tx=4.5; iris_tz=4.5; iris_w00=0; iris_w112=0; iris_w211=4; iris_w310=3.9608; iris_w49=4.6146; iris_w58=4; iris_w67=4; mesh_cavity=5; mesh_iris=7; mesh_screw=7; order=12; reset_all=0; sigma=4.8e+07}
! Header version: 2018
! Port assignment regex: !\s*Touchstone port\s*([0-9]+)\s*=\s*(CST MWS port|CST DS port)\s*([0-9]+|Zmin|Zmax)\s*\(\"(.*)\"\)(\s*mode\s*([0-9]+))?.*
! Touchstone port assignment:
! Touchstone port 1 = CST MWS port 1 ("")
! Touchstone port 2 = CST MWS port 2 ("")
# GHz S RI R 50
12.66                0.300930855     0.933670711    0.00035051908  -0.00014503446    0.00035051908  -0.00014503446      0.303427521     0.932858216
12.660028            0.301331226     0.933525744   0.000351091076 -0.000145464961   0.000351091076 -0.000145464961      0.303828198     0.932711945
12.660056            0.301731906     0.933380457   0.000351664161 -0.000145896797   0.000351664161 -0.000145896797      0.304229135     0.932565368
12.660084             0.30213288     0.933234856    0.00035223834 -0.000146329971   0.000352238339 -0.000146329971      0.304630336     0.932418485
12.660112            0.302534131     0.933088944   0.000352813614 -0.000146764486   0.000352813614 -0.000146764486      0.305031806     0.932271292
12.66014             0.302935644     0.932942726    0.00035338999 -0.000147200345   0.000353389989 -0.000147200345      0.305433551     0.932123787
12.660168            0.303337417     0.932796202   0.000353967467 -0.000147637551   0.000353967467 -0.000147637551      0.305835572      0.93197597
12.660196            0.303739464     0.932649367   0.000354546049 -0.000148076112   0.000354546049 -0.000148076112      0.306237865      0.93182784
12.660224            0.304141783     0.932502221   0.000355125737 -0.000148516031   0.000355125737 -0.000148516031       0.30664043     0.931679398
12.660252            0.304544375     0.932354763   0.000355706534 -0.000148957313   0.000355706534 -0.000148957313      0.307043268     0.931530643
12.66028             0.304947241     0.932206993   0.000356288442 -0.000149399963   0.000356288441 -0.000149399963      0.307446379     0.931381573
12.660308             0.30535038     0.932058909   0.000356871462 -0.000149843986   0.000356871462 -0.000149843986      0.307849763     0.931232189
12.660336            0.305753794     0.931910511   0.000357455598 -0.000150289386   0.000357455597 -0.000150289387      0.308253421     0.931082489
12.660364            0.306157482     0.931761799   0.000358040851 -0.000150736169   0.000358040851 -0.000150736169      0.308657353     0.930932474
12.660392            0.306561445     0.931612772   0.000358627225 -0.000151184338   0.000358627224 -0.000151184338      0.309061559     0.930782142
12.66042             0.306965682     0.931463429   0.000359214721 -0.000151633899    0.00035921472 -0.000151633899      0.309466039     0.930631492
12.660448            0.307370195     0.931313769   0.000359803341 -0.000152084856   0.000359803341 -0.000152084856      0.309870794     0.930480525
12.660476            0.307774983     0.931163792   0.000360393088 -0.000152537215   0.000360393088 -0.000152537215      0.310275823     0.930329238
12.660504            0.308180046     0.931013497   0.000360983964 -0.000152990979   0.000360983964 -0.000152990979      0.310681129     0.930177633
12.660532            0.308585386     0.930862884   0.000361575972 -0.000153446155   0.000361575972 -0.000153446155      0.311086709     0.930025707
12.66056             0.308991002     0.930711951   0.000362169114 -0.000153902746   0.000362169114 -0.000153902746      0.311492566     0.929873461
12.660588            0.309396895     0.930560698   0.000362763392 -0.000154360758   0.000362763391 -0.000154360758      0.311898698     0.929720894
12.660616            0.309803065     0.930409125   0.000363358808 -0.000154820195   0.000363358808 -0.000154820196      0.312305107     0.929568004
12.660644            0.310209512     0.930257231   0.000363955365 -0.000155281063   0.000363955365 -0.000155281064      0.312711793     0.929414792
12.660672            0.310616236     0.930105015   0.000364553066 -0.000155743367   0.000364553065 -0.000155743367      0.313118756     0.929261256
12.6607              0.311023238     0.929952476   0.000365151911 -0.000156207111   0.000365151911 -0.000156207111      0.313525996     0.929107396
12.660728            0.311430518     0.929799614   0.000365751905   -0.0001566723   0.000365751904   -0.0001566723      0.313933513     0.928953211
12.660756            0.311838077     0.929646428   0.000366353049 -0.000157138939   0.000366353048 -0.000157138939      0.314341308     0.928798701
12.660784            0.312245914     0.929492917   0.000366955345 -0.000157607034   0.000366955345 -0.000157607034      0.314749382     0.928643865
12.660812             0.31265403     0.929339081   0.000367558796  -0.00015807659   0.000367558796  -0.00015807659      0.315157734     0.928488702
12.66084             0.313062425     0.929184919   0.000368163405  -0.00015854761   0.000368163405 -0.000158547611      0.315566364     0.928333211
12.660868              0.3134711      0.92903043   0.000368769173 -0.000159020102   0.000368769173 -0.000159020102      0.315975274     0.928177392
12.660896            0.313880054     0.928875613   0.000369376103 -0.000159494069   0.000369376103 -0.000159494069      0.316384462     0.928021244
12.660924            0.314289289     0.928720469   0.000369984198 -0.000159969517   0.000369984198 -0.000159969517      0.316793931     0.927864767
12.660952            0.314698804     0.928564995   0.000370593459 -0.000160446451   0.000370593459 -0.000160446451      0.317203679     0.927707959
12.66098             0.315108599     0.928409193    0.00037120389 -0.000160924875   0.000371203889 -0.000160924876      0.317613707      0.92755082
12.661008            0.315518676     0.928253059   0.000371815492 -0.000161404797   0.000371815492 -0.000161404797      0.318024016      0.92739335
12.661036            0.315929034     0.928096595   0.000372428268 -0.000161886219   0.000372428268 -0.000161886219      0.318434605     0.927235546
12.661064            0.316339673       0.9279398    0.00037304222 -0.000162369148    0.00037304222 -0.000162369148      0.318845475      0.92707741
12.661092            0.316750595     0.927782671   0.000373657352 -0.000162853589   0.000373657351  -0.00016285359      0.319256627      0.92691894
12.66112             0.317161798      0.92762521   0.000374273664 -0.000163339548   0.000374273663 -0.000163339548       0.31966806     0.926760136
12.661148            0.317573284     0.927467415    0.00037489116 -0.000163827028   0.000374891159 -0.000163827028      0.320079775     0.926600996
12.661176            0.317985052     0.927309286   0.000375509842 -0.000164316037   0.000375509841 -0.000164316037      0.320491773      0.92644152
12.661204            0.318397104     0.927150821   0.000376129712 -0.000164806578   0.000376129711 -0.000164806578      0.320904052     0.926281707
12.661232            0.318809438     0.926992021   0.000376750773 -0.000165298658   0.000376750772 -0.000165298658      0.321316615     0.926121557
12.66126             0.319222057     0.926832883   0.000377373027 -0.000165792282   0.000377373027 -0.000165792282       0.32172946     0.925961068
12.661288            0.319634959     0.926673409   0.000377996477 -0.000166287454   0.000377996477 -0.000166287455      0.322142589     0.925800241
12.661316            0.320048146     0.926513596   0.000378621125 -0.000166784182   0.000378621125 -0.000166784182      0.322556001     0.925639074
12.661344            0.320461617     0.926353444   0.000379246974 -0.000167282469   0.000379246973 -0.000167282469      0.322969698     0.925477567
12.661372            0.320875372     0.926192953   0.000379874025 -0.000167782322   0.000379874025 -0.000167782322      0.323383678     0.925315719
12.6614              0.321289413     0.926032122   0.000380502282 -0.000168283745   0.000380502282 -0.000168283745      0.323797943     0.925153529
12.661428            0.321703739     0.925870949   0.000381131747 -0.000168786745   0.000381131747 -0.000168786745      0.324212493     0.924990996
12.661456            0.322118351     0.925709435   0.000381762423 -0.000169291327   0.000381762422 -0.000169291327      0.324627328      0.92482812
12.661484            0.322533249     0.925547579   0.000382394311 -0.000169797496    0.00038239431 -0.000169797496      0.325042448       0.9246649
12.661512            0.322948433     0.925385379   0.000383027414 -0.000170305258   0.000383027414 -0.000170305258      0.325457854     0.924501336
12.66154             0.323363904     0.925222835   0.000383661735 -0.000170814618   0.000383661735 -0.000170814619      0.325873546     0.924337425
12.661568            0.323779661     0.925059946   0.000384297277 -0.000171325583   0.000384297276 -0.000171325583      0.326289524     0.924173169
12.661596            0.324195706     0.924896712   0.000384934041 -0.000171838157    0.00038493404 -0.000171838158      0.326705789     0.924008565
12.661624            0.324612038     0.924733132    0.00038557203 -0.000172352347   0.000385572029 -0.000172352347       0.32712234     0.923843614
12.661652            0.325028658     0.924569205   0.000386211247 -0.000172868158   0.000386211246 -0.000172868158      0.327539179     0.923678314
12.66168             0.325445566      0.92440493   0.000386851694 -0.000173385596   0.000386851693 -0.000173385596      0.327956305     0.923512666
12.661708            0.325862762     0.924240307   0.000387493373 -0.000173904665   0.000387493373 -0.000173904666      0.328373719     0.923346667
12.661736            0.326280247     0.924075334   0.000388136288 -0.000174425374   0.000388136288 -0.000174425374      0.328791421     0.923180317
12.661764            0.326698021     0.923910012   0.000388780441 -0.000174947726    0.00038878044 -0.000174947726      0.329209411     0.923013616
12.661792            0.327116084     0.923744338   0.000389425833 -0.000175471727   0.000389425833 -0.000175471727       0.32962769     0.922846562
12.66182             0.327534436     0.923578314   0.000390072469 -0.000175997384   0.000390072468 -0.000175997384      0.330046257     0.922679156
12.661848            0.327953079     0.923411937   0.000390720349 -0.000176524703   0.000390720349 -0.000176524703      0.330465114     0.922511395
12.661876            0.328372012     0.923245207   0.000391369477 -0.000177053688   0.000391369477 -0.000177053688      0.330884261      0.92234328
12.661904            0.328791235     0.923078123   0.000392019856 -0.000177584347   0.000392019855 -0.000177584347      0.331303697      0.92217481
12.661932            0.329210749     0.922910685   0.000392671487 -0.000178116684   0.000392671486 -0.000178116684      0.331723423     0.922005984
12.66196             0.329630554     0.922742891   0.000393324373 -0.000178650706   0.000393324373 -0.000178650706       0.33214344       0.9218368
12.661988             0.33005065     0.922574741   0.000393978517 -0.000179186419   0.000393978517 -0.000179186419      0.332563748     0.921667259
12.662016            0.330471038     0.922406235   0.000394633922 -0.000179723829   0.000394633922 -0.000179723829      0.332984346      0.92149736
12.662044            0.330891718      0.92223737   0.000395290589 -0.000180262941   0.000395290589 -0.000180262941      0.333405236     0.921327101
12.662072             0.33131269     0.922068148   0.000395948522 -0.000180803762   0.000395948522 -0.000180803762      0.333826418     0.921156483
12.6621              0.331733955     0.921898566   0.000396607723 -0.000181346297   0.000396607723 -0.000181346297      0.334247891     0.920985503
12.662128            0.332155512     0.921728624   0.000397268195 -0.000181890553   0.000397268194 -0.000181890554      0.334669656     0.920814162
12.662156            0.332577363     0.921558321   0.000397929939 -0.000182436537   0.000397929939 -0.000182436537      0.335091714     0.920642459
12.662184            0.332999507     0.921387657   0.000398592959 -0.000182984253   0.000398592959 -0.000182984253      0.335514065     0.920470393
12.662212            0.333421946      0.92121663   0.000399257258 -0.000183533708   0.000399257257 -0.000183533708      0.335936709     0.920297962
12.66224             0.333844678      0.92104524   0.000399922837 -0.000184084908   0.000399922837 -0.000184084908      0.336359647     0.920125167
12.662268            0.334267704     0.920873487     0.0004005897 -0.000184637859   0.000400589699  -0.00018463786      0.336782878     0.919952006
12.662296            0.334691026     0.920701368   0.000401257848 -0.000185192569   0.000401257848 -0.000185192569      0.337206403     0.919778479
12.662324            0.335114642     0.920528884   0.000401927286 -0.000185749041   0.000401927285 -0.000185749042      0.337630222     0.919604585
12.662352            0.335538554     0.920356034   0.000402598014 -0.000186307284   0.000402598013 -0.000186307285      0.338054336     0.919430323
12.66238             0.335962761     0.920182816   0.000403270036 -0.000186867304   0.000403270035 -0.000186867304      0.338478745     0.919255692
12.662408            0.336387264     0.920009231   0.000403943354 -0.000187429105   0.000403943354 -0.000187429105       0.33890345     0.919080692
12.662436            0.336812063     0.919835276   0.000404617971 -0.000187992696   0.000404617971 -0.000187992696      0.339328449     0.918905321
12.662464            0.337237159     0.919660952    0.00040529389 -0.000188558082    0.00040529389 -0.000188558082      0.339753745     0.918729579
12.662492            0.337662552     0.919486258   0.000405971113 -0.000189125269   0.000405971113  -0.00018912527      0.340179337     0.918553465
12.66252             0.338088242     0.919311193   0.000406649643 -0.000189694265   0.000406649642 -0.000189694265      0.340605225     0.918376978
12.662548             0.33851423     0.919135755   0.000407329482 -0.000190265075   0.000407329481 -0.000190265075       0.34103141     0.918200117
12.662576            0.338940515     0.918959945   0.000408010633 -0.000190837706   0.000408010632 -0.000190837706      0.341457892     0.918022883
12.662604            0.339367098     0.918783761   0.000408693098 -0.000191412164   0.000408693098 -0.000191412164      0.341884671     0.917845272
12.662632             0.33979398     0.918607202   0.000409376881 -0.000191988456   0.000409376881 -0.000191988456      0.342311748     0.917667286
12.66266              0.34022116     0.918430268   0.000410061984 -0.000192566589   0.000410061983 -0.000192566589      0.342739123     0.917488923
12.662688             0.34064864     0.918252958   0.000410748409 -0.000193146568   0.000410748409 -0.000193146568      0.343166796     0.917310182
12.662716            0.341076418     0.918075271   0.000411436159 -0.000193728401   0.000411436159 -0.000193728401      0.343594768     0.917131062
12.662744            0.341504497     0.917897206   0.000412125237 -0.000194312094   0.000412125237 -0.000194312094      0.344023038     0.916951563
12.662772            0.341932875     0.917718763   0.000412815646 -0.000194897653   0.000412815646 -0.000194897654      0.344451608     0.916771684
12.6628              0.342361554      0.91753994   0.000413507388 -0.000195485086   0.000413507387 -0.000195485087      0.344880477     0.916591423
12.662828            0.342790533     0.917360736   0.000414200465   -0.0001960744   0.000414200464   -0.0001960744      0.345309647     0.916410781
12.662856            0.343219813     0.917181152   0.000414894881 -0.000196665599    0.00041489488   -0.0001966656      0.345739116     0.916229756
12.662884            0.343649394     0.917001185   0.000415590637 -0.000197258693   0.000415590637 -0.000197258693      0.346168885     0.916048347
12.662912            0.344079277     0.916820835   0.000416287738 -0.000197853686   0.000416287737 -0.000197853687      0.346598956     0.915866553
12.66294             0.344509461     0.916640102   0.000416986185 -0.000198450587   0.000416986184 -0.000198450587      0.347029327     0.915684374
12.662968            0.344939948     0.916458984   0.000417685981 -0.000199049402    0.00041768598 -0.000199049402          0.34746     0.915501809
12.662996            0.345370737     0.916277481   0.000418387128 -0.000199650137   0.000418387128 -0.000199650137      0.347890974     0.915318857
12.663024            0.345801828     0.916095592    0.00041908963   -0.0002002528    0.00041908963   -0.0002002528      0.348322251     0.915135517
12.663052            0.346233223     0.915913315   0.000419793489 -0.000200857397   0.000419793489 -0.000200857397      0.348753829     0.914951789
12.66308             0.346664921      0.91573065   0.000420498708 -0.000201463936   0.000420498708 -0.000201463936       0.34918571      0.91476767
12.663108            0.347096923     0.915547596    0.00042120529 -0.000202072423   0.000421205289 -0.000202072423      0.349617895     0.914583161
12.663136            0.347529229     0.915364153   0.000421913237 -0.000202682865   0.000421913236 -0.000202682866      0.350050382     0.914398261
12.663164            0.347961839     0.915180319   0.000422622551  -0.00020329527   0.000422622551  -0.00020329527      0.350483173     0.914212968
12.663192            0.348394754     0.914996093   0.000423333236 -0.000203909644   0.000423333236 -0.000203909645      0.350916267     0.914027282
12.66322             0.348827974     0.914811475   0.000424045295 -0.000204525995   0.000424045294 -0.000204525995      0.351349666     0.913841202
12.663248            0.349261499     0.914626464   0.000424758729 -0.000205144329   0.000424758728 -0.000205144329      0.351783369     0.913654728
12.663276             0.34969533     0.914441059   0.000425473542 -0.000205764654   0.000425473542 -0.000205764654      0.352217377     0.913467857
12.663304            0.350129466     0.914255258   0.000426189737 -0.000206386976   0.000426189736 -0.000206386977       0.35265169      0.91328059
12.663332            0.350563909     0.914069062   0.000426907315 -0.000207011304   0.000426907315 -0.000207011304      0.353086308     0.913092925
12.66336             0.350998658     0.913882469   0.000427626281 -0.000207637644    0.00042762628 -0.000207637644      0.353521232     0.912904862
12.663388            0.351433714     0.913695478   0.000428346636 -0.000208266003   0.000428346636 -0.000208266003      0.353956462     0.912716399
12.663416            0.351869077     0.913508089   0.000429068384 -0.000208896389   0.000429068383 -0.000208896389      0.354391998     0.912527536
12.663444            0.352304748       0.9133203   0.000429791526 -0.000209528809   0.000429791526 -0.000209528809      0.354827841     0.912338272
12.663472            0.352740726     0.913132111   0.000430516067  -0.00021016327   0.000430516066  -0.00021016327      0.355263991     0.912148606
12.6635              0.353177013      0.91294352   0.000431242008  -0.00021079978   0.000431242007  -0.00021079978      0.355700448     0.911958537
