! TOUCHSTONE file generated by CST MICROWAVE STUDIO
! Date and time: Wed Jul 31 14:14:19 2024
! Project name: WaveGuide_BPF-Ver4.1_U-shape_Ku_T3_C4_CWA_2.cst
! Parameters = {cavity_h=16; cavity_l0=10; cavity_l1=15.2243; cavity_l2=16.8799; cavity_l3=17.143; cavity_l4=17.2956; cavity_l5=17.1546; cavity_l6=17.5972; cavity_r=2.5; cavity_screw_l=0.5; cavity_screw_r=1.5; cavity_w=8; iris_h00=0; iris_h01=8.8086; iris_h112=0; iris_h12=5.602; iris_h211=3.6586; iris_h23=5.1881; iris_h310=3.9639; iris_h34=5.0912; iris_h45=4.9337; iris_h49=4.6291; iris_h56=4.7933; iris_h58=4.4507; iris_h67=6.5843; iris_rx=0.1; iris_screw_l=0.5; iris_screw_r=1.5; iris_shift00=0; iris_shift112=0; iris_shift211=3.5; iris_shift310=0; iris_shift49=0; iris_shift58=3.5; iris_shift67=3.5; iris_tx=4.5; iris_tz=4.5; iris_w00=0; iris_w112=0; iris_w211=4; iris_w310=3.9639; iris_w49=4.6291; iris_w58=4; iris_w67=4; mesh_cavity=5; mesh_iris=7; mesh_screw=7; order=12; reset_all=0; sigma=4.8e+07}
! Header version: 2018
! Port assignment regex: !\s*Touchstone port\s*([0-9]+)\s*=\s*(CST MWS port|CST DS port)\s*([0-9]+|Zmin|Zmax)\s*\(\"(.*)\"\)(\s*mode\s*([0-9]+))?.*
! Touchstone port assignment:
! Touchstone port 1 = CST MWS port 1 ("")
! Touchstone port 2 = CST MWS port 2 ("")
# GHz S RI R 50
12.66                0.400714728     0.890938291   0.000365030033 -0.000199236573   0.000365030033 -0.000199236573      0.397305176     0.892733972
12.660028            0.401182418     0.890705642   0.000365577452 -0.000199802823   0.000365577452 -0.000199802823      0.397768541       0.8925059
12.660056            0.401650423     0.890472507   0.000366125691  -0.00020037076   0.000366125691  -0.00020037076      0.398232281     0.892277327
12.660084            0.402118736     0.890238891   0.000366674759 -0.000200940384   0.000366674759 -0.000200940384      0.398696364     0.892048267
12.660112            0.402587351     0.890004794   0.000367224667 -0.000201511694   0.000367224667 -0.000201511694      0.399160753     0.891818735
12.66014             0.403056259     0.889770219   0.000367775422 -0.000202084688   0.000367775422 -0.000202084688      0.399625416     0.891588743
12.660168             0.40352546     0.889535166   0.000368327026 -0.000202659372   0.000368327026 -0.000202659372      0.400090351     0.891358291
12.660196            0.403994961      0.88929963   0.000368879475 -0.000203235755   0.000368879475 -0.000203235755      0.400555582     0.891127369
12.660224            0.404464762     0.889063612   0.000369432768 -0.000203813844   0.000369432768 -0.000203813844       0.40102111     0.890895975
12.660252            0.404934861     0.888827109   0.000369986906 -0.000204393643   0.000369986906 -0.000204393643      0.401486935     0.890664107
12.66028              0.40540526     0.888590122   0.000370541891 -0.000204975157   0.000370541891 -0.000204975157      0.401953056     0.890431766
12.660308            0.405875959     0.888352648   0.000371097724 -0.000205558393   0.000371097724 -0.000205558393      0.402419474      0.89019895
12.660336            0.406346958     0.888114687   0.000371654404 -0.000206143356   0.000371654404 -0.000206143356       0.40288619     0.889965659
12.660364            0.406818256     0.887876238   0.000372211933 -0.000206730051   0.000372211933 -0.000206730051      0.403353202      0.88973189
12.660392            0.407289855     0.887637299   0.000372770311 -0.000207318484   0.000372770311 -0.000207318484      0.403820512     0.889497643
12.66042             0.407761755      0.88739787   0.000373329539  -0.00020790866   0.000373329539  -0.00020790866       0.40428812     0.889262918
12.660448            0.408233955      0.88715795   0.000373889619 -0.000208500585   0.000373889619 -0.000208500585      0.404756026     0.889027712
12.660476            0.408706456     0.886917538    0.00037445055 -0.000209094264    0.00037445055 -0.000209094264      0.405224229     0.888792026
12.660504            0.409179258     0.886676632   0.000375012334 -0.000209689704   0.000375012334 -0.000209689704      0.405692731     0.888555858
12.660532            0.409652361     0.886435231   0.000375574971 -0.000210286909   0.000375574971 -0.000210286909      0.406161531     0.888319206
12.66056             0.410125765     0.886193335   0.000376138462 -0.000210885885   0.000376138462 -0.000210885885       0.40663063     0.888082071
12.660588            0.410599471     0.885950943   0.000376702808 -0.000211486638   0.000376702808 -0.000211486638      0.407100027     0.887844451
12.660616            0.411073479     0.885708053   0.000377268009 -0.000212089174   0.000377268009 -0.000212089174      0.407569724     0.887606344
12.660644            0.411547788     0.885464664   0.000377834067 -0.000212693498   0.000377834067 -0.000212693498      0.408039719     0.887367751
12.660672            0.412022399     0.885220775   0.000378400981 -0.000213299616   0.000378400981 -0.000213299616      0.408510014     0.887128669
12.6607              0.412497313     0.884976385   0.000378968753 -0.000213907534   0.000378968753 -0.000213907534      0.408980608     0.886889098
12.660728            0.412972529     0.884731494   0.000379537384 -0.000214517257   0.000379537384 -0.000214517257      0.409451501     0.886649037
12.660756            0.413448047     0.884486099   0.000380106873 -0.000215128791   0.000380106873 -0.000215128791      0.409922695     0.886408485
12.660784            0.413923868     0.884240201   0.000380677223 -0.000215742142   0.000380677223 -0.000215742142      0.410394188      0.88616744
12.660812            0.414399992     0.883993797   0.000381248433 -0.000216357316   0.000381248432 -0.000216357316      0.410865982     0.885925902
12.66084             0.414876419     0.883746887   0.000381820504 -0.000216974319   0.000381820504 -0.000216974319      0.411338076     0.885683869
12.660868            0.415353149      0.88349947   0.000382393437 -0.000217593156   0.000382393437 -0.000217593156       0.41181047     0.885441342
12.660896            0.415830183     0.883251544   0.000382967232 -0.000218213833   0.000382967232 -0.000218213833      0.412283165     0.885198317
12.660924             0.41630752     0.883003109   0.000383541891 -0.000218836356   0.000383541891 -0.000218836356      0.412756161     0.884954795
12.660952            0.416785161     0.882754163   0.000384117414 -0.000219460732   0.000384117414 -0.000219460732      0.413229458     0.884710774
12.66098             0.417263106     0.882504705   0.000384693802 -0.000220086965   0.000384693801 -0.000220086965      0.413703056     0.884466254
12.661008            0.417741354     0.882254735   0.000385271054 -0.000220715063   0.000385271054 -0.000220715063      0.414176956     0.884221233
12.661036            0.418219907     0.882004251   0.000385849173  -0.00022134503   0.000385849173  -0.00022134503      0.414651156      0.88397571
12.661064            0.418698765     0.881753251   0.000386428159 -0.000221976873   0.000386428159 -0.000221976873      0.415125659     0.883729684
12.661092            0.419177927     0.881501736   0.000387008012 -0.000222610598   0.000387008011 -0.000222610598      0.415600464     0.883483154
12.66112             0.419657393     0.881249703   0.000387588732 -0.000223246211   0.000387588732  -0.00022324621       0.41607557     0.883236119
12.661148            0.420137165     0.880997152   0.000388170322 -0.000223883717   0.000388170322 -0.000223883717      0.416550979     0.882988578
12.661176            0.420617241     0.880744082   0.000388752781 -0.000224523124    0.00038875278 -0.000224523124       0.41702669     0.882740529
12.661204            0.421097623     0.880490491   0.000389336109 -0.000225164437   0.000389336109 -0.000225164437      0.417502703     0.882491972
12.661232             0.42157831     0.880236378   0.000389920308 -0.000225807662   0.000389920308 -0.000225807661       0.41797902     0.882242906
12.66126             0.422059303     0.879981742   0.000390505379 -0.000226452805   0.000390505378 -0.000226452805      0.418455639     0.881993329
12.661288            0.422540601     0.879726583   0.000391091321 -0.000227099872   0.000391091321 -0.000227099872      0.418932561     0.881743241
12.661316            0.423022205     0.879470898   0.000391678135  -0.00022774887   0.000391678135  -0.00022774887      0.419409786      0.88149264
12.661344            0.423504115     0.879214687   0.000392265823 -0.000228399805   0.000392265823 -0.000228399805      0.419887315     0.881241525
12.661372            0.423986331     0.878957949   0.000392854384 -0.000229052683   0.000392854384 -0.000229052683      0.420365148     0.880989895
12.6614              0.424468854     0.878700682   0.000393443819  -0.00022970751   0.000393443819  -0.00022970751      0.420843284     0.880737749
12.661428            0.424951683     0.878442886    0.00039403413 -0.000230364292    0.00039403413 -0.000230364292      0.421321724     0.880485085
12.661456            0.425434819     0.878184559   0.000394625315 -0.000231023036   0.000394625315 -0.000231023036      0.421800468     0.880231904
12.661484            0.425918262       0.8779257   0.000395217377 -0.000231683749   0.000395217377 -0.000231683748      0.422279516     0.879978203
12.661512            0.426402011     0.877666307   0.000395810315 -0.000232346435   0.000395810315 -0.000232346435      0.422758868     0.879723982
12.66154             0.426886068     0.877406381   0.000396404131 -0.000233011102    0.00039640413 -0.000233011102      0.423238525     0.879469239
12.661568            0.427370432     0.877145919   0.000396998824 -0.000233677756   0.000396998824 -0.000233677756      0.423718487     0.879213973
12.661596            0.427855104      0.87688492   0.000397594395 -0.000234346403   0.000397594395 -0.000234346403      0.424198754     0.878958183
12.661624            0.428340083     0.876623384   0.000398190845  -0.00023501705   0.000398190845  -0.00023501705      0.424679325     0.878701869
12.661652             0.42882537     0.876361309   0.000398788175 -0.000235689704   0.000398788175 -0.000235689703      0.425160202     0.878445028
12.66168             0.429310964     0.876098693   0.000399386385 -0.000236364369   0.000399386385 -0.000236364369      0.425641384      0.87818766
12.661708            0.429796867     0.875835537   0.000399985475 -0.000237041054   0.000399985475 -0.000237041054      0.426122872     0.877929763
12.661736            0.430283078     0.875571838   0.000400585446 -0.000237719765   0.000400585446 -0.000237719765      0.426604665     0.877671337
12.661764            0.430769598     0.875307595   0.000401186298 -0.000238400507   0.000401186298 -0.000238400507      0.427086764      0.87741238
12.661792            0.431256426     0.875042808   0.000401788033 -0.000239083288   0.000401788033 -0.000239083288      0.427569169     0.877152891
12.66182             0.431743562     0.874777474    0.00040239065 -0.000239768114    0.00040239065 -0.000239768114       0.42805188     0.876892869
12.661848            0.432231008     0.874511593   0.000402994151 -0.000240454992    0.00040299415 -0.000240454992      0.428534898     0.876632313
12.661876            0.432718762     0.874245164   0.000403598534 -0.000241143928   0.000403598534 -0.000241143928      0.429018222     0.876371222
12.661904            0.433206826     0.873978186   0.000404203802 -0.000241834929   0.000404203802 -0.000241834929      0.429501853     0.876109594
12.661932            0.433695199     0.873710656   0.000404809955 -0.000242528002   0.000404809955 -0.000242528002       0.42998579     0.875847428
12.66196             0.434183881     0.873442575   0.000405416992 -0.000243223152   0.000405416992 -0.000243223152      0.430470034     0.875584724
12.661988            0.434672873      0.87317394   0.000406024915 -0.000243920388   0.000406024915 -0.000243920388      0.430954585     0.875321479
12.662016            0.435162175     0.872904751   0.000406633724 -0.000244619715   0.000406633724 -0.000244619715      0.431439444     0.875057693
12.662044            0.435651786     0.872635006    0.00040724342  -0.00024532114    0.00040724342  -0.00024532114       0.43192461     0.874793365
12.662072            0.436141708     0.872364705   0.000407854002 -0.000246024671   0.000407854002 -0.000246024671      0.432410083     0.874528493
12.6621               0.43663194     0.872093845   0.000408465472 -0.000246730313   0.000408465472 -0.000246730313      0.432895865     0.874263077
12.662128            0.437122482     0.871822426   0.000409077829 -0.000247438074   0.000409077829 -0.000247438074      0.433381954     0.873997115
12.662156            0.437613334     0.871550447   0.000409691075  -0.00024814796   0.000409691075  -0.00024814796      0.433868351     0.873730605
12.662184            0.438104497     0.871277906   0.000410305209 -0.000248859979   0.000410305209 -0.000248859978      0.434355056     0.873463547
12.662212            0.438595971     0.871004802   0.000410920232 -0.000249574136   0.000410920232 -0.000249574136      0.434842069      0.87319594
12.66224             0.439087756     0.870731133   0.000411536145  -0.00025029044   0.000411536145  -0.00025029044      0.435329391     0.872927782
12.662268            0.439579852       0.8704569   0.000412152948 -0.000251008896   0.000412152948 -0.000251008896      0.435817022     0.872659072
12.662296            0.440072259     0.870182099   0.000412770641 -0.000251729513   0.000412770641 -0.000251729513      0.436304961     0.872389808
12.662324            0.440564977     0.869906731   0.000413389224 -0.000252452296   0.000413389224 -0.000252452296      0.436793209     0.872119991
12.662352            0.441058007     0.869630793   0.000414008699 -0.000253177253   0.000414008699 -0.000253177253      0.437281766     0.871849618
12.66238             0.441551348     0.869354285   0.000414629065  -0.00025390439   0.000414629065  -0.00025390439      0.437770632     0.871578688
12.662408            0.442045001     0.869077205   0.000415250322 -0.000254633716   0.000415250322 -0.000254633716      0.438259808       0.8713072
12.662436            0.442538966     0.868799553   0.000415872472 -0.000255365236   0.000415872472 -0.000255365236      0.438749293     0.871035153
12.662464            0.443033243     0.868521326   0.000416495515 -0.000256098959   0.000416495515 -0.000256098958      0.439239088     0.870762545
12.662492            0.443527832     0.868242523    0.00041711945  -0.00025683489    0.00041711945  -0.00025683489      0.439729192     0.870489376
12.66252             0.444022734     0.867963144   0.000417744278 -0.000257573037   0.000417744278 -0.000257573037      0.440219607     0.870215644
12.662548            0.444517948     0.867683187       0.00041837 -0.000258313408       0.00041837 -0.000258313408      0.440710331     0.869941348
12.662576            0.445013474     0.867402651   0.000418996615 -0.000259056009   0.000418996615 -0.000259056009      0.441201366     0.869666486
12.662604            0.445509313     0.867121533   0.000419624125 -0.000259800848   0.000419624125 -0.000259800848      0.441692711     0.869391058
12.662632            0.446005465     0.866839834   0.000420252529 -0.000260547932   0.000420252529 -0.000260547931      0.442184367     0.869115062
12.66266              0.44650193     0.866557552   0.000420881828 -0.000261297267   0.000420881828 -0.000261297267      0.442676333     0.868838496
12.662688            0.446998708     0.866274686   0.000421512022 -0.000262048862   0.000421512022 -0.000262048862       0.44316861      0.86856136
12.662716              0.4474958     0.865991233   0.000422143111 -0.000262802724   0.000422143111 -0.000262802724      0.443661198     0.868283653
12.662744            0.447993204     0.865707194   0.000422775095  -0.00026355886   0.000422775095  -0.00026355886      0.444154096     0.868005373
12.662772            0.448490922     0.865422566   0.000423407976 -0.000264317277   0.000423407975 -0.000264317277      0.444647306     0.867726518
12.6628              0.448988954     0.865137349   0.000424041752 -0.000265077983   0.000424041752 -0.000265077983      0.445140828     0.867447088
12.662828              0.4494873      0.86485154   0.000424676425 -0.000265840985   0.000424676425 -0.000265840984       0.44563466     0.867167082
12.662856            0.449985959      0.86456514   0.000425311994  -0.00026660629   0.000425311994  -0.00026660629      0.446128805     0.866886497
12.662884            0.450484932     0.864278145    0.00042594846 -0.000267373906    0.00042594846 -0.000267373906      0.446623261     0.866605333
12.662912             0.45098422     0.863990556   0.000426585823  -0.00026814384   0.000426585823  -0.00026814384      0.447118029     0.866323589
12.66294             0.451483822     0.863702371   0.000427224083 -0.000268916101   0.000427224083 -0.000268916101      0.447613109     0.866041263
12.662968            0.451983738     0.863413588    0.00042786324 -0.000269690695    0.00042786324 -0.000269690694      0.448108501     0.865758353
12.662996            0.452483968     0.863124206   0.000428503295 -0.000270467629   0.000428503295 -0.000270467629      0.448604205     0.865474859
12.663024            0.452984514     0.862834224   0.000429144248 -0.000271246912   0.000429144248 -0.000271246912      0.449100222      0.86519078
12.663052            0.453485374      0.86254364   0.000429786098 -0.000272028552   0.000429786098 -0.000272028551      0.449596551     0.864906113
12.66308             0.453986548     0.862252454   0.000430428847 -0.000272812554   0.000430428847 -0.000272812554      0.450093193     0.864620859
12.663108            0.454488038     0.861960663   0.000431072494 -0.000273598929   0.000431072494 -0.000273598928      0.450590148     0.864335014
12.663136            0.454989843     0.861668266   0.000431717039 -0.000274387682   0.000431717039 -0.000274387682      0.451087415     0.864048579
12.663164            0.455491963     0.861375263   0.000432362483 -0.000275178822   0.000432362483 -0.000275178821      0.451584996     0.863761551
12.663192            0.455994399     0.861081651   0.000433008825 -0.000275972356   0.000433008825 -0.000275972356      0.452082889      0.86347393
12.66322              0.45649715      0.86078743   0.000433656066 -0.000276768292   0.000433656066 -0.000276768292      0.452581096     0.863185714
12.663248            0.457000216     0.860492597   0.000434304206 -0.000277566638   0.000434304206 -0.000277566638      0.453079617     0.862896902
12.663276            0.457503599     0.860197153   0.000434953245 -0.000278367402   0.000434953244 -0.000278367402      0.453578451     0.862607492
12.663304            0.458007297     0.859901094   0.000435603182 -0.000279170592   0.000435603182 -0.000279170592      0.454077598     0.862317484
12.663332            0.458511311      0.85960442   0.000436254019 -0.000279976215   0.000436254019 -0.000279976214       0.45457706     0.862026875
12.66336             0.459015641      0.85930713   0.000436905755 -0.000280784279   0.000436905755 -0.000280784278      0.455076835     0.861735665
12.663388            0.459520287     0.859009222    0.00043755839 -0.000281594792    0.00043755839 -0.000281594792      0.455576924     0.861443852
12.663416            0.460025249     0.858710694   0.000438211924 -0.000282407762   0.000438211924 -0.000282407762      0.456077328     0.861151434
12.663444            0.460530528     0.858411546   0.000438866358 -0.000283223197   0.000438866358 -0.000283223197      0.456578046     0.860858411
12.663472            0.461036123     0.858111776    0.00043952169 -0.000284041105    0.00043952169 -0.000284041105      0.457079078     0.860564782
12.6635              0.461542035     0.857811382   0.000440177922 -0.000284861494   0.000440177922 -0.000284861494      0.457580424     0.860270543
