! TOUCHSTONE file generated by CST MICROWAVE STUDIO
! Date and time: Wed Jul 31 14:20:36 2024
! Project name: WaveGuide_BPF-Ver4.1_U-shape_Ku_T3_C4_CWA_2.cst
! Parameters = {cavity_h=16; cavity_l0=10; cavity_l1=15.2223; cavity_l2=16.8835; cavity_l3=17.1034; cavity_l4=17.259; cavity_l5=17.1644; cavity_l6=17.5958; cavity_r=2.5; cavity_screw_l=0.5; cavity_screw_r=1.5; cavity_w=8; iris_h00=0; iris_h01=8.8344; iris_h112=0; iris_h12=5.5935; iris_h211=3.6647; iris_h23=5.2045; iris_h310=3.9662; iris_h34=5.0862; iris_h45=4.9397; iris_h49=4.625; iris_h56=4.7992; iris_h58=4.4335; iris_h67=6.5859; iris_rx=0.1; iris_screw_l=0.5; iris_screw_r=1.5; iris_shift00=0; iris_shift112=0; iris_shift211=3.5; iris_shift310=0; iris_shift49=0; iris_shift58=3.5; iris_shift67=3.5; iris_tx=4.5; iris_tz=4.5; iris_w00=0; iris_w112=0; iris_w211=4; iris_w310=3.9662; iris_w49=4.625; iris_w58=4; iris_w67=4; mesh_cavity=5; mesh_iris=7; mesh_screw=7; order=12; reset_all=0; sigma=4.8e+07}
! Header version: 2018
! Port assignment regex: !\s*Touchstone port\s*([0-9]+)\s*=\s*(CST MWS port|CST DS port)\s*([0-9]+|Zmin|Zmax)\s*\(\"(.*)\"\)(\s*mode\s*([0-9]+))?.*
! Touchstone port assignment:
! Touchstone port 1 = CST MWS port 1 ("")
! Touchstone port 2 = CST MWS port 2 ("")
# GHz S RI R 50
12.66                0.482690147     0.846190632   0.000419353564  -0.00028644036   0.000419353564  -0.00028644036      0.480037803     0.848025729
12.660028            0.483188533     0.845879101   0.000419966694 -0.000287251049   0.000419966694 -0.000287251049      0.480531327     0.847719741
12.660056            0.483687224     0.845566944    0.00042058069 -0.000288064157    0.00042058069 -0.000288064157      0.481024987     0.847413234
12.660084            0.484186206     0.845254168   0.000421195537 -0.000288879699   0.000421195537 -0.000288879699      0.481518842     0.847106174
12.660112            0.484685468     0.844940778   0.000421811223  -0.00028969769   0.000421811223 -0.000289697689      0.482012949     0.846798528
12.66014             0.485184996     0.844626779   0.000422427734 -0.000290518143   0.000422427734 -0.000290518143      0.482507366     0.846490263
12.660168             0.48568479      0.84431217    0.00042304507 -0.000291341068    0.00042304507 -0.000291341068      0.483002094     0.846181378
12.660196            0.486184859     0.843996946    0.00042366324 -0.000292166468    0.00042366324 -0.000292166468      0.483497094     0.845871893
12.660224            0.486685203     0.843681106   0.000424282245  -0.00029299435   0.000424282245  -0.00029299435      0.483992366     0.845561806
12.660252            0.487185821     0.843364647   0.000424902083 -0.000293824724   0.000424902084 -0.000293824724      0.484487909     0.845251117
12.66028             0.487686714     0.843047569   0.000425522757 -0.000294657596   0.000425522757 -0.000294657596      0.484983725     0.844939824
12.660308            0.488187882      0.84272987   0.000426144264 -0.000295492976   0.000426144264 -0.000295492976      0.485479812     0.844627926
12.660336            0.488689325     0.842411549   0.000426766606 -0.000296330871   0.000426766606 -0.000296330871      0.485976171     0.844315422
12.660364            0.489191042     0.842092606   0.000427389782  -0.00029717129   0.000427389782  -0.00029717129      0.486472802      0.84400231
12.660392            0.489693034     0.841773037   0.000428013793 -0.000298014241   0.000428013793 -0.000298014241      0.486969704     0.843688589
12.66042             0.490195301     0.841452843   0.000428638639 -0.000298859733   0.000428638639 -0.000298859733      0.487466879     0.843374259
12.660448            0.490697842     0.841132022   0.000429264319 -0.000299707773   0.000429264319 -0.000299707772      0.487964325     0.843059317
12.660476            0.491200658     0.840810573   0.000429890833 -0.000300558369   0.000429890833 -0.000300558369      0.488462043     0.842743762
12.660504            0.491703748     0.840488493   0.000430518182 -0.000301411531   0.000430518182 -0.000301411531      0.488960032     0.842427594
12.660532            0.492207113     0.840165783   0.000431146366 -0.000302267267   0.000431146366 -0.000302267267      0.489458294      0.84211081
12.66056             0.492710753     0.839842441   0.000431775384 -0.000303125585   0.000431775384 -0.000303125584      0.489956827     0.841793411
12.660588            0.493214666     0.839518465   0.000432405236 -0.000303986493   0.000432405236 -0.000303986493      0.490455631     0.841475393
12.660616            0.493718855     0.839193854   0.000433035923     -0.00030485   0.000433035923     -0.00030485      0.490954707     0.841156757
12.660644            0.494223317     0.838868608   0.000433667444 -0.000305716115   0.000433667444 -0.000305716115      0.491454055     0.840837501
12.660672            0.494728055     0.838542723     0.0004342998 -0.000306584846     0.0004342998 -0.000306584846      0.491953674     0.840517624
12.6607              0.495233066       0.8382162   0.000434932989 -0.000307456202   0.000434932989 -0.000307456202      0.492453565     0.840197123
12.660728            0.495738352     0.837889037   0.000435567013 -0.000308330191   0.000435567013 -0.000308330191      0.492953728     0.839875999
12.660756            0.496243911     0.837561232    0.00043620187 -0.000309206822    0.00043620187 -0.000309206822      0.493454162      0.83955425
12.660784            0.496749746     0.837232784   0.000436837561 -0.000310086103   0.000436837561 -0.000310086103      0.493954867     0.839231874
12.660812            0.497255854     0.836903692   0.000437474086 -0.000310968044   0.000437474086 -0.000310968044      0.494455844      0.83890887
12.66084             0.497762236     0.836573955   0.000438111445 -0.000311852653   0.000438111445 -0.000311852653      0.494957092     0.838585238
12.660868            0.498268893     0.836243571   0.000438749637 -0.000312739939   0.000438749637 -0.000312739939      0.495458611     0.838260974
12.660896            0.498775823     0.835912539   0.000439388662  -0.00031362991   0.000439388662  -0.00031362991      0.495960402      0.83793608
12.660924            0.499283028     0.835580857    0.00044002852 -0.000314522576    0.00044002852 -0.000314522576      0.496462464     0.837610552
12.660952            0.499790506     0.835248525   0.000440669211 -0.000315417945   0.000440669212 -0.000315417945      0.496964798      0.83728439
12.66098             0.500298259      0.83491554   0.000441310735 -0.000316316026   0.000441310735 -0.000316316026      0.497467402     0.836957592
12.661008            0.500806285     0.834581902   0.000441953092 -0.000317216828   0.000441953092 -0.000317216828      0.497970278     0.836630158
12.661036            0.501314585     0.834247609   0.000442596281  -0.00031812036   0.000442596281  -0.00031812036      0.498473425     0.836302085
12.661064            0.501823158     0.833912659   0.000443240302 -0.000319026632   0.000443240302 -0.000319026632      0.498976843     0.835973372
12.661092            0.502332006     0.833577052   0.000443885154 -0.000319935651   0.000443885154 -0.000319935651      0.499480531     0.835644019
12.66112             0.502841127     0.833240786   0.000444530839 -0.000320847427   0.000444530839 -0.000320847427      0.499984491     0.835314024
12.661148            0.503350521      0.83290386   0.000445177354  -0.00032176197   0.000445177354  -0.00032176197      0.500488722     0.834983385
12.661176            0.503860189     0.832566272   0.000445824701 -0.000322679287   0.000445824701 -0.000322679287      0.500993224     0.834652101
12.661204             0.50437013      0.83222802   0.000446472879 -0.000323599389   0.000446472879 -0.000323599389      0.501497996     0.834320171
12.661232            0.504880345     0.831889105   0.000447121887 -0.000324522285   0.000447121887 -0.000324522285       0.50200304     0.833987594
12.66126             0.505390833     0.831549523   0.000447771725 -0.000325447983   0.000447771725 -0.000325447983      0.502508354     0.833654368
12.661288            0.505901595     0.831209274   0.000448422393 -0.000326376494   0.000448422393 -0.000326376493      0.503013939     0.833320492
12.661316            0.506412629     0.830868356   0.000449073891 -0.000327307825   0.000449073891 -0.000327307825      0.503519794     0.832985964
12.661344            0.506923937     0.830526769   0.000449726218 -0.000328241987   0.000449726218 -0.000328241987       0.50402592     0.832650783
12.661372            0.507435517     0.830184509   0.000450379374 -0.000329178989   0.000450379374 -0.000329178989      0.504532316     0.832314948
12.6614              0.507947371     0.829841577   0.000451033358  -0.00033011884   0.000451033359  -0.00033011884      0.505038983     0.831978457
12.661428            0.508459497     0.829497971   0.000451688171  -0.00033106155   0.000451688171  -0.00033106155       0.50554592      0.83164131
12.661456            0.508971896     0.829153689   0.000452343811 -0.000332007128   0.000452343811 -0.000332007128      0.506053128     0.831303504
12.661484            0.509484568      0.82880873   0.000453000279 -0.000332955584   0.000453000279 -0.000332955584      0.506560606     0.830965038
12.661512            0.509997513     0.828463092   0.000453657573 -0.000333906926   0.000453657573 -0.000333906926      0.507068353     0.830625912
12.66154              0.51051073     0.828116775   0.000454315694 -0.000334861166   0.000454315694 -0.000334861166      0.507576372     0.830286123
12.661568             0.51102422     0.827769776   0.000454974641 -0.000335818311   0.000454974641 -0.000335818311       0.50808466      0.82994567
12.661596            0.511537982     0.827422094   0.000455634414 -0.000336778372   0.000455634414 -0.000336778372      0.508593218     0.829604552
12.661624            0.512052016     0.827073728   0.000456295012 -0.000337741359   0.000456295012 -0.000337741358      0.509102046     0.829262768
12.661652            0.512566323     0.826724676   0.000456956434  -0.00033870728   0.000456956434  -0.00033870728      0.509611143     0.828920315
12.66168             0.513080901     0.826374938   0.000457618681 -0.000339676146   0.000457618681 -0.000339676146      0.510120511     0.828577194
12.661708            0.513595752      0.82602451   0.000458281751 -0.000340647967   0.000458281751 -0.000340647967      0.510630148     0.828233401
12.661736            0.514110875     0.825673393   0.000458945645 -0.000341622752   0.000458945645 -0.000341622752      0.511140055     0.827888937
12.661764             0.51462627     0.825321584   0.000459610361 -0.000342600511   0.000459610361 -0.000342600511      0.511650231     0.827543799
12.661792            0.515141936     0.824969083   0.000460275899 -0.000343581254   0.000460275899 -0.000343581254      0.512160677     0.827197986
12.66182             0.515657874     0.824615887   0.000460942258 -0.000344564991   0.000460942258 -0.000344564991      0.512671392     0.826851496
12.661848            0.516174084     0.824261995   0.000461609439 -0.000345551732   0.000461609439 -0.000345551732      0.513182377     0.826504329
12.661876            0.516690565     0.823907407   0.000462277439 -0.000346541486   0.000462277439 -0.000346541486       0.51369363     0.826156483
12.661904            0.517207317     0.823552119    0.00046294626 -0.000347534264    0.00046294626 -0.000347534264      0.514205153     0.825807956
12.661932            0.517724341     0.823196131   0.000463615899 -0.000348530075   0.000463615899 -0.000348530075      0.514716944     0.825458748
12.66196             0.518241636     0.822839442   0.000464286357  -0.00034952893   0.000464286357  -0.00034952893      0.515229005     0.825108856
12.661988            0.518759202     0.822482049   0.000464957633 -0.000350530839   0.000464957633 -0.000350530839      0.515741334     0.824758279
12.662016            0.519277039     0.822123952   0.000465629726 -0.000351535812   0.000465629726 -0.000351535812      0.516253932     0.824407016
12.662044            0.519795147     0.821765149   0.000466302636 -0.000352543859   0.000466302636 -0.000352543859      0.516766799     0.824055065
12.662072            0.520313526     0.821405638   0.000466976361  -0.00035355499   0.000466976361  -0.00035355499      0.517279934     0.823702425
12.6621              0.520832175     0.821045418   0.000467650901 -0.000354569215   0.000467650902 -0.000354569215      0.517793338     0.823349094
12.662128            0.521351094     0.820684488   0.000468326256 -0.000355586546   0.000468326256 -0.000355586546       0.51830701     0.822995072
12.662156            0.521870285     0.820322845   0.000469002425 -0.000356606991   0.000469002425 -0.000356606991       0.51882095     0.822640356
12.662184            0.522389745     0.819960489   0.000469679406 -0.000357630562   0.000469679406 -0.000357630562      0.519335159     0.822284945
12.662212            0.522909475     0.819597418   0.000470357199 -0.000358657268   0.000470357199 -0.000358657268      0.519849635     0.821928837
12.66224             0.523429476      0.81923363   0.000471035804 -0.000359687121   0.000471035804 -0.000359687121      0.520364379     0.821572032
12.662268            0.523949746     0.818869124   0.000471715219  -0.00036072013   0.000471715219  -0.00036072013      0.520879391     0.821214528
12.662296            0.524470286     0.818503898   0.000472395444 -0.000361756307   0.000472395444 -0.000361756307      0.521394671     0.820856323
12.662324            0.524991096     0.818137952   0.000473076478 -0.000362795661   0.000473076478 -0.000362795661      0.521910218     0.820497415
12.662352            0.525512176     0.817771282    0.00047375832 -0.000363838203    0.00047375832 -0.000363838203      0.522426033     0.820137804
12.66238             0.526033524     0.817403889   0.000474440969 -0.000364883944   0.000474440969 -0.000364883944      0.522942115     0.819777488
12.662408            0.526555142      0.81703577   0.000475124424 -0.000365932895   0.000475124424 -0.000365932895      0.523458465     0.819416465
12.662436             0.52707703     0.816666923   0.000475808685 -0.000366985065   0.000475808685 -0.000366985065      0.523975081     0.819054734
12.662464            0.527599186     0.816297348    0.00047649375 -0.000368040467    0.00047649375 -0.000368040467      0.524491964     0.818692294
12.662492            0.528121611     0.815927042   0.000477179619  -0.00036909911   0.000477179619  -0.00036909911      0.525009115     0.818329142
12.66252             0.528644304     0.815556005    0.00047786629 -0.000370161005    0.00047786629 -0.000370161005      0.525526532     0.817965278
12.662548            0.529167267     0.815184234   0.000478553763 -0.000371226163   0.000478553763 -0.000371226163      0.526044215     0.817600699
12.662576            0.529690497     0.814811728   0.000479242037 -0.000372294596   0.000479242037 -0.000372294596      0.526562166     0.817235405
12.662604            0.530213996     0.814438486    0.00047993111 -0.000373366313    0.00047993111 -0.000373366313      0.527080382     0.816869394
12.662632            0.530737763     0.814064505   0.000480620982 -0.000374441327   0.000480620982 -0.000374441327      0.527598865     0.816502665
12.66266             0.531261798     0.813689785   0.000481311652 -0.000375519647   0.000481311652 -0.000375519647      0.528117613     0.816135215
12.662688            0.531786101     0.813314323   0.000482003118 -0.000376601285   0.000482003118 -0.000376601285      0.528636628     0.815767043
12.662716            0.532310671     0.812938119    0.00048269538 -0.000377686252    0.00048269538 -0.000377686252      0.529155909     0.815398149
12.662744            0.532835509      0.81256117   0.000483388436 -0.000378774559   0.000483388436 -0.000378774559      0.529675455     0.815028529
12.662772            0.533360615     0.812183476   0.000484082286 -0.000379866217   0.000484082286 -0.000379866217      0.530195267     0.814658184
12.6628              0.533885987     0.811805034   0.000484776928 -0.000380961237   0.000484776928 -0.000380961237      0.530715344     0.814287111
12.662828            0.534411627     0.811425842   0.000485472361 -0.000382059631   0.000485472361 -0.000382059631      0.531235686     0.813915308
12.662856            0.534937533       0.8110459   0.000486168584  -0.00038316141   0.000486168584  -0.00038316141      0.531756293     0.813542775
12.662884            0.535463706     0.810665205   0.000486865595 -0.000384266585   0.000486865595 -0.000384266585      0.532277166     0.813169509
12.662912            0.535990146     0.810283757   0.000487563394 -0.000385375168   0.000487563394 -0.000385375168      0.532798303      0.81279551
12.66294             0.536516851     0.809901553    0.00048826198 -0.000386487169    0.00048826198 -0.000386487169      0.533319705     0.812420774
12.662968            0.537043824     0.809518592    0.00048896135   -0.0003876026   0.000488961351   -0.0003876026      0.533841371     0.812045302
12.662996            0.537571062     0.809134872   0.000489661505 -0.000388721473   0.000489661505 -0.000388721473      0.534363302     0.811669092
12.663024            0.538098566     0.808750391   0.000490362442   -0.0003898438   0.000490362442   -0.0003898438      0.534885496     0.811292141
12.663052            0.538626335     0.808365149    0.00049106416 -0.000390969591   0.000491064161 -0.000390969591      0.535407955     0.810914449
12.66308              0.53915437     0.807979143   0.000491766659 -0.000392098858   0.000491766659 -0.000392098858      0.535930678     0.810536013
12.663108            0.539682671     0.807592372   0.000492469936 -0.000393231613   0.000492469936 -0.000393231613      0.536453664     0.810156832
12.663136            0.540211236     0.807204834    0.00049317399 -0.000394367868    0.00049317399 -0.000394367868      0.536976914     0.809776905
12.663164            0.540740066     0.806816527   0.000493878821 -0.000395507634   0.000493878821 -0.000395507634      0.537500427      0.80939623
12.663192            0.541269161      0.80642745   0.000494584426 -0.000396650923   0.000494584426 -0.000396650923      0.538024203     0.809014806
12.66322             0.541798521     0.806037601   0.000495290804 -0.000397797747   0.000495290804 -0.000397797747      0.538548243      0.80863263
12.663248            0.542328145     0.805646979   0.000495997954 -0.000398948117   0.000495997954 -0.000398948117      0.539072545     0.808249702
12.663276            0.542858033     0.805255582   0.000496705874 -0.000400102046   0.000496705874 -0.000400102046      0.539597109     0.807866019
12.663304            0.543388185     0.804863408   0.000497414563 -0.000401259546   0.000497414563 -0.000401259546      0.540121937      0.80748158
12.663332            0.543918601     0.804470455    0.00049812402 -0.000402420627    0.00049812402 -0.000402420627      0.540647026     0.807096384
12.66336              0.54444928     0.804076722   0.000498834242 -0.000403585303   0.000498834242 -0.000403585303      0.541172378     0.806710428
12.663388            0.544980223     0.803682208   0.000499545228 -0.000404753586   0.000499545228 -0.000404753586      0.541697991     0.806323712
12.663416            0.545511428      0.80328691   0.000500256978 -0.000405925487   0.000500256978 -0.000405925487      0.542223866     0.805936233
12.663444            0.546042897     0.802890827   0.000500969488 -0.000407101018   0.000500969488 -0.000407101018      0.542750003      0.80554799
12.663472            0.546574628     0.802493957   0.000501682758 -0.000408280193   0.000501682758 -0.000408280193      0.543276401     0.805158982
12.6635              0.547106622     0.802096298   0.000502396786 -0.000409463022   0.000502396786 -0.000409463022      0.543803061     0.804769207
