! TOUCHSTONE file generated by CST MICROWAVE STUDIO
! Date and time: Wed Jul 31 14:23:39 2024
! Project name: WaveGuide_BPF-Ver4.1_U-shape_Ku_T3_C4_CWA_2.cst
! Parameters = {cavity_h=16; cavity_l0=10; cavity_l1=15.1789; cavity_l2=16.8649; cavity_l3=17.1052; cavity_l4=17.3006; cavity_l5=17.0949; cavity_l6=17.6414; cavity_r=2.5; cavity_screw_l=0.5; cavity_screw_r=1.5; cavity_w=8; iris_h00=0; iris_h01=8.8176; iris_h112=0; iris_h12=5.5908; iris_h211=3.6575; iris_h23=5.1922; iris_h310=3.9749; iris_h34=5.0904; iris_h45=4.9423; iris_h49=4.6161; iris_h56=4.7902; iris_h58=4.431; iris_h67=6.5678; iris_rx=0.1; iris_screw_l=0.5; iris_screw_r=1.5; iris_shift00=0; iris_shift112=0; iris_shift211=3.5; iris_shift310=0; iris_shift49=0; iris_shift58=3.5; iris_shift67=3.5; iris_tx=4.5; iris_tz=4.5; iris_w00=0; iris_w112=0; iris_w211=4; iris_w310=3.9749; iris_w49=4.6161; iris_w58=4; iris_w67=4; mesh_cavity=5; mesh_iris=7; mesh_screw=7; order=12; reset_all=0; sigma=4.8e+07}
! Header version: 2018
! Port assignment regex: !\s*Touchstone port\s*([0-9]+)\s*=\s*(CST MWS port|CST DS port)\s*([0-9]+|Zmin|Zmax)\s*\(\"(.*)\"\)(\s*mode\s*([0-9]+))?.*
! Touchstone port assignment:
! Touchstone port 1 = CST MWS port 1 ("")
! Touchstone port 2 = CST MWS port 2 ("")
# GHz S RI R 50
12.66                0.246018238     0.951963501   0.000229120368 -7.75418533e-05   0.000229120368 -7.75418533e-05      0.251924107       0.9504181
12.660028            0.246374128     0.951859853   0.000229457613 -7.77593423e-05   0.000229457613 -7.77593422e-05      0.252280564     0.950311909
12.660056            0.246730236     0.951755988   0.000229795437 -7.79774338e-05   0.000229795437 -7.79774338e-05      0.252637219     0.950205503
12.660084            0.247086562     0.951651906   0.000230133839 -7.81961305e-05   0.000230133839 -7.81961304e-05       0.25299408     0.950098881
12.660112            0.247443105     0.951547607   0.000230472821 -7.84154348e-05   0.000230472821 -7.84154348e-05      0.253351154      0.94999204
12.66014             0.247799865     0.951443091   0.000230812382 -7.86353494e-05   0.000230812382 -7.86353494e-05      0.253708451     0.949884977
12.660168            0.248156842     0.951338357   0.000231152524 -7.88558761e-05   0.000231152524  -7.8855876e-05      0.254065969     0.949777693
12.660196            0.248514036     0.951233404   0.000231493248 -7.90770162e-05   0.000231493248 -7.90770161e-05      0.254423704     0.949670188
12.660224            0.248871449     0.951128233   0.000231834556 -7.92987716e-05   0.000231834556 -7.92987715e-05      0.254781657     0.949562462
12.660252            0.249229079     0.951022844   0.000232176448  -7.9521144e-05   0.000232176448  -7.9521144e-05      0.255139827     0.949454514
12.66028             0.249586927     0.950917234   0.000232518926 -7.97441355e-05   0.000232518926 -7.97441355e-05      0.255498214     0.949346345
12.660308            0.249944993     0.950811405    0.00023286199 -7.99677478e-05    0.00023286199 -7.99677477e-05       0.25585682     0.949237952
12.660336            0.250303278     0.950705356   0.000233205642 -8.01919828e-05   0.000233205642 -8.01919827e-05      0.256215643     0.949129338
12.660364            0.250661782     0.950599086   0.000233549882 -8.04168423e-05   0.000233549882 -8.04168423e-05      0.256574685     0.949020499
12.660392            0.251020505     0.950492595   0.000233894712 -8.06423283e-05   0.000233894712 -8.06423283e-05      0.256933945     0.948911438
12.66042             0.251379447     0.950385882   0.000234240133 -8.08684426e-05   0.000234240133 -8.08684426e-05      0.257293423     0.948802152
12.660448            0.251738609     0.950278948   0.000234586146 -8.10951872e-05   0.000234586146 -8.10951872e-05      0.257653121     0.948692642
12.660476            0.252097989     0.950171791   0.000234932752 -8.13225639e-05   0.000234932752 -8.13225638e-05      0.258013037     0.948582907
12.660504             0.25245759     0.950064412   0.000235279952 -8.15505746e-05   0.000235279952 -8.15505745e-05      0.258373172     0.948472946
12.660532            0.252817411     0.949956809   0.000235627747 -8.17792212e-05   0.000235627747 -8.17792211e-05      0.258733527      0.94836276
12.66056             0.253177452     0.949848983   0.000235976139 -8.20085057e-05   0.000235976139 -8.20085056e-05      0.259094102     0.948252348
12.660588            0.253537713     0.949740933   0.000236325128 -8.22384299e-05   0.000236325128 -8.22384299e-05      0.259454896      0.94814171
12.660616            0.253898195     0.949632659   0.000236674715 -8.24689959e-05   0.000236674715 -8.24689958e-05      0.259815911     0.948030844
12.660644            0.254258898      0.94952416   0.000237024901 -8.27002054e-05   0.000237024902 -8.27002054e-05      0.260177145     0.947919751
12.660672            0.254619821     0.949415436   0.000237375689 -8.29320606e-05   0.000237375689 -8.29320605e-05        0.2605386      0.94780843
12.6607              0.254980966     0.949306486   0.000237727078 -8.31645633e-05   0.000237727078 -8.31645632e-05      0.260900276     0.947696882
12.660728            0.255342333      0.94919731    0.00023807907 -8.33977154e-05    0.00023807907 -8.33977154e-05      0.261262172     0.947585104
12.660756             0.25570392     0.949087908   0.000238431666  -8.3631519e-05   0.000238431666  -8.3631519e-05       0.26162429     0.947473097
12.660784             0.25606573     0.948978279   0.000238784867  -8.3865976e-05   0.000238784867 -8.38659759e-05      0.261986628     0.947360861
12.660812            0.256427762     0.948868423   0.000239138674 -8.41010884e-05   0.000239138674 -8.41010883e-05      0.262349188     0.947248396
12.66084             0.256790016     0.948758339   0.000239493088 -8.43368581e-05   0.000239493088  -8.4336858e-05       0.26271197     0.947135699
12.660868            0.257152492     0.948648027   0.000239848111 -8.45732871e-05   0.000239848111 -8.45732871e-05      0.263074973     0.947022772
12.660896            0.257515191     0.948537486   0.000240203743 -8.48103775e-05   0.000240203743 -8.48103775e-05      0.263438199     0.946909614
12.660924            0.257878113     0.948426717   0.000240559985 -8.50481313e-05   0.000240559985 -8.50481312e-05      0.263801647     0.946796224
12.660952            0.258241258     0.948315718   0.000240916839 -8.52865503e-05   0.000240916839 -8.52865503e-05      0.264165317     0.946682603
12.66098             0.258604627     0.948204489   0.000241274306 -8.55256368e-05   0.000241274306 -8.55256367e-05       0.26452921     0.946568749
12.661008            0.258968218      0.94809303   0.000241632387 -8.57653926e-05   0.000241632387 -8.57653925e-05      0.264893325     0.946454661
12.661036            0.259332034     0.947981341   0.000241991083 -8.60058198e-05   0.000241991083 -8.60058197e-05      0.265257664     0.946340341
12.661064            0.259696073      0.94786942   0.000242350395 -8.62469204e-05   0.000242350396 -8.62469203e-05      0.265622226     0.946225787
12.661092            0.260060336     0.947757268   0.000242710325 -8.64886965e-05   0.000242710325 -8.64886964e-05      0.265987011     0.946110999
12.66112             0.260424824     0.947644884   0.000243070873 -8.67311501e-05   0.000243070873   -8.673115e-05       0.26635202     0.945995976
12.661148            0.260789536     0.947532267    0.00024343204 -8.69742832e-05    0.00024343204 -8.69742832e-05      0.266717253     0.945880718
12.661176            0.261154473     0.947419418   0.000243793828  -8.7218098e-05   0.000243793828  -8.7218098e-05       0.26708271     0.945765224
12.661204            0.261519635     0.947306335   0.000244156237 -8.74625965e-05   0.000244156237 -8.74625965e-05      0.267448392     0.945649495
12.661232            0.261885022     0.947193019    0.00024451927 -8.77077808e-05    0.00024451927 -8.77077807e-05      0.267814297     0.945533529
12.66126             0.262250634     0.947079468   0.000244882927 -8.79536529e-05   0.000244882927 -8.79536528e-05      0.268180428     0.945417326
12.661288            0.262616472     0.946965683   0.000245247208 -8.82002149e-05   0.000245247208 -8.82002149e-05      0.268546783     0.945300886
12.661316            0.262982536     0.946851663   0.000245612116  -8.8447469e-05   0.000245612116 -8.84474689e-05      0.268913364     0.945184209
12.661344            0.263348825     0.946737408   0.000245977652 -8.86954172e-05   0.000245977652 -8.86954171e-05       0.26928017     0.945067293
12.661372            0.263715341     0.946622917   0.000246343816 -8.89440616e-05   0.000246343816 -8.89440615e-05      0.269647201     0.944950139
12.6614              0.264082083     0.946508189    0.00024671061 -8.91934043e-05    0.00024671061 -8.91934043e-05      0.270014458     0.944832745
12.661428            0.264449052     0.946393225   0.000247078034 -8.94434476e-05   0.000247078034 -8.94434475e-05      0.270381941     0.944715112
12.661456            0.264816248     0.946278023   0.000247446091 -8.96941934e-05   0.000247446091 -8.96941934e-05       0.27074965      0.94459724
12.661484             0.26518367     0.946162584    0.00024781478  -8.9945644e-05   0.000247814781 -8.99456439e-05      0.271117585     0.944479127
12.661512             0.26555132     0.946046906   0.000248184105 -9.01978014e-05   0.000248184105 -9.01978014e-05      0.271485747     0.944360773
12.66154             0.265919197      0.94593099   0.000248554064 -9.04506679e-05   0.000248554064 -9.04506678e-05      0.271854136     0.944242177
12.661568            0.266287302     0.945814835    0.00024892466 -9.07042455e-05    0.00024892466 -9.07042455e-05      0.272222752     0.944123341
12.661596            0.266655635     0.945698441   0.000249295894 -9.09585365e-05   0.000249295894 -9.09585365e-05      0.272591595     0.944004261
12.661624            0.267024196     0.945581807   0.000249667766  -9.1213543e-05   0.000249667766  -9.1213543e-05      0.272960665      0.94388494
12.661652            0.267392985     0.945464932   0.000250040279 -9.14692673e-05   0.000250040279 -9.14692672e-05      0.273329963     0.943765375
12.66168             0.267762003     0.945347817   0.000250413433 -9.17257113e-05   0.000250413433 -9.17257113e-05      0.273699488     0.943645567
12.661708            0.268131249      0.94523046   0.000250787229 -9.19828775e-05   0.000250787229 -9.19828775e-05      0.274069242     0.943525514
12.661736            0.268500724     0.945112862   0.000251161669 -9.22407679e-05   0.000251161669 -9.22407679e-05      0.274439224     0.943405217
12.661764            0.268870429     0.944995021   0.000251536754 -9.24993848e-05   0.000251536754 -9.24993848e-05      0.274809434     0.943284676
12.661792            0.269240362     0.944876938   0.000251912484 -9.27587305e-05   0.000251912484 -9.27587304e-05      0.275179873     0.943163889
12.66182             0.269610526     0.944758612   0.000252288862  -9.3018807e-05   0.000252288862 -9.30188069e-05      0.275550541     0.943042856
12.661848            0.269980919     0.944640042   0.000252665887 -9.32796167e-05   0.000252665887 -9.32796166e-05      0.275921438     0.942921576
12.661876            0.270351542     0.944521229   0.000253043562 -9.35411617e-05   0.000253043562 -9.35411617e-05      0.276292564      0.94280005
12.661904            0.270722395      0.94440217   0.000253421888 -9.38034444e-05   0.000253421888 -9.38034443e-05      0.276663919     0.942678277
12.661932            0.271093479     0.944282867   0.000253800865 -9.40664669e-05   0.000253800865 -9.40664669e-05      0.277035504     0.942556256
12.66196             0.271464793     0.944163319   0.000254180495 -9.43302316e-05   0.000254180495 -9.43302316e-05       0.27740732     0.942433987
12.661988            0.271836338     0.944043525   0.000254560779 -9.45947407e-05   0.000254560779 -9.45947407e-05      0.277779365     0.942311469
12.662016            0.272208114     0.943923484   0.000254941719 -9.48599965e-05   0.000254941719 -9.48599965e-05       0.27815164     0.942188703
12.662044            0.272580122     0.943803197   0.000255323315 -9.51260013e-05   0.000255323315 -9.51260012e-05      0.278524147     0.942065686
12.662072            0.272952361     0.943682662   0.000255705568 -9.53927573e-05   0.000255705568 -9.53927572e-05      0.278896883      0.94194242
12.6621              0.273324831      0.94356188   0.000256088481 -9.56602668e-05   0.000256088481 -9.56602667e-05      0.279269851     0.941818903
12.662128            0.273697534     0.943440849   0.000256472053 -9.59285322e-05   0.000256472053 -9.59285321e-05       0.27964305     0.941695135
12.662156            0.274070469      0.94331957   0.000256856286 -9.61975557e-05   0.000256856286 -9.61975557e-05       0.28001648     0.941571116
12.662184            0.274443636     0.943198042   0.000257241182 -9.64673397e-05   0.000257241182 -9.64673397e-05      0.280390142     0.941446845
12.662212            0.274817035     0.943076264   0.000257626741 -9.67378866e-05   0.000257626741 -9.67378865e-05      0.280764036     0.941322321
12.66224             0.275190668     0.942954236   0.000258012965 -9.70091986e-05   0.000258012965 -9.70091985e-05      0.281138162     0.941197544
12.662268            0.275564533     0.942831957   0.000258399855  -9.7281278e-05   0.000258399855  -9.7281278e-05       0.28151252     0.941072514
12.662296            0.275938632     0.942709428   0.000258787412 -9.75541273e-05   0.000258787412 -9.75541273e-05       0.28188711     0.940947231
12.662324            0.276312964     0.942586647   0.000259175638 -9.78277488e-05   0.000259175638 -9.78277488e-05      0.282261933     0.940821692
12.662352            0.276687529     0.942463614   0.000259564533 -9.81021449e-05   0.000259564533 -9.81021449e-05      0.282636989       0.9406959
12.66238             0.277062329     0.942340329   0.000259954098 -9.83773179e-05   0.000259954098 -9.83773179e-05      0.283012278     0.940569851
12.662408            0.277437362      0.94221679   0.000260344336 -9.86532702e-05   0.000260344336 -9.86532702e-05        0.2833878     0.940443547
12.662436             0.27781263     0.942092999   0.000260735247 -9.89300043e-05   0.000260735247 -9.89300042e-05      0.283763556     0.940316987
12.662464            0.278188132     0.941968953   0.000261126832 -9.92075224e-05   0.000261126832 -9.92075224e-05      0.284139545      0.94019017
12.662492            0.278563869     0.941844653   0.000261519093 -9.94858271e-05   0.000261519093  -9.9485827e-05      0.284515769     0.940063096
12.66252             0.278939841     0.941720098    0.00026191203 -9.97649207e-05    0.00026191203 -9.97649206e-05      0.284892226     0.939935764
12.662548            0.279316049     0.941595288   0.000262305645 -0.000100044806   0.000262305645 -0.000100044806      0.285268918     0.939808174
12.662576            0.279692491     0.941470222    0.00026269994 -0.000100325484    0.00026269994 -0.000100325484      0.285645845     0.939680325
12.662604            0.280069169     0.941344899   0.000263094915 -0.000100606959   0.000263094915 -0.000100606959      0.286023006     0.939552217
12.662632            0.280446083      0.94121932   0.000263490571 -0.000100889233   0.000263490571 -0.000100889233      0.286400402     0.939423849
12.66266             0.280823233     0.941093484   0.000263886911 -0.000101172308   0.000263886911 -0.000101172308      0.286778034     0.939295221
12.662688             0.28120062     0.940967389   0.000264283934 -0.000101456186   0.000264283934 -0.000101456186      0.287155901     0.939166333
12.662716            0.281578242     0.940841037   0.000264681643  -0.00010174087   0.000264681643  -0.00010174087      0.287534004     0.939037183
12.662744            0.281956102     0.940714425   0.000265080038 -0.000102026363   0.000265080038 -0.000102026363      0.287912342     0.938907771
12.662772            0.282334198     0.940587555   0.000265479121 -0.000102312667   0.000265479121 -0.000102312667      0.288290917     0.938778098
12.6628              0.282712532     0.940460424   0.000265878893 -0.000102599785   0.000265878893 -0.000102599785      0.288669727     0.938648161
12.662828            0.283091102     0.940333034   0.000266279355 -0.000102887718   0.000266279355 -0.000102887718      0.289048775     0.938517962
12.662856            0.283469911     0.940205382   0.000266680509  -0.00010317647   0.000266680509  -0.00010317647      0.289428059     0.938387498
12.662884            0.283848957     0.940077469   0.000267082355 -0.000103466043   0.000267082355 -0.000103466043       0.28980758     0.938256771
12.662912            0.284228241     0.939949295   0.000267484895  -0.00010375644   0.000267484895  -0.00010375644      0.290187338     0.938125779
12.66294             0.284607764     0.939820858    0.00026788813 -0.000104047663    0.00026788813 -0.000104047663      0.290567334     0.937994522
12.662968            0.284987525     0.939692158   0.000268292062 -0.000104339714   0.000268292062 -0.000104339714      0.290947567     0.937862999
12.662996            0.285367524     0.939563195   0.000268696691 -0.000104632597   0.000268696691 -0.000104632597      0.291328038     0.937731209
12.663024            0.285747763     0.939433969   0.000269102019 -0.000104926313   0.000269102019 -0.000104926313      0.291708747     0.937599153
12.663052             0.28612824     0.939304478   0.000269508047 -0.000105220866   0.000269508047 -0.000105220866      0.292089694      0.93746683
12.66308             0.286508957     0.939174722   0.000269914776 -0.000105516258   0.000269914776 -0.000105516258       0.29247088     0.937334239
12.663108            0.286889914     0.939044701   0.000270322208 -0.000105812491   0.000270322208 -0.000105812491      0.292852305      0.93720138
12.663136             0.28727111     0.938914414   0.000270730344 -0.000106109569   0.000270730344 -0.000106109569      0.293233968     0.937068252
12.663164            0.287652546      0.93878386   0.000271139184 -0.000106407493   0.000271139185 -0.000106407493       0.29361587     0.936934855
12.663192            0.288034223      0.93865304   0.000271548732 -0.000106706267   0.000271548732 -0.000106706267      0.293998012     0.936801187
12.66322              0.28841614     0.938521953   0.000271958986 -0.000107005892   0.000271958986 -0.000107005892      0.294380394      0.93666725
12.663248            0.288798297     0.938390597    0.00027236995 -0.000107306372    0.00027236995 -0.000107306372      0.294763015     0.936533042
12.663276            0.289180696     0.938258973   0.000272781623  -0.00010760771   0.000272781623  -0.00010760771      0.295145876     0.936398562
12.663304            0.289563335      0.93812708   0.000273194008 -0.000107909907   0.000273194008 -0.000107909907      0.295528978      0.93626381
12.663332            0.289946216     0.937994918   0.000273607105 -0.000108212967   0.000273607105 -0.000108212967      0.295912319     0.936128786
12.66336             0.290329339     0.937862486   0.000274020916 -0.000108516892   0.000274020916 -0.000108516892      0.296295902     0.935993489
12.663388            0.290712703     0.937729783   0.000274435443 -0.000108821685   0.000274435443 -0.000108821685      0.296679725     0.935857919
12.663416             0.29109631     0.937596809   0.000274850685 -0.000109127349   0.000274850685 -0.000109127349       0.29706379     0.935722074
12.663444            0.291480158     0.937463564   0.000275266646 -0.000109433886   0.000275266646 -0.000109433886      0.297448096     0.935585955
12.663472            0.291864249     0.937330047   0.000275683325 -0.000109741299   0.000275683325 -0.000109741299      0.297832643     0.935449561
12.6635              0.292248583     0.937196257   0.000276100724 -0.000110049591   0.000276100724 -0.000110049591      0.298217432     0.935312891
