! TOUCHSTONE file generated by CST MICROWAVE STUDIO
! Date and time: Wed Jul 31 14:26:43 2024
! Project name: WaveGuide_BPF-Ver4.1_U-shape_Ku_T3_C4_CWA_2.cst
! Parameters = {cavity_h=16; cavity_l0=10; cavity_l1=15.231; cavity_l2=16.8286; cavity_l3=17.0684; cavity_l4=17.2847; cavity_l5=17.1114; cavity_l6=17.5971; cavity_r=2.5; cavity_screw_l=0.5; cavity_screw_r=1.5; cavity_w=8; iris_h00=0; iris_h01=8.8413; iris_h112=0; iris_h12=5.6017; iris_h211=3.6609; iris_h23=5.1874; iris_h310=3.977; iris_h34=5.0821; iris_h45=4.9195; iris_h49=4.6169; iris_h56=4.8002; iris_h58=4.4303; iris_h67=6.5659; iris_rx=0.1; iris_screw_l=0.5; iris_screw_r=1.5; iris_shift00=0; iris_shift112=0; iris_shift211=3.5; iris_shift310=0; iris_shift49=0; iris_shift58=3.5; iris_shift67=3.5; iris_tx=4.5; iris_tz=4.5; iris_w00=0; iris_w112=0; iris_w211=4; iris_w310=3.977; iris_w49=4.6169; iris_w58=4; iris_w67=4; mesh_cavity=5; mesh_iris=7; mesh_screw=7; order=12; reset_all=0; sigma=4.8e+07}
! Header version: 2018
! Port assignment regex: !\s*Touchstone port\s*([0-9]+)\s*=\s*(CST MWS port|CST DS port)\s*([0-9]+|Zmin|Zmax)\s*\(\"(.*)\"\)(\s*mode\s*([0-9]+))?.*
! Touchstone port assignment:
! Touchstone port 1 = CST MWS port 1 ("")
! Touchstone port 2 = CST MWS port 2 ("")
# GHz S RI R 50
12.66                0.530155367     0.816777185   0.000258405622 -0.000194890536   0.000258405622 -0.000194890536      0.529858757     0.817042973
12.660028            0.530644668      0.81643421   0.000258695745 -0.000195367178   0.000258695745 -0.000195367178      0.530347462     0.816700721
12.660056             0.53113421      0.81609061   0.000258986052 -0.000195845008   0.000258986052 -0.000195845008      0.530836336     0.816357891
12.660084            0.531623972     0.815746398   0.000259276545 -0.000196324029   0.000259276545 -0.000196324029      0.531325389     0.816014475
12.660112            0.532113932     0.815401585   0.000259567226 -0.000196804243   0.000259567226 -0.000196804243      0.531814631     0.815670467
12.66014              0.53260407     0.815056183   0.000259858095 -0.000197285651   0.000259858095 -0.000197285651      0.532304071     0.815325858
12.660168            0.533094385     0.814710191   0.000260149153 -0.000197768258   0.000260149153 -0.000197768258      0.532793711     0.814980648
12.660196            0.533584891     0.814363601   0.000260440397 -0.000198252066   0.000260440397 -0.000198252066      0.533283541     0.814634839
12.660224            0.534075588     0.814016409   0.000260731826 -0.000198737079   0.000260731826 -0.000198737079      0.533773564     0.814288432
12.660252            0.534566475     0.813668617   0.000261023439   -0.0001992233   0.000261023439   -0.0001992233      0.534263777     0.813941425
12.66028             0.535057552     0.813320222   0.000261315236 -0.000199710731   0.000261315236 -0.000199710731      0.534754182     0.813593816
12.660308            0.535548819     0.812971223   0.000261607216 -0.000200199376   0.000261607216 -0.000200199376      0.535244777     0.813245605
12.660336            0.536040276      0.81262162   0.000261899378 -0.000200689238   0.000261899377 -0.000200689238      0.535735562     0.812896792
12.660364            0.536531922     0.812271412    0.00026219172  -0.00020118032    0.00026219172  -0.00020118032      0.536226538     0.812547374
12.660392            0.537023758     0.811920597   0.000262484243 -0.000201672626   0.000262484243 -0.000201672626      0.536717703     0.812197351
12.66042             0.537515783     0.811569175   0.000262776946 -0.000202166158   0.000262776946 -0.000202166158      0.537209059     0.811846721
12.660448            0.538007996     0.811217144   0.000263069827 -0.000202660919   0.000263069827 -0.000202660919      0.537700603     0.811495485
12.660476            0.538500398     0.810864504   0.000263362886 -0.000203156912   0.000263362886 -0.000203156912      0.538192337      0.81114364
12.660504            0.538992988     0.810511253   0.000263656122 -0.000203654142   0.000263656122 -0.000203654142       0.53868426     0.810791186
12.660532            0.539485767      0.81015739   0.000263949535  -0.00020415261   0.000263949534  -0.00020415261      0.539176372     0.810438122
12.66056             0.539978733     0.809802915   0.000264243122  -0.00020465232   0.000264243122  -0.00020465232      0.539668672     0.810084447
12.660588            0.540471886     0.809447827   0.000264536884 -0.000205153275   0.000264536884 -0.000205153275      0.540161161     0.809730159
12.660616            0.540965227     0.809092124   0.000264830819 -0.000205655479   0.000264830819 -0.000205655479      0.540653837     0.809375258
12.660644            0.541458754     0.808735805   0.000265124927 -0.000206158934   0.000265124927 -0.000206158934      0.541146701     0.809019742
12.660672            0.541952469     0.808378869   0.000265419207 -0.000206663644   0.000265419207 -0.000206663644      0.541639753     0.808663612
12.6607               0.54244637     0.808021316   0.000265713658 -0.000207169612   0.000265713658 -0.000207169612      0.542132992     0.808306864
12.660728            0.542940457     0.807663144   0.000266008279  -0.00020767684   0.000266008278  -0.00020767684      0.542626418       0.8079495
12.660756             0.54343473     0.807304352   0.000266303068 -0.000208185333   0.000266303068 -0.000208185333       0.54312003     0.807591516
12.660784            0.543929189     0.806944939   0.000266598026 -0.000208695094   0.000266598026 -0.000208695094      0.543613829     0.807232914
12.660812            0.544423833     0.806584904   0.000266893151 -0.000209206125   0.000266893151 -0.000209206125      0.544107815      0.80687369
12.66084             0.544918662     0.806224246   0.000267188443  -0.00020971843   0.000267188443  -0.00020971843      0.544601986     0.806513845
12.660868            0.545413676     0.805862965     0.0002674839 -0.000210232013     0.0002674839 -0.000210232013      0.545096342     0.806153378
12.660896            0.545908875     0.805501058   0.000267779521 -0.000210746876   0.000267779521 -0.000210746876      0.545590884     0.805792286
12.660924            0.546404258     0.805138525   0.000268075306 -0.000211263022   0.000268075306 -0.000211263022      0.546085612      0.80543057
12.660952            0.546899825     0.804775365   0.000268371253 -0.000211780456   0.000268371253 -0.000211780456      0.546580524     0.805068228
12.66098             0.547395576     0.804411577   0.000268667363  -0.00021229918   0.000268667362  -0.00021229918       0.54707562     0.804705259
12.661008            0.547891511      0.80404716   0.000268963632 -0.000212819197   0.000268963632 -0.000212819197      0.547570901     0.804341662
12.661036            0.548387628     0.803682112   0.000269260062 -0.000213340511   0.000269260061 -0.000213340511      0.548066366     0.803977437
12.661064            0.548883929     0.803316434    0.00026955665 -0.000213863125   0.000269556649 -0.000213863125      0.548562015     0.803612581
12.661092            0.549380412     0.802950122   0.000269853395 -0.000214387043   0.000269853395 -0.000214387043      0.549057847     0.803247094
12.66112             0.549877078     0.802583177   0.000270150298 -0.000214912267   0.000270150297 -0.000214912267      0.549553862     0.802880975
12.661148            0.550373925     0.802215598   0.000270447356 -0.000215438802   0.000270447356 -0.000215438802       0.55005006     0.802514223
12.661176            0.550870955     0.801847383   0.000270744569  -0.00021596665   0.000270744568  -0.00021596665      0.550546441     0.802146836
12.661204            0.551368166     0.801478531   0.000271041935 -0.000216495814   0.000271041935 -0.000216495814      0.551043004     0.801778814
12.661232            0.551865558     0.801109042   0.000271339454 -0.000217026299   0.000271339454 -0.000217026299      0.551539749     0.801410156
12.66126             0.552363131     0.800738914   0.000271637125 -0.000217558107   0.000271637125 -0.000217558107      0.552036675     0.801040861
12.661288            0.552860885     0.800368146   0.000271934947 -0.000218091241   0.000271934947 -0.000218091241      0.552533784     0.800670926
12.661316            0.553358819     0.799996737   0.000272232918 -0.000218625706   0.000272232918 -0.000218625706      0.553031073     0.800300352
12.661344            0.553856933     0.799624686   0.000272531037 -0.000219161505   0.000272531037 -0.000219161504      0.553528543     0.799929138
12.661372            0.554355227     0.799251992   0.000272829304  -0.00021969864   0.000272829304  -0.00021969864      0.554026194     0.799557281
12.6614                0.5548537     0.798878654   0.000273127718 -0.000220237115   0.000273127717 -0.000220237115      0.554524025     0.799184782
12.661428            0.555352352      0.79850467   0.000273426276 -0.000220776935   0.000273426276 -0.000220776934      0.555022036     0.798811639
12.661456            0.555851183      0.79813004   0.000273724979 -0.000221318101   0.000273724979 -0.000221318101      0.555520227     0.798437851
12.661484            0.556350193     0.797754763   0.000274023825 -0.000221860618   0.000274023825 -0.000221860618      0.556018596     0.798063417
12.661512            0.556849381     0.797378838   0.000274322813 -0.000222404489   0.000274322813 -0.000222404488      0.556517145     0.797688335
12.66154             0.557348747     0.797002262   0.000274621942 -0.000222949717   0.000274621942 -0.000222949717      0.557015873     0.797312606
12.661568             0.55784829     0.796625036   0.000274921211 -0.000223496306   0.000274921211 -0.000223496306      0.557514779     0.796936227
12.661596             0.55834801     0.796247158   0.000275220619 -0.000224044259   0.000275220619 -0.000224044259      0.558013863     0.796559197
12.661624            0.558847908     0.795868628   0.000275520164  -0.00022459358   0.000275520164  -0.00022459358      0.558513125     0.796181516
12.661652            0.559347982     0.795489443   0.000275819846 -0.000225144272   0.000275819845 -0.000225144272      0.559012565     0.795803183
12.66168             0.559848232     0.795109604   0.000276119663 -0.000225696339   0.000276119662 -0.000225696339      0.559512182     0.795424195
12.661708            0.560348658     0.794729108   0.000276419614 -0.000226249784   0.000276419614 -0.000226249784      0.560011975     0.795044553
12.661736             0.56084926     0.794347955   0.000276719698 -0.000226804611   0.000276719698 -0.000226804611      0.560511945     0.794664255
12.661764            0.561350038     0.793966143   0.000277019914 -0.000227360823   0.000277019914 -0.000227360823      0.561012091       0.7942833
12.661792             0.56185099     0.793583673   0.000277320261 -0.000227918423    0.00027732026 -0.000227918423      0.561512413     0.793901687
12.66182             0.562352117     0.793200541   0.000277620737 -0.000228477416   0.000277620737 -0.000228477416      0.562012911     0.793519414
12.661848            0.562853418     0.792816748   0.000277921341 -0.000229037804   0.000277921341 -0.000229037804      0.562513584     0.793136481
12.661876            0.563354893     0.792432292   0.000278222073 -0.000229599592   0.000278222073 -0.000229599592      0.563014431     0.792752887
12.661904            0.563856542     0.792047173    0.00027852293 -0.000230162783    0.00027852293 -0.000230162783      0.563515454      0.79236863
12.661932            0.564358364     0.791661388   0.000278823913 -0.000230727379   0.000278823912 -0.000230727379       0.56401665      0.79198371
12.66196             0.564860359     0.791274937   0.000279125018 -0.000231293386   0.000279125018 -0.000231293386       0.56451802     0.791598125
12.661988            0.565362527     0.790887819   0.000279426246 -0.000231860806   0.000279426246 -0.000231860806      0.565019564     0.791211874
12.662016            0.565864867     0.790500033   0.000279727595 -0.000232429644   0.000279727595 -0.000232429643      0.565521281     0.790824955
12.662044            0.566367379     0.790111577   0.000280029064 -0.000232999901   0.000280029064 -0.000232999901      0.566023171     0.790437369
12.662072            0.566870062     0.789722451   0.000280330651 -0.000233571583   0.000280330651 -0.000233571583      0.566525234     0.790049114
12.6621              0.567372917     0.789332653   0.000280632355 -0.000234144693   0.000280632355 -0.000234144693      0.567027468     0.789660188
12.662128            0.567875943     0.788942182   0.000280934176 -0.000234719235   0.000280934176 -0.000234719235      0.567529875      0.78927059
12.662156            0.568379139     0.788551037   0.000281236111 -0.000235295211   0.000281236111 -0.000235295211      0.568032453      0.78888032
12.662184            0.568882506     0.788159217   0.000281538159 -0.000235872626   0.000281538159 -0.000235872626      0.568535202     0.788489377
12.662212            0.569386042     0.787766721    0.00028184032 -0.000236451484    0.00028184032 -0.000236451484      0.569038121     0.788097758
12.66224             0.569889747     0.787373547   0.000282142591 -0.000237031787   0.000282142591 -0.000237031787      0.569541212     0.787705463
12.662268            0.570393622     0.786979695   0.000282444972  -0.00023761354   0.000282444972  -0.00023761354      0.570044472     0.787312492
12.662296            0.570897666     0.786585163   0.000282747461 -0.000238196747   0.000282747461 -0.000238196747      0.570547902     0.786918841
12.662324            0.571401878     0.786189951   0.000283050057  -0.00023878141   0.000283050057  -0.00023878141      0.571051501     0.786524512
12.662352            0.571906258     0.785794057   0.000283352759 -0.000239367534   0.000283352759 -0.000239367534      0.571555269     0.786129502
12.66238             0.572410805     0.785397479   0.000283655564 -0.000239955122   0.000283655564 -0.000239955122      0.572059206      0.78573381
12.662408             0.57291552     0.785000218   0.000283958473 -0.000240544179   0.000283958472 -0.000240544179      0.572563311     0.785337435
12.662436            0.573420402     0.784602271   0.000284261482 -0.000241134707   0.000284261482 -0.000241134707      0.573067584     0.784940377
12.662464             0.57392545     0.784203638   0.000284564592  -0.00024172671   0.000284564592  -0.00024172671      0.573572025     0.784542633
12.662492            0.574430664     0.783804317   0.000284867801 -0.000242320193   0.000284867801 -0.000242320193      0.574076632     0.784144203
12.66252             0.574936044     0.783404307   0.000285171107 -0.000242915159   0.000285171106 -0.000242915159      0.574581406     0.783745086
12.662548             0.57544159     0.783003608   0.000285474508 -0.000243511611   0.000285474508 -0.000243511611      0.575086347      0.78334528
12.662576              0.5759473     0.782602217   0.000285778004 -0.000244109554   0.000285778004 -0.000244109554      0.575591453     0.782944784
12.662604            0.576453176     0.782200134   0.000286081593 -0.000244708991   0.000286081593  -0.00024470899      0.576096726     0.782543597
12.662632            0.576959215     0.781797358   0.000286385274 -0.000245309925   0.000286385274 -0.000245309925      0.576602163     0.782141718
12.66266             0.577465418     0.781393887   0.000286689045 -0.000245912362   0.000286689045 -0.000245912362      0.577107765     0.781739147
12.662688            0.577971784      0.78098972   0.000286992905 -0.000246516304   0.000286992905 -0.000246516304      0.577613532      0.78133588
12.662716            0.578478314     0.780584857   0.000287296852 -0.000247121755   0.000287296851 -0.000247121755      0.578119463     0.780931918
12.662744            0.578985006     0.780179295   0.000287600884  -0.00024772872   0.000287600884  -0.00024772872      0.578625557      0.78052726
12.662772            0.579491861     0.779773035   0.000287905002 -0.000248337201   0.000287905001 -0.000248337201      0.579131815     0.780121903
12.6628              0.579998877     0.779366074   0.000288209201 -0.000248947203   0.000288209201 -0.000248947203      0.579638235     0.779715848
12.662828            0.580506055     0.778958411   0.000288513483  -0.00024955873   0.000288513482  -0.00024955873      0.580144818     0.779309092
12.662856            0.581013394     0.778550046   0.000288817844 -0.000250171785   0.000288817843 -0.000250171785      0.580651563     0.778901635
12.662884            0.581520893     0.778140977   0.000289122283 -0.000250786372   0.000289122283 -0.000250786372       0.58115847     0.778493476
12.662912            0.582028553     0.777731202   0.000289426799 -0.000251402495   0.000289426799 -0.000251402495      0.581665538     0.778084612
12.66294             0.582536372     0.777320722   0.000289731391 -0.000252020159   0.000289731391 -0.000252020159      0.582172766     0.777675044
12.662968            0.583044351     0.776909534   0.000290036056 -0.000252639366   0.000290036056 -0.000252639366      0.582680155      0.77726477
12.662996            0.583552488     0.776497637   0.000290340793 -0.000253260121   0.000290340793 -0.000253260121      0.583187705     0.776853788
12.663024            0.584060785     0.776085031   0.000290645601 -0.000253882427   0.000290645601 -0.000253882427      0.583695413     0.776442098
12.663052            0.584569239     0.775671713   0.000290950478  -0.00025450629   0.000290950478 -0.000254506289      0.584203281     0.776029698
12.66308             0.585077851     0.775257684   0.000291255423 -0.000255131711   0.000291255423 -0.000255131711      0.584711308     0.775616588
12.663108            0.585586621     0.774842941   0.000291560433 -0.000255758696   0.000291560433 -0.000255758696      0.585219493     0.775202765
12.663136            0.586095547     0.774427484   0.000291865508 -0.000256387248   0.000291865508 -0.000256387248      0.585727836     0.774788229
12.663164             0.58660463      0.77401131   0.000292170645 -0.000257017372   0.000292170645 -0.000257017372      0.586236337     0.774372979
12.663192            0.587113868      0.77359442   0.000292475843  -0.00025764907   0.000292475843  -0.00025764907      0.586744994     0.773957013
12.66322             0.587623263     0.773176812   0.000292781101 -0.000258282348   0.000292781101 -0.000258282348      0.587253808     0.773540331
12.663248            0.588132812     0.772758484   0.000293086416 -0.000258917209   0.000293086416 -0.000258917209      0.587762779      0.77312293
12.663276            0.588642516     0.772339436   0.000293391788 -0.000259553657   0.000293391788 -0.000259553657      0.588271905      0.77270481
12.663304            0.589152374     0.771919666   0.000293697214 -0.000260191696   0.000293697214 -0.000260191696      0.588781187      0.77228597
12.663332            0.589662386     0.771499174   0.000294002693  -0.00026083133   0.000294002692  -0.00026083133      0.589290623     0.771866408
12.66336             0.590172552     0.771077957   0.000294308222 -0.000261472563   0.000294308222 -0.000261472563      0.589800214     0.771446124
12.663388             0.59068287     0.770656014   0.000294613802 -0.000262115399   0.000294613801 -0.000262115399      0.590309959     0.771025115
12.663416            0.591193341     0.770233345   0.000294919428 -0.000262759843   0.000294919428 -0.000262759843      0.590819857     0.770603381
12.663444            0.591703964     0.769809949   0.000295225101 -0.000263405897   0.000295225101 -0.000263405897      0.591329909     0.770180921
12.663472            0.592214738     0.769385823   0.000295530818 -0.000264053567   0.000295530818 -0.000264053567      0.591840113     0.769757733
12.6635              0.592725663     0.768960967   0.000295836578 -0.000264702855   0.000295836577 -0.000264702855      0.592350469     0.769333816
