! TOUCHSTONE file generated by CST MICROWAVE STUDIO
! Date and time: Wed Jul 31 14:29:50 2024
! Project name: WaveGuide_BPF-Ver4.1_U-shape_Ku_T3_C4_CWA_2.cst
! Parameters = {cavity_h=16; cavity_l0=10; cavity_l1=15.187; cavity_l2=16.8561; cavity_l3=17.138; cavity_l4=17.2451; cavity_l5=17.0907; cavity_l6=17.5982; cavity_r=2.5; cavity_screw_l=0.5; cavity_screw_r=1.5; cavity_w=8; iris_h00=0; iris_h01=8.8235; iris_h112=0; iris_h12=5.5917; iris_h211=3.6549; iris_h23=5.2068; iris_h310=3.962; iris_h34=5.0903; iris_h45=4.9209; iris_h49=4.6221; iris_h56=4.7898; iris_h58=4.4295; iris_h67=6.565; iris_rx=0.1; iris_screw_l=0.5; iris_screw_r=1.5; iris_shift00=0; iris_shift112=0; iris_shift211=3.5; iris_shift310=0; iris_shift49=0; iris_shift58=3.5; iris_shift67=3.5; iris_tx=4.5; iris_tz=4.5; iris_w00=0; iris_w112=0; iris_w211=4; iris_w310=3.962; iris_w49=4.6221; iris_w58=4; iris_w67=4; mesh_cavity=5; mesh_iris=7; mesh_screw=7; order=12; reset_all=0; sigma=4.8e+07}
! Header version: 2018
! Port assignment regex: !\s*Touchstone port\s*([0-9]+)\s*=\s*(CST MWS port|CST DS port)\s*([0-9]+|Zmin|Zmax)\s*\(\"(.*)\"\)(\s*mode\s*([0-9]+))?.*
! Touchstone port assignment:
! Touchstone port 1 = CST MWS port 1 ("")
! Touchstone port 2 = CST MWS port 2 ("")
# GHz S RI R 50
12.66                 0.28872241     0.938561039   0.000233100768 -9.11155076e-05   0.000233100768 -9.11155074e-05      0.296408055     0.936108763
12.660028             0.28910188     0.938430943   0.000233433449 -9.13626078e-05   0.000233433449 -9.13626077e-05       0.29678885     0.935974695
12.660056            0.289481627     0.938300572   0.000233766657 -9.16103858e-05   0.000233766657 -9.16103856e-05      0.297169886     0.935840357
12.660084            0.289861631     0.938169932   0.000234100395 -9.18588407e-05   0.000234100395 -9.18588406e-05       0.29755116      0.93570575
12.660112            0.290241871     0.938039028   0.000234434667  -9.2107972e-05   0.000234434667 -9.21079719e-05      0.297932665     0.935570876
12.66014              0.29062233     0.937907865   0.000234769475 -9.23577791e-05   0.000234769475 -9.23577789e-05      0.298314399     0.935435736
12.660168            0.291003007     0.937776443    0.00023510482 -9.26082638e-05    0.00023510482 -9.26082637e-05       0.29869636     0.935300328
12.660196            0.291383914     0.937644757   0.000235440702   -9.285943e-05   0.000235440701 -9.28594298e-05      0.299078553     0.935164652
12.660224            0.291765053     0.937512808    0.00023577712 -9.31112796e-05    0.00023577712 -9.31112794e-05      0.299460977     0.935028707
12.660252            0.292146424     0.937380594   0.000236114077 -9.33638145e-05   0.000236114077 -9.33638144e-05      0.299843633     0.934892493
12.66028             0.292528027     0.937248115   0.000236451573 -9.36170369e-05   0.000236451573 -9.36170367e-05      0.300226521     0.934756009
12.660308            0.292909862     0.937115371   0.000236789609 -9.38709487e-05   0.000236789608 -9.38709486e-05      0.300609641     0.934619254
12.660336            0.293291929     0.936982361   0.000237128185  -9.4125552e-05   0.000237128185 -9.41255518e-05      0.300992994     0.934482228
12.660364            0.293674229     0.936849084   0.000237467302 -9.43808487e-05   0.000237467302 -9.43808485e-05      0.301376579      0.93434493
12.660392            0.294056761      0.93671554   0.000237806963 -9.46368408e-05   0.000237806962 -9.46368407e-05      0.301760397     0.934207361
12.66042             0.294439526     0.936581729   0.000238147166 -9.48935305e-05   0.000238147166 -9.48935304e-05      0.302144447     0.934069519
12.660448            0.294822524      0.93644765   0.000238487913 -9.51509198e-05   0.000238487913 -9.51509196e-05      0.302528731     0.933931404
12.660476            0.295205755     0.936313302   0.000238829205 -9.54090106e-05   0.000238829205 -9.54090105e-05      0.302913248     0.933793015
12.660504             0.29558922     0.936178686   0.000239171043 -9.56678051e-05   0.000239171043  -9.5667805e-05      0.303297999     0.933654353
12.660532            0.295972919       0.9360438   0.000239513427 -9.59273053e-05   0.000239513427 -9.59273052e-05      0.303682983     0.933515416
12.66056             0.296356851     0.935908644   0.000239856358 -9.61875133e-05   0.000239856358 -9.61875132e-05      0.304068201     0.933376203
12.660588            0.296741017     0.935773217   0.000240199838 -9.64484312e-05   0.000240199838  -9.6448431e-05      0.304453653     0.933236716
12.660616            0.297125418      0.93563752   0.000240543867  -9.6710061e-05   0.000240543867 -9.67100608e-05       0.30483934     0.933096952
12.660644            0.297510053     0.935501551   0.000240888446 -9.69724048e-05   0.000240888446 -9.69724046e-05      0.305225261     0.932956911
12.660672            0.297894923      0.93536531   0.000241233575 -9.72354647e-05   0.000241233575 -9.72354645e-05      0.305611417     0.932816593
12.6607              0.298280027     0.935228796   0.000241579256 -9.74992428e-05   0.000241579256 -9.74992426e-05      0.305997807     0.932675998
12.660728            0.298665367     0.935092009    0.00024192549 -9.77637412e-05    0.00024192549 -9.77637411e-05      0.306384433     0.932535124
12.660756            0.299050942     0.934954949   0.000242272277 -9.80289621e-05   0.000242272277 -9.80289619e-05      0.306771294     0.932393972
12.660784            0.299436752     0.934817615   0.000242619618 -9.82949075e-05   0.000242619618 -9.82949073e-05      0.307158391      0.93225254
12.660812            0.299822798     0.934680006   0.000242967514 -9.85615796e-05   0.000242967513 -9.85615794e-05      0.307545723     0.932110829
12.66084              0.30020908     0.934542123   0.000243315965 -9.88289804e-05   0.000243315965 -9.88289803e-05      0.307933291     0.931968837
12.660868            0.300595598     0.934403963   0.000243664974 -9.90971122e-05   0.000243664974 -9.90971121e-05      0.308321095     0.931826564
12.660896            0.300982352     0.934265527    0.00024401454 -9.93659771e-05    0.00024401454  -9.9365977e-05      0.308709135     0.931684011
12.660924            0.301369343     0.934126815   0.000244364664 -9.96355773e-05   0.000244364664 -9.96355771e-05      0.309097412     0.931541175
12.660952             0.30175657     0.933987826   0.000244715348 -9.99059148e-05   0.000244715347 -9.99059146e-05      0.309485925     0.931398057
12.66098             0.302144034     0.933848558   0.000245066591 -0.000100176992   0.000245066591 -0.000100176992      0.309874676     0.931254655
12.661008            0.302531735     0.933709013   0.000245418396 -0.000100448811   0.000245418396  -0.00010044881      0.310263663     0.931110971
12.661036            0.302919674     0.933569189   0.000245770762 -0.000100721373   0.000245770762 -0.000100721373      0.310652888     0.930967002
12.661064             0.30330785     0.933429085   0.000246123691 -0.000100994682   0.000246123691 -0.000100994682       0.31104235     0.930822749
12.661092            0.303696263     0.933288702   0.000246477183 -0.000101268739   0.000246477183 -0.000101268739       0.31143205      0.93067821
12.66112             0.304084915     0.933148039    0.00024683124 -0.000101543547    0.00024683124 -0.000101543547      0.311821987     0.930533386
12.661148            0.304473804     0.933007094   0.000247185862 -0.000101819107   0.000247185862 -0.000101819107      0.312212163     0.930388276
12.661176            0.304862932     0.932865868    0.00024754105 -0.000102095422    0.00024754105 -0.000102095422      0.312602577     0.930242879
12.661204            0.305252298      0.93272436   0.000247896805 -0.000102372495   0.000247896805 -0.000102372495      0.312993229     0.930097195
12.661232            0.305641903      0.93258257   0.000248253128 -0.000102650326   0.000248253128 -0.000102650326       0.31338412     0.929951223
12.66126             0.306031747     0.932440497    0.00024861002  -0.00010292892   0.000248610019  -0.00010292892       0.31377525     0.929804963
12.661288             0.30642183      0.93229814    0.00024896748 -0.000103208277    0.00024896748 -0.000103208277      0.314166619     0.929658413
12.661316            0.306812152     0.932155499   0.000249325512   -0.0001034884   0.000249325512   -0.0001034884      0.314558227     0.929511575
12.661344            0.307202713     0.932012573   0.000249684114 -0.000103769292   0.000249684114 -0.000103769291      0.314950075     0.929364446
12.661372            0.307593515     0.931869363   0.000250043289 -0.000104050954   0.000250043288 -0.000104050954      0.315342162     0.929217027
12.6614              0.307984556     0.931725866   0.000250403036 -0.000104333389   0.000250403036 -0.000104333389      0.315734489     0.929069316
12.661428            0.308375837     0.931582083   0.000250763357 -0.000104616599   0.000250763357 -0.000104616599      0.316127056     0.928921314
12.661456            0.308767359     0.931438014   0.000251124253 -0.000104900586   0.000251124253 -0.000104900586      0.316519863      0.92877302
12.661484            0.309159121     0.931293657   0.000251485724 -0.000105185354   0.000251485724 -0.000105185354      0.316912911     0.928624433
12.661512            0.309551124     0.931149012   0.000251847772 -0.000105470903   0.000251847772 -0.000105470903        0.3173062     0.928475552
12.66154             0.309943367     0.931004079   0.000252210397 -0.000105757237   0.000252210397 -0.000105757237      0.317699729     0.928326378
12.661568            0.310335852     0.930858857     0.0002525736 -0.000106044357     0.0002525736 -0.000106044357      0.318093499     0.928176909
12.661596            0.310728578     0.930713345   0.000252937382 -0.000106332266   0.000252937381 -0.000106332266      0.318487511     0.928027145
12.661624            0.311121546     0.930567543   0.000253301743 -0.000106620967   0.000253301743 -0.000106620967      0.318881764     0.927877086
12.661652            0.311514755     0.930421451   0.000253666686 -0.000106910461   0.000253666685 -0.000106910461      0.319276259     0.927726731
12.66168             0.311908207     0.930275067    0.00025403221 -0.000107200751   0.000254032209 -0.000107200751      0.319670995     0.927576078
12.661708              0.3123019     0.930128392   0.000254398316  -0.00010749184   0.000254398316  -0.00010749184      0.320065974     0.927425129
12.661736            0.312695836     0.929981424   0.000254765005 -0.000107783729   0.000254765005 -0.000107783729      0.320461195     0.927273882
12.661764            0.313090014     0.929834163   0.000255132279 -0.000108076421   0.000255132279 -0.000108076421      0.320856658     0.927122336
12.661792            0.313484435     0.929686609   0.000255500138 -0.000108369919   0.000255500138 -0.000108369919      0.321252364     0.926970491
12.66182             0.313879099     0.929538761   0.000255868582 -0.000108664225   0.000255868582 -0.000108664224      0.321648313     0.926818347
12.661848            0.314274006     0.929390618   0.000256237613  -0.00010895934   0.000256237613  -0.00010895934      0.322044505     0.926665902
12.661876            0.314669157     0.929242181   0.000256607232 -0.000109255268   0.000256607232 -0.000109255268       0.32244094     0.926513157
12.661904            0.315064551     0.929093447   0.000256977439 -0.000109552012   0.000256977439 -0.000109552011      0.322837619     0.926360111
12.661932            0.315460189     0.928944417   0.000257348236 -0.000109849572   0.000257348236 -0.000109849572      0.323234541     0.926206763
12.66196             0.315856071     0.928795091   0.000257719623 -0.000110147953   0.000257719623 -0.000110147952      0.323631707     0.926053112
12.661988            0.316252197     0.928645467   0.000258091601 -0.000110447155     0.0002580916 -0.000110447155      0.324029117     0.925899158
12.662016            0.316648567     0.928495545    0.00025846417 -0.000110747183    0.00025846417 -0.000110747182      0.324426772     0.925744901
12.662044            0.317045182     0.928345324   0.000258837333 -0.000111048037   0.000258837333 -0.000111048037      0.324824671     0.925590339
12.662072            0.317442042     0.928194804   0.000259211089 -0.000111349721   0.000259211089 -0.000111349721      0.325222814     0.925435473
12.6621              0.317839147     0.928043985    0.00025958544 -0.000111652237   0.000259585439 -0.000111652237      0.325621203     0.925280301
12.662128            0.318236497     0.927892865   0.000259960386 -0.000111955587   0.000259960385 -0.000111955587      0.326019836     0.925124824
12.662156            0.318634092     0.927741445   0.000260335928 -0.000112259775   0.000260335928 -0.000112259775      0.326418715      0.92496904
12.662184            0.319031933     0.927589723   0.000260712067 -0.000112564802   0.000260712067 -0.000112564802      0.326817839     0.924812949
12.662212             0.31943002     0.927437699   0.000261088805 -0.000112870671   0.000261088804  -0.00011287067      0.327217209      0.92465655
12.66224             0.319828353     0.927285372   0.000261466141 -0.000113177384   0.000261466141 -0.000113177384      0.327616825     0.924499842
12.662268            0.320226932     0.927132743   0.000261844077 -0.000113484944   0.000261844077 -0.000113484944      0.328016687     0.924342826
12.662296            0.320625758     0.926979809   0.000262222613 -0.000113793353   0.000262222613 -0.000113793353      0.328416796       0.9241855
12.662324             0.32102483     0.926826571   0.000262601751 -0.000114102615   0.000262601751 -0.000114102615       0.32881715     0.924027865
12.662352            0.321424149     0.926673028   0.000262981492 -0.000114412731   0.000262981492 -0.000114412731      0.329217752     0.923869918
12.66238             0.321823715      0.92651918   0.000263361835 -0.000114723704   0.000263361835 -0.000114723704        0.3296186      0.92371166
12.662408            0.322223529     0.926365025   0.000263742783 -0.000115035537   0.000263742783 -0.000115035536      0.330019696     0.923553091
12.662436             0.32262359     0.926210564   0.000264124336 -0.000115348231   0.000264124336 -0.000115348231      0.330421039     0.923394209
12.662464            0.323023899     0.926055796   0.000264506494 -0.000115661791   0.000264506494  -0.00011566179      0.330822629     0.923235013
12.662492            0.323424455     0.925900719   0.000264889259 -0.000115976217   0.000264889259 -0.000115976217      0.331224467     0.923075504
12.66252              0.32382526     0.925745334   0.000265272632 -0.000116291513   0.000265272632 -0.000116291513      0.331626553     0.922915681
12.662548            0.324226313      0.92558964   0.000265656613 -0.000116607682   0.000265656613 -0.000116607682      0.332028887     0.922755543
12.662576            0.324627614     0.925433637   0.000266041203 -0.000116924726   0.000266041203 -0.000116924726       0.33243147     0.922595089
12.662604            0.325029165     0.925277322   0.000266426404 -0.000117242647   0.000266426404 -0.000117242647      0.332834301     0.922434319
12.662632            0.325430964     0.925120698   0.000266812216 -0.000117561449   0.000266812215 -0.000117561449       0.33323738     0.922273232
12.66266             0.325833012     0.924963761   0.000267198639 -0.000117881133   0.000267198639 -0.000117881133      0.333640709     0.922111828
12.662688             0.32623531     0.924806512   0.000267585675 -0.000118201703   0.000267585675 -0.000118201703      0.334044287     0.921950106
12.662716            0.326637857     0.924648951   0.000267973325 -0.000118523161   0.000267973325 -0.000118523161      0.334448114     0.921788066
12.662744            0.327040654     0.924491076    0.00026836159  -0.00011884551    0.00026836159 -0.000118845509      0.334852191     0.921625706
12.662772            0.327443701     0.924332888    0.00026875047 -0.000119168751   0.000268750469 -0.000119168751      0.335256517     0.921463026
12.6628              0.327846998     0.924174385   0.000269139966 -0.000119492889   0.000269139966 -0.000119492889      0.335661094     0.921300026
12.662828            0.328250546     0.924015566   0.000269530079 -0.000119817926   0.000269530079 -0.000119817926       0.33606592     0.921136704
12.662856            0.328654344     0.923856432    0.00026992081 -0.000120143864    0.00026992081 -0.000120143864      0.336470997     0.920973061
12.662884            0.329058393     0.923696982    0.00027031216 -0.000120470706    0.00027031216 -0.000120470706      0.336876325     0.920809096
12.662912            0.329462693     0.923537214    0.00027070413 -0.000120798455    0.00027070413 -0.000120798455      0.337281903     0.920644807
12.66294             0.329867245     0.923377129   0.000271096721 -0.000121127113   0.000271096721 -0.000121127113      0.337687733     0.920480195
12.662968            0.330272048     0.923216726   0.000271489933 -0.000121456684   0.000271489933 -0.000121456683      0.338093813     0.920315259
12.662996            0.330677102     0.923056004   0.000271883767 -0.000121787169   0.000271883767 -0.000121787169      0.338500145     0.920149997
12.663024            0.331082408     0.922894962   0.000272278225 -0.000122118572   0.000272278225 -0.000122118572      0.338906729     0.919984411
12.663052            0.331487967       0.9227336   0.000272673307 -0.000122450895   0.000272673306 -0.000122450895      0.339313564     0.919818498
12.66308             0.331893777     0.922571917   0.000273069013 -0.000122784141   0.000273069013 -0.000122784141      0.339720651     0.919652258
12.663108             0.33229984     0.922409913   0.000273465346 -0.000123118313   0.000273465346 -0.000123118313      0.340127991     0.919485691
12.663136            0.332706156     0.922247587   0.000273862305 -0.000123453414   0.000273862305 -0.000123453414      0.340535583     0.919318796
12.663164            0.333112725     0.922084938   0.000274259892 -0.000123789446   0.000274259892 -0.000123789446      0.340943428     0.919151572
12.663192            0.333519547     0.921921967   0.000274658107 -0.000124126412   0.000274658107 -0.000124126412      0.341351525     0.918984019
12.66322             0.333926622     0.921758671   0.000275056952 -0.000124464315   0.000275056952 -0.000124464315      0.341759876     0.918816136
12.663248            0.334333951      0.92159505   0.000275456427 -0.000124803158   0.000275456426 -0.000124803158       0.34216848     0.918647922
12.663276            0.334741533     0.921431105   0.000275856532 -0.000125142944   0.000275856532 -0.000125142944      0.342577337     0.918479376
12.663304             0.33514937     0.921266833    0.00027625727 -0.000125483674    0.00027625727 -0.000125483674      0.342986448     0.918310499
12.663332            0.335557461     0.921102235   0.000276658641 -0.000125825353   0.000276658641 -0.000125825353      0.343395812      0.91814129
12.66336             0.335965806      0.92093731   0.000277060645 -0.000126167983   0.000277060645 -0.000126167983      0.343805431     0.917971746
12.663388            0.336374405     0.920772058   0.000277463284 -0.000126511567   0.000277463284 -0.000126511567      0.344215305      0.91780187
12.663416             0.33678326     0.920606477   0.000277866558 -0.000126856107   0.000277866558 -0.000126856107      0.344625432     0.917631658
12.663444            0.337192369     0.920440567   0.000278270469 -0.000127201607   0.000278270469 -0.000127201607      0.345035814     0.917461111
12.663472            0.337601734     0.920274327   0.000278675017  -0.00012754807   0.000278675016  -0.00012754807      0.345446452     0.917290229
12.6635              0.338011354     0.920107757   0.000279080202 -0.000127895498   0.000279080202 -0.000127895497      0.345857344      0.91711901
