! TOUCHSTONE file generated by CST MICROWAVE STUDIO
! Date and time: Wed Jul 31 14:32:59 2024
! Project name: WaveGuide_BPF-Ver4.1_U-shape_Ku_T3_C4_CWA_2.cst
! Parameters = {cavity_h=16; cavity_l0=10; cavity_l1=15.1753; cavity_l2=16.8209; cavity_l3=17.1363; cavity_l4=17.2898; cavity_l5=17.1295; cavity_l6=17.6215; cavity_r=2.5; cavity_screw_l=0.5; cavity_screw_r=1.5; cavity_w=8; iris_h00=0; iris_h01=8.8083; iris_h112=0; iris_h12=5.5998; iris_h211=3.6555; iris_h23=5.2018; iris_h310=3.9719; iris_h34=5.0687; iris_h45=4.9419; iris_h49=4.6294; iris_h56=4.792; iris_h58=4.4363; iris_h67=6.5818; iris_rx=0.1; iris_screw_l=0.5; iris_screw_r=1.5; iris_shift00=0; iris_shift112=0; iris_shift211=3.5; iris_shift310=0; iris_shift49=0; iris_shift58=3.5; iris_shift67=3.5; iris_tx=4.5; iris_tz=4.5; iris_w00=0; iris_w112=0; iris_w211=4; iris_w310=3.9719; iris_w49=4.6294; iris_w58=4; iris_w67=4; mesh_cavity=5; mesh_iris=7; mesh_screw=7; order=12; reset_all=0; sigma=4.8e+07}
! Header version: 2018
! Port assignment regex: !\s*Touchstone port\s*([0-9]+)\s*=\s*(CST MWS port|CST DS port)\s*([0-9]+|Zmin|Zmax)\s*\(\"(.*)\"\)(\s*mode\s*([0-9]+))?.*
! Touchstone port assignment:
! Touchstone port 1 = CST MWS port 1 ("")
! Touchstone port 2 = CST MWS port 2 ("")
# GHz S RI R 50
12.66                0.202175813     0.963758039   0.000152215176 -4.27148522e-05   0.000152215176 -4.27148526e-05       0.21185612     0.961607849
12.660028            0.202501122     0.963680504   0.000152412259 -4.28291386e-05   0.000152412259  -4.2829139e-05      0.212183964       0.9615262
12.660056             0.20282662     0.963602802    0.00015260963  -4.2943705e-05   0.000152609631 -4.29437054e-05      0.212511948      0.96144439
12.660084            0.203152307     0.963524933   0.000152807289 -4.30585532e-05   0.000152807289 -4.30585536e-05      0.212840089     0.961362415
12.660112            0.203478177     0.963446898   0.000153005235 -4.31736851e-05   0.000153005236 -4.31736855e-05      0.213168407     0.961280271
12.66014             0.203804228     0.963368697   0.000153203469 -4.32891027e-05   0.000153203469 -4.32891031e-05      0.213496924     0.961197952
12.660168            0.204130461      0.96329033    0.00015340199 -4.34048066e-05   0.000153401991 -4.34048071e-05      0.213825637     0.961115458
12.660196            0.204456876     0.963211796     0.0001536008 -4.35207969e-05     0.0001536008 -4.35207973e-05      0.214154536     0.961032793
12.660224            0.204783476     0.963133094   0.000153799899 -4.36370743e-05   0.000153799899 -4.36370747e-05      0.214483619     0.960949955
12.660252            0.205110259     0.963054225   0.000153999286 -4.37536394e-05   0.000153999287 -4.37536398e-05      0.214812887     0.960866945
12.66028             0.205437226     0.962975189   0.000154198964 -4.38704931e-05   0.000154198964 -4.38704935e-05      0.215142341     0.960783761
12.660308            0.205764377     0.962895984   0.000154398932  -4.3987636e-05   0.000154398932 -4.39876364e-05      0.215471979     0.960700405
12.660336            0.206091712     0.962816611    0.00015459919 -4.41050689e-05   0.000154599191 -4.41050693e-05      0.215801803     0.960616875
12.660364            0.206419232     0.962737069   0.000154799739 -4.42227925e-05    0.00015479974  -4.4222793e-05      0.216131813     0.960533172
12.660392            0.206746936     0.962657359    0.00015500058 -4.43408077e-05    0.00015500058 -4.43408081e-05      0.216462008     0.960449294
12.66042             0.207074825     0.962577479   0.000155201712 -4.44591151e-05   0.000155201713 -4.44591155e-05       0.21679239     0.960365242
12.660448            0.207402898      0.96249743   0.000155403137 -4.45777154e-05   0.000155403137 -4.45777158e-05      0.217122957     0.960281016
12.660476            0.207731157     0.962417211   0.000155604854 -4.46966095e-05   0.000155604854 -4.46966099e-05      0.217453711     0.960196615
12.660504            0.208059601     0.962336822   0.000155806864  -4.4815798e-05   0.000155806865 -4.48157985e-05      0.217784651     0.960112038
12.660532             0.20838823     0.962256262   0.000156009168 -4.49352818e-05   0.000156009168 -4.49352822e-05      0.218115778     0.960027286
12.66056             0.208717044     0.962175533   0.000156211765 -4.50550616e-05   0.000156211765  -4.5055062e-05      0.218447091     0.959942358
12.660588            0.209046045     0.962094632   0.000156414657 -4.51751381e-05   0.000156414657 -4.51751385e-05      0.218778591     0.959857254
12.660616            0.209375231      0.96201356   0.000156617843 -4.52955121e-05   0.000156617843 -4.52955125e-05      0.219110278     0.959771974
12.660644            0.209704602     0.961932316   0.000156821324 -4.54161844e-05   0.000156821325 -4.54161848e-05      0.219442153     0.959686517
12.660672             0.21003416     0.961850901   0.000157025101 -4.55371557e-05   0.000157025101 -4.55371561e-05      0.219774214     0.959600884
12.6607              0.210363905     0.961769314   0.000157229174 -4.56584268e-05   0.000157229174 -4.56584272e-05      0.220106463     0.959515072
12.660728            0.210693835     0.961687554   0.000157433543 -4.57799984e-05   0.000157433543 -4.57799988e-05        0.2204389     0.959429084
12.660756            0.211023953     0.961605622   0.000157638208 -4.59018714e-05   0.000157638209 -4.59018718e-05      0.220771525     0.959342917
12.660784            0.211354257     0.961523517   0.000157843171 -4.60240464e-05   0.000157843172 -4.60240469e-05      0.221104337     0.959256573
12.660812            0.211684747     0.961441239   0.000158048432 -4.61465244e-05   0.000158048432 -4.61465248e-05      0.221437338     0.959170049
12.66084             0.212015425     0.961358787    0.00015825399  -4.6269306e-05    0.00015825399 -4.62693064e-05      0.221770527     0.959083347
12.660868             0.21234629     0.961276161   0.000158459847  -4.6392392e-05   0.000158459847 -4.63923924e-05      0.222103904     0.958996466
12.660896            0.212677343     0.961193361   0.000158666002 -4.65157832e-05   0.000158666003 -4.65157836e-05       0.22243747     0.958909406
12.660924            0.213008582     0.961110387   0.000158872457 -4.66394804e-05   0.000158872457 -4.66394808e-05      0.222771224     0.958822166
12.660952             0.21334001     0.961027239   0.000159079211 -4.67634843e-05   0.000159079212 -4.67634847e-05      0.223105168     0.958734746
12.66098             0.213671625     0.960943915   0.000159286266 -4.68877958e-05   0.000159286266 -4.68877962e-05        0.2234393     0.958647146
12.661008            0.214003429     0.960860416   0.000159493621 -4.70124156e-05   0.000159493621 -4.70124161e-05      0.223773622     0.958559365
12.661036             0.21433542     0.960776741   0.000159701276 -4.71373446e-05   0.000159701277  -4.7137345e-05      0.224108133     0.958471403
12.661064              0.2146676     0.960692891   0.000159909233 -4.72625835e-05   0.000159909234 -4.72625839e-05      0.224442833     0.958383261
12.661092            0.214999968     0.960608864   0.000160117492  -4.7388133e-05   0.000160117492 -4.73881335e-05      0.224777724     0.958294936
12.66112             0.215332525     0.960524661   0.000160326053 -4.75139941e-05   0.000160326053 -4.75139946e-05      0.225112804      0.95820643
12.661148            0.215665271     0.960440282   0.000160534916 -4.76401675e-05   0.000160534916  -4.7640168e-05      0.225448074     0.958117742
12.661176            0.215998206     0.960355725   0.000160744082  -4.7766654e-05   0.000160744083 -4.77666544e-05      0.225783534     0.958028871
12.661204            0.216331329     0.960270991   0.000160953552 -4.78934544e-05   0.000160953552 -4.78934548e-05      0.226119185     0.957939818
12.661232            0.216664642     0.960186079   0.000161163326 -4.80205695e-05   0.000161163326 -4.80205699e-05      0.226455026     0.957850581
12.66126             0.216998145     0.960100989   0.000161373403 -4.81480001e-05   0.000161373404 -4.81480006e-05      0.226791057     0.957761161
12.661288            0.217331837     0.960015721   0.000161583786 -4.82757471e-05   0.000161583786 -4.82757475e-05       0.22712728     0.957671558
12.661316            0.217665718     0.959930275   0.000161794473 -4.84038111e-05   0.000161794473 -4.84038116e-05      0.227463693     0.957581771
12.661344             0.21799979     0.959844649   0.000162005466 -4.85321931e-05   0.000162005466 -4.85321936e-05      0.227800298     0.957491799
12.661372            0.218334052     0.959758845   0.000162216764 -4.86608939e-05   0.000162216765 -4.86608943e-05      0.228137093     0.957401643
12.6614              0.218668504     0.959672861    0.00016242837 -4.87899142e-05    0.00016242837 -4.87899147e-05      0.228474081     0.957311301
12.661428            0.219003146     0.959586697   0.000162640281  -4.8919255e-05   0.000162640282 -4.89192554e-05      0.228811259     0.957220775
12.661456            0.219337979     0.959500353     0.0001628525 -4.90489169e-05   0.000162852501 -4.90489173e-05       0.22914863     0.957130063
12.661484            0.219673002     0.959413829   0.000163065027 -4.91789009e-05   0.000163065027 -4.91789013e-05      0.229486192     0.957039165
12.661512            0.220008217     0.959327124   0.000163277861 -4.93092077e-05   0.000163277861 -4.93092081e-05      0.229823947     0.956948081
12.66154             0.220343622     0.959240238   0.000163491004 -4.94398382e-05   0.000163491004 -4.94398387e-05      0.230161894     0.956856811
12.661568            0.220679219     0.959153171   0.000163704456 -4.95707933e-05   0.000163704456 -4.95707937e-05      0.230500033     0.956765353
12.661596            0.221015006     0.959065922   0.000163918216 -4.97020736e-05   0.000163918217 -4.97020741e-05      0.230838364     0.956673709
12.661624            0.221350986     0.958978492   0.000164132287 -4.98336802e-05   0.000164132287 -4.98336806e-05      0.231176889     0.956581877
12.661652            0.221687157     0.958890879   0.000164346668 -4.99656138e-05   0.000164346668 -4.99656142e-05      0.231515606     0.956489858
12.66168              0.22202352     0.958803083   0.000164561359 -5.00978752e-05   0.000164561359 -5.00978756e-05      0.231854516      0.95639765
12.661708            0.222360075     0.958715105   0.000164776361 -5.02304653e-05   0.000164776361 -5.02304657e-05       0.23219362     0.956305254
12.661736            0.222696822     0.958626944   0.000164991674 -5.03633849e-05   0.000164991675 -5.03633854e-05      0.232532917     0.956212669
12.661764            0.223033762     0.958538599     0.0001652073 -5.04966349e-05     0.0001652073 -5.04966354e-05      0.232872407     0.956119896
12.661792            0.223370893      0.95845007   0.000165423237 -5.06302162e-05   0.000165423237 -5.06302166e-05      0.233212091     0.956026932
12.66182             0.223708218     0.958361357   0.000165639487 -5.07641295e-05   0.000165639487 -5.07641299e-05      0.233551969      0.95593378
12.661848            0.224045735      0.95827246    0.00016585605 -5.08983757e-05    0.00016585605 -5.08983762e-05      0.233892041     0.955840437
12.661876            0.224383446     0.958183378   0.000166072927 -5.10329557e-05   0.000166072927 -5.10329562e-05      0.234232307     0.955746903
12.661904            0.224721349     0.958094111   0.000166290117 -5.11678704e-05   0.000166290117 -5.11678708e-05      0.234572767      0.95565318
12.661932            0.225059446     0.958004658   0.000166507622 -5.13031205e-05   0.000166507622  -5.1303121e-05      0.234913422     0.955559265
12.66196             0.225397736      0.95791502   0.000166725441  -5.1438707e-05   0.000166725442 -5.14387074e-05      0.235254272     0.955465159
12.661988             0.22573622     0.957825196   0.000166943576 -5.15746307e-05   0.000166943576 -5.15746311e-05      0.235595316     0.955370861
12.662016            0.226074898     0.957735186   0.000167162026 -5.17108924e-05   0.000167162026 -5.17108929e-05      0.235936555     0.955276371
12.662044            0.226413769     0.957644989   0.000167380792 -5.18474931e-05   0.000167380793 -5.18474936e-05       0.23627799     0.955181689
12.662072            0.226752835     0.957554605   0.000167599875 -5.19844336e-05   0.000167599875 -5.19844341e-05       0.23661962     0.955086814
12.6621              0.227092095     0.957464034   0.000167819274 -5.21217148e-05   0.000167819275 -5.21217152e-05      0.236961445     0.954991747
12.662128             0.22743155     0.957373275   0.000168038991 -5.22593375e-05   0.000168038991  -5.2259338e-05      0.237303466     0.954896486
12.662156            0.227771199     0.957282328   0.000168259025 -5.23973027e-05   0.000168259026 -5.23973031e-05      0.237645682     0.954801031
12.662184            0.228111043     0.957191193   0.000168479378 -5.25356111e-05   0.000168479378 -5.25356116e-05      0.237988095     0.954705383
12.662212            0.228451081      0.95709987   0.000168700049 -5.26742638e-05   0.000168700049 -5.26742642e-05      0.238330704      0.95460954
12.66224             0.228791315     0.957008358   0.000168921039 -5.28132615e-05   0.000168921039 -5.28132619e-05      0.238673509     0.954513503
12.662268            0.229131744     0.956916656   0.000169142348 -5.29526051e-05   0.000169142349 -5.29526056e-05       0.23901651     0.954417271
12.662296            0.229472369     0.956824765   0.000169363978 -5.30922956e-05   0.000169363978  -5.3092296e-05      0.239359708     0.954320843
12.662324            0.229813189     0.956732684   0.000169585927 -5.32323338e-05   0.000169585927 -5.32323343e-05      0.239703103      0.95422422
12.662352            0.230154205     0.956640413   0.000169808197 -5.33727206e-05   0.000169808197 -5.33727211e-05      0.240046695     0.954127401
12.66238             0.230495417     0.956547951   0.000170030788  -5.3513457e-05   0.000170030789 -5.35134574e-05      0.240390484     0.954030385
12.662408            0.230836825     0.956455298   0.000170253701 -5.36545437e-05   0.000170253701 -5.36545441e-05       0.24073447     0.953933173
12.662436            0.231178429     0.956362455   0.000170476936 -5.37959817e-05   0.000170476936 -5.37959822e-05      0.241078653     0.953835764
12.662464             0.23152023      0.95626942   0.000170700493 -5.39377719e-05   0.000170700493 -5.39377724e-05      0.241423035     0.953738158
12.662492            0.231862227     0.956176193   0.000170924372 -5.40799153e-05   0.000170924373 -5.40799157e-05      0.241767614     0.953640354
12.66252             0.232204421     0.956082773   0.000171148575 -5.42224126e-05   0.000171148576 -5.42224131e-05      0.242112391     0.953542352
12.662548            0.232546812     0.955989162   0.000171373102 -5.43652649e-05   0.000171373102 -5.43652653e-05      0.242457366     0.953444151
12.662576            0.232889401     0.955895357   0.000171597953 -5.45084729e-05   0.000171597953 -5.45084734e-05      0.242802539     0.953345752
12.662604            0.233232186      0.95580136   0.000171823128 -5.46520378e-05   0.000171823128 -5.46520382e-05       0.24314791     0.953247154
12.662632            0.233575169     0.955707169   0.000172048628 -5.47959602e-05   0.000172048628 -5.47959607e-05      0.243493481     0.953148357
12.66266             0.233918349     0.955612784   0.000172274453 -5.49402413e-05   0.000172274454 -5.49402417e-05       0.24383925      0.95304936
12.662688            0.234261727     0.955518205   0.000172500604 -5.50848818e-05   0.000172500605 -5.50848822e-05      0.244185218     0.952950162
12.662716            0.234605303     0.955423431   0.000172727082 -5.52298827e-05   0.000172727082 -5.52298831e-05      0.244531385     0.952850765
12.662744            0.234949077     0.955328463   0.000172953886 -5.53752449e-05   0.000172953886 -5.53752454e-05      0.244877751     0.952751167
12.662772             0.23529305     0.955233299   0.000173181017 -5.55209694e-05   0.000173181017 -5.55209699e-05      0.245224317     0.952651367
12.6628              0.235637221      0.95513794   0.000173408475 -5.56670571e-05   0.000173408476 -5.56670576e-05      0.245571082     0.952551366
12.662828             0.23598159     0.955042385   0.000173636262 -5.58135089e-05   0.000173636262 -5.58135094e-05      0.245918047     0.952451164
12.662856            0.236326158     0.954946634   0.000173864376 -5.59603258e-05   0.000173864377 -5.59603262e-05      0.246265212     0.952350759
12.662884            0.236670925     0.954850687    0.00017409282 -5.61075086e-05    0.00017409282  -5.6107509e-05      0.246612577     0.952250152
12.662912            0.237015892     0.954754542   0.000174321592 -5.62550583e-05   0.000174321592 -5.62550588e-05      0.246960142     0.952149342
12.66294             0.237361057       0.9546582   0.000174550694 -5.64029759e-05   0.000174550695 -5.64029764e-05      0.247307908     0.952048329
12.662968            0.237706422     0.954561661   0.000174780126 -5.65512624e-05   0.000174780127 -5.65512628e-05      0.247655874     0.951947112
12.662996            0.238051987     0.954464924   0.000175009889 -5.66999185e-05   0.000175009889  -5.6699919e-05      0.248004042     0.951845691
12.663024            0.238397751     0.954367989   0.000175239982 -5.68489453e-05   0.000175239983 -5.68489458e-05       0.24835241     0.951744066
12.663052            0.238743716     0.954270855   0.000175470407 -5.69983438e-05   0.000175470407 -5.69983443e-05      0.248700979     0.951642237
12.66308              0.23908988     0.954173522   0.000175701164 -5.71481149e-05   0.000175701164 -5.71481154e-05      0.249049749     0.951540202
12.663108            0.239436245      0.95407599   0.000175932252 -5.72982596e-05   0.000175932252   -5.729826e-05      0.249398721     0.951437963
12.663136             0.23978281     0.953978259   0.000176163673 -5.74487787e-05   0.000176163674 -5.74487792e-05      0.249747894     0.951335517
12.663164            0.240129576     0.953880327   0.000176395427 -5.75996733e-05   0.000176395428 -5.75996738e-05      0.250097269     0.951232866
12.663192            0.240476542     0.953782195   0.000176627515 -5.77509443e-05   0.000176627515 -5.77509448e-05      0.250446846     0.951130008
12.66322              0.24082371     0.953683863   0.000176859936 -5.79025928e-05   0.000176859937 -5.79025932e-05      0.250796626     0.951026943
12.663248            0.241171079     0.953585329   0.000177092692 -5.80546196e-05   0.000177092692   -5.805462e-05      0.251146607     0.950923672
12.663276            0.241518649     0.953486595   0.000177325782 -5.82070257e-05   0.000177325783 -5.82070261e-05      0.251496791     0.950820193
12.663304             0.24186642     0.953387658   0.000177559208 -5.83598121e-05   0.000177559208 -5.83598125e-05      0.251847177     0.950716506
12.663332            0.242214393     0.953288519   0.000177792969 -5.85129798e-05   0.000177792969 -5.85129802e-05      0.252197767     0.950612611
12.66336             0.242562568     0.953189178   0.000178027066 -5.86665297e-05   0.000178027066 -5.86665302e-05      0.252548559     0.950508507
12.663388            0.242910945     0.953089635   0.000178261499 -5.88204629e-05     0.0001782615 -5.88204633e-05      0.252899554     0.950404194
12.663416            0.243259524     0.952989888   0.000178496269 -5.89747802e-05    0.00017849627 -5.89747807e-05      0.253250753     0.950299672
12.663444            0.243608306     0.952889937   0.000178731377 -5.91294828e-05   0.000178731377 -5.91294833e-05      0.253602155     0.950194941
12.663472             0.24395729     0.952789783   0.000178966822 -5.92845715e-05   0.000178966822  -5.9284572e-05      0.253953761     0.950089999
12.6635              0.244306476     0.952689425   0.000179202605 -5.94400475e-05   0.000179202605 -5.94400479e-05       0.25430557     0.949984847
