! TOUCHSTONE file generated by CST MICROWAVE STUDIO
! Date and time: Wed Jul 31 14:36:11 2024
! Project name: WaveGuide_BPF-Ver4.1_U-shape_Ku_T3_C4_CWA_2.cst
! Parameters = {cavity_h=16; cavity_l0=10; cavity_l1=15.1795; cavity_l2=16.8252; cavity_l3=17.0982; cavity_l4=17.2493; cavity_l5=17.1521; cavity_l6=17.5881; cavity_r=2.5; cavity_screw_l=0.5; cavity_screw_r=1.5; cavity_w=8; iris_h00=0; iris_h01=8.8337; iris_h112=0; iris_h12=5.6064; iris_h211=3.6643; iris_h23=5.204; iris_h310=3.9744; iris_h34=5.0814; iris_h45=4.9199; iris_h49=4.6146; iris_h56=4.8059; iris_h58=4.4413; iris_h67=6.5929; iris_rx=0.1; iris_screw_l=0.5; iris_screw_r=1.5; iris_shift00=0; iris_shift112=0; iris_shift211=3.5; iris_shift310=0; iris_shift49=0; iris_shift58=3.5; iris_shift67=3.5; iris_tx=4.5; iris_tz=4.5; iris_w00=0; iris_w112=0; iris_w211=4; iris_w310=3.9744; iris_w49=4.6146; iris_w58=4; iris_w67=4; mesh_cavity=5; mesh_iris=7; mesh_screw=7; order=12; reset_all=0; sigma=4.8e+07}
! Header version: 2018
! Port assignment regex: !\s*Touchstone port\s*([0-9]+)\s*=\s*(CST MWS port|CST DS port)\s*([0-9]+|Zmin|Zmax)\s*\(\"(.*)\"\)(\s*mode\s*([0-9]+))?.*
! Touchstone port assignment:
! Touchstone port 1 = CST MWS port 1 ("")
! Touchstone port 2 = CST MWS port 2 ("")
# GHz S RI R 50
12.66                0.304239978     0.933744525    0.00019876254 -8.11590149e-05    0.00019876254 -8.11590147e-05      0.316974553     0.929326829
12.660028             0.30461558     0.933609649   0.000199024887 -8.13663529e-05   0.000199024888 -8.13663527e-05       0.31735438     0.929184494
12.660056            0.304991414      0.93347451   0.000199287616 -8.15742183e-05   0.000199287617 -8.15742181e-05       0.31773439     0.929041905
12.660084            0.305367471     0.933339113   0.000199550727 -8.17826126e-05   0.000199550727 -8.17826124e-05      0.318114593     0.928899055
12.660112             0.30574374      0.93320346    0.00019981422 -8.19915373e-05    0.00019981422 -8.19915371e-05      0.318495001     0.928755942
12.66014              0.30612021     0.933067555   0.000200078095 -8.22009938e-05   0.000200078096 -8.22009936e-05      0.318875626     0.928612561
12.660168             0.30649688     0.932931396   0.000200342354 -8.24109836e-05   0.000200342354 -8.24109834e-05      0.319256468     0.928468912
12.660196            0.306873759     0.932794981   0.000200606996 -8.26215082e-05   0.000200606996  -8.2621508e-05       0.31963752     0.928324996
12.660224            0.307250847      0.93265831   0.000200872023  -8.2832569e-05   0.000200872023 -8.28325688e-05      0.320018781     0.928180813
12.660252            0.307628143     0.932521382   0.000201137434 -8.30441674e-05   0.000201137434 -8.30441672e-05      0.320400252     0.928036364
12.66028             0.308005648     0.932384197    0.00020140323 -8.32563049e-05    0.00020140323 -8.32563047e-05      0.320781932     0.927891646
12.660308            0.308383363     0.932246754   0.000201669412  -8.3468983e-05   0.000201669413 -8.34689828e-05      0.321163823      0.92774666
12.660336            0.308761286     0.932109053   0.000201935981 -8.36822032e-05   0.000201935981  -8.3682203e-05      0.321545924     0.927601406
12.660364            0.309139418     0.931971094   0.000202202936 -8.38959669e-05   0.000202202936 -8.38959667e-05      0.321928235     0.927455882
12.660392             0.30951776     0.931832876   0.000202470279 -8.41102756e-05   0.000202470279 -8.41102754e-05      0.322310757     0.927310089
12.66042             0.309896311     0.931694398    0.00020273801 -8.43251308e-05    0.00020273801 -8.43251306e-05      0.322693488     0.927164026
12.660448            0.310275072      0.93155566   0.000203006128  -8.4540534e-05   0.000203006129 -8.45405338e-05      0.323076431     0.927017692
12.660476            0.310654043     0.931416662   0.000203274636 -8.47564867e-05   0.000203274636 -8.47564865e-05      0.323459584     0.926871088
12.660504            0.311033223     0.931277403   0.000203543533 -8.49729903e-05   0.000203543534 -8.49729901e-05      0.323842948     0.926724212
12.660532            0.311412614     0.931137884   0.000203812821 -8.51900464e-05   0.000203812821 -8.51900462e-05      0.324226523     0.926577064
12.66056             0.311792215     0.930998102   0.000204082498 -8.54076566e-05   0.000204082498 -8.54076564e-05       0.32461031     0.926429644
12.660588            0.312172026     0.930858058   0.000204352567 -8.56258222e-05   0.000204352567  -8.5625822e-05      0.324994307     0.926281951
12.660616            0.312552047     0.930717752   0.000204623027 -8.58445448e-05   0.000204623027 -8.58445446e-05      0.325378516     0.926133985
12.660644            0.312932279     0.930577183    0.00020489388  -8.6063826e-05    0.00020489388 -8.60638258e-05      0.325762936     0.925985745
12.660672            0.313312722     0.930436351   0.000205165124 -8.62836672e-05   0.000205165125  -8.6283667e-05      0.326147568     0.925837231
12.6607              0.313693376     0.930295254   0.000205436762   -8.650407e-05   0.000205436762 -8.65040698e-05      0.326532412     0.925688442
12.660728             0.31407424     0.930153893   0.000205708794  -8.6725036e-05   0.000205708794 -8.67250358e-05      0.326917468     0.925539378
12.660756            0.314455316     0.930012268    0.00020598122 -8.69465666e-05    0.00020598122 -8.69465664e-05      0.327302736     0.925390039
12.660784            0.314836603     0.929870377    0.00020625404 -8.71686634e-05    0.00020625404 -8.71686632e-05      0.327688215     0.925240424
12.660812            0.315218101     0.929728221   0.000206527256  -8.7391328e-05   0.000206527256 -8.73913278e-05      0.328073907     0.925090532
12.66084              0.31559981     0.929585798   0.000206800867 -8.76145619e-05   0.000206800867 -8.76145617e-05      0.328459812     0.924940363
12.660868            0.315981732     0.929443109   0.000207074874 -8.78383666e-05   0.000207074875 -8.78383664e-05      0.328845929     0.924789916
12.660896            0.316363865     0.929300153   0.000207349279 -8.80627438e-05   0.000207349279 -8.80627436e-05      0.329232258     0.924639192
12.660924             0.31674621     0.929156929    0.00020762408 -8.82876949e-05   0.000207624081 -8.82876947e-05      0.329618801     0.924488189
12.660952            0.317128767     0.929013438    0.00020789928 -8.85132216e-05    0.00020789928 -8.85132215e-05      0.330005556     0.924336908
12.66098             0.317511536     0.928869678   0.000208174878 -8.87393255e-05   0.000208174878 -8.87393253e-05      0.330392524     0.924185346
12.661008            0.317894517     0.928725649   0.000208450874 -8.89660081e-05   0.000208450874 -8.89660079e-05      0.330779706     0.924033506
12.661036            0.318277711      0.92858135    0.00020872727 -8.91932709e-05   0.000208727271 -8.91932707e-05      0.331167101     0.923881384
12.661064            0.318661117     0.928436782   0.000209004067 -8.94211157e-05   0.000209004067 -8.94211155e-05      0.331554709     0.923728982
12.661092            0.319044736     0.928291944   0.000209281263 -8.96495439e-05   0.000209281263 -8.96495437e-05      0.331942531     0.923576299
12.66112             0.319428568     0.928146835   0.000209558861 -8.98785572e-05   0.000209558861  -8.9878557e-05      0.332330566     0.923423334
12.661148            0.319812613     0.928001455    0.00020983686 -9.01081572e-05    0.00020983686  -9.0108157e-05      0.332718815     0.923270086
12.661176            0.320196871     0.927855803   0.000210115261 -9.03383455e-05   0.000210115261 -9.03383453e-05      0.333107278     0.923116556
12.661204            0.320581342     0.927709879   0.000210394064 -9.05691237e-05   0.000210394064 -9.05691235e-05      0.333495955     0.922962743
12.661232            0.320966027     0.927563682   0.000210673271 -9.08004934e-05   0.000210673271 -9.08004932e-05      0.333884846     0.922808646
12.66126             0.321350925     0.927417212   0.000210952881 -9.10324562e-05   0.000210952881  -9.1032456e-05      0.334273952     0.922654264
12.661288            0.321736036     0.927270469   0.000211232896 -9.12650139e-05   0.000211232896 -9.12650137e-05      0.334663272     0.922499598
12.661316            0.322121361     0.927123452   0.000211513315 -9.14981679e-05   0.000211513315 -9.14981677e-05      0.335052806     0.922344647
12.661344            0.322506901      0.92697616   0.000211794139 -9.17319199e-05   0.000211794139 -9.17319197e-05      0.335442555      0.92218941
12.661372            0.322892654     0.926828594   0.000212075369 -9.19662717e-05    0.00021207537 -9.19662715e-05      0.335832519     0.922033887
12.6614              0.323278621     0.926680752   0.000212357006 -9.22012247e-05   0.000212357006 -9.22012245e-05      0.336222698     0.921878078
12.661428            0.323664803     0.926532634   0.000212639049 -9.24367807e-05   0.000212639049 -9.24367805e-05      0.336613091     0.921721981
12.661456            0.324051199     0.926384239   0.000212921499 -9.26729414e-05     0.0002129215 -9.26729412e-05        0.3370037     0.921565597
12.661484            0.324437809     0.926235568   0.000213204358 -9.29097083e-05   0.000213204358 -9.29097081e-05      0.337394525     0.921408924
12.661512            0.324824634      0.92608662   0.000213487625 -9.31470832e-05   0.000213487625  -9.3147083e-05      0.337785564     0.921251963
12.66154             0.325211674     0.925937394     0.0002137713 -9.33850677e-05     0.0002137713 -9.33850675e-05      0.338176819     0.921094712
12.661568            0.325598929     0.925787889   0.000214055385 -9.36236635e-05   0.000214055385 -9.36236633e-05       0.33856829     0.920937173
12.661596            0.325986399     0.925638106    0.00021433988 -9.38628723e-05    0.00021433988 -9.38628721e-05      0.338959977     0.920779342
12.661624            0.326374084     0.925488044   0.000214624786 -9.41026958e-05   0.000214624786 -9.41026956e-05      0.339351879     0.920621222
12.661652            0.326761985     0.925337702   0.000214910102 -9.43431356e-05   0.000214910103 -9.43431354e-05      0.339743998      0.92046281
12.66168               0.3271501     0.925187079   0.000215195831 -9.45841935e-05   0.000215195831 -9.45841933e-05      0.340136333     0.920304107
12.661708            0.327538432     0.925036176   0.000215481971 -9.48258711e-05   0.000215481971 -9.48258709e-05      0.340528883     0.920145111
12.661736            0.327926979     0.924884992   0.000215768524 -9.50681702e-05   0.000215768524   -9.506817e-05      0.340921651     0.919985823
12.661764            0.328315742     0.924733526   0.000216055489 -9.53110924e-05    0.00021605549 -9.53110922e-05      0.341314635     0.919826242
12.661792            0.328704721     0.924581778   0.000216342869 -9.55546395e-05   0.000216342869 -9.55546393e-05      0.341707835     0.919666367
12.66182             0.329093916     0.924429748   0.000216630663 -9.57988133e-05   0.000216630663 -9.57988131e-05      0.342101252     0.919506197
12.661848            0.329483328     0.924277434   0.000216918871 -9.60436153e-05   0.000216918872 -9.60436151e-05      0.342494887     0.919345734
12.661876            0.329872955     0.924124837   0.000217207495 -9.62890474e-05   0.000217207495 -9.62890472e-05      0.342888738     0.919184975
12.661904              0.3302628     0.923971956   0.000217496535 -9.65351113e-05   0.000217496535 -9.65351111e-05      0.343282806      0.91902392
12.661932             0.33065286      0.92381879   0.000217785991 -9.67818087e-05   0.000217785991 -9.67818085e-05      0.343677092     0.918862569
12.66196             0.331043138     0.923665339   0.000218075863 -9.70291414e-05   0.000218075864 -9.70291412e-05      0.344071595     0.918700922
12.661988            0.331433632     0.923511602   0.000218366154 -9.72771112e-05   0.000218366154  -9.7277111e-05      0.344466315     0.918538977
12.662016            0.331824344      0.92335758   0.000218656862 -9.75257197e-05   0.000218656862 -9.75257195e-05      0.344861253     0.918376735
12.662044            0.332215273     0.923203271   0.000218947988 -9.77749687e-05   0.000218947988 -9.77749685e-05      0.345256409     0.918214194
12.662072            0.332606419     0.923048674   0.000219239533 -9.80248601e-05   0.000219239533 -9.80248599e-05      0.345651783     0.918051355
12.6621              0.332997782     0.922893791   0.000219531498 -9.82753955e-05   0.000219531498 -9.82753953e-05      0.346047374     0.917888216
12.662128            0.333389363     0.922738619   0.000219823883 -9.85265769e-05   0.000219823883 -9.85265767e-05      0.346443184     0.917724778
12.662156            0.333781161     0.922583159   0.000220116689 -9.87784058e-05   0.000220116689 -9.87784056e-05      0.346839212     0.917561039
12.662184            0.334173178     0.922427409   0.000220409915 -9.90308842e-05   0.000220409915  -9.9030884e-05      0.347235459     0.917396999
12.662212            0.334565412      0.92227137   0.000220703563 -9.92840138e-05   0.000220703563 -9.92840136e-05      0.347631924     0.917232658
12.66224             0.334957864     0.922115041   0.000220997634 -9.95377964e-05   0.000220997634 -9.95377962e-05      0.348028607     0.917068015
12.662268            0.335350535     0.921958422   0.000221292126 -9.97922339e-05   0.000221292127 -9.97922337e-05      0.348425509      0.91690307
12.662296            0.335743423     0.921801511   0.000221587043 -0.000100047328   0.000221587043 -0.000100047328       0.34882263     0.916737822
12.662324            0.336136531     0.921644309   0.000221882382 -0.000100303081   0.000221882383  -0.00010030308      0.349219971      0.91657227
12.662352            0.336529857     0.921486815   0.000222178147 -0.000100559493   0.000222178147 -0.000100559493       0.34961753     0.916406415
12.66238             0.336923401     0.921329028   0.000222474335 -0.000100816568   0.000222474336 -0.000100816568      0.350015308     0.916240255
12.662408            0.337317164     0.921170949    0.00022277095 -0.000101074307    0.00022277095 -0.000101074307      0.350413306     0.916073789
12.662436            0.337711147     0.921012575    0.00022306799 -0.000101332712    0.00022306799 -0.000101332711      0.350811523     0.915907019
12.662464            0.338105348     0.920853908   0.000223365456 -0.000101591784   0.000223365456 -0.000101591784       0.35120996     0.915739942
12.662492            0.338499769     0.920694946   0.000223663349 -0.000101851525   0.000223663349 -0.000101851525      0.351608616     0.915572559
12.66252             0.338894409     0.920535688    0.00022396167 -0.000102111938    0.00022396167 -0.000102111938      0.352007492     0.915404868
12.662548            0.339289268     0.920376135   0.000224260419 -0.000102373024   0.000224260419 -0.000102373024      0.352406588      0.91523687
12.662576            0.339684347     0.920216286   0.000224559596 -0.000102634785   0.000224559596 -0.000102634785      0.352805904     0.915068563
12.662604            0.340079646     0.920056141   0.000224859202 -0.000102897223   0.000224859202 -0.000102897223      0.353205441     0.914899948
12.662632            0.340475165     0.919895698   0.000225159237  -0.00010316034   0.000225159238  -0.00010316034      0.353605197     0.914731023
12.66266             0.340870903     0.919734957   0.000225459703 -0.000103424137   0.000225459703 -0.000103424137      0.354005174     0.914561789
12.662688            0.341266862     0.919573918     0.0002257606 -0.000103688617     0.0002257606 -0.000103688617      0.354405372     0.914392244
12.662716            0.341663041     0.919412581   0.000226061927 -0.000103953782   0.000226061927 -0.000103953781       0.35480579     0.914222388
12.662744             0.34205944     0.919250944   0.000226363686 -0.000104219632   0.000226363686 -0.000104219632      0.355206429     0.914052221
12.662772             0.34245606     0.919089007   0.000226665877 -0.000104486171   0.000226665877 -0.000104486171      0.355607289     0.913881742
12.6628              0.342852901     0.918926771   0.000226968501   -0.0001047534   0.000226968501   -0.0001047534       0.35600837      0.91371095
12.662828            0.343249962     0.918764233   0.000227271558 -0.000105021321   0.000227271558 -0.000105021321      0.356409672     0.913539846
12.662856            0.343647244     0.918601394   0.000227575049 -0.000105289936   0.000227575049 -0.000105289936      0.356811195     0.913368427
12.662884            0.344044747     0.918438253   0.000227878974 -0.000105559247   0.000227878975 -0.000105559246       0.35721294     0.913196694
12.662912            0.344442471     0.918274809   0.000228183334 -0.000105829255   0.000228183334 -0.000105829255      0.357614906     0.913024647
12.66294             0.344840417     0.918111063    0.00022848813 -0.000106099963    0.00022848813 -0.000106099963      0.358017094     0.912852284
12.662968            0.345238584     0.917947013   0.000228793361 -0.000106371374   0.000228793361 -0.000106371373      0.358419503     0.912679606
12.662996            0.345636972     0.917782659   0.000229099028 -0.000106643487   0.000229099028 -0.000106643487      0.358822135     0.912506611
12.663024            0.346035582     0.917618001   0.000229405133 -0.000106916306   0.000229405133 -0.000106916306      0.359224988     0.912333299
12.663052            0.346434414     0.917453038   0.000229711675 -0.000107189833   0.000229711675 -0.000107189833      0.359628063      0.91215967
12.66308             0.346833468     0.917287769   0.000230018654 -0.000107464069   0.000230018655 -0.000107464069       0.36003136     0.911985722
12.663108            0.347232743     0.917122193   0.000230326073 -0.000107739017   0.000230326073 -0.000107739017       0.36043488     0.911811456
12.663136            0.347632241     0.916956312    0.00023063393 -0.000108014678    0.00023063393 -0.000108014678      0.360838622     0.911636871
12.663164            0.348031961     0.916790123   0.000230942227 -0.000108291055   0.000230942227 -0.000108291055      0.361242587     0.911461966
12.663192            0.348431904     0.916623626   0.000231250964 -0.000108568149   0.000231250964 -0.000108568149      0.361646775     0.911286741
12.66322             0.348832069     0.916456821   0.000231560141 -0.000108845963   0.000231560141 -0.000108845963      0.362051185     0.911111195
12.663248            0.349232457     0.916289707    0.00023186976 -0.000109124498    0.00023186976 -0.000109124498      0.362455818     0.910935328
12.663276            0.349633067     0.916122284    0.00023217982 -0.000109403756    0.00023217982 -0.000109403756      0.362860674     0.910759138
12.663304            0.350033901      0.91595455   0.000232490322  -0.00010968374   0.000232490322  -0.00010968374      0.363265753     0.910582626
12.663332            0.350434957     0.915786507   0.000232801267 -0.000109964451   0.000232801267 -0.000109964451      0.363671055     0.910405791
12.66336             0.350836237     0.915618152   0.000233112656 -0.000110245892   0.000233112656 -0.000110245892      0.364076581     0.910228632
12.663388            0.351237739     0.915449486   0.000233424487 -0.000110528064   0.000233424488 -0.000110528064       0.36448233     0.910051149
12.663416            0.351639466     0.915280508   0.000233736764  -0.00011081097   0.000233736764  -0.00011081097      0.364888303     0.909873342
12.663444            0.352041415     0.915111217   0.000234049484 -0.000111094611   0.000234049485 -0.000111094611        0.3652945     0.909695208
12.663472            0.352443589     0.914941613   0.000234362651  -0.00011137899   0.000234362651  -0.00011137899       0.36570092     0.909516749
12.6635              0.352845986     0.914771695   0.000234676262 -0.000111664109   0.000234676263 -0.000111664109      0.366107564     0.909337964
