! TOUCHSTONE file generated by CST MICROWAVE STUDIO
! Date and time: Wed Jul 31 14:39:19 2024
! Project name: WaveGuide_BPF-Ver4.1_U-shape_Ku_T3_C4_CWA_2.cst
! Parameters = {cavity_h=16; cavity_l0=10; cavity_l1=15.2072; cavity_l2=16.8576; cavity_l3=17.1275; cavity_l4=17.2482; cavity_l5=17.1105; cavity_l6=17.5938; cavity_r=2.5; cavity_screw_l=0.5; cavity_screw_r=1.5; cavity_w=8; iris_h00=0; iris_h01=8.8179; iris_h112=0; iris_h12=5.6127; iris_h211=3.6566; iris_h23=5.2035; iris_h310=3.9714; iris_h34=5.0674; iris_h45=4.9346; iris_h49=4.6304; iris_h56=4.796; iris_h58=4.4477; iris_h67=6.5828; iris_rx=0.1; iris_screw_l=0.5; iris_screw_r=1.5; iris_shift00=0; iris_shift112=0; iris_shift211=3.5; iris_shift310=0; iris_shift49=0; iris_shift58=3.5; iris_shift67=3.5; iris_tx=4.5; iris_tz=4.5; iris_w00=0; iris_w112=0; iris_w211=4; iris_w310=3.9714; iris_w49=4.6304; iris_w58=4; iris_w67=4; mesh_cavity=5; mesh_iris=7; mesh_screw=7; order=12; reset_all=0; sigma=4.8e+07}
! Header version: 2018
! Port assignment regex: !\s*Touchstone port\s*([0-9]+)\s*=\s*(CST MWS port|CST DS port)\s*([0-9]+|Zmin|Zmax)\s*\(\"(.*)\"\)(\s*mode\s*([0-9]+))?.*
! Touchstone port assignment:
! Touchstone port 1 = CST MWS port 1 ("")
! Touchstone port 2 = CST MWS port 2 ("")
# GHz S RI R 50
12.66                 0.37255385     0.905016608    0.00030607927 -0.000154243634   0.000306079271 -0.000154243634      0.375070491     0.903965572
12.660028            0.372990568     0.904818392   0.000306523303 -0.000154667328   0.000306523304 -0.000154667328      0.375507553     0.903765728
12.660056            0.373427639     0.904619751   0.000306968032 -0.000155092215   0.000306968033 -0.000155092216       0.37594473     0.903565552
12.660084            0.373865025     0.904420698   0.000307413453 -0.000155518303   0.000307413454 -0.000155518304      0.376382085     0.903365017
12.660112            0.374302688     0.904221249   0.000307859562   -0.0001559456   0.000307859563   -0.0001559456      0.376819684     0.903164098
12.66014             0.374740592     0.904021416   0.000308306357 -0.000156374111   0.000308306358 -0.000156374112       0.37725759     0.902962766
12.660168            0.375178736       0.9038212   0.000308753839 -0.000156803842    0.00030875384 -0.000156803842      0.377695805     0.902761021
12.660196            0.375617145     0.903620589   0.000309202011 -0.000157234793   0.000309202012 -0.000157234794      0.378134285      0.90255888
12.660224            0.376055821     0.903419583   0.000309650873 -0.000157666968   0.000309650874 -0.000157666969      0.378573031     0.902356342
12.660252            0.376494762     0.903218182   0.000310100427 -0.000158100372   0.000310100428 -0.000158100372      0.379012042     0.902153406
12.66028             0.376933969     0.903016384   0.000310550674 -0.000158535007   0.000310550675 -0.000158535007       0.37945132     0.901950071
12.660308            0.377373443     0.902814188   0.000311001614 -0.000158970878   0.000311001615 -0.000158970878      0.379890863     0.901746336
12.660336            0.377813183     0.902611594   0.000311453249 -0.000159407988    0.00031145325 -0.000159407988      0.380330672     0.901542202
12.660364            0.378253189     0.902408601   0.000311905579 -0.000159846341   0.000311905579 -0.000159846341      0.380770748     0.901337666
12.660392            0.378693463     0.902205208   0.000312358604 -0.000160285941   0.000312358605 -0.000160285941       0.38121109     0.901132729
12.66042             0.379134003     0.902001414   0.000312812327 -0.000160726792   0.000312812328 -0.000160726792      0.381651699     0.900927389
12.660448             0.37957481     0.901797219   0.000313266747 -0.000161168897   0.000313266748 -0.000161168898      0.382092574     0.900721646
12.660476            0.380015884     0.901592622   0.000313721865 -0.000161612261   0.000313721866 -0.000161612262      0.382533716     0.900515498
12.660504            0.380457225     0.901387622   0.000314177683 -0.000162056888   0.000314177684 -0.000162056889      0.382975126     0.900308946
12.660532            0.380898835     0.901182218   0.000314634201 -0.000162502781   0.000314634202 -0.000162502781      0.383416803     0.900101987
12.66056             0.381340711      0.90097641    0.00031509142 -0.000162949944   0.000315091421 -0.000162949944      0.383858747     0.899894623
12.660588            0.381782856     0.900770196   0.000315549341 -0.000163398381   0.000315549342 -0.000163398382      0.384300958      0.89968685
12.660616            0.382225268     0.900563577   0.000316007965 -0.000163848096   0.000316007966 -0.000163848097      0.384743438      0.89947867
12.660644            0.382667949      0.90035655   0.000316467292 -0.000164299094   0.000316467293 -0.000164299094      0.385186185     0.899270081
12.660672            0.383110897     0.900149115   0.000316927323 -0.000164751377   0.000316927324 -0.000164751378        0.3856292     0.899061082
12.6607              0.383554115     0.899941272    0.00031738806  -0.00016520495   0.000317388061 -0.000165204951      0.386072484     0.898851672
12.660728              0.3839976      0.89973302   0.000317849503 -0.000165659817   0.000317849503 -0.000165659818      0.386516035     0.898641851
12.660756            0.384441355     0.899524358   0.000318311652 -0.000166115982   0.000318311653 -0.000166115983      0.386959855     0.898431618
12.660784            0.384885378     0.899315284   0.000318774509 -0.000166573449    0.00031877451  -0.00016657345      0.387403944     0.898220971
12.660812            0.385329671     0.899105799   0.000319238075 -0.000167032222   0.000319238076 -0.000167032223      0.387848302     0.898009911
12.66084             0.385774232     0.898895901    0.00031970235 -0.000167492305   0.000319702351 -0.000167492305      0.388292928     0.897798436
12.660868            0.386219063      0.89868559   0.000320167335 -0.000167953702   0.000320167336 -0.000167953702      0.388737824     0.897586546
12.660896            0.386664164     0.898474864   0.000320633031 -0.000168416417   0.000320633032 -0.000168416417      0.389182989      0.89737424
12.660924            0.387109534     0.898263724   0.000321099439 -0.000168880454    0.00032109944 -0.000168880455      0.389628423     0.897161516
12.660952            0.387555174     0.898052168    0.00032156656 -0.000169345817    0.00032156656 -0.000169345818      0.390074127     0.896948374
12.66098             0.388001084     0.897840195   0.000322034393 -0.000169812511   0.000322034394 -0.000169812512        0.3905201     0.896734814
12.661008            0.388447264     0.897627804   0.000322502942 -0.000170280539   0.000322502942  -0.00017028054      0.390966343     0.896520834
12.661036            0.388893714     0.897414995   0.000322972205 -0.000170749906   0.000322972206 -0.000170749907      0.391412857     0.896306434
12.661064            0.389340435     0.897201767   0.000323442184 -0.000171220616   0.000323442185 -0.000171220617       0.39185964     0.896091612
12.661092            0.389787426     0.896988119    0.00032391288 -0.000171692673   0.000323912881 -0.000171692673      0.392306694     0.895876369
12.66112             0.390234688     0.896774051   0.000324384293  -0.00017216608   0.000324384294 -0.000172166081      0.392754018     0.895660702
12.661148            0.390682221      0.89655956   0.000324856425 -0.000172640843   0.000324856426 -0.000172640844      0.393201613     0.895444612
12.661176            0.391130025     0.896344647   0.000325329276 -0.000173116966   0.000325329276 -0.000173116966      0.393649478     0.895228097
12.661204              0.3915781     0.896129311   0.000325802846 -0.000173594452   0.000325802847 -0.000173594452      0.394097614     0.895011156
12.661232            0.392026446     0.895913551   0.000326277138 -0.000174073306   0.000326277138 -0.000174073306      0.394546022      0.89479379
12.66126             0.392475064     0.895697366   0.000326752151 -0.000174553532   0.000326752151 -0.000174553533        0.3949947     0.894575996
12.661288            0.392923954     0.895480754   0.000327227886 -0.000175035135   0.000327227887 -0.000175035135       0.39544365     0.894357774
12.661316            0.393373115     0.895263717   0.000327704344 -0.000175518118   0.000327704345 -0.000175518119      0.395892872     0.894139124
12.661344            0.393822548     0.895046251   0.000328181527 -0.000176002487   0.000328181528 -0.000176002487      0.396342365     0.893920044
12.661372            0.394272253     0.894828358   0.000328659434 -0.000176488244   0.000328659435 -0.000176488245      0.396792129     0.893700533
12.6614              0.394722231     0.894610035   0.000329138066 -0.000176975396   0.000329138067 -0.000176975396      0.397242166     0.893480591
12.661428             0.39517248     0.894391281   0.000329617425 -0.000177463945   0.000329617426 -0.000177463945      0.397692475     0.893260216
12.661456            0.395623003     0.894172097   0.000330097512 -0.000177953896   0.000330097512 -0.000177953897      0.398143056     0.893039409
12.661484            0.396073798     0.893952482   0.000330578326 -0.000178445254   0.000330578326 -0.000178445255      0.398593909     0.892818167
12.661512            0.396524865     0.893732433   0.000331059868 -0.000178938024   0.000331059869 -0.000178938024      0.399045035     0.892596491
12.66154             0.396976206     0.893511951    0.00033154214 -0.000179432208   0.000331542141 -0.000179432209      0.399496434     0.892374379
12.661568             0.39742782     0.893291035   0.000332025143 -0.000179927812   0.000332025144 -0.000179927813      0.399948105     0.892151831
12.661596            0.397879707     0.893069683   0.000332508876 -0.000180424841   0.000332508877 -0.000180424842      0.400400049     0.891928845
12.661624            0.398331867     0.892847895   0.000332993342 -0.000180923298   0.000332993343 -0.000180923299      0.400852266      0.89170542
12.661652            0.398784301     0.892625671    0.00033347854 -0.000181423189   0.000333478541 -0.000181423189      0.401304757     0.891481557
12.66168             0.399237009     0.892403008   0.000333964471 -0.000181924516   0.000333964472 -0.000181924517      0.401757521     0.891257253
12.661708            0.399689991     0.892179907   0.000334451137 -0.000182427286   0.000334451137 -0.000182427287      0.402210558     0.891032509
12.661736            0.400143246     0.891956366   0.000334938537 -0.000182931503   0.000334938538 -0.000182931503      0.402663869     0.890807322
12.661764            0.400596776     0.891732384   0.000335426673  -0.00018343717   0.000335426674 -0.000183437171      0.403117454     0.890581693
12.661792            0.401050579     0.891507962   0.000335915546 -0.000183944293   0.000335915547 -0.000183944294      0.403571313     0.890355621
12.66182             0.401504658     0.891283097   0.000336405156 -0.000184452877   0.000336405156 -0.000184452877      0.404025446     0.890129104
12.661848             0.40195901     0.891057788   0.000336895503 -0.000184962924   0.000336895504 -0.000184962925      0.404479853     0.889902141
12.661876            0.402413638     0.890832036    0.00033738659 -0.000185474441   0.000337386591 -0.000185474442      0.404934535     0.889674733
12.661904             0.40286854     0.890605839   0.000337878416 -0.000185987432   0.000337878417 -0.000185987433      0.405389491     0.889446877
12.661932            0.403323717     0.890379196   0.000338370983 -0.000186501902   0.000338370983 -0.000186501902      0.405844721     0.889218573
12.66196              0.40377917     0.890152107    0.00033886429 -0.000187017854   0.000338864291 -0.000187017854      0.406300227      0.88898982
12.661988            0.404234897      0.88992457   0.000339358339 -0.000187535294    0.00033935834 -0.000187535294      0.406756007     0.888760617
12.662016              0.4046909     0.889696584   0.000339853131 -0.000188054226   0.000339853132 -0.000188054227      0.407212062     0.888530964
12.662044            0.405147179     0.889468149   0.000340348666 -0.000188574655   0.000340348667 -0.000188574656      0.407668393     0.888300859
12.662072            0.405603733     0.889239263   0.000340844945 -0.000189096586   0.000340844946 -0.000189096587      0.408124999     0.888070301
12.6621              0.406060563     0.889009927   0.000341341969 -0.000189620023    0.00034134197 -0.000189620024       0.40858188      0.88783929
12.662128            0.406517669     0.888780138   0.000341839739 -0.000190144971    0.00034183974 -0.000190144972      0.409039037     0.887607825
12.662156            0.406975051     0.888549897   0.000342338254 -0.000190671435   0.000342338255 -0.000190671436       0.40949647     0.887375904
12.662184             0.40743271     0.888319201   0.000342837517  -0.00019119942   0.000342837518  -0.00019119942      0.409954179     0.887143527
12.662212            0.407890644     0.888088051   0.000343337528 -0.000191728929   0.000343337528  -0.00019172893      0.410412163     0.886910693
12.66224             0.408348855     0.887856445   0.000343838287 -0.000192259969   0.000343838287 -0.000192259969      0.410870424     0.886677401
12.662268            0.408807343     0.887624382   0.000344339795 -0.000192792543   0.000344339795 -0.000192792544      0.411328961      0.88644365
12.662296            0.409266108     0.887391862   0.000344842053 -0.000193326658   0.000344842054 -0.000193326658      0.411787775     0.886209439
12.662324            0.409725149     0.887158883   0.000345345061 -0.000193862316   0.000345345062 -0.000193862317      0.412246865     0.885974767
12.662352            0.410184468     0.886925444   0.000345848821 -0.000194399524   0.000345848822 -0.000194399524      0.412706232     0.885739634
12.66238             0.410644064     0.886691546   0.000346353334 -0.000194938286   0.000346353334 -0.000194938286      0.413165876     0.885504038
12.662408            0.411103937     0.886457186   0.000346858599 -0.000195478607   0.000346858599 -0.000195478607      0.413625796     0.885267978
12.662436            0.411564087     0.886222364   0.000347364617 -0.000196020492   0.000347364618 -0.000196020492      0.414085994     0.885031453
12.662464            0.412024515     0.885987079    0.00034787139 -0.000196563945    0.00034787139 -0.000196563946      0.414546469     0.884794464
12.662492            0.412485221     0.885751329   0.000348378917 -0.000197108973   0.000348378918 -0.000197108973      0.415007221     0.884557007
12.66252             0.412946205     0.885515115   0.000348887201 -0.000197655579   0.000348887201 -0.000197655579      0.415468251     0.884319084
12.662548            0.413407467     0.885278435    0.00034939624 -0.000198203768   0.000349396241 -0.000198203769      0.415929559     0.884080692
12.662576            0.413869007     0.885041287   0.000349906037 -0.000198753546   0.000349906038 -0.000198753547      0.416391144     0.883841831
12.662604            0.414330825     0.884803672   0.000350416591 -0.000199304918   0.000350416592 -0.000199304918      0.416853007     0.883602499
12.662632            0.414792921     0.884565589   0.000350927904 -0.000199857888   0.000350927905 -0.000199857889      0.417315148     0.883362697
12.66266             0.415255296     0.884327035   0.000351439976 -0.000200412462   0.000351439977 -0.000200412462      0.417777567     0.883122422
12.662688             0.41571795     0.884088011   0.000351952808 -0.000200968644   0.000351952809 -0.000200968645      0.418240265     0.882881674
12.662716            0.416180882     0.883848515     0.0003524664  -0.00020152644   0.000352466401 -0.000201526441      0.418703241     0.882640453
12.662744            0.416644094     0.883608547   0.000352980753 -0.000202085855   0.000352980754 -0.000202085856      0.419166495     0.882398756
12.662772            0.417107584     0.883368105   0.000353495869 -0.000202646894    0.00035349587 -0.000202646894      0.419630028     0.882156583
12.6628              0.417571354     0.883127188   0.000354011747 -0.000203209561   0.000354011747 -0.000203209562       0.42009384     0.881913934
12.662828            0.418035402     0.882885796   0.000354528388 -0.000203773863   0.000354528388 -0.000203773863      0.420557931     0.881670806
12.662856            0.418499731     0.882643928   0.000355045792 -0.000204339803   0.000355045793 -0.000204339804      0.421022301       0.8814272
12.662884            0.418964339     0.882401582   0.000355563962 -0.000204907388   0.000355563963 -0.000204907389       0.42148695     0.881183114
12.662912            0.419429226     0.882158758   0.000356082896 -0.000205476623   0.000356082897 -0.000205476623      0.421951878     0.880938547
12.66294             0.419894394     0.881915454   0.000356602597 -0.000206047512   0.000356602598 -0.000206047513      0.422417086     0.880693499
12.662968            0.420359841      0.88167167   0.000357123064 -0.000206620061   0.000357123065 -0.000206620062      0.422882573     0.880447967
12.662996            0.420825568     0.881427405   0.000357644298 -0.000207194276   0.000357644299 -0.000207194276       0.42334834     0.880201952
12.663024            0.421291576     0.881182658     0.0003581663  -0.00020777016   0.000358166301 -0.000207770161      0.423814386     0.879955452
12.663052            0.421757864     0.880937427   0.000358689071 -0.000208347721   0.000358689071 -0.000208347721      0.424280713     0.879708467
12.66308             0.422224432     0.880691712    0.00035921261 -0.000208926962   0.000359212611 -0.000208926962       0.42474732     0.879460994
12.663108            0.422691281     0.880445512   0.000359736919 -0.000209507889    0.00035973692  -0.00020950789      0.425214206     0.879213034
12.663136             0.42315841     0.880198826   0.000360261999 -0.000210090508      0.000360262 -0.000210090509      0.425681373     0.878964586
12.663164             0.42362582     0.879951652    0.00036078785 -0.000210674824   0.000360787851 -0.000210674825      0.426148821     0.878715647
12.663192            0.424093512      0.87970399   0.000361314472 -0.000211260842   0.000361314473 -0.000211260843      0.426616549     0.878466218
12.66322             0.424561484      0.87945584   0.000361841867 -0.000211848568   0.000361841868 -0.000211848569      0.427084557     0.878216298
12.663248            0.425029737     0.879207198   0.000362370034 -0.000212438007   0.000362370035 -0.000212438007      0.427552847     0.877965884
12.663276            0.425498272     0.878958066   0.000362898975 -0.000213029164   0.000362898976 -0.000213029164      0.428021417     0.877714977
12.663304            0.425967088     0.878708442    0.00036342869 -0.000213622045   0.000363428691 -0.000213622045      0.428490268     0.877463576
12.663332            0.426436186     0.878458324    0.00036395918 -0.000214216655   0.000363959181 -0.000214216655        0.4289594     0.877211678
12.66336             0.426905566     0.878207712   0.000364490445    -0.000214813   0.000364490446    -0.000214813      0.429428814     0.876959284
12.663388            0.427375227     0.877956605   0.000365022486 -0.000215411085   0.000365022487 -0.000215411085      0.429898509     0.876706392
12.663416             0.42784517     0.877705001   0.000365555304 -0.000216010915   0.000365555305 -0.000216010916      0.430368485     0.876453001
12.663444            0.428315395     0.877452901   0.000366088898 -0.000216612497   0.000366088899 -0.000216612498      0.430838743     0.876199111
12.663472            0.428785902     0.877200302   0.000366623271 -0.000217215836   0.000366623272 -0.000217215837      0.431309282      0.87594472
12.6635              0.429256691     0.876947204   0.000367158422 -0.000217820937   0.000367158422 -0.000217820938      0.431780104     0.875689827
