! TOUCHSTONE file generated by CST MICROWAVE STUDIO
! Date and time: Wed Jul 31 14:42:26 2024
! Project name: WaveGuide_BPF-Ver4.1_U-shape_Ku_T3_C4_CWA_2.cst
! Parameters = {cavity_h=16; cavity_l0=10; cavity_l1=15.1964; cavity_l2=16.8447; cavity_l3=17.0733; cavity_l4=17.2248; cavity_l5=17.1056; cavity_l6=17.5656; cavity_r=2.5; cavity_screw_l=0.5; cavity_screw_r=1.5; cavity_w=8; iris_h00=0; iris_h01=8.809; iris_h112=0; iris_h12=5.6073; iris_h211=3.6586; iris_h23=5.2061; iris_h310=3.9647; iris_h34=5.0712; iris_h45=4.9406; iris_h49=4.6255; iris_h56=4.7953; iris_h58=4.4428; iris_h67=6.581; iris_rx=0.1; iris_screw_l=0.5; iris_screw_r=1.5; iris_shift00=0; iris_shift112=0; iris_shift211=3.5; iris_shift310=0; iris_shift49=0; iris_shift58=3.5; iris_shift67=3.5; iris_tx=4.5; iris_tz=4.5; iris_w00=0; iris_w112=0; iris_w211=4; iris_w310=3.9647; iris_w49=4.6255; iris_w58=4; iris_w67=4; mesh_cavity=5; mesh_iris=7; mesh_screw=7; order=12; reset_all=0; sigma=4.8e+07}
! Header version: 2018
! Port assignment regex: !\s*Touchstone port\s*([0-9]+)\s*=\s*(CST MWS port|CST DS port)\s*([0-9]+|Zmin|Zmax)\s*\(\"(.*)\"\)(\s*mode\s*([0-9]+))?.*
! Touchstone port assignment:
! Touchstone port 1 = CST MWS port 1 ("")
! Touchstone port 2 = CST MWS port 2 ("")
# GHz S RI R 50
12.66                 0.29203212      0.93725184   0.000240007256 -9.44253291e-05   0.000240007256 -9.44253295e-05      0.296305332     0.935886053
12.660028            0.292417909     0.937118148   0.000240352446 -9.46841968e-05   0.000240352446 -9.46841972e-05      0.296691966     0.935750095
12.660056            0.292803875     0.936984205   0.000240698204 -9.49437717e-05   0.000240698204 -9.49437721e-05      0.297078831     0.935613865
12.660084             0.29319004     0.936850003   0.000241044529 -9.52040584e-05   0.000241044529 -9.52040588e-05      0.297465927     0.935477364
12.660112             0.29357643     0.936715535    0.00024139142 -9.54650615e-05    0.00024139142 -9.54650619e-05      0.297853254     0.935340592
12.66014             0.293963065     0.936580793   0.000241738876 -9.57267857e-05   0.000241738875 -9.57267861e-05      0.298240811     0.935203548
12.660168            0.294349947     0.936445777   0.000242086897 -9.59892331e-05   0.000242086897 -9.59892335e-05        0.2986286     0.935066232
12.660196             0.29473706     0.936310491   0.000242435486 -9.62524042e-05   0.000242435486 -9.62524046e-05      0.299016619     0.934928642
12.660224            0.295124404     0.936174934   0.000242784645 -9.65163012e-05   0.000242784644 -9.65163016e-05       0.29940487     0.934790779
12.660252            0.295511981     0.936039107   0.000243134373 -9.67809262e-05   0.000243134373 -9.67809266e-05      0.299793353     0.934652643
12.66028             0.295899789     0.935903007   0.000243484672 -9.70462815e-05   0.000243484672 -9.70462819e-05      0.300182068     0.934514231
12.660308            0.296287829     0.935766636   0.000243835543 -9.73123691e-05   0.000243835542 -9.73123695e-05      0.300571014     0.934375545
12.660336            0.296676102     0.935629992   0.000244186986 -9.75791913e-05   0.000244186986 -9.75791917e-05      0.300960193     0.934236584
12.660364            0.297064607     0.935493076   0.000244539003 -9.78467502e-05   0.000244539003 -9.78467506e-05      0.301349604     0.934097346
12.660392            0.297453344     0.935355885   0.000244891595 -9.81150481e-05   0.000244891595 -9.81150485e-05      0.301739247     0.933957832
12.66042             0.297842315     0.935218421   0.000245244762 -9.83840872e-05   0.000245244762 -9.83840876e-05      0.302129123     0.933818041
12.660448            0.298231518     0.935080682   0.000245598506 -9.86538697e-05   0.000245598506 -9.86538701e-05      0.302519232     0.933677973
12.660476            0.298620954     0.934942669   0.000245952827 -9.89243978e-05   0.000245952827 -9.89243982e-05      0.302909574     0.933537626
12.660504            0.299010624     0.934804379   0.000246307727 -9.91956738e-05   0.000246307727 -9.91956742e-05      0.303300149     0.933397001
12.660532            0.299400527     0.934665814   0.000246663206 -9.94676998e-05   0.000246663206 -9.94677002e-05      0.303690957     0.933256097
12.66056             0.299790663     0.934526972   0.000247019266 -9.97404782e-05   0.000247019265 -9.97404786e-05      0.304081999     0.933114914
12.660588            0.300181034     0.934387853   0.000247375906 -0.000100014011   0.000247375906 -0.000100014012      0.304473274     0.932973451
12.660616            0.300571638     0.934248457   0.000247733129 -0.000100288301   0.000247733129 -0.000100288301      0.304864784     0.932831707
12.660644            0.300962477     0.934108782   0.000248090935  -0.00010056335   0.000248090935  -0.00010056335      0.305256527     0.932689682
12.660672             0.30135355      0.93396883   0.000248449326  -0.00010083916   0.000248449325 -0.000100839161      0.305648505     0.932547376
12.6607              0.301744857     0.933828597   0.000248808301 -0.000101115734   0.000248808301 -0.000101115735      0.306040717     0.932404787
12.660728            0.302136399     0.933688086   0.000249167863 -0.000101393074   0.000249167862 -0.000101393074      0.306433163     0.932261916
12.660756            0.302528176     0.933547294   0.000249528011 -0.000101671182   0.000249528011 -0.000101671183      0.306825844     0.932118762
12.660784            0.302920188     0.933406222   0.000249888748 -0.000101950061   0.000249888748 -0.000101950061       0.30721876     0.931975324
12.660812            0.303312436     0.933264868   0.000250250073 -0.000102229713   0.000250250073 -0.000102229713      0.307611912     0.931831603
12.66084             0.303704918     0.933123233   0.000250611989 -0.000102510139   0.000250611989  -0.00010251014      0.308005298     0.931687596
12.660868            0.304097636     0.932981316   0.000250974495 -0.000102791344   0.000250974495 -0.000102791344       0.30839892     0.931543304
12.660896             0.30449059     0.932839116   0.000251337594 -0.000103073328   0.000251337594 -0.000103073328      0.308792777     0.931398727
12.660924             0.30488378     0.932696633   0.000251701285 -0.000103356094   0.000251701285 -0.000103356095       0.30918687     0.931253864
12.660952            0.305277206     0.932553867    0.00025206557 -0.000103639645    0.00025206557 -0.000103639645      0.309581199     0.931108713
12.66098             0.305670868     0.932410816    0.00025243045 -0.000103923983    0.00025243045 -0.000103923983      0.309975765     0.930963276
12.661008            0.306064767      0.93226748   0.000252795926  -0.00010420911   0.000252795925  -0.00010420911      0.310370566     0.930817551
12.661036            0.306458902     0.932123859   0.000253161998 -0.000104495029   0.000253161998 -0.000104495029      0.310765604     0.930671537
12.661064            0.306853274     0.931979952   0.000253528668 -0.000104781741   0.000253528668 -0.000104781742      0.311160878     0.930525234
12.661092            0.307247883     0.931835759   0.000253895937  -0.00010506925   0.000253895937 -0.000105069251       0.31155639     0.930378643
12.66112             0.307642729     0.931691279   0.000254263805 -0.000105357558   0.000254263805 -0.000105357559      0.311952138     0.930231761
12.661148            0.308037812     0.931546512   0.000254632275 -0.000105646668   0.000254632274 -0.000105646668      0.312348123     0.930084589
12.661176            0.308433133     0.931401457   0.000255001345  -0.00010593658   0.000255001345 -0.000105936581      0.312744346     0.929937126
12.661204            0.308828691     0.931256113   0.000255371019 -0.000106227299   0.000255371019   -0.0001062273      0.313140806     0.929789371
12.661232            0.309224488      0.93111048   0.000255741296 -0.000106518826   0.000255741296 -0.000106518827      0.313537504     0.929641324
12.66126             0.309620522     0.930964558   0.000256112178 -0.000106811165   0.000256112177 -0.000106811165       0.31393444     0.929492985
12.661288            0.310016794     0.930818346   0.000256483665 -0.000107104316   0.000256483665 -0.000107104317      0.314331613     0.929344352
12.661316            0.310413305     0.930671843   0.000256855759 -0.000107398284   0.000256855758 -0.000107398284      0.314729025     0.929195426
12.661344            0.310810055      0.93052505    0.00025722846 -0.000107693069    0.00025722846  -0.00010769307      0.315126675     0.929046206
12.661372            0.311207043     0.930377964    0.00025760177 -0.000107988676   0.000257601769 -0.000107988676      0.315524564     0.928896691
12.6614               0.31160427     0.930230587   0.000257975689 -0.000108285105   0.000257975689 -0.000108285106      0.315922691      0.92874688
12.661428            0.312001736     0.930082916   0.000258350219 -0.000108582361   0.000258350219 -0.000108582361      0.316321057     0.928596774
12.661456            0.312399441     0.929934953    0.00025872536 -0.000108880444    0.00025872536 -0.000108880445      0.316719663     0.928446372
12.661484            0.312797386     0.929786695   0.000259101114 -0.000109179358   0.000259101114 -0.000109179359      0.317118507     0.928295672
12.661512             0.31319557     0.929638143   0.000259477482 -0.000109479106   0.000259477481 -0.000109479106      0.317517591     0.928144675
12.66154             0.313593994     0.929489297   0.000259854463 -0.000109779689   0.000259854463 -0.000109779689      0.317916914      0.92799338
12.661568            0.313992658     0.929340155   0.000260232061  -0.00011008111    0.00026023206 -0.000110081111      0.318316477     0.927841787
12.661596            0.314391562     0.929190717   0.000260610274 -0.000110383372   0.000260610274 -0.000110383373       0.31871628     0.927689894
12.661624            0.314790707     0.929040982   0.000260989106 -0.000110686478   0.000260989105 -0.000110686478      0.319116323     0.927537701
12.661652            0.315190091      0.92889095   0.000261368555 -0.000110990429   0.000261368555  -0.00011099043      0.319516607     0.927385209
12.66168             0.315589717     0.928740621   0.000261748624 -0.000111295229   0.000261748624  -0.00011129523       0.31991713     0.927232415
12.661708            0.315989583     0.928589993   0.000262129314  -0.00011160088   0.000262129314  -0.00011160088      0.320317894     0.927079321
12.661736             0.31638969     0.928439067   0.000262510625 -0.000111907384   0.000262510625 -0.000111907385      0.320718899     0.926925924
12.661764            0.316790039     0.928287842   0.000262892559 -0.000112214745   0.000262892558 -0.000112214745      0.321120145     0.926772225
12.661792            0.317190629     0.928136316   0.000263275116 -0.000112522964   0.000263275115 -0.000112522965      0.321521632     0.926618222
12.66182              0.31759146      0.92798449   0.000263658297 -0.000112832045   0.000263658297 -0.000112832045      0.321923361     0.926463917
12.661848            0.317992533     0.927832364   0.000264042104  -0.00011314199   0.000264042104  -0.00011314199       0.32232533     0.926309307
12.661876            0.318393848     0.927679935   0.000264426537 -0.000113452801   0.000264426537 -0.000113452801      0.322727542     0.926154392
12.661904            0.318795405     0.927527205   0.000264811598 -0.000113764482   0.000264811598 -0.000113764482      0.323129995     0.925999172
12.661932            0.319197204     0.927374172   0.000265197287 -0.000114077034   0.000265197287 -0.000114077034       0.32353269     0.925843646
12.66196             0.319599245     0.927220836   0.000265583606 -0.000114390461   0.000265583606 -0.000114390461      0.323935627     0.925687814
12.661988            0.320001529     0.927067196   0.000265970556 -0.000114704765   0.000265970555 -0.000114704765      0.324338807     0.925531675
12.662016            0.320404056     0.926913251   0.000266358137 -0.000115019949   0.000266358136 -0.000115019949      0.324742229     0.925375228
12.662044            0.320806826     0.926759002    0.00026674635 -0.000115336015    0.00026674635 -0.000115336016      0.325145893     0.925218473
12.662072            0.321209838     0.926604447   0.000267135197 -0.000115652967   0.000267135197 -0.000115652967      0.325549801     0.925061409
12.6621              0.321613094     0.926449587   0.000267524678 -0.000115970806   0.000267524678 -0.000115970807      0.325953951     0.924904036
12.662128            0.322016594     0.926294419   0.000267914795 -0.000116289536   0.000267914795 -0.000116289537      0.326358345     0.924746354
12.662156            0.322420337     0.926138945   0.000268305549  -0.00011660916   0.000268305549  -0.00011660916      0.326762982      0.92458836
12.662184            0.322824324     0.925983163    0.00026869694 -0.000116929679    0.00026869694 -0.000116929679      0.327167862     0.924430056
12.662212            0.323228555     0.925827072    0.00026908897 -0.000117251097    0.00026908897 -0.000117251097      0.327572986      0.92427144
12.66224             0.323633029     0.925670672   0.000269481639 -0.000117573416   0.000269481639 -0.000117573417      0.327978354     0.924112512
12.662268            0.324037749     0.925513963   0.000269874949  -0.00011789664   0.000269874949  -0.00011789664      0.328383966     0.923953272
12.662296            0.324442712     0.925356944   0.000270268901 -0.000118220771   0.000270268901 -0.000118220771      0.328789822     0.923793717
12.662324            0.324847921     0.925199615   0.000270663496 -0.000118545811   0.000270663495 -0.000118545811      0.329195923     0.923633849
12.662352            0.325253374     0.925041974   0.000271058734 -0.000118871764   0.000271058733 -0.000118871764      0.329602268     0.923473667
12.66238             0.325659072     0.924884021   0.000271454617 -0.000119198632   0.000271454616 -0.000119198632      0.330008857     0.923313169
12.662408            0.326065016     0.924725756   0.000271851145 -0.000119526418   0.000271851145 -0.000119526419      0.330415692     0.923152356
12.662436            0.326471205     0.924567178   0.000272248321 -0.000119855125    0.00027224832 -0.000119855126      0.330822772     0.922991227
12.662464            0.326877639     0.924408286   0.000272646144 -0.000120184756   0.000272646143 -0.000120184756      0.331230096      0.92282978
12.662492            0.327284319      0.92424908   0.000273044616 -0.000120515313   0.000273044615 -0.000120515313      0.331637667     0.922668016
12.66252             0.327691245      0.92408956   0.000273443738   -0.0001208468   0.000273443737   -0.0001208468      0.332045482     0.922505934
12.662548            0.328098417     0.923929724    0.00027384351 -0.000121179218    0.00027384351 -0.000121179219      0.332453544     0.922343534
12.662576            0.328505835     0.923769572   0.000274243935 -0.000121512572   0.000274243935 -0.000121512572      0.332861851     0.922180814
12.662604            0.328913499     0.923609104   0.000274645012 -0.000121846863   0.000274645012 -0.000121846864      0.333270405     0.922017774
12.662632            0.329321411     0.923448318   0.000275046744 -0.000122182096   0.000275046744 -0.000122182096      0.333679205     0.921854414
12.66266             0.329729568     0.923287215    0.00027544913 -0.000122518271    0.00027544913 -0.000122518272      0.334088251     0.921690733
12.662688            0.330137973     0.923125794   0.000275852173 -0.000122855394   0.000275852173 -0.000122855394      0.334497544      0.92152673
12.662716            0.330546625     0.922964054   0.000276255872 -0.000123193465   0.000276255872 -0.000123193466      0.334907083     0.921362405
12.662744            0.330955524     0.922801994    0.00027666023 -0.000123532489    0.00027666023  -0.00012353249      0.335316869     0.921197757
12.662772            0.331364671     0.922639614   0.000277065247 -0.000123872468   0.000277065246 -0.000123872469      0.335726903     0.921032786
12.6628              0.331774065     0.922476914   0.000277470924 -0.000124213406   0.000277470923 -0.000124213406      0.336137184      0.92086749
12.662828            0.332183707     0.922313892   0.000277877262 -0.000124555304   0.000277877261 -0.000124555304      0.336547712      0.92070187
12.662856            0.332593597     0.922150548   0.000278284262 -0.000124898166   0.000278284262 -0.000124898167      0.336958488     0.920535925
12.662884            0.333003736     0.921986882   0.000278691926 -0.000125241995   0.000278691925 -0.000125241996      0.337369511     0.920369654
12.662912            0.333414122     0.921822892   0.000279100254 -0.000125586794   0.000279100253 -0.000125586795      0.337780783     0.920203056
12.66294             0.333824757     0.921658579   0.000279509247 -0.000125932566   0.000279509246 -0.000125932567      0.338192303     0.920036131
12.662968            0.334235641     0.921493942   0.000279918906 -0.000126279314   0.000279918906 -0.000126279315      0.338604071     0.919868879
12.662996            0.334646773      0.92132898   0.000280329233 -0.000126627041   0.000280329233 -0.000126627041      0.339016087     0.919701298
12.663024            0.335058155     0.921163692   0.000280740229  -0.00012697575   0.000280740228  -0.00012697575      0.339428352     0.919533388
12.663052            0.335469785     0.920998078   0.000281151894 -0.000127325443   0.000281151893 -0.000127325443      0.339840866     0.919365148
12.66308             0.335881665     0.920832137   0.000281564229 -0.000127676124   0.000281564229 -0.000127676125      0.340253629     0.919196578
12.663108            0.336293795     0.920665869   0.000281977236 -0.000128027797   0.000281977236 -0.000128027797       0.34066664     0.919027678
12.663136            0.336706174     0.920499273   0.000282390916 -0.000128380463   0.000282390915 -0.000128380463      0.341079902     0.918858446
12.663164            0.337118803     0.920332348   0.000282805269 -0.000128734126   0.000282805269 -0.000128734126      0.341493412     0.918688882
12.663192            0.337531682     0.920165094   0.000283220297 -0.000129088789   0.000283220297  -0.00012908879      0.341907173     0.918518985
12.66322             0.337944812     0.919997509   0.000283636001 -0.000129444456      0.000283636 -0.000129444456      0.342321183     0.918348755
12.663248            0.338358192     0.919829595   0.000284052381 -0.000129801128   0.000284052381 -0.000129801129      0.342735443     0.918178191
12.663276            0.338771822     0.919661349    0.00028446944  -0.00013015881   0.000284469439 -0.000130158811      0.343149953     0.918007292
12.663304            0.339185703     0.919492772   0.000284887177 -0.000130517505   0.000284887176 -0.000130517505      0.343564714     0.917836058
12.663332            0.339599835     0.919323862   0.000285305594 -0.000130877215   0.000285305594 -0.000130877215      0.343979725     0.917664488
12.66336             0.340014218     0.919154619   0.000285724692 -0.000131237944   0.000285724692 -0.000131237944      0.344394987     0.917492582
12.663388            0.340428853     0.918985043   0.000286144472 -0.000131599694   0.000286144472 -0.000131599695      0.344810499     0.917320338
12.663416            0.340843738     0.918815132   0.000286564936  -0.00013196247   0.000286564935  -0.00013196247      0.345226263     0.917147757
12.663444            0.341258876     0.918644886   0.000286986083 -0.000132326273   0.000286986083 -0.000132326274      0.345642278     0.916974838
12.663472            0.341674265     0.918474305   0.000287407916 -0.000132691108   0.000287407915 -0.000132691108      0.346058544     0.916801579
12.6635              0.342089906     0.918303388   0.000287830435 -0.000133056977   0.000287830434 -0.000133056978      0.346475061     0.916627981
