! TOUCHSTONE file generated by CST MICROWAVE STUDIO
! Date and time: Wed Jul 31 14:45:38 2024
! Project name: WaveGuide_BPF-Ver4.1_U-shape_Ku_T3_C4_CWA_2.cst
! Parameters = {cavity_h=16; cavity_l0=10; cavity_l1=15.1871; cavity_l2=16.835; cavity_l3=17.1136; cavity_l4=17.2566; cavity_l5=17.1147; cavity_l6=17.6206; cavity_r=2.5; cavity_screw_l=0.5; cavity_screw_r=1.5; cavity_w=8; iris_h00=0; iris_h01=8.8401; iris_h112=0; iris_h12=5.5882; iris_h211=3.6645; iris_h23=5.2101; iris_h310=3.9782; iris_h34=5.0777; iris_h45=4.9212; iris_h49=4.6086; iris_h56=4.8077; iris_h58=4.4422; iris_h67=6.5847; iris_rx=0.1; iris_screw_l=0.5; iris_screw_r=1.5; iris_shift00=0; iris_shift112=0; iris_shift211=3.5; iris_shift310=0; iris_shift49=0; iris_shift58=3.5; iris_shift67=3.5; iris_tx=4.5; iris_tz=4.5; iris_w00=0; iris_w112=0; iris_w211=4; iris_w310=3.9782; iris_w49=4.6086; iris_w58=4; iris_w67=4; mesh_cavity=5; mesh_iris=7; mesh_screw=7; order=12; reset_all=0; sigma=4.8e+07}
! Header version: 2018
! Port assignment regex: !\s*Touchstone port\s*([0-9]+)\s*=\s*(CST MWS port|CST DS port)\s*([0-9]+|Zmin|Zmax)\s*\(\"(.*)\"\)(\s*mode\s*([0-9]+))?.*
! Touchstone port assignment:
! Touchstone port 1 = CST MWS port 1 ("")
! Touchstone port 2 = CST MWS port 2 ("")
# GHz S RI R 50
12.66                0.335003501     0.922202991   0.000206589488 -9.14030163e-05   0.000206589488 -9.14030163e-05       0.33713049     0.921499678
12.660028            0.335394699     0.922047139   0.000206862359 -9.16352407e-05   0.000206862359 -9.16352406e-05      0.337520229     0.921343385
12.660056            0.335786095     0.921891006   0.000207135629 -9.18680469e-05   0.000207135629 -9.18680469e-05       0.33791008     0.921186842
12.660084            0.336177696     0.921734588   0.000207409293 -9.21014414e-05   0.000207409293 -9.21014413e-05      0.338300086     0.921030033
12.660112             0.33656951     0.921577882   0.000207683349 -9.23354302e-05   0.000207683349 -9.23354302e-05      0.338690292     0.920872941
12.66014             0.336961543     0.921420885   0.000207957791 -9.25700199e-05   0.000207957791 -9.25700198e-05      0.339080741      0.92071555
12.660168            0.337353797     0.921263597   0.000208232621 -9.28052119e-05   0.000208232621 -9.28052119e-05      0.339471433      0.92055786
12.660196            0.337746265     0.921106019   0.000208507841 -9.30410049e-05   0.000208507841 -9.30410049e-05      0.339862339     0.920399881
12.660224            0.338138949     0.920948151   0.000208783452 -9.32774004e-05   0.000208783452 -9.32774004e-05       0.34025346     0.920241612
12.660252            0.338531848     0.920789991   0.000209059455 -9.35144001e-05   0.000209059455 -9.35144001e-05      0.340644796     0.920083053
12.66028             0.338924963     0.920631539   0.000209335851 -9.37520057e-05    0.00020933585 -9.37520057e-05      0.341036346     0.919924203
12.660308            0.339318294     0.920472796   0.000209612638 -9.39902188e-05   0.000209612638 -9.39902187e-05      0.341428111     0.919765061
12.660336             0.33971184      0.92031376   0.000209889819  -9.4229041e-05   0.000209889819 -9.42290409e-05      0.341820091     0.919605628
12.660364            0.340105603      0.92015443   0.000210167394  -9.4468474e-05   0.000210167394 -9.44684739e-05      0.342212286     0.919445902
12.660392            0.340499581     0.919994807   0.000210445363 -9.47085195e-05   0.000210445363 -9.47085194e-05      0.342604697     0.919285884
12.66042             0.340893776      0.91983489   0.000210723726 -9.49491791e-05   0.000210723726 -9.49491791e-05      0.342997322     0.919125572
12.660448            0.341288187     0.919674678   0.000211002484 -9.51904546e-05   0.000211002484 -9.51904546e-05      0.343390163     0.918964967
12.660476            0.341682815     0.919514171   0.000211281638 -9.54323476e-05   0.000211281638 -9.54323476e-05       0.34378322     0.918804067
12.660504            0.342077659     0.919353369   0.000211561188 -9.56748598e-05   0.000211561187 -9.56748597e-05      0.344176492     0.918642873
12.660532             0.34247272      0.91919227   0.000211841134 -9.59179928e-05   0.000211841134 -9.59179928e-05       0.34456998     0.918481383
12.66056             0.342867997     0.919030874   0.000212121477 -9.61617485e-05   0.000212121477 -9.61617485e-05      0.344963684     0.918319597
12.660588            0.343263492     0.918869182   0.000212402217 -9.64061284e-05   0.000212402217 -9.64061284e-05      0.345357604     0.918157515
12.660616            0.343659204     0.918707191   0.000212683356 -9.66511343e-05   0.000212683356 -9.66511343e-05       0.34575174     0.917995136
12.660644            0.344055133     0.918544903   0.000212964893  -9.6896768e-05   0.000212964893 -9.68967679e-05      0.346146092     0.917832459
12.660672            0.344451279     0.918382315   0.000213246828  -9.7143031e-05   0.000213246828  -9.7143031e-05      0.346540661     0.917669485
12.6607              0.344847642     0.918219429   0.000213529163 -9.73899252e-05   0.000213529163 -9.73899251e-05      0.346935447     0.917506212
12.660728            0.345244223     0.918056242   0.000213811898 -9.76374522e-05   0.000213811898 -9.76374522e-05      0.347330448     0.917342641
12.660756            0.345641022     0.917892755   0.000214095033 -9.78856138e-05   0.000214095033 -9.78856138e-05      0.347725667      0.91717877
12.660784            0.346038039     0.917728968   0.000214378569 -9.81344118e-05   0.000214378569 -9.81344117e-05      0.348121103     0.917014599
12.660812            0.346435273     0.917564879   0.000214662506 -9.83838478e-05   0.000214662506 -9.83838478e-05      0.348516756     0.916850127
12.66084             0.346832726     0.917400488   0.000214946845 -9.86339236e-05   0.000214946845 -9.86339236e-05      0.348912625     0.916685355
12.660868            0.347230396     0.917235795   0.000215231586  -9.8884641e-05   0.000215231586  -9.8884641e-05      0.349308712     0.916520281
12.660896            0.347628285     0.917070799   0.000215516729 -9.91360018e-05   0.000215516729 -9.91360017e-05      0.349705017     0.916354905
12.660924            0.348026393       0.9169055   0.000215802276 -9.93880076e-05   0.000215802276 -9.93880075e-05      0.350101539     0.916189226
12.660952            0.348424718     0.916739896   0.000216088226 -9.96406602e-05   0.000216088226 -9.96406602e-05      0.350498278     0.916023244
12.66098             0.348823263     0.916573988   0.000216374581 -9.98939615e-05   0.000216374581 -9.98939615e-05      0.350895236     0.915856959
12.661008            0.349222026     0.916407775    0.00021666134 -0.000100147913    0.00021666134 -0.000100147913      0.351292411     0.915690369
12.661036            0.349621008     0.916241257   0.000216948504 -0.000100402517   0.000216948503 -0.000100402517      0.351689804     0.915523475
12.661064            0.350020209     0.916074432   0.000217236073 -0.000100657775   0.000217236073 -0.000100657775      0.352087415     0.915356276
12.661092            0.350419629     0.915907301   0.000217524048 -0.000100913688   0.000217524048 -0.000100913688      0.352485245     0.915188771
12.66112             0.350819269     0.915739863    0.00021781243  -0.00010117026    0.00021781243  -0.00010117026      0.352883292      0.91502096
12.661148            0.351219128     0.915572117   0.000218101219  -0.00010142749   0.000218101219  -0.00010142749      0.353281559     0.914852841
12.661176            0.351619206     0.915404063   0.000218390415 -0.000101685382   0.000218390415 -0.000101685382      0.353680043     0.914684416
12.661204            0.352019504       0.9152357    0.00021868002 -0.000101943936   0.000218680019 -0.000101943936      0.354078747     0.914515683
12.661232            0.352420021     0.915067028   0.000218970032 -0.000102203156   0.000218970032 -0.000102203156      0.354477669     0.914346641
12.66126             0.352820759     0.914898046   0.000219260453 -0.000102463042   0.000219260453 -0.000102463042      0.354876811      0.91417729
12.661288            0.353221716     0.914728754   0.000219551284 -0.000102723596   0.000219551284 -0.000102723596      0.355276171      0.91400763
12.661316            0.353622893     0.914559151   0.000219842524 -0.000102984821   0.000219842524 -0.000102984821       0.35567575      0.91383766
12.661344            0.354024291     0.914389236   0.000220134174 -0.000103246718   0.000220134174 -0.000103246718      0.356075549     0.913667379
12.661372            0.354425909     0.914219009   0.000220426236 -0.000103509289   0.000220426235 -0.000103509289      0.356475567     0.913496788
12.6614              0.354827747      0.91404847   0.000220718708 -0.000103772536   0.000220718708 -0.000103772536      0.356875805     0.913325884
12.661428            0.355229806     0.913877618   0.000221011592  -0.00010403646   0.000221011592  -0.00010403646      0.357276263     0.913154669
12.661456            0.355632085     0.913706452   0.000221304888 -0.000104301064   0.000221304888 -0.000104301064       0.35767694     0.912983141
12.661484            0.356034585     0.913534972   0.000221598597  -0.00010456635   0.000221598596  -0.00010456635      0.358077837     0.912811299
12.661512            0.356437306     0.913363178   0.000221892718 -0.000104832318   0.000221892718 -0.000104832318      0.358478954     0.912639144
12.66154             0.356840248     0.913191068   0.000222187253 -0.000105098972   0.000222187253 -0.000105098972      0.358880291     0.912466674
12.661568            0.357243412     0.913018642   0.000222482203 -0.000105366313   0.000222482203 -0.000105366313      0.359281848     0.912293889
12.661596            0.357646796       0.9128459   0.000222777566 -0.000105634343   0.000222777566 -0.000105634343      0.359683626     0.912120789
12.661624            0.358050402     0.912672841   0.000223073345 -0.000105903063   0.000223073345 -0.000105903063      0.360085624     0.911947373
12.661652            0.358454229     0.912499465   0.000223369539 -0.000106172477   0.000223369539 -0.000106172476      0.360487843     0.911773641
12.66168             0.358858278     0.912325771   0.000223666148 -0.000106442584   0.000223666148 -0.000106442584      0.360890283     0.911599591
12.661708            0.359262549     0.912151758   0.000223963174 -0.000106713389   0.000223963174 -0.000106713389      0.361292943     0.911425224
12.661736            0.359667041     0.911977426   0.000224260617 -0.000106984892   0.000224260617 -0.000106984892      0.361695824     0.911250538
12.661764            0.360071755     0.911802774   0.000224558477 -0.000107257095   0.000224558477 -0.000107257095      0.362098927     0.911075534
12.661792            0.360476692     0.911627802   0.000224856755 -0.000107530001   0.000224856755 -0.000107530001       0.36250225      0.91090021
12.66182              0.36088185     0.911452509   0.000225155451 -0.000107803611   0.000225155451 -0.000107803611      0.362905795     0.910724567
12.661848            0.361287231     0.911276895   0.000225454566 -0.000108077927   0.000225454566 -0.000108077927      0.363309561     0.910548603
12.661876            0.361692834     0.911100959   0.000225754099 -0.000108352951   0.000225754099 -0.000108352951      0.363713549     0.910372318
12.661904             0.36209866     0.910924701   0.000226054053 -0.000108628685   0.000226054052 -0.000108628685      0.364117759     0.910195711
12.661932            0.362504708     0.910748119   0.000226354426 -0.000108905131   0.000226354426 -0.000108905131       0.36452219     0.910018782
12.66196             0.362910979     0.910571214    0.00022665522 -0.000109182292   0.000226655219 -0.000109182292      0.364926843     0.909841531
12.661988            0.363317473     0.910393985   0.000226956434 -0.000109460168   0.000226956434 -0.000109460168      0.365331718     0.909663956
12.662016             0.36372419      0.91021643    0.00022725807 -0.000109738762    0.00022725807 -0.000109738762      0.365736815     0.909486058
12.662044             0.36413113     0.910038551   0.000227560128 -0.000110018076   0.000227560128 -0.000110018076      0.366142134     0.909307835
12.662072            0.364538293     0.909860346   0.000227862609 -0.000110298112   0.000227862608 -0.000110298112      0.366547676     0.909129287
12.6621               0.36494568     0.909681814   0.000228165512 -0.000110578872   0.000228165512 -0.000110578872       0.36695344     0.908950414
12.662128             0.36535329     0.909502955   0.000228468838 -0.000110860358   0.000228468838 -0.000110860358      0.367359427     0.908771214
12.662156            0.365761123     0.909323769   0.000228772588 -0.000111142571   0.000228772588 -0.000111142571      0.367765636     0.908591688
12.662184             0.36616918     0.909144254   0.000229076762 -0.000111425515   0.000229076762 -0.000111425515      0.368172068     0.908411834
12.662212            0.366577461     0.908964411   0.000229381361  -0.00011170919   0.000229381361  -0.00011170919      0.368578723     0.908231653
12.66224             0.366985966     0.908784238   0.000229686385   -0.0001119936   0.000229686385   -0.0001119936      0.368985601     0.908051143
12.662268            0.367394695     0.908603735   0.000229991834 -0.000112278745   0.000229991834 -0.000112278745      0.369392702     0.907870305
12.662296            0.367803647     0.908422902   0.000230297709 -0.000112564629   0.000230297709 -0.000112564628      0.369800027     0.907689136
12.662324            0.368212825     0.908241738   0.000230604011 -0.000112851252   0.000230604011 -0.000112851252      0.370207574     0.907507638
12.662352            0.368622226     0.908060242    0.00023091074 -0.000113138617    0.00023091074 -0.000113138617      0.370615346     0.907325809
12.66238             0.369031852     0.907878414   0.000231217896 -0.000113426727   0.000231217896 -0.000113426727       0.37102334     0.907143648
12.662408            0.369441702     0.907696253    0.00023152548 -0.000113715583    0.00023152548 -0.000113715583      0.371431559     0.906961156
12.662436            0.369851777     0.907513759   0.000231833492 -0.000114005186   0.000231833492 -0.000114005186      0.371840001     0.906778331
12.662464            0.370262077     0.907330931   0.000232141933 -0.000114295541   0.000232141933 -0.000114295541      0.372248667     0.906595174
12.662492            0.370672602     0.907147768   0.000232450803 -0.000114586647   0.000232450803 -0.000114586647      0.372657558     0.906411682
12.66252             0.371083352      0.90696427   0.000232760102 -0.000114878508   0.000232760102 -0.000114878508      0.373066672     0.906227856
12.662548            0.371494326     0.906780436   0.000233069832 -0.000115171126   0.000233069832 -0.000115171126      0.373476011     0.906043696
12.662576            0.371905526     0.906596265   0.000233379992 -0.000115464502   0.000233379992 -0.000115464502      0.373885574       0.9058592
12.662604            0.372316952     0.906411758   0.000233690583 -0.000115758639   0.000233690583 -0.000115758639      0.374295361     0.905674368
12.662632            0.372728603     0.906226914   0.000234001606 -0.000116053539   0.000234001606 -0.000116053539      0.374705373     0.905489199
12.66266             0.373140479     0.906041731    0.00023431306 -0.000116349204    0.00023431306 -0.000116349204       0.37511561     0.905303693
12.662688            0.373552581     0.905856209   0.000234624947 -0.000116645636   0.000234624947 -0.000116645636      0.375526072      0.90511785
12.662716            0.373964909     0.905670348   0.000234937266 -0.000116942837   0.000234937266 -0.000116942837      0.375936758     0.904931668
12.662744            0.374377463     0.905484147   0.000235250019 -0.000117240809   0.000235250018 -0.000117240809       0.37634767     0.904745147
12.662772            0.374790242     0.905297606   0.000235563205 -0.000117539555   0.000235563205 -0.000117539555      0.376758806     0.904558286
12.6628              0.375203248     0.905110723   0.000235876825 -0.000117839077   0.000235876825 -0.000117839077      0.377170168     0.904371086
12.662828             0.37561648     0.904923499    0.00023619088 -0.000118139376    0.00023619088 -0.000118139376      0.377581756     0.904183544
12.662856            0.376029938     0.904735932   0.000236505369 -0.000118440455   0.000236505369 -0.000118440455      0.377993568     0.903995661
12.662884            0.376443623     0.904548022   0.000236820295 -0.000118742316   0.000236820295 -0.000118742316      0.378405607     0.903807437
12.662912            0.376857534     0.904359769   0.000237135656 -0.000119044962   0.000237135655 -0.000119044961      0.378817871     0.903618869
12.66294             0.377271672     0.904171172   0.000237451453 -0.000119348393   0.000237451453 -0.000119348393      0.379230361     0.903429958
12.662968            0.377686037      0.90398223   0.000237767687 -0.000119652614   0.000237767687 -0.000119652614      0.379643076     0.903240704
12.662996            0.378100628     0.903792942   0.000238084358 -0.000119957625   0.000238084358 -0.000119957625      0.380056018     0.903051105
12.663024            0.378515447     0.903603309   0.000238401467 -0.000120263429   0.000238401466 -0.000120263429      0.380469186     0.902861161
12.663052            0.378930492     0.903413328   0.000238719013 -0.000120570028   0.000238719013 -0.000120570028       0.38088258     0.902670871
12.66308             0.379345765     0.903223001   0.000239036999 -0.000120877425   0.000239036998 -0.000120877425        0.3812962     0.902480236
12.663108            0.379761265     0.903032326   0.000239355423 -0.000121185621   0.000239355423 -0.000121185621      0.381710047     0.902289253
12.663136            0.380176993     0.902841302   0.000239674286 -0.000121494619   0.000239674286 -0.000121494619      0.382124121     0.902097923
12.663164            0.380592947     0.902649929   0.000239993589 -0.000121804421   0.000239993589 -0.000121804421      0.382538421     0.901906244
12.663192             0.38100913     0.902458207   0.000240313333 -0.000122115029   0.000240313333 -0.000122115029      0.382952948     0.901714217
12.66322              0.38142554     0.902266134   0.000240633517 -0.000122426446   0.000240633517 -0.000122426446      0.383367701     0.901521841
12.663248            0.381842178      0.90207371   0.000240954142 -0.000122738673   0.000240954142 -0.000122738673      0.383782682     0.901329114
12.663276            0.382259044     0.901880935   0.000241275208 -0.000123051714   0.000241275208 -0.000123051714       0.38419789     0.901136038
12.663304            0.382676138     0.901687807   0.000241596717  -0.00012336557   0.000241596717  -0.00012336557      0.384613325     0.900942609
12.663332             0.38309346     0.901494327   0.000241918668 -0.000123680243   0.000241918668 -0.000123680243      0.385028987     0.900748829
12.66336              0.38351101     0.901300493   0.000242241061 -0.000123995736   0.000242241061 -0.000123995736      0.385444877     0.900554697
12.663388            0.383928789     0.901106305   0.000242563898 -0.000124312051   0.000242563898 -0.000124312051      0.385860994     0.900360211
12.663416            0.384346796     0.900911763   0.000242887178  -0.00012462919   0.000242887178  -0.00012462919      0.386277339     0.900165372
12.663444            0.384765032     0.900716865   0.000243210903 -0.000124947156   0.000243210903 -0.000124947156      0.386693912     0.899970178
12.663472            0.385183496     0.900521611   0.000243535072 -0.000125265951   0.000243535072 -0.000125265951      0.387110712      0.89977463
12.6635              0.385602189        0.900326   0.000243859686 -0.000125585577   0.000243859686 -0.000125585577       0.38752774     0.899578726
