! TOUCHSTONE file generated by CST MICROWAVE STUDIO
! Date and time: Wed Jul 31 15:07:23 2024
! Project name: WaveGuide_BPF-Ver4.1_U-shape_Ku_T3_C4_CWA_2.cst
! Parameters = {cavity_h=16; cavity_l0=10; cavity_l1=15.2177; cavity_l2=16.8072; cavity_l3=17.0895; cavity_l4=17.2585; cavity_l5=17.1401; cavity_l6=17.5796; cavity_r=2.5; cavity_screw_l=0.5; cavity_screw_r=1.5; cavity_w=8; iris_h00=0; iris_h01=8.8234; iris_h112=0; iris_h12=5.586; iris_h211=3.6548; iris_h23=5.2046; iris_h310=3.9724; iris_h34=5.0689; iris_h45=4.9373; iris_h49=4.619; iris_h56=4.8018; iris_h58=4.4389; iris_h67=6.573; iris_rx=0.1; iris_screw_l=0.5; iris_screw_r=1.5; iris_shift00=0; iris_shift112=0; iris_shift211=3.5; iris_shift310=0; iris_shift49=0; iris_shift58=3.5; iris_shift67=3.5; iris_tx=4.5; iris_tz=4.5; iris_w00=0; iris_w112=0; iris_w211=4; iris_w310=3.9724; iris_w49=4.619; iris_w58=4; iris_w67=4; mesh_cavity=5; mesh_iris=7; mesh_screw=7; order=12; reset_all=0; sigma=4.8e+07}
! Header version: 2018
! Port assignment regex: !\s*Touchstone port\s*([0-9]+)\s*=\s*(CST MWS port|CST DS port)\s*([0-9]+|Zmin|Zmax)\s*\(\"(.*)\"\)(\s*mode\s*([0-9]+))?.*
! Touchstone port assignment:
! Touchstone port 1 = CST MWS port 1 ("")
! Touchstone port 2 = CST MWS port 2 ("")
# GHz S RI R 50
12.66                0.374487594     0.905289864   0.000175616494 -8.74688266e-05   0.000175616492 -8.74688257e-05      0.384069649     0.901102045
12.660028            0.374902971     0.905102715   0.000175829869 -8.76820721e-05   0.000175829868 -8.76820712e-05      0.384488403     0.900907949
12.660056            0.375318577     0.904915223     0.0001760435 -8.78958353e-05   0.000176043499 -8.78958344e-05      0.384907348     0.900713516
12.660084            0.375734407      0.90472739   0.000176257387 -8.81101178e-05   0.000176257385 -8.81101169e-05      0.385326496     0.900518741
12.660112            0.376150453     0.904539219   0.000176471529 -8.83249212e-05   0.000176471528 -8.83249202e-05      0.385745855     0.900323619
12.66014             0.376566711     0.904350712   0.000176685927 -8.85402469e-05   0.000176685926 -8.85402459e-05      0.386165435     0.900128147
12.660168            0.376983178     0.904161867   0.000176900581 -8.87560963e-05   0.000176900579 -8.87560954e-05      0.386585236     0.899932323
12.660196            0.377399861     0.903972683    0.00017711549 -8.89724707e-05   0.000177115489 -8.89724697e-05      0.387005251     0.899736149
12.660224            0.377816759      0.90378316   0.000177330656 -8.91893713e-05   0.000177330655 -8.91893703e-05      0.387425481     0.899539626
12.660252            0.378233872     0.903593296   0.000177546078 -8.94067994e-05   0.000177546077 -8.94067985e-05      0.387845926     0.899342751
12.66028             0.378651201      0.90340309   0.000177761756 -8.96247565e-05   0.000177761755 -8.96247556e-05      0.388266586     0.899145526
12.660308            0.379068744     0.903212544   0.000177977691 -8.98432439e-05    0.00017797769 -8.98432429e-05      0.388687461     0.898947949
12.660336            0.379486503     0.903021655   0.000178193883 -9.00622629e-05   0.000178193882 -9.00622619e-05      0.389108551     0.898750019
12.660364            0.379904477     0.902830423   0.000178410332 -9.02818148e-05    0.00017841033 -9.02818139e-05      0.389529856     0.898551737
12.660392            0.380322667     0.902638848   0.000178627037 -9.05019012e-05   0.000178627036 -9.05019002e-05      0.389951376       0.8983531
12.66042             0.380741072     0.902446929      0.000178844 -9.07225232e-05   0.000178843999 -9.07225222e-05      0.390373111      0.89815411
12.660448            0.381159692     0.902254666    0.00017906122 -9.09436822e-05   0.000179061219 -9.09436813e-05      0.390795061     0.897954765
12.660476            0.381578529     0.902062058   0.000179278698 -9.11653798e-05   0.000179278697 -9.11653788e-05      0.391217226     0.897755065
12.660504            0.381997581     0.901869104   0.000179496433 -9.13876171e-05   0.000179496432 -9.13876161e-05      0.391639607     0.897555009
12.660532            0.382416848     0.901675804   0.000179714426 -9.16103956e-05   0.000179714425 -9.16103946e-05      0.392062203     0.897354596
12.66056             0.382836332     0.901482158   0.000179932677 -9.18337167e-05   0.000179932676 -9.18337157e-05      0.392485014     0.897153826
12.660588            0.383256031     0.901288164   0.000180151186 -9.20575817e-05   0.000180151185 -9.20575807e-05      0.392908041     0.896952698
12.660616            0.383675946     0.901093822   0.000180369953 -9.22819921e-05   0.000180369952 -9.22819911e-05      0.393331283     0.896751212
12.660644            0.384096077     0.900899132   0.000180588979 -9.25069492e-05   0.000180588977 -9.25069482e-05      0.393754741     0.896549368
12.660672            0.384516424     0.900704092   0.000180808262 -9.27324544e-05   0.000180808261 -9.27324535e-05      0.394178415     0.896347163
12.6607              0.384936988     0.900508703   0.000181027805 -9.29585092e-05   0.000181027803 -9.29585082e-05      0.394602304     0.896144599
12.660728            0.385357767     0.900312964   0.000181247606 -9.31851149e-05   0.000181247605 -9.31851139e-05      0.395026408     0.895941674
12.660756            0.385778763     0.900116874   0.000181467666 -9.34122729e-05   0.000181467665 -9.34122719e-05      0.395450729     0.895738388
12.660784            0.386199974     0.899920432   0.000181687985 -9.36399846e-05   0.000181687983 -9.36399837e-05      0.395875265     0.895534739
12.660812            0.386621403     0.899723639   0.000181908563 -9.38682516e-05   0.000181908561 -9.38682506e-05      0.396300017     0.895330729
12.66084             0.387043047     0.899526493     0.0001821294 -9.40970751e-05   0.000182129399 -9.40970741e-05      0.396724985     0.895126355
12.660868            0.387464908     0.899328994   0.000182350497 -9.43264566e-05   0.000182350495 -9.43264556e-05      0.397150168     0.894921617
12.660896            0.387886985     0.899131141   0.000182571853 -9.45563975e-05   0.000182571852 -9.45563965e-05      0.397575568     0.894716515
12.660924            0.388309279     0.898932934   0.000182793469 -9.47868992e-05   0.000182793467 -9.47868982e-05      0.398001184     0.894511048
12.660952             0.38873179     0.898734372   0.000183015344 -9.50179633e-05   0.000183015343 -9.50179623e-05      0.398427015     0.894305216
12.66098             0.389154517     0.898535454   0.000183237479  -9.5249591e-05   0.000183237478   -9.524959e-05      0.398853063     0.894099018
12.661008            0.389577461      0.89833618   0.000183459875 -9.54817839e-05   0.000183459873 -9.54817829e-05      0.399279327     0.893892452
12.661036            0.390000621      0.89813655    0.00018368253 -9.57145435e-05   0.000183682529 -9.57145425e-05      0.399705807      0.89368552
12.661064            0.390423999     0.897936562   0.000183905446  -9.5947871e-05   0.000183905445   -9.594787e-05      0.400132503     0.893478219
12.661092            0.390847593     0.897736216   0.000184128622 -9.61817681e-05   0.000184128621 -9.61817671e-05      0.400559416      0.89327055
12.66112             0.391271404     0.897535512   0.000184352059 -9.64162361e-05   0.000184352057 -9.64162351e-05      0.400986544     0.893062512
12.661148            0.391695432     0.897334449   0.000184575756 -9.66512765e-05   0.000184575755 -9.66512755e-05      0.401413889     0.892854103
12.661176            0.392119677     0.897133026   0.000184799714 -9.68868909e-05   0.000184799712 -9.68868899e-05      0.401841451     0.892645325
12.661204            0.392544139     0.896931243   0.000185023932 -9.71230805e-05   0.000185023931 -9.71230795e-05      0.402269229     0.892436175
12.661232            0.392968818     0.896729099   0.000185248412  -9.7359847e-05   0.000185248411  -9.7359846e-05      0.402697223     0.892226654
12.66126             0.393393715     0.896526593   0.000185473153 -9.75971917e-05   0.000185473152 -9.75971907e-05      0.403125434      0.89201676
12.661288            0.393818828     0.896323725   0.000185698155 -9.78351163e-05   0.000185698153 -9.78351153e-05      0.403553861     0.891806493
12.661316            0.394244159     0.896120495   0.000185923418  -9.8073622e-05   0.000185923417  -9.8073621e-05      0.403982505     0.891595853
12.661344            0.394669707     0.895916901   0.000186148942 -9.83127106e-05   0.000186148941 -9.83127096e-05      0.404411366     0.891384839
12.661372            0.395095472     0.895712943   0.000186374729 -9.85523833e-05   0.000186374727 -9.85523823e-05      0.404840443     0.891173449
12.6614              0.395521455     0.895508621   0.000186600776 -9.87926418e-05   0.000186600775 -9.87926407e-05      0.405269737     0.890961685
12.661428            0.395947655     0.895303933   0.000186827086 -9.90334874e-05   0.000186827084 -9.90334864e-05      0.405699247     0.890749544
12.661456            0.396374073      0.89509888   0.000187053657 -9.92749218e-05   0.000187053656 -9.92749208e-05      0.406128975     0.890537027
12.661484            0.396800708      0.89489346    0.00018728049 -9.95169464e-05   0.000187280489 -9.95169454e-05      0.406558919     0.890324132
12.661512            0.397227561     0.894687674   0.000187507585 -9.97595628e-05   0.000187507584 -9.97595618e-05       0.40698908     0.890110859
12.66154             0.397654632      0.89448152   0.000187734943 -0.000100002772   0.000187734942 -0.000100002771      0.407419458     0.889897208
12.661568             0.39808192     0.894274997   0.000187962562 -0.000100246577   0.000187962561 -0.000100246576      0.407850052     0.889683178
12.661596            0.398509426     0.894068106   0.000188190444 -0.000100490977   0.000188190443 -0.000100490976      0.408280864     0.889468767
12.661624            0.398937149     0.893860845   0.000188418589 -0.000100735976   0.000188418587 -0.000100735975      0.408711892     0.889253977
12.661652            0.399365091     0.893653214   0.000188646996 -0.000100981574   0.000188646994 -0.000100981573      0.409143138     0.889038805
12.66168              0.39979325     0.893445213   0.000188875665 -0.000101227772   0.000188875664 -0.000101227771      0.409574601     0.888823251
12.661708            0.400221627      0.89323684   0.000189104597 -0.000101474574   0.000189104596 -0.000101474572       0.41000628     0.888607315
12.661736            0.400650222     0.893028095   0.000189333793 -0.000101721979   0.000189333791 -0.000101721978      0.410438177     0.888390996
12.661764            0.401079035     0.892818978   0.000189563251 -0.000101969989   0.000189563249 -0.000101969988      0.410870291     0.888174293
12.661792            0.401508067     0.892609487   0.000189792972 -0.000102218607    0.00018979297 -0.000102218606      0.411302622     0.887957206
12.66182             0.401937316     0.892399623   0.000190022956 -0.000102467833   0.000190022954 -0.000102467832       0.41173517     0.887739733
12.661848            0.402366783     0.892189384   0.000190253203 -0.000102717669   0.000190253202 -0.000102717668      0.412167936     0.887521876
12.661876            0.402796468      0.89197877   0.000190483713 -0.000102968118   0.000190483712 -0.000102968116      0.412600919     0.887303632
12.661904            0.403226372      0.89176778   0.000190714487 -0.000103219179   0.000190714486 -0.000103219178      0.413034119     0.887085001
12.661932            0.403656494     0.891556414   0.000190945525 -0.000103470855   0.000190945523 -0.000103470854      0.413467536     0.886865982
12.66196             0.404086834     0.891344671   0.000191176825 -0.000103723148   0.000191176824 -0.000103723147       0.41390117     0.886646575
12.661988            0.404517392      0.89113255    0.00019140839 -0.000103976059   0.000191408389 -0.000103976058      0.414335022     0.886426779
12.662016            0.404948169     0.890920052   0.000191640218 -0.000104229589   0.000191640217 -0.000104229588      0.414769092     0.886206594
12.662044            0.405379164     0.890707174    0.00019187231 -0.000104483741   0.000191872309 -0.000104483739      0.415203379     0.885986019
12.662072            0.405810377     0.890493917   0.000192104665 -0.000104738515   0.000192104664 -0.000104738514      0.415637883     0.885765053
12.6621              0.406241809     0.890280279   0.000192337285 -0.000104993914   0.000192337284 -0.000104993912      0.416072604     0.885543695
12.662128             0.40667346     0.890066261   0.000192570169 -0.000105249938   0.000192570167 -0.000105249937      0.416507544     0.885321945
12.662156            0.407105328     0.889851861   0.000192803316  -0.00010550659   0.000192803315 -0.000105506589        0.4169427     0.885099802
12.662184            0.407537416      0.88963708   0.000193036728 -0.000105763872   0.000193036727 -0.000105763871      0.417378074     0.884877266
12.662212            0.407969722     0.889421915   0.000193270404 -0.000106021784   0.000193270403 -0.000106021783      0.417813666     0.884654336
12.66224             0.408402247     0.889206367   0.000193504344 -0.000106280329   0.000193504343 -0.000106280328      0.418249476     0.884431011
12.662268             0.40883499     0.888990435   0.000193738549 -0.000106539507   0.000193738547 -0.000106539506      0.418685503      0.88420729
12.662296            0.409267952     0.888774119   0.000193973018 -0.000106799322   0.000193973016 -0.000106799321      0.419121747     0.883983174
12.662324            0.409701133     0.888557417   0.000194207751 -0.000107059773    0.00019420775 -0.000107059772      0.419558209      0.88375866
12.662352            0.410134532     0.888340329   0.000194442749 -0.000107320864   0.000194442748 -0.000107320863      0.419994889     0.883533749
12.66238             0.410568151     0.888122855   0.000194678012 -0.000107582595    0.00019467801 -0.000107582594      0.420431787      0.88330844
12.662408            0.411001988     0.887904993   0.000194913539 -0.000107844968   0.000194913537 -0.000107844967      0.420868902     0.883082733
12.662436            0.411436044     0.887686744   0.000195149331 -0.000108107985   0.000195149329 -0.000108107984      0.421306235     0.882856625
12.662464            0.411870319     0.887468106   0.000195385387 -0.000108371648   0.000195385386 -0.000108371647      0.421743786     0.882630118
12.662492            0.412304813     0.887249079   0.000195621709 -0.000108635958   0.000195621707 -0.000108635957      0.422181554      0.88240321
12.66252             0.412739525     0.887029661   0.000195858295 -0.000108900917   0.000195858294 -0.000108900915      0.422619541       0.8821759
12.662548            0.413174457     0.886809854   0.000196095146 -0.000109166526   0.000196095145 -0.000109166525      0.423057745     0.881948188
12.662576            0.413609608     0.886589655   0.000196332262 -0.000109432787   0.000196332261 -0.000109432786      0.423496167     0.881720073
12.662604            0.414044977     0.886369064   0.000196569644 -0.000109699702   0.000196569642 -0.000109699701      0.423934806     0.881491555
12.662632            0.414480566     0.886148081    0.00019680729 -0.000109967273   0.000196807289 -0.000109967272      0.424373664     0.881262632
12.66266             0.414916374     0.885926704   0.000197045201   -0.0001102355     0.0001970452 -0.000110235499       0.42481274     0.881033305
12.662688            0.415352401     0.885704934   0.000197283378 -0.000110504387   0.000197283377 -0.000110504386      0.425252033     0.880803572
12.662716            0.415788647     0.885482769    0.00019752182 -0.000110773934   0.000197521818 -0.000110773933      0.425691544     0.880573433
12.662744            0.416225113     0.885260209   0.000197760527 -0.000111044144   0.000197760525 -0.000111044143      0.426131273     0.880342887
12.662772            0.416661797     0.885037253   0.000197999499 -0.000111315017   0.000197999498 -0.000111315016       0.42657122     0.880111933
12.6628              0.417098701     0.884813901   0.000198238737 -0.000111586556   0.000198238735 -0.000111586555      0.427011385     0.879880571
12.662828            0.417535824     0.884590152    0.00019847824 -0.000111858763   0.000198478238 -0.000111858761      0.427451768       0.8796488
12.662856            0.417973166     0.884366004   0.000198718008 -0.000112131638   0.000198718007 -0.000112131637      0.427892369     0.879416619
12.662884            0.418410728     0.884141459   0.000198958042 -0.000112405184    0.00019895804 -0.000112405183      0.428333188     0.879184028
12.662912            0.418848508     0.883916514   0.000199198341 -0.000112679403    0.00019919834 -0.000112679402      0.428774225     0.878951026
12.66294             0.419286509     0.883691169   0.000199438906 -0.000112954296   0.000199438904 -0.000112954295      0.429215479     0.878717612
12.662968            0.419724728     0.883465423   0.000199679736 -0.000113229865   0.000199679735 -0.000113229864      0.429656952     0.878483786
12.662996            0.420163167     0.883239277   0.000199920832 -0.000113506112    0.00019992083 -0.000113506111      0.430098643     0.878249546
12.663024            0.420601825     0.883012728   0.000200162193 -0.000113783038   0.000200162192 -0.000113783037      0.430540551     0.878014893
12.663052            0.421040703     0.882785777    0.00020040382 -0.000114060645   0.000200403818 -0.000114060644      0.430982678     0.877779825
12.66308               0.4214798     0.882558423   0.000200645712 -0.000114338936   0.000200645711 -0.000114338935      0.431425023     0.877544342
12.663108            0.421919116     0.882330664    0.00020088787 -0.000114617911   0.000200887869 -0.000114617909      0.431867586     0.877308443
12.663136            0.422358652     0.882102501   0.000201130294 -0.000114897572   0.000201130293 -0.000114897571      0.432310366     0.877072127
12.663164            0.422798408     0.881873933   0.000201372983 -0.000115177922   0.000201372982 -0.000115177921      0.432753365     0.876835394
12.663192            0.423238383     0.881644959   0.000201615938 -0.000115458961   0.000201615937  -0.00011545896      0.433196582     0.876598242
12.66322             0.423678578     0.881415578   0.000201859159 -0.000115740693   0.000201859158 -0.000115740692      0.433640017     0.876360672
12.663248            0.424118992     0.881185789   0.000202102645 -0.000116023118   0.000202102644 -0.000116023116       0.43408367     0.876122683
12.663276            0.424559625     0.880955593   0.000202346398 -0.000116306238   0.000202346396 -0.000116306237      0.434527541     0.875884273
12.663304            0.425000478     0.880724988   0.000202590415 -0.000116590055   0.000202590414 -0.000116590054       0.43497163     0.875645443
12.663332            0.425441551     0.880493973   0.000202834699 -0.000116874571   0.000202834698  -0.00011687457      0.435415937      0.87540619
12.66336             0.425882844     0.880262549   0.000203079248 -0.000117159788   0.000203079247 -0.000117159787      0.435860462     0.875166516
12.663388            0.426324355     0.880030713   0.000203324063 -0.000117445707   0.000203324062 -0.000117445706      0.436305205     0.874926418
12.663416            0.426766087     0.879798466   0.000203569143 -0.000117732331   0.000203569142  -0.00011773233      0.436750166     0.874685897
12.663444            0.427208038     0.879565807    0.00020381449 -0.000118019661   0.000203814488  -0.00011801966      0.437195346     0.874444951
12.663472            0.427650209     0.879332735   0.000204060102 -0.000118307698     0.0002040601 -0.000118307697      0.437640743      0.87420358
12.6635                0.4280926     0.879099249   0.000204305979 -0.000118596446   0.000204305978 -0.000118596445      0.438086358     0.873961784
