! TOUCHSTONE file generated by CST MICROWAVE STUDIO
! Date and time: Wed Jul 31 15:10:35 2024
! Project name: WaveGuide_BPF-Ver4.1_U-shape_Ku_T3_C4_CWA_2.cst
! Parameters = {cavity_h=16; cavity_l0=10; cavity_l1=15.1893; cavity_l2=16.8609; cavity_l3=17.1289; cavity_l4=17.2656; cavity_l5=17.0976; cavity_l6=17.6178; cavity_r=2.5; cavity_screw_l=0.5; cavity_screw_r=1.5; cavity_w=8; iris_h00=0; iris_h01=8.8381; iris_h112=0; iris_h12=5.5995; iris_h211=3.6565; iris_h23=5.1885; iris_h310=3.9605; iris_h34=5.0674; iris_h45=4.9399; iris_h49=4.6236; iris_h56=4.7928; iris_h58=4.4509; iris_h67=6.5643; iris_rx=0.1; iris_screw_l=0.5; iris_screw_r=1.5; iris_shift00=0; iris_shift112=0; iris_shift211=3.5; iris_shift310=0; iris_shift49=0; iris_shift58=3.5; iris_shift67=3.5; iris_tx=4.5; iris_tz=4.5; iris_w00=0; iris_w112=0; iris_w211=4; iris_w310=3.9605; iris_w49=4.6236; iris_w58=4; iris_w67=4; mesh_cavity=5; mesh_iris=7; mesh_screw=7; order=12; reset_all=0; sigma=4.8e+07}
! Header version: 2018
! Port assignment regex: !\s*Touchstone port\s*([0-9]+)\s*=\s*(CST MWS port|CST DS port)\s*([0-9]+|Zmin|Zmax)\s*\(\"(.*)\"\)(\s*mode\s*([0-9]+))?.*
! Touchstone port assignment:
! Touchstone port 1 = CST MWS port 1 ("")
! Touchstone port 2 = CST MWS port 2 ("")
# GHz S RI R 50
12.66                0.357346229     0.912429892   0.000271842646 -0.000131950793   0.000271842645 -0.000131950793      0.368581138     0.907799085
12.660028            0.357760212     0.912251531   0.000272227934 -0.000132302627   0.000272227934 -0.000132302627      0.368997563     0.907613503
12.660056            0.358174411     0.912072838   0.000272613793 -0.000132655443   0.000272613793 -0.000132655443        0.3694144     0.907427502
12.660084            0.358588837     0.911893811    0.00027300023 -0.000133009236    0.00027300023 -0.000133009237      0.369831576     0.907241112
12.660112            0.359003502     0.911714443   0.000273387255 -0.000133364003   0.000273387255 -0.000133364004      0.370249018      0.90705436
12.66014             0.359418417      0.91153473   0.000273774877 -0.000133719739   0.000273774877 -0.000133719739      0.370666653     0.906867275
12.660168            0.359833582     0.911354671   0.000274163096 -0.000134076446   0.000274163096 -0.000134076446       0.37108448     0.906679857
12.660196             0.36024899     0.911174269   0.000274551908 -0.000134434132   0.000274551908 -0.000134434132      0.371502549     0.906492085
12.660224            0.360664641     0.910993522   0.000274941314   -0.0001347928   0.000274941314 -0.000134792801      0.371920861     0.906303959
12.660252            0.361080536      0.91081243   0.000275331314 -0.000135152454   0.000275331314 -0.000135152455      0.372339414     0.906115478
12.66028             0.361496674     0.910630993   0.000275721909 -0.000135513096   0.000275721909 -0.000135513097      0.372758209     0.905926641
12.660308            0.361913055     0.910449209   0.000276113101 -0.000135874729     0.0002761131 -0.000135874729      0.373177247     0.905737448
12.660336             0.36232968     0.910267079   0.000276504888 -0.000136237356   0.000276504888 -0.000136237356      0.373596527     0.905547898
12.660364            0.362746549     0.910084602   0.000276897274 -0.000136600979   0.000276897273  -0.00013660098       0.37401605     0.905357991
12.660392            0.363163662     0.909901776   0.000277290257 -0.000136965603   0.000277290257 -0.000136965603      0.374435816     0.905167725
12.66042              0.36358102     0.909718601    0.00027768384 -0.000137331229   0.000277683839  -0.00013733123      0.374855825       0.9049771
12.660448            0.363998621     0.909535077   0.000278078022 -0.000137697862   0.000278078022 -0.000137697862      0.375276076     0.904786116
12.660476            0.364416467     0.909351203   0.000278472805 -0.000138065503   0.000278472804 -0.000138065503      0.375696572     0.904594771
12.660504            0.364834558     0.909166978   0.000278868189 -0.000138434156   0.000278868189 -0.000138434156       0.37611731     0.904403066
12.660532            0.365252894     0.908982401   0.000279264175 -0.000138803823   0.000279264175 -0.000138803824      0.376538292     0.904210999
12.66056             0.365671474     0.908797473   0.000279660764 -0.000139174509   0.000279660764 -0.000139174509      0.376959517     0.904018569
12.660588              0.3660903     0.908612191   0.000280057956 -0.000139546215   0.000280057956 -0.000139546216      0.377380987     0.903825777
12.660616            0.366509371     0.908426557   0.000280455753 -0.000139918946   0.000280455753 -0.000139918946        0.3778027     0.903632621
12.660644            0.366928687     0.908240568   0.000280854155 -0.000140292703   0.000280854155 -0.000140292703      0.378224657       0.9034391
12.660672            0.367348249     0.908054225   0.000281253163  -0.00014066749   0.000281253163 -0.000140667491      0.378646859     0.903245215
12.6607              0.367768056     0.907867526   0.000281652778 -0.000141043311   0.000281652778 -0.000141043311      0.379069305     0.903050963
12.660728            0.368188109     0.907680471      0.000282053 -0.000141420167      0.000282053 -0.000141420168      0.379491996     0.902856346
12.660756            0.368608409     0.907493059    0.00028245383 -0.000141798063    0.00028245383 -0.000141798063      0.379914931     0.902661361
12.660784            0.369028954      0.90730529    0.00028285527 -0.000142177001   0.000282855269 -0.000142177002       0.38033811     0.902466009
12.660812            0.369449746     0.907117163   0.000283257318 -0.000142556985   0.000283257318 -0.000142556985      0.380761535     0.902270288
12.66084             0.369870784     0.906928677   0.000283659978 -0.000142938017   0.000283659978 -0.000142938017      0.381185205     0.902074198
12.660868            0.370292069     0.906739832   0.000284063248 -0.000143320101   0.000284063248 -0.000143320101       0.38160912     0.901877738
12.660896            0.370713601     0.906550626   0.000284467131  -0.00014370324   0.000284467131  -0.00014370324      0.382033281     0.901680907
12.660924            0.371135379      0.90636106   0.000284871626 -0.000144087436   0.000284871626 -0.000144087437      0.382457686     0.901483706
12.660952            0.371557405     0.906171132   0.000285276735 -0.000144472694   0.000285276735 -0.000144472695      0.382882338     0.901286132
12.66098             0.371979678     0.905980842   0.000285682459 -0.000144859017   0.000285682458 -0.000144859017      0.383307235     0.901088186
12.661008            0.372402198      0.90579019   0.000286088797 -0.000145246406   0.000286088797 -0.000145246407      0.383732378     0.900889866
12.661036            0.372824965     0.905599173   0.000286495751 -0.000145634867   0.000286495751 -0.000145634867      0.384157767     0.900691172
12.661064            0.373247981     0.905407793   0.000286903321 -0.000146024401   0.000286903321 -0.000146024402      0.384583403     0.900492104
12.661092            0.373671244     0.905216047   0.000287311509 -0.000146415012   0.000287311509 -0.000146415013      0.385009284      0.90029266
12.66112             0.374094755     0.905023936   0.000287720315 -0.000146806704   0.000287720315 -0.000146806705      0.385435412      0.90009284
12.661148            0.374518514     0.904831459    0.00028812974 -0.000147199479    0.00028812974  -0.00014719948      0.385861787     0.899892643
12.661176            0.374942522     0.904638615   0.000288539785 -0.000147593341   0.000288539784 -0.000147593342      0.386288408     0.899692069
12.661204            0.375366777     0.904445403   0.000288950449 -0.000147988294   0.000288950449 -0.000147988294      0.386715277     0.899491116
12.661232            0.375791282     0.904251823   0.000289361735 -0.000148384339   0.000289361735 -0.000148384339      0.387142392     0.899289784
12.66126             0.376216035     0.904057873   0.000289773643 -0.000148781481   0.000289773642 -0.000148781481      0.387569754     0.899088073
12.661288            0.376641037     0.903863554   0.000290186173 -0.000149179723   0.000290186173 -0.000149179723      0.387997364     0.898885981
12.661316            0.377066288     0.903668865   0.000290599327 -0.000149579068   0.000290599326 -0.000149579068      0.388425221     0.898683508
12.661344            0.377491788     0.903473804   0.000291013104 -0.000149979519   0.000291013104  -0.00014997952      0.388853325     0.898480653
12.661372            0.377917537     0.903278371   0.000291427507  -0.00015038108   0.000291427506 -0.000150381081      0.389281678     0.898277415
12.6614              0.378343536     0.903082566   0.000291842535 -0.000150783754   0.000291842535 -0.000150783755      0.389710278     0.898073795
12.661428            0.378769785     0.902886388   0.000292258189 -0.000151187545   0.000292258189 -0.000151187546      0.390139125      0.89786979
12.661456            0.379196283     0.902689835   0.000292674471 -0.000151592455   0.000292674471 -0.000151592456      0.390568222       0.8976654
12.661484            0.379623031     0.902492908    0.00029309138 -0.000151998489    0.00029309138  -0.00015199849      0.390997566     0.897460625
12.661512            0.380050029     0.902295605   0.000293508918 -0.000152405649   0.000293508918  -0.00015240565      0.391427158     0.897255463
12.66154             0.380477277     0.902097926   0.000293927085 -0.000152813939   0.000293927085  -0.00015281394      0.391856999     0.897049915
12.661568            0.380904776     0.901899871   0.000294345883 -0.000153223362   0.000294345883 -0.000153223363      0.392287089     0.896843979
12.661596            0.381332525     0.901701438   0.000294765311 -0.000153633922   0.000294765311 -0.000153633923      0.392717427     0.896637654
12.661624            0.381760525     0.901502626   0.000295185371 -0.000154045622    0.00029518537 -0.000154045622      0.393148015     0.896430941
12.661652            0.382188775     0.901303436   0.000295606063 -0.000154458465   0.000295606062 -0.000154458466      0.393578851     0.896223837
12.66168             0.382617277     0.901103865   0.000296027388 -0.000154872456   0.000296027387 -0.000154872456      0.394009937     0.896016343
12.661708            0.383046029     0.900903915   0.000296449347 -0.000155287597   0.000296449346 -0.000155287597      0.394441271     0.895808457
12.661736            0.383475033     0.900703583    0.00029687194 -0.000155703891    0.00029687194 -0.000155703892      0.394872855     0.895600179
12.661764            0.383904288     0.900502869   0.000297295168 -0.000156121343   0.000297295168 -0.000156121343      0.395304689     0.895391509
12.661792            0.384333794     0.900301772   0.000297719033 -0.000156539956   0.000297719033 -0.000156539956      0.395736773     0.895182444
12.66182             0.384763552     0.900100293   0.000298143534 -0.000156959733   0.000298143534 -0.000156959733      0.396169106     0.894972986
12.661848            0.385193562     0.899898429   0.000298568673 -0.000157380677   0.000298568673 -0.000157380678      0.396601689     0.894763132
12.661876            0.385623824      0.89969618    0.00029899445 -0.000157802793    0.00029899445 -0.000157802794      0.397034522     0.894552882
12.661904            0.386054338     0.899493545   0.000299420866 -0.000158226084   0.000299420865 -0.000158226085      0.397467605     0.894342236
12.661932            0.386485104     0.899290525   0.000299847921 -0.000158650553   0.000299847921 -0.000158650554      0.397900939     0.894131192
12.66196             0.386916122     0.899087117   0.000300275617 -0.000159076204   0.000300275617 -0.000159076205      0.398334523      0.89391975
12.661988            0.387347393     0.898883322   0.000300703954 -0.000159503041   0.000300703953 -0.000159503041      0.398768358      0.89370791
12.662016            0.387778917     0.898679138   0.000301132933 -0.000159931066   0.000301132932 -0.000159931067      0.399202444     0.893495669
12.662044            0.388210693     0.898474564   0.000301562554 -0.000160360284   0.000301562554 -0.000160360285       0.39963678     0.893283028
12.662072            0.388642723     0.898269601   0.000301992818 -0.000160790699   0.000301992818 -0.000160790699      0.400071367     0.893069986
12.6621              0.389075005     0.898064247   0.000302423727 -0.000161222313   0.000302423727 -0.000161222313      0.400506206     0.892856542
12.662128            0.389507541     0.897858501    0.00030285528  -0.00016165513    0.00030285528 -0.000161655131      0.400941296     0.892642695
12.662156             0.38994033     0.897652363   0.000303287479 -0.000162089155   0.000303287479 -0.000162089155      0.401376637     0.892428445
12.662184            0.390373372     0.897445832   0.000303720324  -0.00016252439   0.000303720324  -0.00016252439      0.401812229      0.89221379
12.662212            0.390806668     0.897238907   0.000304153816 -0.000162960839   0.000304153815  -0.00016296084      0.402248073     0.891998731
12.66224             0.391240218     0.897031588   0.000304587955 -0.000163398507   0.000304587955 -0.000163398507      0.402684169     0.891783265
12.662268            0.391674022     0.896823873   0.000305022743 -0.000163837396   0.000305022743 -0.000163837397      0.403120517     0.891567393
12.662296             0.39210808     0.896615763    0.00030545818 -0.000164277511   0.000305458179 -0.000164277511      0.403557117     0.891351114
12.662324            0.392542392     0.896407255   0.000305894266 -0.000164718854   0.000305894266 -0.000164718855      0.403993969     0.891134426
12.662352            0.392976959      0.89619835   0.000306331003 -0.000165161431   0.000306331003 -0.000165161431      0.404431073      0.89091733
12.66238              0.39341178     0.895989047   0.000306768391 -0.000165605244   0.000306768391 -0.000165605244       0.40486843     0.890699823
12.662408            0.393846855     0.895779344   0.000307206431 -0.000166050297   0.000307206431 -0.000166050297      0.405306039     0.890481907
12.662436            0.394282186     0.895569242   0.000307645124 -0.000166496594   0.000307645123 -0.000166496594      0.405743901     0.890263579
12.662464            0.394717771     0.895358738   0.000308084469 -0.000166944139   0.000308084469 -0.000166944139      0.406182015     0.890044838
12.662492            0.395153611     0.895147834   0.000308524469 -0.000167392935   0.000308524469 -0.000167392935      0.406620383     0.889825685
12.66252             0.395589707     0.894936527   0.000308965124 -0.000167842987   0.000308965123 -0.000167842987      0.407059003     0.889606119
12.662548            0.396026058     0.894724817   0.000309406433 -0.000168294297   0.000309406433 -0.000168294298      0.407497877     0.889386137
12.662576            0.396462664     0.894512704   0.000309848399 -0.000168746871   0.000309848399 -0.000168746871      0.407937004     0.889165741
12.662604            0.396899526     0.894300186   0.000310291022 -0.000169200711   0.000310291022 -0.000169200712      0.408376384     0.888944928
12.662632            0.397336644     0.894087262   0.000310734302 -0.000169655822   0.000310734302 -0.000169655822      0.408816018     0.888723699
12.66266             0.397774017     0.893873933   0.000311178241 -0.000170112207   0.000311178241 -0.000170112208      0.409255905     0.888502052
12.662688            0.398211647     0.893660197   0.000311622838 -0.000170569871   0.000311622838 -0.000170569871      0.409696046     0.888279987
12.662716            0.398649532     0.893446053   0.000312068095 -0.000171028816   0.000312068095 -0.000171028817      0.410136441     0.888057502
12.662744            0.399087674       0.8932315   0.000312514012 -0.000171489048   0.000312514012 -0.000171489048       0.41057709     0.887834597
12.662772            0.399526073     0.893016538    0.00031296059 -0.000171950569    0.00031296059  -0.00017195057      0.411017993     0.887611271
12.6628              0.399964728     0.892801166    0.00031340783 -0.000172413385   0.000313407829 -0.000172413385      0.411459151     0.887387523
12.662828             0.40040364     0.892585384   0.000313855732 -0.000172877498   0.000313855731 -0.000172877498      0.411900563     0.887163353
12.662856            0.400842808     0.892369189   0.000314304297 -0.000173342913   0.000314304296 -0.000173342913      0.412342229      0.88693876
12.662884            0.401282234     0.892152583   0.000314753525 -0.000173809633   0.000314753525 -0.000173809633       0.41278415     0.886713743
12.662912            0.401721916     0.891935563   0.000315203418 -0.000174277663   0.000315203418 -0.000174277663      0.413226325       0.8864883
12.66294             0.402161856     0.891718128   0.000315653977 -0.000174747006   0.000315653976 -0.000174747007      0.413668756     0.886262432
12.662968            0.402602054      0.89150028     0.0003161052 -0.000175217667     0.0003161052 -0.000175217668      0.414111441     0.886036137
12.662996            0.403042508     0.891282015    0.00031655709  -0.00017568965    0.00031655709  -0.00017568965      0.414554382     0.885809414
12.663024            0.403483221     0.891063334   0.000317009648 -0.000176162958   0.000317009647 -0.000176162958      0.414997577     0.885582264
12.663052            0.403924191     0.890844236   0.000317462873 -0.000176637596   0.000317462872 -0.000176637596      0.415441028     0.885354684
12.66308             0.404365419     0.890624719   0.000317916766 -0.000177113567   0.000317916766 -0.000177113567      0.415884735     0.885126674
12.663108            0.404806906     0.890404784   0.000318371328 -0.000177590876   0.000318371328 -0.000177590876      0.416328697     0.884898234
12.663136             0.40524865     0.890184429    0.00031882656 -0.000178069526    0.00031882656 -0.000178069527      0.416772915     0.884669362
12.663164            0.405690653     0.889963653   0.000319282463 -0.000178549523   0.000319282463 -0.000178549523      0.417217388     0.884440058
12.663192            0.406132914     0.889742456   0.000319739036 -0.000179030869   0.000319739036  -0.00017903087      0.417662118      0.88421032
12.66322             0.406575434     0.889520837   0.000320196282 -0.000179513569   0.000320196281  -0.00017951357      0.418107103     0.883980148
12.663248            0.407018212     0.889298795   0.000320654199 -0.000179997628   0.000320654199 -0.000179997628      0.418552345     0.883749541
12.663276            0.407461249     0.889076329    0.00032111279 -0.000180483048    0.00032111279 -0.000180483049      0.418997842     0.883518498
12.663304            0.407904546     0.888853439   0.000321572054 -0.000180969836   0.000321572054 -0.000180969836      0.419443597     0.883287019
12.663332            0.408348101     0.888630123   0.000322031993 -0.000181457993   0.000322031992 -0.000181457994      0.419889607     0.883055102
12.66336             0.408791916     0.888406381   0.000322492606 -0.000181947525   0.000322492606 -0.000181947526      0.420335875     0.882822747
12.663388             0.40923599     0.888182211   0.000322953895 -0.000182438437   0.000322953895 -0.000182438437      0.420782399     0.882589953
12.663416            0.409680323     0.887957614   0.000323415861 -0.000182930731   0.000323415861 -0.000182930731       0.42122918     0.882356719
12.663444            0.410124916     0.887732587   0.000323878503 -0.000183424413   0.000323878503 -0.000183424413      0.421676217     0.882123043
12.663472            0.410569769     0.887507132   0.000324341823 -0.000183919486   0.000324341823 -0.000183919486      0.422123512     0.881888926
12.6635              0.411014882     0.887281245   0.000324805821 -0.000184415955   0.000324805821 -0.000184415955      0.422571064     0.881654366
