! TOUCHSTONE file generated by CST MICROWAVE STUDIO
! Date and time: Wed Jul 31 15:19:51 2024
! Project name: WaveGuide_BPF-Ver4.1_U-shape_Ku_T3_C4_CWA_2.cst
! Parameters = {cavity_h=16; cavity_l0=10; cavity_l1=15.1645; cavity_l2=16.8821; cavity_l3=17.0809; cavity_l4=17.2475; cavity_l5=17.1712; cavity_l6=17.5689; cavity_r=2.5; cavity_screw_l=0.5; cavity_screw_r=1.5; cavity_w=8; iris_h00=0; iris_h01=8.8166; iris_h112=0; iris_h12=5.5908; iris_h211=3.6521; iris_h23=5.2111; iris_h310=3.9763; iris_h34=5.083; iris_h45=4.9256; iris_h49=4.63; iris_h56=4.7916; iris_h58=4.4354; iris_h67=6.5849; iris_rx=0.1; iris_screw_l=0.5; iris_screw_r=1.5; iris_shift00=0; iris_shift112=0; iris_shift211=3.5; iris_shift310=0; iris_shift49=0; iris_shift58=3.5; iris_shift67=3.5; iris_tx=4.5; iris_tz=4.5; iris_w00=0; iris_w112=0; iris_w211=4; iris_w310=3.9763; iris_w49=4.63; iris_w58=4; iris_w67=4; mesh_cavity=5; mesh_iris=7; mesh_screw=7; order=12; reset_all=0; sigma=4.8e+07}
! Header version: 2018
! Port assignment regex: !\s*Touchstone port\s*([0-9]+)\s*=\s*(CST MWS port|CST DS port)\s*([0-9]+|Zmin|Zmax)\s*\(\"(.*)\"\)(\s*mode\s*([0-9]+))?.*
! Touchstone port assignment:
! Touchstone port 1 = CST MWS port 1 ("")
! Touchstone port 2 = CST MWS port 2 ("")
# GHz S RI R 50
12.66                0.209680462     0.961485962   0.000264358187 -7.92922986e-05   0.000264358186 -7.92922983e-05      0.212074764     0.960968664
12.660028             0.21002056     0.961400587   0.000264786695 -7.95335675e-05   0.000264786695 -7.95335671e-05      0.212415029     0.960882373
12.660056              0.2103609     0.961315014   0.000265216047 -7.97755732e-05   0.000265216046 -7.97755729e-05      0.212755517     0.960795889
12.660084            0.210701473     0.961229246   0.000265646245 -8.00183171e-05   0.000265646244 -8.00183167e-05      0.213096227      0.96070921
12.660112            0.211042269     0.961143284   0.000266077291 -8.02618002e-05    0.00026607729 -8.02617998e-05      0.213437158     0.960622337
12.66014             0.211383281      0.96105713   0.000266509188 -8.05060237e-05   0.000266509187 -8.05060233e-05      0.213778309      0.96053527
12.660168            0.211724508     0.960970782   0.000266941938   -8.075099e-05   0.000266941938 -8.07509897e-05      0.214119679     0.960448009
12.660196            0.212065956     0.960884241   0.000267375543 -8.09967026e-05   0.000267375543 -8.09967023e-05      0.214461271     0.960360552
12.660224            0.212407626     0.960797504   0.000267810005  -8.1243164e-05   0.000267810004 -8.12431636e-05      0.214803084       0.9602729
12.660252            0.212749518     0.960710573   0.000268245325 -8.14903766e-05   0.000268245324 -8.14903762e-05      0.215145118     0.960185051
12.66028             0.213091633     0.960623445   0.000268681505  -8.1738343e-05   0.000268681505 -8.17383426e-05      0.215487375     0.960097007
12.660308             0.21343397     0.960536122   0.000269118548 -8.19870658e-05   0.000269118548 -8.19870654e-05      0.215829853     0.960008765
12.660336             0.21377653     0.960448603   0.000269556456 -8.22365474e-05   0.000269556455  -8.2236547e-05      0.216172554     0.959920327
12.660364            0.214119313     0.960360886    0.00026999523 -8.24867905e-05   0.000269995229 -8.24867901e-05      0.216515478     0.959831691
12.660392             0.21446232     0.960272973   0.000270434872 -8.27377976e-05   0.000270434871 -8.27377972e-05      0.216858624     0.959742857
12.66042             0.214805549     0.960184862   0.000270875385 -8.29895713e-05   0.000270875384 -8.29895709e-05      0.217201994     0.959653825
12.660448            0.215149003     0.960096554    0.00027131677 -8.32421141e-05   0.000271316769 -8.32421138e-05      0.217545587     0.959564594
12.660476            0.215492681     0.960008047   0.000271759029 -8.34954287e-05   0.000271759029 -8.34954284e-05      0.217889403     0.959475164
12.660504            0.215836583     0.959919341   0.000272202166 -8.37495177e-05   0.000272202165 -8.37495173e-05      0.218233443     0.959385535
12.660532             0.21618071     0.959830436    0.00027264618 -8.40043837e-05    0.00027264618 -8.40043833e-05      0.218577708     0.959295706
12.66056             0.216525062     0.959741332   0.000273091075 -8.42600292e-05   0.000273091075 -8.42600289e-05      0.218922197     0.959205677
12.660588            0.216869639     0.959652028   0.000273536853  -8.4516457e-05   0.000273536852 -8.45164567e-05       0.21926691     0.959115447
12.660616            0.217214441     0.959562524   0.000273983515 -8.47736697e-05   0.000273983514 -8.47736694e-05      0.219611848     0.959025016
12.660644            0.217559468     0.959472819   0.000274431063 -8.50316699e-05   0.000274431063 -8.50316696e-05      0.219957012     0.958934384
12.660672            0.217904722     0.959382913   0.000274879501 -8.52904604e-05     0.0002748795   -8.529046e-05        0.2203024     0.958843549
12.6607              0.218250202     0.959292805   0.000275328829 -8.55500437e-05   0.000275328828 -8.55500433e-05      0.220648015     0.958752513
12.660728            0.218595908     0.959202496   0.000275779049 -8.58104226e-05   0.000275779049 -8.58104222e-05      0.220993855     0.958661274
12.660756             0.21894184     0.959111985   0.000276230165 -8.60715997e-05   0.000276230164 -8.60715993e-05      0.221339921     0.958569833
12.660784               0.219288     0.959021271   0.000276682177 -8.63335778e-05   0.000276682176 -8.63335774e-05      0.221686214     0.958478187
12.660812            0.219634387     0.958930354   0.000277135088 -8.65963596e-05   0.000277135088 -8.65963592e-05      0.222032734     0.958386338
12.66084             0.219981001     0.958839233     0.0002775889 -8.68599478e-05     0.0002775889 -8.68599474e-05       0.22237948     0.958294285
12.660868            0.220327843     0.958747909   0.000278043616 -8.71243451e-05   0.000278043615 -8.71243447e-05      0.222726454     0.958202027
12.660896            0.220674913      0.95865638   0.000278499236 -8.73895543e-05   0.000278499236  -8.7389554e-05      0.223073654     0.958109564
12.660924            0.221022211     0.958564647   0.000278955764 -8.76555782e-05   0.000278955763 -8.76555778e-05      0.223421083     0.958016896
12.660952            0.221369737     0.958472709   0.000279413201 -8.79224195e-05     0.0002794132 -8.79224191e-05       0.22376874     0.957924022
12.66098             0.221717492     0.958380565   0.000279871549 -8.81900809e-05   0.000279871549 -8.81900806e-05      0.224116624     0.957830942
12.661008            0.222065476     0.958288216   0.000280330812 -8.84585654e-05   0.000280330811  -8.8458565e-05      0.224464737     0.957737655
12.661036            0.222413689      0.95819566   0.000280790989 -8.87278756e-05   0.000280790989 -8.87278753e-05      0.224813079     0.957644161
12.661064            0.222762132     0.958102898   0.000281252085 -8.89980145e-05   0.000281252084 -8.89980141e-05       0.22516165      0.95755046
12.661092            0.223110805     0.958009928     0.0002817141 -8.92689847e-05     0.0002817141 -8.92689843e-05       0.22551045     0.957456551
12.66112             0.223459707     0.957916751   0.000282177038 -8.95407892e-05   0.000282177037 -8.95407888e-05       0.22585948     0.957362433
12.661148             0.22380884     0.957823366   0.000282640899 -8.98134307e-05   0.000282640899 -8.98134304e-05      0.226208739     0.957268107
12.661176            0.224158203     0.957729773   0.000283105687 -9.00869122e-05   0.000283105687 -9.00869119e-05      0.226558228     0.957173572
12.661204            0.224507798     0.957635971   0.000283571403 -9.03612366e-05   0.000283571403 -9.03612362e-05      0.226907948     0.957078827
12.661232            0.224857623      0.95754196    0.00028403805 -9.06364066e-05    0.00028403805 -9.06364062e-05      0.227257898     0.956983872
12.66126             0.225207679     0.957447739    0.00028450563 -9.09124251e-05   0.000284505629 -9.09124247e-05      0.227608079     0.956888707
12.661288            0.225557967     0.957353309   0.000284974145 -9.11892951e-05   0.000284974144 -9.11892948e-05      0.227958491     0.956793331
12.661316            0.225908487     0.957258667   0.000285443596 -9.14670195e-05   0.000285443596 -9.14670192e-05      0.228309134     0.956697744
12.661344            0.226259239     0.957163816   0.000285913987 -9.17456012e-05   0.000285913987 -9.17456009e-05      0.228660009     0.956601946
12.661372            0.226610224     0.957068752   0.000286385319 -9.20250432e-05   0.000286385319 -9.20250428e-05      0.229011115     0.956505935
12.6614              0.226961441     0.956973478   0.000286857595 -9.23053482e-05   0.000286857595 -9.23053479e-05      0.229362454     0.956409712
12.661428            0.227312891     0.956877991   0.000287330817 -9.25865194e-05   0.000287330817 -9.25865191e-05      0.229714025     0.956313276
12.661456            0.227664574     0.956782291   0.000287804987 -9.28685597e-05   0.000287804986 -9.28685594e-05      0.230065829     0.956216627
12.661484            0.228016491     0.956686379   0.000288280107 -9.31514721e-05   0.000288280106 -9.31514717e-05      0.230417865     0.956119764
12.661512            0.228368641     0.956590253   0.000288756179 -9.34352595e-05   0.000288756179 -9.34352591e-05      0.230770135     0.956022687
12.66154             0.228721026     0.956493913   0.000289233206 -9.37199249e-05   0.000289233205 -9.37199246e-05      0.231122638     0.955925395
12.661568            0.229073644     0.956397359    0.00028971119 -9.40054714e-05   0.000289711189 -9.40054711e-05      0.231475375     0.955827888
12.661596            0.229426498     0.956300591   0.000290190132  -9.4291902e-05   0.000290190132 -9.42919017e-05      0.231828346     0.955730166
12.661624            0.229779586     0.956203607   0.000290670036 -9.45792197e-05   0.000290670036 -9.45792194e-05      0.232181551     0.955632228
12.661652            0.230132909     0.956106408   0.000291150904 -9.48674276e-05   0.000291150903 -9.48674272e-05      0.232534991     0.955534074
12.66168             0.230486467     0.956008993   0.000291632737 -9.51565287e-05   0.000291632737 -9.51565283e-05      0.232888665     0.955435703
12.661708            0.230840261     0.955911361   0.000292115538 -9.54465261e-05   0.000292115538 -9.54465257e-05      0.233242574     0.955337114
12.661736            0.231194291     0.955813513    0.00029259931 -9.57374228e-05   0.000292599309 -9.57374225e-05      0.233596719     0.955238308
12.661764            0.231548557     0.955715448   0.000293084054 -9.60292221e-05   0.000293084053 -9.60292217e-05      0.233951099     0.955139284
12.661792            0.231903059     0.955617164   0.000293569773 -9.63219269e-05   0.000293569772 -9.63219265e-05      0.234305715     0.955040042
12.66182             0.232257798     0.955518663   0.000294056468 -9.66155403e-05   0.000294056468   -9.661554e-05      0.234660567     0.954940581
12.661848            0.232612774     0.955419943   0.000294544143 -9.69100656e-05   0.000294544143 -9.69100653e-05      0.235015656       0.9548409
12.661876            0.232967988     0.955321004     0.0002950328 -9.72055059e-05     0.0002950328 -9.72055055e-05      0.235370981     0.954740999
12.661904            0.233323438     0.955221845   0.000295522441 -9.75018643e-05    0.00029552244 -9.75018639e-05      0.235726543     0.954640878
12.661932            0.233679127     0.955122467   0.000296013067 -9.77991439e-05   0.000296013067 -9.77991435e-05      0.236082342     0.954540537
12.66196             0.234035054     0.955022868   0.000296504682  -9.8097348e-05   0.000296504682 -9.80973477e-05      0.236438379     0.954439974
12.661988            0.234391219     0.954923048   0.000296997288 -9.83964798e-05   0.000296997287 -9.83964794e-05      0.236794653      0.95433919
12.662016            0.234747622     0.954823007   0.000297490887 -9.86965424e-05   0.000297490886  -9.8696542e-05      0.237151166     0.954238184
12.662044            0.235104265     0.954722744   0.000297985481 -9.89975391e-05   0.000297985481 -9.89975387e-05      0.237507916     0.954136955
12.662072            0.235461146      0.95462226   0.000298481073  -9.9299473e-05   0.000298481072 -9.92994726e-05      0.237864906     0.954035503
12.6621              0.235818268     0.954521552   0.000298977665 -9.96023475e-05   0.000298977664 -9.96023471e-05      0.238222134     0.953933828
12.662128            0.236175628     0.954420622   0.000299475259 -9.99061658e-05   0.000299475259 -9.99061654e-05      0.238579601     0.953831929
12.662156            0.236533229     0.954319468   0.000299973858 -0.000100210931   0.000299973857 -0.000100210931      0.238937308     0.953729805
12.662184             0.23689107      0.95421809   0.000300473464 -0.000100516647   0.000300473463 -0.000100516646      0.239295254     0.953627457
12.662212            0.237249152     0.954116488   0.000300974079 -0.000100823316   0.000300974079 -0.000100823316       0.23965344     0.953524884
12.66224             0.237607474      0.95401466   0.000301475706 -0.000101130942   0.000301475706 -0.000101130942      0.240011866     0.953422085
12.662268            0.237966038     0.953912608   0.000301978347 -0.000101439529   0.000301978347 -0.000101439528      0.240370533      0.95331906
12.662296            0.238324843     0.953810329   0.000302482005 -0.000101749079   0.000302482005 -0.000101749078      0.240729441     0.953215809
12.662324             0.23868389     0.953707825   0.000302986681 -0.000102059596   0.000302986681 -0.000102059595      0.241088589      0.95311233
12.662352            0.239043178     0.953605093   0.000303492379 -0.000102371083   0.000303492379 -0.000102371083      0.241447979     0.953008624
12.66238             0.239402709     0.953502135     0.0003039991 -0.000102683544     0.0003039991 -0.000102683544      0.241807611     0.952904689
12.662408            0.239762482     0.953398948   0.000304506847 -0.000102996982   0.000304506847 -0.000102996981      0.242167484     0.952800527
12.662436            0.240122498     0.953295534   0.000305015623   -0.0001033114   0.000305015623   -0.0001033114        0.2425276     0.952696135
12.662464            0.240482757     0.953191891   0.000305525429 -0.000103626802   0.000305525429 -0.000103626802      0.242887958     0.952591514
12.662492             0.24084326     0.953088019   0.000306036269 -0.000103943192   0.000306036269 -0.000103943191      0.243248558     0.952486664
12.66252             0.241204006     0.952983918   0.000306548144 -0.000104260572   0.000306548144 -0.000104260571      0.243609402     0.952381583
12.662548            0.241564996     0.952879586   0.000307061058 -0.000104578946   0.000307061057 -0.000104578946      0.243970489     0.952276271
12.662576            0.241926231     0.952775024   0.000307575011 -0.000104898318   0.000307575011 -0.000104898317      0.244331819     0.952170728
12.662604            0.242287709     0.952670232   0.000308090008 -0.000105218691   0.000308090007  -0.00010521869      0.244693393     0.952064953
12.662632            0.242649433     0.952565207    0.00030860605 -0.000105540068   0.000308606049 -0.000105540068      0.245055212     0.951958946
12.66266             0.243011402     0.952459951   0.000309123139 -0.000105862454   0.000309123139 -0.000105862453      0.245417275     0.951852706
12.662688            0.243373616     0.952354463   0.000309641279 -0.000106185851   0.000309641279  -0.00010618585      0.245779582     0.951746234
12.662716            0.243736075     0.952248741   0.000310160472 -0.000106510263   0.000310160472 -0.000106510263      0.246142134     0.951639527
12.662744            0.244098781     0.952142787    0.00031068072 -0.000106835694   0.000310680719 -0.000106835693      0.246504932     0.951532587
12.662772            0.244461732     0.952036598   0.000311202025 -0.000107162147   0.000311202025 -0.000107162147      0.246867975     0.951425412
12.6628              0.244824931     0.951930175   0.000311724391 -0.000107489626    0.00031172439 -0.000107489625      0.247231264     0.951318001
12.662828            0.245188376     0.951823518   0.000312247819 -0.000107818134   0.000312247819 -0.000107818134      0.247594799     0.951210356
12.662856            0.245552068     0.951716625   0.000312772312 -0.000108147675   0.000312772312 -0.000108147675      0.247958581     0.951102474
12.662884            0.245916007     0.951609497   0.000313297873 -0.000108478253   0.000313297873 -0.000108478253      0.248322609     0.950994355
12.662912            0.246280194     0.951502132   0.000313824504 -0.000108809871   0.000313824504 -0.000108809871      0.248686884        0.950886
12.66294             0.246644629      0.95139453   0.000314352208 -0.000109142533   0.000314352207 -0.000109142533      0.249051406     0.950777407
12.662968            0.247009313     0.951286692   0.000314880986 -0.000109476243   0.000314880986 -0.000109476242      0.249416176     0.950668576
12.662996            0.247374244     0.951178615   0.000315410843 -0.000109811003   0.000315410842 -0.000109811003      0.249781194     0.950559507
12.663024            0.247739425     0.951070301   0.000315941779 -0.000110146819   0.000315941779 -0.000110146819       0.25014646     0.950450199
12.663052            0.248104855     0.950961748   0.000316473798 -0.000110483693   0.000316473798 -0.000110483693      0.250511974     0.950340651
12.66308             0.248470534     0.950852955   0.000317006903  -0.00011082163   0.000317006902 -0.000110821629      0.250877737     0.950230863
12.663108            0.248836463     0.950743923   0.000317541095 -0.000111160632   0.000317541095 -0.000111160632      0.251243749     0.950120835
12.663136            0.249202642     0.950634651   0.000318076378 -0.000111500704   0.000318076377 -0.000111500704       0.25161001     0.950010566
12.663164            0.249569071     0.950525138   0.000318612753  -0.00011184185   0.000318612753  -0.00011184185       0.25197652     0.949900056
12.663192             0.24993575     0.950415384   0.000319150224 -0.000112184073   0.000319150223 -0.000112184073      0.252343281     0.949789303
12.66322             0.250302681     0.950305388   0.000319688793 -0.000112527378   0.000319688792 -0.000112527377      0.252710291     0.949678308
12.663248            0.250669862     0.950195151   0.000320228463 -0.000112871767   0.000320228462 -0.000112871766      0.253077553      0.94956707
12.663276            0.251037295      0.95008467   0.000320769235 -0.000113217245   0.000320769235 -0.000113217244      0.253445064     0.949455589
12.663304             0.25140498     0.949973946   0.000321311114 -0.000113563815   0.000321311114 -0.000113563815      0.253812827     0.949343863
12.663332            0.251772917     0.949862979   0.000321854101 -0.000113911482   0.000321854101 -0.000113911482      0.254180841     0.949231893
12.66336             0.252141106     0.949751767   0.000322398199 -0.000114260249   0.000322398199 -0.000114260249      0.254549107     0.949119678
12.663388            0.252509548     0.949640311   0.000322943411 -0.000114610121    0.00032294341  -0.00011461012      0.254917625     0.949007218
12.663416            0.252878243      0.94952861   0.000323489739   -0.0001149611   0.000323489738   -0.0001149611      0.255286394     0.948894512
12.663444            0.253247191     0.949416662   0.000324037186 -0.000115313191   0.000324037185 -0.000115313191      0.255655417     0.948781559
12.663472            0.253616393     0.949304469   0.000324585754 -0.000115666399   0.000324585754 -0.000115666398      0.256024692     0.948668359
12.6635              0.253985848     0.949192029   0.000325135447 -0.000116020726   0.000325135446 -0.000116020726       0.25639422     0.948554911
