! TOUCHSTONE file generated by CST MICROWAVE STUDIO
! Date and time: Wed Jul 31 15:25:55 2024
! Project name: WaveGuide_BPF-Ver4.1_U-shape_Ku_T3_C4_CWA_2.cst
! Parameters = {cavity_h=16; cavity_l0=10; cavity_l1=15.2196; cavity_l2=16.875; cavity_l3=17.0928; cavity_l4=17.2401; cavity_l5=17.1468; cavity_l6=17.6011; cavity_r=2.5; cavity_screw_l=0.5; cavity_screw_r=1.5; cavity_w=8; iris_h00=0; iris_h01=8.8176; iris_h112=0; iris_h12=5.6044; iris_h211=3.6625; iris_h23=5.2045; iris_h310=3.9646; iris_h34=5.0707; iris_h45=4.9341; iris_h49=4.6303; iris_h56=4.7907; iris_h58=4.4453; iris_h67=6.5884; iris_rx=0.1; iris_screw_l=0.5; iris_screw_r=1.5; iris_shift00=0; iris_shift112=0; iris_shift211=3.5; iris_shift310=0; iris_shift49=0; iris_shift58=3.5; iris_shift67=3.5; iris_tx=4.5; iris_tz=4.5; iris_w00=0; iris_w112=0; iris_w211=4; iris_w310=3.9646; iris_w49=4.6303; iris_w58=4; iris_w67=4; mesh_cavity=5; mesh_iris=7; mesh_screw=7; order=12; reset_all=0; sigma=4.8e+07}
! Header version: 2018
! Port assignment regex: !\s*Touchstone port\s*([0-9]+)\s*=\s*(CST MWS port|CST DS port)\s*([0-9]+|Zmin|Zmax)\s*\(\"(.*)\"\)(\s*mode\s*([0-9]+))?.*
! Touchstone port assignment:
! Touchstone port 1 = CST MWS port 1 ("")
! Touchstone port 2 = CST MWS port 2 ("")
# GHz S RI R 50
12.66                0.409505953     0.886831799    0.00037892068 -0.000215827951   0.000378920679  -0.00021582795      0.418216833      0.88268318
12.660028            0.409972161     0.886594583   0.000379495128 -0.000216442957   0.000379495127 -0.000216442957      0.418683888     0.882439671
12.660056            0.410438686     0.886356878   0.000380070475 -0.000217059815   0.000380070474 -0.000217059814      0.419151242     0.882195672
12.660084            0.410905513     0.886118689   0.000380646726 -0.000217678526   0.000380646724 -0.000217678526      0.419618886     0.881951186
12.660112             0.41137263     0.885880023   0.000381223886 -0.000218299095   0.000381223885 -0.000218299094      0.420086815     0.881706214
12.66014             0.411840021     0.885640884   0.000381801961 -0.000218921523    0.00038180196 -0.000218921522      0.420555022     0.881460758
12.660168            0.412307688     0.885401271   0.000382380952 -0.000219545816   0.000382380951 -0.000219545816      0.421023507     0.881214818
12.660196             0.41277564      0.88516118   0.000382960858 -0.000220171984   0.000382960857 -0.000220171983      0.421492275      0.88096839
12.660224            0.413243876     0.884920609   0.000383541678 -0.000220800032   0.000383541677 -0.000220800031      0.421961326     0.880721473
12.660252            0.413712397     0.884679557   0.000384123415 -0.000221429967   0.000384123414 -0.000221429966      0.422430659     0.880474067
12.66028             0.414181204     0.884438024   0.000384706069 -0.000222061793   0.000384706068 -0.000222061793      0.422900276      0.88022617
12.660308            0.414650296     0.884196008   0.000385289641 -0.000222695519    0.00038528964 -0.000222695518      0.423370176     0.879977781
12.660336            0.415119673     0.883953508   0.000385874133 -0.000223331149   0.000385874131 -0.000223331149       0.42384036     0.879728899
12.660364            0.415589335     0.883710524   0.000386459544 -0.000223968691   0.000386459543  -0.00022396869      0.424310827     0.879479524
12.660392            0.416059283     0.883467054   0.000387045877  -0.00022460815   0.000387045876  -0.00022460815      0.424781577     0.879229654
12.66042             0.416529517     0.883223097   0.000387633132 -0.000225249533    0.00038763313 -0.000225249533      0.425252611     0.878979289
12.660448            0.417000037     0.882978652    0.00038822131 -0.000225892846   0.000388221309 -0.000225892846      0.425723929     0.878728427
12.660476            0.417470843     0.882733719   0.000388810412 -0.000226538096   0.000388810411 -0.000226538095      0.426195531     0.878477067
12.660504            0.417941934     0.882488297   0.000389400439 -0.000227185288   0.000389400438 -0.000227185287      0.426667417     0.878225208
12.660532            0.418413312     0.882242384   0.000389991393  -0.00022783443   0.000389991392 -0.000227834429      0.427139587      0.87797285
12.66056             0.418884977     0.881995979   0.000390583274 -0.000228485527   0.000390583273 -0.000228485526      0.427612042      0.87771999
12.660588            0.419356928     0.881749081   0.000391176083 -0.000229138586   0.000391176082 -0.000229138585       0.42808478     0.877466629
12.660616            0.419829165      0.88150169   0.000391769821 -0.000229793613    0.00039176982 -0.000229793613      0.428557804     0.877212765
12.660644             0.42030169     0.881253805    0.00039236449 -0.000230450616   0.000392364489 -0.000230450615      0.429031111     0.876958398
12.660672            0.420774501     0.881005423   0.000392960089   -0.0002311096   0.000392960088 -0.000231109599      0.429504704     0.876703525
12.6607              0.421247599     0.880756545   0.000393556621 -0.000231770572   0.000393556619 -0.000231770571      0.429978581     0.876448147
12.660728            0.421720984     0.880507169   0.000394154085 -0.000232433539   0.000394154084 -0.000232433538      0.430452744     0.876192261
12.660756            0.422194657     0.880257295   0.000394752484 -0.000233098506   0.000394752483 -0.000233098506      0.430927191     0.875935868
12.660784            0.422668616      0.88000692   0.000395351817 -0.000233765482   0.000395351816 -0.000233765481      0.431401924     0.875678965
12.660812            0.423142863     0.879756045   0.000395952087 -0.000234434471   0.000395952085 -0.000234434471      0.431876941     0.875421553
12.66084             0.423617398     0.879504669   0.000396553293 -0.000235105482   0.000396553292 -0.000235105481      0.432352244     0.875163629
12.660868            0.424092221     0.879252789   0.000397155437  -0.00023577852   0.000397155436  -0.00023577852      0.432827833     0.874905193
12.660896            0.424567331     0.879000406    0.00039775852 -0.000236453593   0.000397758519 -0.000236453592      0.433303707     0.874646244
12.660924            0.425042729     0.878747517   0.000398362543 -0.000237130707   0.000398362542 -0.000237130706      0.433779867      0.87438678
12.660952            0.425518416     0.878494123   0.000398967506 -0.000237809868   0.000398967505 -0.000237809867      0.434256313     0.874126802
12.66098              0.42599439     0.878240222   0.000399573411 -0.000238491084    0.00039957341 -0.000238491084      0.434733044     0.873866306
12.661008            0.426470653     0.877985812   0.000400180259 -0.000239174362   0.000400180258 -0.000239174361      0.435210062     0.873605294
12.661036            0.426947204     0.877730894    0.00040078805 -0.000239859707   0.000400788049 -0.000239859706      0.435687366     0.873343763
12.661064            0.427424043     0.877475466   0.000401396785 -0.000240547128   0.000401396784 -0.000240547127      0.436164955     0.873081712
12.661092            0.427901172     0.877219526   0.000402006466  -0.00024123663   0.000402006465 -0.000241236629      0.436642832     0.872819141
12.66112             0.428378589     0.876963074   0.000402617093 -0.000241928221   0.000402617092  -0.00024192822      0.437120994     0.872556047
12.661148            0.428856294     0.876706109   0.000403228667 -0.000242621908   0.000403228666 -0.000242621907      0.437599443     0.872292431
12.661176            0.429334289      0.87644863   0.000403841189 -0.000243317697   0.000403841188 -0.000243317696      0.438078179     0.872028292
12.661204            0.429812573     0.876190635    0.00040445466 -0.000244015596   0.000404454659 -0.000244015595      0.438557201     0.871763627
12.661232            0.430291146     0.875932124   0.000405069081 -0.000244715611    0.00040506908  -0.00024471561       0.43903651     0.871498436
12.66126             0.430770008     0.875673095   0.000405684453  -0.00024541775   0.000405684452 -0.000245417749      0.439516107     0.871232718
12.661288             0.43124916     0.875413548   0.000406300777  -0.00024612202   0.000406300776 -0.000246122019       0.43999599     0.870966472
12.661316            0.431728601     0.875153481   0.000406918053 -0.000246828427   0.000406918052 -0.000246828426       0.44047616     0.870699696
12.661344            0.432208331     0.874892893   0.000407536282 -0.000247536978   0.000407536281 -0.000247536978      0.440956617      0.87043239
12.661372            0.432688352     0.874631784   0.000408155466 -0.000248247682   0.000408155465 -0.000248247681      0.441437362     0.870164553
12.6614              0.433168662     0.874370151   0.000408775605 -0.000248960545   0.000408775604 -0.000248960544      0.441918394     0.869896183
12.661428            0.433649262     0.874107995     0.0004093967 -0.000249675573   0.000409396699 -0.000249675572      0.442399713     0.869627279
12.661456            0.434130152     0.873845313   0.000410018752 -0.000250392775   0.000410018751 -0.000250392774       0.44288132      0.86935784
12.661484            0.434611333     0.873582106   0.000410641762 -0.000251112158   0.000410641761 -0.000251112157      0.443363215     0.869087866
12.661512            0.435092803     0.873318371   0.000411265731 -0.000251833728    0.00041126573 -0.000251833727      0.443845398     0.868817354
12.66154             0.435574564     0.873054108   0.000411890659 -0.000252557493   0.000411890658 -0.000252557493      0.444327868     0.868546305
12.661568            0.436056616     0.872789316   0.000412516547 -0.000253283461   0.000412516546  -0.00025328346      0.444810626     0.868274716
12.661596            0.436538957     0.872523993   0.000413143397 -0.000254011638   0.000413143396 -0.000254011637      0.445293672     0.868002587
12.661624             0.43702159     0.872258138   0.000413771209 -0.000254742033   0.000413771208 -0.000254742032      0.445777007     0.867729916
12.661652            0.437504513     0.871991751   0.000414399984 -0.000255474651   0.000414399982  -0.00025547465      0.446260629     0.867456702
12.66168             0.437987727     0.871724829   0.000415029722 -0.000256209502   0.000415029721 -0.000256209501       0.44674454     0.867182945
12.661708            0.438471232     0.871457373   0.000415660425 -0.000256946591   0.000415660424  -0.00025694659      0.447228739     0.866908643
12.661736            0.438955028     0.871189381   0.000416292093 -0.000257685928   0.000416292092 -0.000257685927      0.447713227     0.866633795
12.661764            0.439439116     0.870920852   0.000416924728 -0.000258427518   0.000416924727 -0.000258427517      0.448198003       0.8663584
12.661792            0.439923494     0.870651784    0.00041755833  -0.00025917137   0.000417558328 -0.000259171369      0.448683068     0.866082457
12.66182             0.440408164     0.870382177   0.000418192899 -0.000259917491   0.000418192898  -0.00025991749      0.449168421     0.865805964
12.661848            0.440893125      0.87011203   0.000418828437 -0.000260665889   0.000418828436 -0.000260665888      0.449654063     0.865528921
12.661876            0.441378377     0.869841341   0.000419464944 -0.000261416571   0.000419464943 -0.000261416571      0.450139995     0.865251325
12.661904            0.441863922     0.869570109   0.000420102422 -0.000262169546   0.000420102421 -0.000262169545      0.450626215     0.864973178
12.661932            0.442349758     0.869298333   0.000420740871 -0.000262924819    0.00042074087 -0.000262924818      0.451112724     0.864694476
12.66196             0.442835885     0.869026012   0.000421380291   -0.0002636824    0.00042138029 -0.000263682399      0.451599522     0.864415218
12.661988            0.443322305     0.868753145   0.000422020684 -0.000264442296   0.000422020683 -0.000264442295      0.452086609     0.864135405
12.662016            0.443809017     0.868479731    0.00042266205 -0.000265204515   0.000422662049 -0.000265204514      0.452573986     0.863855034
12.662044             0.44429602     0.868205768   0.000423304391 -0.000265969064    0.00042330439 -0.000265969063      0.453061652     0.863574105
12.662072            0.444783316     0.867931256   0.000423947706 -0.000266735951   0.000423947705  -0.00026673595      0.453549607     0.863292615
12.6621              0.445270904     0.867656193   0.000424591997 -0.000267505184   0.000424591996 -0.000267505184      0.454037852     0.863010565
12.662128            0.445758785     0.867380578   0.000425237264 -0.000268276772   0.000425237263 -0.000268276771      0.454526386     0.862727953
12.662156            0.446246957      0.86710441   0.000425883508  -0.00026905072   0.000425883507  -0.00026905072       0.45501521     0.862444777
12.662184            0.446735423     0.866827687    0.00042653073 -0.000269827039   0.000426530729 -0.000269827038      0.455504324     0.862161037
12.662212            0.447224181      0.86655041   0.000427178931 -0.000270605735    0.00042717893 -0.000270605734      0.455993727     0.861876731
12.66224             0.447713231     0.866272576   0.000427828111 -0.000271386816   0.000427828109 -0.000271386816       0.45648342     0.861591858
12.662268            0.448202574     0.865994184    0.00042847827 -0.000272170291   0.000428478269 -0.000272170291      0.456973404     0.861306417
12.662296             0.44869221     0.865715233   0.000429129411 -0.000272956168    0.00042912941 -0.000272956167      0.457463677     0.861020407
12.662324            0.449182139     0.865435722   0.000429781533 -0.000273744454   0.000429781532 -0.000273744453       0.45795424     0.860733827
12.662352            0.449672361      0.86515565   0.000430434637 -0.000274535158   0.000430434636 -0.000274535157      0.458445093     0.860446674
12.66238             0.450162876     0.864875016   0.000431088724 -0.000275328287   0.000431088723 -0.000275328286      0.458936237      0.86015895
12.662408            0.450653685     0.864593818   0.000431743794  -0.00027612385   0.000431743793 -0.000276123849      0.459427671     0.859870651
12.662436            0.451144786     0.864312056   0.000432399848 -0.000276921856   0.000432399847 -0.000276921855      0.459919395     0.859581777
12.662464            0.451636181     0.864029727   0.000433056888 -0.000277722311   0.000433056887  -0.00027772231      0.460411409     0.859292326
12.662492            0.452127869     0.863746832   0.000433714913 -0.000278525225   0.000433714911 -0.000278525224      0.460903714     0.859002298
12.66252              0.45261985     0.863463368   0.000434373924 -0.000279330605   0.000434373922 -0.000279330604      0.461396309     0.858711691
12.662548            0.453112126     0.863179334   0.000435033921  -0.00028013846    0.00043503392  -0.00028013846      0.461889195     0.858420504
12.662576            0.453604694      0.86289473   0.000435694907 -0.000280948799   0.000435694906 -0.000280948798      0.462382372     0.858128735
12.662604            0.454097557     0.862609554    0.00043635688 -0.000281761629   0.000436356879 -0.000281761628      0.462875839     0.857836384
12.662632            0.454590713     0.862323805   0.000437019842 -0.000282576959   0.000437019841 -0.000282576958      0.463369597      0.85754345
12.66266             0.455084163     0.862037482   0.000437683794 -0.000283394798   0.000437683792 -0.000283394797      0.463863645      0.85724993
12.662688            0.455577907     0.861750583   0.000438348735 -0.000284215153   0.000438348734 -0.000284215152      0.464357985     0.856955824
12.662716            0.456071944     0.861463107   0.000439014667 -0.000285038033   0.000439014666 -0.000285038033      0.464852615     0.856661131
12.662744            0.456566276     0.861175053    0.00043968159 -0.000285863448   0.000439681589 -0.000285863447      0.465347536     0.856365849
12.662772            0.457060902     0.860886421   0.000440349505 -0.000286691404   0.000440349504 -0.000286691403      0.465842749     0.856069978
12.6628              0.457555822     0.860597207   0.000441018413 -0.000287521911   0.000441018412  -0.00028752191      0.466338252     0.855773515
12.662828            0.458051036     0.860307413   0.000441688313 -0.000288354978   0.000441688312 -0.000288354977      0.466834047     0.855476459
12.662856            0.458546545     0.860017035   0.000442359207 -0.000289190612   0.000442359206 -0.000289190611      0.467330132      0.85517881
12.662884            0.459042348     0.859726073   0.000443031095 -0.000290028823   0.000443031094 -0.000290028823      0.467826509     0.854880567
12.662912            0.459538445     0.859434527   0.000443703978  -0.00029086962   0.000443703977 -0.000290869619      0.468323177     0.854581727
12.66294             0.460034837     0.859142393   0.000444377856  -0.00029171301   0.000444377855  -0.00029171301      0.468820137     0.854282289
12.662968            0.460531523     0.858849672    0.00044505273 -0.000292559004   0.000445052729 -0.000292559003      0.469317387     0.853982253
12.662996            0.461028504     0.858556362     0.0004457286 -0.000293407609   0.000445728599 -0.000293407608      0.469814929     0.853681617
12.663024             0.46152578     0.858262461   0.000446405467 -0.000294258834   0.000446405466 -0.000294258833      0.470312763      0.85338038
12.663052             0.46202335     0.857967969   0.000447083332 -0.000295112688   0.000447083331 -0.000295112687      0.470810888      0.85307854
12.66308             0.462521215     0.857672884   0.000447762194 -0.000295969181   0.000447762193  -0.00029596918      0.471309304     0.852776097
12.663108            0.463019375     0.857377206   0.000448442055  -0.00029682832   0.000448442054 -0.000296828319      0.471808012     0.852473049
12.663136             0.46351783     0.857080931   0.000449122914 -0.000297690115   0.000449122913 -0.000297690115      0.472307012     0.852169394
12.663164             0.46401658     0.856784061   0.000449804773 -0.000298554576   0.000449804772 -0.000298554575      0.472806303     0.851865132
12.663192            0.464515625     0.856486592   0.000450487632  -0.00029942171   0.000450487631 -0.000299421709      0.473305886      0.85156026
12.66322             0.465014964     0.856188525   0.000451171491 -0.000300291526    0.00045117149 -0.000300291526      0.473805761     0.851254779
12.663248            0.465514599     0.855889857   0.000451856351 -0.000301164035    0.00045185635 -0.000301164034      0.474305927     0.850948686
12.663276            0.466014529     0.855590588   0.000452542213 -0.000302039245   0.000452542211 -0.000302039244      0.474806385     0.850641981
12.663304            0.466514754     0.855290716   0.000453229076 -0.000302917165   0.000453229074 -0.000302917165      0.475307135     0.850334661
12.663332            0.467015275     0.854990239   0.000453916941 -0.000303797805    0.00045391694 -0.000303797804      0.475808177     0.850026726
12.66336             0.467516091     0.854689157   0.000454605809 -0.000304681173   0.000454605807 -0.000304681172       0.47630951     0.849718174
12.663388            0.468017202     0.854387468   0.000455295679 -0.000305567279   0.000455295678 -0.000305567278      0.476811136     0.849409005
12.663416            0.468518608     0.854085172   0.000455986554 -0.000306456132   0.000455986552 -0.000306456131      0.477313053     0.849099216
12.663444             0.46902031     0.853782266   0.000456678432 -0.000307347741   0.000456678431  -0.00030734774      0.477815262     0.848788806
12.663472            0.469522307     0.853478749   0.000457371314 -0.000308242116   0.000457371313 -0.000308242115      0.478317764     0.848477775
12.6635                0.4700246     0.853174621   0.000458065201 -0.000309139266     0.0004580652 -0.000309139265      0.478820557      0.84816612
