! TOUCHSTONE file generated by CST MICROWAVE STUDIO
! Date and time: Wed Jul 31 15:32:11 2024
! Project name: WaveGuide_BPF-Ver4.1_U-shape_Ku_T3_C4_CWA_2.cst
! Parameters = {cavity_h=16; cavity_l0=10; cavity_l1=15.1703; cavity_l2=16.8351; cavity_l3=17.1438; cavity_l4=17.227; cavity_l5=17.1028; cavity_l6=17.5774; cavity_r=2.5; cavity_screw_l=0.5; cavity_screw_r=1.5; cavity_w=8; iris_h00=0; iris_h01=8.8215; iris_h112=0; iris_h12=5.5875; iris_h211=3.6581; iris_h23=5.1891; iris_h310=3.9635; iris_h34=5.0695; iris_h45=4.926; iris_h49=4.6186; iris_h56=4.807; iris_h58=4.4399; iris_h67=6.593; iris_rx=0.1; iris_screw_l=0.5; iris_screw_r=1.5; iris_shift00=0; iris_shift112=0; iris_shift211=3.5; iris_shift310=0; iris_shift49=0; iris_shift58=3.5; iris_shift67=3.5; iris_tx=4.5; iris_tz=4.5; iris_w00=0; iris_w112=0; iris_w211=4; iris_w310=3.9635; iris_w49=4.6186; iris_w58=4; iris_w67=4; mesh_cavity=5; mesh_iris=7; mesh_screw=7; order=12; reset_all=0; sigma=4.8e+07}
! Header version: 2018
! Port assignment regex: !\s*Touchstone port\s*([0-9]+)\s*=\s*(CST MWS port|CST DS port)\s*([0-9]+|Zmin|Zmax)\s*\(\"(.*)\"\)(\s*mode\s*([0-9]+))?.*
! Touchstone port assignment:
! Touchstone port 1 = CST MWS port 1 ("")
! Touchstone port 2 = CST MWS port 2 ("")
# GHz S RI R 50
12.66                0.223369552     0.958747649   0.000161596262 -4.91013975e-05   0.000161596263 -4.91013977e-05      0.228999278     0.957379016
12.660028            0.223701831     0.958660542   0.000161809546   -4.923147e-05   0.000161809547 -4.92314702e-05      0.229332579      0.95728954
12.660056            0.224034326      0.95857325   0.000162023147  -4.9361875e-05   0.000162023148 -4.93618751e-05      0.229666105     0.957199874
12.660084            0.224367025     0.958485776   0.000162237067 -4.94926111e-05   0.000162237068 -4.94926112e-05      0.229999838     0.957110022
12.660112            0.224699915     0.958398121   0.000162451308  -4.9623677e-05   0.000162451308 -4.96236771e-05      0.230333763     0.957019987
12.66014             0.225032982      0.95831029   0.000162665871 -4.97550712e-05   0.000162665871 -4.97550713e-05      0.230667864     0.956929774
12.660168            0.225366228     0.958222281   0.000162880757 -4.98867947e-05   0.000162880757 -4.98867948e-05      0.231002141      0.95683938
12.660196             0.22569966     0.958134092   0.000163095965 -5.00188498e-05   0.000163095966 -5.00188499e-05      0.231336605     0.956748805
12.660224             0.22603328     0.958045723   0.000163311497 -5.01512374e-05   0.000163311498 -5.01512375e-05      0.231671255     0.956658046
12.660252            0.226367087     0.957957174   0.000163527352 -5.02839583e-05   0.000163527353 -5.02839585e-05      0.232006093     0.956567105
12.66028             0.226701081     0.957868444   0.000163743532 -5.04170136e-05   0.000163743532 -5.04170137e-05      0.232341118      0.95647598
12.660308            0.227035263     0.957779533   0.000163960035  -5.0550404e-05   0.000163960036 -5.05504041e-05      0.232676331     0.956384672
12.660336            0.227369632     0.957690441   0.000164176864 -5.06841304e-05   0.000164176865 -5.06841305e-05      0.233011731      0.95629318
12.660364             0.22770419     0.957601167   0.000164394019 -5.08181938e-05   0.000164394019 -5.08181939e-05      0.233347319     0.956201504
12.660392            0.228038935     0.957511711   0.000164611499  -5.0952595e-05     0.0001646115 -5.09525951e-05      0.233683095     0.956109643
12.66042             0.228373868     0.957422073   0.000164829307 -5.10873349e-05   0.000164829307 -5.10873351e-05      0.234019059     0.956017597
12.660448             0.22870899     0.957332253   0.000165047441 -5.12224145e-05   0.000165047441 -5.12224146e-05      0.234355211     0.955925367
12.660476              0.2290443     0.957242249   0.000165265902 -5.13578346e-05   0.000165265903 -5.13578347e-05      0.234691552     0.955832951
12.660504            0.229379799     0.957152063   0.000165484692 -5.14935961e-05   0.000165484693 -5.14935963e-05      0.235028081     0.955740349
12.660532            0.229715486     0.957061693    0.00016570381    -5.16297e-05   0.000165703811 -5.16297002e-05      0.235364799     0.955647561
12.66056             0.230051362      0.95697114   0.000165923258 -5.17661472e-05   0.000165923258 -5.17661473e-05      0.235701705     0.955554586
12.660588            0.230387428     0.956880402   0.000166143035 -5.19029384e-05   0.000166143035 -5.19029386e-05      0.236038801     0.955461425
12.660616            0.230723683      0.95678948   0.000166363142 -5.20400748e-05   0.000166363142  -5.2040075e-05      0.236376086     0.955368077
12.660644            0.231060127     0.956698373   0.000166583579 -5.21775572e-05    0.00016658358 -5.21775573e-05       0.23671356     0.955274542
12.660672             0.23139676     0.956607081   0.000166804348 -5.23153865e-05   0.000166804348 -5.23153866e-05      0.237051224     0.955180819
12.6607              0.231733584     0.956515604   0.000167025448 -5.24535636e-05   0.000167025448 -5.24535638e-05      0.237389077     0.955086908
12.660728            0.232070597     0.956423942    0.00016724688 -5.25920895e-05   0.000167246881 -5.25920897e-05      0.237727121     0.954992809
12.660756              0.2324078     0.956332093   0.000167468645 -5.27309651e-05   0.000167468646 -5.27309652e-05      0.238065354     0.954898521
12.660784            0.232745193     0.956240058   0.000167690743 -5.28701913e-05   0.000167690743 -5.28701915e-05      0.238403777     0.954804045
12.660812            0.233082777     0.956147837   0.000167913174 -5.30097691e-05   0.000167913175 -5.30097692e-05       0.23874239     0.954709379
12.66084             0.233420551     0.956055428    0.00016813594 -5.31496994e-05    0.00016813594 -5.31496995e-05      0.239081194     0.954614523
12.660868            0.233758516     0.955962833    0.00016835904 -5.32899831e-05   0.000168359041 -5.32899832e-05      0.239420189     0.954519478
12.660896            0.234096672      0.95587005   0.000168582475 -5.34306212e-05   0.000168582476 -5.34306213e-05      0.239759374     0.954424243
12.660924            0.234435018     0.955777079   0.000168806246 -5.35716146e-05   0.000168806247 -5.35716147e-05       0.24009875     0.954328817
12.660952            0.234773556      0.95568392   0.000169030353 -5.37129642e-05   0.000169030354 -5.37129644e-05      0.240438317       0.9542332
12.66098             0.235112285     0.955590573   0.000169254797 -5.38546711e-05   0.000169254798 -5.38546712e-05      0.240778076     0.954137392
12.661008            0.235451205     0.955497037   0.000169479578 -5.39967361e-05   0.000169479578 -5.39967363e-05      0.241118025     0.954041393
12.661036            0.235790318     0.955403311   0.000169704696 -5.41391603e-05   0.000169704697 -5.41391604e-05      0.241458166     0.953945201
12.661064            0.236129621     0.955309397   0.000169930153 -5.42819445e-05   0.000169930154 -5.42819447e-05      0.241798499     0.953848818
12.661092            0.236469117     0.955215292   0.000170155948 -5.44250898e-05   0.000170155949 -5.44250899e-05      0.242139024     0.953752242
12.66112             0.236808805     0.955120998   0.000170382083 -5.45685971e-05   0.000170382083 -5.45685972e-05      0.242479741     0.953655474
12.661148            0.237148685     0.955026513   0.000170608557 -5.47124673e-05   0.000170608558 -5.47124675e-05      0.242820649     0.953558512
12.661176            0.237488757     0.954931837   0.000170835372 -5.48567015e-05   0.000170835372 -5.48567016e-05       0.24316175     0.953461357
12.661204            0.237829022      0.95483697   0.000171062527 -5.50013006e-05   0.000171062527 -5.50013007e-05      0.243503044     0.953364009
12.661232             0.23816948     0.954741912   0.000171290023 -5.51462655e-05   0.000171290024 -5.51462657e-05       0.24384453     0.953266466
12.66126              0.23851013     0.954646663   0.000171517861 -5.52915973e-05   0.000171517862 -5.52915975e-05      0.244186209     0.953168729
12.661288            0.238850974     0.954551221   0.000171746042  -5.5437297e-05   0.000171746042 -5.54372971e-05      0.244528081     0.953070797
12.661316            0.239192011     0.954455587   0.000171974565 -5.55833654e-05   0.000171974566 -5.55833656e-05      0.244870146      0.95297267
12.661344            0.239533241      0.95435976   0.000172203432 -5.57298037e-05   0.000172203432 -5.57298038e-05      0.245212404     0.952874347
12.661372            0.239874664      0.95426374   0.000172432642 -5.58766127e-05   0.000172432642 -5.58766129e-05      0.245554856     0.952775829
12.6614              0.240216282     0.954167527   0.000172662197 -5.60237935e-05   0.000172662197 -5.60237937e-05      0.245897501     0.952677115
12.661428            0.240558093      0.95407112   0.000172892096 -5.61713471e-05   0.000172892097 -5.61713473e-05       0.24624034     0.952578204
12.661456            0.240900098      0.95397452   0.000173122341 -5.63192745e-05   0.000173122342 -5.63192746e-05      0.246583372     0.952479097
12.661484            0.241242297     0.953877725   0.000173352932 -5.64675766e-05   0.000173352932 -5.64675767e-05      0.246926599     0.952379793
12.661512            0.241584691     0.953780735   0.000173583869 -5.66162545e-05    0.00017358387 -5.66162546e-05       0.24727002     0.952280291
12.66154             0.241927279      0.95368355   0.000173815153 -5.67653091e-05   0.000173815154 -5.67653093e-05      0.247613635     0.952180591
12.661568            0.242270061      0.95358617   0.000174046785 -5.69147415e-05   0.000174046786 -5.69147417e-05      0.247957445     0.952080694
12.661596            0.242613039     0.953488595   0.000174278765 -5.70645528e-05   0.000174278765 -5.70645529e-05       0.24830145     0.951980598
12.661624            0.242956211     0.953390823   0.000174511093 -5.72147438e-05   0.000174511093 -5.72147439e-05      0.248645649     0.951880303
12.661652            0.243299579     0.953292855    0.00017474377 -5.73653156e-05    0.00017474377 -5.73653157e-05      0.248990044     0.951779809
12.66168             0.243643142     0.953194691   0.000174976796 -5.75162693e-05   0.000174976797 -5.75162694e-05      0.249334633     0.951679116
12.661708              0.2439869     0.953096329   0.000175210173 -5.76676058e-05   0.000175210174 -5.76676059e-05      0.249679418     0.951578223
12.661736            0.244330854     0.952997771   0.000175443901 -5.78193262e-05   0.000175443901 -5.78193263e-05      0.250024398      0.95147713
12.661764            0.244675003     0.952899014   0.000175677979 -5.79714315e-05   0.000175677979 -5.79714316e-05      0.250369574     0.951375836
12.661792            0.245019349      0.95280006   0.000175912409 -5.81239227e-05   0.000175912409 -5.81239228e-05      0.250714946     0.951274342
12.66182             0.245363891     0.952700907   0.000176147191 -5.82768009e-05   0.000176147192  -5.8276801e-05      0.251060513     0.951172646
12.661848            0.245708629     0.952601555   0.000176382326 -5.84300671e-05   0.000176382327 -5.84300673e-05      0.251406277     0.951070749
12.661876            0.246053563     0.952502005   0.000176617814 -5.85837224e-05   0.000176617815 -5.85837225e-05      0.251752237      0.95096865
12.661904            0.246398694     0.952402255   0.000176853656 -5.87377677e-05   0.000176853656 -5.87377678e-05      0.252098394     0.950866349
12.661932            0.246744021     0.952302305   0.000177089852 -5.88922042e-05   0.000177089853 -5.88922043e-05      0.252444747     0.950763846
12.66196             0.247089546     0.952202155   0.000177326403 -5.90470328e-05   0.000177326403 -5.90470329e-05      0.252791297     0.950661139
12.661988            0.247435268     0.952101805   0.000177563309 -5.92022547e-05    0.00017756331 -5.92022548e-05      0.253138043      0.95055823
12.662016            0.247781186     0.952001255   0.000177800571 -5.93578708e-05   0.000177800572  -5.9357871e-05      0.253484987     0.950455117
12.662044            0.248127303     0.951900503    0.00017803819 -5.95138823e-05    0.00017803819 -5.95138825e-05      0.253832128       0.9503518
12.662072            0.248473616      0.95179955   0.000178276165 -5.96702902e-05   0.000178276165 -5.96702903e-05      0.254179467     0.950248278
12.6621              0.248820128     0.951698395   0.000178514498 -5.98270955e-05   0.000178514498 -5.98270957e-05      0.254527003     0.950144552
12.662128            0.249166837     0.951597037   0.000178753188 -5.99842994e-05   0.000178753189 -5.99842996e-05      0.254874736     0.950040621
12.662156            0.249513745     0.951495478   0.000178992237 -6.01419029e-05   0.000178992238  -6.0141903e-05      0.255222668     0.949936485
12.662184             0.24986085     0.951393715   0.000179231646  -6.0299907e-05   0.000179231646 -6.02999072e-05      0.255570798     0.949832143
12.662212            0.250208154      0.95129175   0.000179471413 -6.04583129e-05   0.000179471414  -6.0458313e-05      0.255919126     0.949727596
12.66224             0.250555657     0.951189581   0.000179711541 -6.06171216e-05   0.000179711542 -6.06171217e-05      0.256267652     0.949622841
12.662268            0.250903358     0.951087208    0.00017995203 -6.07763342e-05    0.00017995203 -6.07763343e-05      0.256616377      0.94951788
12.662296            0.251251258     0.950984631   0.000180192879 -6.09359517e-05    0.00018019288 -6.09359519e-05        0.2569653     0.949412712
12.662324            0.251599358     0.950881849   0.000180434091 -6.10959754e-05   0.000180434091 -6.10959755e-05      0.257314422     0.949307337
12.662352            0.251947656     0.950778862   0.000180675664 -6.12564062e-05   0.000180675665 -6.12564063e-05      0.257663744     0.949201753
12.66238             0.252296154      0.95067567     0.0001809176 -6.14172452e-05   0.000180917601 -6.14172454e-05      0.258013264     0.949095962
12.662408            0.252644851     0.950572273     0.0001811599 -6.15784936e-05     0.0001811599 -6.15784937e-05      0.258362984     0.948989962
12.662436            0.252993748     0.950468669   0.000181402563 -6.17401524e-05   0.000181402564 -6.17401526e-05      0.258712904     0.948883753
12.662464            0.253342845     0.950364859   0.000181645591 -6.19022228e-05   0.000181645591  -6.1902223e-05      0.259063023     0.948777335
12.662492            0.253692141     0.950260843   0.000181888984 -6.20647059e-05   0.000181888984  -6.2064706e-05      0.259413342     0.948670707
12.66252             0.254041639     0.950156619   0.000182132742 -6.22276027e-05   0.000182132742 -6.22276028e-05       0.25976386      0.94856387
12.662548            0.254391336     0.950052188   0.000182376866 -6.23909143e-05   0.000182376866 -6.23909145e-05       0.26011458     0.948456822
12.662576            0.254741234     0.949947549   0.000182621356  -6.2554642e-05   0.000182621356 -6.25546422e-05      0.260465499     0.948349563
12.662604            0.255091332     0.949842702   0.000182866214 -6.27187868e-05   0.000182866214 -6.27187869e-05      0.260816619     0.948242094
12.662632            0.255441632     0.949737647   0.000183111439 -6.28833498e-05   0.000183111439 -6.28833499e-05      0.261167939     0.948134413
12.66266             0.255792132     0.949632382   0.000183357032 -6.30483321e-05   0.000183357032 -6.30483323e-05      0.261519461      0.94802652
12.662688            0.256142834     0.949526909   0.000183602994  -6.3213735e-05   0.000183602994 -6.32137351e-05      0.261871183     0.947918415
12.662716            0.256493737     0.949421226   0.000183849325 -6.33795594e-05   0.000183849325 -6.33795596e-05      0.262223106     0.947810097
12.662744            0.256844841     0.949315333   0.000184096025 -6.35458066e-05   0.000184096026 -6.35458068e-05      0.262575231     0.947701567
12.662772            0.257196147     0.949209229   0.000184343097 -6.37124777e-05   0.000184343097 -6.37124778e-05      0.262927558     0.947592823
12.6628              0.257547655     0.949102915   0.000184590538 -6.38795737e-05   0.000184590539 -6.38795739e-05      0.263280085     0.947483866
12.662828            0.257899366      0.94899639   0.000184838352  -6.4047096e-05   0.000184838352 -6.40470962e-05      0.263632815     0.947374695
12.662856            0.258251278     0.948889654   0.000185086537 -6.42150456e-05   0.000185086537 -6.42150457e-05      0.263985747     0.947265309
12.662884            0.258603392     0.948782706   0.000185335094 -6.43834236e-05   0.000185335095 -6.43834237e-05      0.264338881     0.947155709
12.662912            0.258955709     0.948675545   0.000185584025 -6.45522312e-05   0.000185584025 -6.45522314e-05      0.264692217     0.947045893
12.66294             0.259308229     0.948568173   0.000185833329 -6.47214696e-05   0.000185833329 -6.47214698e-05      0.265045755     0.946935863
12.662968            0.259660952     0.948460587   0.000186083007   -6.489114e-05   0.000186083007 -6.48911401e-05      0.265399496     0.946825616
12.662996            0.260013877     0.948352788    0.00018633306 -6.50612434e-05    0.00018633306 -6.50612436e-05       0.26575344     0.946715153
12.663024            0.260367006     0.948244775   0.000186583487 -6.52317811e-05   0.000186583488 -6.52317812e-05      0.266107587     0.946604473
12.663052            0.260720339     0.948136549   0.000186834291 -6.54027542e-05   0.000186834292 -6.54027544e-05      0.266461938     0.946493577
12.66308             0.261073874     0.948028108   0.000187085471 -6.55741639e-05   0.000187085471 -6.55741641e-05      0.266816491     0.946382463
12.663108            0.261427614     0.947919452   0.000187337027 -6.57460114e-05   0.000187337028 -6.57460116e-05      0.267171248     0.946271131
12.663136            0.261781557     0.947810581   0.000187588961 -6.59182979e-05   0.000187588962  -6.5918298e-05      0.267526208     0.946159582
12.663164            0.262135704     0.947701495   0.000187841273 -6.60910245e-05   0.000187841274 -6.60910246e-05      0.267881372     0.946047813
12.663192            0.262490056     0.947592193   0.000188093963 -6.62641924e-05   0.000188093964 -6.62641926e-05      0.268236741     0.945935826
12.66322             0.262844612     0.947482674   0.000188347032 -6.64378028e-05   0.000188347033  -6.6437803e-05      0.268592313      0.94582362
12.663248            0.263199372     0.947372939   0.000188600481  -6.6611857e-05   0.000188600481 -6.66118571e-05      0.268948089     0.945711194
12.663276            0.263554337     0.947262987    0.00018885431  -6.6786356e-05    0.00018885431 -6.67863562e-05      0.269304071     0.945598548
12.663304            0.263909507     0.947152818   0.000189108519 -6.69613012e-05    0.00018910852 -6.69613013e-05      0.269660256     0.945485682
12.663332            0.264264882     0.947042431   0.000189363109 -6.71366936e-05    0.00018936311 -6.71366938e-05      0.270016647     0.945372594
12.66336             0.264620462     0.946931825   0.000189618082 -6.73125346e-05   0.000189618082 -6.73125348e-05      0.270373242     0.945259286
12.663388            0.264976248     0.946821002   0.000189873436 -6.74888253e-05   0.000189873437 -6.74888255e-05      0.270730043     0.945145756
12.663416            0.265332239     0.946709959   0.000190129173  -6.7665567e-05   0.000190129174 -6.76655671e-05      0.271087048     0.945032004
12.663444            0.265688436     0.946598697   0.000190385294 -6.78427608e-05   0.000190385294 -6.78427609e-05       0.27144426      0.94491803
12.663472            0.266044839     0.946487215   0.000190641798 -6.80204079e-05   0.000190641799 -6.80204081e-05      0.271801677     0.944803833
12.6635              0.266401448     0.946375513   0.000190898687 -6.81985097e-05   0.000190898688 -6.81985099e-05      0.272159299     0.944689413
