! TOUCHSTONE file generated by CST MICROWAVE STUDIO
! Date and time: Wed Jul 31 15:38:24 2024
! Project name: WaveGuide_BPF-Ver4.1_U-shape_Ku_T3_C4_CWA_2.cst
! Parameters = {cavity_h=16; cavity_l0=10; cavity_l1=15.1961; cavity_l2=16.8109; cavity_l3=17.1342; cavity_l4=17.2889; cavity_l5=17.0906; cavity_l6=17.5918; cavity_r=2.5; cavity_screw_l=0.5; cavity_screw_r=1.5; cavity_w=8; iris_h00=0; iris_h01=8.8365; iris_h112=0; iris_h12=5.5876; iris_h211=3.656; iris_h23=5.1944; iris_h310=3.9666; iris_h34=5.0745; iris_h45=4.9185; iris_h49=4.6247; iris_h56=4.7899; iris_h58=4.4456; iris_h67=6.5809; iris_rx=0.1; iris_screw_l=0.5; iris_screw_r=1.5; iris_shift00=0; iris_shift112=0; iris_shift211=3.5; iris_shift310=0; iris_shift49=0; iris_shift58=3.5; iris_shift67=3.5; iris_tx=4.5; iris_tz=4.5; iris_w00=0; iris_w112=0; iris_w211=4; iris_w310=3.9666; iris_w49=4.6247; iris_w58=4; iris_w67=4; mesh_cavity=5; mesh_iris=7; mesh_screw=7; order=12; reset_all=0; sigma=4.8e+07}
! Header version: 2018
! Port assignment regex: !\s*Touchstone port\s*([0-9]+)\s*=\s*(CST MWS port|CST DS port)\s*([0-9]+|Zmin|Zmax)\s*\(\"(.*)\"\)(\s*mode\s*([0-9]+))?.*
! Touchstone port assignment:
! Touchstone port 1 = CST MWS port 1 ("")
! Touchstone port 2 = CST MWS port 2 ("")
# GHz S RI R 50
12.66                0.346328955     0.917756195   0.000164269749 -7.42871979e-05   0.000164269749 -7.42871977e-05       0.34919187     0.916783495
12.660028            0.346723442     0.917593667   0.000164466758  -7.4465529e-05   0.000164466758 -7.44655288e-05      0.349584355     0.916620433
12.660056            0.347118078     0.917430867   0.000164664015 -7.46442672e-05   0.000164664015 -7.46442669e-05      0.349976937      0.91645712
12.660084            0.347512888     0.917267786   0.000164861513 -7.48234185e-05   0.000164861513 -7.48234183e-05      0.350369663     0.916293539
12.660112            0.347907895     0.917104415   0.000165059249 -7.50029892e-05   0.000165059248  -7.5002989e-05      0.350762577     0.916129671
12.66014             0.348303127     0.916940744   0.000165257216 -7.51829855e-05   0.000165257216 -7.51829852e-05      0.351155727       0.9159655
12.660168            0.348698581     0.916776772   0.000165455415 -7.53634083e-05   0.000165455415 -7.53634081e-05      0.351549112     0.915801024
12.660196            0.349094243     0.916612505    0.00016565385 -7.55442554e-05    0.00016565385 -7.55442551e-05      0.351942703     0.915636254
12.660224            0.349490112     0.916447942   0.000165852521 -7.57255276e-05   0.000165852521 -7.57255273e-05      0.352336499      0.91547119
12.660252            0.349886188     0.916283084   0.000166051428  -7.5907226e-05   0.000166051428 -7.59072257e-05      0.352730499     0.915305832
12.66028             0.350282471     0.916117929    0.00016625057 -7.60893516e-05    0.00016625057 -7.60893514e-05      0.353124706      0.91514018
12.660308            0.350678962     0.915952477   0.000166449949 -7.62719055e-05   0.000166449949 -7.62719053e-05      0.353519117     0.914974231
12.660336             0.35107566     0.915786727   0.000166649565 -7.64548887e-05   0.000166649565 -7.64548885e-05      0.353913734     0.914807987
12.660364            0.351472566     0.915620679   0.000166849417 -7.66383023e-05   0.000166849417 -7.66383021e-05      0.354308556     0.914641446
12.660392            0.351869679     0.915454333   0.000167049505 -7.68221472e-05   0.000167049505  -7.6822147e-05      0.354703584     0.914474609
12.66042                0.352267     0.915287688   0.000167249831 -7.70064246e-05    0.00016724983 -7.70064243e-05      0.355098818     0.914307474
12.660448            0.352664529     0.915120743   0.000167450393 -7.71911353e-05   0.000167450393 -7.71911351e-05      0.355494258     0.914140041
12.660476            0.353062266     0.914953499   0.000167651192 -7.73762806e-05   0.000167651192 -7.73762804e-05      0.355889903      0.91397231
12.660504            0.353460211     0.914785954   0.000167852229 -7.75618615e-05   0.000167852229 -7.75618613e-05      0.356285755      0.91380428
12.660532            0.353858364     0.914618108   0.000168053503 -7.77478789e-05   0.000168053503 -7.77478787e-05      0.356681812     0.913635951
12.66056             0.354256726      0.91444996   0.000168255014  -7.7934334e-05   0.000168255014 -7.79343338e-05      0.357078076     0.913467322
12.660588            0.354655295     0.914281511   0.000168456763 -7.81212278e-05   0.000168456763 -7.81212276e-05      0.357474546     0.913298392
12.660616            0.355054073     0.914112759    0.00016865875 -7.83085614e-05    0.00016865875 -7.83085612e-05      0.357871222     0.913129162
12.660644             0.35545306     0.913943704   0.000168860975 -7.84963358e-05   0.000168860975 -7.84963355e-05      0.358268105      0.91295963
12.660672            0.355852254     0.913774345   0.000169063438  -7.8684552e-05   0.000169063438 -7.86845518e-05      0.358665194     0.912789797
12.6607              0.356251658     0.913604683   0.000169266139 -7.88732113e-05   0.000169266139 -7.88732111e-05       0.35906249     0.912619661
12.660728             0.35665127     0.913434716   0.000169469078 -7.90623145e-05   0.000169469078 -7.90623143e-05      0.359459992     0.912449222
12.660756            0.357051092     0.913264444   0.000169672256 -7.92518629e-05   0.000169672256 -7.92518627e-05      0.359857701      0.91227848
12.660784            0.357451122     0.913093867   0.000169875672 -7.94418574e-05   0.000169875672 -7.94418572e-05      0.360255617     0.912107435
12.660812            0.357851361     0.912922983   0.000170079327 -7.96322991e-05   0.000170079327 -7.96322989e-05       0.36065374     0.911936084
12.66084             0.358251809     0.912751794   0.000170283221 -7.98231892e-05   0.000170283221  -7.9823189e-05       0.36105207      0.91176443
12.660868            0.358652466     0.912580297   0.000170487354 -8.00145287e-05   0.000170487354 -8.00145285e-05      0.361450608     0.911592469
12.660896            0.359053333     0.912408492   0.000170691726 -8.02063186e-05   0.000170691726 -8.02063184e-05      0.361849352     0.911420203
12.660924            0.359454409      0.91223638   0.000170896337 -8.03985601e-05   0.000170896337 -8.03985599e-05      0.362248304     0.911247631
12.660952            0.359855694     0.912063959   0.000171101187 -8.05912543e-05   0.000171101187 -8.05912541e-05      0.362647463     0.911074751
12.66098             0.360257189     0.911891229   0.000171306277 -8.07844022e-05   0.000171306277  -8.0784402e-05      0.363046829     0.910901565
12.661008            0.360658894     0.911718189   0.000171511607  -8.0978005e-05   0.000171511607 -8.09780047e-05      0.363446403      0.91072807
12.661036            0.361060808     0.911544839   0.000171717176 -8.11720637e-05   0.000171717176 -8.11720634e-05      0.363846185     0.910554267
12.661064            0.361462932     0.911371179   0.000171922985 -8.13665794e-05   0.000171922985 -8.13665792e-05      0.364246174     0.910380156
12.661092            0.361865266     0.911197208   0.000172129034 -8.15615532e-05   0.000172129034  -8.1561553e-05      0.364646372     0.910205734
12.66112              0.36226781     0.911022925   0.000172335324 -8.17569863e-05   0.000172335323 -8.17569861e-05      0.365046777     0.910031003
12.661148            0.362670564     0.910848329   0.000172541853 -8.19528798e-05   0.000172541853 -8.19528795e-05       0.36544739     0.909855962
12.661176            0.363073528     0.910673421   0.000172748623 -8.21492347e-05   0.000172748623 -8.21492344e-05      0.365848211     0.909680609
12.661204            0.363476703       0.9104982   0.000172955633 -8.23460521e-05   0.000172955633 -8.23460519e-05      0.366249241     0.909504945
12.661232            0.363880087     0.910322665   0.000173162883 -8.25433332e-05   0.000173162883  -8.2543333e-05      0.366650478     0.909328969
12.66126             0.364283682     0.910146816   0.000173370375 -8.27410792e-05   0.000173370375 -8.27410789e-05      0.367051924     0.909152681
12.661288            0.364687488     0.909970652   0.000173578107  -8.2939291e-05   0.000173578107 -8.29392908e-05      0.367453578     0.908976079
12.661316            0.365091504     0.909794173    0.00017378608 -8.31379699e-05    0.00017378608 -8.31379696e-05      0.367855441     0.908799164
12.661344            0.365495731     0.909617378   0.000173994294 -8.33371169e-05   0.000173994294 -8.33371167e-05      0.368257512     0.908621935
12.661372            0.365900168     0.909440266   0.000174202749 -8.35367332e-05   0.000174202749  -8.3536733e-05      0.368659792     0.908444391
12.6614              0.366304816     0.909262838   0.000174411446 -8.37368199e-05   0.000174411446 -8.37368197e-05      0.369062281     0.908266532
12.661428            0.366709675     0.909085092   0.000174620383 -8.39373782e-05   0.000174620383  -8.3937378e-05      0.369464978     0.908088358
12.661456            0.367114746     0.908907029   0.000174829563 -8.41384092e-05   0.000174829562  -8.4138409e-05      0.369867885     0.907909867
12.661484            0.367520027     0.908728647   0.000175038983  -8.4339914e-05   0.000175038983 -8.43399137e-05         0.370271      0.90773106
12.661512            0.367925519     0.908549946   0.000175248646 -8.45418937e-05   0.000175248646 -8.45418935e-05      0.370674325     0.907551936
12.66154             0.368331223     0.908370925    0.00017545855 -8.47443496e-05    0.00017545855 -8.47443493e-05      0.371077858     0.907372494
12.661568            0.368737138     0.908191584   0.000175668696 -8.49472827e-05   0.000175668696 -8.49472824e-05      0.371481601     0.907192733
12.661596            0.369143264     0.908011923   0.000175879084 -8.51506942e-05   0.000175879084 -8.51506939e-05      0.371885553     0.907012654
12.661624            0.369549602      0.90783194   0.000176089714 -8.53545852e-05   0.000176089714  -8.5354585e-05      0.372289715     0.906832255
12.661652            0.369956151     0.907651636   0.000176300587  -8.5558957e-05   0.000176300587 -8.55589567e-05      0.372694085     0.906651537
12.66168             0.370362912      0.90747101   0.000176511701 -8.57638106e-05   0.000176511701 -8.57638103e-05      0.373098666     0.906470498
12.661708            0.370769885     0.907290061   0.000176723058 -8.59691472e-05   0.000176723058  -8.5969147e-05      0.373503456     0.906289138
12.661736            0.371177069     0.907108788   0.000176934658  -8.6174968e-05   0.000176934658 -8.61749678e-05      0.373908456     0.906107457
12.661764            0.371584466     0.906927192     0.0001771465 -8.63812741e-05     0.0001771465 -8.63812739e-05      0.374313665     0.905925454
12.661792            0.371992074     0.906745272   0.000177358585 -8.65880668e-05   0.000177358584 -8.65880666e-05      0.374719085     0.905743128
12.66182             0.372399894     0.906563026   0.000177570912 -8.67953471e-05   0.000177570912 -8.67953469e-05      0.375124714     0.905560479
12.661848            0.372807927     0.906380455   0.000177783482 -8.70031163e-05   0.000177783482 -8.70031161e-05      0.375530554     0.905377506
12.661876            0.373216172     0.906197558   0.000177996296 -8.72113755e-05   0.000177996296 -8.72113753e-05      0.375936603      0.90519421
12.661904            0.373624629     0.906014334   0.000178209352  -8.7420126e-05   0.000178209352 -8.74201257e-05      0.376342863     0.905010588
12.661932            0.374033298     0.905830784   0.000178422652 -8.76293688e-05   0.000178422651 -8.76293685e-05      0.376749333     0.904826642
12.66196              0.37444218     0.905646905   0.000178636194 -8.78391051e-05   0.000178636194 -8.78391049e-05      0.377156013      0.90464237
12.661988            0.374851274     0.905462699    0.00017884998 -8.80493363e-05    0.00017884998  -8.8049336e-05      0.377562904     0.904457771
12.662016            0.375260581     0.905278164    0.00017906401 -8.82600633e-05    0.00017906401 -8.82600631e-05      0.377970005     0.904272845
12.662044            0.375670101     0.905093299   0.000179278283 -8.84712876e-05   0.000179278283 -8.84712873e-05      0.378377317     0.904087592
12.662072            0.376079833     0.904908105   0.000179492799 -8.86830101e-05   0.000179492799 -8.86830099e-05      0.378784839     0.903902011
12.6621              0.376489778      0.90472258   0.000179707559 -8.88952322e-05   0.000179707559 -8.88952319e-05      0.379192572     0.903716102
12.662128            0.376899937     0.904536724   0.000179922563  -8.9107955e-05   0.000179922563 -8.91079547e-05      0.379600516     0.903529864
12.662156            0.377310308     0.904350537   0.000180137811 -8.93211797e-05   0.000180137811 -8.93211794e-05      0.380008671     0.903343295
12.662184            0.377720892     0.904164017   0.000180353302 -8.95349075e-05   0.000180353302 -8.95349073e-05      0.380417037     0.903156397
12.662212            0.378131689     0.903977165   0.000180569038 -8.97491397e-05   0.000180569038 -8.97491395e-05      0.380825614     0.902969168
12.66224               0.3785427      0.90378998   0.000180785017 -8.99638775e-05   0.000180785017 -8.99638773e-05      0.381234401     0.902781608
12.662268            0.378953924     0.903602461   0.000181001241  -9.0179122e-05   0.000181001241 -9.01791218e-05        0.3816434     0.902593716
12.662296            0.379365361     0.903414607   0.000181217709 -9.03948745e-05   0.000181217709 -9.03948743e-05      0.382052611     0.902405491
12.662324            0.379777012     0.903226419   0.000181434421 -9.06111362e-05   0.000181434421  -9.0611136e-05      0.382462032     0.902216934
12.662352            0.380188876     0.903037896   0.000181651378 -9.08279084e-05   0.000181651378 -9.08279081e-05      0.382871665     0.902028043
12.66238             0.380600954     0.902849036   0.000181868579 -9.10451921e-05   0.000181868579 -9.10451919e-05       0.38328151     0.901838818
12.662408            0.381013245      0.90265984   0.000182086024 -9.12629888e-05   0.000182086024 -9.12629886e-05      0.383691566     0.901649259
12.662436            0.381425751     0.902470306   0.000182303714 -9.14812996e-05   0.000182303714 -9.14812993e-05      0.384101833     0.901459364
12.662464             0.38183847     0.902280435   0.000182521648 -9.17001257e-05   0.000182521648 -9.17001254e-05      0.384512313     0.901269133
12.662492            0.382251403     0.902090226   0.000182739828 -9.19194683e-05   0.000182739828 -9.19194681e-05      0.384923004     0.901078567
12.66252              0.38266455     0.901899678   0.000182958252 -9.21393288e-05   0.000182958251 -9.21393286e-05      0.385333907     0.900887663
12.662548            0.383077911      0.90170879    0.00018317692 -9.23597084e-05    0.00018317692 -9.23597082e-05      0.385745022     0.900696422
12.662576            0.383491486     0.901517563   0.000183395834 -9.25806083e-05   0.000183395834  -9.2580608e-05      0.386156348     0.900504843
12.662604            0.383905275     0.901325994   0.000183614992 -9.28020297e-05   0.000183614992 -9.28020294e-05      0.386567887     0.900312925
12.662632            0.384319279     0.901134085   0.000183834396 -9.30239739e-05   0.000183834396 -9.30239736e-05      0.386979638     0.900120668
12.66266             0.384733497     0.900941834   0.000184054045 -9.32464421e-05   0.000184054044 -9.32464419e-05      0.387391602     0.899928072
12.662688            0.385147929     0.900749241   0.000184273938 -9.34694357e-05   0.000184273938 -9.34694354e-05      0.387803777     0.899735135
12.662716            0.385562576     0.900556305   0.000184494077 -9.36929558e-05   0.000184494077 -9.36929556e-05      0.388216165     0.899541858
12.662744            0.385977437     0.900363025   0.000184714461 -9.39170038e-05   0.000184714461 -9.39170035e-05      0.388628765     0.899348238
12.662772            0.386392513     0.900169401    0.00018493509 -9.41415808e-05    0.00018493509 -9.41415806e-05      0.389041578     0.899154277
12.6628              0.386807804     0.899975433   0.000185155965 -9.43666882e-05   0.000185155965  -9.4366688e-05      0.389454603     0.898959974
12.662828            0.387223309      0.89978112   0.000185377085 -9.45923273e-05   0.000185377085  -9.4592327e-05      0.389867841     0.898765327
12.662856            0.387639029     0.899586461    0.00018559845 -9.48184992e-05    0.00018559845  -9.4818499e-05      0.390281291     0.898570337
12.662884            0.388054965     0.899391455   0.000185820061 -9.50452054e-05   0.000185820061 -9.50452051e-05      0.390694954     0.898375002
12.662912            0.388471115     0.899196103   0.000186041917 -9.52724469e-05   0.000186041917 -9.52724467e-05      0.391108831     0.898179322
12.66294              0.38888748     0.899000403   0.000186264019 -9.55002253e-05   0.000186264019  -9.5500225e-05       0.39152292     0.897983297
12.662968             0.38930406     0.898804354   0.000186486366 -9.57285416e-05   0.000186486366 -9.57285414e-05      0.391937222     0.897786926
12.662996            0.389720856     0.898607958   0.000186708959 -9.59573973e-05   0.000186708959  -9.5957397e-05      0.392351736     0.897590208
12.663024            0.390137867     0.898411212   0.000186931797 -9.61867935e-05   0.000186931797 -9.61867933e-05      0.392766465     0.897393143
12.663052            0.390555093     0.898214116   0.000187154882 -9.64167317e-05   0.000187154882 -9.64167315e-05      0.393181406      0.89719573
12.66308             0.390972534     0.898016669   0.000187378212  -9.6647213e-05   0.000187378212 -9.66472128e-05       0.39359656     0.896997969
12.663108            0.391390191     0.897818872   0.000187601787 -9.68782389e-05   0.000187601787 -9.68782386e-05      0.394011928     0.896799859
12.663136            0.391808063     0.897620722   0.000187825609 -9.71098105e-05   0.000187825609 -9.71098103e-05      0.394427509     0.896601399
12.663164            0.392226151     0.897422221   0.000188049676 -9.73419292e-05   0.000188049676  -9.7341929e-05      0.394843304     0.896402589
12.663192            0.392644455     0.897223367   0.000188273989 -9.75745964e-05   0.000188273989 -9.75745961e-05      0.395259312     0.896203429
12.66322             0.393062974     0.897024159   0.000188498548 -9.78078132e-05   0.000188498548  -9.7807813e-05      0.395675533     0.896003917
12.663248             0.39348171     0.896824597   0.000188723353 -9.80415811e-05   0.000188723353 -9.80415809e-05      0.396091968     0.895804053
12.663276            0.393900661     0.896624681   0.000188948404 -9.82759013e-05   0.000188948404 -9.82759011e-05      0.396508617     0.895603836
12.663304            0.394319827     0.896424409   0.000189173701 -9.85107752e-05   0.000189173701  -9.8510775e-05       0.39692548     0.895403267
12.663332             0.39473921     0.896223782   0.000189399243 -9.87462041e-05   0.000189399243 -9.87462039e-05      0.397342556     0.895202344
12.66336             0.395158809     0.896022798   0.000189625032 -9.89821893e-05   0.000189625032 -9.89821891e-05      0.397759847     0.895001066
12.663388            0.395578624     0.895821457   0.000189851067 -9.92187322e-05   0.000189851067 -9.92187319e-05      0.398177351     0.894799434
12.663416            0.395998656     0.895619758   0.000190077347  -9.9455834e-05   0.000190077347 -9.94558337e-05      0.398595069     0.894597446
12.663444            0.396418903     0.895417701   0.000190303874 -9.96934961e-05   0.000190303874 -9.96934959e-05      0.399013001     0.894395101
12.663472            0.396839367     0.895215285   0.000190530647 -9.99317199e-05   0.000190530647 -9.99317196e-05      0.399431148     0.894192401
12.6635              0.397260047      0.89501251   0.000190757666 -0.000100170507   0.000190757666 -0.000100170506      0.399849508     0.893989343
