! TOUCHSTONE file generated by CST MICROWAVE STUDIO
! Date and time: Wed Jul 31 15:44:45 2024
! Project name: WaveGuide_BPF-Ver4.1_U-shape_Ku_T3_C4_CWA_2.cst
! Parameters = {cavity_h=16; cavity_l0=10; cavity_l1=15.186; cavity_l2=16.8614; cavity_l3=17.1147; cavity_l4=17.2388; cavity_l5=17.0902; cavity_l6=17.623; cavity_r=2.5; cavity_screw_l=0.5; cavity_screw_r=1.5; cavity_w=8; iris_h00=0; iris_h01=8.8156; iris_h112=0; iris_h12=5.5864; iris_h211=3.6544; iris_h23=5.193; iris_h310=3.9745; iris_h34=5.0729; iris_h45=4.9228; iris_h49=4.6226; iris_h56=4.8066; iris_h58=4.4319; iris_h67=6.5898; iris_rx=0.1; iris_screw_l=0.5; iris_screw_r=1.5; iris_shift00=0; iris_shift112=0; iris_shift211=3.5; iris_shift310=0; iris_shift49=0; iris_shift58=3.5; iris_shift67=3.5; iris_tx=4.5; iris_tz=4.5; iris_w00=0; iris_w112=0; iris_w211=4; iris_w310=3.9745; iris_w49=4.6226; iris_w58=4; iris_w67=4; mesh_cavity=5; mesh_iris=7; mesh_screw=7; order=12; reset_all=0; sigma=4.8e+07}
! Header version: 2018
! Port assignment regex: !\s*Touchstone port\s*([0-9]+)\s*=\s*(CST MWS port|CST DS port)\s*([0-9]+|Zmin|Zmax)\s*\(\"(.*)\"\)(\s*mode\s*([0-9]+))?.*
! Touchstone port assignment:
! Touchstone port 1 = CST MWS port 1 ("")
! Touchstone port 2 = CST MWS port 2 ("")
# GHz S RI R 50
12.66                0.253521779       0.9497845   0.000220526285 -7.65470402e-05   0.000220526285 -7.65470403e-05      0.259609867     0.948059886
12.660028            0.253880989     0.949676823    0.00022084773 -7.67600748e-05   0.000220847731 -7.67600749e-05      0.259971862     0.947948798
12.660056            0.254240533     0.949568895   0.000221169719 -7.69737001e-05    0.00022116972 -7.69737002e-05      0.260333971     0.947837512
12.660084             0.25460036     0.949460726   0.000221492253 -7.71879172e-05   0.000221492254 -7.71879173e-05      0.260696239     0.947726014
12.660112             0.25496042     0.949352331   0.000221815334 -7.74027271e-05   0.000221815334 -7.74027273e-05      0.261058709     0.947614292
12.66014             0.255320663     0.949243722   0.000222138962 -7.76181311e-05   0.000222138962 -7.76181312e-05      0.261421428     0.947502335
12.660168            0.255681088     0.949134899   0.000222463138 -7.78341309e-05   0.000222463139  -7.7834131e-05      0.261784395      0.94739014
12.660196             0.25604173     0.949025852   0.000222787865 -7.80507286e-05   0.000222787865 -7.80507287e-05       0.26214758     0.947277717
12.660224            0.256402588     0.948916581   0.000223113141 -7.82679262e-05   0.000223113142 -7.82679263e-05      0.262510984     0.947165065
12.660252            0.256763664     0.948807087   0.000223438969 -7.84857253e-05    0.00022343897 -7.84857255e-05      0.262874607     0.947052183
12.66028             0.257124956     0.948697367    0.00022376535 -7.87041279e-05   0.000223765351  -7.8704128e-05       0.26323845      0.94693907
12.660308            0.257486466     0.948587422   0.000224092284 -7.89231357e-05   0.000224092285 -7.89231358e-05      0.263602512     0.946825727
12.660336            0.257848193     0.948477252   0.000224419773 -7.91427506e-05   0.000224419773 -7.91427507e-05      0.263966793     0.946712153
12.660364            0.258210138     0.948366856   0.000224747817 -7.93629743e-05   0.000224747817 -7.93629744e-05      0.264331295     0.946598348
12.660392              0.2585723     0.948256233   0.000225076417 -7.95838087e-05   0.000225076418 -7.95838088e-05      0.264696016     0.946484311
12.66042             0.258934681     0.948145384   0.000225405575 -7.98052556e-05   0.000225405576 -7.98052558e-05      0.265060957     0.946370041
12.660448             0.25929728     0.948034307   0.000225735292 -8.00273169e-05   0.000225735293 -8.00273171e-05      0.265426119     0.946255539
12.660476            0.259660098     0.947923003   0.000226065568 -8.02499945e-05   0.000226065569 -8.02499946e-05      0.265791502     0.946140803
12.660504            0.260023134     0.947811471   0.000226396405 -8.04732901e-05   0.000226396406 -8.04732902e-05      0.266157105     0.946025834
12.660532            0.260386389      0.94769971   0.000226727803 -8.06972057e-05   0.000226727804 -8.06972058e-05      0.266522929     0.945910631
12.66056             0.260749863     0.947587721   0.000227059764  -8.0921743e-05   0.000227059765 -8.09217432e-05      0.266888974     0.945795194
12.660588            0.261113556     0.947475502   0.000227392289 -8.11469041e-05   0.000227392289 -8.11469042e-05      0.267255241     0.945679522
12.660616            0.261477469     0.947363054   0.000227725378 -8.13726907e-05   0.000227725378 -8.13726908e-05      0.267621729     0.945563614
12.660644            0.261841601     0.947250375   0.000228059033 -8.15991047e-05   0.000228059033 -8.15991049e-05      0.267988439     0.945447471
12.660672            0.262205953     0.947137467   0.000228393254 -8.18261481e-05   0.000228393255 -8.18261482e-05      0.268355371     0.945331092
12.6607              0.262570525     0.947024327   0.000228728044 -8.20538227e-05   0.000228728044 -8.20538228e-05      0.268722525     0.945214476
12.660728            0.262935317     0.946910956   0.000229063402 -8.22821305e-05   0.000229063402 -8.22821306e-05      0.269089901     0.945097623
12.660756             0.26330033     0.946797353    0.00022939933 -8.25110733e-05    0.00022939933 -8.25110734e-05        0.2694575     0.944980533
12.660784            0.263665563     0.946683517   0.000229735828  -8.2740653e-05   0.000229735829 -8.27406531e-05      0.269825321     0.944863204
12.660812            0.264031017      0.94656945   0.000230072899 -8.29708717e-05     0.0002300729 -8.29708718e-05      0.270193366     0.944745638
12.66084             0.264396692     0.946455149   0.000230410543 -8.32017311e-05   0.000230410543 -8.32017313e-05      0.270561633     0.944627833
12.660868            0.264762588     0.946340615    0.00023074876 -8.34332333e-05   0.000230748761 -8.34332335e-05      0.270930124     0.944509788
12.660896            0.265128705     0.946225846   0.000231087553 -8.36653803e-05   0.000231087553 -8.36653804e-05      0.271298838     0.944391504
12.660924            0.265495044     0.946110844   0.000231426921 -8.38981738e-05   0.000231426922  -8.3898174e-05      0.271667776      0.94427298
12.660952            0.265861604     0.945995607   0.000231766867  -8.4131616e-05   0.000231766868 -8.41316161e-05      0.272036938     0.944154215
12.66098             0.266228387     0.945880134   0.000232107391 -8.43657087e-05   0.000232107391 -8.43657088e-05      0.272406324      0.94403521
12.661008            0.266595391     0.945764426   0.000232448494 -8.46004539e-05   0.000232448494 -8.46004541e-05      0.272775934     0.943915963
12.661036            0.266962618     0.945648482   0.000232790177 -8.48358537e-05   0.000232790178 -8.48358538e-05      0.273145768     0.943796474
12.661064            0.267330067     0.945532301   0.000233132442 -8.50719099e-05   0.000233132442 -8.50719101e-05      0.273515828     0.943676743
12.661092             0.26769774     0.945415884   0.000233475288 -8.53086246e-05   0.000233475289 -8.53086248e-05      0.273886112     0.943556769
12.66112             0.268065634     0.945299229   0.000233818719 -8.55459998e-05   0.000233818719     -8.5546e-05      0.274256621     0.943436552
12.661148            0.268433753     0.945182336   0.000234162733 -8.57840375e-05   0.000234162734 -8.57840376e-05      0.274627355     0.943316091
12.661176            0.268802094     0.945065205   0.000234507334 -8.60227396e-05   0.000234507334 -8.60227397e-05      0.274998315     0.943195387
12.661204            0.269170659     0.944947836   0.000234852521 -8.62621082e-05   0.000234852521 -8.62621084e-05        0.2753695     0.943074437
12.661232            0.269539447     0.944830227   0.000235198295 -8.65021454e-05   0.000235198296 -8.65021455e-05      0.275740912     0.942953243
12.66126             0.269908459     0.944712379   0.000235544658  -8.6742853e-05   0.000235544659 -8.67428532e-05      0.276112549     0.942831804
12.661288            0.270277696     0.944594291   0.000235891611 -8.69842333e-05   0.000235891612 -8.69842334e-05      0.276484412     0.942710118
12.661316            0.270647156     0.944475962   0.000236239155 -8.72262882e-05   0.000236239156 -8.72262883e-05      0.276856502     0.942588186
12.661344            0.271016842     0.944357393   0.000236587291 -8.74690197e-05   0.000236587292 -8.74690198e-05      0.277228819     0.942466008
12.661372            0.271386751     0.944238582    0.00023693602   -8.771243e-05    0.00023693602 -8.77124301e-05      0.277601362     0.942343582
12.6614              0.271756886      0.94411953   0.000237285342  -8.7956521e-05   0.000237285343 -8.79565211e-05      0.277974132     0.942220908
12.661428            0.272127246     0.944000235    0.00023763526 -8.82012949e-05   0.000237635261  -8.8201295e-05       0.27834713     0.942097986
12.661456            0.272497831     0.943880698   0.000237985774 -8.84467537e-05   0.000237985775 -8.84467539e-05      0.278720355     0.941974816
12.661484            0.272868641     0.943760917   0.000238336886 -8.86928996e-05   0.000238336887 -8.86928997e-05      0.279093808     0.941851396
12.661512            0.273239677     0.943640893   0.000238688596 -8.89397345e-05   0.000238688596 -8.89397347e-05      0.279467488     0.941727727
12.66154             0.273610939     0.943520625   0.000239040905 -8.91872606e-05   0.000239040906 -8.91872608e-05      0.279841396     0.941603808
12.661568            0.273982426     0.943400113   0.000239393815 -8.94354801e-05   0.000239393815 -8.94354802e-05      0.280215533     0.941479639
12.661596             0.27435414     0.943279355   0.000239747326 -8.96843949e-05   0.000239747327 -8.96843951e-05      0.280589898     0.941355218
12.661624            0.274726081     0.943158353    0.00024010144 -8.99340073e-05   0.000240101441 -8.99340075e-05      0.280964491     0.941230547
12.661652            0.275098248     0.943037104   0.000240456158 -9.01843194e-05   0.000240456159 -9.01843195e-05      0.281339314     0.941105623
12.66168             0.275470642      0.94291561   0.000240811481 -9.04353332e-05   0.000240811481 -9.04353334e-05      0.281714365     0.940980447
12.661708            0.275843263     0.942793868    0.00024116741  -9.0687051e-05    0.00024116741 -9.06870511e-05      0.282089646     0.940855018
12.661736            0.276216111      0.94267188   0.000241523945 -9.09394748e-05   0.000241523946  -9.0939475e-05      0.282465156     0.940729336
12.661764            0.276589187     0.942549643   0.000241881089 -9.11926069e-05    0.00024188109  -9.1192607e-05      0.282840895       0.9406034
12.661792             0.27696249     0.942427159   0.000242238843 -9.14464493e-05   0.000242238843 -9.14464495e-05      0.283216864      0.94047721
12.66182             0.277336021     0.942304426   0.000242597206 -9.17010043e-05   0.000242597207 -9.17010045e-05      0.283593064     0.940350765
12.661848             0.27770978     0.942181444   0.000242956181 -9.19562741e-05   0.000242956182 -9.19562742e-05      0.283969493     0.940224065
12.661876            0.278083767     0.942058213   0.000243315769 -9.22122607e-05    0.00024331577 -9.22122609e-05      0.284346153     0.940097109
12.661904            0.278457982     0.941934732    0.00024367597 -9.24689665e-05   0.000243675971 -9.24689666e-05      0.284723044     0.939969897
12.661932            0.278832427        0.941811   0.000244036786 -9.27263935e-05   0.000244036787 -9.27263937e-05      0.285100165     0.939842429
12.66196               0.2792071     0.941687017   0.000244398218 -9.29845441e-05   0.000244398219 -9.29845443e-05      0.285477517     0.939714703
12.661988            0.279582002     0.941562783   0.000244760267 -9.32434204e-05   0.000244760268 -9.32434205e-05      0.285855101      0.93958672
12.662016            0.279957133     0.941438298   0.000245122934 -9.35030246e-05   0.000245122935 -9.35030248e-05      0.286232915     0.939458479
12.662044            0.280332493      0.94131356   0.000245486221  -9.3763359e-05   0.000245486221 -9.37633592e-05      0.286610962      0.93932998
12.662072            0.280708084     0.941188569   0.000245850127 -9.40244258e-05   0.000245850128  -9.4024426e-05       0.28698924     0.939201221
12.6621              0.281083904     0.941063325   0.000246214655 -9.42862272e-05   0.000246214656 -9.42862274e-05       0.28736775     0.939072203
12.662128            0.281459954     0.940937828   0.000246579806 -9.45487656e-05   0.000246579806 -9.45487657e-05      0.287746493     0.938942925
12.662156            0.281836234     0.940812076    0.00024694558  -9.4812043e-05   0.000246945581 -9.48120432e-05      0.288125468     0.938813386
12.662184            0.282212745      0.94068607   0.000247311979 -9.50760619e-05    0.00024731198 -9.50760621e-05      0.288504675     0.938683587
12.662212            0.282589486     0.940559808   0.000247679004 -9.53408245e-05   0.000247679005 -9.53408247e-05      0.288884115     0.938553526
12.66224             0.282966458     0.940433291   0.000248046656  -9.5606333e-05   0.000248046657 -9.56063332e-05      0.289263788     0.938423203
12.662268            0.283343661     0.940306518   0.000248414937 -9.58725898e-05   0.000248414937   -9.587259e-05      0.289643695     0.938292617
12.662296            0.283721095     0.940179488   0.000248783846 -9.61395972e-05   0.000248783847 -9.61395973e-05      0.290023835     0.938161769
12.662324            0.284098761     0.940052202   0.000249153386 -9.64073574e-05   0.000249153387 -9.64073575e-05      0.290404208     0.938030657
12.662352            0.284476658     0.939924658   0.000249523558 -9.66758727e-05   0.000249523558 -9.66758729e-05      0.290784815     0.937899282
12.66238             0.284854787     0.939796855   0.000249894362 -9.69451456e-05   0.000249894363 -9.69451457e-05      0.291165657     0.937767642
12.662408            0.285233148     0.939668795     0.0002502658 -9.72151782e-05   0.000250265801 -9.72151784e-05      0.291546732     0.937635737
12.662436            0.285611742     0.939540475   0.000250637873  -9.7485973e-05   0.000250637874 -9.74859732e-05      0.291928042     0.937503567
12.662464            0.285990568     0.939411896   0.000251010582 -9.77575323e-05   0.000251010583 -9.77575325e-05      0.292309587      0.93737113
12.662492            0.286369626     0.939283058   0.000251383929 -9.80298584e-05   0.000251383929 -9.80298586e-05      0.292691366     0.937238428
12.66252             0.286748917     0.939153958   0.000251757913 -9.83029537e-05   0.000251757914 -9.83029539e-05       0.29307338     0.937105458
12.662548            0.287128441     0.939024598   0.000252132538 -9.85768206e-05   0.000252132538 -9.85768208e-05       0.29345563     0.936972221
12.662576            0.287508199     0.938894977   0.000252507803 -9.88514614e-05   0.000252507803 -9.88514616e-05      0.293838115     0.936838716
12.662604             0.28788819     0.938765093    0.00025288371 -9.91268785e-05    0.00025288371 -9.91268787e-05      0.294220836     0.936704943
12.662632            0.288268414     0.938634948   0.000253260259 -9.94030744e-05    0.00025326026 -9.94030745e-05      0.294603792     0.936570901
12.66266             0.288648872     0.938504539   0.000253637453 -9.96800513e-05   0.000253637454 -9.96800515e-05      0.294986985     0.936436589
12.662688            0.289029565     0.938373867   0.000254015292 -9.99578117e-05   0.000254015293 -9.99578119e-05      0.295370413     0.936302008
12.662716            0.289410491     0.938242931   0.000254393778 -0.000100236358   0.000254393779 -0.000100236358      0.295754079     0.936167156
12.662744            0.289791652     0.938111731   0.000254772911 -0.000100515693   0.000254772912 -0.000100515693      0.296137981     0.936032033
12.662772            0.290173048     0.937980266   0.000255152693 -0.000100795818   0.000255152694 -0.000100795819      0.296522119     0.935896639
12.6628              0.290554679     0.937848536   0.000255533125 -0.000101076737   0.000255533126 -0.000101076737      0.296906495     0.935760972
12.662828            0.290936544      0.93771654   0.000255914208 -0.000101358451   0.000255914209 -0.000101358452      0.297291108     0.935625033
12.662856            0.291318645     0.937584277   0.000256295943 -0.000101640964   0.000256295944 -0.000101640964      0.297675959     0.935488821
12.662884            0.291700982     0.937451748   0.000256678332 -0.000101924277   0.000256678332 -0.000101924277      0.298061047     0.935352336
12.662912            0.292083554     0.937318951   0.000257061375 -0.000102208393   0.000257061376 -0.000102208393      0.298446373     0.935215576
12.66294             0.292466361     0.937185887   0.000257445074 -0.000102493315   0.000257445074 -0.000102493315      0.298831938     0.935078542
12.662968            0.292849405     0.937052554   0.000257829429 -0.000102779045    0.00025782943 -0.000102779045       0.29921774     0.934941233
12.662996            0.293232686     0.936918952   0.000258214443 -0.000103065585   0.000258214444 -0.000103065585      0.299603781     0.934803648
12.663024            0.293616202     0.936785081   0.000258600116 -0.000103352938   0.000258600117 -0.000103352938      0.299990061     0.934665788
12.663052            0.293999956      0.93665094   0.000258986449 -0.000103641107    0.00025898645 -0.000103641107       0.30037658      0.93452765
12.66308             0.294383946     0.936516529   0.000259373444 -0.000103930094   0.000259373445 -0.000103930094      0.300763337     0.934389235
12.663108            0.294768173     0.936381846   0.000259761102 -0.000104219901   0.000259761103 -0.000104219902      0.301150335     0.934250543
12.663136            0.295152638     0.936246893   0.000260149424 -0.000104510532   0.000260149424 -0.000104510532      0.301537571     0.934111572
12.663164             0.29553734     0.936111667   0.000260538411 -0.000104801988   0.000260538411 -0.000104801989      0.301925048     0.933972323
12.663192             0.29592228     0.935976169   0.000260928064 -0.000105094273   0.000260928064 -0.000105094273      0.302312764     0.933832794
12.66322             0.296307458     0.935840398   0.000261318384 -0.000105387388   0.000261318385 -0.000105387389       0.30270072     0.933692985
12.663248            0.296692874     0.935704353   0.000261709373 -0.000105681337   0.000261709374 -0.000105681337      0.303088917     0.933552896
12.663276            0.297078529     0.935568035   0.000262101032 -0.000105976122   0.000262101033 -0.000105976122      0.303477354     0.933412526
12.663304            0.297464421     0.935431442   0.000262493363 -0.000106271745   0.000262493363 -0.000106271746      0.303866033     0.933271875
12.663332            0.297850553     0.935294574   0.000262886365  -0.00010656821   0.000262886366  -0.00010656821      0.304254952     0.933130942
12.66336             0.298236924      0.93515743   0.000263280041 -0.000106865518   0.000263280041 -0.000106865518      0.304644112     0.932989726
12.663388            0.298623533     0.935020011   0.000263674391 -0.000107163673   0.000263674392 -0.000107163673      0.305033514     0.932848227
12.663416            0.299010382     0.934882314   0.000264069417 -0.000107462677   0.000264069418 -0.000107462677      0.305423157     0.932706445
12.663444            0.299397471     0.934744341   0.000264465121 -0.000107762532   0.000264465121 -0.000107762532      0.305813042     0.932564378
12.663472            0.299784799      0.93460609   0.000264861502 -0.000108063242   0.000264861503 -0.000108063242      0.306203169     0.932422027
12.6635              0.300172368     0.934467561   0.000265258563 -0.000108364809   0.000265258564 -0.000108364809      0.306593538      0.93227939
