! TOUCHSTONE file generated by CST MICROWAVE STUDIO
! Date and time: Wed Jul 31 15:47:49 2024
! Project name: WaveGuide_BPF-Ver4.1_U-shape_Ku_T3_C4_CWA_2.cst
! Parameters = {cavity_h=16; cavity_l0=10; cavity_l1=15.1727; cavity_l2=16.8662; cavity_l3=17.1449; cavity_l4=17.3064; cavity_l5=17.1621; cavity_l6=17.5654; cavity_r=2.5; cavity_screw_l=0.5; cavity_screw_r=1.5; cavity_w=8; iris_h00=0; iris_h01=8.8208; iris_h112=0; iris_h12=5.6133; iris_h211=3.6615; iris_h23=5.1935; iris_h310=3.9717; iris_h34=5.0839; iris_h45=4.938; iris_h49=4.6257; iris_h56=4.7965; iris_h58=4.449; iris_h67=6.5739; iris_rx=0.1; iris_screw_l=0.5; iris_screw_r=1.5; iris_shift00=0; iris_shift112=0; iris_shift211=3.5; iris_shift310=0; iris_shift49=0; iris_shift58=3.5; iris_shift67=3.5; iris_tx=4.5; iris_tz=4.5; iris_w00=0; iris_w112=0; iris_w211=4; iris_w310=3.9717; iris_w49=4.6257; iris_w58=4; iris_w67=4; mesh_cavity=5; mesh_iris=7; mesh_screw=7; order=12; reset_all=0; sigma=4.8e+07}
! Header version: 2018
! Port assignment regex: !\s*Touchstone port\s*([0-9]+)\s*=\s*(CST MWS port|CST DS port)\s*([0-9]+|Zmin|Zmax)\s*\(\"(.*)\"\)(\s*mode\s*([0-9]+))?.*
! Touchstone port assignment:
! Touchstone port 1 = CST MWS port 1 ("")
! Touchstone port 2 = CST MWS port 2 ("")
# GHz S RI R 50
12.66                0.266267407     0.945597068   0.000268227181 -9.72637621e-05   0.000268227209 -9.72637635e-05      0.269056825     0.944879592
12.660028            0.266640905     0.945478538   0.000268626901 -9.75377517e-05   0.000268626929 -9.75377531e-05      0.269428884      0.94476035
12.660056            0.267014696     0.945359743   0.000269027291 -9.78125181e-05   0.000269027319 -9.78125194e-05      0.269801188     0.944640857
12.660084            0.267388757     0.945240689   0.000269428354 -9.80880604e-05   0.000269428382 -9.80880617e-05      0.270173735     0.944521113
12.660112            0.267763066     0.945121382   0.000269830094 -9.83643778e-05   0.000269830122 -9.83643792e-05      0.270546523     0.944401118
12.66014             0.268137603     0.945001827   0.000270232514 -9.86414697e-05   0.000270232542 -9.86414712e-05      0.270919549     0.944280872
12.660168            0.268512367     0.944882024   0.000270635615 -9.89193383e-05   0.000270635643 -9.89193398e-05      0.271292814     0.944160375
12.660196            0.268887373     0.944761968   0.000271039397 -9.91979881e-05   0.000271039425 -9.91979895e-05      0.271666319     0.944039626
12.660224            0.269262621     0.944641659   0.000271443861 -9.94774213e-05   0.000271443889 -9.94774227e-05      0.272040064     0.943918624
12.660252            0.269638111     0.944521095   0.000271849008 -9.97576403e-05   0.000271849036 -9.97576418e-05      0.272414051     0.943797369
12.66028             0.270013845     0.944400278    0.00027225484 -0.000100038647   0.000272254868 -0.000100038649      0.272788279     0.943675861
12.660308            0.270389822     0.944279206   0.000272661356 -0.000100320445   0.000272661384 -0.000100320447      0.273162748     0.943554098
12.660336            0.270766042     0.944157878    0.00027306856 -0.000100603036   0.000273068588 -0.000100603037      0.273537458      0.94343208
12.660364            0.271142505     0.944036294   0.000273476451 -0.000100886422   0.000273476479 -0.000100886423      0.273912411     0.943309808
12.660392            0.271519213     0.943914454    0.00027388503 -0.000101170605   0.000273885058 -0.000101170607      0.274287606      0.94318728
12.66042             0.271896164     0.943792358     0.0002742943 -0.000101455589   0.000274294328 -0.000101455591      0.274663044     0.943064496
12.660448             0.27227336     0.943670003   0.000274704261 -0.000101741375   0.000274704289 -0.000101741377      0.275038724     0.942941455
12.660476              0.2726508     0.943547391   0.000275114914 -0.000102027966   0.000275114942 -0.000102027968      0.275414646     0.942818156
12.660504            0.273028485     0.943424521    0.00027552626 -0.000102315365   0.000275526288 -0.000102315366      0.275790813     0.942694601
12.660532            0.273406416     0.943301391   0.000275938301 -0.000102603573   0.000275938329 -0.000102603574      0.276167222     0.942570786
12.66056             0.273784591     0.943178002   0.000276351037 -0.000102892593   0.000276351066 -0.000102892595      0.276543875     0.942446714
12.660588            0.274163012     0.943054354   0.000276764471 -0.000103182428   0.000276764499  -0.00010318243      0.276920772     0.942322382
12.660616            0.274541679     0.942930444   0.000277178602  -0.00010347308    0.00027717863 -0.000103473081      0.277297914      0.94219779
12.660644            0.274920592     0.942806274   0.000277593432 -0.000103764551    0.00027759346 -0.000103764553      0.277675299     0.942072938
12.660672            0.275299752     0.942681842   0.000278008963 -0.000104056845   0.000278008991 -0.000104056846       0.27805293     0.941947825
12.6607              0.275679158     0.942557149   0.000278425195 -0.000104349962   0.000278425223 -0.000104349964      0.278430805     0.941822451
12.660728            0.276058811     0.942432192   0.000278842129 -0.000104643907   0.000278842157 -0.000104643909      0.278808925     0.941696815
12.660756            0.276438711     0.942306973   0.000279259767 -0.000104938681   0.000279259795 -0.000104938683      0.279187291     0.941570917
12.660784            0.276818858      0.94218149    0.00027967811 -0.000105234287   0.000279678138 -0.000105234289      0.279565902     0.941444756
12.660812            0.277199253     0.942055742   0.000280097159 -0.000105530728   0.000280097187  -0.00010553073       0.27994476     0.941318332
12.66084             0.277579896     0.941929731   0.000280516915 -0.000105828005   0.000280516943 -0.000105828007      0.280323864     0.941191643
12.660868            0.277960787     0.941803453   0.000280937379 -0.000106126122   0.000280937407 -0.000106126124      0.280703214      0.94106469
12.660896            0.278341926     0.941676911   0.000281358553 -0.000106425081   0.000281358581 -0.000106425083       0.28108281     0.940937473
12.660924            0.278723314     0.941550102   0.000281780437 -0.000106724884   0.000281780465 -0.000106724886      0.281462654     0.940809989
12.660952            0.279104951     0.941423026   0.000282203033 -0.000107025534   0.000282203061 -0.000107025536      0.281842745      0.94068224
12.66098             0.279486836     0.941295683   0.000282626342 -0.000107327034    0.00028262637 -0.000107327036      0.282223083     0.940554224
12.661008            0.279868972     0.941168072   0.000283050365 -0.000107629386   0.000283050394 -0.000107629388      0.282603669     0.940425941
12.661036            0.280251357     0.941040192   0.000283475104 -0.000107932593   0.000283475132 -0.000107932595      0.282984503      0.94029739
12.661064            0.280633992     0.940912044   0.000283900558 -0.000108236657   0.000283900586 -0.000108236659      0.283365585     0.940168572
12.661092            0.281016877     0.940783626    0.00028432673 -0.000108541581   0.000284326759 -0.000108541583      0.283746916     0.940039484
12.66112             0.281400012     0.940654938   0.000284753621 -0.000108847367   0.000284753649 -0.000108847369      0.284128495     0.939910127
12.661148            0.281783398      0.94052598   0.000285181232 -0.000109154019    0.00028518126 -0.000109154021      0.284510323     0.939780501
12.661176            0.282167035      0.94039675   0.000285609564 -0.000109461538   0.000285609592  -0.00010946154      0.284892401     0.939650604
12.661204            0.282550924     0.940267249   0.000286038618 -0.000109769927   0.000286038646 -0.000109769929      0.285274728     0.939520436
12.661232            0.282935063     0.940137475   0.000286468395  -0.00011007919   0.000286468423 -0.000110079192      0.285657305     0.939389997
12.66126             0.283319455     0.940007429   0.000286898897 -0.000110389328   0.000286898925  -0.00011038933      0.286040131     0.939259286
12.661288            0.283704098      0.93987711   0.000287330124 -0.000110700344   0.000287330152 -0.000110700346      0.286423208     0.939128303
12.661316            0.284088994     0.939746516   0.000287762078 -0.000111012241   0.000287762107 -0.000111012243      0.286806536     0.938997046
12.661344            0.284474142     0.939615649    0.00028819476 -0.000111325021   0.000288194789 -0.000111325023      0.287190114     0.938865516
12.661372            0.284859543     0.939484506   0.000288628172 -0.000111638688     0.0002886282  -0.00011163869      0.287573944     0.938733711
12.6614              0.285245197     0.939353088   0.000289062314 -0.000111953243   0.000289062342 -0.000111953245      0.287958024     0.938601632
12.661428            0.285631104     0.939221393   0.000289497187  -0.00011226869   0.000289497215 -0.000112268692      0.288342356     0.938469277
12.661456            0.286017265     0.939089422   0.000289932793 -0.000112585031   0.000289932821 -0.000112585033       0.28872694     0.938336647
12.661484             0.28640368     0.938957174   0.000290369133 -0.000112902269   0.000290369161 -0.000112902271      0.289111777      0.93820374
12.661512            0.286790348     0.938824648   0.000290806207 -0.000113220407   0.000290806236 -0.000113220409      0.289496865     0.938070557
12.66154             0.287177271     0.938691844   0.000291244018 -0.000113539447   0.000291244047 -0.000113539449      0.289882206     0.937937096
12.661568            0.287564449      0.93855876   0.000291682566 -0.000113859392   0.000291682595 -0.000113859394        0.2902678     0.937803356
12.661596            0.287951882     0.938425398   0.000292121853 -0.000114180245   0.000292121882 -0.000114180247      0.290653647     0.937669338
12.661624            0.288339569     0.938291755    0.00029256188 -0.000114502008   0.000292561908  -0.00011450201      0.291039747     0.937535041
12.661652            0.288727512     0.938157832   0.000293002647 -0.000114824685   0.000293002676 -0.000114824687      0.291426101     0.937400464
12.66168             0.289115711     0.938023627   0.000293444156 -0.000115148277   0.000293444185  -0.00011514828      0.291812709     0.937265607
12.661708            0.289504165     0.937889141   0.000293886409 -0.000115472789   0.000293886438 -0.000115472791      0.292199571     0.937130469
12.661736            0.289892876     0.937754372   0.000294329406 -0.000115798222   0.000294329434 -0.000115798224      0.292586688      0.93699505
12.661764            0.290281843     0.937619321   0.000294773148 -0.000116124579   0.000294773177 -0.000116124582      0.292974059     0.936859348
12.661792            0.290671067     0.937483986   0.000295217638 -0.000116451864   0.000295217666 -0.000116451866      0.293361685     0.936723364
12.66182             0.291060548     0.937348367   0.000295662875 -0.000116780078   0.000295662903 -0.000116780081      0.293749566     0.936587096
12.661848            0.291450286     0.937212463   0.000296108861 -0.000117109226    0.00029610889 -0.000117109228      0.294137703     0.936450545
12.661876            0.291840281     0.937076274   0.000296555597 -0.000117439309   0.000296555626 -0.000117439311      0.294526096     0.936313709
12.661904            0.292230535       0.9369398   0.000297003085  -0.00011777033   0.000297003114 -0.000117770333      0.294914744     0.936176589
12.661932            0.292621046     0.936803039   0.000297451326 -0.000118102293   0.000297451354 -0.000118102295      0.295303649     0.936039183
12.66196             0.293011816     0.936665991    0.00029790032   -0.0001184352   0.000297900349 -0.000118435202      0.295692811     0.935901491
12.661988            0.293402844     0.936528655   0.000298350069 -0.000118769054   0.000298350098 -0.000118769056      0.296082229     0.935763512
12.662016            0.293794131     0.936391031   0.000298800574 -0.000119103857   0.000298800603  -0.00011910386      0.296471904     0.935625246
12.662044            0.294185677     0.936253119   0.000299251837 -0.000119439614   0.000299251866 -0.000119439616      0.296861837     0.935486692
12.662072            0.294577483     0.936114917   0.000299703858 -0.000119776325   0.000299703887 -0.000119776328      0.297252027     0.935347849
12.6621              0.294969548     0.935976425   0.000300156639 -0.000120113996   0.000300156668 -0.000120113998      0.297642475     0.935208718
12.662128            0.295361873     0.935837643    0.00030061018 -0.000120452628   0.000300610209  -0.00012045263      0.298033181     0.935069296
12.662156            0.295754459      0.93569857   0.000301064484 -0.000120792224   0.000301064513 -0.000120792227      0.298424146     0.934929585
12.662184            0.296147304     0.935559204   0.000301519551 -0.000121132787    0.00030151958  -0.00012113279      0.298815369     0.934789583
12.662212            0.296540411     0.935419547   0.000301975382 -0.000121474321   0.000301975411 -0.000121474323      0.299206852     0.934649289
12.66224             0.296933779     0.935279597   0.000302431979 -0.000121816827   0.000302432008  -0.00012181683      0.299598593     0.934508704
12.662268            0.297327407     0.935139353   0.000302889342  -0.00012216031   0.000302889371 -0.000122160313      0.299990594     0.934367825
12.662296            0.297721298     0.934998815   0.000303347474 -0.000122504772   0.000303347503 -0.000122504774      0.300382855     0.934226654
12.662324             0.29811545     0.934857982   0.000303806374 -0.000122850215   0.000303806403 -0.000122850218      0.300775376     0.934085188
12.662352            0.298509864     0.934716854   0.000304266045 -0.000123196644   0.000304266074 -0.000123196647      0.301168157     0.933943429
12.66238             0.298904541      0.93457543   0.000304726487 -0.000123544061   0.000304726516 -0.000123544063      0.301561198     0.933801374
12.662408             0.29929948     0.934433709   0.000305187702 -0.000123892468   0.000305187731 -0.000123892471      0.301954501     0.933659023
12.662436            0.299694682     0.934291692   0.000305649691 -0.000124241869    0.00030564972 -0.000124241872      0.302348064     0.933516376
12.662464            0.300090148     0.934149376   0.000306112455 -0.000124592268   0.000306112484  -0.00012459227      0.302741889     0.933373433
12.662492            0.300485876     0.934006762   0.000306575995 -0.000124943666   0.000306576024 -0.000124943669      0.303135976     0.933230192
12.66252             0.300881869     0.933863849   0.000307040312 -0.000125296067   0.000307040341  -0.00012529607      0.303530324     0.933086653
12.662548            0.301278125     0.933720636   0.000307505408 -0.000125649474   0.000307505437 -0.000125649477      0.303924935     0.932942815
12.662576            0.301674646     0.933577123   0.000307971283 -0.000126003891   0.000307971312 -0.000126003894      0.304319808     0.932798677
12.662604            0.302071432     0.933433309    0.00030843794 -0.000126359319   0.000308437969 -0.000126359322      0.304714944      0.93265424
12.662632            0.302468482     0.933289194   0.000308905378 -0.000126715763   0.000308905407 -0.000126715766      0.305110342     0.932509502
12.66266             0.302865797     0.933144776     0.0003093736 -0.000127073225   0.000309373629 -0.000127073228      0.305506005     0.932364463
12.662688            0.303263378     0.933000056   0.000309842606 -0.000127431708   0.000309842635 -0.000127431711       0.30590193     0.932219122
12.662716            0.303661224     0.932855032   0.000310312398 -0.000127791216   0.000310312427 -0.000127791219       0.30629812     0.932073479
12.662744            0.304059336     0.932709704   0.000310782977 -0.000128151752   0.000310783006 -0.000128151755      0.306694573     0.931927533
12.662772            0.304457715     0.932564072   0.000311254344 -0.000128513318   0.000311254373 -0.000128513321      0.307091291     0.931781282
12.6628               0.30485636     0.932418134     0.0003117265 -0.000128875918   0.000311726528 -0.000128875921      0.307488274     0.931634728
12.662828            0.305255271     0.932271891   0.000312199446 -0.000129239555   0.000312199475 -0.000129239558      0.307885522     0.931487869
12.662856             0.30565445      0.93212534   0.000312673183 -0.000129604232   0.000312673212 -0.000129604235      0.308283034     0.931340704
12.662884            0.306053896     0.931978483   0.000313147714 -0.000129969952   0.000313147743 -0.000129969955      0.308680813     0.931193232
12.662912             0.30645361     0.931831317   0.000313623038 -0.000130336719   0.000313623067 -0.000130336722      0.309078857     0.931045454
12.66294             0.306853591     0.931683843   0.000314099158 -0.000130704536   0.000314099187 -0.000130704539      0.309477167     0.930897368
12.662968            0.307253841      0.93153606   0.000314576073 -0.000131073405   0.000314576102 -0.000131073408      0.309875743     0.930748974
12.662996            0.307654359     0.931387968   0.000315053786  -0.00013144333   0.000315053816 -0.000131443333      0.310274586     0.930600272
12.663024            0.308055146     0.931239564   0.000315532298 -0.000131814315   0.000315532327 -0.000131814318      0.310673696     0.930451259
12.663052            0.308456202      0.93109085    0.00031601161 -0.000132186362   0.000316011639 -0.000132186365      0.311073073     0.930301937
12.66308             0.308857527     0.930941824   0.000316491722 -0.000132559474   0.000316491751 -0.000132559478      0.311472717     0.930152304
12.663108            0.309259122     0.930792485   0.000316972637 -0.000132933656   0.000316972666 -0.000132933659      0.311872629      0.93000236
12.663136            0.309660986     0.930642833   0.000317454355 -0.000133308909   0.000317454384 -0.000133308913       0.31227281     0.929852103
12.663164            0.310063121     0.930492868   0.000317936877 -0.000133685239   0.000317936906 -0.000133685242      0.312673258     0.929701534
12.663192            0.310465526     0.930342588   0.000318420205 -0.000134062646   0.000318420235  -0.00013406265      0.313073975     0.929550651
12.66322             0.310868202     0.930191993    0.00031890434 -0.000134441136    0.00031890437 -0.000134441139      0.313474961     0.929399454
12.663248            0.311271149     0.930041083   0.000319389283 -0.000134820711   0.000319389313 -0.000134820714      0.313876215     0.929247943
12.663276            0.311674367     0.929889856   0.000319875036 -0.000135201374   0.000319875065 -0.000135201378       0.31427774     0.929096116
12.663304            0.312077856     0.929738312   0.000320361598 -0.000135583129   0.000320361628 -0.000135583133      0.314679533     0.928943974
12.663332            0.312481617      0.92958645   0.000320848973  -0.00013596598   0.000320849002 -0.000135965983      0.315081597     0.928791514
12.66336             0.312885651      0.92943427    0.00032133716 -0.000136349929   0.000321337189 -0.000136349932      0.315483931     0.928638737
12.663388            0.313289957     0.929281771    0.00032182616  -0.00013673498    0.00032182619 -0.000136734983      0.315886536     0.928485643
12.663416            0.313694535     0.929128952   0.000322315976 -0.000137121135   0.000322316006 -0.000137121139      0.316289411     0.928332229
12.663444            0.314099387     0.928975813   0.000322806609   -0.0001375084   0.000322806638 -0.000137508403      0.316692558     0.928178496
12.663472            0.314504511     0.928822353   0.000323298058 -0.000137896776   0.000323298088  -0.00013789678      0.317095976     0.928024444
12.6635               0.31490991     0.928668571   0.000323790327 -0.000138286268   0.000323790356 -0.000138286271      0.317499665      0.92787007
