! TOUCHSTONE file generated by CST MICROWAVE STUDIO
! Date and time: Wed Jul 31 15:50:56 2024
! Project name: WaveGuide_BPF-Ver4.1_U-shape_Ku_T3_C4_CWA_2.cst
! Parameters = {cavity_h=16; cavity_l0=10; cavity_l1=15.2208; cavity_l2=16.8587; cavity_l3=17.1085; cavity_l4=17.2711; cavity_l5=17.1582; cavity_l6=17.5584; cavity_r=2.5; cavity_screw_l=0.5; cavity_screw_r=1.5; cavity_w=8; iris_h00=0; iris_h01=8.8007; iris_h112=0; iris_h12=5.6066; iris_h211=3.6554; iris_h23=5.2046; iris_h310=3.9755; iris_h34=5.0722; iris_h45=4.9231; iris_h49=4.627; iris_h56=4.8081; iris_h58=4.4373; iris_h67=6.5713; iris_rx=0.1; iris_screw_l=0.5; iris_screw_r=1.5; iris_shift00=0; iris_shift112=0; iris_shift211=3.5; iris_shift310=0; iris_shift49=0; iris_shift58=3.5; iris_shift67=3.5; iris_tx=4.5; iris_tz=4.5; iris_w00=0; iris_w112=0; iris_w211=4; iris_w310=3.9755; iris_w49=4.627; iris_w58=4; iris_w67=4; mesh_cavity=5; mesh_iris=7; mesh_screw=7; order=12; reset_all=0; sigma=4.8e+07}
! Header version: 2018
! Port assignment regex: !\s*Touchstone port\s*([0-9]+)\s*=\s*(CST MWS port|CST DS port)\s*([0-9]+|Zmin|Zmax)\s*\(\"(.*)\"\)(\s*mode\s*([0-9]+))?.*
! Touchstone port assignment:
! Touchstone port 1 = CST MWS port 1 ("")
! Touchstone port 2 = CST MWS port 2 ("")
# GHz S RI R 50
12.66                0.355221518     0.912150994   0.000301431205 -0.000145166366   0.000301431205 -0.000145166365      0.359516254     0.910540836
12.660028            0.355658357     0.911962768   0.000301874943 -0.000145571742   0.000301874943 -0.000145571741      0.359951429     0.910350937
12.660056             0.35609547     0.911774162   0.000302319385 -0.000145978281   0.000302319384  -0.00014597828      0.360386873     0.910160657
12.660084            0.356532855     0.911585174   0.000302764532 -0.000146385988   0.000302764531 -0.000146385986      0.360822586     0.909969996
12.660112            0.356970512     0.911395804   0.000303210385 -0.000146794864   0.000303210384 -0.000146794863      0.361258569     0.909778953
12.66014             0.357408438     0.911206053   0.000303656946 -0.000147204915   0.000303656945 -0.000147204913      0.361694819     0.909587528
12.660168            0.357846636     0.911015918   0.000304104215 -0.000147616142   0.000304104214 -0.000147616141      0.362131339      0.90939572
12.660196            0.358285104       0.9108254   0.000304552193 -0.000148028551   0.000304552193  -0.00014802855      0.362568127     0.909203528
12.660224            0.358723845     0.910634498   0.000305000882 -0.000148442145   0.000305000882 -0.000148442143      0.363005185     0.909010951
12.660252            0.359162857      0.91044321   0.000305450283 -0.000148856927   0.000305450282 -0.000148856926      0.363442513      0.90881799
12.66028             0.359602141     0.910251536   0.000305900395 -0.000149272901   0.000305900394   -0.0001492729       0.36388011     0.908624642
12.660308            0.360041697     0.910059476    0.00030635122 -0.000149690072    0.00030635122  -0.00014969007      0.364317977     0.908430907
12.660336            0.360481526     0.909867027    0.00030680276 -0.000150108442   0.000306802759  -0.00015010844      0.364756114     0.908236785
12.660364            0.360921627     0.909674191   0.000307255014 -0.000150528015   0.000307255014 -0.000150528014      0.365194521     0.908042274
12.660392               0.361362     0.909480965   0.000307707985 -0.000150948795   0.000307707985 -0.000150948794      0.365633199     0.907847374
12.66042             0.361802647      0.90928735   0.000308161673 -0.000151370787   0.000308161672 -0.000151370785      0.366072147     0.907652084
12.660448            0.362243566     0.909093344   0.000308616078 -0.000151793993   0.000308616078 -0.000151793991      0.366511366     0.907456404
12.660476            0.362684759     0.908898946   0.000309071202 -0.000152218417   0.000309071202 -0.000152218416      0.366950856     0.907260332
12.660504            0.363126225     0.908704157   0.000309527046 -0.000152644064   0.000309527046 -0.000152644062      0.367390617     0.907063868
12.660532            0.363567965     0.908508974   0.000309983611 -0.000153070936   0.000309983611 -0.000153070935      0.367830649     0.906867011
12.66056             0.364009978     0.908313398   0.000310440898 -0.000153499039   0.000310440897 -0.000153499038      0.368270953      0.90666976
12.660588            0.364452265     0.908117428   0.000310898907 -0.000153928375   0.000310898907 -0.000153928374      0.368711528     0.906472114
12.660616            0.364894826     0.907921062    0.00031135764 -0.000154358949   0.000311357639 -0.000154358948      0.369152375     0.906274074
12.660644            0.365337661       0.9077243   0.000311817097 -0.000154790764   0.000311817097 -0.000154790763      0.369593493     0.906075637
12.660672            0.365780771     0.907527141    0.00031227728 -0.000155223824    0.00031227728 -0.000155223823      0.370034884     0.905876803
12.6607              0.366224155     0.907329585   0.000312738189 -0.000155658134   0.000312738189 -0.000155658133      0.370476547     0.905677572
12.660728            0.366667814      0.90713163   0.000313199826 -0.000156093697   0.000313199826 -0.000156093695      0.370918482     0.905477942
12.660756            0.367111748     0.906933276   0.000313662191 -0.000156530516   0.000313662191 -0.000156530515       0.37136069     0.905277913
12.660784            0.367555956     0.906734522   0.000314125285 -0.000156968597   0.000314125285 -0.000156968595      0.371803171     0.905077484
12.660812             0.36800044     0.906535367    0.00031458911 -0.000157407942   0.000314589109 -0.000157407941      0.372245924     0.904876655
12.66084               0.3684452     0.906335811   0.000315053665 -0.000157848556   0.000315053665 -0.000157848555      0.372688951     0.904675423
12.660868            0.368890234     0.906135852   0.000315518953 -0.000158290443   0.000315518953 -0.000158290442      0.373132251      0.90447379
12.660896            0.369335545      0.90593549   0.000315984974 -0.000158733607   0.000315984974 -0.000158733605      0.373575824     0.904271753
12.660924            0.369781131     0.905734725   0.000316451729 -0.000159178051   0.000316451729  -0.00015917805      0.374019671     0.904069312
12.660952            0.370226994     0.905533554   0.000316919219  -0.00015962378   0.000316919218 -0.000159623779      0.374463791     0.903866466
12.66098             0.370673133     0.905331978   0.000317387444 -0.000160070798   0.000317387444 -0.000160070796      0.374908185     0.903663215
12.661008            0.371119548     0.905129996   0.000317856407 -0.000160519108   0.000317856407 -0.000160519107      0.375352854     0.903459557
12.661036            0.371566239     0.904927606   0.000318326107 -0.000160968716   0.000318326107 -0.000160968714      0.375797796     0.903255492
12.661064            0.372013208     0.904724809   0.000318796546 -0.000161419624   0.000318796546 -0.000161419623      0.376243013     0.903051019
12.661092            0.372460453     0.904521602   0.000319267725 -0.000161871837   0.000319267724 -0.000161871836      0.376688505     0.902846138
12.66112             0.372907975     0.904317987   0.000319739644  -0.00016232536   0.000319739643 -0.000162325358      0.377134271     0.902640847
12.661148            0.373355775      0.90411396   0.000320212304 -0.000162780195   0.000320212304 -0.000162780194      0.377580312     0.902435145
12.661176            0.373803851     0.903909523   0.000320685707 -0.000163236348   0.000320685707 -0.000163236346      0.378026628     0.902229032
12.661204            0.374252206     0.903704673   0.000321159854 -0.000163693822   0.000321159853  -0.00016369382      0.378473219     0.902022507
12.661232            0.374700838     0.903499411   0.000321634744 -0.000164152622   0.000321634744  -0.00016415262      0.378920085     0.901815569
12.66126             0.375149748     0.903293734    0.00032211038 -0.000164612751    0.00032211038 -0.000164612749      0.379367227     0.901608217
12.661288            0.375598936     0.903087644   0.000322586762 -0.000165074214   0.000322586762 -0.000165074213      0.379814645     0.901400451
12.661316            0.376048402     0.902881138   0.000323063891 -0.000165537015   0.000323063891 -0.000165537014      0.380262339      0.90119227
12.661344            0.376498147     0.902674215   0.000323541768 -0.000166001159   0.000323541768 -0.000166001158      0.380710308     0.900983672
12.661372             0.37694817     0.902466876   0.000324020394 -0.000166466649   0.000324020394 -0.000166466648      0.381158554     0.900774658
12.6614              0.377398471     0.902259119    0.00032449977  -0.00016693349    0.00032449977 -0.000166933488      0.381607076     0.900565225
12.661428            0.377849052     0.902050943   0.000324979897 -0.000167401685   0.000324979896 -0.000167401684      0.382055874     0.900355374
12.661456            0.378299912     0.901842348   0.000325460775  -0.00016787124   0.000325460775 -0.000167871239      0.382504949     0.900145103
12.661484             0.37875105     0.901633333   0.000325942406 -0.000168342159   0.000325942406 -0.000168342157      0.382954301     0.899934413
12.661512            0.379202468     0.901423896    0.00032642479 -0.000168814445    0.00032642479 -0.000168814443       0.38340393       0.8997233
12.66154             0.379654166     0.901214037   0.000326907929 -0.000169288103   0.000326907929 -0.000169288101      0.383853836     0.899511766
12.661568            0.380106143     0.901003755   0.000327391823 -0.000169763137   0.000327391823 -0.000169763136      0.384304019     0.899299809
12.661596              0.3805584      0.90079305   0.000327876474 -0.000170239552   0.000327876474 -0.000170239551      0.384754479     0.899087429
12.661624            0.381010937      0.90058192   0.000328361882 -0.000170717353   0.000328361881 -0.000170717351      0.385205217     0.898874623
12.661652            0.381463755     0.900370365   0.000328848048 -0.000171196542   0.000328848047 -0.000171196541      0.385656233     0.898661393
12.66168             0.381916852     0.900158383   0.000329334973 -0.000171677126   0.000329334972 -0.000171677125      0.386107527     0.898447736
12.661708             0.38237023     0.899945974   0.000329822657 -0.000172159108   0.000329822657 -0.000172159106      0.386559099     0.898233652
12.661736            0.382823889     0.899733138   0.000330311103 -0.000172642492   0.000330311103  -0.00017264249      0.387010949      0.89801914
12.661764            0.383277828     0.899519872   0.000330800311 -0.000173127283    0.00033080031 -0.000173127282      0.387463077     0.897804199
12.661792            0.383732048     0.899306177   0.000331290281 -0.000173613486    0.00033129028 -0.000173613484      0.387915484     0.897588829
12.66182              0.38418655     0.899092051   0.000331781014 -0.000174101104   0.000331781014 -0.000174101103      0.388368169     0.897373028
12.661848            0.384641332     0.898877494   0.000332272512 -0.000174590143   0.000332272512 -0.000174590142      0.388821134     0.897156796
12.661876            0.385096396     0.898662504   0.000332764776 -0.000175080607   0.000332764776 -0.000175080605      0.389274377     0.896940131
12.661904            0.385551742     0.898447082   0.000333257806   -0.0001755725   0.000333257805 -0.000175572499        0.3897279     0.896723033
12.661932            0.386007369     0.898231225   0.000333751603 -0.000176065827   0.000333751602 -0.000176065825      0.390181701     0.896505502
12.66196             0.386463278     0.898014934   0.000334246168 -0.000176560592   0.000334246167 -0.000176560591      0.390635783     0.896287535
12.661988             0.38691947     0.897798206   0.000334741502   -0.0001770568   0.000334741501 -0.000177056799      0.391090144     0.896069133
12.662016            0.387375943     0.897581042   0.000335237605 -0.000177554456   0.000335237605 -0.000177554454      0.391544784     0.895850294
12.662044            0.387832699     0.897363441    0.00033573448 -0.000178053563    0.00033573448 -0.000178053562      0.391999705     0.895631018
12.662072            0.388289737     0.897145401   0.000336232126 -0.000178554128   0.000336232126 -0.000178554126      0.392454905     0.895411303
12.6621              0.388747058     0.896926922   0.000336730545 -0.000179056153   0.000336730545 -0.000179056152      0.392910386     0.895191149
12.662128            0.389204662     0.896708002   0.000337229737 -0.000179559644   0.000337229737 -0.000179559643      0.393366147     0.894970555
12.662156            0.389662549     0.896488642   0.000337729704 -0.000180064606   0.000337729703 -0.000180064605      0.393822189      0.89474952
12.662184            0.390120719     0.896268839   0.000338230445 -0.000180571043   0.000338230445 -0.000180571042      0.394278511     0.894528043
12.662212            0.390579172     0.896048594   0.000338731963  -0.00018107896   0.000338731963 -0.000181078958      0.394735114     0.894306123
12.66224             0.391037909     0.895827905   0.000339234258 -0.000181588361   0.000339234257  -0.00018158836      0.395191998      0.89408376
12.662268            0.391496929     0.895606771    0.00033973733 -0.000182099251    0.00033973733  -0.00018209925      0.395649163     0.893860952
12.662296            0.391956233     0.895385192   0.000340241181 -0.000182611636   0.000340241181 -0.000182611634       0.39610661     0.893637698
12.662324            0.392415821     0.895163167   0.000340745812 -0.000183125518   0.000340745812 -0.000183125517      0.396564337     0.893413999
12.662352            0.392875693     0.894940694   0.000341251223 -0.000183640905   0.000341251223 -0.000183640903      0.397022347     0.893189851
12.66238             0.393335849     0.894717772   0.000341757416 -0.000184157799   0.000341757416 -0.000184157798      0.397480638     0.892965256
12.662408            0.393796289     0.894494402   0.000342264391 -0.000184676206    0.00034226439 -0.000184676205      0.397939211     0.892740212
12.662436            0.394257014     0.894270582   0.000342772149 -0.000185196131   0.000342772148  -0.00018519613      0.398398066     0.892514717
12.662464            0.394718024      0.89404631    0.00034328069 -0.000185717579    0.00034328069 -0.000185717577      0.398857203     0.892288772
12.662492            0.395179318     0.893821587   0.000343790017 -0.000186240553   0.000343790016 -0.000186240552      0.399316623     0.892062375
12.66252             0.395640898     0.893596411   0.000344300129  -0.00018676506   0.000344300129 -0.000186765059      0.399776325     0.891835526
12.662548            0.396102762     0.893370781   0.000344811028 -0.000187291104   0.000344811027 -0.000187291103      0.400236309     0.891608222
12.662576            0.396564912     0.893144697   0.000345322714  -0.00018781869   0.000345322713 -0.000187818689      0.400696576     0.891380464
12.662604            0.397027347     0.892918157   0.000345835188 -0.000188347823   0.000345835188 -0.000188347822      0.401157126     0.891152251
12.662632            0.397490068     0.892691161   0.000346348451 -0.000188878508   0.000346348451 -0.000188878506       0.40161796     0.890923581
12.66266             0.397953074     0.892463707   0.000346862505 -0.000189410749   0.000346862504 -0.000189410748      0.402079076     0.890694454
12.662688            0.398416366     0.892235795   0.000347377349 -0.000189944552   0.000347377348  -0.00018994455      0.402540476     0.890464869
12.662716            0.398879945     0.892007423   0.000347892984 -0.000190479921   0.000347892984  -0.00019047992      0.403002159     0.890234824
12.662744            0.399343809     0.891778592   0.000348409412 -0.000191016862   0.000348409412 -0.000191016861      0.403464125      0.89000432
12.662772             0.39980796     0.891549299   0.000348926634  -0.00019155538   0.000348926634 -0.000191555378      0.403926376     0.889773354
12.6628              0.400272397     0.891319544   0.000349444649 -0.000192095479   0.000349444649 -0.000192095477       0.40438891     0.889541927
12.662828             0.40073712     0.891089326    0.00034996346 -0.000192637164    0.00034996346 -0.000192637163      0.404851729     0.889310036
12.662856            0.401202131     0.890858644   0.000350483066 -0.000193180442   0.000350483066  -0.00019318044      0.405314831     0.889077682
12.662884            0.401667428     0.890627498   0.000351003469 -0.000193725316   0.000351003469 -0.000193725314      0.405778218     0.888844863
12.662912            0.402133012     0.890395885    0.00035152467 -0.000194271791   0.000351524669  -0.00019427179       0.40624189     0.888611578
12.66294             0.402598883     0.890163806   0.000352046668 -0.000194819874   0.000352046668 -0.000194819873      0.406705846     0.888377827
12.662968            0.403065042     0.889931259   0.000352569466 -0.000195369569   0.000352569466 -0.000195369567      0.407170086     0.888143608
12.662996            0.403531488     0.889698243   0.000353093064 -0.000195920881   0.000353093064 -0.000195920879      0.407634612      0.88790892
12.663024            0.403998222     0.889464757   0.000353617463 -0.000196473815   0.000353617462 -0.000196473813      0.408099423     0.887673763
12.663052            0.404465243     0.889230801   0.000354142663 -0.000197028376   0.000354142662 -0.000197028375      0.408564518     0.887438135
12.66308             0.404932552     0.888996374   0.000354668665 -0.000197584571   0.000354668665 -0.000197584569      0.409029899     0.887202036
12.663108             0.40540015     0.888761474   0.000355195471 -0.000198142403   0.000355195471 -0.000198142401      0.409495566     0.886965464
12.663136            0.405868035       0.8885261   0.000355723081 -0.000198701878    0.00035572308 -0.000198701876      0.409961518     0.886728419
12.663164            0.406336209     0.888290252   0.000356251495 -0.000199263001   0.000356251495    -0.000199263      0.410427756       0.8864909
12.663192            0.406804671     0.888053928   0.000356780715 -0.000199825778   0.000356780715 -0.000199825777       0.41089428     0.886252906
12.66322             0.407273421     0.887817128   0.000357310742 -0.000200390214   0.000357310742 -0.000200390213      0.411361089     0.886014435
12.663248            0.407742461     0.887579851   0.000357841576 -0.000200956314   0.000357841576 -0.000200956313      0.411828185     0.885775487
12.663276            0.408211789     0.887342095   0.000358373218 -0.000201524084   0.000358373217 -0.000201524083      0.412295567      0.88553606
12.663304            0.408681406      0.88710386   0.000358905668 -0.000202093528   0.000358905668 -0.000202093527      0.412763235     0.885296155
12.663332            0.409151313     0.886865145   0.000359438928 -0.000202664653   0.000359438928 -0.000202664652       0.41323119     0.885055769
12.66336             0.409621508     0.886625948   0.000359972999 -0.000203237463   0.000359972999 -0.000203237462      0.413699432     0.884814902
12.663388            0.410091993     0.886386269   0.000360507881 -0.000203811964    0.00036050788 -0.000203811963       0.41416796     0.884573554
12.663416            0.410562767     0.886146107   0.000361043574 -0.000204388161   0.000361043574  -0.00020438816      0.414636775     0.884331721
12.663444            0.411033832      0.88590546   0.000361580081 -0.000204966061    0.00036158008 -0.000204966059      0.415105878     0.884089405
12.663472            0.411505185     0.885664329     0.0003621174 -0.000205545667     0.0003621174 -0.000205545665      0.415575267     0.883846604
12.6635              0.411976829     0.885422711   0.000362655534 -0.000206126986   0.000362655534 -0.000206126984      0.416044944     0.883603317
