! TOUCHSTONE file generated by CST MICROWAVE STUDIO
! Date and time: Wed Jul 31 16:00:26 2024
! Project name: WaveGuide_BPF-Ver4.1_U-shape_Ku_T3_C4_CWA_2.cst
! Parameters = {cavity_h=16; cavity_l0=10; cavity_l1=15.173; cavity_l2=16.878; cavity_l3=17.102; cavity_l4=17.3033; cavity_l5=17.0966; cavity_l6=17.5659; cavity_r=2.5; cavity_screw_l=0.5; cavity_screw_r=1.5; cavity_w=8; iris_h00=0; iris_h01=8.8023; iris_h112=0; iris_h12=5.5893; iris_h211=3.6669; iris_h23=5.2088; iris_h310=3.9715; iris_h34=5.0815; iris_h45=4.9202; iris_h49=4.6282; iris_h56=4.7926; iris_h58=4.4502; iris_h67=6.5699; iris_rx=0.1; iris_screw_l=0.5; iris_screw_r=1.5; iris_shift00=0; iris_shift112=0; iris_shift211=3.5; iris_shift310=0; iris_shift49=0; iris_shift58=3.5; iris_shift67=3.5; iris_tx=4.5; iris_tz=4.5; iris_w00=0; iris_w112=0; iris_w211=4; iris_w310=3.9715; iris_w49=4.6282; iris_w58=4; iris_w67=4; mesh_cavity=5; mesh_iris=7; mesh_screw=7; order=12; reset_all=0; sigma=4.8e+07}
! Header version: 2018
! Port assignment regex: !\s*Touchstone port\s*([0-9]+)\s*=\s*(CST MWS port|CST DS port)\s*([0-9]+|Zmin|Zmax)\s*\(\"(.*)\"\)(\s*mode\s*([0-9]+))?.*
! Touchstone port assignment:
! Touchstone port 1 = CST MWS port 1 ("")
! Touchstone port 2 = CST MWS port 2 ("")
# GHz S RI R 50
12.66                0.188433386     0.966308548   0.000248686051 -6.85045666e-05   0.000248686051 -6.85045663e-05      0.193974805     0.965169702
12.660028            0.188764974     0.966233317   0.000249079273 -6.87140998e-05   0.000249079273 -6.87140995e-05       0.19430822      0.96509202
12.660056            0.189096708     0.966157923   0.000249473255   -6.892424e-05   0.000249473255 -6.89242397e-05      0.194641768     0.965014173
12.660084            0.189428617     0.966082359   0.000249867995 -6.91349966e-05   0.000249867994 -6.91349963e-05      0.194975485     0.964936156
12.660112            0.189760729      0.96600662   0.000250263489 -6.93463795e-05   0.000250263489 -6.93463792e-05      0.195309405      0.96485796
12.66014             0.190093074       0.9659307   0.000250659737 -6.95583984e-05   0.000250659737 -6.95583981e-05      0.195643564     0.964779578
12.660168            0.190425653     0.965854599    0.00025105674 -6.97710552e-05    0.00025105674 -6.97710549e-05      0.195977961      0.96470101
12.660196            0.190758445     0.965778319   0.000251454502 -6.99843471e-05   0.000251454502 -6.99843468e-05      0.196312574     0.964622261
12.660224            0.191091453      0.96570186   0.000251853025 -7.01982759e-05   0.000251853024 -7.01982756e-05      0.196647403     0.964543329
12.660252            0.191424675     0.965625223   0.000252252309 -7.04128439e-05   0.000252252309 -7.04128436e-05      0.196982448     0.964464215
12.66028             0.191758111     0.965548407   0.000252652358 -7.06280531e-05   0.000252652358 -7.06280527e-05       0.19731771     0.964384918
12.660308            0.192091763     0.965471411   0.000253053173 -7.08439055e-05   0.000253053173 -7.08439052e-05      0.197653188     0.964305438
12.660336            0.192425631     0.965394235   0.000253454755 -7.10604033e-05   0.000253454755  -7.1060403e-05      0.197988884     0.964225774
12.660364            0.192759714     0.965316878   0.000253857106 -7.12775486e-05   0.000253857106 -7.12775483e-05      0.198324796     0.964145927
12.660392            0.193094013     0.965239342   0.000254260228 -7.14953435e-05   0.000254260228 -7.14953431e-05      0.198660926     0.964065895
12.66042             0.193428528     0.965161624   0.000254664122   -7.171379e-05   0.000254664122 -7.17137897e-05      0.198997274     0.963985678
12.660448            0.193763259     0.965083725    0.00025506879 -7.19328905e-05    0.00025506879 -7.19328902e-05       0.19933384     0.963905277
12.660476            0.194098207     0.965005644   0.000255474235 -7.21526469e-05   0.000255474234 -7.21526466e-05      0.199670623      0.96382469
12.660504            0.194433372     0.964927382   0.000255880456 -7.23730614e-05   0.000255880456 -7.23730611e-05      0.200007626     0.963743918
12.660532            0.194768755     0.964848937   0.000256287457 -7.25941362e-05   0.000256287457 -7.25941359e-05      0.200344847     0.963662959
12.66056             0.195104354     0.964770309    0.00025669524 -7.28158734e-05    0.00025669524 -7.28158731e-05      0.200682286     0.963581814
12.660588            0.195440171     0.964691498   0.000257103804 -7.30382752e-05   0.000257103804 -7.30382749e-05      0.201019945     0.963500482
12.660616            0.195776206     0.964612504   0.000257513154 -7.32613438e-05   0.000257513153 -7.32613435e-05      0.201357824     0.963418963
12.660644            0.196112459     0.964533326   0.000257923289 -7.34850813e-05   0.000257923289  -7.3485081e-05      0.201695922     0.963337257
12.660672             0.19644893     0.964453964   0.000258334212   -7.370949e-05   0.000258334212 -7.37094897e-05       0.20203424     0.963255362
12.6607               0.19678562     0.964374417   0.000258745925  -7.3934572e-05   0.000258745925 -7.39345717e-05      0.202372778      0.96317328
12.660728            0.197122529     0.964294686   0.000259158429 -7.41603295e-05   0.000259158429 -7.41603292e-05      0.202711536     0.963091009
12.660756            0.197459657     0.964214769   0.000259571726 -7.43867648e-05   0.000259571726 -7.43867645e-05      0.203050516     0.963008548
12.660784            0.197797004     0.964134666   0.000259985819 -7.46138801e-05   0.000259985819 -7.46138798e-05      0.203389716     0.962925899
12.660812            0.198134571     0.964054378   0.000260400707 -7.48416777e-05   0.000260400707 -7.48416773e-05      0.203729137     0.962843059
12.66084             0.198472358     0.963973904   0.000260816394 -7.50701596e-05   0.000260816394 -7.50701593e-05       0.20406878      0.96276003
12.660868            0.198810365     0.963893242   0.000261232882 -7.52993283e-05   0.000261232882  -7.5299328e-05      0.204408644      0.96267681
12.660896            0.199148592     0.963812394   0.000261650171 -7.55291859e-05   0.000261650171 -7.55291856e-05       0.20474873     0.962593399
12.660924            0.199487039     0.963731358   0.000262068263 -7.57597347e-05   0.000262068263 -7.57597344e-05      0.205089039     0.962509797
12.660952            0.199825708     0.963650135   0.000262487161 -7.59909771e-05   0.000262487161 -7.59909768e-05      0.205429569     0.962426004
12.66098             0.200164598     0.963568723   0.000262906867 -7.62229152e-05   0.000262906867 -7.62229149e-05      0.205770323     0.962342018
12.661008            0.200503708     0.963487123   0.000263327381 -7.64555513e-05   0.000263327381  -7.6455551e-05      0.206111299      0.96225784
12.661036            0.200843041     0.963405334   0.000263748706 -7.66888878e-05   0.000263748706 -7.66888875e-05      0.206452499     0.962173469
12.661064            0.201182595     0.963323356   0.000264170843  -7.6922927e-05   0.000264170843 -7.69229267e-05      0.206793922     0.962088906
12.661092            0.201522372     0.963241188   0.000264593795 -7.71576711e-05   0.000264593795 -7.71576708e-05      0.207135569     0.962004148
12.66112             0.201862371      0.96315883   0.000265017563 -7.73931225e-05   0.000265017563 -7.73931222e-05      0.207477439     0.961919197
12.661148            0.202202592     0.963076282   0.000265442149 -7.76292836e-05   0.000265442149 -7.76292833e-05      0.207819534     0.961834052
12.661176            0.202543037     0.962993543   0.000265867554 -7.78661566e-05   0.000265867554 -7.78661563e-05      0.208161853     0.961748712
12.661204            0.202883704     0.962910613   0.000266293782 -7.81037439e-05   0.000266293781 -7.81037436e-05      0.208504397     0.961663177
12.661232            0.203224595     0.962827492   0.000266720832 -7.83420479e-05   0.000266720832 -7.83420476e-05      0.208847166     0.961577446
12.66126             0.203565709     0.962744178   0.000267148708  -7.8581071e-05   0.000267148708 -7.85810707e-05      0.209190161      0.96149152
12.661288            0.203907048     0.962660673    0.00026757741 -7.88208154e-05    0.00026757741 -7.88208151e-05       0.20953338     0.961405397
12.661316             0.20424861     0.962576974   0.000268006942 -7.90612836e-05   0.000268006942 -7.90612833e-05      0.209876826     0.961319078
12.661344            0.204590397     0.962493083   0.000268437304  -7.9302478e-05   0.000268437304 -7.93024777e-05      0.210220497     0.961232562
12.661372            0.204932408     0.962408998   0.000268868498  -7.9544401e-05   0.000268868498 -7.95444007e-05      0.210564395     0.961145849
12.6614              0.205274645      0.96232472   0.000269300527 -7.97870549e-05   0.000269300527 -7.97870546e-05      0.210908519     0.961058938
12.661428            0.205617106     0.962240247   0.000269733392 -8.00304423e-05   0.000269733392  -8.0030442e-05       0.21125287     0.960971829
12.661456            0.205959793      0.96215558   0.000270167095 -8.02745655e-05   0.000270167095 -8.02745651e-05      0.211597448     0.960884521
12.661484            0.206302706     0.962070718   0.000270601638 -8.05194269e-05   0.000270601638 -8.05194266e-05      0.211942253     0.960797014
12.661512            0.206645845      0.96198566   0.000271037023 -8.07650291e-05   0.000271037023 -8.07650288e-05      0.212287286     0.960709308
12.66154             0.206989209     0.961900407   0.000271473251 -8.10113744e-05   0.000271473251 -8.10113741e-05      0.212632546     0.960621403
12.661568            0.207332801     0.961814958   0.000271910325 -8.12584653e-05   0.000271910325  -8.1258465e-05      0.212978035     0.960533297
12.661596            0.207676619     0.961729312   0.000272348246 -8.15063043e-05   0.000272348246  -8.1506304e-05      0.213323752     0.960444991
12.661624            0.208020664      0.96164347   0.000272787016 -8.17548939e-05   0.000272787016 -8.17548936e-05      0.213669697     0.960356483
12.661652            0.208364936      0.96155743   0.000273226637 -8.20042366e-05   0.000273226637 -8.20042363e-05      0.214015872     0.960267775
12.66168             0.208709436     0.961471192   0.000273667111 -8.22543348e-05   0.000273667111 -8.22543345e-05      0.214362275     0.960178865
12.661708            0.209054163     0.961384757    0.00027410844 -8.25051911e-05    0.00027410844 -8.25051908e-05      0.214708908     0.960089752
12.661736            0.209399119     0.961298123   0.000274550626  -8.2756808e-05   0.000274550626 -8.27568077e-05      0.215055771     0.960000437
12.661764            0.209744303      0.96121129    0.00027499367  -8.3009188e-05    0.00027499367 -8.30091877e-05      0.215402864      0.95991092
12.661792            0.210089715     0.961124258   0.000275437575 -8.32623337e-05   0.000275437575 -8.32623334e-05      0.215750186     0.959821199
12.66182             0.210435356     0.961037026   0.000275882343 -8.35162475e-05   0.000275882343 -8.35162472e-05      0.216097739     0.959731274
12.661848            0.210781226     0.960949595   0.000276327974 -8.37709321e-05   0.000276327974 -8.37709318e-05      0.216445523     0.959641145
12.661876            0.211127326     0.960861962   0.000276774472   -8.402639e-05   0.000276774472 -8.40263897e-05      0.216793538     0.959550811
12.661904            0.211473655     0.960774129   0.000277221838 -8.42826238e-05   0.000277221838 -8.42826235e-05      0.217141784     0.959460273
12.661932            0.211820214     0.960686095   0.000277670075  -8.4539636e-05   0.000277670075 -8.45396357e-05      0.217490262     0.959369529
12.66196             0.212167004     0.960597859   0.000278119183 -8.47974293e-05   0.000278119183  -8.4797429e-05      0.217838971     0.959278579
12.661988            0.212514023     0.960509422   0.000278569165 -8.50560063e-05   0.000278569165  -8.5056006e-05      0.218187912     0.959187424
12.662016            0.212861274     0.960420781   0.000279020023 -8.53153696e-05   0.000279020023 -8.53153692e-05      0.218537086     0.959096061
12.662044            0.213208755     0.960331938   0.000279471759 -8.55755217e-05   0.000279471759 -8.55755214e-05      0.218886492     0.959004492
12.662072            0.213556467     0.960242892   0.000279924375 -8.58364654e-05   0.000279924375  -8.5836465e-05      0.219236131     0.958912715
12.6621              0.213904411     0.960153642   0.000280377873 -8.60982032e-05   0.000280377872 -8.60982029e-05      0.219586004      0.95882073
12.662128            0.214252587     0.960064188   0.000280832254 -8.63607378e-05   0.000280832254 -8.63607375e-05      0.219936109     0.958728537
12.662156            0.214600995     0.959974529   0.000281287521  -8.6624072e-05   0.000281287521 -8.66240717e-05      0.220286449     0.958636135
12.662184            0.214949635     0.959884666   0.000281743675 -8.68882082e-05   0.000281743675 -8.68882079e-05      0.220637022     0.958543525
12.662212            0.215298507     0.959794597   0.000282200719 -8.71531493e-05   0.000282200719  -8.7153149e-05      0.220987829     0.958450704
12.66224             0.215647613     0.959704322   0.000282658655  -8.7418898e-05   0.000282658655 -8.74188977e-05      0.221338871     0.958357674
12.662268            0.215996951     0.959613842   0.000283117484 -8.76854568e-05   0.000283117484 -8.76854565e-05      0.221690148     0.958264433
12.662296            0.216346523     0.959523154   0.000283577208 -8.79528286e-05   0.000283577208 -8.79528283e-05      0.222041659     0.958170982
12.662324            0.216696328      0.95943226   0.000284037831  -8.8221016e-05    0.00028403783 -8.82210157e-05      0.222393406     0.958077319
12.662352            0.217046368     0.959341159   0.000284499352 -8.84900218e-05   0.000284499352 -8.84900215e-05      0.222745389     0.957983445
12.66238             0.217396641     0.959249849   0.000284961775 -8.87598487e-05   0.000284961775 -8.87598484e-05      0.223097607     0.957889359
12.662408            0.217747149     0.959158332   0.000285425102 -8.90304995e-05   0.000285425102 -8.90304992e-05      0.223450061      0.95779506
12.662436            0.218097892     0.959066606   0.000285889334 -8.93019769e-05   0.000285889334 -8.93019766e-05      0.223802752     0.957700548
12.662464             0.21844887     0.958974671   0.000286354474 -8.95742838e-05   0.000286354474 -8.95742835e-05       0.22415568     0.957605822
12.662492            0.218800083     0.958882526   0.000286820523 -8.98474228e-05   0.000286820523 -8.98474225e-05      0.224508844     0.957510883
12.66252             0.219151531     0.958790171   0.000287287484 -9.01213968e-05   0.000287287484 -9.01213965e-05      0.224862246      0.95741573
12.662548            0.219503216     0.958697606   0.000287755358 -9.03962085e-05   0.000287755358 -9.03962082e-05      0.225215885     0.957320362
12.662576            0.219855136     0.958604831   0.000288224148 -9.06718609e-05   0.000288224148 -9.06718606e-05      0.225569762     0.957224779
12.662604            0.220207293     0.958511844   0.000288693855 -9.09483567e-05   0.000288693855 -9.09483564e-05      0.225923877      0.95712898
12.662632            0.220559686     0.958418645   0.000289164483 -9.12256987e-05   0.000289164483 -9.12256984e-05       0.22627823     0.957032966
12.66266             0.220912317     0.958325235   0.000289636031 -9.15038899e-05   0.000289636031 -9.15038895e-05      0.226632822     0.956936735
12.662688            0.221265184     0.958231612   0.000290108504 -9.17829329e-05   0.000290108504 -9.17829326e-05      0.226987652     0.956840287
12.662716            0.221618289     0.958137776   0.000290581903 -9.20628308e-05   0.000290581903 -9.20628305e-05      0.227342722     0.956743622
12.662744            0.221971632     0.958043727   0.000291056229 -9.23435864e-05   0.000291056229 -9.23435861e-05      0.227698031     0.956646739
12.662772            0.222325213     0.957949464   0.000291531485 -9.26252026e-05   0.000291531485 -9.26252023e-05       0.22805358     0.956549638
12.6628              0.222679032     0.957854986   0.000292007674 -9.29076823e-05   0.000292007674 -9.29076819e-05      0.228409369     0.956452318
12.662828             0.22303309     0.957760295   0.000292484796 -9.31910283e-05   0.000292484796  -9.3191028e-05      0.228765399     0.956354779
12.662856            0.223387387     0.957665388   0.000292962855 -9.34752437e-05   0.000292962855 -9.34752433e-05      0.229121668     0.956257021
12.662884            0.223741923     0.957570265   0.000293441852 -9.37603312e-05   0.000293441852 -9.37603309e-05      0.229478179     0.956159042
12.662912            0.224096698     0.957474927   0.000293921789  -9.4046294e-05   0.000293921789 -9.40462937e-05      0.229834931     0.956060843
12.66294             0.224451713     0.957379372   0.000294402668 -9.43331349e-05   0.000294402668 -9.43331346e-05      0.230191924     0.955962424
12.662968            0.224806968       0.9572836   0.000294884493 -9.46208569e-05   0.000294884492 -9.46208566e-05      0.230549159     0.955863783
12.662996            0.225162463     0.957187612   0.000295367263  -9.4909463e-05   0.000295367263 -9.49094627e-05      0.230906636      0.95576492
12.663024            0.225518199     0.957091405   0.000295850983 -9.51989562e-05   0.000295850983 -9.51989559e-05      0.231264355     0.955665835
12.663052            0.225874175      0.95699498   0.000296335653 -9.54893394e-05   0.000296335653 -9.54893391e-05      0.231622316     0.955566527
12.66308             0.226230393     0.956898337   0.000296821276 -9.57806156e-05   0.000296821276 -9.57806153e-05      0.231980521     0.955466996
12.663108            0.226586852     0.956801474   0.000297307854  -9.6072788e-05   0.000297307854 -9.60727877e-05      0.232338968     0.955367241
12.663136            0.226943553     0.956704392    0.00029779539 -9.63658595e-05    0.00029779539 -9.63658592e-05      0.232697659     0.955267263
12.663164            0.227300496      0.95660709   0.000298283885 -9.66598331e-05   0.000298283885 -9.66598328e-05      0.233056594      0.95516706
12.663192            0.227657681     0.956509568   0.000298773341  -9.6954712e-05   0.000298773341 -9.69547117e-05      0.233415772     0.955066631
12.66322             0.228015109     0.956411824   0.000299263761 -9.72504991e-05   0.000299263761 -9.72504988e-05      0.233775195     0.954965978
12.663248            0.228372779      0.95631386   0.000299755147 -9.75471977e-05   0.000299755147 -9.75471973e-05      0.234134863     0.954865098
12.663276            0.228730693     0.956215673     0.0003002475 -9.78448106e-05     0.0003002475 -9.78448103e-05      0.234494775     0.954763992
12.663304             0.22908885     0.956117265   0.000300740824 -9.81433411e-05   0.000300740824 -9.81433408e-05      0.234854932     0.954662659
12.663332            0.229447251     0.956018634    0.00030123512 -9.84427923e-05    0.00030123512  -9.8442792e-05      0.235215335     0.954561099
12.66336             0.229805895     0.955919779    0.00030173039 -9.87431673e-05    0.00030173039  -9.8743167e-05      0.235575983     0.954459311
12.663388            0.230164784     0.955820701   0.000302226637 -9.90444692e-05   0.000302226637 -9.90444688e-05      0.235936878     0.954357295
12.663416            0.230523918     0.955721399   0.000302723862 -9.93467011e-05   0.000302723862 -9.93467008e-05      0.236298018      0.95425505
12.663444            0.230883296     0.955621872   0.000303222069 -9.96498663e-05   0.000303222069  -9.9649866e-05      0.236659406     0.954152576
12.663472             0.23124292      0.95552212   0.000303721258 -9.99539679e-05   0.000303721258 -9.99539676e-05       0.23702104     0.954049872
12.6635              0.231602789     0.955422143   0.000304221433 -0.000100259009   0.000304221433 -0.000100259009      0.237382921     0.953946938
