! TOUCHSTONE file generated by CST MICROWAVE STUDIO
! Date and time: Wed Jul 31 16:03:41 2024
! Project name: WaveGuide_BPF-Ver4.1_U-shape_Ku_T3_C4_CWA_2.cst
! Parameters = {cavity_h=16; cavity_l0=10; cavity_l1=15.2061; cavity_l2=16.8652; cavity_l3=17.1153; cavity_l4=17.3016; cavity_l5=17.1353; cavity_l6=17.615; cavity_r=2.5; cavity_screw_l=0.5; cavity_screw_r=1.5; cavity_w=8; iris_h00=0; iris_h01=8.8372; iris_h112=0; iris_h12=5.5933; iris_h211=3.669; iris_h23=5.2059; iris_h310=3.9697; iris_h34=5.0779; iris_h45=4.9374; iris_h49=4.6221; iris_h56=4.7975; iris_h58=4.4471; iris_h67=6.591; iris_rx=0.1; iris_screw_l=0.5; iris_screw_r=1.5; iris_shift00=0; iris_shift112=0; iris_shift211=3.5; iris_shift310=0; iris_shift49=0; iris_shift58=3.5; iris_shift67=3.5; iris_tx=4.5; iris_tz=4.5; iris_w00=0; iris_w112=0; iris_w211=4; iris_w310=3.9697; iris_w49=4.6221; iris_w58=4; iris_w67=4; mesh_cavity=5; mesh_iris=7; mesh_screw=7; order=12; reset_all=0; sigma=4.8e+07}
! Header version: 2018
! Port assignment regex: !\s*Touchstone port\s*([0-9]+)\s*=\s*(CST MWS port|CST DS port)\s*([0-9]+|Zmin|Zmax)\s*\(\"(.*)\"\)(\s*mode\s*([0-9]+))?.*
! Touchstone port assignment:
! Touchstone port 1 = CST MWS port 1 ("")
! Touchstone port 2 = CST MWS port 2 ("")
# GHz S RI R 50
12.66                0.415395667     0.885000636   0.000316213861 -0.000178910026    0.00031621386 -0.000178910026      0.416934316     0.884381049
12.660028            0.415844951     0.884769774   0.000316660022 -0.000179390144   0.000316660021 -0.000179390144       0.41738185     0.884150137
12.660056            0.416294564     0.884538442    0.00031710679 -0.000179871622   0.000317106789 -0.000179871622      0.417829731     0.883918745
12.660084            0.416744473     0.884306653   0.000317554176 -0.000180354454   0.000317554176 -0.000180354454      0.418277921     0.883686893
12.660112            0.417194648      0.88407442   0.000318002196 -0.000180838635   0.000318002195 -0.000180838635      0.418726378     0.883454596
12.66014             0.417645056     0.883841756   0.000318450862  -0.00018132416   0.000318450861  -0.00018132416      0.419175062     0.883221873
12.660168            0.418095699     0.883608662   0.000318900175 -0.000181811033   0.000318900174 -0.000181811033      0.419623973     0.882988724
12.660196            0.418546596     0.883375127   0.000319350127 -0.000182299265   0.000319350126 -0.000182299265      0.420073139     0.882755135
12.660224            0.418997749     0.883141149   0.000319800718 -0.000182788859   0.000319800717 -0.000182788859      0.420522559     0.882521104
12.660252            0.419449157     0.882906728   0.000320251949 -0.000183279819   0.000320251949 -0.000183279819      0.420972234     0.882286632
12.66028              0.41990082     0.882671863   0.000320703821  -0.00018377215    0.00032070382  -0.00018377215      0.421422163     0.882051718
12.660308            0.420352739     0.882436554   0.000321156334 -0.000184265855   0.000321156333 -0.000184265855      0.421872348      0.88181636
12.660336            0.420804914     0.882200798   0.000321609488 -0.000184760939   0.000321609487 -0.000184760939      0.422322786     0.881580558
12.660364            0.421257344     0.881964597   0.000322063283 -0.000185257406   0.000322063283 -0.000185257407       0.42277348      0.88134431
12.660392            0.421710029     0.881727948   0.000322517722  -0.00018575526   0.000322517721 -0.000185755261      0.423224429     0.881107617
12.66042             0.422162971      0.88149085   0.000322972803 -0.000186254506   0.000322972802 -0.000186254506      0.423675633     0.880870477
12.660448            0.422616168     0.881253304   0.000323428528 -0.000186755146   0.000323428527 -0.000186755146      0.424127092     0.880632889
12.660476            0.423069622     0.881015308   0.000323884897 -0.000187257186   0.000323884896 -0.000187257187      0.424578806     0.880394852
12.660504            0.423523332     0.880776861    0.00032434191  -0.00018776063   0.000324341909 -0.000187760631      0.425030776     0.880156367
12.660532            0.423977297     0.880537962   0.000324799568 -0.000188265482   0.000324799567 -0.000188265482      0.425483001     0.879917431
12.66056             0.424431519     0.880298611   0.000325257872 -0.000188771746   0.000325257871 -0.000188771747      0.425935482     0.879678043
12.660588            0.424885998     0.880058807   0.000325716822 -0.000189279427   0.000325716821 -0.000189279427      0.426388219     0.879438204
12.660616            0.425340733     0.879818548   0.000326176418 -0.000189788528   0.000326176417 -0.000189788528      0.426841211     0.879197912
12.660644            0.425795724     0.879577834   0.000326636661 -0.000190299054    0.00032663666 -0.000190299055      0.427294459     0.878957166
12.660672            0.426250973     0.879336664   0.000327097551  -0.00019081101    0.00032709755  -0.00019081101      0.427747963     0.878715965
12.6607              0.426706477     0.879095037   0.000327559089 -0.000191324399   0.000327559089 -0.000191324399      0.428201723     0.878474309
12.660728            0.427162239     0.878852952   0.000328021276 -0.000191839226   0.000328021275 -0.000191839226      0.428655739     0.878232197
12.660756            0.427618258     0.878610409   0.000328484111 -0.000192355495   0.000328484111 -0.000192355495      0.429110011     0.877989627
12.660784            0.428074533     0.878367406   0.000328947596 -0.000192873211   0.000328947595 -0.000192873211       0.42956454     0.877746599
12.660812            0.428531066     0.878123943   0.000329411731 -0.000193392377    0.00032941173 -0.000193392378      0.430019325     0.877503112
12.66084             0.428987856     0.877880018   0.000329876515 -0.000193912999   0.000329876514 -0.000193912999      0.430474366     0.877259166
12.660868            0.429444903     0.877635632   0.000330341951 -0.000194435081    0.00033034195 -0.000194435081      0.430929664     0.877014758
12.660896            0.429902207     0.877390782   0.000330808037 -0.000194958626   0.000330808036 -0.000194958626      0.431385219     0.876769889
12.660924            0.430359769     0.877145468   0.000331274775  -0.00019548364   0.000331274774  -0.00019548364       0.43184103     0.876524557
12.660952            0.430817588     0.876899689   0.000331742165 -0.000196010127   0.000331742165 -0.000196010127      0.432297098     0.876278762
12.66098             0.431275665     0.876653445   0.000332210208 -0.000196538091   0.000332210207 -0.000196538091      0.432753423     0.876032502
12.661008            0.431733999     0.876406734   0.000332678903 -0.000197067537   0.000332678903 -0.000197067537      0.433210005     0.875785777
12.661036            0.432192592     0.876159555   0.000333148252 -0.000197598469   0.000333148251 -0.000197598469      0.433666844     0.875538586
12.661064            0.432651442     0.875911908   0.000333618255 -0.000198130891   0.000333618254 -0.000198130892       0.43412394     0.875290927
12.661092             0.43311055     0.875663791   0.000334088912 -0.000198664809   0.000334088911 -0.000198664809      0.434581293     0.875042801
12.66112             0.433569916     0.875415204   0.000334560223 -0.000199200227   0.000334560223 -0.000199200227      0.435038904     0.874794206
12.661148             0.43402954     0.875166146    0.00033503219 -0.000199737149   0.000335032189 -0.000199737149      0.435496772     0.874545141
12.661176            0.434489422     0.874916616   0.000335504812 -0.000200275579   0.000335504811 -0.000200275579      0.435954897     0.874295605
12.661204            0.434949562     0.874666613    0.00033597809 -0.000200815523   0.000335978089 -0.000200815523       0.43641328     0.874045598
12.661232            0.435409961     0.874416136   0.000336452025 -0.000201356985   0.000336452024 -0.000201356985       0.43687192     0.873795118
12.66126             0.435870618     0.874165183   0.000336926616 -0.000201899969   0.000336926615 -0.000201899969      0.437330819     0.873544165
12.661288            0.436331533     0.873913756   0.000337401864  -0.00020244448   0.000337401863  -0.00020244448      0.437789975     0.873292738
12.661316            0.436792707     0.873661851    0.00033787777 -0.000202990523   0.000337877769 -0.000202990523      0.438249388     0.873040835
12.661344            0.437254139     0.873409469   0.000338354334 -0.000203538102   0.000338354333 -0.000203538102       0.43870906     0.872788456
12.661372            0.437715831     0.873156608   0.000338831556 -0.000204087222   0.000338831555 -0.000204087222       0.43916899     0.872535599
12.6614               0.43817778     0.872903268   0.000339309437 -0.000204637887   0.000339309436 -0.000204637888      0.439629178     0.872282265
12.661428            0.438639989     0.872649447   0.000339787977 -0.000205190103   0.000339787976 -0.000205190104      0.440089624     0.872028452
12.661456            0.439102457     0.872395145   0.000340267176 -0.000205743874   0.000340267175 -0.000205743874      0.440550328     0.871774158
12.661484            0.439565183     0.872140361   0.000340747036 -0.000206299204   0.000340747035 -0.000206299205      0.441011291     0.871519384
12.661512            0.440028169     0.871885093   0.000341227555 -0.000206856099   0.000341227555 -0.000206856099      0.441472511     0.871264128
12.66154             0.440491414     0.871629341   0.000341708736 -0.000207414563   0.000341708735 -0.000207414563      0.441933991      0.87100839
12.661568            0.440954917     0.871373104   0.000342190577   -0.0002079746   0.000342190576 -0.000207974601      0.442395729     0.870752167
12.661596            0.441418681     0.871116381    0.00034267308 -0.000208536216   0.000342673079 -0.000208536217      0.442857725      0.87049546
12.661624            0.441882703     0.870859171   0.000343156245 -0.000209099416   0.000343156244 -0.000209099416       0.44331998     0.870238268
12.661652            0.442346985     0.870601473   0.000343640071 -0.000209664203    0.00034364007 -0.000209664204      0.443782494     0.869980589
12.66168             0.442811526     0.870343287    0.00034412456 -0.000210230584   0.000344124559 -0.000210230584      0.444245267     0.869722422
12.661708            0.443276327      0.87008461   0.000344609712 -0.000210798562   0.000344609711 -0.000210798562      0.444708298     0.869463767
12.661736            0.443741387     0.869825442   0.000345095527 -0.000211368143   0.000345095526 -0.000211368143      0.445171589     0.869204623
12.661764            0.444206707     0.869565783   0.000345582006 -0.000211939331   0.000345582005 -0.000211939331      0.445635138     0.868944988
12.661792            0.444672287     0.869305631   0.000346069148 -0.000212512132   0.000346069147 -0.000212512132      0.446098947     0.868684863
12.66182             0.445138126     0.869044985   0.000346556955 -0.000213086549   0.000346556954  -0.00021308655      0.446563015     0.868424244
12.661848            0.445604225     0.868783845   0.000347045426 -0.000213662589   0.000347045425 -0.000213662589      0.447027341     0.868163133
12.661876            0.446070584     0.868522209   0.000347534561 -0.000214240256   0.000347534561 -0.000214240256      0.447491928     0.867901528
12.661904            0.446537203     0.868260076   0.000348024362 -0.000214819555   0.000348024361 -0.000214819555      0.447956773     0.867639427
12.661932            0.447004083     0.867997446   0.000348514829  -0.00021540049   0.000348514828  -0.00021540049      0.448421878      0.86737683
12.66196             0.447471222     0.867734318   0.000349005961 -0.000215983068    0.00034900596 -0.000215983068      0.448887243     0.867113736
12.661988            0.447938621     0.867470689   0.000349497759 -0.000216567292   0.000349497758 -0.000216567292      0.449352867     0.866850144
12.662016            0.448406281     0.867206561   0.000349990224 -0.000217153168   0.000349990223 -0.000217153168       0.44981875     0.866586053
12.662044            0.448874201      0.86694193   0.000350483355   -0.0002177407   0.000350483354 -0.000217740701      0.450284893     0.866321462
12.662072            0.449342381     0.866676798   0.000350977153 -0.000218329895   0.000350977152 -0.000218329895      0.450751296     0.866056371
12.6621              0.449810821     0.866411162   0.000351471618 -0.000218920757   0.000351471618 -0.000218920757      0.451217959     0.865790777
12.662128            0.450279522     0.866145021   0.000351966751  -0.00021951329    0.00035196675  -0.00021951329      0.451684881      0.86552468
12.662156            0.450748484     0.865878375   0.000352462552   -0.0002201075   0.000352462551   -0.0002201075      0.452152064     0.865258079
12.662184            0.451217706     0.865611223   0.000352959021 -0.000220703393    0.00035295902 -0.000220703393      0.452619506     0.864990973
12.662212            0.451687188     0.865343563   0.000353456158 -0.000221300972   0.000353456157 -0.000221300973      0.453087209     0.864723362
12.66224             0.452156931     0.865075395   0.000353953964 -0.000221900244   0.000353953963 -0.000221900244      0.453555171     0.864455243
12.662268            0.452626935     0.864806718   0.000354452438 -0.000222501214   0.000354452437 -0.000222501214      0.454023394     0.864186617
12.662296              0.4530972      0.86453753   0.000354951582 -0.000223103885   0.000354951581 -0.000223103886      0.454491876     0.863917481
12.662324            0.453567726     0.864267831   0.000355451395 -0.000223708265   0.000355451394 -0.000223708265      0.454960619     0.863647836
12.662352            0.454038512     0.863997619   0.000355951877 -0.000224314358   0.000355951877 -0.000224314358      0.455429623      0.86337768
12.66238             0.454509559     0.863726894    0.00035645303 -0.000224922169   0.000356453029 -0.000224922169      0.455898886     0.863107011
12.662408            0.454980868     0.863455655   0.000356954852 -0.000225531703   0.000356954852 -0.000225531703       0.45636841      0.86283583
12.662436            0.455452437       0.8631839   0.000357457345 -0.000226142966   0.000357457344 -0.000226142966      0.456838195     0.862564135
12.662464            0.455924267     0.862911628   0.000357960509 -0.000226755962   0.000357960508 -0.000226755963       0.45730824     0.862291925
12.662492            0.456396359     0.862638839   0.000358464343 -0.000227370698   0.000358464342 -0.000227370698      0.457778545     0.862019199
12.66252             0.456868712     0.862365532   0.000358968848 -0.000227987178   0.000358968847 -0.000227987179      0.458249112     0.861745956
12.662548            0.457341325     0.862091705   0.000359474024 -0.000228605408   0.000359474023 -0.000228605408      0.458719938     0.861472195
12.662576            0.457814201     0.861817358   0.000359979872 -0.000229225393   0.000359979871 -0.000229225393      0.459191026     0.861197915
12.662604            0.458287337     0.861542489   0.000360486391 -0.000229847139    0.00036048639 -0.000229847139      0.459662374     0.860923115
12.662632            0.458760735     0.861267098   0.000360993581  -0.00023047065   0.000360993581  -0.00023047065      0.460133983     0.860647794
12.66266             0.459234394     0.860991182   0.000361501444 -0.000231095932   0.000361501443 -0.000231095932      0.460605853     0.860371951
12.662688            0.459708315     0.860714743   0.000362009979 -0.000231722991   0.000362009978 -0.000231722991      0.461077984     0.860095584
12.662716            0.460182497     0.860437777   0.000362519186 -0.000232351831   0.000362519185 -0.000232351831      0.461550375     0.859818694
12.662744             0.46065694     0.860160285   0.000363029066 -0.000232982459   0.000363029065 -0.000232982459      0.462023028     0.859541278
12.662772            0.461131645     0.859882265   0.000363539618  -0.00023361488   0.000363539617  -0.00023361488      0.462495942     0.859263336
12.6628              0.461606612     0.859603716   0.000364050843 -0.000234249099   0.000364050842 -0.000234249099      0.462969117     0.858984866
12.662828             0.46208184     0.859324638   0.000364562741 -0.000234885121    0.00036456274 -0.000234885121      0.463442552     0.858705869
12.662856             0.46255733     0.859045028   0.000365075312 -0.000235522953   0.000365075311 -0.000235522953      0.463916249     0.858426342
12.662884            0.463033082     0.858764887   0.000365588556 -0.000236162599   0.000365588555   -0.0002361626      0.464390207     0.858146284
12.662912            0.463509096     0.858484213   0.000366102474 -0.000236804066   0.000366102473 -0.000236804066      0.464864427     0.857865695
12.66294             0.463985371     0.858203004   0.000366617065 -0.000237447359   0.000366617064 -0.000237447359      0.465338907     0.857584573
12.662968            0.464461908     0.857921261    0.00036713233 -0.000238092483   0.000367132329 -0.000238092483      0.465813649     0.857302918
12.662996            0.464938707     0.857638981   0.000367648268 -0.000238739443   0.000367648267 -0.000238739443      0.466288653     0.857020728
12.663024            0.465415768     0.857356164    0.00036816488 -0.000239388247   0.000368164879 -0.000239388247      0.466763917     0.856738003
12.663052             0.46589309     0.857072808   0.000368682166 -0.000240038898   0.000368682165 -0.000240038898      0.467239443      0.85645474
12.66308             0.466370675     0.856788914   0.000369200126 -0.000240691403   0.000369200125 -0.000240691403      0.467715231      0.85617094
12.663108            0.466848522     0.856504479    0.00036971876 -0.000241345768   0.000369718759 -0.000241345768       0.46819128     0.855886601
12.663136             0.46732663     0.856219502   0.000370238069 -0.000242001997   0.000370238068 -0.000242001998       0.46866759     0.855601722
12.663164            0.467805001     0.855933983   0.000370758051 -0.000242660098    0.00037075805 -0.000242660098      0.469144162     0.855316301
12.663192            0.468283634      0.85564792   0.000371278708 -0.000243320075   0.000371278707 -0.000243320075      0.469620996     0.855030339
12.66322             0.468762529     0.855361312    0.00037180004 -0.000243981934   0.000371800039 -0.000243981934      0.470098091     0.854743833
12.663248            0.469241685     0.855074158   0.000372322045 -0.000244645681   0.000372322045 -0.000244645682      0.470575448     0.854456783
12.663276            0.469721104     0.854786458   0.000372844726 -0.000245311322   0.000372844725 -0.000245311322      0.471053066     0.854169188
12.663304            0.470200786      0.85449821   0.000373368081 -0.000245978863    0.00037336808 -0.000245978863      0.471530946     0.853881046
12.663332            0.470680729     0.854209412    0.00037389211 -0.000246648308   0.000373892109 -0.000246648308      0.472009088     0.853592357
12.66336             0.471160935     0.853920064   0.000374416814 -0.000247319665   0.000374416813 -0.000247319665      0.472487492     0.853303119
12.663388            0.471641403     0.853630165   0.000374942193 -0.000247992939   0.000374942192 -0.000247992939      0.472966157     0.853013331
12.663416            0.472122133     0.853339714   0.000375468247 -0.000248668135   0.000375468246 -0.000248668136      0.473445084     0.852722992
12.663444            0.472603125     0.853048709   0.000375994975 -0.000249345261   0.000375994974 -0.000249345261      0.473924273     0.852432102
12.663472             0.47308438     0.852757149   0.000376522378  -0.00025002432   0.000376522377 -0.000250024321      0.474403724     0.852140658
12.6635              0.473565897     0.852465034   0.000377050455 -0.000250705321   0.000377050454 -0.000250705321      0.474883436      0.85184866
