! TOUCHSTONE file generated by CST MICROWAVE STUDIO
! Date and time: Wed Jul 31 16:13:10 2024
! Project name: WaveGuide_BPF-Ver4.1_U-shape_Ku_T3_C4_CWA_2.cst
! Parameters = {cavity_h=16; cavity_l0=10; cavity_l1=15.2128; cavity_l2=16.8596; cavity_l3=17.0945; cavity_l4=17.2511; cavity_l5=17.1711; cavity_l6=17.625; cavity_r=2.5; cavity_screw_l=0.5; cavity_screw_r=1.5; cavity_w=8; iris_h00=0; iris_h01=8.8203; iris_h112=0; iris_h12=5.6138; iris_h211=3.6531; iris_h23=5.2109; iris_h310=3.9794; iris_h34=5.0701; iris_h45=4.9246; iris_h49=4.6242; iris_h56=4.8081; iris_h58=4.4388; iris_h67=6.5723; iris_rx=0.1; iris_screw_l=0.5; iris_screw_r=1.5; iris_shift00=0; iris_shift112=0; iris_shift211=3.5; iris_shift310=0; iris_shift49=0; iris_shift58=3.5; iris_shift67=3.5; iris_tx=4.5; iris_tz=4.5; iris_w00=0; iris_w112=0; iris_w211=4; iris_w310=3.9794; iris_w49=4.6242; iris_w58=4; iris_w67=4; mesh_cavity=5; mesh_iris=7; mesh_screw=7; order=12; reset_all=0; sigma=4.8e+07}
! Header version: 2018
! Port assignment regex: !\s*Touchstone port\s*([0-9]+)\s*=\s*(CST MWS port|CST DS port)\s*([0-9]+|Zmin|Zmax)\s*\(\"(.*)\"\)(\s*mode\s*([0-9]+))?.*
! Touchstone port assignment:
! Touchstone port 1 = CST MWS port 1 ("")
! Touchstone port 2 = CST MWS port 2 ("")
# GHz S RI R 50
12.66                0.404671346     0.889682079   0.000334419657   -0.0001861715   0.000334419656   -0.0001861715       0.41184379     0.886314364
12.660028            0.405128075     0.889453775   0.000334906665 -0.000186686305   0.000334906664 -0.000186686305      0.412301069     0.886081105
12.660056            0.405585159     0.889224987   0.000335394381 -0.000187202613   0.000335394381 -0.000187202613      0.412758664     0.885847371
12.660084            0.406042561      0.88899573   0.000335882817  -0.00018772042   0.000335882817  -0.00018772042      0.413216554     0.885613172
12.660112            0.406500246     0.888766019   0.000336371984 -0.000188239724   0.000336371984 -0.000188239724       0.41367472     0.885378514
12.66014             0.406958176      0.88853587   0.000336861894 -0.000188760521   0.000336861893 -0.000188760521       0.41413314     0.885143407
12.660168            0.407416353     0.888305282   0.000337352546 -0.000189282817   0.000337352546 -0.000189282816      0.414591816     0.884907849
12.660196              0.4078748     0.888074243   0.000337843935  -0.00018980662   0.000337843935  -0.00018980662      0.415050761     0.884671834
12.660224            0.408333517     0.887842752   0.000338336062 -0.000190331936   0.000338336062 -0.000190331935      0.415509974      0.88443536
12.660252            0.408792505     0.887610809   0.000338828927 -0.000190858769   0.000338828927 -0.000190858769      0.415969456     0.884198428
12.66028             0.409251764     0.887378411   0.000339322531 -0.000191387124   0.000339322531 -0.000191387124      0.416429208     0.883961035
12.660308            0.409711293      0.88714556   0.000339816875 -0.000191917006   0.000339816875 -0.000191917006      0.416889228      0.88372318
12.660336            0.410171094     0.886912253   0.000340311959  -0.00019244842   0.000340311959  -0.00019244842      0.417349518     0.883484864
12.660364            0.410631165     0.886678489   0.000340807785 -0.000192981371   0.000340807785 -0.000192981371      0.417810077     0.883246085
12.660392            0.411091508     0.886444269   0.000341304352 -0.000193515863   0.000341304352 -0.000193515862      0.418270906     0.883006843
12.66042             0.411552122     0.886209591   0.000341801663 -0.000194051901   0.000341801662   -0.0001940519      0.418732004     0.882767135
12.660448            0.412013007     0.885974453   0.000342299716 -0.000194589489   0.000342299716 -0.000194589489      0.419193372     0.882526962
12.660476            0.412474164     0.885738856   0.000342798514 -0.000195128634   0.000342798514 -0.000195128634       0.41965501     0.882286322
12.660504            0.412935593     0.885502798   0.000343298057  -0.00019566934   0.000343298056 -0.000195669339      0.420116918     0.882045215
12.660532            0.413397293     0.885266279   0.000343798345 -0.000196211611   0.000343798345 -0.000196211611      0.420579095      0.88180364
12.66056             0.413859265     0.885029296    0.00034429938 -0.000196755453   0.000344299379 -0.000196755452      0.421041543     0.881561595
12.660588            0.414321509     0.884791851   0.000344801162  -0.00019730087   0.000344801161  -0.00019730087      0.421504261      0.88131908
12.660616            0.414784025     0.884553941   0.000345303691 -0.000197847868   0.000345303691 -0.000197847867      0.421967249     0.881076093
12.660644            0.415246814     0.884315565   0.000345806969 -0.000198396451   0.000345806969  -0.00019839645      0.422430508     0.880832635
12.660672            0.415709874     0.884076724   0.000346310996 -0.000198946624   0.000346310996 -0.000198946624      0.422894037     0.880588704
12.6607              0.416173207     0.883837415   0.000346815773 -0.000199498393   0.000346815773 -0.000199498393      0.423357837     0.880344298
12.660728            0.416636812     0.883597638   0.000347321301 -0.000200051763     0.0003473213 -0.000200051762      0.423821907     0.880099418
12.660756             0.41710069     0.883357392    0.00034782758 -0.000200606737   0.000347827579 -0.000200606737      0.424286249     0.879854062
12.660784            0.417564841     0.883116677   0.000348334611 -0.000201163323    0.00034833461 -0.000201163322      0.424750861     0.879608229
12.660812            0.418029264      0.88287549   0.000348842394 -0.000201721524   0.000348842394 -0.000201721523      0.425215744     0.879361919
12.66084              0.41849396     0.882633832   0.000349350931 -0.000202281345   0.000349350931 -0.000202281345      0.425680898      0.87911513
12.660868             0.41895893     0.882391701   0.000349860223 -0.000202842792   0.000349860222 -0.000202842792      0.426146323     0.878867861
12.660896            0.419424172     0.882149096   0.000350370268 -0.000203405871   0.000350370268  -0.00020340587       0.42661202     0.878620112
12.660924            0.419889688     0.881906017    0.00035088107 -0.000203970585   0.000350881069 -0.000203970585      0.427077988     0.878371881
12.660952            0.420355476     0.881662462   0.000351392627  -0.00020453694   0.000351392627  -0.00020453694      0.427544227     0.878123168
12.66098             0.420821539      0.88141843   0.000351904942 -0.000205104942   0.000351904941 -0.000205104942      0.428010738     0.877873971
12.661008            0.421287874     0.881173922   0.000352418013 -0.000205674595   0.000352418013 -0.000205674595      0.428477521      0.87762429
12.661036            0.421754484     0.880928935   0.000352931843 -0.000206245905   0.000352931843 -0.000206245905      0.428944575     0.877374124
12.661064            0.422221367     0.880683468   0.000353446432 -0.000206818877   0.000353446432 -0.000206818877      0.429411901     0.877123471
12.661092            0.422688524     0.880437522   0.000353961781 -0.000207393517    0.00035396178 -0.000207393516      0.429879499     0.876872332
12.66112             0.423155954     0.880191094   0.000354477889 -0.000207969828   0.000354477889 -0.000207969828      0.430347369     0.876620704
12.661148            0.423623659     0.879944184   0.000354994758 -0.000208547818   0.000354994758 -0.000208547818      0.430815511     0.876368587
12.661176            0.424091638     0.879696791   0.000355512389  -0.00020912749   0.000355512389  -0.00020912749      0.431283926     0.876115979
12.661204            0.424559891     0.879448914   0.000356030782 -0.000209708851   0.000356030782 -0.000209708851      0.431752612     0.875862881
12.661232            0.425028418     0.879200552   0.000356549938 -0.000210291906   0.000356549937 -0.000210291906      0.432221571      0.87560929
12.66126              0.42549722     0.878951703   0.000357069857  -0.00021087666   0.000357069857  -0.00021087666      0.432690802     0.875355207
12.661288            0.425966296     0.878702368    0.00035759054 -0.000211463118    0.00035759054 -0.000211463118      0.433160306     0.875100629
12.661316            0.426435646     0.878452545   0.000358111988 -0.000212051286   0.000358111988 -0.000212051286      0.433630082     0.874845557
12.661344            0.426905271     0.878202233   0.000358634202 -0.000212641169   0.000358634201 -0.000212641169      0.434100131     0.874589988
12.661372            0.427375171     0.877951431   0.000359157181 -0.000213232773    0.00035915718 -0.000213232773      0.434570453     0.874333922
12.6614              0.427845346     0.877700139   0.000359680927 -0.000213826103   0.000359680926 -0.000213826103      0.435041048     0.874077359
12.661428            0.428315796     0.877448354    0.00036020544 -0.000214421165    0.00036020544 -0.000214421165      0.435511915     0.873820296
12.661456            0.428786521     0.877196077   0.000360730721 -0.000215017963   0.000360730721 -0.000215017963      0.435983056     0.873562734
12.661484            0.429257521     0.876943306   0.000361256771 -0.000215616505    0.00036125677 -0.000215616504      0.436454469      0.87330467
12.661512            0.429728796      0.87669004   0.000361783589 -0.000216216794   0.000361783589 -0.000216216794      0.436926156     0.873046105
12.66154             0.430200346     0.876436278   0.000362311178 -0.000216818837   0.000362311177 -0.000216818836      0.437398116     0.872787037
12.661568            0.430672172      0.87618202   0.000362839536 -0.000217422639   0.000362839536 -0.000217422638       0.43787035     0.872527464
12.661596            0.431144273     0.875927263   0.000363368666 -0.000218028205   0.000363368666 -0.000218028205      0.438342857     0.872267387
12.661624             0.43161665     0.875672008   0.000363898567 -0.000218635542   0.000363898567 -0.000218635542      0.438815637     0.872006804
12.661652            0.432089302     0.875416254   0.000364429241 -0.000219244655    0.00036442924 -0.000219244655      0.439288691     0.871745713
12.66168              0.43256223     0.875159999   0.000364960687  -0.00021985555   0.000364960686  -0.00021985555      0.439762018     0.871484115
12.661708            0.433035434     0.874903241   0.000365492906 -0.000220468232   0.000365492906 -0.000220468232      0.440235619     0.871222008
12.661736            0.433508914     0.874645982     0.0003660259 -0.000221082707   0.000366025899 -0.000221082706      0.440709494      0.87095939
12.661764            0.433982669     0.874388218   0.000366559667  -0.00022169898   0.000366559667  -0.00022169898      0.441183643     0.870696262
12.661792            0.434456701      0.87412995    0.00036709421 -0.000222317058    0.00036709421 -0.000222317057      0.441658066     0.870432622
12.66182             0.434931009     0.873871176   0.000367629529 -0.000222936945   0.000367629528 -0.000222936945      0.442132763     0.870168468
12.661848            0.435405593     0.873611895   0.000368165624 -0.000223558649   0.000368165623 -0.000223558648      0.442607733     0.869903801
12.661876            0.435880454     0.873352106   0.000368702495 -0.000224182174   0.000368702495 -0.000224182173      0.443082978     0.869638618
12.661904             0.43635559     0.873091809   0.000369240144 -0.000224807526   0.000369240143 -0.000224807526      0.443558498     0.869372919
12.661932            0.436831004     0.872831002   0.000369778571 -0.000225434711    0.00036977857 -0.000225434711      0.444034291     0.869106703
12.66196             0.437306693     0.872569684   0.000370317776 -0.000226063736   0.000370317775 -0.000226063736      0.444510359     0.868839969
12.661988             0.43778266     0.872307854    0.00037085776 -0.000226694605    0.00037085776 -0.000226694605      0.444986701     0.868572715
12.662016            0.438258903     0.872045511   0.000371398524 -0.000227327325   0.000371398523 -0.000227327325      0.445463318     0.868304941
12.662044            0.438735423     0.871782655   0.000371940068 -0.000227961902   0.000371940067 -0.000227961902      0.445940209     0.868036646
12.662072            0.439212219     0.871519283   0.000372482392 -0.000228598341   0.000372482392 -0.000228598341      0.446417375     0.867767828
12.6621              0.439689293     0.871255395   0.000373025498 -0.000229236648   0.000373025497 -0.000229236648      0.446894816     0.867498487
12.662128            0.440166643     0.870990991   0.000373569385  -0.00022987683   0.000373569384  -0.00022987683      0.447372531     0.867228621
12.662156            0.440644271     0.870726068   0.000374114054 -0.000230518892   0.000374114054 -0.000230518892      0.447850521      0.86695823
12.662184            0.441122176     0.870460626   0.000374659506 -0.000231162841   0.000374659506 -0.000231162841      0.448328786     0.866687312
12.662212            0.441600358     0.870194664   0.000375205742 -0.000231808682   0.000375205741 -0.000231808682      0.448807326     0.866415867
12.66224             0.442078817     0.869928181   0.000375752761 -0.000232456421   0.000375752761 -0.000232456421      0.449286141     0.866143893
12.662268            0.442557554     0.869661176   0.000376300564 -0.000233106065   0.000376300564 -0.000233106064      0.449765231     0.865871389
12.662296            0.443036568     0.869393648   0.000376849153 -0.000233757619   0.000376849152 -0.000233757619      0.450244596     0.865598354
12.662324            0.443515859     0.869125595   0.000377398526  -0.00023441109   0.000377398525 -0.000234411089      0.450724237     0.865324787
12.662352            0.443995428     0.868857016   0.000377948685 -0.000235066483   0.000377948685 -0.000235066483      0.451204152     0.865050687
12.66238             0.444475275     0.868587912    0.00037849963 -0.000235723806    0.00037849963 -0.000235723805      0.451684343     0.864776054
12.662408            0.444955399     0.868318279   0.000379051362 -0.000236383063   0.000379051362 -0.000236383063      0.452164809     0.864500885
12.662436            0.445435801     0.868048119   0.000379603882 -0.000237044261   0.000379603881 -0.000237044261      0.452645551      0.86422518
12.662464            0.445916481     0.867777428   0.000380157188 -0.000237707407   0.000380157188 -0.000237707407      0.453126568     0.863948937
12.662492            0.446397439     0.867506207   0.000380711283 -0.000238372507   0.000380711283 -0.000238372507       0.45360786     0.863672156
12.66252             0.446878675     0.867234454   0.000381266167 -0.000239039566   0.000381266166 -0.000239039566      0.454089429     0.863394836
12.662548            0.447360189     0.866962168   0.000381821839 -0.000239708592   0.000381821839 -0.000239708591      0.454571272     0.863116975
12.662576             0.44784198     0.866689348   0.000382378301  -0.00024037959   0.000382378301 -0.000240379589      0.455053392     0.862838573
12.662604             0.44832405     0.866415994   0.000382935553 -0.000241052566   0.000382935553 -0.000241052566      0.455535787     0.862559627
12.662632            0.448806399     0.866142103   0.000383493595 -0.000241727528   0.000383493595 -0.000241727527      0.456018458     0.862280138
12.66266             0.449289025     0.865867675   0.000384052428 -0.000242404481   0.000384052428  -0.00024240448      0.456501405     0.862000104
12.662688             0.44977193     0.865592709   0.000384612053 -0.000243083431   0.000384612052 -0.000243083431      0.456984627     0.861719524
12.662716            0.450255113     0.865317203   0.000385172468 -0.000243764386   0.000385172468 -0.000243764386      0.457468126     0.861438397
12.662744            0.450738575     0.865041157   0.000385733676 -0.000244447352   0.000385733676 -0.000244447351        0.4579519     0.861156722
12.662772            0.451222315      0.86476457   0.000386295677 -0.000245132334   0.000386295676 -0.000245132334      0.458435951     0.860874497
12.6628              0.451706333     0.864487439    0.00038685847  -0.00024581934    0.00038685847 -0.000245819339      0.458920277     0.860591722
12.662828             0.45219063     0.864209766   0.000387422056 -0.000246508376   0.000387422056 -0.000246508375       0.45940488     0.860308395
12.662856            0.452675206     0.863931547   0.000387986437 -0.000247199448   0.000387986436 -0.000247199447      0.459889759     0.860024515
12.662884            0.453160061     0.863652782   0.000388551611 -0.000247892563    0.00038855161 -0.000247892563      0.460374914     0.859740082
12.662912            0.453645194     0.863373471    0.00038911758 -0.000248587728   0.000389117579 -0.000248587727      0.460860345     0.859455094
12.66294             0.454130606     0.863093611   0.000389684343 -0.000249284949   0.000389684343 -0.000249284948      0.461346052      0.85916955
12.662968            0.454616297     0.862813202   0.000390251902 -0.000249984232   0.000390251901 -0.000249984232      0.461832036     0.858883448
12.662996            0.455102267     0.862532242   0.000390820256 -0.000250685585   0.000390820256 -0.000250685585      0.462318296     0.858596788
12.663024            0.455588516     0.862250732   0.000391389406 -0.000251389014   0.000391389406 -0.000251389013      0.462804833     0.858309569
12.663052            0.456075044     0.861968668   0.000391959352 -0.000252094525   0.000391959352 -0.000252094525      0.463291645      0.85802179
12.66308             0.456561851     0.861686051   0.000392530096 -0.000252802126   0.000392530095 -0.000252802125      0.463778735     0.857733448
12.663108            0.457048937     0.861402879   0.000393101635 -0.000253511822   0.000393101635 -0.000253511822      0.464266101     0.857444544
12.663136            0.457536302     0.861119151   0.000393673973 -0.000254223622   0.000393673972 -0.000254223621      0.464753743     0.857155075
12.663164            0.458023946     0.860834865   0.000394247108  -0.00025493753   0.000394247107  -0.00025493753      0.465241662     0.856865042
12.663192             0.45851187     0.860550022   0.000394821041 -0.000255653556    0.00039482104 -0.000255653555      0.465729857     0.856574442
12.66322             0.459000073     0.860264619   0.000395395772 -0.000256371704   0.000395395771 -0.000256371704      0.466218329     0.856283275
12.663248            0.459488555     0.859978656   0.000395971301 -0.000257091982   0.000395971301 -0.000257091982      0.466707078     0.855991539
12.663276            0.459977317     0.859692131    0.00039654763 -0.000257814397   0.000396547629 -0.000257814397      0.467196103     0.855699233
12.663304            0.460466358     0.859405043   0.000397124758 -0.000258538955   0.000397124757 -0.000258538955      0.467685405     0.855406357
12.663332            0.460955678     0.859117391   0.000397702685 -0.000259265664   0.000397702684 -0.000259265664      0.468174984     0.855112908
12.66336             0.461445278     0.858829175   0.000398281412 -0.000259994531   0.000398281411  -0.00025999453       0.46866484     0.854818887
12.663388            0.461935157     0.858540391   0.000398860939 -0.000260725562   0.000398860938 -0.000260725561      0.469154972      0.85452429
12.663416            0.462425316     0.858251041   0.000399441266 -0.000261458764   0.000399441265 -0.000261458763      0.469645381     0.854229119
12.663444            0.462915754     0.857961122   0.000400022394 -0.000262194144   0.000400022393 -0.000262194144      0.470136067      0.85393337
12.663472            0.463406473     0.857670633   0.000400604322  -0.00026293171   0.000400604322  -0.00026293171       0.47062703     0.853637043
12.6635               0.46389747     0.857379573   0.000401187052 -0.000263671468   0.000401187052 -0.000263671468      0.471118269     0.853340138
