! TOUCHSTONE file generated by CST MICROWAVE STUDIO
! Date and time: Wed Jul 31 16:19:30 2024
! Project name: WaveGuide_BPF-Ver4.1_U-shape_Ku_T3_C4_CWA_2.cst
! Parameters = {cavity_h=16; cavity_l0=10; cavity_l1=15.1946; cavity_l2=16.8192; cavity_l3=17.095; cavity_l4=17.2893; cavity_l5=17.1041; cavity_l6=17.5981; cavity_r=2.5; cavity_screw_l=0.5; cavity_screw_r=1.5; cavity_w=8; iris_h00=0; iris_h01=8.8196; iris_h112=0; iris_h12=5.5942; iris_h211=3.6579; iris_h23=5.2014; iris_h310=3.9713; iris_h34=5.0708; iris_h45=4.9299; iris_h49=4.62; iris_h56=4.8088; iris_h58=4.4446; iris_h67=6.5652; iris_rx=0.1; iris_screw_l=0.5; iris_screw_r=1.5; iris_shift00=0; iris_shift112=0; iris_shift211=3.5; iris_shift310=0; iris_shift49=0; iris_shift58=3.5; iris_shift67=3.5; iris_tx=4.5; iris_tz=4.5; iris_w00=0; iris_w112=0; iris_w211=4; iris_w310=3.9713; iris_w49=4.62; iris_w58=4; iris_w67=4; mesh_cavity=5; mesh_iris=7; mesh_screw=7; order=12; reset_all=0; sigma=4.8e+07}
! Header version: 2018
! Port assignment regex: !\s*Touchstone port\s*([0-9]+)\s*=\s*(CST MWS port|CST DS port)\s*([0-9]+|Zmin|Zmax)\s*\(\"(.*)\"\)(\s*mode\s*([0-9]+))?.*
! Touchstone port assignment:
! Touchstone port 1 = CST MWS port 1 ("")
! Touchstone port 2 = CST MWS port 2 ("")
# GHz S RI R 50
12.66                0.293327061     0.937404651   0.000174263216 -6.76716886e-05   0.000174263217 -6.76716889e-05      0.298737864     0.935701325
12.660028            0.293700873      0.93727554   0.000174488131 -6.78439625e-05   0.000174488132 -6.78439627e-05      0.299111471     0.935569861
12.660056            0.294074826     0.937146204   0.000174713368 -6.80166602e-05   0.000174713368 -6.80166605e-05      0.299485274     0.935438152
12.660084            0.294448947     0.937016632   0.000174938925 -6.81897855e-05   0.000174938925 -6.81897857e-05      0.299859277     0.935306197
12.660112            0.294823266     0.936886817     0.0001751648  -6.8363342e-05   0.000175164801 -6.83633422e-05      0.300233483     0.935173993
12.66014             0.295197808      0.93675675   0.000175390992 -6.85373334e-05   0.000175390993 -6.85373337e-05      0.300607898      0.93504154
12.660168            0.295572576     0.936626429   0.000175617502  -6.8711761e-05   0.000175617503 -6.87117613e-05      0.300982521     0.934908836
12.660196             0.29594755      0.93649586   0.000175844331 -6.88866241e-05   0.000175844331 -6.88866244e-05      0.301357349     0.934775883
12.660224             0.29632273     0.936365043   0.000176071479 -6.90619239e-05    0.00017607148 -6.90619242e-05      0.301732384     0.934642679
12.660252            0.296698117     0.936233977   0.000176298947 -6.92376616e-05   0.000176298948 -6.92376619e-05      0.302107625     0.934509224
12.66028             0.297073711     0.936102662   0.000176526735 -6.94138383e-05   0.000176526736 -6.94138385e-05      0.302483071     0.934375518
12.660308            0.297449512     0.935971098   0.000176754844 -6.95904551e-05   0.000176754845 -6.95904554e-05      0.302858724      0.93424156
12.660336             0.29782552     0.935839284   0.000176983275 -6.97675132e-05   0.000176983276 -6.97675135e-05      0.303234584     0.934107351
12.660364            0.298201734     0.935707219   0.000177212027 -6.99450139e-05   0.000177212027 -6.99450141e-05      0.303610649     0.933972889
12.660392            0.298578156     0.935574904     0.0001774411 -7.01229582e-05   0.000177441101 -7.01229584e-05      0.303986922     0.933838174
12.66042             0.298954786     0.935442337   0.000177670497 -7.03013473e-05   0.000177670497 -7.03013476e-05      0.304363401     0.933703206
12.660448            0.299331623     0.935309519   0.000177900216 -7.04801824e-05   0.000177900216 -7.04801827e-05      0.304740087     0.933567985
12.660476            0.299708667     0.935176449   0.000178130258 -7.06594647e-05   0.000178130259  -7.0659465e-05       0.30511698     0.933432509
12.660504             0.30008592     0.935043126   0.000178360624 -7.08391954e-05   0.000178360624 -7.08391957e-05       0.30549408     0.933296778
12.660532             0.30046338     0.934909551   0.000178591313 -7.10193757e-05   0.000178591314  -7.1019376e-05      0.305871387     0.933160793
12.66056             0.300841048     0.934775722   0.000178822328 -7.12000067e-05   0.000178822328  -7.1200007e-05      0.306248902     0.933024552
12.660588            0.301218925     0.934641639   0.000179053667 -7.13810897e-05   0.000179053667 -7.13810899e-05      0.306626624     0.932888055
12.660616            0.301597009     0.934507302   0.000179285331 -7.15626257e-05   0.000179285332  -7.1562626e-05      0.307004554     0.932751302
12.660644            0.301975303     0.934372711   0.000179517321 -7.17446162e-05   0.000179517322 -7.17446164e-05      0.307382692     0.932614293
12.660672            0.302353804     0.934237865   0.000179749637 -7.19270621e-05   0.000179749638 -7.19270624e-05      0.307761037     0.932477026
12.6607              0.302732515     0.934102763   0.000179982279 -7.21099648e-05    0.00017998228 -7.21099651e-05       0.30813959     0.932339502
12.660728            0.303111434     0.933967405   0.000180215249 -7.22933255e-05    0.00018021525 -7.22933258e-05      0.308518352     0.932201719
12.660756            0.303490562     0.933831791   0.000180448546 -7.24771453e-05   0.000180448546 -7.24771456e-05      0.308897322     0.932063679
12.660784            0.303869899      0.93369592    0.00018068217 -7.26614255e-05   0.000180682171 -7.26614258e-05        0.3092765     0.931925379
12.660812            0.304249445     0.933559792   0.000180916123 -7.28461674e-05   0.000180916123 -7.28461676e-05      0.309655887      0.93178682
12.66084             0.304629201     0.933423407   0.000181150404  -7.3031372e-05   0.000181150404 -7.30313723e-05      0.310035482     0.931648001
12.660868            0.305009166     0.933286763   0.000181385014 -7.32170407e-05   0.000181385015  -7.3217041e-05      0.310415286     0.931508923
12.660896            0.305389341     0.933149861   0.000181619953 -7.34031747e-05   0.000181619954  -7.3403175e-05      0.310795299     0.931369583
12.660924            0.305769725       0.9330127   0.000181855222 -7.35897752e-05   0.000181855223 -7.35897755e-05      0.311175522     0.931229983
12.660952            0.306150319      0.93287528   0.000182090822 -7.37768435e-05   0.000182090823 -7.37768438e-05      0.311555953     0.931090121
12.66098             0.306531123       0.9327376   0.000182326752 -7.39643807e-05   0.000182326753  -7.3964381e-05      0.311936593     0.930949997
12.661008            0.306912137     0.932599659   0.000182563013 -7.41523882e-05   0.000182563014 -7.41523885e-05      0.312317443      0.93080961
12.661036            0.307293362     0.932461458   0.000182799605 -7.43408672e-05   0.000182799606 -7.43408675e-05      0.312698502     0.930668961
12.661064            0.307674796     0.932322996    0.00018303653  -7.4529819e-05    0.00018303653 -7.45298192e-05      0.313079771     0.930528049
12.661092            0.308056442     0.932184272   0.000183273786 -7.47192447e-05   0.000183273787  -7.4719245e-05       0.31346125     0.930386872
12.66112             0.308438297     0.932045287   0.000183511375 -7.49091457e-05   0.000183511376 -7.49091459e-05      0.313842939     0.930245432
12.661148            0.308820364     0.931906039   0.000183749298 -7.50995231e-05   0.000183749298 -7.50995234e-05      0.314224838     0.930103727
12.661176            0.309202641     0.931766528   0.000183987553 -7.52903784e-05   0.000183987554 -7.52903787e-05      0.314606946     0.929961757
12.661204            0.309585129     0.931626753   0.000184226143 -7.54817127e-05   0.000184226144  -7.5481713e-05      0.314989266     0.929819522
12.661232            0.309967829     0.931486715   0.000184465067 -7.56735274e-05   0.000184465068 -7.56735276e-05      0.315371795      0.92967702
12.66126             0.310350739     0.931346413   0.000184704326 -7.58658236e-05   0.000184704327 -7.58658239e-05      0.315754535     0.929534253
12.661288            0.310733861     0.931205846    0.00018494392 -7.60586027e-05    0.00018494392  -7.6058603e-05      0.316137486     0.929391218
12.661316            0.311117194     0.931065014   0.000185183849  -7.6251866e-05    0.00018518385 -7.62518662e-05      0.316520647     0.929247916
12.661344            0.311500739     0.930923916   0.000185424114 -7.64456147e-05   0.000185424115 -7.64456149e-05       0.31690402     0.929104346
12.661372            0.311884496     0.930782552   0.000185664716 -7.66398501e-05   0.000185664717 -7.66398504e-05      0.317287603     0.928960508
12.6614              0.312268465     0.930640922   0.000185905655 -7.68345736e-05   0.000185905655 -7.68345739e-05      0.317671397     0.928816402
12.661428            0.312652645     0.930499025    0.00018614693 -7.70297864e-05   0.000186146931 -7.70297867e-05      0.318055403     0.928672026
12.661456            0.313037038     0.930356861   0.000186388544 -7.72254898e-05   0.000186388544 -7.72254901e-05       0.31843962     0.928527381
12.661484            0.313421643     0.930214429   0.000186630495 -7.74216852e-05   0.000186630496 -7.74216854e-05      0.318824049     0.928382466
12.661512             0.31380646     0.930071728   0.000186872785 -7.76183738e-05   0.000186872786  -7.7618374e-05       0.31920869      0.92823728
12.66154              0.31419149     0.929928759   0.000187115413 -7.78155569e-05   0.000187115414 -7.78155572e-05      0.319593542     0.928091823
12.661568            0.314576732      0.92978552   0.000187358381 -7.80132359e-05   0.000187358382 -7.80132362e-05      0.319978606     0.927946095
12.661596            0.314962187     0.929642012   0.000187601689 -7.82114121e-05    0.00018760169 -7.82114124e-05      0.320363882     0.927800095
12.661624            0.315347855     0.929498234   0.000187845336 -7.84100868e-05   0.000187845337 -7.84100871e-05       0.32074937     0.927653823
12.661652            0.315733736     0.929354185   0.000188089325 -7.86092614e-05   0.000188089325 -7.86092617e-05       0.32113507     0.927507277
12.66168              0.31611983     0.929209866   0.000188333654 -7.88089371e-05   0.000188333654 -7.88089374e-05      0.321520983     0.927360459
12.661708            0.316506137     0.929065274   0.000188578324 -7.90091153e-05   0.000188578325 -7.90091156e-05      0.321907109     0.927213367
12.661736            0.316892658     0.928920411   0.000188823336 -7.92097974e-05   0.000188823337 -7.92097977e-05      0.322293447     0.927066001
12.661764            0.317279392     0.928775276    0.00018906869 -7.94109847e-05   0.000189068691  -7.9410985e-05      0.322679997      0.92691836
12.661792            0.317666339     0.928629867   0.000189314387 -7.96126785e-05   0.000189314388 -7.96126787e-05      0.323066761     0.926770444
12.66182             0.318053501     0.928484185   0.000189560427 -7.98148801e-05   0.000189560427 -7.98148804e-05      0.323453738     0.926622252
12.661848            0.318440876      0.92833823    0.00018980681  -8.0017591e-05    0.00018980681 -8.00175913e-05      0.323840927     0.926473785
12.661876            0.318828465        0.928192   0.000190053537 -8.02208125e-05   0.000190053537 -8.02208128e-05      0.324228331      0.92632504
12.661904            0.319216269     0.928045495   0.000190300608 -8.04245459e-05   0.000190300608 -8.04245462e-05      0.324615947     0.926176019
12.661932            0.319604287     0.927898716   0.000190548023 -8.06287927e-05   0.000190548024  -8.0628793e-05      0.325003777     0.926026721
12.66196             0.319992519      0.92775166   0.000190795784 -8.08335541e-05   0.000190795785 -8.08335544e-05       0.32539182     0.925877144
12.661988            0.320380965     0.927604329    0.00019104389 -8.10388316e-05   0.000191043891 -8.10388319e-05      0.325780078     0.925727289
12.662016            0.320769626      0.92745672   0.000191292342 -8.12446265e-05   0.000191292343 -8.12446268e-05      0.326168549     0.925577155
12.662044            0.321158502     0.927308835    0.00019154114 -8.14509402e-05   0.000191541141 -8.14509405e-05      0.326557234     0.925426742
12.662072            0.321547593     0.927160672   0.000191790285 -8.16577742e-05   0.000191790286 -8.16577745e-05      0.326946133     0.925276049
12.6621              0.321936899     0.927012231   0.000192039777 -8.18651297e-05   0.000192039778   -8.186513e-05      0.327335247     0.925125075
12.662128             0.32232642     0.926863512   0.000192289616 -8.20730082e-05   0.000192289617 -8.20730085e-05      0.327724575     0.924973821
12.662156            0.322716156     0.926714514   0.000192539804  -8.2281411e-05   0.000192539804 -8.22814113e-05      0.328114117     0.924822286
12.662184            0.323106107     0.926565236   0.000192790339 -8.24903397e-05    0.00019279034   -8.249034e-05      0.328503874     0.924670469
12.662212            0.323496274     0.926415678   0.000193041224 -8.26997955e-05   0.000193041224 -8.26997958e-05      0.328893846     0.924518369
12.66224             0.323886657      0.92626584   0.000193292457 -8.29097799e-05   0.000193292458 -8.29097802e-05      0.329284033     0.924365987
12.662268            0.324277255     0.926115721    0.00019354404 -8.31202943e-05   0.000193544041 -8.31202946e-05      0.329674434     0.924213322
12.662296            0.324668069     0.925965321   0.000193795973   -8.333134e-05   0.000193795974 -8.33313403e-05      0.330065051     0.924060373
12.662324            0.325059099     0.925814638   0.000194048256 -8.35429187e-05   0.000194048257  -8.3542919e-05      0.330455883     0.923907139
12.662352            0.325450345     0.925663674    0.00019430089 -8.37550316e-05   0.000194300891 -8.37550319e-05       0.33084693     0.923753622
12.66238             0.325841808     0.925512426   0.000194553875 -8.39676801e-05   0.000194553876 -8.39676804e-05      0.331238193     0.923599819
12.662408            0.326233487     0.925360896   0.000194807212 -8.41808658e-05   0.000194807213 -8.41808661e-05      0.331629671      0.92344573
12.662436            0.326625382     0.925209081   0.000195060901   -8.439459e-05   0.000195060902 -8.43945903e-05      0.332021365     0.923291355
12.662464            0.327017494     0.925056982   0.000195314942 -8.46088542e-05   0.000195314943 -8.46088545e-05      0.332413275     0.923136694
12.662492            0.327409823     0.924904599   0.000195569336 -8.48236599e-05   0.000195569337 -8.48236602e-05      0.332805401     0.922981746
12.66252             0.327802368      0.92475193   0.000195824083 -8.50390084e-05   0.000195824084 -8.50390087e-05      0.333197742      0.92282651
12.662548             0.32819513     0.924598976   0.000196079184 -8.52549012e-05   0.000196079184 -8.52549015e-05        0.3335903     0.922670985
12.662576             0.32858811     0.924445735   0.000196334638 -8.54713399e-05   0.000196334639 -8.54713402e-05      0.333983075     0.922515173
12.662604            0.328981307     0.924292207   0.000196590448 -8.56883257e-05   0.000196590448 -8.56883261e-05      0.334376065     0.922359071
12.662632            0.329374721     0.924138393   0.000196846612 -8.59058603e-05   0.000196846612 -8.59058606e-05      0.334769273      0.92220268
12.66266             0.329768352      0.92398429   0.000197103131 -8.61239451e-05   0.000197103132 -8.61239454e-05      0.335162697     0.922045999
12.662688            0.330162201       0.9238299   0.000197360006 -8.63425815e-05   0.000197360006 -8.63425818e-05      0.335556337     0.921889027
12.662716            0.330556268     0.923675221   0.000197617237 -8.65617711e-05   0.000197617237 -8.65617714e-05      0.335950195     0.921731764
12.662744            0.330950553     0.923520252   0.000197874824 -8.67815153e-05   0.000197874825 -8.67815156e-05       0.33634427     0.921574209
12.662772            0.331345056     0.923364994   0.000198132768 -8.70018155e-05   0.000198132769 -8.70018158e-05      0.336738562     0.921416363
12.6628              0.331739776     0.923209446    0.00019839107 -8.72226734e-05   0.000198391071 -8.72226737e-05      0.337133071     0.921258224
12.662828            0.332134715     0.923053607   0.000198649729 -8.74440903e-05    0.00019864973 -8.74440906e-05      0.337527797     0.921099791
12.662856            0.332529872     0.922897477   0.000198908747 -8.76660678e-05   0.000198908747 -8.76660681e-05      0.337922742     0.920941066
12.662884            0.332925248     0.922741055   0.000199168122 -8.78886073e-05   0.000199168123 -8.78886076e-05      0.338317903     0.920782046
12.662912            0.333320842     0.922584341   0.000199427857 -8.81117105e-05   0.000199427858 -8.81117108e-05      0.338713283     0.920622732
12.66294             0.333716655     0.922427334   0.000199687951 -8.83353787e-05   0.000199687952  -8.8335379e-05       0.33910888     0.920463122
12.662968            0.334112686     0.922270034   0.000199948405 -8.85596136e-05   0.000199948406 -8.85596139e-05      0.339504695     0.920303217
12.662996            0.334508937     0.922112441   0.000200209219 -8.87844165e-05   0.000200209219 -8.87844168e-05      0.339900729     0.920143016
12.663024            0.334905406     0.921954553   0.000200470393 -8.90097892e-05   0.000200470394 -8.90097895e-05       0.34029698     0.919982518
12.663052            0.335302095     0.921796371   0.000200731928 -8.92357329e-05   0.000200731929 -8.92357333e-05       0.34069345     0.919821724
12.66308             0.335699003     0.921637893   0.000200993825 -8.94622494e-05   0.000200993825 -8.94622498e-05      0.341090139     0.919660631
12.663108            0.336096131      0.92147912   0.000201256083 -8.96893402e-05   0.000201256084 -8.96893405e-05      0.341487046      0.91949924
12.663136            0.336493478      0.92132005   0.000201518703 -8.99170067e-05   0.000201518704  -8.9917007e-05      0.341884172     0.919337551
12.663164            0.336891044     0.921160684   0.000201781686 -9.01452506e-05   0.000201781687 -9.01452509e-05      0.342281516     0.919175563
12.663192            0.337288831      0.92100102   0.000202045032 -9.03740733e-05   0.000202045033 -9.03740736e-05       0.34267908     0.919013275
12.66322             0.337686837     0.920841059   0.000202308741 -9.06034764e-05   0.000202308742 -9.06034768e-05      0.343076862     0.918850687
12.663248            0.338085063     0.920680799   0.000202572814 -9.08334616e-05   0.000202572815 -9.08334619e-05      0.343474864     0.918687798
12.663276            0.338483509     0.920520241   0.000202837251 -9.10640303e-05   0.000202837252 -9.10640306e-05      0.343873085     0.918524607
12.663304            0.338882176     0.920359383   0.000203102053 -9.12951841e-05   0.000203102054 -9.12951844e-05      0.344271525     0.918361115
12.663332            0.339281063     0.920198226   0.000203367219 -9.15269246e-05    0.00020336722 -9.15269249e-05      0.344670185     0.918197321
12.66336              0.33968017     0.920036768   0.000203632751 -9.17592534e-05   0.000203632752 -9.17592537e-05      0.345069065     0.918033224
12.663388            0.340079498     0.919875009   0.000203898649  -9.1992172e-05   0.000203898649 -9.19921723e-05      0.345468164     0.917868824
12.663416            0.340479047     0.919712949   0.000204164912  -9.2225682e-05   0.000204164913 -9.22256823e-05      0.345867484      0.91770412
12.663444            0.340878817     0.919550587   0.000204431542  -9.2459785e-05   0.000204431543 -9.24597854e-05      0.346267023     0.917539111
12.663472            0.341278807     0.919387922   0.000204698539 -9.26944827e-05    0.00020469854  -9.2694483e-05      0.346666782     0.917373798
12.6635              0.341679019     0.919224955   0.000204965904 -9.29297766e-05   0.000204965905 -9.29297769e-05      0.347066762     0.917208179
