! TOUCHSTONE file generated by CST MICROWAVE STUDIO
! Date and time: Wed Jul 31 16:25:38 2024
! Project name: WaveGuide_BPF-Ver4.1_U-shape_Ku_T3_C4_CWA_2.cst
! Parameters = {cavity_h=16; cavity_l0=10; cavity_l1=15.1778; cavity_l2=16.857; cavity_l3=17.1377; cavity_l4=17.255; cavity_l5=17.1696; cavity_l6=17.5644; cavity_r=2.5; cavity_screw_l=0.5; cavity_screw_r=1.5; cavity_w=8; iris_h00=0; iris_h01=8.8019; iris_h112=0; iris_h12=5.6068; iris_h211=3.6677; iris_h23=5.1922; iris_h310=3.9663; iris_h34=5.0761; iris_h45=4.9359; iris_h49=4.6187; iris_h56=4.7896; iris_h58=4.4328; iris_h67=6.5852; iris_rx=0.1; iris_screw_l=0.5; iris_screw_r=1.5; iris_shift00=0; iris_shift112=0; iris_shift211=3.5; iris_shift310=0; iris_shift49=0; iris_shift58=3.5; iris_shift67=3.5; iris_tx=4.5; iris_tz=4.5; iris_w00=0; iris_w112=0; iris_w211=4; iris_w310=3.9663; iris_w49=4.6187; iris_w58=4; iris_w67=4; mesh_cavity=5; mesh_iris=7; mesh_screw=7; order=12; reset_all=0; sigma=4.8e+07}
! Header version: 2018
! Port assignment regex: !\s*Touchstone port\s*([0-9]+)\s*=\s*(CST MWS port|CST DS port)\s*([0-9]+|Zmin|Zmax)\s*\(\"(.*)\"\)(\s*mode\s*([0-9]+))?.*
! Touchstone port assignment:
! Touchstone port 1 = CST MWS port 1 ("")
! Touchstone port 2 = CST MWS port 2 ("")
# GHz S RI R 50
12.66                0.210617958      0.96118678    0.00022307276 -6.61310088e-05   0.000223072759 -6.61310081e-05      0.216804827     0.959794074
12.660028            0.210960236     0.961100917   0.000223400255 -6.63216841e-05   0.000223400254 -6.63216834e-05      0.217147693     0.959705707
12.660056            0.211302718     0.961014864   0.000223728317 -6.65128848e-05   0.000223728316 -6.65128842e-05      0.217490718     0.959617158
12.660084            0.211645408     0.960928621   0.000224056946 -6.67046154e-05   0.000224056945 -6.67046147e-05      0.217833927     0.959528421
12.660112            0.211988309     0.960842186   0.000224386141 -6.68968801e-05    0.00022438614 -6.68968795e-05      0.218177341     0.959439492
12.66014             0.212331426     0.960755559   0.000224715903 -6.70896833e-05   0.000224715902 -6.70896826e-05      0.218520983     0.959350365
12.660168            0.212674759     0.960668739   0.000225046231 -6.72830267e-05    0.00022504623  -6.7283026e-05      0.218864852     0.959261039
12.660196            0.213018304     0.960581726   0.000225377129 -6.74769099e-05   0.000225377128 -6.74769092e-05      0.219208935     0.959171518
12.660224            0.213362064      0.96049452   0.000225708597 -6.76713346e-05   0.000225708596 -6.76713339e-05      0.219553232     0.959081801
12.660252            0.213706037      0.96040712   0.000226040637 -6.78663024e-05   0.000226040636 -6.78663017e-05      0.219897742     0.958991888
12.66028             0.214050224     0.960319526   0.000226373249 -6.80618151e-05   0.000226373248 -6.80618144e-05      0.220242466     0.958901779
12.660308            0.214394626     0.960231738   0.000226706434 -6.82578741e-05   0.000226706433 -6.82578734e-05      0.220587405     0.958811473
12.660336            0.214739242     0.960143755   0.000227040194 -6.84544812e-05   0.000227040193 -6.84544805e-05      0.220932558     0.958720969
12.660364            0.215084072     0.960055578    0.00022737453  -6.8651638e-05   0.000227374529 -6.86516373e-05      0.221277925     0.958630268
12.660392            0.215429118     0.959967205   0.000227709442 -6.88493462e-05   0.000227709442 -6.88493455e-05      0.221623508     0.958539369
12.66042             0.215774379     0.959878636   0.000228044933 -6.90476074e-05   0.000228044932 -6.90476067e-05      0.221969305     0.958448271
12.660448            0.216119855     0.959789871   0.000228381002 -6.92464232e-05   0.000228381001 -6.92464225e-05      0.222315318     0.958356975
12.660476            0.216465547     0.959700909   0.000228717651 -6.94457954e-05    0.00022871765 -6.94457947e-05      0.222661546      0.95826548
12.660504            0.216811454     0.959611751   0.000229054882 -6.96457256e-05   0.000229054881 -6.96457249e-05       0.22300799     0.958173785
12.660532            0.217157578     0.959522396   0.000229392694 -6.98462156e-05   0.000229392693 -6.98462149e-05       0.22335465      0.95808189
12.66056             0.217503917     0.959432843    0.00022973109 -7.00472669e-05   0.000229731089 -7.00472662e-05      0.223701526     0.957989795
12.660588            0.217850473     0.959343092    0.00023007007 -7.02488813e-05   0.000230070069 -7.02488806e-05      0.224048618       0.9578975
12.660616            0.218197246     0.959253142   0.000230409635 -7.04510605e-05   0.000230409635 -7.04510598e-05      0.224395927     0.957805004
12.660644            0.218544236     0.959162995   0.000230749788 -7.06538062e-05   0.000230749787 -7.06538054e-05      0.224743453     0.957712306
12.660672            0.218891443     0.959072647   0.000231090528   -7.085712e-05   0.000231090527 -7.08571193e-05      0.225091195     0.957619407
12.6607              0.219238867     0.958982101   0.000231431856 -7.10610038e-05   0.000231431855 -7.10610031e-05      0.225439155     0.957526305
12.660728            0.219586509     0.958891355   0.000231773775 -7.12654592e-05   0.000231773774 -7.12654585e-05      0.225787333     0.957433001
12.660756            0.219934368     0.958800408   0.000232116284 -7.14704879e-05   0.000232116283 -7.14704872e-05      0.226135728     0.957339495
12.660784            0.220282445     0.958709261   0.000232459386 -7.16760918e-05   0.000232459385 -7.16760911e-05      0.226484341     0.957245785
12.660812            0.220630741     0.958617913    0.00023280308 -7.18822724e-05   0.000232803079 -7.18822717e-05      0.226833172     0.957151871
12.66084             0.220979255     0.958526364   0.000233147369 -7.20890317e-05   0.000233147368 -7.20890309e-05      0.227182221     0.957057753
12.660868            0.221327988     0.958434613   0.000233492254 -7.22963712e-05   0.000233492253 -7.22963705e-05      0.227531489     0.956963431
12.660896            0.221676939      0.95834266   0.000233837735 -7.25042928e-05   0.000233837734 -7.25042921e-05      0.227880976     0.956868905
12.660924             0.22202611     0.958250504   0.000234183814 -7.27127982e-05   0.000234183813 -7.27127975e-05      0.228230682     0.956774173
12.660952              0.2223755     0.958158146   0.000234530491 -7.29218892e-05    0.00023453049 -7.29218885e-05      0.228580606     0.956679235
12.66098             0.222725109     0.958065584   0.000234877768 -7.31315676e-05   0.000234877767 -7.31315669e-05      0.228930751     0.956584092
12.661008            0.223074939     0.957972819   0.000235225647 -7.33418351e-05   0.000235225646 -7.33418344e-05      0.229281115     0.956488742
12.661036            0.223424988      0.95787985   0.000235574127 -7.35526936e-05   0.000235574126 -7.35526929e-05      0.229631699     0.956393186
12.661064            0.223775257     0.957786676   0.000235923211 -7.37641447e-05    0.00023592321  -7.3764144e-05      0.229982503     0.956297422
12.661092            0.224125747     0.957693298   0.000236272899 -7.39761904e-05   0.000236272898 -7.39761897e-05      0.230333527     0.956201451
12.66112             0.224476457     0.957599715   0.000236623193 -7.41888324e-05   0.000236623192 -7.41888317e-05      0.230684772     0.956105273
12.661148            0.224827389     0.957505926   0.000236974094 -7.44020725e-05   0.000236974093 -7.44020718e-05      0.231036237     0.956008886
12.661176            0.225178541     0.957411931   0.000237325602 -7.46159125e-05   0.000237325601 -7.46159118e-05      0.231387924      0.95591229
12.661204            0.225529915     0.957317729   0.000237677719 -7.48303543e-05   0.000237677718 -7.48303536e-05      0.231739831     0.955815485
12.661232             0.22588151     0.957223321   0.000238030446 -7.50453997e-05   0.000238030446 -7.50453989e-05      0.232091961     0.955718471
12.66126             0.226233327     0.957128706   0.000238383785 -7.52610504e-05   0.000238383784 -7.52610497e-05      0.232444311     0.955621247
12.661288            0.226585366     0.957033884   0.000238737736 -7.54773084e-05   0.000238737735 -7.54773077e-05      0.232796884     0.955523813
12.661316            0.226937627     0.956938853     0.0002390923 -7.56941755e-05   0.000239092299 -7.56941748e-05      0.233149679     0.955426168
12.661344            0.227290111     0.956843615    0.00023944748 -7.59116535e-05   0.000239447479 -7.59116528e-05      0.233502696     0.955328312
12.661372            0.227642817     0.956748167   0.000239803274 -7.61297443e-05   0.000239803273 -7.61297436e-05      0.233855936     0.955230244
12.6614              0.227995746     0.956652511   0.000240159686 -7.63484498e-05   0.000240159685 -7.63484491e-05      0.234209398     0.955131965
12.661428            0.228348899     0.956556645   0.000240516716 -7.65677718e-05   0.000240516715  -7.6567771e-05      0.234563084     0.955033474
12.661456            0.228702275     0.956460569   0.000240874366 -7.67877122e-05   0.000240874365 -7.67877114e-05      0.234916992     0.954934769
12.661484            0.229055874     0.956364283   0.000241232635 -7.70082728e-05   0.000241232634 -7.70082721e-05      0.235271124     0.954835852
12.661512            0.229409697     0.956267786   0.000241591527 -7.72294556e-05   0.000241591526 -7.72294549e-05       0.23562548     0.954736722
12.66154             0.229763744     0.956171078   0.000241951041 -7.74512625e-05    0.00024195104 -7.74512618e-05       0.23598006     0.954637377
12.661568            0.230118015     0.956074159   0.000242311179 -7.76736953e-05   0.000242311178 -7.76736946e-05      0.236334864     0.954537818
12.661596            0.230472511     0.955977028   0.000242671942  -7.7896756e-05   0.000242671941 -7.78967552e-05      0.236689892     0.954438045
12.661624            0.230827232     0.955879685   0.000243033331 -7.81204464e-05    0.00024303333 -7.81204457e-05      0.237045145     0.954338056
12.661652            0.231182177     0.955782128   0.000243395348 -7.83447685e-05   0.000243395347 -7.83447678e-05      0.237400622     0.954237852
12.66168             0.231537348     0.955684359   0.000243757994 -7.85697243e-05   0.000243757993 -7.85697236e-05      0.237756325     0.954137432
12.661708            0.231892744     0.955586377   0.000244121269 -7.87953156e-05   0.000244121268 -7.87953148e-05      0.238112253     0.954036796
12.661736            0.232248366      0.95548818   0.000244485175 -7.90215443e-05   0.000244485174 -7.90215436e-05      0.238468406     0.953935943
12.661764            0.232604213     0.955389769   0.000244849713 -7.92484125e-05   0.000244849712 -7.92484118e-05      0.238824786     0.953834873
12.661792            0.232960287     0.955291143   0.000245214885 -7.94759221e-05   0.000245214884 -7.94759213e-05      0.239181391     0.953733585
12.66182             0.233316587     0.955192303   0.000245580691  -7.9704075e-05    0.00024558069 -7.97040742e-05      0.239538222      0.95363208
12.661848            0.233673114     0.955093246   0.000245947132 -7.99328731e-05   0.000245947131 -7.99328724e-05       0.23989528     0.953530356
12.661876            0.234029867     0.954993974   0.000246314211 -8.01623186e-05    0.00024631421 -8.01623178e-05      0.240252564     0.953428413
12.661904            0.234386847     0.954894485   0.000246681928 -8.03924132e-05   0.000246681927 -8.03924125e-05      0.240610075     0.953326251
12.661932            0.234744055      0.95479478   0.000247050283 -8.06231591e-05   0.000247050282 -8.06231584e-05      0.240967814     0.953223869
12.66196              0.23510149     0.954694857    0.00024741928 -8.08545582e-05   0.000247419279 -8.08545575e-05      0.241325779     0.953121267
12.661988            0.235459153     0.954594717   0.000247788917 -8.10866126e-05   0.000247788917 -8.10866118e-05      0.241683973     0.953018445
12.662016            0.235817044     0.954494359   0.000248159198 -8.13193241e-05   0.000248159197 -8.13193233e-05      0.242042394     0.952915402
12.662044            0.236175162     0.954393782   0.000248530123 -8.15526948e-05   0.000248530122 -8.15526941e-05      0.242401043     0.952812137
12.662072             0.23653351     0.954292986   0.000248901693 -8.17867268e-05   0.000248901692  -8.1786726e-05       0.24275992     0.952708651
12.6621              0.236892086     0.954191971   0.000249273909  -8.2021422e-05   0.000249273908 -8.20214213e-05      0.243119026     0.952604942
12.662128            0.237250891     0.954090737   0.000249646773 -8.22567825e-05   0.000249646772 -8.22567818e-05      0.243478361     0.952501011
12.662156            0.237609925     0.953989282   0.000250020286 -8.24928103e-05   0.000250020285 -8.24928096e-05      0.243837924     0.952396857
12.662184            0.237969188     0.953887606   0.000250394448 -8.27295075e-05   0.000250394448 -8.27295068e-05      0.244197717     0.952292479
12.662212            0.238328681      0.95378571   0.000250769262 -8.29668761e-05   0.000250769261 -8.29668754e-05      0.244557739     0.952187877
12.66224             0.238688404     0.953683592   0.000251144729 -8.32049182e-05   0.000251144728 -8.32049175e-05      0.244917991     0.952083051
12.662268            0.239048357     0.953581253   0.000251520849 -8.34436358e-05   0.000251520848 -8.34436351e-05      0.245278473     0.951978001
12.662296             0.23940854     0.953478691   0.000251897624  -8.3683031e-05   0.000251897623 -8.36830303e-05      0.245639185     0.951872725
12.662324            0.239768953     0.953375906   0.000252275055 -8.39231059e-05   0.000252275054 -8.39231052e-05      0.246000127     0.951767223
12.662352            0.240129598     0.953272898   0.000252653143 -8.41638626e-05   0.000252653142 -8.41638618e-05        0.2463613     0.951661496
12.66238             0.240490473     0.953169667    0.00025303189 -8.44053031e-05   0.000253031889 -8.44053024e-05      0.246722703     0.951555542
12.662408             0.24085158     0.953066211   0.000253411297 -8.46474296e-05   0.000253411296 -8.46474288e-05      0.247084338     0.951449361
12.662436            0.241212918     0.952962532   0.000253791365 -8.48902441e-05   0.000253791364 -8.48902434e-05      0.247446204     0.951342952
12.662464            0.241574488     0.952858627   0.000254172094 -8.51337488e-05   0.000254172094 -8.51337481e-05      0.247808302     0.951236316
12.662492             0.24193629     0.952754497   0.000254553488 -8.53779458e-05   0.000254553487 -8.53779451e-05      0.248170631     0.951129451
12.66252             0.242298324     0.952650141   0.000254935546 -8.56228372e-05   0.000254935545 -8.56228365e-05      0.248533192     0.951022358
12.662548             0.24266059      0.95254556    0.00025531827 -8.58684252e-05   0.000255318269 -8.58684244e-05      0.248895986     0.950915035
12.662576            0.243023089     0.952440751   0.000255701661 -8.61147119e-05    0.00025570166 -8.61147111e-05      0.249259012     0.950807483
12.662604            0.243385821     0.952335716    0.00025608572 -8.63616994e-05   0.000256085719 -8.63616986e-05      0.249622271     0.950699701
12.662632            0.243748786     0.952230452   0.000256470449 -8.66093898e-05   0.000256470448 -8.66093891e-05      0.249985763     0.950591689
12.66266             0.244111985     0.952124962   0.000256855849 -8.68577855e-05   0.000256855848 -8.68577847e-05      0.250349488     0.950483445
12.662688            0.244475417     0.952019242   0.000257241921 -8.71068885e-05    0.00025724192 -8.71068877e-05      0.250713446      0.95037497
12.662716            0.244839083     0.951913294   0.000257628666  -8.7356701e-05   0.000257628665 -8.73567002e-05      0.251077639     0.950266264
12.662744            0.245202983     0.951807116   0.000258016086 -8.76072251e-05   0.000258016085 -8.76072244e-05      0.251442065     0.950157325
12.662772            0.245567118     0.951700709   0.000258404182 -8.78584632e-05   0.000258404181 -8.78584624e-05      0.251806725     0.950048153
12.6628              0.245931487     0.951594072   0.000258792955 -8.81104173e-05   0.000258792954 -8.81104166e-05      0.252171619     0.949938748
12.662828            0.246296091     0.951487204   0.000259182406 -8.83630897e-05   0.000259182405  -8.8363089e-05      0.252536749     0.949829109
12.662856             0.24666093     0.951380105   0.000259572537 -8.86164826e-05   0.000259572536 -8.86164819e-05      0.252902113     0.949719237
12.662884            0.247026004     0.951272774   0.000259963348 -8.88705983e-05   0.000259963347 -8.88705975e-05      0.253267712     0.949609129
12.662912            0.247391314     0.951165212   0.000260354842 -8.91254389e-05   0.000260354841 -8.91254381e-05      0.253633547     0.949498787
12.66294             0.247756859     0.951057417   0.000260747019 -8.93810066e-05   0.000260747018 -8.93810058e-05      0.253999617     0.949388209
12.662968            0.248122641     0.950949389   0.000261139881 -8.96373038e-05    0.00026113988  -8.9637303e-05      0.254365923     0.949277396
12.662996            0.248488659     0.950841128   0.000261533429 -8.98943327e-05   0.000261533428 -8.98943319e-05      0.254732465     0.949166346
12.663024            0.248854914     0.950732633   0.000261927663 -9.01520955e-05   0.000261927662 -9.01520947e-05      0.255099244     0.949055059
12.663052            0.249221405     0.950623904   0.000262322587 -9.04105945e-05   0.000262322586 -9.04105937e-05      0.255466259     0.948943535
12.66308             0.249588133      0.95051494     0.0002627182  -9.0669832e-05   0.000262718199 -9.06698312e-05      0.255833511     0.948831772
12.663108            0.249955099     0.950405741   0.000263114504 -9.09298102e-05   0.000263114503 -9.09298094e-05         0.256201     0.948719772
12.663136            0.250322302     0.950296306     0.0002635115 -9.11905315e-05   0.000263511499 -9.11905307e-05      0.256568726     0.948607533
12.663164            0.250689743     0.950186635    0.00026390919 -9.14519981e-05   0.000263909189 -9.14519973e-05       0.25693669     0.948495055
12.663192            0.251057421     0.950076728   0.000264307575 -9.17142124e-05   0.000264307574 -9.17142116e-05      0.257304891     0.948382337
12.66322             0.251425338     0.949966584   0.000264706655 -9.19771766e-05   0.000264706654 -9.19771759e-05      0.257673331     0.948269379
12.663248            0.251793494     0.949856202   0.000265106433 -9.22408932e-05   0.000265106433 -9.22408924e-05      0.258042009     0.948156181
12.663276            0.252161888     0.949745582    0.00026550691 -9.25053643e-05   0.000265506909 -9.25053635e-05      0.258410925     0.948042741
12.663304            0.252530522     0.949634724   0.000265908087 -9.27705924e-05   0.000265908086 -9.27705916e-05       0.25878008      0.94792906
12.663332            0.252899394     0.949523627   0.000266309965 -9.30365797e-05   0.000266309964 -9.30365789e-05      0.259149475     0.947815137
12.66336             0.253268506      0.94941229   0.000266712546 -9.33033287e-05   0.000266712545 -9.33033279e-05      0.259519108     0.947700971
12.663388            0.253637858     0.949300714    0.00026711583 -9.35708417e-05   0.000267115829 -9.35708409e-05      0.259888981     0.947586562
12.663416             0.25400745     0.949188897   0.000267519819 -9.38391211e-05   0.000267519819 -9.38391203e-05      0.260259094      0.94747191
12.663444            0.254377281      0.94907684   0.000267924515 -9.41081692e-05   0.000267924514 -9.41081684e-05      0.260629446     0.947357014
12.663472            0.254747354     0.948964542   0.000268329919 -9.43779884e-05   0.000268329918 -9.43779877e-05      0.261000039     0.947241874
12.6635              0.255117667     0.948852001   0.000268736032 -9.46485812e-05   0.000268736031 -9.46485804e-05      0.261370873     0.947126489
