! TOUCHSTONE file generated by CST MICROWAVE STUDIO
! Date and time: Wed Jul 31 16:31:50 2024
! Project name: WaveGuide_BPF-Ver4.1_U-shape_Ku_T3_C4_CWA_2.cst
! Parameters = {cavity_h=16; cavity_l0=10; cavity_l1=15.172; cavity_l2=16.8528; cavity_l3=17.1165; cavity_l4=17.3007; cavity_l5=17.0917; cavity_l6=17.6393; cavity_r=2.5; cavity_screw_l=0.5; cavity_screw_r=1.5; cavity_w=8; iris_h00=0; iris_h01=8.8267; iris_h112=0; iris_h12=5.5913; iris_h211=3.6659; iris_h23=5.1903; iris_h310=3.9733; iris_h34=5.0899; iris_h45=4.9325; iris_h49=4.6095; iris_h56=4.8008; iris_h58=4.4352; iris_h67=6.5824; iris_rx=0.1; iris_screw_l=0.5; iris_screw_r=1.5; iris_shift00=0; iris_shift112=0; iris_shift211=3.5; iris_shift310=0; iris_shift49=0; iris_shift58=3.5; iris_shift67=3.5; iris_tx=4.5; iris_tz=4.5; iris_w00=0; iris_w112=0; iris_w211=4; iris_w310=3.9733; iris_w49=4.6095; iris_w58=4; iris_w67=4; mesh_cavity=5; mesh_iris=7; mesh_screw=7; order=12; reset_all=0; sigma=4.8e+07}
! Header version: 2018
! Port assignment regex: !\s*Touchstone port\s*([0-9]+)\s*=\s*(CST MWS port|CST DS port)\s*([0-9]+|Zmin|Zmax)\s*\(\"(.*)\"\)(\s*mode\s*([0-9]+))?.*
! Touchstone port assignment:
! Touchstone port 1 = CST MWS port 1 ("")
! Touchstone port 2 = CST MWS port 2 ("")
# GHz S RI R 50
12.66                0.248878857     0.951472449   0.000205553995 -6.97424083e-05   0.000205553995 -6.97424085e-05      0.256429878      0.94943578
12.660028             0.24922912     0.951369769   0.000205841512 -6.99306774e-05   0.000205841512 -6.99306776e-05      0.256781262     0.949329728
12.660056            0.249579572     0.951266886   0.000206129489 -7.01194434e-05   0.000206129489 -7.01194437e-05      0.257132854     0.949223463
12.660084            0.249930218     0.951163796   0.000206417928 -7.03087083e-05   0.000206417928 -7.03087085e-05      0.257484653     0.949116985
12.660112            0.250281066     0.951060499   0.000206706828 -7.04984738e-05   0.000206706828 -7.04984741e-05      0.257836656     0.949010295
12.66014             0.250632124     0.950956992    0.00020699619  -7.0688742e-05    0.00020699619 -7.06887422e-05      0.258188863     0.948903393
12.660168             0.25098339     0.950853274   0.000207286014 -7.08795142e-05   0.000207286014 -7.08795144e-05      0.258541274     0.948796278
12.660196            0.251334861     0.950749347   0.000207576302 -7.10707916e-05   0.000207576302 -7.10707918e-05      0.258893889     0.948688949
12.660224            0.251686537     0.950645211   0.000207867055 -7.12625755e-05   0.000207867055 -7.12625757e-05       0.25924671     0.948581407
12.660252            0.252038418     0.950540863   0.000208158272 -7.14548674e-05   0.000208158272 -7.14548676e-05      0.259599736     0.948473651
12.66028             0.252390505     0.950436306   0.000208449956 -7.16476687e-05   0.000208449956  -7.1647669e-05      0.259952967      0.94836568
12.660308            0.252742797     0.950331537   0.000208742106  -7.1840981e-05   0.000208742106 -7.18409812e-05      0.260306404     0.948257494
12.660336            0.253095295     0.950226557   0.000209034723 -7.20348055e-05   0.000209034723 -7.20348057e-05      0.260660047     0.948149094
12.660364            0.253447998     0.950121365   0.000209327809 -7.22291438e-05   0.000209327809  -7.2229144e-05      0.261013896     0.948040477
12.660392            0.253800908     0.950015961   0.000209621364 -7.24239973e-05   0.000209621364 -7.24239975e-05       0.26136795     0.947931644
12.66042             0.254154023     0.949910344   0.000209915388 -7.26193675e-05   0.000209915388 -7.26193677e-05      0.261722212     0.947822596
12.660448            0.254507345     0.949804515   0.000210209883 -7.28152558e-05   0.000210209883  -7.2815256e-05      0.262076679      0.94771333
12.660476            0.254860874     0.949698472   0.000210504849 -7.30116637e-05   0.000210504849 -7.30116639e-05      0.262431354     0.947603847
12.660504            0.255214609     0.949592216   0.000210800287 -7.32085927e-05   0.000210800287 -7.32085929e-05      0.262786235     0.947494147
12.660532            0.255568552     0.949485746   0.000211096198 -7.34060443e-05   0.000211096198 -7.34060445e-05      0.263141323     0.947384228
12.66056             0.255922701     0.949379062   0.000211392583 -7.36040199e-05   0.000211392583 -7.36040201e-05      0.263496619     0.947274092
12.660588            0.256277057     0.949272162   0.000211689442  -7.3802521e-05   0.000211689442 -7.38025212e-05      0.263852121     0.947163736
12.660616            0.256631621     0.949165048   0.000211986776 -7.40015491e-05   0.000211986776 -7.40015493e-05      0.264207832     0.947053162
12.660644            0.256986393     0.949057718   0.000212284586 -7.42011057e-05   0.000212284586 -7.42011059e-05       0.26456375     0.946942368
12.660672            0.257341372     0.948950172   0.000212582873 -7.44011923e-05   0.000212582873 -7.44011925e-05      0.264919876     0.946831355
12.6607              0.257696559      0.94884241   0.000212881637 -7.46018104e-05   0.000212881637 -7.46018106e-05       0.26527621     0.946720121
12.660728            0.258051955     0.948734431    0.00021318088 -7.48029615e-05    0.00021318088 -7.48029617e-05      0.265632752     0.946608666
12.660756            0.258407558     0.948626235   0.000213480602 -7.50046471e-05   0.000213480602 -7.50046473e-05      0.265989503     0.946496991
12.660784             0.25876337     0.948517822   0.000213780803 -7.52068688e-05   0.000213780803  -7.5206869e-05      0.266346462     0.946385094
12.660812            0.259119391     0.948409191   0.000214081485  -7.5409628e-05   0.000214081485 -7.54096282e-05       0.26670363     0.946272975
12.66084             0.259475621     0.948300342   0.000214382649 -7.56129263e-05   0.000214382649 -7.56129265e-05      0.267061007     0.946160634
12.660868             0.25983206     0.948191274   0.000214684294 -7.58167652e-05   0.000214684294 -7.58167655e-05      0.267418593      0.94604807
12.660896            0.260188707     0.948081987   0.000214986423 -7.60211463e-05   0.000214986423 -7.60211465e-05      0.267776389     0.945935284
12.660924            0.260545565     0.947972481   0.000215289035 -7.62260711e-05   0.000215289035 -7.62260713e-05      0.268134394     0.945822274
12.660952            0.260902631     0.947862755   0.000215592132  -7.6431541e-05   0.000215592132 -7.64315413e-05      0.268492609      0.94570904
12.66098             0.261259908     0.947752809   0.000215895714 -7.66375578e-05   0.000215895714  -7.6637558e-05      0.268851033     0.945595582
12.661008            0.261617394     0.947642642   0.000216199783 -7.68441229e-05   0.000216199783 -7.68441231e-05      0.269209667     0.945481899
12.661036            0.261975091     0.947532254   0.000216504338 -7.70512379e-05   0.000216504338 -7.70512381e-05      0.269568512     0.945367992
12.661064            0.262332998     0.947421645   0.000216809381 -7.72589043e-05   0.000216809381 -7.72589045e-05      0.269927567     0.945253859
12.661092            0.262691115     0.947310815   0.000217114913 -7.74671238e-05   0.000217114913  -7.7467124e-05      0.270286833       0.9451395
12.66112             0.263049443     0.947199762   0.000217420934 -7.76758978e-05   0.000217420934 -7.76758981e-05      0.270646309     0.945024916
12.661148            0.263407982     0.947088487   0.000217727445 -7.78852281e-05   0.000217727444 -7.78852283e-05      0.271005996     0.944910104
12.661176            0.263766731     0.946976989   0.000218034446 -7.80951161e-05   0.000218034446 -7.80951163e-05      0.271365895     0.944795066
12.661204            0.264125692     0.946865267    0.00021834194 -7.83055634e-05    0.00021834194 -7.83055636e-05      0.271726004       0.9446798
12.661232            0.264484864     0.946753322   0.000218649926 -7.85165716e-05   0.000218649926 -7.85165719e-05      0.272086325     0.944564307
12.66126             0.264844248     0.946641153   0.000218958405 -7.87281424e-05   0.000218958405 -7.87281427e-05      0.272446858     0.944448585
12.661288            0.265203843     0.946528759   0.000219267378 -7.89402774e-05   0.000219267378 -7.89402776e-05      0.272807602     0.944332635
12.661316            0.265563651     0.946416141   0.000219576847  -7.9152978e-05   0.000219576847 -7.91529782e-05      0.273168558     0.944216455
12.661344             0.26592367     0.946303297   0.000219886811  -7.9366246e-05    0.00021988681 -7.93662463e-05      0.273529727     0.944100046
12.661372            0.266283902     0.946190227   0.000220197271  -7.9580083e-05   0.000220197271 -7.95800832e-05      0.273891108     0.943983408
12.6614              0.266644346     0.946076931   0.000220508229 -7.97944906e-05   0.000220508228 -7.97944908e-05      0.274252701     0.943866539
12.661428            0.267005002     0.945963409   0.000220819684 -8.00094704e-05   0.000220819684 -8.00094706e-05      0.274614507     0.943749439
12.661456            0.267365872      0.94584966   0.000221131639  -8.0225024e-05   0.000221131639 -8.02250242e-05      0.274976526     0.943632109
12.661484            0.267726954     0.945735684   0.000221444093 -8.04411531e-05   0.000221444093 -8.04411533e-05      0.275338758     0.943514547
12.661512             0.26808825     0.945621479   0.000221757048 -8.06578593e-05   0.000221757048 -8.06578595e-05      0.275701203     0.943396753
12.66154             0.268449759     0.945507047   0.000222070504 -8.08751443e-05   0.000222070504 -8.08751445e-05      0.276063862     0.943278726
12.661568            0.268811481     0.945392386   0.000222384462 -8.10930097e-05   0.000222384462 -8.10930099e-05      0.276426734     0.943160467
12.661596            0.269173417     0.945277496   0.000222698924 -8.13114572e-05   0.000222698924 -8.13114574e-05       0.27678982     0.943041975
12.661624            0.269535568     0.945162377   0.000223013889 -8.15304884e-05   0.000223013889 -8.15304886e-05       0.27715312     0.942923249
12.661652            0.269897932     0.945047028   0.000223329358  -8.1750105e-05   0.000223329358 -8.17501052e-05      0.277516634      0.94280429
12.66168              0.27026051     0.944931449   0.000223645333 -8.19703087e-05   0.000223645333 -8.19703089e-05      0.277880362     0.942685096
12.661708            0.270623303     0.944815639   0.000223961814 -8.21911011e-05   0.000223961814 -8.21911013e-05      0.278244305     0.942565667
12.661736             0.27098631     0.944699598   0.000224278802  -8.2412484e-05   0.000224278802 -8.24124842e-05      0.278608462     0.942446002
12.661764            0.271349532     0.944583326   0.000224596298 -8.26344589e-05   0.000224596298 -8.26344592e-05      0.278972834     0.942326103
12.661792            0.271712969     0.944466822   0.000224914302 -8.28570277e-05   0.000224914302 -8.28570279e-05      0.279337422     0.942205967
12.66182             0.272076622     0.944350086   0.000225232816  -8.3080192e-05   0.000225232816 -8.30801922e-05      0.279702224     0.942085594
12.661848            0.272440489     0.944233116    0.00022555184 -8.33039535e-05    0.00022555184 -8.33039537e-05      0.280067242     0.941964985
12.661876            0.272804573     0.944115914   0.000225871375 -8.35283139e-05   0.000225871375 -8.35283141e-05      0.280432476     0.941844138
12.661904            0.273168872     0.943998479   0.000226191422 -8.37532749e-05   0.000226191422 -8.37532751e-05      0.280797925     0.941723053
12.661932            0.273533386     0.943880809   0.000226511982 -8.39788383e-05   0.000226511982 -8.39788385e-05       0.28116359     0.941601731
12.66196             0.273898117     0.943762905   0.000226833055 -8.42050057e-05   0.000226833055  -8.4205006e-05      0.281529471     0.941480169
12.661988            0.274263064     0.943644766   0.000227154643  -8.4431779e-05   0.000227154643 -8.44317792e-05      0.281895569     0.941358369
12.662016            0.274628228     0.943526392   0.000227476745 -8.46591597e-05   0.000227476745 -8.46591599e-05      0.282261883     0.941236329
12.662044            0.274993608     0.943407782   0.000227799364 -8.48871497e-05   0.000227799364   -8.488715e-05      0.282628414     0.941114049
12.662072            0.275359205     0.943288937     0.0002281225 -8.51157508e-05     0.0002281225  -8.5115751e-05      0.282995161     0.940991528
12.6621              0.275725019     0.943169854   0.000228446153 -8.53449646e-05   0.000228446153 -8.53449648e-05      0.283362126     0.940868767
12.662128            0.276091051     0.943050535   0.000228770324 -8.55747929e-05   0.000228770324 -8.55747931e-05      0.283729308     0.940745765
12.662156            0.276457299     0.942930979   0.000229095015 -8.58052374e-05   0.000229095015 -8.58052377e-05      0.284096707     0.940622521
12.662184            0.276823765     0.942811184   0.000229420226    -8.60363e-05   0.000229420226 -8.60363003e-05      0.284464324     0.940499034
12.662212            0.277190449     0.942691152   0.000229745958 -8.62679825e-05   0.000229745958 -8.62679827e-05      0.284832158     0.940375305
12.66224             0.277557351     0.942570881   0.000230072212 -8.65002865e-05   0.000230072212 -8.65002867e-05      0.285200211     0.940251334
12.662268            0.277924471     0.942450371   0.000230398988 -8.67332138e-05   0.000230398988 -8.67332141e-05      0.285568481     0.940127118
12.662296            0.278291809     0.942329621   0.000230726288 -8.69667664e-05   0.000230726288 -8.69667666e-05       0.28593697     0.940002659
12.662324            0.278659366     0.942208631   0.000231054112 -8.72009458e-05   0.000231054112 -8.72009461e-05      0.286305678     0.939877956
12.662352            0.279027141     0.942087401   0.000231382461  -8.7435754e-05   0.000231382461 -8.74357543e-05      0.286674604     0.939753008
12.66238             0.279395135      0.94196593   0.000231711336 -8.76711928e-05   0.000231711336  -8.7671193e-05      0.287043749     0.939627814
12.662408            0.279763349     0.941844218   0.000232040737 -8.79072639e-05   0.000232040737 -8.79072641e-05      0.287413113     0.939502375
12.662436            0.280131781     0.941722264   0.000232370667 -8.81439692e-05   0.000232370667 -8.81439694e-05      0.287782696      0.93937669
12.662464            0.280500433     0.941600069   0.000232701124 -8.83813105e-05   0.000232701124 -8.83813107e-05      0.288152498     0.939250758
12.662492            0.280869304      0.94147763   0.000233032111 -8.86192895e-05   0.000233032111 -8.86192898e-05       0.28852252      0.93912458
12.66252             0.281238396     0.941354949   0.000233363628 -8.88579083e-05   0.000233363628 -8.88579085e-05      0.288892762     0.938998154
12.662548            0.281607707     0.941232024   0.000233695676 -8.90971685e-05   0.000233695676 -8.90971687e-05      0.289263224     0.938871479
12.662576            0.281977238     0.941108855   0.000234028256  -8.9337072e-05   0.000234028256 -8.93370722e-05      0.289633906     0.938744557
12.662604             0.28234699     0.940985442   0.000234361368 -8.95776207e-05   0.000234361368  -8.9577621e-05      0.290004809     0.938617386
12.662632            0.282716962     0.940861784   0.000234695014 -8.98188165e-05   0.000234695014 -8.98188167e-05      0.290375932     0.938489966
12.66266             0.283087155     0.940737881   0.000235029194 -9.00606611e-05   0.000235029194 -9.00606613e-05      0.290747275     0.938362295
12.662688            0.283457569     0.940613732   0.000235363909 -9.03031565e-05   0.000235363909 -9.03031567e-05       0.29111884     0.938234375
12.662716            0.283828204     0.940489337    0.00023569916 -9.05463044e-05    0.00023569916 -9.05463047e-05      0.291490625     0.938106204
12.662744             0.28419906     0.940364695   0.000236034948 -9.07901069e-05   0.000236034948 -9.07901072e-05      0.291862632     0.937977782
12.662772            0.284570138     0.940239807   0.000236371273 -9.10345658e-05   0.000236371273  -9.1034566e-05       0.29223486     0.937849109
12.6628              0.284941437     0.940114671   0.000236708137 -9.12796829e-05   0.000236708137 -9.12796831e-05       0.29260731     0.937720183
12.662828            0.285312958     0.939989287   0.000237045541 -9.15254602e-05   0.000237045541 -9.15254604e-05      0.292979982     0.937591005
12.662856            0.285684702     0.939863654   0.000237383484 -9.17718996e-05   0.000237383484 -9.17718998e-05      0.293352875     0.937461575
12.662884            0.286056667     0.939737773   0.000237721969 -9.20190029e-05   0.000237721969 -9.20190031e-05      0.293725991      0.93733189
12.662912            0.286428855     0.939611643   0.000238060995 -9.22667721e-05   0.000238060995 -9.22667723e-05      0.294099329     0.937201952
12.66294             0.286801265     0.939485262   0.000238400564  -9.2515209e-05   0.000238400564 -9.25152093e-05       0.29447289      0.93707176
12.662968            0.287173899     0.939358632   0.000238740677 -9.27643157e-05   0.000238740677  -9.2764316e-05      0.294846674     0.936941313
12.662996            0.287546755     0.939231751   0.000239081334 -9.30140941e-05   0.000239081334 -9.30140943e-05       0.29522068     0.936810611
12.663024            0.287919834     0.939104619   0.000239422536  -9.3264546e-05   0.000239422536 -9.32645462e-05      0.295594909     0.936679653
12.663052            0.288293137     0.938977235   0.000239764284 -9.35156734e-05   0.000239764284 -9.35156736e-05      0.295969362     0.936548438
12.66308             0.288666663     0.938849599    0.00024010658 -9.37674783e-05    0.00024010658 -9.37674785e-05      0.296344039     0.936416968
12.663108            0.289040413     0.938721711   0.000240449423 -9.40199626e-05   0.000240449423 -9.40199628e-05      0.296718939      0.93628524
12.663136            0.289414387     0.938593569   0.000240792814 -9.42731283e-05   0.000240792814 -9.42731285e-05      0.297094062     0.936153254
12.663164            0.289788585     0.938465175   0.000241136756 -9.45269773e-05   0.000241136756 -9.45269775e-05       0.29746941     0.936021011
12.663192            0.290163007     0.938336526   0.000241481247 -9.47815116e-05   0.000241481247 -9.47815119e-05      0.297844982     0.935888509
12.66322             0.290537654     0.938207623    0.00024182629 -9.50367333e-05    0.00024182629 -9.50367335e-05      0.298220779     0.935755748
12.663248            0.290912526     0.938078465   0.000242171885 -9.52926441e-05   0.000242171885 -9.52926444e-05        0.2985968     0.935622727
12.663276            0.291287622     0.937949052   0.000242518033 -9.55492463e-05   0.000242518033 -9.55492465e-05      0.298973046     0.935489447
12.663304            0.291662943     0.937819383   0.000242864734 -9.58065417e-05   0.000242864734 -9.58065419e-05      0.299349517     0.935355906
12.663332             0.29203849     0.937689458   0.000243211991 -9.60645323e-05   0.000243211991 -9.60645325e-05      0.299726213     0.935222104
12.66336             0.292414262     0.937559276   0.000243559802 -9.63232202e-05   0.000243559802 -9.63232204e-05      0.300103134     0.935088041
12.663388             0.29279026     0.937428837    0.00024390817 -9.65826074e-05    0.00024390817 -9.65826076e-05      0.300480281     0.934953716
12.663416            0.293166483     0.937298141   0.000244257096 -9.68426958e-05   0.000244257095  -9.6842696e-05      0.300857654     0.934819128
12.663444            0.293542933     0.937167186   0.000244606579 -9.71034876e-05   0.000244606579 -9.71034878e-05      0.301235253     0.934684278
12.663472            0.293919608     0.937035972   0.000244956621 -9.73649847e-05   0.000244956621 -9.73649849e-05      0.301613077     0.934549164
12.6635              0.294296511       0.9369045   0.000245307223 -9.76271892e-05   0.000245307223 -9.76271894e-05      0.301991128     0.934413787
