! TOUCHSTONE file generated by CST MICROWAVE STUDIO
! Date and time: Wed Jul 31 16:34:59 2024
! Project name: WaveGuide_BPF-Ver4.1_U-shape_Ku_T3_C4_CWA_2.cst
! Parameters = {cavity_h=16; cavity_l0=10; cavity_l1=15.2232; cavity_l2=16.8202; cavity_l3=17.0699; cavity_l4=17.2261; cavity_l5=17.1183; cavity_l6=17.6368; cavity_r=2.5; cavity_screw_l=0.5; cavity_screw_r=1.5; cavity_w=8; iris_h00=0; iris_h01=8.8183; iris_h112=0; iris_h12=5.5982; iris_h211=3.6542; iris_h23=5.2065; iris_h310=3.9777; iris_h34=5.0874; iris_h45=4.9369; iris_h49=4.6303; iris_h56=4.8004; iris_h58=4.4298; iris_h67=6.5701; iris_rx=0.1; iris_screw_l=0.5; iris_screw_r=1.5; iris_shift00=0; iris_shift112=0; iris_shift211=3.5; iris_shift310=0; iris_shift49=0; iris_shift58=3.5; iris_shift67=3.5; iris_tx=4.5; iris_tz=4.5; iris_w00=0; iris_w112=0; iris_w211=4; iris_w310=3.9777; iris_w49=4.6303; iris_w58=4; iris_w67=4; mesh_cavity=5; mesh_iris=7; mesh_screw=7; order=12; reset_all=0; sigma=4.8e+07}
! Header version: 2018
! Port assignment regex: !\s*Touchstone port\s*([0-9]+)\s*=\s*(CST MWS port|CST DS port)\s*([0-9]+|Zmin|Zmax)\s*\(\"(.*)\"\)(\s*mode\s*([0-9]+))?.*
! Touchstone port assignment:
! Touchstone port 1 = CST MWS port 1 ("")
! Touchstone port 2 = CST MWS port 2 ("")
# GHz S RI R 50
12.66                 0.40160316     0.892130951    0.00021678743  -0.00011630876    0.00021678743  -0.00011630876      0.404000117     0.891067823
12.660028            0.402041303     0.891916116   0.000217061992 -0.000116601824   0.000217061992 -0.000116601824      0.404438247     0.890851542
12.660056            0.402479644     0.891700903   0.000217336895 -0.000116895633   0.000217336895 -0.000116895633       0.40487661     0.890634866
12.660084            0.402918197     0.891485304   0.000217612139 -0.000117190189   0.000217612139 -0.000117190189      0.405315204     0.890417794
12.660112            0.403356974     0.891269313   0.000217887721 -0.000117485496   0.000217887721 -0.000117485495      0.405754027     0.890200326
12.66014              0.40379599     0.891052924   0.000218163641 -0.000117781556   0.000218163641 -0.000117781555      0.406193078     0.889982463
12.660168            0.404235244     0.890836137   0.000218439899 -0.000118078371   0.000218439899 -0.000118078371      0.406632358     0.889764203
12.660196            0.404674727     0.890618953   0.000218716496 -0.000118375943   0.000218716496 -0.000118375943      0.407071866     0.889545546
12.660224            0.405114439     0.890401374   0.000218993432 -0.000118674274   0.000218993432 -0.000118674274      0.407511603     0.889326491
12.660252            0.405554381     0.890183397   0.000219270708 -0.000118973366   0.000219270708 -0.000118973366       0.40795157     0.889107036
12.66028             0.405994553     0.889965022   0.000219548323 -0.000119273221   0.000219548323 -0.000119273221      0.408391766     0.888887183
12.660308            0.406434954     0.889746249   0.000219826277 -0.000119573841   0.000219826277 -0.000119573841      0.408832191     0.888666929
12.660336            0.406875585     0.889527077   0.000220104572 -0.000119875228   0.000220104572 -0.000119875228      0.409272846     0.888446274
12.660364            0.407316445     0.889307505   0.000220383206 -0.000120177384   0.000220383206 -0.000120177384       0.40971373     0.888225218
12.660392            0.407757535     0.889087533   0.000220662181 -0.000120480312   0.000220662181 -0.000120480311      0.410154843     0.888003759
12.66042             0.408198855     0.888867159   0.000220941496 -0.000120784012   0.000220941496 -0.000120784012      0.410596186     0.887781897
12.660448            0.408640404     0.888646383   0.000221221152 -0.000121088488   0.000221221152 -0.000121088488      0.411037758     0.887559632
12.660476            0.409082183     0.888425205   0.000221501148 -0.000121393742   0.000221501149 -0.000121393742      0.411479559     0.887336962
12.660504            0.409524192     0.888203624   0.000221781486 -0.000121699775   0.000221781486 -0.000121699775      0.411921591     0.887113887
12.660532            0.409966431     0.887981638   0.000222062164  -0.00012200659   0.000222062164 -0.000122006589      0.412363851     0.886890406
12.66056               0.4104089     0.887759248   0.000222343183 -0.000122314188   0.000222343183 -0.000122314188      0.412806342     0.886666519
12.660588            0.410851599     0.887536452   0.000222624544 -0.000122622572   0.000222624544 -0.000122622572      0.413249062     0.886442224
12.660616            0.411294528     0.887313251   0.000222906246 -0.000122931745   0.000222906246 -0.000122931744      0.413692012     0.886217521
12.660644            0.411737687     0.887089642    0.00022318829 -0.000123241707    0.00022318829 -0.000123241707      0.414135191      0.88599241
12.660672            0.412181076     0.886865626   0.000223470676 -0.000123552462   0.000223470676 -0.000123552461      0.414578601      0.88576689
12.6607              0.412624695     0.886641202   0.000223753403 -0.000123864011   0.000223753403  -0.00012386401       0.41502224     0.885540959
12.660728            0.413068544     0.886416369   0.000224036473 -0.000124176356   0.000224036473 -0.000124176356      0.415466109     0.885314618
12.660756            0.413512623     0.886191126   0.000224319885 -0.000124489501   0.000224319885   -0.0001244895      0.415910208     0.885087865
12.660784            0.413956932     0.885965473   0.000224603639 -0.000124803446   0.000224603639 -0.000124803445      0.416354536       0.8848607
12.660812            0.414401472     0.885739409   0.000224887736 -0.000125118194   0.000224887736 -0.000125118194      0.416799095     0.884633122
12.66084             0.414846242     0.885512933   0.000225172175 -0.000125433747   0.000225172175 -0.000125433747      0.417243884     0.884405131
12.660868            0.415291242     0.885286044   0.000225456957 -0.000125750108   0.000225456957 -0.000125750108      0.417688902     0.884176725
12.660896            0.415736473     0.885058742   0.000225742082 -0.000126067278   0.000225742082 -0.000126067278      0.418134151     0.883947904
12.660924            0.416181934     0.884831027    0.00022602755  -0.00012638526    0.00022602755  -0.00012638526       0.41857963     0.883718667
12.660952            0.416627625     0.884602897   0.000226313362 -0.000126704056   0.000226313362 -0.000126704055      0.419025338     0.883489014
12.66098             0.417073547     0.884374351   0.000226599516 -0.000127023668   0.000226599516 -0.000127023667      0.419471277     0.883258943
12.661008              0.4175197     0.884145389   0.000226886014 -0.000127344098   0.000226886014 -0.000127344097      0.419917446     0.883028455
12.661036            0.417966082     0.883916011   0.000227172856 -0.000127665348   0.000227172856 -0.000127665348      0.420363846     0.882797547
12.661064            0.418412696     0.883686215   0.000227460041 -0.000127987422   0.000227460041 -0.000127987421      0.420810475     0.882566221
12.661092            0.418859539     0.883456001    0.00022774757  -0.00012831032    0.00022774757  -0.00012831032      0.421257335     0.882334474
12.66112             0.419306614     0.883225367   0.000228035443 -0.000128634046   0.000228035443 -0.000128634045      0.421704424     0.882102306
12.661148            0.419753919     0.882994314    0.00022832366 -0.000128958601    0.00022832366   -0.0001289586      0.422151745     0.881869717
12.661176            0.420201454     0.882762841   0.000228612222 -0.000129283987   0.000228612222 -0.000129283987      0.422599295     0.881636705
12.661204             0.42064922     0.882530946   0.000228901127 -0.000129610208   0.000228901127 -0.000129610207      0.423047076     0.881403271
12.661232            0.421097217      0.88229863   0.000229190377 -0.000129937265   0.000229190377 -0.000129937264      0.423495087     0.881169412
12.66126             0.421545445     0.882065891   0.000229479972  -0.00013026516   0.000229479972 -0.000130265159      0.423943329     0.880935129
12.661288            0.421993903     0.881832728   0.000229769911 -0.000130593895   0.000229769911 -0.000130593895        0.4243918     0.880700421
12.661316            0.422442592     0.881599141   0.000230060195 -0.000130923474   0.000230060195 -0.000130923474      0.424840503     0.880465286
12.661344            0.422891512      0.88136513   0.000230350823 -0.000131253898   0.000230350824 -0.000131253898      0.425289435     0.880229725
12.661372            0.423340663     0.881130693   0.000230641797  -0.00013158517   0.000230641797 -0.000131585169      0.425738599     0.879993737
12.6614              0.423790044     0.880895829   0.000230933116 -0.000131917291   0.000230933116 -0.000131917291      0.426187992      0.87975732
12.661428            0.424239656     0.880660539    0.00023122478 -0.000132250265    0.00023122478 -0.000132250264      0.426637617     0.879520474
12.661456              0.4246895      0.88042482   0.000231516789 -0.000132584093   0.000231516789 -0.000132584092      0.427087471     0.879283198
12.661484            0.425139573     0.880188673   0.000231809143 -0.000132918777   0.000231809143 -0.000132918777      0.427537556     0.879045492
12.661512            0.425589878     0.879952097   0.000232101843 -0.000133254321   0.000232101843 -0.000133254321      0.427987872     0.878807354
12.66154             0.426040414     0.879715091   0.000232394889 -0.000133590726   0.000232394889 -0.000133590726      0.428438418     0.878568784
12.661568            0.426491181     0.879477654    0.00023268828 -0.000133927995    0.00023268828 -0.000133927995      0.428889195     0.878329782
12.661596            0.426942178     0.879239785   0.000232982016  -0.00013426613   0.000232982016  -0.00013426613      0.429340203     0.878090346
12.661624            0.427393407     0.879001484   0.000233276099 -0.000134605133   0.000233276099 -0.000134605133      0.429791441     0.877850476
12.661652            0.427844867      0.87876275   0.000233570527 -0.000134945007   0.000233570527 -0.000134945007       0.43024291     0.877610171
12.66168             0.428296557     0.878523582   0.000233865302 -0.000135285754   0.000233865302 -0.000135285754      0.430694609      0.87736943
12.661708            0.428748479     0.878283979   0.000234160422 -0.000135627377   0.000234160422 -0.000135627377      0.431146539     0.877128252
12.661736            0.429200631     0.878043942   0.000234455889 -0.000135969878   0.000234455889 -0.000135969877        0.4315987     0.876886637
12.661764            0.429653015     0.877803468   0.000234751701 -0.000136313258   0.000234751701 -0.000136313258      0.432051091     0.876644585
12.661792             0.43010563     0.877562557    0.00023504786 -0.000136657522    0.00023504786 -0.000136657521      0.432503713     0.876402093
12.66182             0.430558475     0.877321208   0.000235344366  -0.00013700267   0.000235344366  -0.00013700267      0.432956566     0.876159161
12.661848            0.431011552     0.877079421   0.000235641217 -0.000137348706   0.000235641217 -0.000137348705       0.43340965     0.875915789
12.661876             0.43146486     0.876837195   0.000235938415 -0.000137695631   0.000235938415 -0.000137695631      0.433862964     0.875671976
12.661904            0.431918399     0.876594529    0.00023623596 -0.000138043449    0.00023623596 -0.000138043449      0.434316509     0.875427722
12.661932            0.432372169     0.876351423   0.000236533851 -0.000138392162   0.000236533851 -0.000138392161      0.434770284     0.875183024
12.66196              0.43282617     0.876107875   0.000236832089 -0.000138741771   0.000236832089 -0.000138741771      0.435224291     0.874937883
12.661988            0.433280402     0.875863884   0.000237130674  -0.00013909228   0.000237130674  -0.00013909228      0.435678528     0.874692298
12.662016            0.433734866     0.875619451   0.000237429605 -0.000139443691   0.000237429605 -0.000139443691      0.436132996     0.874446267
12.662044             0.43418956     0.875374574   0.000237728883 -0.000139796006   0.000237728883 -0.000139796006      0.436587694     0.874199791
12.662072            0.434644486     0.875129252   0.000238028508 -0.000140149229   0.000238028508 -0.000140149228      0.437042624     0.873952868
12.6621              0.435099643     0.874883485    0.00023832848  -0.00014050336    0.00023832848  -0.00014050336      0.437497784     0.873705498
12.662128            0.435555031     0.874637272   0.000238628798 -0.000140858403   0.000238628799 -0.000140858403      0.437953175      0.87345768
12.662156             0.43601065     0.874390611   0.000238929464 -0.000141214361   0.000238929464  -0.00014121436      0.438408797     0.873209413
12.662184              0.4364665     0.874143504   0.000239230477 -0.000141571235   0.000239230477 -0.000141571234      0.438864649     0.872960696
12.662212            0.436922582     0.873895947   0.000239531837 -0.000141929028   0.000239531837 -0.000141929028      0.439320732     0.872711528
12.66224             0.437378894     0.873647942   0.000239833544 -0.000142287743   0.000239833544 -0.000142287743      0.439777046     0.872461909
12.662268            0.437835438     0.873399486   0.000240135598 -0.000142647383   0.000240135598 -0.000142647382      0.440233591     0.872211839
12.662296            0.438292213      0.87315058   0.000240437999 -0.000143007949   0.000240437999 -0.000143007948      0.440690367     0.871961315
12.662324            0.438749219     0.872901222   0.000240740747 -0.000143369444   0.000240740747 -0.000143369443      0.441147373     0.871710337
12.662352            0.439206456     0.872651412   0.000241043843 -0.000143731871   0.000241043843  -0.00014373187       0.44160461     0.871458906
12.66238             0.439663925     0.872401148   0.000241347286 -0.000144095232   0.000241347286 -0.000144095232      0.442062078     0.871207018
12.662408            0.440121624      0.87215043   0.000241651076  -0.00014445953   0.000241651076  -0.00014445953      0.442519777     0.870954675
12.662436            0.440579555     0.871899258   0.000241955213 -0.000144824767   0.000241955213 -0.000144824767      0.442977706     0.870701875
12.662464            0.441037717      0.87164763   0.000242259697 -0.000145190947   0.000242259698 -0.000145190946      0.443435866     0.870448617
12.662492             0.44149611     0.871395546   0.000242564529 -0.000145558071   0.000242564529  -0.00014555807      0.443894257     0.870194901
12.66252             0.441954734     0.871143004   0.000242869708 -0.000145926141   0.000242869709 -0.000145926141      0.444352879     0.869940726
12.662548            0.442413589     0.870890005   0.000243175235 -0.000146295162   0.000243175235 -0.000146295162      0.444811731      0.86968609
12.662576            0.442872675     0.870636546   0.000243481109 -0.000146665135   0.000243481109 -0.000146665134      0.445270814     0.869430994
12.662604            0.443331993     0.870382628    0.00024378733 -0.000147036062    0.00024378733 -0.000147036062      0.445730128     0.869175435
12.662632            0.443791542      0.87012825   0.000244093898 -0.000147407947   0.000244093898 -0.000147407946      0.446189672     0.868919415
12.66266             0.444251321      0.86987341   0.000244400813 -0.000147780792   0.000244400814 -0.000147780791      0.446649447     0.868662931
12.662688            0.444711332     0.869618109   0.000244708076 -0.000148154599   0.000244708076 -0.000148154599      0.447109453     0.868405983
12.662716            0.445171574     0.869362344   0.000245015687 -0.000148529372   0.000245015687 -0.000148529371       0.44756969      0.86814857
12.662744            0.445632047     0.869106116   0.000245323644 -0.000148905112   0.000245323644 -0.000148905112      0.448030157     0.867890691
12.662772            0.446092751     0.868849424   0.000245631949 -0.000149281823   0.000245631949 -0.000149281822      0.448490854     0.867632345
12.6628              0.446553686     0.868592266     0.0002459406 -0.000149659507   0.000245940601 -0.000149659506      0.448951783     0.867373533
12.662828            0.447014852     0.868334642     0.0002462496 -0.000150038166     0.0002462496 -0.000150038166      0.449412942     0.867114252
12.662856            0.447476249     0.868076551   0.000246558946 -0.000150417805   0.000246558946 -0.000150417804      0.449874331     0.866854501
12.662884            0.447937878     0.867817993   0.000246868639 -0.000150798424   0.000246868639 -0.000150798423      0.450335952     0.866594282
12.662912            0.448399737     0.867558966    0.00024717868 -0.000151180027    0.00024717868 -0.000151180026      0.450797802     0.866333591
12.66294             0.448861827     0.867299469   0.000247489067 -0.000151562616   0.000247489067 -0.000151562616      0.451259884     0.866072429
12.662968            0.449324148     0.867039503   0.000247799802 -0.000151946194   0.000247799802 -0.000151946194      0.451722195     0.865810794
12.662996              0.4497867     0.866779065   0.000248110884 -0.000152330764   0.000248110884 -0.000152330764      0.452184738     0.865548686
12.663024            0.450249483     0.866518156   0.000248422312 -0.000152716329   0.000248422312 -0.000152716329       0.45264751     0.865286105
12.663052            0.450712497     0.866256773   0.000248734088 -0.000153102891   0.000248734088 -0.000153102891      0.453110514     0.865023048
12.66308             0.451175741     0.865994918    0.00024904621 -0.000153490453    0.00024904621 -0.000153490452      0.453573747     0.864759516
12.663108            0.451639217     0.865732588   0.000249358679 -0.000153879017   0.000249358679 -0.000153879017      0.454037211     0.864495507
12.663136            0.452102923     0.865469782   0.000249671495 -0.000154268587   0.000249671495 -0.000154268586      0.454500906     0.864231021
12.663164            0.452566861     0.865206501   0.000249984658 -0.000154659164   0.000249984658 -0.000154659164       0.45496483     0.863966057
12.663192            0.453031029     0.864942743   0.000250298167 -0.000155050753   0.000250298167 -0.000155050753      0.455428986     0.863700613
12.66322             0.453495427     0.864678507   0.000250612023 -0.000155443355   0.000250612023 -0.000155443355      0.455893371      0.86343469
12.663248            0.453960057     0.864413793   0.000250926226 -0.000155836974   0.000250926226 -0.000155836973      0.456357987     0.863168286
12.663276            0.454424917     0.864148599   0.000251240775 -0.000156231611   0.000251240775 -0.000156231611      0.456822833       0.8629014
12.663304            0.454890008     0.863882925    0.00025155567 -0.000156627271    0.00025155567  -0.00015662727      0.457287909     0.862634032
12.663332             0.45535533      0.86361677   0.000251870911 -0.000157023955   0.000251870911 -0.000157023955      0.457753215     0.862366181
12.66336             0.455820882     0.863350133   0.000252186499 -0.000157421667   0.000252186499 -0.000157421666      0.458218752     0.862097845
12.663388            0.456286665     0.863083013   0.000252502433 -0.000157820409   0.000252502433 -0.000157820408      0.458684518     0.861829025
12.663416            0.456752678      0.86281541   0.000252818713 -0.000158220184   0.000252818713 -0.000158220183      0.459150515     0.861559719
12.663444            0.457218922     0.862547322   0.000253135339 -0.000158620994   0.000253135339 -0.000158620994      0.459616742     0.861289926
12.663472            0.457685396     0.862278749    0.00025345231 -0.000159022844    0.00025345231 -0.000159022844      0.460083199     0.861019645
12.6635              0.458152101      0.86200969   0.000253769628 -0.000159425735   0.000253769628 -0.000159425735      0.460549886     0.860748876
