! TOUCHSTONE file generated by CST MICROWAVE STUDIO
! Date and time: Wed Jul 31 16:38:10 2024
! Project name: WaveGuide_BPF-Ver4.1_U-shape_Ku_T3_C4_CWA_2.cst
! Parameters = {cavity_h=16; cavity_l0=10; cavity_l1=15.2013; cavity_l2=16.8152; cavity_l3=17.0637; cavity_l4=17.2971; cavity_l5=17.1005; cavity_l6=17.6101; cavity_r=2.5; cavity_screw_l=0.5; cavity_screw_r=1.5; cavity_w=8; iris_h00=0; iris_h01=8.836; iris_h112=0; iris_h12=5.5873; iris_h211=3.658; iris_h23=5.1952; iris_h310=3.9684; iris_h34=5.0692; iris_h45=4.9204; iris_h49=4.6126; iris_h56=4.7941; iris_h58=4.4411; iris_h67=6.577; iris_rx=0.1; iris_screw_l=0.5; iris_screw_r=1.5; iris_shift00=0; iris_shift112=0; iris_shift211=3.5; iris_shift310=0; iris_shift49=0; iris_shift58=3.5; iris_shift67=3.5; iris_tx=4.5; iris_tz=4.5; iris_w00=0; iris_w112=0; iris_w211=4; iris_w310=3.9684; iris_w49=4.6126; iris_w58=4; iris_w67=4; mesh_cavity=5; mesh_iris=7; mesh_screw=7; order=12; reset_all=0; sigma=4.8e+07}
! Header version: 2018
! Port assignment regex: !\s*Touchstone port\s*([0-9]+)\s*=\s*(CST MWS port|CST DS port)\s*([0-9]+|Zmin|Zmax)\s*\(\"(.*)\"\)(\s*mode\s*([0-9]+))?.*
! Touchstone port assignment:
! Touchstone port 1 = CST MWS port 1 ("")
! Touchstone port 2 = CST MWS port 2 ("")
# GHz S RI R 50
12.66                0.365720267     0.909516291   0.000180312658  -8.6718414e-05   0.000180312658 -8.67184138e-05      0.368208629     0.908612824
12.660028            0.366125421     0.909338895   0.000180535818 -8.69302726e-05   0.000180535818 -8.69302724e-05      0.368612005     0.908434948
12.660056            0.366530821     0.909161169   0.000180759257 -8.71426513e-05   0.000180759257 -8.71426511e-05      0.369015584     0.908256759
12.660084             0.36693645     0.908983118   0.000180982977 -8.73555502e-05   0.000180982977   -8.735555e-05      0.369419367     0.908078255
12.660112            0.367342294     0.908804747   0.000181206979 -8.75689697e-05   0.000181206979 -8.75689695e-05      0.369823358     0.907899436
12.66014             0.367748335     0.908626063   0.000181431265   -8.778291e-05   0.000181431264 -8.77829098e-05      0.370227556     0.907720299
12.660168            0.368154575     0.908447064   0.000181655834 -8.79973724e-05   0.000181655833 -8.79973722e-05      0.370631964     0.907540845
12.660196            0.368561024     0.908267747   0.000181880686 -8.82123589e-05   0.000181880686 -8.82123588e-05      0.371036579     0.907361074
12.660224            0.368967682      0.90808811   0.000182105822 -8.84278711e-05   0.000182105821 -8.84278709e-05      0.371441401     0.907180984
12.660252            0.369374549     0.907908154   0.000182331241 -8.86439101e-05   0.000182331241 -8.86439099e-05      0.371846431     0.907000576
12.66028             0.369781625     0.907727877   0.000182556944 -8.88604774e-05   0.000182556944 -8.88604772e-05      0.372251669     0.906819848
12.660308            0.370188911     0.907547279   0.000182782932 -8.90775743e-05   0.000182782931 -8.90775742e-05      0.372657114     0.906638801
12.660336            0.370596405     0.907366359   0.000183009203 -8.92952023e-05   0.000183009203 -8.92952021e-05      0.373062768     0.906457434
12.660364            0.371004109     0.907185118    0.00018323576 -8.95133626e-05   0.000183235759 -8.95133624e-05      0.373468629     0.906275746
12.660392            0.371412023     0.907003554   0.000183462601 -8.97320566e-05   0.000183462601 -8.97320564e-05      0.373874698     0.906093736
12.66042             0.371820146     0.906821667   0.000183689727 -8.99512857e-05   0.000183689727 -8.99512855e-05      0.374280975     0.905911405
12.660448            0.372228479     0.906639456   0.000183917139 -9.01710513e-05   0.000183917138 -9.01710512e-05       0.37468746     0.905728752
12.660476            0.372637021     0.906456921   0.000184144836 -9.03913548e-05   0.000184144835 -9.03913547e-05      0.375094154     0.905545776
12.660504            0.373045773     0.906274062   0.000184372819 -9.06121976e-05   0.000184372818 -9.06121974e-05      0.375501055     0.905362476
12.660532            0.373454735     0.906090877   0.000184601087  -9.0833581e-05   0.000184601087 -9.08335809e-05      0.375908165     0.905178853
12.66056             0.373863906     0.905907367   0.000184829642 -9.10555065e-05   0.000184829642 -9.10555063e-05      0.376315483     0.904994905
12.660588            0.374273288      0.90572353   0.000185058484 -9.12779755e-05   0.000185058484 -9.12779753e-05       0.37672301     0.904810632
12.660616             0.37468288     0.905539366   0.000185287612 -9.15009893e-05   0.000185287612 -9.15009891e-05      0.377130745     0.904626034
12.660644            0.375092681     0.905354875   0.000185517027 -9.17245493e-05   0.000185517027 -9.17245491e-05      0.377538689     0.904441109
12.660672            0.375502693     0.905170057   0.000185746729  -9.1948657e-05   0.000185746729 -9.19486569e-05      0.377946842     0.904255858
12.6607              0.375912915     0.904984909   0.000185976719 -9.21733139e-05   0.000185976719 -9.21733137e-05      0.378355203      0.90407028
12.660728            0.376323347     0.904799433   0.000186206996 -9.23985212e-05   0.000186206996  -9.2398521e-05      0.378763773     0.903884374
12.660756             0.37673399     0.904613628   0.000186437561 -9.26242805e-05   0.000186437561 -9.26242803e-05      0.379172551      0.90369814
12.660784            0.377144843     0.904427492   0.000186668414 -9.28505931e-05   0.000186668414 -9.28505929e-05      0.379581539     0.903511578
12.660812            0.377555906     0.904241025   0.000186899555 -9.30774605e-05   0.000186899555 -9.30774603e-05      0.379990736     0.903324686
12.66084              0.37796718     0.904054228   0.000187130985 -9.33048841e-05   0.000187130985 -9.33048839e-05      0.380400141     0.903137464
12.660868            0.378378665     0.903867099   0.000187362703 -9.35328654e-05   0.000187362703 -9.35328652e-05      0.380809756     0.902949912
12.660896             0.37879036     0.903679637   0.000187594711 -9.37614058e-05    0.00018759471 -9.37614056e-05       0.38121958     0.902762029
12.660924            0.379202266     0.903491843   0.000187827007 -9.39905067e-05   0.000187827007 -9.39905065e-05      0.381629613     0.902573815
12.660952            0.379614383     0.903303715   0.000188059593 -9.42201696e-05   0.000188059593 -9.42201694e-05      0.382039856     0.902385268
12.66098              0.38002671     0.903115254   0.000188292468  -9.4450396e-05   0.000188292468 -9.44503958e-05      0.382450308     0.902196389
12.661008            0.380439249     0.902926458   0.000188525634 -9.46811873e-05   0.000188525633 -9.46811871e-05      0.382860969     0.902007177
12.661036            0.380851998     0.902737327   0.000188759089 -9.49125449e-05   0.000188759089 -9.49125447e-05       0.38327184     0.901817631
12.661064            0.381264959      0.90254786   0.000188992835 -9.51444704e-05   0.000188992834 -9.51444702e-05       0.38368292     0.901627751
12.661092            0.381678131     0.902358057   0.000189226871 -9.53769652e-05    0.00018922687  -9.5376965e-05       0.38409421     0.901437537
12.66112             0.382091513     0.902167918   0.000189461197 -9.56100307e-05   0.000189461197 -9.56100305e-05      0.384505709     0.901246987
12.661148            0.382505108     0.901977441   0.000189695815 -9.58436685e-05   0.000189695814 -9.58436683e-05      0.384917419     0.901056101
12.661176            0.382918913     0.901786627   0.000189930723   -9.607788e-05   0.000189930723 -9.60778799e-05      0.385329338     0.900864879
12.661204             0.38333293     0.901595474   0.000190165923 -9.63126668e-05   0.000190165923 -9.63126666e-05      0.385741467      0.90067332
12.661232            0.383747158     0.901403983   0.000190401415 -9.65480303e-05   0.000190401414 -9.65480301e-05      0.386153805     0.900481423
12.66126             0.384161597     0.901212152   0.000190637198 -9.67839719e-05   0.000190637198 -9.67839717e-05      0.386566354     0.900289188
12.661288            0.384576248     0.901019981   0.000190873273 -9.70204933e-05   0.000190873273 -9.70204931e-05      0.386979113     0.900096615
12.661316            0.384991111     0.900827469   0.000191109641 -9.72575958e-05    0.00019110964 -9.72575957e-05      0.387392082     0.899903702
12.661344            0.385406186     0.900634616     0.0001913463 -9.74952811e-05     0.0001913463 -9.74952809e-05      0.387805261      0.89971045
12.661372            0.385821472     0.900441421   0.000191583252 -9.77335506e-05   0.000191583252 -9.77335504e-05      0.388218651     0.899516857
12.6614               0.38623697     0.900247885   0.000191820498 -9.79724058e-05   0.000191820497 -9.79724056e-05       0.38863225     0.899322924
12.661428            0.386652679     0.900054005   0.000192058036 -9.82118482e-05   0.000192058035  -9.8211848e-05       0.38904606     0.899128649
12.661456            0.387068601     0.899859782   0.000192295867 -9.84518795e-05   0.000192295866 -9.84518793e-05      0.389460081     0.898934032
12.661484            0.387484735     0.899665214   0.000192533991  -9.8692501e-05   0.000192533991 -9.86925008e-05      0.389874311     0.898739072
12.661512             0.38790108     0.899470303    0.00019277241 -9.89337143e-05   0.000192772409 -9.89337141e-05      0.390288753     0.898543769
12.66154             0.388317638     0.899275046   0.000193011122  -9.9175521e-05   0.000193011121 -9.91755208e-05      0.390703405     0.898348123
12.661568            0.388734408     0.899079443   0.000193250128 -9.94179226e-05   0.000193250127 -9.94179224e-05      0.391118267     0.898152132
12.661596             0.38915139     0.898883495   0.000193489428 -9.96609206e-05   0.000193489428 -9.96609204e-05       0.39153334     0.897955797
12.661624            0.389568584     0.898687199   0.000193729023 -9.99045166e-05   0.000193729022 -9.99045164e-05      0.391948624     0.897759116
12.661652             0.38998599     0.898490556   0.000193968912 -0.000100148712   0.000193968912 -0.000100148712      0.392364119     0.897562089
12.66168             0.390403609     0.898293565   0.000194209096 -0.000100393509   0.000194209096 -0.000100393509      0.392779824     0.897364715
12.661708             0.39082144     0.898096225   0.000194449575 -0.000100638908   0.000194449575 -0.000100638908      0.393195741     0.897166994
12.661736            0.391239484     0.897898536   0.000194690349 -0.000100884911   0.000194690349 -0.000100884911      0.393611868     0.896968926
12.661764             0.39165774     0.897700497   0.000194931419 -0.000101131521   0.000194931419 -0.000101131521      0.394028207     0.896770509
12.661792            0.392076209     0.897502108   0.000195172784 -0.000101378737   0.000195172784 -0.000101378737      0.394444756     0.896571744
12.66182             0.392494891     0.897303368   0.000195414446 -0.000101626563   0.000195414445 -0.000101626563      0.394861517     0.896372629
12.661848            0.392913785     0.897104277   0.000195656403 -0.000101874999   0.000195656402 -0.000101874999      0.395278489     0.896173164
12.661876            0.393332892     0.896904834   0.000195898656 -0.000102124047   0.000195898656 -0.000102124047      0.395695672     0.895973348
12.661904            0.393752211     0.896705037   0.000196141205 -0.000102373709   0.000196141205 -0.000102373709      0.396113066     0.895773181
12.661932            0.394171744     0.896504888   0.000196384052 -0.000102623986   0.000196384051 -0.000102623986      0.396530672     0.895572662
12.66196             0.394591489     0.896304385   0.000196627194  -0.00010287488   0.000196627194  -0.00010287488      0.396948489     0.895371791
12.661988            0.395011447     0.896103527   0.000196870634 -0.000103126392   0.000196870634 -0.000103126392      0.397366517     0.895170567
12.662016            0.395431619     0.895902314   0.000197114371 -0.000103378525   0.000197114371 -0.000103378525      0.397784757      0.89496899
12.662044            0.395852003     0.895700746   0.000197358405 -0.000103631279   0.000197358405 -0.000103631279      0.398203209     0.894767058
12.662072              0.3962726     0.895498822   0.000197602737 -0.000103884657   0.000197602737 -0.000103884656      0.398621872     0.894564772
12.6621              0.396693411      0.89529654   0.000197847367 -0.000104138659   0.000197847366 -0.000104138659      0.399040746      0.89436213
12.662128            0.397114435     0.895093902   0.000198092294 -0.000104393288   0.000198092294 -0.000104393288      0.399459833     0.894159133
12.662156            0.397535672     0.894890905   0.000198337519 -0.000104648545   0.000198337519 -0.000104648545      0.399879131     0.893955779
12.662184            0.397957122      0.89468755   0.000198583043 -0.000104904432   0.000198583042 -0.000104904432      0.400298641     0.893752068
12.662212            0.398378786     0.894483836   0.000198828864  -0.00010516095   0.000198828864  -0.00010516095      0.400718363     0.893547999
12.66224             0.398800663     0.894279761   0.000199074985 -0.000105418102   0.000199074985 -0.000105418102      0.401138296     0.893343572
12.662268            0.399222753     0.894075327   0.000199321404 -0.000105675888   0.000199321404 -0.000105675888      0.401558442     0.893138786
12.662296            0.399645057     0.893870531   0.000199568122 -0.000105934311   0.000199568122  -0.00010593431      0.401978799     0.892933641
12.662324            0.400067575     0.893665374   0.000199815139 -0.000106193371   0.000199815139 -0.000106193371      0.402399369     0.892728136
12.662352            0.400490306     0.893459855   0.000200062456 -0.000106453072   0.000200062456 -0.000106453071      0.402820151      0.89252227
12.66238              0.40091325     0.893253973   0.000200310072 -0.000106713413   0.000200310072 -0.000106713413      0.403241144     0.892316042
12.662408            0.401336409     0.893047728   0.000200557988 -0.000106974398   0.000200557987 -0.000106974398       0.40366235     0.892109453
12.662436            0.401759781     0.892841118   0.000200806203 -0.000107236027   0.000200806203 -0.000107236027      0.404083768     0.891902502
12.662464            0.402183367     0.892634144   0.000201054718 -0.000107498303   0.000201054718 -0.000107498303      0.404505399     0.891695187
12.662492            0.402607166     0.892426805   0.000201303534 -0.000107761227   0.000201303533 -0.000107761227      0.404927242     0.891487509
12.66252              0.40303118       0.8922191   0.000201552649   -0.0001080248   0.000201552649   -0.0001080248      0.405349297     0.891279466
12.662548            0.403455407     0.892011028   0.000201802066 -0.000108289025   0.000201802065 -0.000108289025      0.405771564     0.891071059
12.662576            0.403879849      0.89180259   0.000202051783 -0.000108553904   0.000202051782 -0.000108553903      0.406194044     0.890862286
12.662604            0.404304504     0.891593784     0.0002023018 -0.000108819437     0.0002023018 -0.000108819436      0.406616736     0.890653147
12.662632            0.404729373     0.891384609   0.000202552119 -0.000109085626   0.000202552118 -0.000109085626      0.407039641     0.890443641
12.66266             0.405154457     0.891175066   0.000202802738 -0.000109352474   0.000202802738 -0.000109352474      0.407462759     0.890233768
12.662688            0.405579754     0.890965153   0.000203053659 -0.000109619981   0.000203053659 -0.000109619981      0.407886089     0.890023527
12.662716            0.406005266      0.89075487   0.000203304882 -0.000109888151   0.000203304882 -0.000109888151      0.408309631     0.889812917
12.662744            0.406430992     0.890544216   0.000203556406 -0.000110156983   0.000203556405 -0.000110156983      0.408733387     0.889601938
12.662772            0.406856932     0.890333191   0.000203808232 -0.000110426481   0.000203808231 -0.000110426481      0.409157355      0.88939059
12.6628              0.407283086     0.890121794   0.000204060359 -0.000110696646   0.000204060359 -0.000110696646      0.409581535     0.889178871
12.662828            0.407709455     0.889910024   0.000204312789 -0.000110967479   0.000204312789 -0.000110967479      0.410005929     0.888966781
12.662856            0.408136038     0.889697882   0.000204565521 -0.000111238983    0.00020456552 -0.000111238983      0.410430535      0.88875432
12.662884            0.408562835     0.889485365   0.000204818555 -0.000111511159   0.000204818555 -0.000111511158      0.410855355     0.888541486
12.662912            0.408989847     0.889272474   0.000205071892 -0.000111784008   0.000205071892 -0.000111784008      0.411280387     0.888328279
12.66294             0.409417073     0.889059207   0.000205325531 -0.000112057533   0.000205325531 -0.000112057533      0.411705632     0.888114699
12.662968            0.409844514     0.888845565   0.000205579473 -0.000112331736   0.000205579473 -0.000112331736      0.412131091     0.887900745
12.662996            0.410272169     0.888631547   0.000205833719 -0.000112606617   0.000205833718 -0.000112606617      0.412556762     0.887686415
12.663024            0.410700039     0.888417151   0.000206088267  -0.00011288218   0.000206088267  -0.00011288218      0.412982646     0.887471711
12.663052            0.411128124     0.888202378   0.000206343118 -0.000113158425   0.000206343118 -0.000113158425      0.413408744     0.887256631
12.66308             0.411556423     0.887987227   0.000206598273 -0.000113435355   0.000206598273 -0.000113435354      0.413835054     0.887041174
12.663108            0.411984937     0.887771697   0.000206853732  -0.00011371297   0.000206853731  -0.00011371297      0.414261578     0.886825339
12.663136            0.412413666     0.887555787   0.000207109494 -0.000113991274   0.000207109494 -0.000113991274      0.414688315     0.886609127
12.663164            0.412842609     0.887339497    0.00020736556 -0.000114270268   0.000207365559 -0.000114270268      0.415115265     0.886392536
12.663192            0.413271767     0.887122827    0.00020762193 -0.000114549953   0.000207621929 -0.000114549953      0.415542429     0.886175566
12.66322              0.41370114     0.886905775   0.000207878603 -0.000114830332   0.000207878603 -0.000114830331      0.415969805     0.885958217
12.663248            0.414130728     0.886688341   0.000208135582 -0.000115111405   0.000208135581 -0.000115111405      0.416397395     0.885740486
12.663276            0.414560531     0.886470524   0.000208392864 -0.000115393176   0.000208392864 -0.000115393176      0.416825199     0.885522375
12.663304            0.414990548     0.886252324   0.000208650451 -0.000115675646   0.000208650451 -0.000115675646      0.417253216     0.885303882
12.663332            0.415420781     0.886033739   0.000208908342 -0.000115958816   0.000208908342 -0.000115958816      0.417681446     0.885085007
12.66336             0.415851228     0.885814771   0.000209166539 -0.000116242689   0.000209166538 -0.000116242689       0.41810989     0.884865749
12.663388            0.416281891     0.885595416    0.00020942504 -0.000116527266   0.000209425039 -0.000116527266      0.418538548     0.884646107
12.663416            0.416712768     0.885375676   0.000209683846  -0.00011681255   0.000209683845 -0.000116812549      0.418967418     0.884426081
12.663444            0.417143861      0.88515555   0.000209942957 -0.000117098541   0.000209942957 -0.000117098541      0.419396503      0.88420567
12.663472            0.417575169     0.884935036   0.000210202373 -0.000117385242   0.000210202373 -0.000117385242      0.419825801     0.883984873
12.6635              0.418006692     0.884714134   0.000210462095 -0.000117672655   0.000210462095 -0.000117672655      0.420255313      0.88376369
