! TOUCHSTONE file generated by CST MICROWAVE STUDIO
! Date and time: Wed Jul 31 16:44:16 2024
! Project name: WaveGuide_BPF-Ver4.1_U-shape_Ku_T3_C4_CWA_2.cst
! Parameters = {cavity_h=16; cavity_l0=10; cavity_l1=15.1663; cavity_l2=16.8649; cavity_l3=17.1091; cavity_l4=17.2458; cavity_l5=17.0907; cavity_l6=17.5605; cavity_r=2.5; cavity_screw_l=0.5; cavity_screw_r=1.5; cavity_w=8; iris_h00=0; iris_h01=8.8343; iris_h112=0; iris_h12=5.6079; iris_h211=3.6606; iris_h23=5.2125; iris_h310=3.9789; iris_h34=5.0774; iris_h45=4.9391; iris_h49=4.6132; iris_h56=4.8078; iris_h58=4.4464; iris_h67=6.591; iris_rx=0.1; iris_screw_l=0.5; iris_screw_r=1.5; iris_shift00=0; iris_shift112=0; iris_shift211=3.5; iris_shift310=0; iris_shift49=0; iris_shift58=3.5; iris_shift67=3.5; iris_tx=4.5; iris_tz=4.5; iris_w00=0; iris_w112=0; iris_w211=4; iris_w310=3.9789; iris_w49=4.6132; iris_w58=4; iris_w67=4; mesh_cavity=5; mesh_iris=7; mesh_screw=7; order=12; reset_all=0; sigma=4.8e+07}
! Header version: 2018
! Port assignment regex: !\s*Touchstone port\s*([0-9]+)\s*=\s*(CST MWS port|CST DS port)\s*([0-9]+|Zmin|Zmax)\s*\(\"(.*)\"\)(\s*mode\s*([0-9]+))?.*
! Touchstone port assignment:
! Touchstone port 1 = CST MWS port 1 ("")
! Touchstone port 2 = CST MWS port 2 ("")
# GHz S RI R 50
12.66                0.287883387      0.93900119   0.000278082736 -0.000107217554   0.000278082736 -0.000107217553      0.281721464     0.940942505
12.660028            0.288259913     0.938872248   0.000278507019 -0.000107520384   0.000278507019 -0.000107520384      0.282097256     0.940816605
12.660056            0.288636607     0.938743066   0.000278932056 -0.000107824092   0.000278932056 -0.000107824091      0.282473368     0.940690423
12.660084            0.289013498     0.938613634   0.000279357849 -0.000108128677   0.000279357849 -0.000108128677      0.282849765     0.940563968
12.660112            0.289390616     0.938483944   0.000279784401 -0.000108434143   0.000279784401 -0.000108434142       0.28322641     0.940437253
12.66014             0.289767987     0.938353986   0.000280211713  -0.00010874049   0.000280211713  -0.00010874049      0.283603267     0.940310286
12.660168            0.290145614      0.93822376   0.000280639787 -0.000109047722   0.000280639787 -0.000109047721      0.283980336     0.940183067
12.660196            0.290523476     0.938093272   0.000281068624 -0.000109355841   0.000281068624 -0.000109355841      0.284357641     0.940055589
12.660224            0.290901575      0.93796252   0.000281498225 -0.000109664852   0.000281498225 -0.000109664852      0.284735182      0.93992785
12.660252             0.29127991     0.937831504   0.000281928592 -0.000109974756   0.000281928592 -0.000109974756      0.285112961     0.939799852
12.66028             0.291658482     0.937700224   0.000282359727 -0.000110285557   0.000282359727 -0.000110285557      0.285490977     0.939671592
12.660308            0.292037291     0.937568679    0.00028279163 -0.000110597257    0.00028279163 -0.000110597257       0.28586923     0.939543071
12.660336            0.292416337     0.937436868   0.000283224304  -0.00011090986   0.000283224303  -0.00011090986      0.286247721     0.939414289
12.660364             0.29279562     0.937304792   0.000283657749 -0.000111223367   0.000283657749 -0.000111223367      0.286626449     0.939285243
12.660392            0.293175141      0.93717245   0.000284091967 -0.000111537783   0.000284091967 -0.000111537783      0.287005416     0.939155935
12.66042             0.293554899      0.93703984   0.000284526961 -0.000111853109   0.000284526961 -0.000111853109      0.287384621     0.939026363
12.660448            0.293934895     0.936906963    0.00028496273  -0.00011216935    0.00028496273 -0.000112169349      0.287764064     0.938896527
12.660476             0.29431513     0.936773819   0.000285399277 -0.000112486506   0.000285399277 -0.000112486506      0.288143746     0.938766427
12.660504            0.294695603     0.936640405   0.000285836604 -0.000112804583   0.000285836603 -0.000112804582      0.288523667     0.938636062
12.660532            0.295076315     0.936506723   0.000286274711 -0.000113123582   0.000286274711 -0.000113123581      0.288903827     0.938505431
12.66056             0.295457265     0.936372772     0.0002867136 -0.000113443506     0.0002867136 -0.000113443506      0.289284227     0.938374535
12.660588            0.295838455      0.93623855   0.000287153273 -0.000113764359   0.000287153273 -0.000113764359      0.289664866     0.938243371
12.660616            0.296219883     0.936104058   0.000287593731 -0.000114086143   0.000287593731 -0.000114086143      0.290045745     0.938111941
12.660644            0.296601552     0.935969295   0.000288034976 -0.000114408862   0.000288034975 -0.000114408861      0.290426864     0.937980243
12.660672             0.29698346      0.93583426   0.000288477009 -0.000114732518   0.000288477008 -0.000114732517      0.290808224     0.937848277
12.6607              0.297365608     0.935698953   0.000288919831 -0.000115057114   0.000288919831 -0.000115057114      0.291189823     0.937716043
12.660728            0.297747997     0.935563374   0.000289363445 -0.000115382653   0.000289363445 -0.000115382653      0.291571664     0.937583539
12.660756            0.298130625     0.935427521   0.000289807852 -0.000115709139   0.000289807852 -0.000115709139      0.291953746     0.937450766
12.660784            0.298513495     0.935291395   0.000290253053 -0.000116036575   0.000290253053 -0.000116036574      0.292336068     0.937317723
12.660812            0.298896605     0.935154994   0.000290699049 -0.000116364962   0.000290699049 -0.000116364962      0.292718632     0.937184409
12.66084             0.299279957     0.935018319   0.000291145843 -0.000116694306   0.000291145843 -0.000116694305      0.293101438     0.937050823
12.660868            0.299663549     0.934881369   0.000291593436 -0.000117024607   0.000291593436 -0.000117024607      0.293484486     0.936916966
12.660896            0.300047384     0.934744142   0.000292041829  -0.00011735587   0.000292041829  -0.00011735587      0.293867776     0.936782837
12.660924             0.30043146      0.93460664   0.000292491025 -0.000117688098   0.000292491025 -0.000117688098      0.294251308     0.936648435
12.660952            0.300815778      0.93446886   0.000292941023 -0.000118021294   0.000292941023 -0.000118021294      0.294635083     0.936513759
12.66098             0.301200338     0.934330803   0.000293391827  -0.00011835546   0.000293391826  -0.00011835546        0.2950191      0.93637881
12.661008            0.301585141     0.934192468   0.000293843437 -0.000118690601   0.000293843436 -0.000118690601       0.29540336     0.936243586
12.661036            0.301970186     0.934053855   0.000294295855 -0.000119026718   0.000294295854 -0.000119026718      0.295787864     0.936108088
12.661064            0.302355474     0.933914963   0.000294749082 -0.000119363816   0.000294749082 -0.000119363816      0.296172611     0.935972314
12.661092            0.302741006     0.933775791   0.000295203121 -0.000119701897   0.000295203121 -0.000119701897      0.296557602     0.935836264
12.66112              0.30312678     0.933636339   0.000295657972 -0.000120040965   0.000295657972 -0.000120040965      0.296942837     0.935699937
12.661148            0.303512799     0.933496606   0.000296113638 -0.000120381022   0.000296113638 -0.000120381022      0.297328316     0.935563333
12.661176            0.303899061     0.933356592    0.00029657012 -0.000120722073   0.000296570119 -0.000120722072      0.297714039     0.935426452
12.661204            0.304285567     0.933216296   0.000297027418 -0.000121064119   0.000297027418 -0.000121064118      0.298100007     0.935289292
12.661232            0.304672317     0.933075718   0.000297485536 -0.000121407164   0.000297485536 -0.000121407164       0.29848622     0.935151854
12.66126             0.305059312     0.932934857   0.000297944474 -0.000121751212   0.000297944474 -0.000121751212      0.298872678     0.935014137
12.661288            0.305446552     0.932793713   0.000298404235 -0.000122096266   0.000298404234 -0.000122096266      0.299259381      0.93487614
12.661316            0.305834036     0.932652285   0.000298864818 -0.000122442329   0.000298864818 -0.000122442328       0.29964633     0.934737862
12.661344            0.306221766     0.932510572   0.000299326227 -0.000122789404   0.000299326227 -0.000122789403      0.300033524     0.934599304
12.661372            0.306609741     0.932368574   0.000299788463 -0.000123137494   0.000299788463 -0.000123137494      0.300420965     0.934460464
12.6614              0.306997962      0.93222629   0.000300251527 -0.000123486603   0.000300251527 -0.000123486603      0.300808651     0.934321342
12.661428            0.307386428     0.932083721   0.000300715421 -0.000123836734   0.000300715421 -0.000123836734      0.301196584     0.934181937
12.661456            0.307775141     0.931940864   0.000301180147  -0.00012418789   0.000301180147  -0.00012418789      0.301584764      0.93404225
12.661484              0.3081641      0.93179772   0.000301645706 -0.000124540075   0.000301645705 -0.000124540075      0.301973191     0.933902279
12.661512            0.308553306     0.931654288   0.000302112099 -0.000124893292   0.000302112099 -0.000124893292      0.302361865     0.933762023
12.66154             0.308942758     0.931510568   0.000302579328 -0.000125247544   0.000302579328 -0.000125247544      0.302750786     0.933621483
12.661568            0.309332457     0.931366559   0.000303047396 -0.000125602835   0.000303047396 -0.000125602834      0.303139955     0.933480657
12.661596            0.309722404      0.93122226   0.000303516302 -0.000125959167   0.000303516302 -0.000125959167      0.303529372     0.933339546
12.661624            0.310112598     0.931077671    0.00030398605 -0.000126316545    0.00030398605 -0.000126316545      0.303919036     0.933198148
12.661652            0.310503039     0.930932791   0.000304456641 -0.000126674972   0.000304456641 -0.000126674972       0.30430895     0.933056463
12.66168             0.310893729      0.93078762   0.000304928075 -0.000127034451   0.000304928075  -0.00012703445      0.304699111     0.932914491
12.661708            0.311284667     0.930642157   0.000305400356 -0.000127394985   0.000305400356 -0.000127394984      0.305089522      0.93277223
12.661736            0.311675853     0.930496402   0.000305873484 -0.000127756578   0.000305873484 -0.000127756578      0.305480181      0.93262968
12.661764            0.312067287     0.930350353   0.000306347461 -0.000128119233   0.000306347461 -0.000128119233       0.30587109     0.932486842
12.661792            0.312458971     0.930204011   0.000306822289 -0.000128482955   0.000306822289 -0.000128482954      0.306262248     0.932343713
12.66182             0.312850903     0.930057375   0.000307297969 -0.000128847745   0.000307297969 -0.000128847745      0.306653656     0.932200294
12.661848            0.313243085     0.929910444   0.000307774502 -0.000129213608   0.000307774502 -0.000129213608      0.307045314     0.932056584
12.661876            0.313635517     0.929763218   0.000308251892 -0.000129580547   0.000308251892 -0.000129580547      0.307437222     0.931912582
12.661904            0.314028198     0.929615696   0.000308730138 -0.000129948566   0.000308730138 -0.000129948566       0.30782938     0.931768289
12.661932            0.314421129     0.929467877   0.000309209244 -0.000130317668   0.000309209244 -0.000130317668      0.308221789     0.931623702
12.66196              0.31481431     0.929319761    0.00030968921 -0.000130687857   0.000309689209 -0.000130687856      0.308614449     0.931478822
12.661988            0.315207742     0.929171347   0.000310170037 -0.000131059136   0.000310170037 -0.000131059135       0.30900736     0.931333649
12.662016            0.315601425     0.929022635   0.000310651729 -0.000131431508   0.000310651729 -0.000131431508      0.309400523      0.93118818
12.662044            0.315995358     0.928873625   0.000311134285 -0.000131804978   0.000311134285 -0.000131804978      0.309793937     0.931042417
12.662072            0.316389543     0.928724314   0.000311617709 -0.000132179549   0.000311617709 -0.000132179549      0.310187603     0.930896358
12.6621              0.316783979     0.928574704   0.000312102001 -0.000132555224   0.000312102001 -0.000132555224      0.310581521     0.930750003
12.662128            0.317178667     0.928424793   0.000312587164 -0.000132932007   0.000312587164 -0.000132932007      0.310975691     0.930603351
12.662156            0.317573606     0.928274581   0.000313073198 -0.000133309902   0.000313073198 -0.000133309902      0.311370114     0.930456401
12.662184            0.317968798     0.928124067   0.000313560106 -0.000133688912   0.000313560106 -0.000133688912      0.311764789     0.930309154
12.662212            0.318364241      0.92797325   0.000314047889 -0.000134069041   0.000314047889 -0.000134069041      0.312159718     0.930161608
12.66224             0.318759938      0.92782213   0.000314536549 -0.000134450293   0.000314536549 -0.000134450292        0.3125549     0.930013762
12.662268            0.319155887     0.927670707   0.000315026087  -0.00013483267   0.000315026087  -0.00013483267      0.312950335     0.929865617
12.662296            0.319552089      0.92751898   0.000315516506 -0.000135216178   0.000315516506 -0.000135216177      0.313346024     0.929717172
12.662324            0.319948545     0.927366947   0.000316007806 -0.000135600819   0.000316007806 -0.000135600818      0.313741967     0.929568425
12.662352            0.320345254     0.927214609    0.00031649999 -0.000135986597    0.00031649999 -0.000135986597      0.314138164     0.929419377
12.66238             0.320742217     0.927061965   0.000316993059 -0.000136373516   0.000316993059 -0.000136373516      0.314534616     0.929270027
12.662408            0.321139433     0.926909015   0.000317487015  -0.00013676158   0.000317487015  -0.00013676158      0.314931322     0.929120373
12.662436            0.321536904     0.926755757   0.000317981859 -0.000137150792   0.000317981859 -0.000137150792      0.315328283     0.928970417
12.662464             0.32193463     0.926602191   0.000318477593 -0.000137541157   0.000318477593 -0.000137541156        0.3157255     0.928820156
12.662492             0.32233261     0.926448316    0.00031897422 -0.000137932677    0.00031897422 -0.000137932676      0.316122971     0.928669591
12.66252             0.322730845     0.926294133   0.000319471739 -0.000138325357   0.000319471739 -0.000138325356      0.316520699     0.928518721
12.662548            0.323129335      0.92613964   0.000319970154   -0.0001387192   0.000319970154   -0.0001387192      0.316918682     0.928367545
12.662576             0.32352808     0.925984836   0.000320469466 -0.000139114211   0.000320469466  -0.00013911421      0.317316921     0.928216062
12.662604            0.323927081     0.925829721   0.000320969676 -0.000139510392   0.000320969676 -0.000139510392      0.317715417     0.928064272
12.662632            0.324326338     0.925674295   0.000321470787 -0.000139907749   0.000321470787 -0.000139907749      0.318114169     0.927912175
12.66266             0.324725851     0.925518556     0.0003219728 -0.000140306285     0.0003219728 -0.000140306284      0.318513178     0.927759769
12.662688             0.32512562     0.925362504   0.000322475716 -0.000140706003   0.000322475716 -0.000140706002      0.318912444     0.927607054
12.662716            0.325525646     0.925206139   0.000322979538 -0.000141106907   0.000322979537 -0.000141106907      0.319311968      0.92745403
12.662744            0.325925929      0.92504946   0.000323484266 -0.000141509002   0.000323484266 -0.000141509002      0.319711749     0.927300695
12.662772            0.326326468     0.924892466   0.000323989904 -0.000141912292   0.000323989903 -0.000141912291      0.320111788      0.92714705
12.6628              0.326727265     0.924735157   0.000324496451 -0.000142316779   0.000324496451 -0.000142316779      0.320512084     0.926993094
12.662828             0.32712832     0.924577531   0.000325003911 -0.000142722469   0.000325003911 -0.000142722468       0.32091264     0.926838825
12.662856            0.327529632     0.924419589   0.000325512285 -0.000143129365   0.000325512285 -0.000143129364      0.321313453     0.926684244
12.662884            0.327931202     0.924261329   0.000326021575 -0.000143537471   0.000326021575  -0.00014353747      0.321714525     0.926529349
12.662912            0.328333031     0.924102752   0.000326531782  -0.00014394679   0.000326531781  -0.00014394679      0.322115857     0.926374141
12.66294             0.328735118     0.923943856   0.000327042907 -0.000144357328   0.000327042907 -0.000144357328      0.322517447     0.926218617
12.662968            0.329137463     0.923784641   0.000327554954 -0.000144769088   0.000327554954 -0.000144769088      0.322919297     0.926062779
12.662996            0.329540068     0.923625106   0.000328067923 -0.000145182074   0.000328067923 -0.000145182074      0.323321407     0.925906625
12.663024            0.329942931      0.92346525   0.000328581816  -0.00014559629   0.000328581816  -0.00014559629      0.323723777     0.925750154
12.663052            0.330346054     0.923305073   0.000329096635  -0.00014601174   0.000329096635  -0.00014601174      0.324126407     0.925593367
12.66308             0.330749437     0.923144574   0.000329612382 -0.000146428429   0.000329612382 -0.000146428428      0.324529297     0.925436261
12.663108             0.33115308     0.922983753   0.000330129058 -0.000146846359   0.000330129058 -0.000146846359      0.324932448     0.925278837
12.663136            0.331556982     0.922822609   0.000330646665 -0.000147265536   0.000330646665 -0.000147265536       0.32533586     0.925121094
12.663164            0.331961146     0.922661141   0.000331165206 -0.000147685964   0.000331165205 -0.000147685964      0.325739533     0.924963032
12.663192            0.332365569     0.922499348    0.00033168468 -0.000148107646    0.00033168468 -0.000148107646      0.326143468     0.924804649
12.66322             0.332770254     0.922337231   0.000332205091 -0.000148530587   0.000332205091 -0.000148530586      0.326547664     0.924645945
12.663248              0.3331752     0.922174787   0.000332726441  -0.00014895479    0.00033272644  -0.00014895479      0.326952122     0.924486919
12.663276            0.333580407     0.922012018    0.00033324873 -0.000149380261   0.000333248729 -0.000149380261      0.327356842     0.924327571
12.663304            0.333985875     0.921848921    0.00033377196 -0.000149807003    0.00033377196 -0.000149807003      0.327761825     0.924167901
12.663332            0.334391606     0.921685496   0.000334296134  -0.00015023502   0.000334296134  -0.00015023502       0.32816707     0.924007906
12.66336             0.334797598     0.921521743   0.000334821253 -0.000150664317   0.000334821253 -0.000150664317      0.328572578     0.923847588
12.663388            0.335203853     0.921357661   0.000335347319 -0.000151094898   0.000335347319 -0.000151094898       0.32897835     0.923686944
12.663416             0.33561037     0.921193249   0.000335874334 -0.000151526767   0.000335874334 -0.000151526767      0.329384384     0.923525975
12.663444             0.33601715     0.921028507   0.000336402298 -0.000151959929   0.000336402298 -0.000151959928      0.329790683     0.923364679
12.663472            0.336424193     0.920863434   0.000336931216 -0.000152394387   0.000336931215 -0.000152394386      0.330197245     0.923203057
12.6635                0.3368315     0.920698029   0.000337461086 -0.000152830146   0.000337461086 -0.000152830145      0.330604071     0.923041107
