! TOUCHSTONE file generated by CST MICROWAVE STUDIO
! Date and time: Wed Jul 31 16:50:36 2024
! Project name: WaveGuide_BPF-Ver4.1_U-shape_Ku_T3_C4_CWA_2.cst
! Parameters = {cavity_h=16; cavity_l0=10; cavity_l1=15.1685; cavity_l2=16.8094; cavity_l3=17.1244; cavity_l4=17.2872; cavity_l5=17.1542; cavity_l6=17.5567; cavity_r=2.5; cavity_screw_l=0.5; cavity_screw_r=1.5; cavity_w=8; iris_h00=0; iris_h01=8.8395; iris_h112=0; iris_h12=5.608; iris_h211=3.6561; iris_h23=5.2085; iris_h310=3.9641; iris_h34=5.092; iris_h45=4.9237; iris_h49=4.6184; iris_h56=4.7994; iris_h58=4.4444; iris_h67=6.592; iris_rx=0.1; iris_screw_l=0.5; iris_screw_r=1.5; iris_shift00=0; iris_shift112=0; iris_shift211=3.5; iris_shift310=0; iris_shift49=0; iris_shift58=3.5; iris_shift67=3.5; iris_tx=4.5; iris_tz=4.5; iris_w00=0; iris_w112=0; iris_w211=4; iris_w310=3.9641; iris_w49=4.6184; iris_w58=4; iris_w67=4; mesh_cavity=5; mesh_iris=7; mesh_screw=7; order=12; reset_all=0; sigma=4.8e+07}
! Header version: 2018
! Port assignment regex: !\s*Touchstone port\s*([0-9]+)\s*=\s*(CST MWS port|CST DS port)\s*([0-9]+|Zmin|Zmax)\s*\(\"(.*)\"\)(\s*mode\s*([0-9]+))?.*
! Touchstone port assignment:
! Touchstone port 1 = CST MWS port 1 ("")
! Touchstone port 2 = CST MWS port 2 ("")
# GHz S RI R 50
12.66                0.290604765     0.938836912   0.000164499474 -6.26399539e-05   0.000164499474 -6.26399539e-05      0.294022115      0.93787774
12.660028            0.290967113     0.938713313   0.000164703799 -6.27942508e-05   0.000164703799 -6.27942507e-05      0.294382599     0.937753387
12.660056            0.291329658     0.938589484   0.000164908393 -6.29489177e-05   0.000164908393 -6.29489176e-05      0.294743305     0.937628795
12.660084            0.291692399     0.938465423   0.000165113257 -6.31039546e-05   0.000165113256 -6.31039545e-05       0.29510422      0.93750397
12.660112            0.292055337     0.938341131   0.000165318391 -6.32593615e-05   0.000165318391 -6.32593615e-05      0.295465334     0.937378913
12.66014              0.29241847     0.938216607   0.000165523798 -6.34151384e-05   0.000165523798 -6.34151383e-05      0.295826633     0.937253628
12.660168              0.2927818     0.938091852   0.000165729477 -6.35712862e-05   0.000165729476 -6.35712861e-05      0.296188118     0.937128114
12.660196            0.293145326     0.937966864   0.000165935427 -6.37278063e-05   0.000165935427 -6.37278063e-05      0.296549798      0.93700237
12.660224            0.293509048     0.937841644    0.00016614165 -6.38846998e-05    0.00016614165 -6.38846998e-05      0.296911671     0.936876394
12.660252            0.293872967      0.93771619   0.000166348146 -6.40419676e-05   0.000166348146 -6.40419675e-05      0.297273739     0.936750185
12.66028             0.294237083     0.937590502   0.000166554915 -6.41996106e-05   0.000166554914 -6.41996105e-05      0.297636002     0.936623745
12.660308            0.294601396     0.937464581   0.000166761956 -6.43576296e-05   0.000166761956 -6.43576295e-05      0.297998459     0.936497072
12.660336            0.294965906     0.937338426   0.000166969272 -6.45160257e-05   0.000166969271 -6.45160256e-05       0.29836111     0.936370165
12.660364            0.295330614     0.937212035   0.000167176861 -6.46747998e-05    0.00016717686 -6.46747997e-05      0.298723957     0.936243026
12.660392            0.295695518      0.93708541   0.000167384724 -6.48339527e-05   0.000167384723 -6.48339527e-05      0.299086999     0.936115652
12.66042              0.29606062     0.936958549   0.000167592861 -6.49934855e-05   0.000167592861 -6.49934855e-05      0.299450236     0.935988044
12.660448             0.29642592     0.936831452   0.000167801273 -6.51533991e-05   0.000167801273  -6.5153399e-05      0.299813668     0.935860201
12.660476            0.296791417     0.936704119    0.00016800996 -6.53136944e-05    0.00016800996 -6.53136943e-05      0.300177295     0.935732123
12.660504            0.297157112     0.936576549   0.000168218922 -6.54743723e-05   0.000168218922 -6.54743722e-05      0.300541118      0.93560381
12.660532            0.297523006     0.936448743    0.00016842816 -6.56354339e-05    0.00016842816 -6.56354338e-05      0.300905137     0.935475261
12.66056             0.297889097     0.936320698   0.000168637673   -6.579688e-05   0.000168637673 -6.57968799e-05      0.301269352     0.935346476
12.660588            0.298255387     0.936192416   0.000168847463 -6.59587115e-05   0.000168847463 -6.59587115e-05      0.301633762     0.935217454
12.660616            0.298621874     0.936063896   0.000169057529 -6.61209296e-05   0.000169057529 -6.61209295e-05      0.301998368     0.935088196
12.660644            0.298988561     0.935935137   0.000169267871  -6.6283535e-05   0.000169267871 -6.62835349e-05      0.302363171       0.9349587
12.660672            0.299355446     0.935806139   0.000169478491 -6.64465288e-05   0.000169478491 -6.64465287e-05      0.302728169     0.934828966
12.6607               0.29972253     0.935676902   0.000169689388 -6.66099119e-05   0.000169689388 -6.66099118e-05      0.303093364     0.934698994
12.660728            0.300089812     0.935547425   0.000169900562 -6.67736853e-05   0.000169900562 -6.67736852e-05      0.303458756     0.934568783
12.660756            0.300457294     0.935417707   0.000170112014 -6.69378499e-05   0.000170112014 -6.69378498e-05      0.303824344     0.934438333
12.660784            0.300824975     0.935287749   0.000170323745 -6.71024067e-05   0.000170323744 -6.71024066e-05      0.304190129     0.934307644
12.660812            0.301192855      0.93515755   0.000170535753 -6.72673567e-05   0.000170535753 -6.72673566e-05      0.304556111     0.934176716
12.66084             0.301560934      0.93502711   0.000170748041 -6.74327009e-05    0.00017074804 -6.74327008e-05       0.30492229     0.934045547
12.660868            0.301929213     0.934896428   0.000170960607 -6.75984401e-05   0.000170960607   -6.759844e-05      0.305288666     0.933914138
12.660896            0.302297692     0.934765503   0.000171173452 -6.77645755e-05   0.000171173452 -6.77645754e-05       0.30565524     0.933782487
12.660924             0.30266637     0.934634336   0.000171386578 -6.79311079e-05   0.000171386577 -6.79311078e-05       0.30602201     0.933650596
12.660952            0.303035249     0.934502926   0.000171599982 -6.80980384e-05   0.000171599982 -6.80980383e-05      0.306388979     0.933518463
12.66098             0.303404327     0.934371272   0.000171813667 -6.82653679e-05   0.000171813667 -6.82653678e-05      0.306756145     0.933386087
12.661008            0.303773606     0.934239375   0.000172027633 -6.84330974e-05   0.000172027633 -6.84330974e-05      0.307123508     0.933253469
12.661036            0.304143084     0.934107233   0.000172241879  -6.8601228e-05   0.000172241879 -6.86012279e-05       0.30749107     0.933120608
12.661064            0.304512764     0.933974847   0.000172456406 -6.87697605e-05   0.000172456406 -6.87697604e-05      0.307858829     0.932987504
12.661092            0.304882643     0.933842215   0.000172671214  -6.8938696e-05   0.000172671214  -6.8938696e-05      0.308226787     0.932854156
12.66112             0.305252724     0.933709339   0.000172886304 -6.91080355e-05   0.000172886304 -6.91080355e-05      0.308594943     0.932720564
12.661148            0.305623005     0.933576216   0.000173101676   -6.927778e-05   0.000173101676   -6.927778e-05      0.308963298     0.932586727
12.661176            0.305993487     0.933442847    0.00017331733 -6.94479305e-05   0.000173317329 -6.94479304e-05      0.309331851     0.932452646
12.661204            0.306364171     0.933309231   0.000173533266  -6.9618488e-05   0.000173533266 -6.96184879e-05      0.309700602     0.932318319
12.661232            0.306735055     0.933175368   0.000173749485 -6.97894534e-05   0.000173749484 -6.97894533e-05      0.310069553     0.932183746
12.66126             0.307106141     0.933041258   0.000173965986 -6.99608278e-05   0.000173965986 -6.99608278e-05      0.310438702     0.932048927
12.661288            0.307477428     0.932906899   0.000174182771 -7.01326123e-05   0.000174182771 -7.01326122e-05       0.31080805     0.931913861
12.661316            0.307848917     0.932772293    0.00017439984 -7.03048077e-05    0.00017439984 -7.03048076e-05      0.311177598     0.931778549
12.661344            0.308220607     0.932637437   0.000174617192 -7.04774152e-05   0.000174617192 -7.04774151e-05      0.311547344     0.931642989
12.661372              0.3085925     0.932502333   0.000174834828 -7.06504357e-05   0.000174834828 -7.06504357e-05       0.31191729     0.931507181
12.6614              0.308964594     0.932366978   0.000175052749 -7.08238703e-05   0.000175052749 -7.08238703e-05      0.312287436     0.931371125
12.661428            0.309336891     0.932231374   0.000175270954   -7.099772e-05   0.000175270954 -7.09977199e-05      0.312657781     0.931234821
12.661456            0.309709389     0.932095519   0.000175489444 -7.11719858e-05   0.000175489444 -7.11719857e-05      0.313028326     0.931098267
12.661484             0.31008209     0.931959414    0.00017570822 -7.13466688e-05    0.00017570822 -7.13466687e-05      0.313399071     0.930961464
12.661512            0.310454994     0.931823057   0.000175927281 -7.15217699e-05    0.00017592728 -7.15217698e-05      0.313770016     0.930824411
12.66154               0.3108281     0.931686448   0.000176146627 -7.16972902e-05   0.000176146627 -7.16972901e-05      0.314141162     0.930687107
12.661568            0.311201408     0.931549588    0.00017636626 -7.18732308e-05    0.00017636626 -7.18732307e-05      0.314512507     0.930549553
12.661596             0.31157492     0.931412474   0.000176586179 -7.20495926e-05   0.000176586179 -7.20495925e-05      0.314884053     0.930411748
12.661624            0.311948635     0.931275108   0.000176806384 -7.22263767e-05   0.000176806384 -7.22263766e-05      0.315255799     0.930273691
12.661652            0.312322552     0.931137489   0.000177026876 -7.24035842e-05   0.000177026876 -7.24035841e-05      0.315627746     0.930135383
12.66168             0.312696673     0.930999615   0.000177247656 -7.25812161e-05   0.000177247656  -7.2581216e-05      0.315999894     0.929996821
12.661708            0.313070998     0.930861487   0.000177468723 -7.27592735e-05   0.000177468723 -7.27592734e-05      0.316372243     0.929858008
12.661736            0.313445525     0.930723105   0.000177690077 -7.29377573e-05   0.000177690077 -7.29377572e-05      0.316744792      0.92971894
12.661764            0.313820257     0.930584468    0.00017791172 -7.31166687e-05   0.000177911719 -7.31166686e-05      0.317117543      0.92957962
12.661792            0.314195192     0.930445575    0.00017813365 -7.32960087e-05    0.00017813365 -7.32960086e-05      0.317490495     0.929440045
12.66182             0.314570331     0.930306426   0.000178355869 -7.34757784e-05   0.000178355869 -7.34757783e-05      0.317863649     0.929300215
12.661848            0.314945674      0.93016702   0.000178578377 -7.36559788e-05   0.000178578377 -7.36559787e-05      0.318237004     0.929160131
12.661876            0.315321221     0.930027358   0.000178801174  -7.3836611e-05   0.000178801174 -7.38366109e-05       0.31861056     0.929019791
12.661904            0.315696973     0.929887439   0.000179024261  -7.4017676e-05    0.00017902426 -7.40176759e-05      0.318984319     0.928879195
12.661932            0.316072929     0.929747262   0.000179247636  -7.4199175e-05   0.000179247636 -7.41991749e-05      0.319358279     0.928738344
12.66196             0.316449089     0.929606827   0.000179471302 -7.43811089e-05   0.000179471302 -7.43811088e-05      0.319732442     0.928597235
12.661988            0.316825454     0.929466133   0.000179695258 -7.45634789e-05   0.000179695258 -7.45634788e-05      0.320106806      0.92845587
12.662016            0.317202024      0.92932518   0.000179919504 -7.47462861e-05   0.000179919504  -7.4746286e-05      0.320481373     0.928314247
12.662044            0.317578799     0.929183968   0.000180144041 -7.49295315e-05   0.000180144041 -7.49295314e-05      0.320856142     0.928172366
12.662072            0.317955779     0.929042496   0.000180368869 -7.51132161e-05   0.000180368869  -7.5113216e-05      0.321231114     0.928030227
12.6621              0.318332964     0.928900763   0.000180593988 -7.52973412e-05   0.000180593988 -7.52973411e-05      0.321606288     0.927887829
12.662128            0.318710354      0.92875877   0.000180819398 -7.54819077e-05   0.000180819398 -7.54819076e-05      0.321981666     0.927745171
12.662156            0.319087949     0.928616516     0.0001810451 -7.56669168e-05     0.0001810451 -7.56669167e-05      0.322357246     0.927602254
12.662184            0.319465751        0.928474   0.000181271095 -7.58523695e-05   0.000181271094 -7.58523694e-05      0.322733029     0.927459077
12.662212            0.319843757     0.928331222   0.000181497381  -7.6038267e-05   0.000181497381 -7.60382669e-05      0.323109015     0.927315639
12.66224              0.32022197     0.928188182    0.00018172396 -7.62246103e-05    0.00018172396 -7.62246102e-05      0.323485204     0.927171941
12.662268            0.320600388     0.928044878   0.000181950832 -7.64114006e-05   0.000181950832 -7.64114005e-05      0.323861597     0.927027981
12.662296            0.320979013     0.927901312   0.000182177997 -7.65986389e-05   0.000182177996 -7.65986388e-05      0.324238194     0.926883759
12.662324            0.321357844     0.927757481   0.000182405455 -7.67863264e-05   0.000182405455 -7.67863263e-05      0.324614994     0.926739275
12.662352            0.321736881     0.927613386   0.000182633207 -7.69744641e-05   0.000182633206  -7.6974464e-05      0.324991997     0.926594528
12.66238             0.322116124     0.927469026   0.000182861252 -7.71630532e-05   0.000182861252 -7.71630531e-05      0.325369205     0.926449517
12.662408            0.322495574     0.927324401   0.000183089592 -7.73520947e-05   0.000183089592 -7.73520946e-05      0.325746617     0.926304244
12.662436            0.322875231     0.927179511   0.000183318226 -7.75415899e-05   0.000183318226 -7.75415898e-05      0.326124232     0.926158706
12.662464            0.323255095     0.927034354   0.000183547155 -7.77315398e-05   0.000183547154 -7.77315397e-05      0.326502053     0.926012903
12.662492            0.323635165     0.926888931   0.000183776378 -7.79219455e-05   0.000183776378 -7.79219454e-05      0.326880077     0.925866836
12.66252             0.324015443     0.926743241   0.000184005897 -7.81128082e-05   0.000184005897 -7.81128081e-05      0.327258306     0.925720503
12.662548            0.324395927     0.926597284   0.000184235711 -7.83041289e-05   0.000184235711 -7.83041288e-05       0.32763674     0.925573905
12.662576            0.324776619     0.926451058   0.000184465821 -7.84959089e-05   0.000184465821 -7.84959088e-05      0.328015378      0.92542704
12.662604            0.325157519     0.926304565   0.000184696227 -7.86881492e-05   0.000184696226 -7.86881491e-05      0.328394221     0.925279908
12.662632            0.325538626     0.926157802   0.000184926928  -7.8880851e-05   0.000184926928 -7.88808509e-05      0.328773269      0.92513251
12.66266             0.325919941      0.92601077   0.000185157927 -7.90740154e-05   0.000185157927 -7.90740153e-05      0.329152523     0.924984843
12.662688            0.326301463     0.925863469   0.000185389222 -7.92676436e-05   0.000185389222 -7.92676435e-05      0.329531981     0.924836908
12.662716            0.326683194     0.925715897   0.000185620814 -7.94617367e-05   0.000185620814 -7.94617366e-05      0.329911645     0.924688705
12.662744            0.327065132     0.925568055   0.000185852703 -7.96562958e-05   0.000185852703 -7.96562957e-05      0.330291515     0.924540233
12.662772            0.327447279     0.925419941    0.00018608489 -7.98513222e-05   0.000186084889 -7.98513221e-05       0.33067159     0.924391492
12.6628              0.327829634     0.925271556   0.000186317374 -8.00468168e-05   0.000186317374 -8.00468167e-05      0.331051871      0.92424248
12.662828            0.328212198     0.925122899   0.000186550156  -8.0242781e-05   0.000186550156 -8.02427809e-05      0.331432357     0.924093198
12.662856             0.32859497      0.92497397   0.000186783237 -8.04392159e-05   0.000186783237 -8.04392158e-05       0.33181305     0.923943646
12.662884            0.328977951     0.924824768   0.000187016616 -8.06361225e-05   0.000187016616 -8.06361224e-05      0.332193949     0.923793822
12.662912            0.329361141     0.924675292   0.000187250294 -8.08335022e-05   0.000187250293 -8.08335021e-05      0.332575054     0.923643726
12.66294             0.329744539     0.924525542    0.00018748427 -8.10313559e-05    0.00018748427 -8.10313559e-05      0.332956365     0.923493358
12.662968            0.330128147     0.924375518   0.000187718546  -8.1229685e-05   0.000187718546  -8.1229685e-05      0.333337883     0.923342717
12.662996            0.330511964      0.92422522   0.000187953121 -8.14284906e-05   0.000187953121 -8.14284905e-05      0.333719607     0.923191804
12.663024            0.330895991     0.924074646   0.000188187997 -8.16277739e-05   0.000188187996 -8.16277738e-05      0.334101538     0.923040616
12.663052            0.331280226     0.923923796   0.000188423172  -8.1827536e-05   0.000188423171 -8.18275359e-05      0.334483676     0.922889155
12.66308             0.331664672      0.92377267   0.000188658647  -8.2027778e-05   0.000188658646 -8.20277779e-05      0.334866021     0.922737419
12.663108            0.332049327     0.923621267   0.000188894422 -8.22285013e-05   0.000188894422 -8.22285012e-05      0.335248574     0.922585408
12.663136            0.332434192     0.923469587   0.000189130499  -8.2429707e-05   0.000189130498 -8.24297069e-05      0.335631333     0.922433122
12.663164            0.332819267      0.92331763   0.000189366876 -8.26313962e-05   0.000189366876 -8.26313961e-05      0.336014299     0.922280559
12.663192            0.333204552     0.923165395   0.000189603554 -8.28335702e-05   0.000189603554 -8.28335701e-05      0.336397474     0.922127721
12.66322             0.333590047     0.923012881   0.000189840534 -8.30362302e-05   0.000189840534 -8.30362301e-05      0.336780855     0.921974605
12.663248            0.333975752     0.922860087   0.000190077816 -8.32393773e-05   0.000190077815 -8.32393772e-05      0.337164445     0.921821212
12.663276            0.334361668     0.922707015   0.000190315399 -8.34430127e-05   0.000190315399 -8.34430126e-05      0.337548242     0.921667542
12.663304            0.334747795     0.922553662   0.000190553284 -8.36471377e-05   0.000190553284 -8.36471376e-05      0.337932247     0.921513593
12.663332            0.335134132     0.922400029   0.000190791472 -8.38517534e-05   0.000190791472 -8.38517533e-05       0.33831646     0.921359365
12.66336             0.335520681     0.922246115   0.000191029963 -8.40568611e-05   0.000191029963  -8.4056861e-05      0.338700882     0.921204858
12.663388             0.33590744     0.922091919   0.000191268756  -8.4262462e-05   0.000191268756 -8.42624619e-05      0.339085511     0.921050072
12.663416             0.33629441     0.921937442   0.000191507852 -8.44685573e-05   0.000191507852 -8.44685572e-05       0.33947035     0.920895005
12.663444            0.336681591     0.921782682   0.000191747252 -8.46751481e-05   0.000191747252  -8.4675148e-05      0.339855396     0.920739658
12.663472            0.337068984     0.921627639   0.000191986955 -8.48822358e-05   0.000191986955 -8.48822357e-05      0.340240652     0.920584029
12.6635              0.337456589     0.921472313   0.000192226962 -8.50898215e-05   0.000192226962 -8.50898214e-05      0.340626116     0.920428119
