! TOUCHSTONE file generated by CST MICROWAVE STUDIO
! Date and time: Wed Jul 31 16:53:41 2024
! Project name: WaveGuide_BPF-Ver4.1_U-shape_Ku_T3_C4_CWA_2.cst
! Parameters = {cavity_h=16; cavity_l0=10; cavity_l1=15.2335; cavity_l2=16.8156; cavity_l3=17.1173; cavity_l4=17.2417; cavity_l5=17.1182; cavity_l6=17.6177; cavity_r=2.5; cavity_screw_l=0.5; cavity_screw_r=1.5; cavity_w=8; iris_h00=0; iris_h01=8.8087; iris_h112=0; iris_h12=5.5981; iris_h211=3.6622; iris_h23=5.2048; iris_h310=3.9636; iris_h34=5.0733; iris_h45=4.9261; iris_h49=4.6149; iris_h56=4.8107; iris_h58=4.4292; iris_h67=6.5773; iris_rx=0.1; iris_screw_l=0.5; iris_screw_r=1.5; iris_shift00=0; iris_shift112=0; iris_shift211=3.5; iris_shift310=0; iris_shift49=0; iris_shift58=3.5; iris_shift67=3.5; iris_tx=4.5; iris_tz=4.5; iris_w00=0; iris_w112=0; iris_w211=4; iris_w310=3.9636; iris_w49=4.6149; iris_w58=4; iris_w67=4; mesh_cavity=5; mesh_iris=7; mesh_screw=7; order=12; reset_all=0; sigma=4.8e+07}
! Header version: 2018
! Port assignment regex: !\s*Touchstone port\s*([0-9]+)\s*=\s*(CST MWS port|CST DS port)\s*([0-9]+|Zmin|Zmax)\s*\(\"(.*)\"\)(\s*mode\s*([0-9]+))?.*
! Touchstone port assignment:
! Touchstone port 1 = CST MWS port 1 ("")
! Touchstone port 2 = CST MWS port 2 ("")
# GHz S RI R 50
12.66                0.408914611     0.888246408   0.000215671316 -0.000117800736   0.000215671315 -0.000117800736      0.410770296     0.887445045
12.660028            0.409362116     0.888021915   0.000215938356 -0.000118095961   0.000215938355  -0.00011809596      0.411217067     0.887219817
12.660056            0.409809914     0.887796981   0.000216205697 -0.000118391933   0.000216205696 -0.000118391932      0.411664065     0.886994177
12.660084            0.410257979     0.887571619    0.00021647334 -0.000118688652    0.00021647334 -0.000118688652      0.412111293     0.886768125
12.660112            0.410706288     0.887345836    0.00021674129 -0.000118986119   0.000216741289 -0.000118986119      0.412558754     0.886541658
12.66014             0.411154816     0.887119644   0.000217009548 -0.000119284334   0.000217009547 -0.000119284334      0.413006451     0.886314773
12.660168            0.411603564     0.886893043   0.000217278114 -0.000119583299   0.000217278113 -0.000119583298      0.413454384      0.88608747
12.660196            0.412052547     0.886666023   0.000217546986 -0.000119883016   0.000217546986 -0.000119883016      0.413902552      0.88585975
12.660224            0.412501766     0.886438584   0.000217816166 -0.000120183488   0.000217816165 -0.000120183488      0.414350954     0.885631611
12.660252             0.41295122     0.886210726   0.000218085652 -0.000120484717   0.000218085651 -0.000120484717       0.41479959     0.885403053
12.66028              0.41340091     0.885982447   0.000218355445 -0.000120786705   0.000218355444 -0.000120786705       0.41524846     0.885174076
12.660308            0.413850836     0.885753748   0.000218625544 -0.000121089454   0.000218625544 -0.000121089454      0.415697565     0.884944677
12.660336            0.414300997     0.885524626   0.000218895951 -0.000121392966   0.000218895951 -0.000121392966      0.416146904     0.884714857
12.660364            0.414751394     0.885295082   0.000219166665 -0.000121697243   0.000219166664 -0.000121697242      0.416596477     0.884484615
12.660392            0.415202027     0.885065115   0.000219437685 -0.000122002286   0.000219437685 -0.000122002286      0.417046285      0.88425395
12.66042             0.415652896     0.884834724   0.000219709013 -0.000122308098   0.000219709013 -0.000122308098      0.417496328     0.884022862
12.660448               0.416104     0.884603908   0.000219980648 -0.000122614681   0.000219980647 -0.000122614681      0.417946604     0.883791349
12.660476            0.416555341     0.884372667    0.00022025259 -0.000122922038   0.000220252589 -0.000122922037      0.418397116     0.883559411
12.660504            0.417006917        0.884141   0.000220524839 -0.000123230169   0.000220524838 -0.000123230168      0.418847862     0.883327047
12.660532             0.41745873     0.883908905   0.000220797395 -0.000123539077   0.000220797394 -0.000123539076      0.419298842     0.883094257
12.66056             0.417910778     0.883676383   0.000221070258 -0.000123848764   0.000221070257 -0.000123848763      0.419750057     0.882861039
12.660588            0.418363063     0.883443432   0.000221343428 -0.000124159232   0.000221343428 -0.000124159232      0.420201507     0.882627393
12.660616            0.418815583     0.883210052   0.000221616906 -0.000124470483   0.000221616905 -0.000124470483      0.420653191     0.882393319
12.660644            0.419268339     0.882976242    0.00022189069  -0.00012478252    0.00022189069 -0.000124782519       0.42110511     0.882158814
12.660672            0.419721332     0.882742001   0.000222164782 -0.000125095343   0.000222164782 -0.000125095343      0.421557264      0.88192388
12.6607              0.420174561     0.882507329   0.000222439182 -0.000125408956   0.000222439181 -0.000125408956      0.422009652     0.881688514
12.660728            0.420628025     0.882272225   0.000222713888 -0.000125723361   0.000222713888 -0.000125723361      0.422462275     0.881452716
12.660756            0.421081726     0.882036687   0.000222988902 -0.000126038559   0.000222988902 -0.000126038559      0.422915133     0.881216486
12.660784            0.421535664     0.881800716   0.000223264223 -0.000126354552   0.000223264223 -0.000126354552      0.423368226     0.880979822
12.660812            0.421989837      0.88156431   0.000223539852 -0.000126671344   0.000223539851 -0.000126671343      0.423821553     0.880742725
12.66084             0.422444247     0.881327468   0.000223815787 -0.000126988935   0.000223815787 -0.000126988934      0.424275115     0.880505192
12.660868            0.422898893     0.881090191    0.00022409203 -0.000127307327    0.00022409203 -0.000127307327      0.424728912     0.880267223
12.660896            0.423353775     0.880852477    0.00022436858 -0.000127626524    0.00022436858 -0.000127626524      0.425182944     0.880028819
12.660924            0.423808893     0.880614325   0.000224645438 -0.000127946527   0.000224645437 -0.000127946527      0.425637211     0.879789977
12.660952            0.424264248     0.880375735   0.000224922603 -0.000128267338   0.000224922602 -0.000128267338      0.426091713     0.879550697
12.66098             0.424719839     0.880136705   0.000225200075  -0.00012858896   0.000225200074 -0.000128588959       0.42654645     0.879310978
12.661008            0.425175667     0.879897236   0.000225477854 -0.000128911393   0.000225477853 -0.000128911393      0.427001421      0.87907082
12.661036            0.425631731     0.879657326   0.000225755941 -0.000129234642    0.00022575594 -0.000129234642      0.427456628     0.878830221
12.661064            0.426088031     0.879416974   0.000226034334 -0.000129558707   0.000226034334 -0.000129558707       0.42791207     0.878589181
12.661092            0.426544568      0.87917618   0.000226313035 -0.000129883591   0.000226313035 -0.000129883591      0.428367746       0.8783477
12.66112             0.427001341     0.878934943   0.000226592043 -0.000130209297   0.000226592043 -0.000130209296      0.428823658     0.878105776
12.661148             0.42745835     0.878693262   0.000226871359 -0.000130535825   0.000226871358 -0.000130535825      0.429279804     0.877863408
12.661176            0.427915596     0.878451137   0.000227150981 -0.000130863179    0.00022715098 -0.000130863179      0.429736186     0.877620597
12.661204            0.428373079     0.878208566   0.000227430911  -0.00013119136    0.00022743091  -0.00013119136      0.430192803      0.87737734
12.661232            0.428830798     0.877965549   0.000227711147 -0.000131520371   0.000227711147 -0.000131520371      0.430649654     0.877133637
12.66126             0.429288753     0.877722085   0.000227991691 -0.000131850214    0.00022799169 -0.000131850214      0.431106741     0.876889488
12.661288            0.429746945     0.877478173   0.000228272541 -0.000132180892   0.000228272541 -0.000132180891      0.431564063     0.876644892
12.661316            0.430205374     0.877233812   0.000228553699 -0.000132512405   0.000228553699 -0.000132512405       0.43202162     0.876399848
12.661344            0.430664039     0.876989002   0.000228835164 -0.000132844757   0.000228835163 -0.000132844757      0.432479412     0.876154354
12.661372            0.431122941     0.876743742   0.000229116935 -0.000133177949   0.000229116934 -0.000133177949      0.432937439     0.875908411
12.6614              0.431582079     0.876498031   0.000229399013 -0.000133511985   0.000229399013 -0.000133511985      0.433395701     0.875662018
12.661428            0.432041454     0.876251868   0.000229681398 -0.000133846866   0.000229681398 -0.000133846865      0.433854199     0.875415173
12.661456            0.432501065     0.876005253    0.00022996409 -0.000134182594    0.00022996409 -0.000134182593      0.434312931     0.875167876
12.661484            0.432960913     0.875758184   0.000230247089 -0.000134519171   0.000230247088 -0.000134519171      0.434771899     0.874920126
12.661512            0.433420998     0.875510661   0.000230530394 -0.000134856601   0.000230530393 -0.000134856601      0.435231101     0.874671923
12.66154             0.433881319     0.875262684   0.000230814005 -0.000135194884   0.000230814005 -0.000135194884      0.435690539     0.874423265
12.661568            0.434341877      0.87501425   0.000231097923 -0.000135534024   0.000231097923 -0.000135534024      0.436150212     0.874174152
12.661596            0.434802671      0.87476536   0.000231382148 -0.000135874023   0.000231382147 -0.000135874023       0.43661012     0.873924582
12.661624            0.435263702     0.874516012   0.000231666679 -0.000136214882   0.000231666678 -0.000136214882      0.437070264     0.873674556
12.661652             0.43572497     0.874266206   0.000231951516 -0.000136556605   0.000231951516 -0.000136556604      0.437530642     0.873424072
12.66168             0.436186474     0.874015941    0.00023223666 -0.000136899192   0.000232236659 -0.000136899192      0.437991256      0.87317313
12.661708            0.436648215     0.873765217   0.000232522109 -0.000137242648   0.000232522109 -0.000137242647      0.438452104     0.872921728
12.661736            0.437110193     0.873514031   0.000232807865 -0.000137586973   0.000232807864 -0.000137586973      0.438913188     0.872669866
12.661764            0.437572407     0.873262384   0.000233093927 -0.000137932171   0.000233093926  -0.00013793217      0.439374507     0.872417543
12.661792            0.438034858     0.873010275   0.000233380294 -0.000138278243   0.000233380294 -0.000138278243      0.439836062     0.872164759
12.66182             0.438497545     0.872757703   0.000233666968 -0.000138625192   0.000233666967 -0.000138625192      0.440297851     0.871911512
12.661848            0.438960469     0.872504667   0.000233953947  -0.00013897302   0.000233953946  -0.00013897302      0.440759875     0.871657801
12.661876             0.43942363     0.872251166   0.000234241231  -0.00013932173   0.000234241231 -0.000139321729      0.441222135     0.871403626
12.661904            0.439887027       0.8719972   0.000234528822 -0.000139671323   0.000234528821 -0.000139671323       0.44168463     0.871148987
12.661932            0.440350661     0.871742767   0.000234816718 -0.000140021802   0.000234816717 -0.000140021802      0.442147359     0.870893881
12.66196             0.440814531     0.871487867   0.000235104919  -0.00014037317   0.000235104918  -0.00014037317      0.442610324     0.870638309
12.661988            0.441278639     0.871232499   0.000235393425 -0.000140725429   0.000235393424 -0.000140725429      0.443073525     0.870382269
12.662016            0.441742982     0.870976662   0.000235682236 -0.000141078581   0.000235682236 -0.000141078581       0.44353696      0.87012576
12.662044            0.442207563     0.870720355   0.000235971353 -0.000141432628   0.000235971352 -0.000141432628       0.44400063     0.869868783
12.662072             0.44267238     0.870463578   0.000236260774 -0.000141787573   0.000236260774 -0.000141787573      0.444464535     0.869611336
12.6621              0.443137433     0.870206329     0.0002365505 -0.000142143419     0.0002365505 -0.000142143418      0.444928676     0.869353417
12.662128            0.443602723     0.869948608   0.000236840531 -0.000142500167   0.000236840531 -0.000142500166      0.445393051     0.869095028
12.662156             0.44406825     0.869690414   0.000237130867 -0.000142857819   0.000237130866 -0.000142857819      0.445857662     0.868836165
12.662184            0.444534013     0.869431746   0.000237421506  -0.00014321638   0.000237421506 -0.000143216379      0.446322507      0.86857683
12.662212            0.445000013     0.869172604    0.00023771245  -0.00014357585    0.00023771245 -0.000143575849      0.446787588      0.86831702
12.66224             0.445466249     0.868912986   0.000238003699 -0.000143936232   0.000238003698 -0.000143936231      0.447252903     0.868056735
12.662268            0.445932722     0.868652891   0.000238295251 -0.000144297528    0.00023829525 -0.000144297528      0.447718454     0.867795974
12.662296            0.446399431     0.868392319   0.000238587107 -0.000144659742   0.000238587106 -0.000144659741      0.448184239     0.867534736
12.662324            0.446866377     0.868131269   0.000238879267 -0.000145022874   0.000238879266 -0.000145022874       0.44865026     0.867273021
12.662352            0.447333559      0.86786974    0.00023917173 -0.000145386929    0.00023917173 -0.000145386929      0.449116515     0.867010828
12.66238             0.447800978     0.867607731   0.000239464497 -0.000145751908   0.000239464497 -0.000145751908      0.449583005     0.866748155
12.662408            0.448268633     0.867345242   0.000239757568 -0.000146117813   0.000239757567 -0.000146117813      0.450049731     0.866485003
12.662436            0.448736524      0.86708227   0.000240050941 -0.000146484648    0.00024005094 -0.000146484648      0.450516691     0.866221369
12.662464            0.449204652     0.866818817   0.000240344617 -0.000146852414   0.000240344617 -0.000146852414      0.450983886     0.865957253
12.662492            0.449673016      0.86655488   0.000240638597 -0.000147221114   0.000240638596 -0.000147221114      0.451451315     0.865692655
12.66252             0.450141617     0.866290459   0.000240932879  -0.00014759075   0.000240932878  -0.00014759075       0.45191898     0.865427573
12.662548            0.450610454     0.866025553   0.000241227463 -0.000147961326   0.000241227462 -0.000147961326      0.452386879     0.865162007
12.662576            0.451079527     0.865760161    0.00024152235 -0.000148332843   0.000241522349 -0.000148332842      0.452855014     0.864895956
12.662604            0.451548837     0.865494283   0.000241817538 -0.000148705303   0.000241817538 -0.000148705303      0.453323383     0.864629419
12.662632            0.452018383     0.865227917   0.000242113029  -0.00014907871   0.000242113029  -0.00014907871      0.453791986     0.864362394
12.66266             0.452488165     0.864961062   0.000242408822 -0.000149453066   0.000242408821 -0.000149453066      0.454260824     0.864094882
12.662688            0.452958183     0.864693719   0.000242704916 -0.000149828373   0.000242704916 -0.000149828373      0.454729897     0.863826881
12.662716            0.453428438     0.864425885   0.000243001312 -0.000150204634   0.000243001311 -0.000150204634      0.455199205     0.863558391
12.662744            0.453898929      0.86415756   0.000243298009 -0.000150581852   0.000243298008 -0.000150581851      0.455668747      0.86328941
12.662772            0.454369656     0.863888742   0.000243595007 -0.000150960028   0.000243595006 -0.000150960027      0.456138524     0.863019938
12.6628              0.454840619     0.863619433   0.000243892305 -0.000151339165   0.000243892305 -0.000151339165      0.456608535     0.862749973
12.662828            0.455311818     0.863349629   0.000244189905 -0.000151719267   0.000244189904 -0.000151719267      0.457078781     0.862479516
12.662856            0.455783253     0.863079331   0.000244487805 -0.000152100335   0.000244487804 -0.000152100335      0.457549261     0.862208565
12.662884            0.456254924     0.862808537   0.000244786005 -0.000152482372   0.000244786004 -0.000152482372      0.458019976     0.861937118
12.662912            0.456726831     0.862537247   0.000245084505 -0.000152865381   0.000245084504  -0.00015286538      0.458490925     0.861665177
12.66294             0.457198974      0.86226546   0.000245383305 -0.000153249364   0.000245383304 -0.000153249363      0.458962109     0.861392738
12.662968            0.457671353     0.861993175   0.000245682404 -0.000153634323   0.000245682404 -0.000153634323      0.459433527     0.861119802
12.662996            0.458143968     0.861720391   0.000245981803 -0.000154020262   0.000245981802 -0.000154020261      0.459905179     0.860846368
12.663024            0.458616818     0.861447106   0.000246281501 -0.000154407182     0.0002462815 -0.000154407182      0.460377065     0.860572435
12.663052            0.459089905     0.861173321   0.000246581498 -0.000154795088   0.000246581497 -0.000154795087      0.460849186     0.860298001
12.66308             0.459563227     0.860899035   0.000246881793  -0.00015518398   0.000246881793 -0.000155183979      0.461321541     0.860023067
12.663108            0.460036785     0.860624245   0.000247182387 -0.000155573861   0.000247182386 -0.000155573861       0.46179413      0.85974763
12.663136            0.460510579     0.860348952   0.000247483279 -0.000155964735   0.000247483279 -0.000155964735      0.462266953     0.859471691
12.663164            0.460984608     0.860073155   0.000247784469 -0.000156356604   0.000247784469 -0.000156356604       0.46274001     0.859195248
12.663192            0.461458873     0.859796853   0.000248085957 -0.000156749471   0.000248085956  -0.00015674947      0.463213301       0.8589183
12.66322             0.461933374     0.859520044   0.000248387742 -0.000157143337   0.000248387741 -0.000157143337      0.463686826     0.858640847
12.663248             0.46240811     0.859242728   0.000248689824 -0.000157538206   0.000248689824 -0.000157538206      0.464160585     0.858362888
12.663276            0.462883082     0.858964905   0.000248992204 -0.000157934081   0.000248992203 -0.000157934081      0.464634578     0.858084421
12.663304            0.463358289     0.858686572   0.000249294879 -0.000158330964   0.000249294879 -0.000158330963      0.465108805     0.857805446
12.663332            0.463833731     0.858407729   0.000249597852 -0.000158728857   0.000249597851 -0.000158728857      0.465583265     0.857525962
12.66336             0.464309409     0.858128376    0.00024990112 -0.000159127764   0.000249901119 -0.000159127763      0.466057959     0.857245968
12.663388            0.464785322     0.857848511   0.000250204684 -0.000159527686   0.000250204684 -0.000159527686      0.466532887     0.856965463
12.663416             0.46526147     0.857568134   0.000250508544 -0.000159928628   0.000250508543 -0.000159928627      0.467008049     0.856684447
12.663444            0.465737854     0.857287243   0.000250812699 -0.000160330591   0.000250812698  -0.00016033059      0.467483444     0.856402917
12.663472            0.466214472     0.857005838   0.000251117149 -0.000160733577   0.000251117148 -0.000160733577      0.467959072     0.856120874
12.6635              0.466691326     0.856723917   0.000251421893 -0.000161137591   0.000251421893 -0.000161137591      0.468434934     0.855838316
