! TOUCHSTONE file generated by CST MICROWAVE STUDIO
! Date and time: Wed Jul 31 17:03:03 2024
! Project name: WaveGuide_BPF-Ver4.1_U-shape_Ku_T3_C4_CWA_2.cst
! Parameters = {cavity_h=16; cavity_l0=10; cavity_l1=15.2225; cavity_l2=16.8166; cavity_l3=17.1429; cavity_l4=17.2754; cavity_l5=17.1395; cavity_l6=17.6234; cavity_r=2.5; cavity_screw_l=0.5; cavity_screw_r=1.5; cavity_w=8; iris_h00=0; iris_h01=8.8228; iris_h112=0; iris_h12=5.6089; iris_h211=3.6639; iris_h23=5.1919; iris_h310=3.9705; iris_h34=5.0684; iris_h45=4.9278; iris_h49=4.614; iris_h56=4.8009; iris_h58=4.4361; iris_h67=6.5951; iris_rx=0.1; iris_screw_l=0.5; iris_screw_r=1.5; iris_shift00=0; iris_shift112=0; iris_shift211=3.5; iris_shift310=0; iris_shift49=0; iris_shift58=3.5; iris_shift67=3.5; iris_tx=4.5; iris_tz=4.5; iris_w00=0; iris_w112=0; iris_w211=4; iris_w310=3.9705; iris_w49=4.614; iris_w58=4; iris_w67=4; mesh_cavity=5; mesh_iris=7; mesh_screw=7; order=12; reset_all=0; sigma=4.8e+07}
! Header version: 2018
! Port assignment regex: !\s*Touchstone port\s*([0-9]+)\s*=\s*(CST MWS port|CST DS port)\s*([0-9]+|Zmin|Zmax)\s*\(\"(.*)\"\)(\s*mode\s*([0-9]+))?.*
! Touchstone port assignment:
! Touchstone port 1 = CST MWS port 1 ("")
! Touchstone port 2 = CST MWS port 2 ("")
# GHz S RI R 50
12.66                0.425865671      0.87978332   0.000221761792  -0.00012771141   0.000221761792  -0.00012771141      0.434469249     0.875452653
12.660028            0.426316197      0.87954614   0.000222027074 -0.000128024481   0.000222027074 -0.000128024481      0.434921483     0.875208814
12.660056             0.42676699     0.879308513    0.00022229262 -0.000128338325    0.00022229262 -0.000128338325      0.435373972     0.874964521
12.660084            0.427218033     0.879070445   0.000222558432 -0.000128652941   0.000222558432 -0.000128652941      0.435826704     0.874719781
12.660112            0.427669312     0.878831942   0.000222824514 -0.000128968329   0.000222824514 -0.000128968328      0.436279669     0.874474596
12.66014              0.42812081     0.878593011   0.000223090869 -0.000129284487   0.000223090869 -0.000129284487      0.436732855     0.874228973
12.660168            0.428572528     0.878353651   0.000223357498 -0.000129601419   0.000223357498 -0.000129601419      0.437186263     0.873982909
12.660196            0.429024475     0.878113856   0.000223624397 -0.000129919128   0.000223624397 -0.000129919127      0.437639899     0.873736402
12.660224            0.429476653     0.877873626   0.000223891567 -0.000130237615   0.000223891567 -0.000130237615      0.438093765     0.873489449
12.660252            0.429929062      0.87763296   0.000224159007 -0.000130556882   0.000224159007 -0.000130556882      0.438547859     0.873242051
12.66028               0.4303817     0.877391857   0.000224426718 -0.000130876932   0.000224426718 -0.000130876932      0.439002183     0.872994205
12.660308            0.430834568     0.877150317   0.000224694698 -0.000131197766   0.000224694698 -0.000131197766      0.439456735     0.872745913
12.660336            0.431287667     0.876908338   0.000224962949 -0.000131519387   0.000224962949 -0.000131519387      0.439911516     0.872497172
12.660364            0.431740995      0.87666592    0.00022523147 -0.000131841796    0.00022523147 -0.000131841796      0.440366526     0.872247983
12.660392            0.432194554     0.876423062   0.000225500261 -0.000132164996   0.000225500261 -0.000132164996      0.440821765     0.871998343
12.66042             0.432648343     0.876179764   0.000225769321 -0.000132488988   0.000225769321 -0.000132488988      0.441277232     0.871748254
12.660448            0.433102362     0.875936024    0.00022603865 -0.000132813774    0.00022603865 -0.000132813774      0.441732929     0.871497712
12.660476            0.433556612     0.875691841   0.000226308249 -0.000133139356   0.000226308249 -0.000133139356      0.442188855     0.871246719
12.660504            0.434011091     0.875447216   0.000226578117 -0.000133465737   0.000226578118 -0.000133465737      0.442645009     0.870995273
12.660532            0.434465801     0.875202147   0.000226848255 -0.000133792918   0.000226848255 -0.000133792918      0.443101392     0.870743373
12.66056             0.434920741     0.874956634   0.000227118661 -0.000134120901   0.000227118661 -0.000134120901      0.443558004     0.870491019
12.660588            0.435375911     0.874710675   0.000227389335 -0.000134449689   0.000227389335 -0.000134449688      0.444014846      0.87023821
12.660616            0.435831312     0.874464271   0.000227660279 -0.000134779282   0.000227660279 -0.000134779282      0.444471915     0.869984944
12.660644            0.436286943     0.874217419    0.00022793149 -0.000135109684    0.00022793149 -0.000135109684      0.444929214     0.869731221
12.660672            0.436742803      0.87397012    0.00022820297 -0.000135440897    0.00022820297 -0.000135440897      0.445386742     0.869477041
12.6607              0.437198895     0.873722372   0.000228474718 -0.000135772922   0.000228474718 -0.000135772922      0.445844499     0.869222403
12.660728            0.437655216     0.873474175   0.000228746733 -0.000136105761   0.000228746734 -0.000136105761      0.446302484     0.868967305
12.660756            0.438111768     0.873225528   0.000229019017 -0.000136439416   0.000229019017 -0.000136439416      0.446760698     0.868711747
12.660784             0.43856855      0.87297643   0.000229291567 -0.000136773891   0.000229291568  -0.00013677389      0.447219141     0.868455728
12.660812            0.439025562      0.87272688   0.000229564386 -0.000137109185   0.000229564386 -0.000137109185      0.447677813     0.868199247
12.66084             0.439482805     0.872476879   0.000229837471 -0.000137445302   0.000229837471 -0.000137445302      0.448136714     0.867942304
12.660868            0.439940277     0.872226424   0.000230110823 -0.000137782244   0.000230110823 -0.000137782244      0.448595844     0.867684897
12.660896             0.44039798     0.871975515   0.000230384441 -0.000138120013   0.000230384442 -0.000138120013      0.449055202     0.867427027
12.660924            0.440855914     0.871724151   0.000230658327  -0.00013845861   0.000230658327  -0.00013845861      0.449514789     0.867168691
12.660952            0.441314077     0.871472332   0.000230932478 -0.000138798038   0.000230932478 -0.000138798038      0.449974605      0.86690989
12.66098             0.441772471     0.871220056   0.000231206896 -0.000139138299   0.000231206896 -0.000139138299       0.45043465     0.866650622
12.661008            0.442231095     0.870967323   0.000231481579 -0.000139479395   0.000231481579 -0.000139479395      0.450894923     0.866390887
12.661036            0.442689949     0.870714132   0.000231756529 -0.000139821328   0.000231756529 -0.000139821328      0.451355426     0.866130683
12.661064            0.443149034     0.870460482   0.000232031743   -0.0001401641   0.000232031743   -0.0001401641      0.451816156      0.86587001
12.661092            0.443608348     0.870206373   0.000232307223 -0.000140507713   0.000232307223 -0.000140507713      0.452277116     0.865608868
12.66112             0.444067893     0.869951804   0.000232582968  -0.00014085217   0.000232582968  -0.00014085217      0.452738304     0.865347255
12.661148            0.444527668     0.869696773   0.000232858978 -0.000141197472   0.000232858978 -0.000141197472      0.453199721      0.86508517
12.661176            0.444987674      0.86944128   0.000233135252 -0.000141543622   0.000233135252 -0.000141543622      0.453661367     0.864822613
12.661204             0.44544791     0.869185324   0.000233411791 -0.000141890621   0.000233411791 -0.000141890621      0.454123241     0.864559582
12.661232            0.445908375     0.868928905   0.000233688594 -0.000142238473   0.000233688594 -0.000142238473      0.454585344     0.864296078
12.66126             0.446369071     0.868672021    0.00023396566 -0.000142587178    0.00023396566 -0.000142587178      0.455047675     0.864032099
12.661288            0.446829997     0.868414672    0.00023424299 -0.000142936739    0.00023424299 -0.000142936739      0.455510235     0.863767644
12.661316            0.447291154     0.868156857   0.000234520584 -0.000143287158   0.000234520584 -0.000143287158      0.455973024     0.863502712
12.661344             0.44775254     0.867898575   0.000234798441 -0.000143638438   0.000234798441 -0.000143638438      0.456436041     0.863237304
12.661372            0.448214157     0.867639825    0.00023507656  -0.00014399058    0.00023507656  -0.00014399058      0.456899286     0.862971416
12.6614              0.448676004     0.867380606   0.000235354943 -0.000144343587   0.000235354943 -0.000144343587       0.45736276      0.86270505
12.661428             0.44913808     0.867120919   0.000235633587 -0.000144697461   0.000235633587 -0.000144697461      0.457826463     0.862438204
12.661456            0.449600387     0.866860761   0.000235912494 -0.000145052204   0.000235912494 -0.000145052204      0.458290394     0.862170877
12.661484            0.450062924     0.866600132   0.000236191662 -0.000145407817   0.000236191663 -0.000145407817      0.458754553     0.861903069
12.661512            0.450525692     0.866339031   0.000236471093 -0.000145764304   0.000236471093 -0.000145764304       0.45921894     0.861634778
12.66154             0.450988689     0.866077457   0.000236750784 -0.000146121667   0.000236750784 -0.000146121667      0.459683556     0.861366004
12.661568            0.451451916      0.86581541   0.000237030736 -0.000146479907   0.000237030736 -0.000146479907        0.4601484     0.861096746
12.661596            0.451915373     0.865552888   0.000237310949 -0.000146839027    0.00023731095 -0.000146839027      0.460613473     0.860827002
12.661624             0.45237906     0.865289892   0.000237591423 -0.000147199029   0.000237591423 -0.000147199029      0.461078774     0.860556773
12.661652            0.452842977     0.865026419   0.000237872157 -0.000147559915   0.000237872157 -0.000147559915      0.461544303     0.860286057
12.66168             0.453307124     0.864762469   0.000238153151 -0.000147921688   0.000238153151 -0.000147921688       0.46201006     0.860014854
12.661708            0.453771501     0.864498042   0.000238434404 -0.000148284349   0.000238434404 -0.000148284349      0.462476045     0.859743162
12.661736            0.454236108     0.864233136   0.000238715916 -0.000148647901   0.000238715916 -0.000148647901      0.462942258      0.85947098
12.661764            0.454700945      0.86396775   0.000238997688 -0.000149012347   0.000238997688 -0.000149012347        0.4634087     0.859198309
12.661792            0.455166012     0.863701885   0.000239279718 -0.000149377687   0.000239279718 -0.000149377687      0.463875369     0.858925147
12.66182             0.455631308     0.863435538   0.000239562006 -0.000149743925   0.000239562007 -0.000149743925      0.464342266     0.858651492
12.661848            0.456096834     0.863168709   0.000239844553 -0.000150111063   0.000239844553 -0.000150111063      0.464809392     0.858377345
12.661876             0.45656259     0.862901398   0.000240127357 -0.000150479103   0.000240127358 -0.000150479103      0.465276745     0.858102704
12.661904            0.457028576     0.862633603   0.000240410419 -0.000150848047   0.000240410419 -0.000150848047      0.465744326     0.857827569
12.661932            0.457494792     0.862365323   0.000240693738 -0.000151217897   0.000240693738 -0.000151217897      0.466212135     0.857551938
12.66196             0.457961237     0.862096558   0.000240977314 -0.000151588656   0.000240977314 -0.000151588656      0.466680172     0.857275811
12.661988            0.458427912     0.861827306   0.000241261146 -0.000151960326   0.000241261146 -0.000151960326      0.467148436     0.856999187
12.662016            0.458894816     0.861557568   0.000241545234  -0.00015233291   0.000241545234  -0.00015233291      0.467616928     0.856722065
12.662044             0.45936195     0.861287342   0.000241829578 -0.000152706409   0.000241829578 -0.000152706409      0.468085648     0.856444444
12.662072            0.459829314     0.861016626   0.000242114177 -0.000153080826   0.000242114177 -0.000153080826      0.468554596     0.856166323
12.6621              0.460296907     0.860745421   0.000242399031 -0.000153456163   0.000242399032 -0.000153456163      0.469023771     0.855887702
12.662128            0.460764729     0.860473726   0.000242684141 -0.000153832422   0.000242684141 -0.000153832422      0.469493173     0.855608579
12.662156            0.461232782     0.860201539   0.000242969504 -0.000154209606   0.000242969504 -0.000154209606      0.469962803     0.855328953
12.662184            0.461701063      0.85992886   0.000243255121 -0.000154587717   0.000243255122 -0.000154587717      0.470432661     0.855048824
12.662212            0.462169574     0.859655688   0.000243540993 -0.000154966757   0.000243540993 -0.000154966757      0.470902746     0.854768191
12.66224             0.462638314     0.859382021   0.000243827117 -0.000155346728   0.000243827117 -0.000155346728      0.471373058     0.854487053
12.662268            0.463107284      0.85910786   0.000244113494 -0.000155727634   0.000244113494 -0.000155727634      0.471843597     0.854205409
12.662296            0.463576483     0.858833203   0.000244400124 -0.000156109476   0.000244400124 -0.000156109476      0.472314364     0.853923258
12.662324            0.464045911     0.858558049   0.000244687006 -0.000156492256   0.000244687006 -0.000156492256      0.472785357     0.853640599
12.662352            0.464515568     0.858282398   0.000244974139 -0.000156875977    0.00024497414 -0.000156875977      0.473256578     0.853357431
12.66238             0.464985454     0.858006249   0.000245261525 -0.000157260642   0.000245261525 -0.000157260642      0.473728026     0.853073754
12.662408             0.46545557       0.8577296   0.000245549161 -0.000157646252   0.000245549161 -0.000157646252      0.474199701     0.852789566
12.662436            0.465925914     0.857452451   0.000245837047 -0.000158032809   0.000245837047 -0.000158032809      0.474671603     0.852504867
12.662464            0.466396488       0.8571748   0.000246125184 -0.000158420317   0.000246125184 -0.000158420317      0.475143731     0.852219655
12.662492             0.46686729     0.856896648    0.00024641357 -0.000158808778    0.00024641357 -0.000158808778      0.475616087     0.851933931
12.66252             0.467338321     0.856617993   0.000246702206 -0.000159198194   0.000246702206 -0.000159198194      0.476088669     0.851647692
12.662548            0.467809582     0.856338834   0.000246991091 -0.000159588566   0.000246991091 -0.000159588566      0.476561478     0.851360938
12.662576            0.468281071     0.856059171   0.000247280224 -0.000159979899   0.000247280225 -0.000159979899      0.477034514     0.851073668
12.662604            0.468752789     0.855779002   0.000247569606 -0.000160372194   0.000247569606 -0.000160372193      0.477507776     0.850785881
12.662632            0.469224735     0.855498327   0.000247859235 -0.000160765453   0.000247859235 -0.000160765453      0.477981265     0.850497576
12.66266              0.46969691     0.855217144   0.000248149111 -0.000161159678   0.000248149111 -0.000161159678       0.47845498     0.850208753
12.662688            0.470169314     0.854935453   0.000248439235 -0.000161554873   0.000248439235 -0.000161554873      0.478928921      0.84991941
12.662716            0.470641947     0.854653253   0.000248729604  -0.00016195104   0.000248729604  -0.00016195104      0.479403089     0.849629546
12.662744            0.471114808     0.854370543    0.00024902022 -0.000162348181    0.00024902022 -0.000162348181      0.479877483     0.849339161
12.662772            0.471587897     0.854087322   0.000249311081 -0.000162746298   0.000249311081 -0.000162746298      0.480352103     0.849048254
12.6628              0.472061215     0.853803589   0.000249602187 -0.000163145394   0.000249602187 -0.000163145394      0.480826949     0.848756823
12.662828            0.472534761     0.853519343   0.000249893537 -0.000163545471   0.000249893537 -0.000163545471      0.481302022     0.848464868
12.662856            0.473008535     0.853234584   0.000250185132 -0.000163946532   0.000250185132 -0.000163946532       0.48177732     0.848172387
12.662884            0.473482538      0.85294931    0.00025047697 -0.000164348579    0.00025047697 -0.000164348579      0.482252844     0.847879381
12.662912            0.473956769     0.852663521   0.000250769051 -0.000164751615   0.000250769051 -0.000164751615      0.482728594     0.847585847
12.66294             0.474431227     0.852377215   0.000251061375 -0.000165155642   0.000251061376 -0.000165155642       0.48320457     0.847291785
12.662968            0.474905914     0.852090392   0.000251353942 -0.000165560662   0.000251353942 -0.000165560662      0.483680771     0.846997195
12.662996            0.475380829      0.85180305    0.00025164675 -0.000165966678    0.00025164675 -0.000165966678      0.484157198     0.846702074
12.663024            0.475855972      0.85151519   0.000251939799 -0.000166373692   0.000251939799 -0.000166373692       0.48463385     0.846406423
12.663052            0.476331343     0.851226809   0.000252233089 -0.000166781708   0.000252233089 -0.000166781708      0.485110728      0.84611024
12.66308             0.476806941     0.850937907   0.000252526619 -0.000167190726   0.000252526619 -0.000167190726      0.485587831     0.845813524
12.663108            0.477282767     0.850648484   0.000252820389 -0.000167600751   0.000252820389 -0.000167600751       0.48606516     0.845516275
12.663136            0.477758821     0.850358537   0.000253114398 -0.000168011783   0.000253114398 -0.000168011783      0.486542713      0.84521849
12.663164            0.478235102     0.850068067   0.000253408646 -0.000168423827   0.000253408646 -0.000168423827      0.487020492     0.844920171
12.663192            0.478711611     0.849777072   0.000253703132 -0.000168836884   0.000253703132 -0.000168836883      0.487498495     0.844621314
12.66322             0.479188347     0.849485551   0.000253997856 -0.000169250956   0.000253997856 -0.000169250956      0.487976724      0.84432192
12.663248            0.479665311     0.849193504   0.000254292816 -0.000169666047   0.000254292816 -0.000169666047      0.488455177     0.844021988
12.663276            0.480142502     0.848900929   0.000254588014 -0.000170082158   0.000254588014 -0.000170082158      0.488933856     0.843721517
12.663304             0.48061992     0.848607825   0.000254883447 -0.000170499293   0.000254883447 -0.000170499293      0.489412758     0.843420504
12.663332            0.481097565     0.848314193   0.000255179116 -0.000170917453   0.000255179116 -0.000170917453      0.489891886     0.843118951
12.66336             0.481575438     0.848020029    0.00025547502 -0.000171336642    0.00025547502 -0.000171336642      0.490371237     0.842816855
12.663388            0.482053537     0.847725335   0.000255771158 -0.000171756862   0.000255771158 -0.000171756862      0.490850814     0.842514216
12.663416            0.482531863     0.847430108    0.00025606753 -0.000172178115    0.00025606753 -0.000172178115      0.491330614     0.842211033
12.663444            0.483010416     0.847134348   0.000256364135 -0.000172600404   0.000256364135 -0.000172600404      0.491810639     0.841907305
12.663472            0.483489196     0.846838054   0.000256660973 -0.000173023732   0.000256660973 -0.000173023732      0.492290888      0.84160303
12.6635              0.483968203     0.846541225   0.000256958044   -0.0001734481   0.000256958044   -0.0001734481       0.49277136     0.841298208
