! TOUCHSTONE file generated by CST MICROWAVE STUDIO
! Date and time: Wed Jul 31 17:09:34 2024
! Project name: WaveGuide_BPF-Ver4.1_U-shape_Ku_T3_C4_CWA_2.cst
! Parameters = {cavity_h=16; cavity_l0=10; cavity_l1=15.1668; cavity_l2=16.8086; cavity_l3=17.0632; cavity_l4=17.3078; cavity_l5=17.117; cavity_l6=17.5871; cavity_r=2.5; cavity_screw_l=0.5; cavity_screw_r=1.5; cavity_w=8; iris_h00=0; iris_h01=8.832; iris_h112=0; iris_h12=5.5862; iris_h211=3.6599; iris_h23=5.2015; iris_h310=3.9622; iris_h34=5.0877; iris_h45=4.9297; iris_h49=4.6213; iris_h56=4.7886; iris_h58=4.4374; iris_h67=6.5721; iris_rx=0.1; iris_screw_l=0.5; iris_screw_r=1.5; iris_shift00=0; iris_shift112=0; iris_shift211=3.5; iris_shift310=0; iris_shift49=0; iris_shift58=3.5; iris_shift67=3.5; iris_tx=4.5; iris_tz=4.5; iris_w00=0; iris_w112=0; iris_w211=4; iris_w310=3.9622; iris_w49=4.6213; iris_w58=4; iris_w67=4; mesh_cavity=5; mesh_iris=7; mesh_screw=7; order=12; reset_all=0; sigma=4.8e+07}
! Header version: 2018
! Port assignment regex: !\s*Touchstone port\s*([0-9]+)\s*=\s*(CST MWS port|CST DS port)\s*([0-9]+|Zmin|Zmax)\s*\(\"(.*)\"\)(\s*mode\s*([0-9]+))?.*
! Touchstone port assignment:
! Touchstone port 1 = CST MWS port 1 ("")
! Touchstone port 2 = CST MWS port 2 ("")
# GHz S RI R 50
12.66                 0.23162373     0.956915048   0.000137377346 -4.29324355e-05   0.000137377347 -4.29324361e-05      0.241226555      0.95435042
12.660028            0.231951477     0.956826606   0.000137549162 -4.30413595e-05   0.000137549163 -4.30413601e-05      0.241559697      0.95425686
12.660056            0.232279324      0.95673801   0.000137721222 -4.31505425e-05   0.000137721224 -4.31505431e-05      0.241893048      0.95416311
12.660084            0.232607301     0.956649252   0.000137893526  -4.3259986e-05   0.000137893528 -4.32599866e-05      0.242226595     0.954069175
12.660112             0.23293544     0.956560323   0.000138066073 -4.33696918e-05   0.000138066075 -4.33696924e-05      0.242560321     0.953975058
12.66014             0.233263771     0.956471217   0.000138238864 -4.34796615e-05   0.000138238866 -4.34796621e-05      0.242894213     0.953880763
12.660168            0.233592294     0.956381933   0.000138411899  -4.3589896e-05   0.000138411901 -4.35898966e-05       0.24322827     0.953786289
12.660196             0.23392099     0.956292475   0.000138585178  -4.3700395e-05    0.00013858518 -4.37003956e-05      0.243562502     0.953691633
12.660224            0.234249858     0.956202844   0.000138758702 -4.38111593e-05   0.000138758704 -4.38111599e-05      0.243896909     0.953596796
12.660252            0.234578898     0.956113039   0.000138932471 -4.39221896e-05   0.000138932472 -4.39221902e-05      0.244231492     0.953501777
12.66028             0.234908111      0.95602306   0.000139106485 -4.40334865e-05   0.000139106487 -4.40334871e-05      0.244566251     0.953406575
12.660308            0.235237497     0.955932906   0.000139280745 -4.41450508e-05   0.000139280747 -4.41450514e-05      0.244901186     0.953311191
12.660336            0.235567055     0.955842578   0.000139455252  -4.4256883e-05   0.000139455254 -4.42568836e-05      0.245236296     0.953215624
12.660364            0.235896786     0.955752075   0.000139630005 -4.43689838e-05   0.000139630007 -4.43689844e-05      0.245571583     0.953119873
12.660392             0.23622669     0.955661396   0.000139805005  -4.4481354e-05   0.000139805006 -4.44813546e-05      0.245907046     0.953023939
12.66042             0.236556767     0.955570542   0.000139980252 -4.45939942e-05   0.000139980254 -4.45939948e-05      0.246242685     0.952927821
12.660448            0.236887017     0.955479513   0.000140155746 -4.47069051e-05   0.000140155748 -4.47069057e-05      0.246578501      0.95283152
12.660476            0.237217441     0.955388307   0.000140331489 -4.48200874e-05   0.000140331491  -4.4820088e-05      0.246914493     0.952735034
12.660504            0.237548038     0.955296925    0.00014050748 -4.49335417e-05   0.000140507482 -4.49335423e-05      0.247250662     0.952638363
12.660532            0.237878808     0.955205367    0.00014068372 -4.50472688e-05   0.000140683721 -4.50472694e-05      0.247587007     0.952541507
12.66056             0.238209752     0.955113631   0.000140860208 -4.51612693e-05    0.00014086021 -4.51612699e-05       0.24792353     0.952444466
12.660588             0.23854087     0.955021719   0.000141036946  -4.5275544e-05   0.000141036948 -4.52755446e-05      0.248260229      0.95234724
12.660616            0.238872162     0.954929629   0.000141213934 -4.53900935e-05   0.000141213935 -4.53900941e-05      0.248597106     0.952249827
12.660644            0.239203628     0.954837361   0.000141391171 -4.55049185e-05   0.000141391173 -4.55049191e-05       0.24893416     0.952152229
12.660672            0.239535268     0.954744915   0.000141568659 -4.56200197e-05   0.000141568661 -4.56200204e-05      0.249271391     0.952054444
12.6607              0.239867083     0.954652291   0.000141746398 -4.57353979e-05     0.0001417464 -4.57353985e-05        0.2496088     0.951956473
12.660728            0.240199072     0.954559489   0.000141924388 -4.58510537e-05    0.00014192439 -4.58510543e-05      0.249946386     0.951858314
12.660756            0.240531235     0.954466508    0.00014210263 -4.59669878e-05   0.000142102632 -4.59669884e-05      0.250284151     0.951759968
12.660784            0.240863573     0.954373347   0.000142281123 -4.60832009e-05   0.000142281125 -4.60832015e-05      0.250622093     0.951661435
12.660812            0.241196086     0.954280008   0.000142459869 -4.61996937e-05   0.000142459871 -4.61996943e-05      0.250960213     0.951562714
12.66084             0.241528773     0.954186488   0.000142638867  -4.6316467e-05   0.000142638869 -4.63164676e-05      0.251298511     0.951463804
12.660868            0.241861636     0.954092789   0.000142818118 -4.64335214e-05    0.00014281812 -4.64335221e-05      0.251636987     0.951364707
12.660896            0.242194674     0.953998909   0.000142997622 -4.65508577e-05   0.000142997624 -4.65508584e-05      0.251975642      0.95126542
12.660924            0.242527887     0.953904849    0.00014317738 -4.66684766e-05   0.000143177382 -4.66684772e-05      0.252314475     0.951165944
12.660952            0.242861275     0.953810608   0.000143357392 -4.67863788e-05   0.000143357394 -4.67863794e-05      0.252653487     0.951066279
12.66098             0.243194839     0.953716186   0.000143537658  -4.6904565e-05    0.00014353766 -4.69045656e-05      0.252992677     0.950966425
12.661008            0.243528579     0.953621583   0.000143718179 -4.70230359e-05   0.000143718181 -4.70230365e-05      0.253332047      0.95086638
12.661036            0.243862494     0.953526798   0.000143898955 -4.71417922e-05   0.000143898957 -4.71417929e-05      0.253671595     0.950766145
12.661064            0.244196585     0.953431831   0.000144079987 -4.72608347e-05   0.000144079988 -4.72608354e-05      0.254011322      0.95066572
12.661092            0.244530852     0.953336682   0.000144261274 -4.73801642e-05   0.000144261276 -4.73801648e-05      0.254351229     0.950565104
12.66112             0.244865296     0.953241351   0.000144442817 -4.74997812e-05   0.000144442819 -4.74997819e-05      0.254691315     0.950464296
12.661148            0.245199915     0.953145836   0.000144624617 -4.76196866e-05   0.000144624619 -4.76196873e-05       0.25503158     0.950363297
12.661176            0.245534711     0.953050139   0.000144806674 -4.77398811e-05   0.000144806676 -4.77398818e-05      0.255372025     0.950262107
12.661204            0.245869683     0.952954258   0.000144988988 -4.78603655e-05   0.000144988989 -4.78603661e-05      0.255712649     0.950160724
12.661232            0.246204832     0.952858194   0.000145171559 -4.79811403e-05   0.000145171561  -4.7981141e-05      0.256053454     0.950059149
12.66126             0.246540157     0.952761945   0.000145354389 -4.81022065e-05   0.000145354391 -4.81022071e-05      0.256394438     0.949957381
12.661288             0.24687566     0.952665513   0.000145537477 -4.82235647e-05   0.000145537478 -4.82235653e-05      0.256735602      0.94985542
12.661316            0.247211339     0.952568896   0.000145720823 -4.83452157e-05   0.000145720825 -4.83452163e-05      0.257076947     0.949753266
12.661344            0.247547195     0.952472094   0.000145904429 -4.84671602e-05    0.00014590443 -4.84671608e-05      0.257418471     0.949650919
12.661372            0.247883229     0.952375107   0.000146088293 -4.85893989e-05   0.000146088295 -4.85893996e-05      0.257760176     0.949548377
12.6614               0.24821944     0.952277934   0.000146272418 -4.87119327e-05    0.00014627242 -4.87119333e-05      0.258102062     0.949445642
12.661428            0.248555828     0.952180576   0.000146456803 -4.88347622e-05   0.000146456805 -4.88347629e-05      0.258444128     0.949342712
12.661456            0.248892394     0.952083032   0.000146641448 -4.89578883e-05    0.00014664145 -4.89578889e-05      0.258786375     0.949239587
12.661484            0.249229138     0.951985302   0.000146826355 -4.90813115e-05   0.000146826356 -4.90813122e-05      0.259128803     0.949136266
12.661512            0.249566059     0.951887385   0.000147011522 -4.92050329e-05   0.000147011524 -4.92050335e-05      0.259471412     0.949032751
12.66154             0.249903158     0.951789281   0.000147196951  -4.9329053e-05   0.000147196953 -4.93290536e-05      0.259814202      0.94892904
12.661568            0.250240436      0.95169099   0.000147382642 -4.94533726e-05   0.000147382644 -4.94533732e-05      0.260157173     0.948825132
12.661596            0.250577891     0.951592512   0.000147568595 -4.95779925e-05   0.000147568597 -4.95779932e-05      0.260500326     0.948721029
12.661624            0.250915525     0.951493846   0.000147754811 -4.97029135e-05   0.000147754813 -4.97029141e-05       0.26084366     0.948616728
12.661652            0.251253337     0.951394991    0.00014794129 -4.98281363e-05   0.000147941292 -4.98281369e-05      0.261187176     0.948512231
12.66168             0.251591328     0.951295949   0.000148128033 -4.99536617e-05   0.000148128034 -4.99536623e-05      0.261530873     0.948407536
12.661708            0.251929497     0.951196718   0.000148315039 -5.00794904e-05   0.000148315041 -5.00794911e-05      0.261874753     0.948302644
12.661736            0.252267846     0.951097298   0.000148502309 -5.02056233e-05   0.000148502311  -5.0205624e-05      0.262218814     0.948197554
12.661764            0.252606373     0.950997688   0.000148689844 -5.03320611e-05   0.000148689846 -5.03320618e-05      0.262563057     0.948092265
12.661792            0.252945079     0.950897889   0.000148877644 -5.04588046e-05   0.000148877646 -5.04588053e-05      0.262907483     0.947986778
12.66182             0.253283964     0.950797901   0.000149065709 -5.05858546e-05   0.000149065711 -5.05858552e-05      0.263252091     0.947881092
12.661848            0.253623029     0.950697722    0.00014925404 -5.07132118e-05   0.000149254042 -5.07132124e-05      0.263596881     0.947775207
12.661876            0.253962273     0.950597352   0.000149442637  -5.0840877e-05   0.000149442638 -5.08408776e-05      0.263941854     0.947669122
12.661904            0.254301696     0.950496792     0.0001496315  -5.0968851e-05   0.000149631501 -5.09688517e-05       0.26428701     0.947562838
12.661932            0.254641299     0.950396041   0.000149820629 -5.10971346e-05   0.000149820631 -5.10971353e-05      0.264632349     0.947456353
12.66196             0.254981082     0.950295099   0.000150010026 -5.12257286e-05   0.000150010028 -5.12257293e-05       0.26497787     0.947349668
12.661988            0.255321045     0.950193965   0.000150199691 -5.13546338e-05   0.000150199693 -5.13546344e-05      0.265323575     0.947242783
12.662016            0.255661188     0.950092639   0.000150389623 -5.14838509e-05   0.000150389625 -5.14838516e-05      0.265669462     0.947135696
12.662044             0.25600151      0.94999112   0.000150579824 -5.16133808e-05   0.000150579825 -5.16133814e-05      0.266015533     0.947028407
12.662072            0.256342014     0.949889409   0.000150770293 -5.17432242e-05   0.000150770294 -5.17432249e-05      0.266361788     0.946920917
12.6621              0.256682697     0.949787506   0.000150961031  -5.1873382e-05   0.000150961033 -5.18733827e-05      0.266708226     0.946813225
12.662128            0.257023561     0.949685409   0.000151152038  -5.2003855e-05    0.00015115204 -5.20038557e-05      0.267054847     0.946705331
12.662156            0.257364606     0.949583118   0.000151343315 -5.21346439e-05   0.000151343317 -5.21346446e-05      0.267401653     0.946597233
12.662184            0.257705831     0.949480634   0.000151534862 -5.22657496e-05   0.000151534864 -5.22657503e-05      0.267748642     0.946488933
12.662212            0.258047237     0.949377956    0.00015172668 -5.23971729e-05   0.000151726682 -5.23971735e-05      0.268095815     0.946380429
12.66224             0.258388825     0.949275083   0.000151918768 -5.25289145e-05    0.00015191877 -5.25289152e-05      0.268443173     0.946271722
12.662268            0.258730593     0.949172016   0.000152111128 -5.26609753e-05    0.00015211113  -5.2660976e-05      0.268790715     0.946162811
12.662296            0.259072542     0.949068753   0.000152303759 -5.27933562e-05   0.000152303761 -5.27933569e-05      0.269138441     0.946053695
12.662324            0.259414673     0.948965295   0.000152496663 -5.29260579e-05   0.000152496664 -5.29260585e-05      0.269486352     0.945944375
12.662352            0.259756986     0.948861642   0.000152689838 -5.30590812e-05    0.00015268984 -5.30590819e-05      0.269834447     0.945834849
12.66238              0.26009948     0.948757793   0.000152883286  -5.3192427e-05   0.000152883288 -5.31924277e-05      0.270182727     0.945725119
12.662408            0.260442155     0.948653747   0.000153077008  -5.3326096e-05   0.000153077009 -5.33260967e-05      0.270531192     0.945615183
12.662436            0.260785013     0.948549505   0.000153271002 -5.34600892e-05   0.000153271004 -5.34600899e-05      0.270879842      0.94550504
12.662464            0.261128052     0.948445066   0.000153465271 -5.35944074e-05   0.000153465273  -5.3594408e-05      0.271228678     0.945394692
12.662492            0.261471274     0.948340429   0.000153659814 -5.37290513e-05   0.000153659815 -5.37290519e-05      0.271577698     0.945284137
12.66252             0.261814678     0.948235595   0.000153854631 -5.38640218e-05   0.000153854633 -5.38640225e-05      0.271926904     0.945173375
12.662548            0.262158264     0.948130564   0.000154049723 -5.39993197e-05   0.000154049725 -5.39993204e-05      0.272276295     0.945062405
12.662576            0.262502033     0.948025334   0.000154245091 -5.41349459e-05   0.000154245093 -5.41349466e-05      0.272625872     0.944951228
12.662604            0.262845984     0.947919905   0.000154440734 -5.42709012e-05   0.000154440736 -5.42709019e-05      0.272975635     0.944839843
12.662632            0.263190118     0.947814278   0.000154636653 -5.44071865e-05   0.000154636655 -5.44071872e-05      0.273325583      0.94472825
12.66266             0.263534435     0.947708452   0.000154832849 -5.45438026e-05   0.000154832851 -5.45438033e-05      0.273675718     0.944616448
12.662688            0.263878934     0.947602426   0.000155029322 -5.46807503e-05   0.000155029324  -5.4680751e-05      0.274026038     0.944504437
12.662716            0.264223617     0.947496201   0.000155226072 -5.48180305e-05   0.000155226074 -5.48180312e-05      0.274376545     0.944392217
12.662744            0.264568483     0.947389775   0.000155423099  -5.4955644e-05   0.000155423101 -5.49556448e-05      0.274727238     0.944279787
12.662772            0.264913533     0.947283149   0.000155620405 -5.50935918e-05   0.000155620407 -5.50935925e-05      0.275078118     0.944167147
12.6628              0.265258765     0.947176323   0.000155817989 -5.52318746e-05    0.00015581799 -5.52318753e-05      0.275429184     0.944054297
12.662828            0.265604182     0.947069295   0.000156015851 -5.53704932e-05   0.000156015853  -5.5370494e-05      0.275780437     0.943941237
12.662856            0.265949782     0.946962066   0.000156213993 -5.55094487e-05   0.000156213995 -5.55094494e-05      0.276131876     0.943827965
12.662884            0.266295566     0.946854636   0.000156412414 -5.56487418e-05   0.000156412416 -5.56487425e-05      0.276483503     0.943714482
12.662912            0.266641533     0.946747003   0.000156611115 -5.57883733e-05   0.000156611117  -5.5788374e-05      0.276835317     0.943600787
12.66294             0.266987685     0.946639168   0.000156810096 -5.59283442e-05   0.000156810098  -5.5928345e-05      0.277187318     0.943486881
12.662968            0.267334021     0.946531131   0.000157009358 -5.60686554e-05    0.00015700936 -5.60686561e-05      0.277539506     0.943372762
12.662996            0.267680542      0.94642289   0.000157208901 -5.62093076e-05   0.000157208903 -5.62093083e-05      0.277891882      0.94325843
12.663024            0.268027246     0.946314447   0.000157408725 -5.63503018e-05   0.000157408727 -5.63503025e-05      0.278244445     0.943143886
12.663052            0.268374136     0.946205799   0.000157608831 -5.64916388e-05   0.000157608833 -5.64916396e-05      0.278597196     0.943029127
12.66308              0.26872121     0.946096948    0.00015780922 -5.66333196e-05   0.000157809221 -5.66333203e-05      0.278950135     0.942914156
12.663108            0.269068469     0.945987892    0.00015800989  -5.6775345e-05   0.000158009892 -5.67753457e-05      0.279303261      0.94279897
12.663136            0.269415912     0.945878632   0.000158210844 -5.69177158e-05   0.000158210846 -5.69177165e-05      0.279656576      0.94268357
12.663164            0.269763541     0.945769167   0.000158412081  -5.7060433e-05   0.000158412083 -5.70604337e-05      0.280010079     0.942567955
12.663192            0.270111355     0.945659497   0.000158613601 -5.72034975e-05   0.000158613603 -5.72034982e-05       0.28036377     0.942452125
12.66322             0.270459355     0.945549621   0.000158815406 -5.73469101e-05   0.000158815408 -5.73469108e-05       0.28071765     0.942336079
12.663248            0.270807539     0.945439539   0.000159017495 -5.74906717e-05   0.000159017497 -5.74906724e-05      0.281071718     0.942219818
12.663276             0.27115591     0.945329251   0.000159219869 -5.76347833e-05   0.000159219871  -5.7634784e-05      0.281425975     0.942103341
12.663304            0.271504466     0.945218756   0.000159422528 -5.77792457e-05    0.00015942253 -5.77792464e-05       0.28178042     0.941986647
12.663332            0.271853207     0.945108055   0.000159625473 -5.79240598e-05   0.000159625475 -5.79240606e-05      0.282135055     0.941869736
12.66336             0.272202135     0.944997146   0.000159828704 -5.80692266e-05   0.000159828706 -5.80692273e-05      0.282489878     0.941752609
12.663388            0.272551249     0.944886029   0.000160032221 -5.82147469e-05   0.000160032223 -5.82147476e-05      0.282844891     0.941635263
12.663416            0.272900549     0.944774705   0.000160236025 -5.83606217e-05   0.000160236027 -5.83606224e-05      0.283200093       0.9415177
12.663444            0.273250035     0.944663173   0.000160440116 -5.85068517e-05   0.000160440118 -5.85068525e-05      0.283555484     0.941399919
12.663472            0.273599707     0.944551432   0.000160644494 -5.86534381e-05   0.000160644496 -5.86534388e-05      0.283911065     0.941281919
12.6635              0.273949566     0.944439482   0.000160849161 -5.88003816e-05   0.000160849163 -5.88003824e-05      0.284266835       0.9411637
