! TOUCHSTONE file generated by CST MICROWAVE STUDIO
! Date and time: Wed Jul 31 17:15:51 2024
! Project name: WaveGuide_BPF-Ver4.1_U-shape_Ku_T3_C4_CWA_2.cst
! Parameters = {cavity_h=16; cavity_l0=10; cavity_l1=15.1802; cavity_l2=16.8472; cavity_l3=17.1051; cavity_l4=17.2406; cavity_l5=17.1155; cavity_l6=17.5807; cavity_r=2.5; cavity_screw_l=0.5; cavity_screw_r=1.5; cavity_w=8; iris_h00=0; iris_h01=8.8005; iris_h112=0; iris_h12=5.6124; iris_h211=3.6663; iris_h23=5.1923; iris_h310=3.9713; iris_h34=5.0868; iris_h45=4.927; iris_h49=4.6182; iris_h56=4.809; iris_h58=4.4414; iris_h67=6.5793; iris_rx=0.1; iris_screw_l=0.5; iris_screw_r=1.5; iris_shift00=0; iris_shift112=0; iris_shift211=3.5; iris_shift310=0; iris_shift49=0; iris_shift58=3.5; iris_shift67=3.5; iris_tx=4.5; iris_tz=4.5; iris_w00=0; iris_w112=0; iris_w211=4; iris_w310=3.9713; iris_w49=4.6182; iris_w58=4; iris_w67=4; mesh_cavity=5; mesh_iris=7; mesh_screw=7; order=12; reset_all=0; sigma=4.8e+07}
! Header version: 2018
! Port assignment regex: !\s*Touchstone port\s*([0-9]+)\s*=\s*(CST MWS port|CST DS port)\s*([0-9]+|Zmin|Zmax)\s*\(\"(.*)\"\)(\s*mode\s*([0-9]+))?.*
! Touchstone port assignment:
! Touchstone port 1 = CST MWS port 1 ("")
! Touchstone port 2 = CST MWS port 2 ("")
# GHz S RI R 50
12.66                  0.2143767     0.960298265   0.000212860845 -6.40322774e-05   0.000212860846 -6.40322776e-05      0.222549468     0.958416917
12.660028            0.214719547     0.960211061   0.000213168047 -6.42143855e-05   0.000213168048 -6.42143857e-05      0.222893374     0.958326331
12.660056            0.215062592      0.96012367   0.000213475767  -6.4396999e-05   0.000213475768 -6.43969992e-05      0.223237539     0.958235539
12.660084             0.21540584     0.960036088   0.000213784007 -6.45801175e-05   0.000213784008 -6.45801177e-05      0.223581939     0.958144546
12.660112            0.215749294     0.959948316   0.000214092769 -6.47637405e-05    0.00021409277 -6.47637407e-05      0.223926554     0.958053357
12.66014             0.216092958     0.959860351   0.000214402055 -6.49478676e-05   0.000214402056 -6.49478678e-05      0.224271362     0.957961975
12.660168            0.216436831     0.959772194   0.000214711867 -6.51325003e-05   0.000214711868 -6.51325005e-05      0.224616362     0.957870402
12.660196            0.216780912     0.959683845   0.000215022204 -6.53176414e-05   0.000215022205 -6.53176416e-05      0.224961569     0.957778633
12.660224            0.217125201     0.959595304   0.000215333067 -6.55032924e-05   0.000215333068 -6.55032926e-05      0.225306984     0.957686668
12.660252            0.217469698     0.959506569   0.000215644457 -6.56894548e-05   0.000215644458 -6.56894551e-05      0.225652607     0.957594507
12.66028             0.217814404     0.959417642   0.000215956376 -6.58761302e-05   0.000215956377 -6.58761304e-05      0.225998438     0.957502148
12.660308            0.218159318     0.959328521   0.000216268825   -6.606332e-05   0.000216268826 -6.60633202e-05      0.226344478     0.957409593
12.660336            0.218504441     0.959239206   0.000216581803 -6.62510258e-05   0.000216581804  -6.6251026e-05      0.226690725      0.95731684
12.660364            0.218849773     0.959149696   0.000216895313  -6.6439249e-05   0.000216895314 -6.64392493e-05      0.227037182     0.957223889
12.660392            0.219195313     0.959059992   0.000217209355 -6.66279914e-05   0.000217209356 -6.66279916e-05      0.227383847      0.95713074
12.66042             0.219541063     0.958970093   0.000217523931 -6.68172543e-05   0.000217523932 -6.68172545e-05      0.227730721     0.957037392
12.660448            0.219887023     0.958879999   0.000217839041 -6.70070394e-05   0.000217839042 -6.70070396e-05      0.228077805     0.956943845
12.660476            0.220233192     0.958789709   0.000218154686 -6.71973481e-05   0.000218154687 -6.71973484e-05      0.228425098     0.956850099
12.660504            0.220579571     0.958699224   0.000218470867 -6.73881821e-05   0.000218470868 -6.73881824e-05        0.2287726     0.956756153
12.660532             0.22092616     0.958608541   0.000218787586  -6.7579543e-05   0.000218787587 -6.75795432e-05      0.229120313     0.956662007
12.66056              0.22127296     0.958517662   0.000219104843 -6.77714322e-05   0.000219104844 -6.77714324e-05      0.229468235     0.956567661
12.660588             0.22161997     0.958426586   0.000219422639 -6.79638513e-05    0.00021942264 -6.79638516e-05      0.229816367     0.956473114
12.660616             0.22196719     0.958335313   0.000219740976  -6.8156802e-05   0.000219740977 -6.81568022e-05       0.23016471     0.956378366
12.660644            0.222314621     0.958243841   0.000220059854 -6.83502858e-05   0.000220059855  -6.8350286e-05      0.230513264     0.956283417
12.660672            0.222662264     0.958152172   0.000220379274 -6.85443043e-05   0.000220379275 -6.85443046e-05      0.230862028     0.956188265
12.6607              0.223010117     0.958060304   0.000220699238 -6.87388591e-05   0.000220699239 -6.87388594e-05      0.231211003     0.956092912
12.660728            0.223358182     0.957968237   0.000221019746 -6.89339518e-05   0.000221019747 -6.89339521e-05      0.231560189     0.955997356
12.660756            0.223706459     0.957875971   0.000221340799  -6.9129584e-05     0.0002213408 -6.91295843e-05      0.231909587     0.955901596
12.660784            0.224054947     0.957783506   0.000221662398 -6.93257573e-05   0.000221662399 -6.93257576e-05      0.232259196     0.955805634
12.660812            0.224403648      0.95769084   0.000221984545 -6.95224734e-05   0.000221984546 -6.95224736e-05      0.232609017     0.955709468
12.66084             0.224752561     0.957597974   0.000222307241 -6.97197338e-05   0.000222307242  -6.9719734e-05      0.232959049     0.955613098
12.660868            0.225101686     0.957504907   0.000222630486 -6.99175401e-05   0.000222630487 -6.99175404e-05      0.233309294     0.955516523
12.660896            0.225451023      0.95741164   0.000222954281 -7.01158941e-05   0.000222954282 -7.01158944e-05      0.233659751     0.955419744
12.660924            0.225800574     0.957318171   0.000223278628 -7.03147973e-05   0.000223278629 -7.03147976e-05      0.234010421     0.955322759
12.660952            0.226150337       0.9572245   0.000223603527 -7.05142514e-05   0.000223603528 -7.05142516e-05      0.234361303     0.955225569
12.66098             0.226500314     0.957130627    0.00022392898  -7.0714258e-05   0.000223928981 -7.07142582e-05      0.234712398     0.955128173
12.661008            0.226850504     0.957036551   0.000224254987 -7.09148188e-05   0.000224254988  -7.0914819e-05      0.235063706     0.955030571
12.661036            0.227200908     0.956942273    0.00022458155 -7.11159354e-05   0.000224581551 -7.11159357e-05      0.235415228     0.954932762
12.661064            0.227551525     0.956847791    0.00022490867 -7.13176095e-05   0.000224908671 -7.13176098e-05      0.235766963     0.954834747
12.661092            0.227902356     0.956753106   0.000225236347 -7.15198428e-05   0.000225236348 -7.15198431e-05      0.236118911     0.954736523
12.66112             0.228253402     0.956658217   0.000225564584 -7.17226369e-05   0.000225564585 -7.17226372e-05      0.236471074     0.954638092
12.661148            0.228604662     0.956563123   0.000225893379 -7.19259936e-05    0.00022589338 -7.19259939e-05       0.23682345     0.954539453
12.661176            0.228956137     0.956467825   0.000226222736 -7.21299145e-05   0.000226222737 -7.21299147e-05      0.237176041     0.954440606
12.661204            0.229307826     0.956372321   0.000226552654 -7.23344012e-05   0.000226552655 -7.23344015e-05      0.237528846     0.954341549
12.661232             0.22965973     0.956276612   0.000226883136 -7.25394556e-05   0.000226883137 -7.25394558e-05      0.237881866     0.954242283
12.66126              0.23001185     0.956180697   0.000227214181 -7.27450792e-05   0.000227214182 -7.27450795e-05      0.238235101     0.954142807
12.661288            0.230364184     0.956084576   0.000227545791 -7.29512739e-05   0.000227545792 -7.29512741e-05       0.23858855     0.954043122
12.661316            0.230716735     0.955988249   0.000227877968 -7.31580412e-05   0.000227877969 -7.31580415e-05      0.238942215     0.953943226
12.661344            0.231069501     0.955891714   0.000228210711  -7.3365383e-05   0.000228210712 -7.33653833e-05      0.239296095     0.953843119
12.661372            0.231422483     0.955794972   0.000228544023  -7.3573301e-05   0.000228544024 -7.35733012e-05      0.239650191     0.953742801
12.6614              0.231775682     0.955698022   0.000228877903 -7.37817968e-05   0.000228877904 -7.37817971e-05      0.240004503     0.953642271
12.661428            0.232129096     0.955600864   0.000229212355 -7.39908723e-05   0.000229212356 -7.39908725e-05      0.240359031      0.95354153
12.661456            0.232482727     0.955503498   0.000229547377 -7.42005291e-05   0.000229547378 -7.42005294e-05      0.240713774     0.953440576
12.661484            0.232836576     0.955405923   0.000229882972  -7.4410769e-05   0.000229882973 -7.44107693e-05      0.241068735     0.953339409
12.661512            0.233190641     0.955308138    0.00023021914 -7.46215939e-05   0.000230219141 -7.46215941e-05      0.241423912     0.953238029
12.66154             0.233544923     0.955210144   0.000230555883 -7.48330053e-05   0.000230555884 -7.48330056e-05      0.241779305     0.953136436
12.661568            0.233899422      0.95511194   0.000230893201 -7.50450051e-05   0.000230893202 -7.50450054e-05      0.242134916     0.953034628
12.661596            0.234254139     0.955013525   0.000231231096 -7.52575951e-05   0.000231231097 -7.52575953e-05      0.242490744     0.952932607
12.661624            0.234609074     0.954914899   0.000231569569  -7.5470777e-05    0.00023156957 -7.54707773e-05      0.242846789     0.952830371
12.661652            0.234964227     0.954816063    0.00023190862 -7.56845526e-05   0.000231908621 -7.56845529e-05      0.243203052     0.952727919
12.66168             0.235319598     0.954717014   0.000232248252 -7.58989237e-05   0.000232248253  -7.5898924e-05      0.243559533     0.952625252
12.661708            0.235675188     0.954617754   0.000232588464 -7.61138922e-05   0.000232588465 -7.61138924e-05      0.243916231      0.95252237
12.661736            0.236030996     0.954518281   0.000232929259 -7.63294597e-05    0.00023292926   -7.632946e-05      0.244273148     0.952419271
12.661764            0.236387023     0.954418596   0.000233270636 -7.65456281e-05   0.000233270637 -7.65456284e-05      0.244630284     0.952315955
12.661792            0.236743269     0.954318697   0.000233612598 -7.67623993e-05   0.000233612599 -7.67623995e-05      0.244987637     0.952212422
12.66182             0.237099734     0.954218585   0.000233955145  -7.6979775e-05   0.000233955146 -7.69797752e-05       0.24534521     0.952108672
12.661848            0.237456418     0.954118259   0.000234298279  -7.7197757e-05    0.00023429828 -7.71977573e-05      0.245703002     0.952004704
12.661876            0.237813322     0.954017719      0.000234642 -7.74163472e-05   0.000234642001 -7.74163475e-05      0.246061012     0.951900518
12.661904            0.238170446     0.953916964   0.000234986309 -7.76355474e-05   0.000234986311 -7.76355477e-05      0.246419242     0.951796113
12.661932             0.23852779     0.953815993   0.000235331209 -7.78553595e-05    0.00023533121 -7.78553598e-05      0.246777692     0.951691488
12.66196             0.238885354     0.953714808   0.000235676699 -7.80757854e-05     0.0002356767 -7.80757856e-05      0.247136362     0.951586645
12.661988            0.239243138     0.953613406   0.000236022781 -7.82968267e-05   0.000236022782  -7.8296827e-05      0.247495251     0.951481582
12.662016            0.239601144     0.953511788   0.000236369456 -7.85184855e-05   0.000236369457 -7.85184858e-05      0.247854361     0.951376298
12.662044            0.239959369     0.953409953   0.000236716724 -7.87407636e-05   0.000236716725 -7.87407639e-05      0.248213691     0.951270793
12.662072            0.240317816     0.953307902   0.000237064589 -7.89636629e-05    0.00023706459 -7.89636632e-05      0.248573242     0.951165068
12.6621              0.240676485     0.953205632   0.000237413049 -7.91871852e-05    0.00023741305 -7.91871855e-05      0.248933013     0.951059121
12.662128            0.241035374     0.953103145   0.000237762107 -7.94113324e-05   0.000237762108 -7.94113327e-05      0.249293006     0.950952952
12.662156            0.241394486     0.953000439   0.000238111763 -7.96361065e-05   0.000238111764 -7.96361068e-05      0.249653219     0.950846561
12.662184            0.241753819     0.952897515   0.000238462019 -7.98615093e-05    0.00023846202 -7.98615096e-05      0.250013654     0.950739947
12.662212            0.242113374     0.952794372   0.000238812875 -8.00875427e-05   0.000238812876 -8.00875429e-05      0.250374311      0.95063311
12.66224             0.242473151     0.952691009   0.000239164334 -8.03142086e-05   0.000239164335 -8.03142089e-05      0.250735189     0.950526049
12.662268            0.242833151     0.952587426   0.000239516395  -8.0541509e-05   0.000239516396 -8.05415092e-05       0.25109629     0.950418765
12.662296            0.243193374     0.952483623    0.00023986906 -8.07694457e-05   0.000239869062  -8.0769446e-05      0.251457613     0.950311256
12.662324             0.24355382     0.952379599   0.000240222331 -8.09980207e-05   0.000240222332  -8.0998021e-05      0.251819158     0.950203522
12.662352            0.243914488     0.952275353   0.000240576208  -8.1227236e-05   0.000240576209 -8.12272363e-05      0.252180925     0.950095563
12.66238              0.24427538     0.952170887   0.000240930692 -8.14570935e-05   0.000240930693 -8.14570938e-05      0.252542916     0.949987379
12.662408            0.244636495     0.952066198   0.000241285785 -8.16875951e-05   0.000241285786 -8.16875954e-05      0.252905129     0.949878968
12.662436            0.244997835     0.951961287   0.000241641488 -8.19187427e-05   0.000241641489  -8.1918743e-05      0.253267566     0.949770331
12.662464            0.245359398     0.951856153   0.000241997801 -8.21505384e-05   0.000241997803 -8.21505387e-05      0.253630226     0.949661467
12.662492            0.245721185     0.951750795   0.000242354727 -8.23829842e-05   0.000242354728 -8.23829845e-05       0.25399311     0.949552376
12.66252             0.246083196     0.951645215   0.000242712265 -8.26160819e-05   0.000242712266 -8.26160822e-05      0.254356218     0.949443057
12.662548            0.246445432      0.95153941   0.000243070418 -8.28498335e-05   0.000243070419 -8.28498338e-05       0.25471955      0.94933351
12.662576            0.246807893      0.95143338   0.000243429186 -8.30842412e-05   0.000243429187 -8.30842415e-05      0.255083105     0.949223734
12.662604            0.247170579     0.951327126   0.000243788571 -8.33193068e-05   0.000243788572 -8.33193071e-05      0.255446886      0.94911373
12.662632             0.24753349     0.951220646   0.000244148573 -8.35550323e-05   0.000244148574 -8.35550326e-05      0.255810891     0.949003496
12.66266             0.247896626     0.951113941   0.000244509194 -8.37914198e-05   0.000244509195 -8.37914201e-05      0.256175121     0.948893032
12.662688            0.248259988     0.951007009   0.000244870435 -8.40284713e-05   0.000244870436 -8.40284716e-05      0.256539576     0.948782338
12.662716            0.248623576     0.950899851   0.000245232298 -8.42661888e-05   0.000245232299 -8.42661891e-05      0.256904256     0.948671413
12.662744            0.248987389     0.950792466   0.000245594782 -8.45045743e-05   0.000245594783 -8.45045746e-05      0.257269162     0.948560257
12.662772            0.249351429     0.950684854    0.00024595789 -8.47436298e-05   0.000245957891 -8.47436301e-05      0.257634293     0.948448869
12.6628              0.249715696     0.950577013   0.000246321622 -8.49833575e-05   0.000246321623 -8.49833578e-05       0.25799965      0.94833725
12.662828            0.250080189     0.950468944    0.00024668598 -8.52237593e-05   0.000246685981 -8.52237596e-05      0.258365234     0.948225398
12.662856            0.250444908     0.950360647   0.000247050965 -8.54648373e-05   0.000247050966 -8.54648376e-05      0.258731044     0.948113313
12.662884            0.250809855      0.95025212   0.000247416578 -8.57065936e-05   0.000247416579 -8.57065939e-05       0.25909708     0.948000995
12.662912            0.251175029     0.950143364    0.00024778282 -8.59490302e-05   0.000247782821 -8.59490305e-05      0.259463343     0.947888443
12.66294             0.251540431     0.950034378   0.000248149693 -8.61921492e-05   0.000248149694 -8.61921495e-05      0.259829833     0.947775657
12.662968             0.25190606     0.949925162   0.000248517197 -8.64359528e-05   0.000248517198 -8.64359531e-05       0.26019655     0.947662637
12.662996            0.252271917     0.949815714   0.000248885334 -8.66804429e-05   0.000248885335 -8.66804432e-05      0.260563494     0.947549381
12.663024            0.252638003     0.949706036   0.000249254104 -8.69256217e-05   0.000249254105  -8.6925622e-05      0.260930666      0.94743589
12.663052            0.253004316     0.949596125    0.00024962351 -8.71714913e-05   0.000249623511 -8.71714916e-05      0.261298065     0.947322163
12.66308             0.253370859     0.949485983   0.000249993552 -8.74180538e-05   0.000249993553 -8.74180541e-05      0.261665693       0.9472082
12.663108            0.253737629     0.949375608   0.000250364231 -8.76653113e-05   0.000250364232 -8.76653116e-05      0.262033549        0.947094
12.663136            0.254104629        0.949265   0.000250735549 -8.79132659e-05    0.00025073555 -8.79132663e-05      0.262401633     0.946979562
12.663164            0.254471858     0.949154158   0.000251107506 -8.81619199e-05   0.000251107507 -8.81619202e-05      0.262769945     0.946864887
12.663192            0.254839317     0.949043082   0.000251480105 -8.84112752e-05   0.000251480106 -8.84112755e-05      0.263138487     0.946749974
12.66322             0.255207005     0.948931773   0.000251853345 -8.86613341e-05   0.000251853346 -8.86613345e-05      0.263507257     0.946634823
12.663248            0.255574923     0.948820228   0.000252227229 -8.89120988e-05    0.00025222723 -8.89120991e-05      0.263876257     0.946519432
12.663276             0.25594307     0.948708448   0.000252601758 -8.91635713e-05   0.000252601759 -8.91635716e-05      0.264245486     0.946403802
12.663304            0.256311449     0.948596432   0.000252976932 -8.94157538e-05   0.000252976933 -8.94157542e-05      0.264614945     0.946287932
12.663332            0.256680057     0.948484181   0.000253352753 -8.96686486e-05   0.000253352754 -8.96686489e-05      0.264984634     0.946171821
12.66336             0.257048896     0.948371692   0.000253729222 -8.99222578e-05   0.000253729223 -8.99222581e-05      0.265354552      0.94605547
12.663388            0.257417966     0.948258967    0.00025410634 -9.01765836e-05   0.000254106341 -9.01765839e-05      0.265724701     0.945938877
12.663416            0.257787268     0.948146004   0.000254484109 -9.04316282e-05    0.00025448411 -9.04316285e-05       0.26609508     0.945822043
12.663444              0.2581568     0.948032804   0.000254862529 -9.06873938e-05    0.00025486253 -9.06873941e-05       0.26646569     0.945704966
12.663472            0.258526564     0.947919365   0.000255241603 -9.09438826e-05   0.000255241604 -9.09438829e-05      0.266836531     0.945587647
12.6635               0.25889656     0.947805687    0.00025562133 -9.12010968e-05   0.000255621331 -9.12010972e-05      0.267207603     0.945470085
