! TOUCHSTONE file generated by CST MICROWAVE STUDIO
! Date and time: Wed Jul 31 17:18:58 2024
! Project name: WaveGuide_BPF-Ver4.1_U-shape_Ku_T3_C4_CWA_2.cst
! Parameters = {cavity_h=16; cavity_l0=10; cavity_l1=15.2212; cavity_l2=16.8653; cavity_l3=17.0657; cavity_l4=17.2244; cavity_l5=17.1333; cavity_l6=17.582; cavity_r=2.5; cavity_screw_l=0.5; cavity_screw_r=1.5; cavity_w=8; iris_h00=0; iris_h01=8.7999; iris_h112=0; iris_h12=5.6049; iris_h211=3.6529; iris_h23=5.2007; iris_h310=3.9653; iris_h34=5.0827; iris_h45=4.9304; iris_h49=4.6174; iris_h56=4.8098; iris_h58=4.4338; iris_h67=6.5922; iris_rx=0.1; iris_screw_l=0.5; iris_screw_r=1.5; iris_shift00=0; iris_shift112=0; iris_shift211=3.5; iris_shift310=0; iris_shift49=0; iris_shift58=3.5; iris_shift67=3.5; iris_tx=4.5; iris_tz=4.5; iris_w00=0; iris_w112=0; iris_w211=4; iris_w310=3.9653; iris_w49=4.6174; iris_w58=4; iris_w67=4; mesh_cavity=5; mesh_iris=7; mesh_screw=7; order=12; reset_all=0; sigma=4.8e+07}
! Header version: 2018
! Port assignment regex: !\s*Touchstone port\s*([0-9]+)\s*=\s*(CST MWS port|CST DS port)\s*([0-9]+|Zmin|Zmax)\s*\(\"(.*)\"\)(\s*mode\s*([0-9]+))?.*
! Touchstone port assignment:
! Touchstone port 1 = CST MWS port 1 ("")
! Touchstone port 2 = CST MWS port 2 ("")
# GHz S RI R 50
12.66                0.345222296     0.916274035   0.000311170355 -0.000146604618   0.000311170355 -0.000146604618      0.351578608     0.913827355
12.660028            0.345653775     0.916093793   0.000311641079 -0.000147020761   0.000311641079  -0.00014702076      0.352010586     0.913643359
12.660056            0.346085606     0.915913155   0.000312112575 -0.000147438134   0.000312112574 -0.000147438134      0.352442842     0.913458989
12.660084            0.346517754     0.915732133   0.000312584849 -0.000147856736   0.000312584849 -0.000147856736      0.352875374     0.913274245
12.660112            0.346950183     0.915550738   0.000313057909 -0.000148276567   0.000313057909 -0.000148276566      0.353308176     0.913089129
12.66014             0.347382859     0.915368984   0.000313531762 -0.000148697623   0.000313531761 -0.000148697623      0.353741244      0.91290364
12.660168            0.347815782      0.91518687   0.000314006408  -0.00014911991   0.000314006407  -0.00014911991       0.35417458     0.912717779
12.660196            0.348248975     0.915004385   0.000314481845 -0.000149543435   0.000314481844 -0.000149543435      0.354608185     0.912531544
12.660224             0.34868244     0.914821531   0.000314958074 -0.000149968201   0.000314958074 -0.000149968201       0.35504206     0.912344933
12.660252            0.349116175     0.914638304   0.000315435097 -0.000150394213   0.000315435097 -0.000150394213      0.355476205     0.912157946
12.66028             0.349550181     0.914454707   0.000315912915 -0.000150821475   0.000315912915 -0.000150821475       0.35591062     0.911970583
12.660308            0.349984458     0.914270736   0.000316391529 -0.000151249991   0.000316391529  -0.00015124999      0.356345306     0.911782842
12.660336            0.350419007     0.914086392    0.00031687094 -0.000151679764    0.00031687094 -0.000151679763      0.356780263     0.911594723
12.660364            0.350853827     0.913901674   0.000317351149 -0.000152110798   0.000317351149 -0.000152110798       0.35721549     0.911406226
12.660392             0.35128892      0.91371658   0.000317832158 -0.000152543099   0.000317832158 -0.000152543099      0.357650988     0.911217348
12.66042             0.351724284     0.913531112   0.000318313968 -0.000152976669   0.000318313968 -0.000152976669      0.358086758     0.911028091
12.660448             0.35215992     0.913345267    0.00031879658 -0.000153411513    0.00031879658 -0.000153411513      0.358522798     0.910838452
12.660476            0.352595829     0.913159044   0.000319279995 -0.000153847635   0.000319279995 -0.000153847635      0.358959111     0.910648431
12.660504             0.35303201     0.912972444   0.000319764215 -0.000154285039   0.000319764215 -0.000154285039      0.359395695     0.910458028
12.660532            0.353468464     0.912785466   0.000320249241 -0.000154723729    0.00032024924 -0.000154723729      0.359832551     0.910267241
12.66056             0.353905191     0.912598108   0.000320735073 -0.000155163709   0.000320735073 -0.000155163709      0.360269679     0.910076071
12.660588            0.354342191      0.91241037   0.000321221714 -0.000155604984   0.000321221714 -0.000155604983      0.360707079     0.909884515
12.660616            0.354779464     0.912222251   0.000321709164 -0.000156047556   0.000321709164 -0.000156047556      0.361144752     0.909692574
12.660644            0.355217011      0.91203375   0.000322197425 -0.000156491432   0.000322197425 -0.000156491432      0.361582697     0.909500246
12.660672            0.355654831     0.911844867   0.000322686498 -0.000156936614   0.000322686497 -0.000156936614      0.362020915     0.909307531
12.6607              0.356092925     0.911655601   0.000323176383 -0.000157383108   0.000323176383 -0.000157383108      0.362459406     0.909114429
12.660728            0.356531293     0.911465951   0.000323667083 -0.000157830916   0.000323667083 -0.000157830916       0.36289817     0.908920937
12.660756            0.356969935     0.911275917   0.000324158599 -0.000158280044   0.000324158599 -0.000158280044      0.363337207     0.908727056
12.660784            0.357408851     0.911085497   0.000324650931 -0.000158730496   0.000324650931 -0.000158730496      0.363776518     0.908532785
12.660812            0.357848042     0.910894691   0.000325144082 -0.000159182276   0.000325144081 -0.000159182275      0.364216102     0.908338123
12.66084             0.358287508     0.910703498   0.000325638051 -0.000159635387   0.000325638051 -0.000159635387       0.36465596     0.908143069
12.660868            0.358727248     0.910511918   0.000326132841 -0.000160089836   0.000326132841 -0.000160089835      0.365096092     0.907947623
12.660896            0.359167264     0.910319948   0.000326628453 -0.000160545625   0.000326628452 -0.000160545624      0.365536499     0.907751783
12.660924            0.359607555      0.91012759   0.000327124887 -0.000161002759   0.000327124887 -0.000161002758      0.365977179     0.907555549
12.660952            0.360048121     0.909934842   0.000327622146 -0.000161461242   0.000327622145 -0.000161461242      0.366418134      0.90735892
12.66098             0.360488963     0.909741703    0.00032812023 -0.000161921079   0.000328120229 -0.000161921079      0.366859364     0.907161895
12.661008             0.36093008     0.909548173    0.00032861914 -0.000162382274    0.00032861914 -0.000162382274      0.367300869     0.906964475
12.661036            0.361371473      0.90935425   0.000329118878 -0.000162844832   0.000329118878 -0.000162844831      0.367742648     0.906766656
12.661064            0.361813143     0.909159934   0.000329619446 -0.000163308756   0.000329619445 -0.000163308756      0.368184703      0.90656844
12.661092            0.362255089     0.908965224   0.000330120843 -0.000163774051   0.000330120843 -0.000163774051      0.368627033     0.906369825
12.66112             0.362697311      0.90877012   0.000330623072 -0.000164240723   0.000330623072 -0.000164240722      0.369069639      0.90617081
12.661148             0.36313981      0.90857462   0.000331126134 -0.000164708774   0.000331126133 -0.000164708774       0.36951252     0.905971395
12.661176            0.363582585     0.908378724   0.000331630029  -0.00016517821   0.000331630029 -0.000165178209      0.369955678     0.905771579
12.661204            0.364025638     0.908182431    0.00033213476 -0.000165649034    0.00033213476 -0.000165649034      0.370399111     0.905571361
12.661232            0.364468968      0.90798574   0.000332640327 -0.000166121252   0.000332640327 -0.000166121252      0.370842821      0.90537074
12.66126             0.364912575      0.90778865   0.000333146732 -0.000166594869   0.000333146731 -0.000166594868      0.371286807     0.905169715
12.661288             0.36535646     0.907591161   0.000333653975 -0.000167069887   0.000333653975 -0.000167069887      0.371731069     0.904968286
12.661316            0.365800622     0.907393272   0.000334162059 -0.000167546313   0.000334162058 -0.000167546312      0.372175608     0.904766452
12.661344            0.366245062     0.907194982   0.000334670984  -0.00016802415   0.000334670983 -0.000168024149      0.372620424     0.904564211
12.661372             0.36668978     0.906996291   0.000335180751 -0.000168503403   0.000335180751 -0.000168503403      0.373065518     0.904361564
12.6614              0.367134777     0.906797196   0.000335691362 -0.000168984077   0.000335691362 -0.000168984076      0.373510888     0.904158509
12.661428            0.367580052     0.906597698   0.000336202818 -0.000169466176   0.000336202818 -0.000169466175      0.373956536     0.903955046
12.661456            0.368025605     0.906397797    0.00033671512 -0.000169949704    0.00033671512 -0.000169949704      0.374402461     0.903751174
12.661484            0.368471437      0.90619749   0.000337228269 -0.000170434668   0.000337228269 -0.000170434667      0.374848665     0.903546891
12.661512            0.368917548     0.905996777   0.000337742268  -0.00017092107   0.000337742267  -0.00017092107      0.375295146     0.903342198
12.66154             0.369363938     0.905795658   0.000338257116 -0.000171408916   0.000338257115 -0.000171408916      0.375741905     0.903137093
12.661568            0.369810608     0.905594131   0.000338772815 -0.000171898211   0.000338772814 -0.000171898211      0.376188942     0.902931575
12.661596            0.370257557     0.905392196   0.000339289366 -0.000172388958   0.000339289366 -0.000172388958      0.376636258     0.902725644
12.661624            0.370704785     0.905189852   0.000339806771 -0.000172881164    0.00033980677 -0.000172881164      0.377083852     0.902519298
12.661652            0.371152293     0.904987098    0.00034032503 -0.000173374832    0.00034032503 -0.000173374832      0.377531726     0.902312538
12.66168             0.371600081     0.904783933   0.000340844146 -0.000173869967   0.000340844146 -0.000173869967      0.377979878     0.902105362
12.661708            0.372048149     0.904580357   0.000341364119 -0.000174366575   0.000341364118 -0.000174366574      0.378428309     0.901897769
12.661736            0.372496498     0.904376369    0.00034188495 -0.000174864659   0.000341884949 -0.000174864658      0.378877019     0.901689759
12.661764            0.372945127     0.904171967    0.00034240664 -0.000175364224    0.00034240664 -0.000175364224      0.379326009      0.90148133
12.661792            0.373394036     0.903967151   0.000342929192 -0.000175865277   0.000342929192 -0.000175865276      0.379775279     0.901272482
12.66182             0.373843227     0.903761921   0.000343452606  -0.00017636782   0.000343452605  -0.00017636782      0.380224828     0.901063214
12.661848            0.374292698     0.903556275   0.000343976883 -0.000176871859   0.000343976882 -0.000176871859      0.380674657     0.900853525
12.661876            0.374742451     0.903350212   0.000344502024 -0.000177377399   0.000344502024 -0.000177377399      0.381124766     0.900643415
12.661904            0.375192484     0.903143732   0.000345028031 -0.000177884445   0.000345028031 -0.000177884445      0.381575156     0.900432882
12.661932              0.3756428     0.902936834   0.000345554905 -0.000178393002   0.000345554905 -0.000178393002      0.382025826     0.900221925
12.66196             0.376093397     0.902729517   0.000346082648 -0.000178903074   0.000346082647 -0.000178903074      0.382476776     0.900010545
12.661988            0.376544275      0.90252178    0.00034661126 -0.000179414667   0.000346611259 -0.000179414667      0.382928007     0.899798739
12.662016            0.376995436     0.902313622   0.000347140742 -0.000179927785   0.000347140741 -0.000179927785      0.383379519     0.899586507
12.662044            0.377446879     0.902105043   0.000347671096 -0.000180442434   0.000347671096 -0.000180442434      0.383831312     0.899373848
12.662072            0.377898604     0.901896042   0.000348202323 -0.000180958618   0.000348202323 -0.000180958618      0.384283387     0.899160762
12.6621              0.378350612     0.901686617   0.000348734425 -0.000181476342   0.000348734424 -0.000181476342      0.384735742     0.898947247
12.662128            0.378802902     0.901476768   0.000349267401 -0.000181995612   0.000349267401 -0.000181995612       0.38518838     0.898733303
12.662156            0.379255475     0.901266494   0.000349801255 -0.000182516432   0.000349801255 -0.000182516432      0.385641299     0.898518928
12.662184            0.379708331     0.901055795   0.000350335986 -0.000183038808   0.000350335986 -0.000183038808        0.3860945     0.898304122
12.662212            0.380161471     0.900844668   0.000350871597 -0.000183562744   0.000350871597 -0.000183562744      0.386547983     0.898088885
12.66224             0.380614893     0.900633115   0.000351408088 -0.000184088246   0.000351408088 -0.000184088246      0.387001748     0.897873214
12.662268              0.3810686     0.900421133    0.00035194546 -0.000184615318    0.00035194546 -0.000184615318      0.387455795      0.89765711
12.662296            0.381522589     0.900208721   0.000352483716 -0.000185143967   0.000352483715 -0.000185143966      0.387910125     0.897440571
12.662324            0.381976863      0.89999588   0.000353022855 -0.000185674196   0.000353022854 -0.000185674196      0.388364738     0.897223596
12.662352            0.382431421     0.899782607   0.000353562879 -0.000186206011   0.000353562879 -0.000186206011      0.388819634     0.897006185
12.66238             0.382886262     0.899568903    0.00035410379 -0.000186739418   0.000354103789 -0.000186739418      0.389274812     0.896788337
12.662408            0.383341388     0.899354766   0.000354645588 -0.000187274421   0.000354645588 -0.000187274421      0.389730274     0.896570051
12.662436            0.383796799     0.899140195   0.000355188275 -0.000187811026   0.000355188275 -0.000187811026      0.390186019     0.896351326
12.662464            0.384252494      0.89892519   0.000355731852 -0.000188349238   0.000355731852 -0.000188349238      0.390642047     0.896132161
12.662492            0.384708474      0.89870975    0.00035627632 -0.000188889062    0.00035627632 -0.000188889062      0.391098359     0.895912555
12.66252             0.385164739     0.898493873   0.000356821681 -0.000189430504   0.000356821681 -0.000189430504      0.391554955     0.895692507
12.662548            0.385621289     0.898277559   0.000357367935 -0.000189973568   0.000357367935 -0.000189973568      0.392011835     0.895472017
12.662576            0.386078125     0.898060807   0.000357915084  -0.00019051826   0.000357915084  -0.00019051826      0.392468999     0.895251083
12.662604            0.386535246     0.897843617   0.000358463129 -0.000191064586   0.000358463129 -0.000191064586      0.392926447     0.895029705
12.662632            0.386992652     0.897625986   0.000359012072 -0.000191612551   0.000359012071  -0.00019161255       0.39338418     0.894807881
12.66266             0.387450344     0.897407915   0.000359561912 -0.000192162159   0.000359561912 -0.000192162159      0.393842197     0.894585612
12.662688            0.387908323     0.897189403   0.000360112653 -0.000192713417   0.000360112652 -0.000192713417      0.394300499     0.894362895
12.662716            0.388366587     0.896970447   0.000360664294  -0.00019326633   0.000360664294  -0.00019326633      0.394759086      0.89413973
12.662744            0.388825137     0.896751049   0.000361216837 -0.000193820903   0.000361216837 -0.000193820903      0.395217958     0.893916117
12.662772            0.389283974     0.896531206   0.000361770283 -0.000194377142   0.000361770283 -0.000194377142      0.395677115     0.893692053
12.6628              0.389743098     0.896310918   0.000362324634 -0.000194935052   0.000362324634 -0.000194935052      0.396136557     0.893467539
12.662828            0.390202508     0.896090184    0.00036287989 -0.000195494639    0.00036287989 -0.000195494639      0.396596285     0.893242573
12.662856            0.390662206     0.895869003   0.000363436053 -0.000196055908   0.000363436053 -0.000196055907      0.397056299     0.893017155
12.662884             0.39112219     0.895647375   0.000363993125 -0.000196618864   0.000363993124 -0.000196618864      0.397516598     0.892791283
12.662912            0.391582462     0.895425297   0.000364551105 -0.000197183514   0.000364551104 -0.000197183514      0.397977183     0.892564957
12.66294              0.39204302      0.89520277   0.000365109995 -0.000197749863   0.000365109995 -0.000197749862      0.398438055     0.892338175
12.662968            0.392503867     0.894979792   0.000365669797 -0.000198317915   0.000365669797 -0.000198317915      0.398899212     0.892110937
12.662996            0.392965001     0.894756362   0.000366230512 -0.000198887678   0.000366230512 -0.000198887678      0.399360657     0.891883242
12.663024            0.393426423     0.894532481   0.000366792141 -0.000199459157    0.00036679214 -0.000199459156      0.399822387     0.891655089
12.663052            0.393888133     0.894308145   0.000367354684 -0.000200032356   0.000367354684 -0.000200032356      0.400284405     0.891426477
12.66308             0.394350131     0.894083356   0.000367918144 -0.000200607283   0.000367918144 -0.000200607283      0.400746709     0.891197405
12.663108            0.394812418     0.893858111   0.000368482522 -0.000201183942   0.000368482522 -0.000201183942        0.4012093     0.890967872
12.663136            0.395274993      0.89363241   0.000369047818 -0.000201762339   0.000369047818 -0.000201762339      0.401672179     0.890737877
12.663164            0.395737856     0.893406252   0.000369614034  -0.00020234248   0.000369614033  -0.00020234248      0.402135344     0.890507419
12.663192            0.396201009     0.893179636    0.00037018117 -0.000202924371    0.00037018117 -0.000202924371      0.402598797     0.890276498
12.66322              0.39666445     0.892952561   0.000370749229 -0.000203508017   0.000370749229 -0.000203508017      0.403062538     0.890045111
12.663248            0.397128181     0.892725026   0.000371318212 -0.000204093425   0.000371318211 -0.000204093425      0.403526567      0.88981326
12.663276              0.3975922      0.89249703   0.000371888118   -0.0002046806   0.000371888118 -0.000204680599      0.403990883     0.889580941
12.663304            0.398056509     0.892268573   0.000372458951 -0.000205269547    0.00037245895 -0.000205269547      0.404455488     0.889348155
12.663332            0.398521108     0.892039652    0.00037303071 -0.000205860273   0.000373030709 -0.000205860273       0.40492038     0.889114901
12.66336             0.398985996     0.891810268   0.000373603397 -0.000206452784   0.000373603396 -0.000206452784      0.405385562     0.888881177
12.663388            0.399451175      0.89158042   0.000374177013 -0.000207047085   0.000374177013 -0.000207047085      0.405851031     0.888646982
12.663416            0.399916643     0.891350106   0.000374751559 -0.000207643183   0.000374751559 -0.000207643182      0.406316789     0.888412316
12.663444            0.400382401     0.891119325   0.000375327037 -0.000208241082   0.000375327037 -0.000208241082      0.406782836     0.888177178
12.663472             0.40084845     0.890888077   0.000375903448  -0.00020884079   0.000375903448  -0.00020884079      0.407249172     0.887941567
12.6635              0.401314789     0.890656361   0.000376480792 -0.000209442312   0.000376480792 -0.000209442312      0.407715797     0.887705481
