! TOUCHSTONE file generated by CST MICROWAVE STUDIO
! Date and time: Wed Jul 31 17:22:06 2024
! Project name: WaveGuide_BPF-Ver4.1_U-shape_Ku_T3_C4_CWA_2.cst
! Parameters = {cavity_h=16; cavity_l0=10; cavity_l1=15.1932; cavity_l2=16.8266; cavity_l3=17.1368; cavity_l4=17.2857; cavity_l5=17.1257; cavity_l6=17.623; cavity_r=2.5; cavity_screw_l=0.5; cavity_screw_r=1.5; cavity_w=8; iris_h00=0; iris_h01=8.8338; iris_h112=0; iris_h12=5.5968; iris_h211=3.668; iris_h23=5.208; iris_h310=3.9601; iris_h34=5.0924; iris_h45=4.92; iris_h49=4.6172; iris_h56=4.7948; iris_h58=4.4325; iris_h67=6.5742; iris_rx=0.1; iris_screw_l=0.5; iris_screw_r=1.5; iris_shift00=0; iris_shift112=0; iris_shift211=3.5; iris_shift310=0; iris_shift49=0; iris_shift58=3.5; iris_shift67=3.5; iris_tx=4.5; iris_tz=4.5; iris_w00=0; iris_w112=0; iris_w211=4; iris_w310=3.9601; iris_w49=4.6172; iris_w58=4; iris_w67=4; mesh_cavity=5; mesh_iris=7; mesh_screw=7; order=12; reset_all=0; sigma=4.8e+07}
! Header version: 2018
! Port assignment regex: !\s*Touchstone port\s*([0-9]+)\s*=\s*(CST MWS port|CST DS port)\s*([0-9]+|Zmin|Zmax)\s*\(\"(.*)\"\)(\s*mode\s*([0-9]+))?.*
! Touchstone port assignment:
! Touchstone port 1 = CST MWS port 1 ("")
! Touchstone port 2 = CST MWS port 2 ("")
# GHz S RI R 50
12.66                0.350248483     0.915853976   0.000206039694  -9.5114189e-05   0.000206039694 -9.51141893e-05      0.353670838     0.914584073
12.660028            0.350651655     0.915685115   0.000206300643 -9.53507637e-05   0.000206300644  -9.5350764e-05      0.354073116      0.91441382
12.660056             0.35105502     0.915515951   0.000206561921  -9.5587924e-05   0.000206561922 -9.55879243e-05      0.354475681     0.914243228
12.660084             0.35145859     0.915346481   0.000206823529 -9.58256699e-05   0.000206823529 -9.58256702e-05      0.354878505     0.914072308
12.660112            0.351862379     0.915176698   0.000207085468 -9.60640014e-05   0.000207085469 -9.60640017e-05       0.35528156     0.913901071
12.66014             0.352266398     0.915006599    0.00020734774 -9.63029185e-05   0.000207347741 -9.63029188e-05      0.355684818     0.913729525
12.660168            0.352670646     0.914836182   0.000207610346 -9.65424227e-05   0.000207610347 -9.65424229e-05      0.356088279     0.913557671
12.660196            0.353075118      0.91466545   0.000207873285 -9.67825163e-05   0.000207873286 -9.67825166e-05       0.35649196     0.913385501
12.660224            0.353479811     0.914494402   0.000208136557  -9.7023201e-05   0.000208136558 -9.70232013e-05      0.356895864     0.913213015
12.660252            0.353884727     0.914323038   0.000208400162 -9.72644783e-05   0.000208400163 -9.72644786e-05       0.35729999     0.913040211
12.66028             0.354289866     0.914151358   0.000208664101 -9.75063496e-05   0.000208664101 -9.75063499e-05      0.357704338      0.91286709
12.660308            0.354695227      0.91397936   0.000208928373 -9.77488164e-05   0.000208928374 -9.77488167e-05      0.358108907      0.91269365
12.660336            0.355100811     0.913807044   0.000209192979 -9.79918803e-05    0.00020919298 -9.79918806e-05        0.3585137     0.912519892
12.660364            0.355506618      0.91363441    0.00020945792 -9.82355428e-05    0.00020945792  -9.8235543e-05      0.358918714     0.912345814
12.660392            0.355912649     0.913461457   0.000209723194 -9.84798053e-05   0.000209723195 -9.84798056e-05      0.359323951     0.912171416
12.66042             0.356318902     0.913288185   0.000209988804 -9.87246694e-05   0.000209988804 -9.87246697e-05      0.359729411     0.911996698
12.660448            0.356725379     0.913114592   0.000210254748 -9.89701367e-05   0.000210254749  -9.8970137e-05      0.360135093     0.911821659
12.660476            0.357132079     0.912940679   0.000210521027 -9.92162086e-05   0.000210521028 -9.92162089e-05      0.360540998     0.911646298
12.660504            0.357539003     0.912766445   0.000210787642 -9.94628867e-05   0.000210787642 -9.94628869e-05      0.360947126     0.911470616
12.660532             0.35794615     0.912591888   0.000211054592 -9.97101725e-05   0.000211054592 -9.97101728e-05      0.361353478      0.91129461
12.66056             0.358353521      0.91241701   0.000211321878 -9.99580675e-05   0.000211321878 -9.99580678e-05      0.361760052     0.911118281
12.660588            0.358761117     0.912241808   0.000211589499 -0.000100206573     0.0002115895 -0.000100206574       0.36216685     0.910941628
12.660616            0.359168936     0.912066284   0.000211857457 -0.000100455692   0.000211857458 -0.000100455692      0.362573871     0.910764651
12.660644            0.359576979     0.911890435   0.000212125751 -0.000100705424   0.000212125752 -0.000100705424      0.362981116     0.910587349
12.660672            0.359985247     0.911714261   0.000212394382 -0.000100955771   0.000212394383 -0.000100955772      0.363388584     0.910409721
12.6607              0.360393739     0.911537763    0.00021266335 -0.000101206736    0.00021266335 -0.000101206736      0.363796277     0.910231767
12.660728            0.360802455     0.911360938   0.000212932654 -0.000101458319   0.000212932655 -0.000101458319      0.364204193     0.910053487
12.660756            0.361211396     0.911183788   0.000213202296 -0.000101710522   0.000213202297 -0.000101710523      0.364612333     0.909874879
12.660784            0.361620562      0.91100631   0.000213472275 -0.000101963347   0.000213472276 -0.000101963347      0.365020697     0.909695943
12.660812            0.362029952     0.910828505   0.000213742592 -0.000102216795   0.000213742593 -0.000102216796      0.365429286     0.909516679
12.66084             0.362439568     0.910650372   0.000214013247 -0.000102470869   0.000214013247 -0.000102470869      0.365838098     0.909337086
12.660868            0.362849408     0.910471911   0.000214284239 -0.000102725568    0.00021428424 -0.000102725568      0.366247136     0.909157163
12.660896            0.363259474      0.91029312    0.00021455557 -0.000102980896   0.000214555571 -0.000102980896      0.366656398      0.90897691
12.660924            0.363669765     0.910113999    0.00021482724 -0.000103236853    0.00021482724 -0.000103236853      0.367065884     0.908796326
12.660952            0.364080281     0.909934549   0.000215099248 -0.000103493441   0.000215099248 -0.000103493442      0.367475596     0.908615411
12.66098             0.364491023     0.909754767   0.000215371594 -0.000103750662   0.000215371595 -0.000103750663      0.367885532     0.908434164
12.661008            0.364901991     0.909574654    0.00021564428 -0.000104008518   0.000215644281 -0.000104008518      0.368295693     0.908252585
12.661036            0.365313184     0.909394208   0.000215917305  -0.00010426701   0.000215917306  -0.00010426701       0.36870608     0.908070672
12.661064            0.365724603      0.90921343    0.00021619067 -0.000104526139   0.000216190671 -0.000104526139      0.369116691     0.907888426
12.661092            0.366136248     0.909032319   0.000216464374 -0.000104785907   0.000216464375 -0.000104785908      0.369527528     0.907705845
12.66112             0.366548119     0.908850874   0.000216738418 -0.000105046317   0.000216738419 -0.000105046317      0.369938591      0.90752293
12.661148            0.366960217     0.908669094   0.000217012802 -0.000105307368   0.000217012803 -0.000105307369      0.370349879     0.907339679
12.661176             0.36737254      0.90848698   0.000217287526 -0.000105569064   0.000217287527 -0.000105569064      0.370761393     0.907156092
12.661204             0.36778509     0.908304529   0.000217562591 -0.000105831406   0.000217562591 -0.000105831406      0.371173133     0.906972168
12.661232            0.368197867     0.908121743   0.000217837996 -0.000106094395   0.000217837996 -0.000106094395      0.371585098     0.906787907
12.66126              0.36861087      0.90793862   0.000218113742 -0.000106358033   0.000218113742 -0.000106358033       0.37199729     0.906603309
12.661288              0.3690241     0.907755159   0.000218389828 -0.000106622321   0.000218389829 -0.000106622321      0.372409708     0.906418372
12.661316            0.369437557      0.90757136   0.000218666256 -0.000106887262   0.000218666257 -0.000106887262      0.372822352     0.906233096
12.661344             0.36985124     0.907387223   0.000218943025 -0.000107152857   0.000218943026 -0.000107152857      0.373235222      0.90604748
12.661372            0.370265151     0.907202747   0.000219220136 -0.000107419107   0.000219220137 -0.000107419107      0.373648319     0.905861524
12.6614              0.370679289     0.907017931   0.000219497588 -0.000107686014   0.000219497589 -0.000107686015      0.374061643     0.905675227
12.661428            0.371093654     0.906832774   0.000219775382 -0.000107953581   0.000219775383 -0.000107953581      0.374475193     0.905488589
12.661456            0.371508247     0.906647277   0.000220053518 -0.000108221808   0.000220053519 -0.000108221808       0.37488897     0.905301609
12.661484            0.371923067     0.906461437   0.000220331996 -0.000108490697   0.000220331997 -0.000108490697      0.375302974     0.905114286
12.661512            0.372338115     0.906275256   0.000220610817  -0.00010876025   0.000220610817  -0.00010876025      0.375717205     0.904926619
12.66154             0.372753391     0.906088732    0.00022088998 -0.000109030469    0.00022088998 -0.000109030469      0.376131663     0.904738609
12.661568            0.373168894     0.905901864   0.000221169485 -0.000109301354   0.000221169486 -0.000109301355      0.376546349     0.904550255
12.661596            0.373584626     0.905714653   0.000221449334 -0.000109572909   0.000221449334  -0.00010957291      0.376961261     0.904361555
12.661624            0.374000585     0.905527096   0.000221729525 -0.000109845135   0.000221729526 -0.000109845135      0.377376402      0.90417251
12.661652            0.374416773     0.905339195    0.00022201006 -0.000110118033    0.00022201006 -0.000110118033      0.377791769     0.903983118
12.66168             0.374833189     0.905150947   0.000222290938 -0.000110391604   0.000222290938 -0.000110391605      0.378207365      0.90379338
12.661708            0.375249833     0.904962353   0.000222572159 -0.000110665852    0.00022257216 -0.000110665852      0.378623188     0.903603294
12.661736            0.375666706     0.904773413   0.000222853724 -0.000110940777   0.000222853725 -0.000110940777      0.379039239      0.90341286
12.661764            0.376083807     0.904584124   0.000223135633 -0.000111216381   0.000223135633 -0.000111216381      0.379455519     0.903222077
12.661792            0.376501137     0.904394487   0.000223417885 -0.000111492666   0.000223417886 -0.000111492666      0.379872026     0.903030944
12.66182             0.376918696     0.904204501   0.000223700482 -0.000111769633   0.000223700483 -0.000111769633      0.380288761     0.902839462
12.661848            0.377336484     0.904014166   0.000223983423 -0.000112047285   0.000223983424 -0.000112047285      0.380705725     0.902647629
12.661876            0.377754501      0.90382348   0.000224266708 -0.000112325622   0.000224266709 -0.000112325623      0.381122918     0.902455444
12.661904            0.378172747     0.903632443   0.000224550338 -0.000112604648   0.000224550339 -0.000112604648      0.381540339     0.902262908
12.661932            0.378591223     0.903441055   0.000224834313 -0.000112884363   0.000224834313 -0.000112884363      0.381957988     0.902070019
12.66196             0.379009927     0.903249316   0.000225118632 -0.000113164769   0.000225118632 -0.000113164769      0.382375866     0.901876777
12.661988            0.379428862     0.903057223   0.000225403296 -0.000113445868   0.000225403297 -0.000113445868      0.382793974     0.901683182
12.662016            0.379848025     0.902864777   0.000225688305 -0.000113727662   0.000225688306 -0.000113727662       0.38321231     0.901489232
12.662044            0.380267419     0.902671977    0.00022597366 -0.000114010152    0.00022597366 -0.000114010152      0.383630875     0.901294926
12.662072            0.380687042     0.902478823    0.00022625936 -0.000114293341    0.00022625936 -0.000114293341      0.384049669     0.901100266
12.6621              0.381106895     0.902285313   0.000226545405 -0.000114577229   0.000226545405 -0.000114577229      0.384468693     0.900905249
12.662128            0.381526978     0.902091447   0.000226831796 -0.000114861819   0.000226831796 -0.000114861819      0.384887946     0.900709874
12.662156            0.381947291     0.901897225   0.000227118532 -0.000115147113   0.000227118533 -0.000115147113      0.385307428     0.900514143
12.662184            0.382367834     0.901702646   0.000227405615 -0.000115433112   0.000227405615 -0.000115433112      0.385727141     0.900318053
12.662212            0.382788608     0.901507709   0.000227693043 -0.000115719817   0.000227693044 -0.000115719818      0.386147082     0.900121604
12.66224             0.383209612     0.901312414   0.000227980818 -0.000116007232   0.000227980818 -0.000116007232      0.386567254     0.899924796
12.662268            0.383630846      0.90111676   0.000228268939 -0.000116295357   0.000228268939 -0.000116295358      0.386987656     0.899727628
12.662296            0.384052312     0.900920746   0.000228557406 -0.000116584195   0.000228557406 -0.000116584196      0.387408287     0.899530098
12.662324            0.384474008     0.900724372   0.000228846219 -0.000116873747    0.00022884622 -0.000116873747      0.387829149     0.899332208
12.662352            0.384895934     0.900527636   0.000229135379 -0.000117164015    0.00022913538 -0.000117164015      0.388250241     0.899133955
12.66238             0.385318092      0.90033054   0.000229424886 -0.000117455001   0.000229424887 -0.000117455001      0.388671563      0.89893534
12.662408             0.38574048     0.900133081    0.00022971474 -0.000117746706    0.00022971474 -0.000117746706      0.389093115     0.898736361
12.662436              0.3861631     0.899935259    0.00023000494 -0.000118039133   0.000230004941 -0.000118039133      0.389514899     0.898537018
12.662464            0.386585951     0.899737073   0.000230295488 -0.000118332283   0.000230295488 -0.000118332283      0.389936912      0.89833731
12.662492            0.387009034     0.899538523   0.000230586382 -0.000118626157   0.000230586383 -0.000118626158      0.390359157     0.898137238
12.66252             0.387432347     0.899339609   0.000230877624 -0.000118920759   0.000230877625  -0.00011892076      0.390781632     0.897936799
12.662548            0.387855893     0.899140329   0.000231169213  -0.00011921609   0.000231169214  -0.00011921609      0.391204339     0.897735993
12.662576            0.388279669     0.898940683    0.00023146115 -0.000119512151   0.000231461151 -0.000119512151      0.391627276      0.89753482
12.662604            0.388703678      0.89874067   0.000231753434 -0.000119808944   0.000231753435 -0.000119808944      0.392050444      0.89733328
12.662632            0.389127919     0.898540289   0.000232046065 -0.000120106471   0.000232046066 -0.000120106472      0.392473844      0.89713137
12.66266             0.389552391      0.89833954   0.000232339045 -0.000120404735   0.000232339045 -0.000120404735      0.392897475     0.896929091
12.662688            0.389977095     0.898138423   0.000232632372 -0.000120703736   0.000232632372 -0.000120703737      0.393321337     0.896726443
12.662716            0.390402032     0.897936936   0.000232926047 -0.000121003477   0.000232926047 -0.000121003478      0.393745431     0.896523423
12.662744            0.390827201     0.897735079    0.00023322007  -0.00012130396    0.00023322007  -0.00012130396      0.394169757     0.896320033
12.662772            0.391252602     0.897532851    0.00023351444 -0.000121605186   0.000233514441 -0.000121605187      0.394594314      0.89611627
12.6628              0.391678236     0.897330252   0.000233809159 -0.000121907158    0.00023380916 -0.000121907158      0.395019103     0.895912135
12.662828            0.392104102     0.897127281   0.000234104226 -0.000122209876   0.000234104227 -0.000122209877      0.395444124     0.895707627
12.662856              0.3925302     0.896923937   0.000234399642 -0.000122513344   0.000234399642 -0.000122513345      0.395869377     0.895502744
12.662884            0.392956532     0.896720219   0.000234695405 -0.000122817563   0.000234695406 -0.000122817563      0.396294862     0.895297487
12.662912            0.393383096     0.896516127   0.000234991518 -0.000123122534   0.000234991518 -0.000123122535       0.39672058     0.895091855
12.66294             0.393809893     0.896311661   0.000235287978 -0.000123428261   0.000235287979 -0.000123428261       0.39714653     0.894885846
12.662968            0.394236924     0.896106819   0.000235584787 -0.000123734743   0.000235584788 -0.000123734744      0.397572712     0.894679461
12.662996            0.394664187     0.895901601   0.000235881945 -0.000124041985   0.000235881945 -0.000124041985      0.397999126     0.894472699
12.663024            0.395091683     0.895696006   0.000236179451 -0.000124349986   0.000236179452 -0.000124349987      0.398425774     0.894265559
12.663052            0.395519413     0.895490033   0.000236477306  -0.00012465875   0.000236477306 -0.000124658751      0.398852653      0.89405804
12.66308             0.395947376     0.895283682   0.000236775509 -0.000124968279    0.00023677551 -0.000124968279      0.399279766     0.893850141
12.663108            0.396375573     0.895076953   0.000237074062 -0.000125278573   0.000237074063 -0.000125278573      0.399707112     0.893641862
12.663136            0.396804004     0.894869844   0.000237372963 -0.000125589636   0.000237372964 -0.000125589636       0.40013469     0.893433203
12.663164            0.397232668     0.894662354   0.000237672214 -0.000125901468   0.000237672214 -0.000125901468      0.400562502     0.893224162
12.663192            0.397661565     0.894454484   0.000237971813 -0.000126214072   0.000237971813 -0.000126214073      0.400990547     0.893014739
12.66322             0.398090697     0.894246232   0.000238271761  -0.00012652745   0.000238271762 -0.000126527451      0.401418825     0.892804933
12.663248            0.398520063     0.894037598   0.000238572058 -0.000126841604   0.000238572059 -0.000126841605      0.401847336     0.892594744
12.663276            0.398949662     0.893828581   0.000238872704 -0.000127156536   0.000238872705 -0.000127156536      0.402276081      0.89238417
12.663304            0.399379496      0.89361918     0.0002391737 -0.000127472247     0.0002391737 -0.000127472247       0.40270506     0.892173212
12.663332            0.399809564     0.893409394   0.000239475044  -0.00012778874   0.000239475045  -0.00012778874      0.403134272     0.891961868
12.66336             0.400239867     0.893199224   0.000239776738 -0.000128106016   0.000239776738 -0.000128106017      0.403563718     0.891750137
12.663388            0.400670404     0.892988668   0.000240078781 -0.000128424078   0.000240078781 -0.000128424079      0.403993397      0.89153802
12.663416            0.401101175     0.892777725   0.000240381173 -0.000128742928   0.000240381173 -0.000128742928      0.404423311     0.891325515
12.663444            0.401532181     0.892566395   0.000240683914 -0.000129062566   0.000240683915 -0.000129062567      0.404853458     0.891112621
12.663472            0.401963422     0.892354678   0.000240987004 -0.000129382997   0.000240987005 -0.000129382997       0.40528384     0.890899339
12.6635              0.402394897     0.892142571   0.000241290444  -0.00012970422   0.000241290445 -0.000129704221      0.405714456     0.890685666
