! TOUCHSTONE file generated by CST MICROWAVE STUDIO
! Date and time: Wed Jul 31 17:25:20 2024
! Project name: WaveGuide_BPF-Ver4.1_U-shape_Ku_T3_C4_CWA_2.cst
! Parameters = {cavity_h=16; cavity_l0=10; cavity_l1=15.2296; cavity_l2=16.8154; cavity_l3=17.0889; cavity_l4=17.2991; cavity_l5=17.1416; cavity_l6=17.5982; cavity_r=2.5; cavity_screw_l=0.5; cavity_screw_r=1.5; cavity_w=8; iris_h00=0; iris_h01=8.8161; iris_h112=0; iris_h12=5.61; iris_h211=3.6634; iris_h23=5.1962; iris_h310=3.9658; iris_h34=5.0816; iris_h45=4.9401; iris_h49=4.6149; iris_h56=4.7912; iris_h58=4.4378; iris_h67=6.582; iris_rx=0.1; iris_screw_l=0.5; iris_screw_r=1.5; iris_shift00=0; iris_shift112=0; iris_shift211=3.5; iris_shift310=0; iris_shift49=0; iris_shift58=3.5; iris_shift67=3.5; iris_tx=4.5; iris_tz=4.5; iris_w00=0; iris_w112=0; iris_w211=4; iris_w310=3.9658; iris_w49=4.6149; iris_w58=4; iris_w67=4; mesh_cavity=5; mesh_iris=7; mesh_screw=7; order=12; reset_all=0; sigma=4.8e+07}
! Header version: 2018
! Port assignment regex: !\s*Touchstone port\s*([0-9]+)\s*=\s*(CST MWS port|CST DS port)\s*([0-9]+|Zmin|Zmax)\s*\(\"(.*)\"\)(\s*mode\s*([0-9]+))?.*
! Touchstone port assignment:
! Touchstone port 1 = CST MWS port 1 ("")
! Touchstone port 2 = CST MWS port 2 ("")
# GHz S RI R 50
12.66                0.437976563     0.873219786   0.000229895584 -0.000135138831   0.000229895585  -0.00013513883      0.435431044     0.874729902
12.660028            0.438435981     0.872969428     0.0002301754 -0.000135474941   0.000230175401  -0.00013547494      0.435887254     0.874483202
12.660056            0.438895673     0.872718595   0.000230455528 -0.000135811884   0.000230455528 -0.000135811884      0.436343551     0.874236125
12.660084            0.439355618     0.872467296   0.000230735961 -0.000136149667   0.000230735961 -0.000136149667      0.436799995      0.87398864
12.660112              0.4398158     0.872215537   0.000231016694 -0.000136488295   0.000231016694 -0.000136488295      0.437256648     0.873740717
12.66014               0.4402762     0.871963326    0.00023129772 -0.000136827776    0.00023129772 -0.000136827775       0.43771357     0.873492326
12.660168            0.440736818     0.871710664   0.000231579039  -0.00013716811   0.000231579039 -0.000137168109      0.438170761     0.873243466
12.660196            0.441197666     0.871457544   0.000231860655 -0.000137509297   0.000231860655 -0.000137509297      0.438628182     0.872994155
12.660224            0.441658744     0.871203964   0.000232142568 -0.000137851341   0.000232142569  -0.00013785134      0.439085832     0.872744393
12.660252            0.442120053     0.870949923   0.000232424779 -0.000138194242   0.000232424779 -0.000138194241      0.439543711     0.872494179
12.66028             0.442581592     0.870695422   0.000232707286 -0.000138538003   0.000232707286 -0.000138538003      0.440001819     0.872243513
12.660308            0.443043361     0.870440459    0.00023299009 -0.000138882627    0.00023299009 -0.000138882627      0.440460155     0.871992394
12.660336             0.44350536     0.870185034   0.000233273191 -0.000139228116   0.000233273191 -0.000139228116       0.44091872      0.87174082
12.660364            0.443967589     0.869929145   0.000233556588 -0.000139574471   0.000233556588 -0.000139574471      0.441377515     0.871488791
12.660392            0.444430048     0.869672791   0.000233840282 -0.000139921696   0.000233840282 -0.000139921696      0.441836538     0.871236307
12.66042             0.444892737     0.869415973   0.000234124272 -0.000140269792   0.000234124272 -0.000140269792       0.44229579     0.870983366
12.660448            0.445355656     0.869158689   0.000234408558 -0.000140618762   0.000234408559 -0.000140618762      0.442755271     0.870729968
12.660476            0.445818805     0.868900939   0.000234693141 -0.000140968608   0.000234693141 -0.000140968608      0.443214981     0.870476111
12.660504            0.446282185      0.86864272    0.00023497802 -0.000141319332    0.00023497802 -0.000141319332      0.443674919     0.870221796
12.660532            0.446745794     0.868384034   0.000235263194 -0.000141670937   0.000235263195 -0.000141670937      0.444135086     0.869967021
12.66056             0.447209633     0.868124879   0.000235548665 -0.000142023425   0.000235548665 -0.000142023424      0.444595482     0.869711785
12.660588            0.447673702     0.867865253   0.000235834431 -0.000142376797   0.000235834431 -0.000142376797      0.445056107     0.869456089
12.660616            0.448138001     0.867605157   0.000236120493 -0.000142731058   0.000236120493 -0.000142731057      0.445516961      0.86919993
12.660644             0.44860253      0.86734459    0.00023640685 -0.000143086208    0.00023640685 -0.000143086207      0.445978043     0.868943308
12.660672            0.449067289      0.86708355   0.000236693502  -0.00014344225   0.000236693502 -0.000143442249      0.446439354     0.868686222
12.6607              0.449532277     0.866822036    0.00023698045 -0.000143799186    0.00023698045 -0.000143799186      0.446900894     0.868428672
12.660728            0.449997495     0.866560049   0.000237267692 -0.000144157019   0.000237267693 -0.000144157019      0.447362662     0.868170657
12.660756            0.450462943     0.866297587    0.00023755523 -0.000144515751    0.00023755523 -0.000144515751      0.447824659     0.867912175
12.660784            0.450928621      0.86603465   0.000237843062 -0.000144875385   0.000237843062 -0.000144875385      0.448286884     0.867653227
12.660812            0.451394529     0.865771236   0.000238131189 -0.000145235923   0.000238131189 -0.000145235922      0.448749338     0.867393811
12.66084             0.451860666     0.865507344    0.00023841961 -0.000145597366    0.00023841961 -0.000145597366      0.449212021     0.867133926
12.660868            0.452327033     0.865242974   0.000238708326 -0.000145959718   0.000238708326 -0.000145959718      0.449674932     0.866873572
12.660896            0.452793629     0.864978126   0.000238997335 -0.000146322981   0.000238997335  -0.00014632298      0.450138072     0.866612747
12.660924            0.453260455     0.864712797   0.000239286639 -0.000146687157   0.000239286639 -0.000146687156       0.45060144     0.866351452
12.660952             0.45372751     0.864446988   0.000239576236 -0.000147052248   0.000239576236 -0.000147052248      0.451065037     0.866089685
12.66098             0.454194795     0.864180698   0.000239866127 -0.000147418258   0.000239866128 -0.000147418257      0.451528862     0.865827445
12.661008             0.45466231     0.863913925   0.000240156312 -0.000147785187   0.000240156312 -0.000147785187      0.451992916     0.865564731
12.661036            0.455130053     0.863646669   0.000240446789  -0.00014815304    0.00024044679  -0.00014815304      0.452457197     0.865301543
12.661064            0.455598027     0.863378928    0.00024073756 -0.000148521818   0.000240737561 -0.000148521817      0.452921708     0.865037881
12.661092            0.456066229     0.863110703   0.000241028624 -0.000148891523   0.000241028625 -0.000148891523      0.453386446     0.864773742
12.66112             0.456534661     0.862841992   0.000241319981 -0.000149262158   0.000241319981 -0.000149262158      0.453851413     0.864509126
12.661148            0.457003322     0.862572795    0.00024161163 -0.000149633726    0.00024161163 -0.000149633725      0.454316608     0.864244033
12.661176            0.457472212      0.86230311   0.000241903571 -0.000150006228   0.000241903572 -0.000150006228      0.454782031     0.863978461
12.661204            0.457941332     0.862032937   0.000242195805 -0.000150379668   0.000242195805 -0.000150379668      0.455247682      0.86371241
12.661232             0.45841068     0.861762275   0.000242488331 -0.000150754047   0.000242488331 -0.000150754047      0.455713562     0.863445879
12.66126             0.458880258     0.861491123   0.000242781148 -0.000151129369   0.000242781149 -0.000151129368      0.456179669     0.863178866
12.661288            0.459350065      0.86121948   0.000243074257 -0.000151505635   0.000243074258 -0.000151505634      0.456646005     0.862911373
12.661316            0.459820101     0.860947345   0.000243367658 -0.000151882848   0.000243367658 -0.000151882847      0.457112568     0.862643396
12.661344            0.460290365     0.860674718   0.000243661349  -0.00015226101    0.00024366135  -0.00015226101       0.45757936     0.862374936
12.661372            0.460760859     0.860401597   0.000243955332 -0.000152640125   0.000243955332 -0.000152640125       0.45804638     0.862105991
12.6614              0.461231581     0.860127982   0.000244249605 -0.000153020194   0.000244249605 -0.000153020194      0.458513627     0.861836562
12.661428            0.461702533     0.859853872   0.000244544169  -0.00015340122   0.000244544169  -0.00015340122      0.458981102     0.861566646
12.661456            0.462173712     0.859579266   0.000244839023 -0.000153783205   0.000244839023 -0.000153783205      0.459448805     0.861296244
12.661484            0.462645121     0.859304163   0.000245134167 -0.000154166153   0.000245134167 -0.000154166152      0.459916736     0.861025353
12.661512            0.463116758     0.859028562   0.000245429601 -0.000154550064   0.000245429601 -0.000154550064      0.460384895     0.860753975
12.66154             0.463588624     0.858752463   0.000245725325 -0.000154934943   0.000245725325 -0.000154934943      0.460853281     0.860482106
12.661568            0.464060719     0.858475864   0.000246021337 -0.000155320791   0.000246021338 -0.000155320791      0.461321895     0.860209748
12.661596            0.464533042     0.858198764   0.000246317639 -0.000155707611    0.00024631764 -0.000155707611      0.461790736     0.859936898
12.661624            0.465005593     0.857921164    0.00024661423 -0.000156095406   0.000246614231 -0.000156095406      0.462259805     0.859663557
12.661652            0.465478373     0.857643061    0.00024691111 -0.000156484178    0.00024691111 -0.000156484177      0.462729101     0.859389722
12.66168             0.465951381     0.857364455   0.000247208278 -0.000156873929   0.000247208278 -0.000156873928      0.463198625     0.859115394
12.661708            0.466424617     0.857085346   0.000247505734 -0.000157264662   0.000247505734 -0.000157264662      0.463668376     0.858840571
12.661736            0.466898081     0.856805732   0.000247803477  -0.00015765638   0.000247803478  -0.00015765638      0.464138355     0.858565253
12.661764            0.467371774     0.856525612   0.000248101509 -0.000158049086   0.000248101509 -0.000158049085      0.464608561     0.858289439
12.661792            0.467845695     0.856244985   0.000248399828 -0.000158442781   0.000248399828  -0.00015844278      0.465078994     0.858013127
12.66182             0.468319843     0.855963851   0.000248698433 -0.000158837468   0.000248698434 -0.000158837468      0.465549654     0.857736317
12.661848             0.46879422     0.855682209   0.000248997326 -0.000159233151   0.000248997326  -0.00015923315      0.466020541     0.857459008
12.661876            0.469268824     0.855400057   0.000249296505 -0.000159629831   0.000249296505  -0.00015962983      0.466491655       0.8571812
12.661904            0.469743656     0.855117396    0.00024959597 -0.000160027511    0.00024959597 -0.000160027511      0.466962997     0.856902891
12.661932            0.470218716     0.854834223   0.000249895721 -0.000160426194   0.000249895722 -0.000160426194      0.467434565      0.85662408
12.66196             0.470694004     0.854550539   0.000250195758 -0.000160825882   0.000250195758 -0.000160825882       0.46790636     0.856344767
12.661988            0.471169519     0.854266341    0.00025049608 -0.000161226579    0.00025049608 -0.000161226578      0.468378382     0.856064951
12.662016            0.471645262      0.85398163   0.000250796687 -0.000161628286   0.000250796688 -0.000161628285      0.468850631     0.855784631
12.662044            0.472121232     0.853696405   0.000251097579 -0.000162031006   0.000251097579 -0.000162031005      0.469323106     0.855503805
12.662072             0.47259743     0.853410664   0.000251398755 -0.000162434742   0.000251398756 -0.000162434741      0.469795808     0.855222474
12.6621              0.473073855     0.853124406   0.000251700216 -0.000162839496   0.000251700216 -0.000162839496      0.470268736     0.854940636
12.662128            0.473550507     0.852837631    0.00025200196 -0.000163245272    0.00025200196 -0.000163245272      0.470741891      0.85465829
12.662156            0.474027386     0.852550338   0.000252303988 -0.000163652072   0.000252303988 -0.000163652071      0.471215273     0.854375435
12.662184            0.474504493     0.852262526   0.000252606299 -0.000164059898   0.000252606299 -0.000164059897      0.471688881     0.854092071
12.662212            0.474981826     0.851974194   0.000252908892 -0.000164468753   0.000252908893 -0.000164468752      0.472162715     0.853808197
12.66224             0.475459386     0.851685341   0.000253211768  -0.00016487864   0.000253211769 -0.000164878639      0.472636775     0.853523811
12.662268            0.475937173     0.851395966   0.000253514927 -0.000165289561   0.000253514927 -0.000165289561      0.473111061     0.853238913
12.662296            0.476415187     0.851106069   0.000253818367  -0.00016570152   0.000253818367  -0.00016570152      0.473585574     0.852953502
12.662324            0.476893428     0.850815647   0.000254122088 -0.000166114519   0.000254122089 -0.000166114518      0.474060313     0.852667577
12.662352            0.477371895     0.850524701   0.000254426091  -0.00016652856   0.000254426091  -0.00016652856      0.474535277     0.852381138
12.66238             0.477850589      0.85023323   0.000254730375 -0.000166943647   0.000254730375 -0.000166943646      0.475010467     0.852094182
12.662408            0.478329509     0.849941232   0.000255034939 -0.000167359781   0.000255034939 -0.000167359781      0.475485883      0.85180671
12.662436            0.478808656     0.849648706   0.000255339782 -0.000167776966   0.000255339783 -0.000167776966      0.475961525      0.85151872
12.662464            0.479288029     0.849355652   0.000255644906 -0.000168195205   0.000255644907 -0.000168195205      0.476437393     0.851230212
12.662492            0.479767628      0.84906207   0.000255950309   -0.0001686145    0.00025595031   -0.0001686145      0.476913486     0.850941184
12.66252             0.480247453     0.848767956   0.000256255991 -0.000169034854   0.000256255991 -0.000169034854      0.477389804     0.850651637
12.662548            0.480727504     0.848473312   0.000256561952  -0.00016945627   0.000256561952  -0.00016945627      0.477866348     0.850361568
12.662576            0.481207781     0.848178136    0.00025686819  -0.00016987875   0.000256868191  -0.00016987875      0.478343117     0.850070976
12.662604            0.481688283     0.847882427   0.000257174707 -0.000170302298   0.000257174707 -0.000170302297      0.478820111     0.849779862
12.662632            0.482169012     0.847586184   0.000257481501 -0.000170726915   0.000257481501 -0.000170726915      0.479297331     0.849488224
12.66266             0.482649966     0.847289406   0.000257788572 -0.000171152605   0.000257788572 -0.000171152605      0.479774775     0.849196061
12.662688            0.483131146     0.846992092   0.000258095919 -0.000171579371    0.00025809592 -0.000171579371      0.480252445     0.848903372
12.662716            0.483612551     0.846694241   0.000258403543 -0.000172007216   0.000258403543 -0.000172007215      0.480730339     0.848610156
12.662744            0.484094181     0.846395853   0.000258711442 -0.000172436141   0.000258711443 -0.000172436141      0.481208459     0.848316413
12.662772            0.484576037     0.846096926   0.000259019617 -0.000172866151   0.000259019618  -0.00017286615      0.481686802     0.848022141
12.6628              0.485058118      0.84579746   0.000259328067 -0.000173297247   0.000259328068 -0.000173297246      0.482165371      0.84772734
12.662828            0.485540424     0.845497453   0.000259636792 -0.000173729433   0.000259636792 -0.000173729432      0.482644164     0.847432009
12.662856            0.486022954     0.845196905    0.00025994579 -0.000174162711    0.00025994579 -0.000174162711      0.483123181     0.847136146
12.662884             0.48650571     0.844895814   0.000260255062 -0.000174597085   0.000260255063 -0.000174597084      0.483602423      0.84683975
12.662912             0.48698869      0.84459418   0.000260564608 -0.000175032557   0.000260564608 -0.000175032556      0.484081889     0.846542822
12.66294             0.487471895     0.844292001   0.000260874426  -0.00017546913   0.000260874426 -0.000175469129       0.48456158     0.846245359
12.662968            0.487955325     0.843989278   0.000261184516 -0.000175906806   0.000261184517 -0.000175906806      0.485041494     0.845947361
12.662996            0.488438979     0.843686008   0.000261494879  -0.00017634559   0.000261494879 -0.000176345589      0.485521632     0.845648827
12.663024            0.488922857      0.84338219   0.000261805513 -0.000176785483   0.000261805513 -0.000176785482      0.486001994     0.845349757
12.663052            0.489406959     0.843077825   0.000262116418 -0.000177226488   0.000262116418 -0.000177226488       0.48648258     0.845050148
12.66308             0.489891286     0.842772911   0.000262427593 -0.000177668609   0.000262427593 -0.000177668609      0.486963389         0.84475
12.663108            0.490375836     0.842467446   0.000262739038 -0.000178111849   0.000262739039 -0.000178111848      0.487444422     0.844449313
12.663136             0.49086061      0.84216143   0.000263050753 -0.000178556209   0.000263050754 -0.000178556208      0.487925679     0.844148085
12.663164            0.491345608     0.841854862   0.000263362737 -0.000179001693   0.000263362738 -0.000179001693      0.488407159     0.843846315
12.663192             0.49183083     0.841547742    0.00026367499 -0.000179448305    0.00026367499 -0.000179448304      0.488888862     0.843544003
12.66322             0.492316275     0.841240067   0.000263987511 -0.000179896046   0.000263987511 -0.000179896046      0.489370788     0.843241146
12.663248            0.492801943     0.840931837   0.000264300299 -0.000180344921     0.0002643003  -0.00018034492      0.489852937     0.842937746
12.663276            0.493287835     0.840623051   0.000264613355 -0.000180794931   0.000264613355  -0.00018079493      0.490335309       0.8426338
12.663304             0.49377395     0.840313709   0.000264926677 -0.000181246079   0.000264926677 -0.000181246079      0.490817904     0.842329307
12.663332            0.494260288     0.840003808   0.000265240265  -0.00018169837   0.000265240265  -0.00018169837      0.491300721     0.842024267
12.66336             0.494746848     0.839693349   0.000265554118 -0.000182151805   0.000265554119 -0.000182151805      0.491783762     0.841718678
12.663388            0.495233632      0.83938233   0.000265868237 -0.000182606388   0.000265868238 -0.000182606388      0.492267024      0.84141254
12.663416            0.495720638     0.839070749    0.00026618262 -0.000183062121   0.000266182621 -0.000183062121      0.492750509     0.841105852
12.663444            0.496207867     0.838758607   0.000266497268 -0.000183519008   0.000266497268 -0.000183519008      0.493234216     0.840798613
12.663472            0.496695318     0.838445903   0.000266812178 -0.000183977052   0.000266812179 -0.000183977052      0.493718146     0.840490821
12.6635              0.497182991     0.838132634   0.000267127352 -0.000184436255   0.000267127352 -0.000184436255      0.494202297     0.840182476
