! TOUCHSTONE file generated by CST MICROWAVE STUDIO
! Date and time: Wed Jul 31 17:28:26 2024
! Project name: WaveGuide_BPF-Ver4.1_U-shape_Ku_T3_C4_CWA_2.cst
! Parameters = {cavity_h=16; cavity_l0=10; cavity_l1=15.1742; cavity_l2=16.8288; cavity_l3=17.0803; cavity_l4=17.2344; cavity_l5=17.1303; cavity_l6=17.5769; cavity_r=2.5; cavity_screw_l=0.5; cavity_screw_r=1.5; cavity_w=8; iris_h00=0; iris_h01=8.8149; iris_h112=0; iris_h12=5.6049; iris_h211=3.6565; iris_h23=5.2012; iris_h310=3.9764; iris_h34=5.0799; iris_h45=4.9228; iris_h49=4.6126; iris_h56=4.788; iris_h58=4.4294; iris_h67=6.5716; iris_rx=0.1; iris_screw_l=0.5; iris_screw_r=1.5; iris_shift00=0; iris_shift112=0; iris_shift211=3.5; iris_shift310=0; iris_shift49=0; iris_shift58=3.5; iris_shift67=3.5; iris_tx=4.5; iris_tz=4.5; iris_w00=0; iris_w112=0; iris_w211=4; iris_w310=3.9764; iris_w49=4.6126; iris_w58=4; iris_w67=4; mesh_cavity=5; mesh_iris=7; mesh_screw=7; order=12; reset_all=0; sigma=4.8e+07}
! Header version: 2018
! Port assignment regex: !\s*Touchstone port\s*([0-9]+)\s*=\s*(CST MWS port|CST DS port)\s*([0-9]+|Zmin|Zmax)\s*\(\"(.*)\"\)(\s*mode\s*([0-9]+))?.*
! Touchstone port assignment:
! Touchstone port 1 = CST MWS port 1 ("")
! Touchstone port 2 = CST MWS port 2 ("")
# GHz S RI R 50
12.66                0.229318653      0.95697337   0.000176270985  -5.5116948e-05   0.000176270985 -5.51169481e-05      0.234929519      0.95555192
12.660028            0.229657551     0.956882087   0.000176510248 -5.52654269e-05   0.000176510249  -5.5265427e-05      0.235270528     0.955457893
12.660056            0.229996689     0.956790607   0.000176749887 -5.54142929e-05   0.000176749887  -5.5414293e-05      0.235611702     0.955363682
12.660084            0.230336047     0.956698933   0.000176989901 -5.55635462e-05   0.000176989901 -5.55635463e-05      0.235953052     0.955269284
12.660112            0.230675602      0.95660707   0.000177230292 -5.57131871e-05   0.000177230292 -5.57131872e-05      0.236294591     0.955174696
12.66014             0.231015335     0.956515023   0.000177471062 -5.58632159e-05   0.000177471062  -5.5863216e-05      0.236636331     0.955079914
12.660168            0.231355245     0.956422791    0.00017771221 -5.60136337e-05    0.00017771221 -5.60136338e-05      0.236978271     0.954984939
12.660196            0.231695347     0.956330371   0.000177953738 -5.61644421e-05   0.000177953738 -5.61644422e-05      0.237320404     0.954889771
12.660224            0.232035641     0.956237763   0.000178195645 -5.63156421e-05   0.000178195645 -5.63156422e-05      0.237662731     0.954794411
12.660252            0.232376126     0.956144965   0.000178437933  -5.6467235e-05   0.000178437933 -5.64672351e-05      0.238005251     0.954698858
12.66028             0.232716803     0.956051979   0.000178680601 -5.66192216e-05   0.000178680602 -5.66192218e-05      0.238347964     0.954603113
12.660308            0.233057673     0.955958802   0.000178923652 -5.67716033e-05   0.000178923652 -5.67716034e-05      0.238690871     0.954507173
12.660336            0.233398735     0.955865437   0.000179167085  -5.6924381e-05   0.000179167085 -5.69243811e-05      0.239033972      0.95441104
12.660364             0.23373999     0.955771881   0.000179410901 -5.70775558e-05   0.000179410901 -5.70775559e-05      0.239377266     0.954314713
12.660392            0.234081437     0.955678134     0.0001796551 -5.72311289e-05   0.000179655101 -5.72311291e-05      0.239720755     0.954218191
12.66042             0.234423077     0.955584197   0.000179899684 -5.73851014e-05   0.000179899684 -5.73851015e-05      0.240064438     0.954121475
12.660448             0.23476491     0.955490069   0.000180144653 -5.75394744e-05   0.000180144653 -5.75394745e-05      0.240408315     0.954024563
12.660476            0.235106936     0.955395749   0.000180390008 -5.76942489e-05   0.000180390008 -5.76942491e-05      0.240752387     0.953927456
12.660504            0.235449155     0.955301238   0.000180635748 -5.78494262e-05   0.000180635748 -5.78494263e-05      0.241096654     0.953830154
12.660532            0.235791568     0.955206534   0.000180881876 -5.80050073e-05   0.000180881876 -5.80050075e-05      0.241441115     0.953732655
12.66056             0.236134175     0.955111638   0.000181128391 -5.81609934e-05   0.000181128391 -5.81609935e-05      0.241785772      0.95363496
12.660588            0.236476975      0.95501655   0.000181375294 -5.83173856e-05   0.000181375294 -5.83173857e-05      0.242130624     0.953537068
12.660616            0.236819969     0.954921268   0.000181622587  -5.8474185e-05   0.000181622587 -5.84741851e-05      0.242475671     0.953438979
12.660644            0.237163157     0.954825793   0.000181870268 -5.86313927e-05   0.000181870268 -5.86313928e-05      0.242820913     0.953340693
12.660672            0.237506539     0.954730125    0.00018211834   -5.878901e-05    0.00018211834 -5.87890101e-05      0.243166351     0.953242208
12.6607              0.237850116     0.954634262   0.000182366803 -5.89470379e-05   0.000182366803  -5.8947038e-05      0.243511985     0.953143526
12.660728            0.238193887     0.954538205   0.000182615657 -5.91054776e-05   0.000182615657 -5.91054777e-05      0.243857815     0.953044646
12.660756            0.238537853     0.954441953   0.000182864903 -5.92643302e-05   0.000182864904 -5.92643303e-05      0.244203841     0.952945566
12.660784            0.238882014     0.954345507   0.000183114543 -5.94235969e-05   0.000183114543  -5.9423597e-05      0.244550063     0.952846288
12.660812             0.23922637     0.954248865   0.000183364575 -5.95832789e-05   0.000183364575  -5.9583279e-05      0.244896482      0.95274681
12.66084              0.23957092     0.954152027   0.000183615002 -5.97433773e-05   0.000183615002 -5.97433774e-05      0.245243097     0.952647133
12.660868            0.239915666     0.954054994   0.000183865824 -5.99038932e-05   0.000183865824 -5.99038933e-05      0.245589909     0.952547255
12.660896            0.240260608     0.953957764   0.000184117041 -6.00648279e-05   0.000184117041  -6.0064828e-05      0.245936917     0.952447177
12.660924            0.240605745     0.953860337   0.000184368654 -6.02261825e-05   0.000184368654 -6.02261826e-05      0.246284123     0.952346898
12.660952            0.240951078     0.953762714   0.000184620664 -6.03879582e-05   0.000184620664 -6.03879583e-05      0.246631526     0.952246418
12.66098             0.241296607     0.953664893   0.000184873071 -6.05501561e-05   0.000184873071 -6.05501563e-05      0.246979126     0.952145737
12.661008            0.241642331     0.953566875   0.000185125876 -6.07127775e-05   0.000185125876 -6.07127777e-05      0.247326924     0.952044853
12.661036            0.241988252     0.953468658   0.000185379081 -6.08758236e-05   0.000185379081 -6.08758237e-05      0.247674919     0.951943768
12.661064             0.24233437     0.953370244   0.000185632684 -6.10392954e-05   0.000185632684 -6.10392956e-05      0.248023112      0.95184248
12.661092            0.242680684      0.95327163   0.000185886688 -6.12031943e-05   0.000185886688 -6.12031944e-05      0.248371503      0.95174099
12.66112             0.243027194     0.953172818   0.000186141093 -6.13675214e-05   0.000186141093 -6.13675215e-05      0.248720093     0.951639296
12.661148            0.243373902     0.953073806   0.000186395899 -6.15322779e-05   0.000186395899  -6.1532278e-05       0.24906888     0.951537398
12.661176            0.243720806     0.952974595   0.000186651107 -6.16974649e-05   0.000186651107 -6.16974651e-05      0.249417866     0.951435297
12.661204            0.244067908     0.952875184   0.000186906718 -6.18630839e-05   0.000186906719  -6.1863084e-05       0.24976705     0.951332992
12.661232            0.244415207     0.952775572   0.000187162733 -6.20291358e-05   0.000187162733 -6.20291359e-05      0.250116434     0.951230482
12.66126             0.244762703      0.95267576   0.000187419152  -6.2195622e-05   0.000187419152 -6.21956221e-05      0.250466016     0.951127767
12.661288            0.245110397     0.952575746   0.000187675975 -6.23625436e-05   0.000187675976 -6.23625438e-05      0.250815797     0.951024847
12.661316            0.245458289     0.952475531   0.000187933205  -6.2529902e-05   0.000187933205 -6.25299021e-05      0.251165777     0.950921721
12.661344            0.245806378     0.952375115    0.00018819084 -6.26976982e-05    0.00018819084 -6.26976983e-05      0.251515957     0.950818389
12.661372            0.246154666     0.952274496   0.000188448882 -6.28659336e-05   0.000188448882 -6.28659337e-05      0.251866336     0.950714851
12.6614              0.246503152     0.952173676   0.000188707332 -6.30346094e-05   0.000188707332 -6.30346095e-05      0.252216915     0.950611107
12.661428            0.246851836     0.952072652    0.00018896619 -6.32037267e-05   0.000188966191 -6.32037269e-05      0.252567694     0.950507155
12.661456            0.247200719     0.951971425   0.000189225458  -6.3373287e-05   0.000189225458 -6.33732871e-05      0.252918672     0.950402996
12.661484            0.247549801     0.951869995   0.000189485134 -6.35432913e-05   0.000189485134 -6.35432914e-05      0.253269851     0.950298629
12.661512            0.247899081     0.951768361   0.000189745221 -6.37137409e-05   0.000189745221 -6.37137411e-05       0.25362123     0.950194054
12.66154             0.248248561     0.951666523   0.000190005719 -6.38846372e-05   0.000190005719 -6.38846373e-05       0.25397281     0.950089271
12.661568            0.248598239     0.951564481   0.000190266629 -6.40559813e-05   0.000190266629 -6.40559814e-05       0.25432459     0.949984279
12.661596            0.248948117     0.951462233   0.000190527951 -6.42277745e-05   0.000190527951 -6.42277746e-05      0.254676571     0.949879078
12.661624            0.249298195     0.951359781   0.000190789686 -6.44000181e-05   0.000190789687 -6.44000182e-05      0.255028753     0.949773667
12.661652            0.249648472     0.951257123   0.000191051835 -6.45727133e-05   0.000191051836 -6.45727135e-05      0.255381136     0.949668047
12.66168             0.249998949     0.951154259   0.000191314399 -6.47458615e-05   0.000191314399 -6.47458616e-05       0.25573372     0.949562216
12.661708            0.250349626     0.951051189   0.000191577378 -6.49194638e-05   0.000191577378 -6.49194639e-05      0.256086506     0.949456175
12.661736            0.250700503     0.950947912   0.000191840772 -6.50935216e-05   0.000191840772 -6.50935218e-05      0.256439493     0.949349923
12.661764             0.25105158     0.950844429   0.000192104583 -6.52680362e-05   0.000192104583 -6.52680363e-05      0.256792682     0.949243459
12.661792            0.251402858     0.950740738   0.000192368811 -6.54430088e-05   0.000192368811 -6.54430089e-05      0.257146072     0.949136784
12.66182             0.251754336     0.950636839   0.000192633457 -6.56184407e-05   0.000192633457 -6.56184408e-05      0.257499665     0.949029897
12.661848            0.252106015     0.950532733   0.000192898522 -6.57943333e-05   0.000192898522 -6.57943334e-05       0.25785346     0.948922797
12.661876            0.252457895     0.950428418   0.000193164006 -6.59706878e-05   0.000193164006 -6.59706879e-05      0.258207457     0.948815485
12.661904            0.252809976     0.950323894   0.000193429911 -6.61475055e-05   0.000193429911 -6.61475056e-05      0.258561657     0.948707959
12.661932            0.253162259     0.950219162   0.000193696235 -6.63247877e-05   0.000193696236 -6.63247878e-05       0.25891606      0.94860022
12.66196             0.253514742      0.95011422   0.000193962982 -6.65025358e-05   0.000193962982 -6.65025359e-05      0.259270665     0.948492267
12.661988            0.253867428     0.950009068    0.00019423015  -6.6680751e-05    0.00019423015 -6.66807512e-05      0.259625473       0.9483841
12.662016            0.254220314     0.949903706   0.000194497742 -6.68594348e-05   0.000194497742 -6.68594349e-05      0.259980485     0.948275719
12.662044            0.254573403     0.949798133   0.000194765757 -6.70385883e-05   0.000194765757 -6.70385884e-05      0.260335699     0.948167122
12.662072            0.254926694      0.94969235   0.000195034196  -6.7218213e-05   0.000195034196 -6.72182131e-05      0.260691117      0.94805831
12.6621              0.255280187     0.949586356    0.00019530306 -6.73983101e-05    0.00019530306 -6.73983102e-05      0.261046739     0.947949283
12.662128            0.255633882      0.94948015    0.00019557235  -6.7578881e-05    0.00019557235 -6.75788811e-05      0.261402565     0.947840039
12.662156             0.25598778     0.949373732   0.000195842066 -6.77599271e-05   0.000195842066 -6.77599272e-05      0.261758594     0.947730579
12.662184             0.25634188     0.949267101   0.000196112209 -6.79414496e-05    0.00019611221 -6.79414497e-05      0.262114828     0.947620902
12.662212            0.256696184     0.949160258   0.000196382781   -6.812345e-05   0.000196382781 -6.81234501e-05      0.262471265     0.947511008
12.66224              0.25705069     0.949053202    0.00019665378 -6.83059295e-05    0.00019665378 -6.83059296e-05      0.262827908     0.947400896
12.662268            0.257405399     0.948945933   0.000196925209 -6.84888896e-05   0.000196925209 -6.84888897e-05      0.263184754     0.947290567
12.662296            0.257760312     0.948838449   0.000197197068 -6.86723316e-05   0.000197197068 -6.86723317e-05      0.263541806     0.947180019
12.662324            0.258115428     0.948730752   0.000197469358 -6.88562568e-05   0.000197469358 -6.88562569e-05      0.263899062     0.947069252
12.662352            0.258470747      0.94862284   0.000197742079 -6.90406667e-05   0.000197742079 -6.90406668e-05      0.264256523     0.946958267
12.66238             0.258826271     0.948514714   0.000198015232 -6.92255625e-05   0.000198015232 -6.92255627e-05       0.26461419     0.946847062
12.662408            0.259181998     0.948406372   0.000198288818 -6.94109458e-05   0.000198288818 -6.94109459e-05      0.264972062     0.946735637
12.662436            0.259537929     0.948297814   0.000198562837 -6.95968178e-05   0.000198562837 -6.95968179e-05      0.265330139     0.946623992
12.662464            0.259894065      0.94818904   0.000198837291 -6.97831799e-05   0.000198837291 -6.97831801e-05      0.265688423     0.946512126
12.662492            0.260250405      0.94808005   0.000199112179 -6.99700336e-05    0.00019911218 -6.99700338e-05      0.266046912      0.94640004
12.66252              0.26060695     0.947970844   0.000199387504 -7.01573803e-05   0.000199387504 -7.01573804e-05      0.266405607     0.946287732
12.662548            0.260963699      0.94786142   0.000199663265 -7.03452212e-05   0.000199663265 -7.03452213e-05      0.266764508     0.946175202
12.662576            0.261320653     0.947751779   0.000199939463 -7.05335579e-05   0.000199939463  -7.0533558e-05      0.267123615      0.94606245
12.662604            0.261677813      0.94764192   0.000200216099 -7.07223917e-05   0.000200216099 -7.07223918e-05      0.267482929     0.945949476
12.662632            0.262035177     0.947531842   0.000200493173 -7.09117241e-05   0.000200493173 -7.09117242e-05       0.26784245     0.945836279
12.66266             0.262392747     0.947421546   0.000200770687 -7.11015564e-05   0.000200770687 -7.11015565e-05      0.268202177     0.945722858
12.662688            0.262750522     0.947311031   0.000201048641 -7.12918902e-05   0.000201048641 -7.12918903e-05      0.268562111     0.945609214
12.662716            0.263108503     0.947200297   0.000201327036 -7.14827267e-05   0.000201327036 -7.14827268e-05      0.268922253     0.945495346
12.662744             0.26346669     0.947089343   0.000201605872 -7.16740675e-05   0.000201605872 -7.16740676e-05      0.269282602     0.945381254
12.662772            0.263825083     0.946978169   0.000201885151 -7.18659139e-05   0.000201885151 -7.18659141e-05      0.269643158     0.945266937
12.6628              0.264183682     0.946866774   0.000202164872 -7.20582675e-05   0.000202164873 -7.20582676e-05      0.270003922     0.945152394
12.662828            0.264542487     0.946755158   0.000202445038 -7.22511296e-05   0.000202445038 -7.22511297e-05      0.270364893     0.945037626
12.662856            0.264901499     0.946643322   0.000202725648 -7.24445017e-05   0.000202725648 -7.24445019e-05      0.270726073     0.944922632
12.662884            0.265260717     0.946531263   0.000203006703 -7.26383853e-05   0.000203006703 -7.26383854e-05       0.27108746     0.944807412
12.662912            0.265620143     0.946418982   0.000203288204 -7.28327818e-05   0.000203288204 -7.28327819e-05      0.271449056     0.944691964
12.66294             0.265979775     0.946306479   0.000203570151 -7.30276927e-05   0.000203570151 -7.30276928e-05       0.27181086      0.94457629
12.662968            0.266339614     0.946193754   0.000203852546 -7.32231194e-05   0.000203852547 -7.32231195e-05      0.272172873     0.944460388
12.662996            0.266699661     0.946080805    0.00020413539 -7.34190634e-05    0.00020413539 -7.34190635e-05      0.272535094     0.944344258
12.663024            0.267059915     0.945967632   0.000204418682 -7.36155261e-05   0.000204418682 -7.36155263e-05      0.272897525       0.9442279
12.663052            0.267420377     0.945854236   0.000204702424 -7.38125092e-05   0.000204702424 -7.38125093e-05      0.273260164     0.944111313
12.66308             0.267781046     0.945740615   0.000204986616 -7.40100139e-05   0.000204986616 -7.40100141e-05      0.273623013     0.943994497
12.663108            0.268141923     0.945626769   0.000205271259 -7.42080419e-05    0.00020527126 -7.42080421e-05      0.273986071     0.943877451
12.663136            0.268503009     0.945512698   0.000205556355 -7.44065947e-05   0.000205556355 -7.44065948e-05      0.274349338     0.943760175
12.663164            0.268864303     0.945398402   0.000205841903 -7.46056736e-05   0.000205841903 -7.46056737e-05      0.274712816     0.943642669
12.663192            0.269225805      0.94528388   0.000206127904 -7.48052802e-05   0.000206127904 -7.48052804e-05      0.275076503     0.943524933
12.66322             0.269587516     0.945169131   0.000206414359 -7.50054161e-05    0.00020641436 -7.50054162e-05        0.2754404     0.943406965
12.663248            0.269949435     0.945054156    0.00020670127 -7.52060827e-05    0.00020670127 -7.52060829e-05      0.275804507     0.943288765
12.663276            0.270311563     0.944938954   0.000206988636 -7.54072816e-05   0.000206988636 -7.54072817e-05      0.276168825     0.943170334
12.663304            0.270673901     0.944823524   0.000207276458 -7.56090143e-05   0.000207276458 -7.56090144e-05      0.276533353      0.94305167
12.663332            0.271036447     0.944707866   0.000207564738 -7.58112822e-05   0.000207564738 -7.58112823e-05      0.276898091     0.942932774
12.66336             0.271399203      0.94459198   0.000207853475  -7.6014087e-05   0.000207853475 -7.60140871e-05      0.277263041     0.942813644
12.663388            0.271762169     0.944475866   0.000208142671 -7.62174301e-05   0.000208142671 -7.62174302e-05      0.277628202     0.942694281
12.663416            0.272125344     0.944359522   0.000208432326 -7.64213131e-05   0.000208432327 -7.64213133e-05      0.277993573     0.942574684
12.663444             0.27248873     0.944242949   0.000208722442 -7.66257376e-05   0.000208722442 -7.66257377e-05      0.278359156     0.942454852
12.663472            0.272852325     0.944126146   0.000209013019 -7.68307051e-05   0.000209013019 -7.68307052e-05      0.278724951     0.942334785
12.6635               0.27321613     0.944009112   0.000209304057 -7.70362171e-05   0.000209304057 -7.70362172e-05      0.279090957     0.942214484
