! TOUCHSTONE file generated by CST MICROWAVE STUDIO
! Date and time: Wed Jul 31 17:31:30 2024
! Project name: WaveGuide_BPF-Ver4.1_U-shape_Ku_T3_C4_CWA_2.cst
! Parameters = {cavity_h=16; cavity_l0=10; cavity_l1=15.1805; cavity_l2=16.818; cavity_l3=17.0704; cavity_l4=17.2276; cavity_l5=17.156; cavity_l6=17.6184; cavity_r=2.5; cavity_screw_l=0.5; cavity_screw_r=1.5; cavity_w=8; iris_h00=0; iris_h01=8.821; iris_h112=0; iris_h12=5.603; iris_h211=3.6666; iris_h23=5.2057; iris_h310=3.9778; iris_h34=5.0737; iris_h45=4.9271; iris_h49=4.6114; iris_h56=4.7956; iris_h58=4.4383; iris_h67=6.568; iris_rx=0.1; iris_screw_l=0.5; iris_screw_r=1.5; iris_shift00=0; iris_shift112=0; iris_shift211=3.5; iris_shift310=0; iris_shift49=0; iris_shift58=3.5; iris_shift67=3.5; iris_tx=4.5; iris_tz=4.5; iris_w00=0; iris_w112=0; iris_w211=4; iris_w310=3.9778; iris_w49=4.6114; iris_w58=4; iris_w67=4; mesh_cavity=5; mesh_iris=7; mesh_screw=7; order=12; reset_all=0; sigma=4.8e+07}
! Header version: 2018
! Port assignment regex: !\s*Touchstone port\s*([0-9]+)\s*=\s*(CST MWS port|CST DS port)\s*([0-9]+|Zmin|Zmax)\s*\(\"(.*)\"\)(\s*mode\s*([0-9]+))?.*
! Touchstone port assignment:
! Touchstone port 1 = CST MWS port 1 ("")
! Touchstone port 2 = CST MWS port 2 ("")
# GHz S RI R 50
12.66                0.265354035     0.946754828   0.000176085106 -6.16618053e-05   0.000176085106 -6.16618046e-05      0.264202515     0.947003922
12.660028            0.265708628      0.94664452   0.000176317171 -6.18222681e-05   0.000176317172 -6.18222674e-05      0.264559728     0.946893266
12.660056            0.266063485      0.94653398   0.000176549578 -6.19831453e-05   0.000176549578 -6.19831446e-05      0.264917166     0.946782387
12.660084            0.266418575     0.946423215   0.000176782328 -6.21444346e-05   0.000176782328 -6.21444339e-05      0.265274818     0.946671287
12.660112            0.266773871     0.946312234   0.000177015424 -6.23061339e-05   0.000177015424 -6.23061331e-05      0.265632671      0.94655997
12.66014             0.267129343     0.946201043   0.000177248869 -6.24682408e-05   0.000177248869 -6.24682401e-05      0.265990714     0.946448437
12.660168            0.267484992     0.946089643   0.000177482664 -6.26307564e-05   0.000177482665 -6.26307557e-05      0.266348947      0.94633669
12.660196            0.267840837     0.945978027   0.000177716808 -6.27936842e-05   0.000177716808 -6.27936835e-05      0.266707378     0.946224725
12.660224            0.268196879     0.945866196   0.000177951301 -6.29570251e-05   0.000177951301 -6.29570244e-05      0.267066008     0.946112542
12.660252            0.268553116     0.945754149   0.000178186144 -6.31207805e-05   0.000178186144 -6.31207797e-05      0.267424836      0.94600014
12.66028              0.26890955     0.945641886   0.000178421337 -6.32849512e-05   0.000178421338 -6.32849505e-05      0.267783862      0.94588752
12.660308            0.269266181     0.945529406   0.000178656881 -6.34495386e-05   0.000178656881 -6.34495379e-05      0.268143087     0.945774681
12.660336            0.269623008     0.945416709   0.000178892776 -6.36145437e-05   0.000178892777 -6.36145429e-05      0.268502511     0.945661622
12.660364            0.269980033     0.945303794   0.000179129024 -6.37799676e-05   0.000179129024 -6.37799669e-05      0.268862134     0.945548343
12.660392            0.270337254     0.945190662   0.000179365623 -6.39458115e-05   0.000179365624 -6.39458108e-05      0.269221956     0.945434845
12.66042             0.270694673     0.945077311   0.000179602576 -6.41120765e-05   0.000179602576 -6.41120758e-05      0.269581977     0.945321125
12.660448            0.271052288     0.944963742   0.000179839882 -6.42787638e-05   0.000179839883 -6.42787631e-05      0.269942197     0.945207185
12.660476            0.271410102     0.944849955   0.000180077542 -6.44458745e-05   0.000180077543 -6.44458738e-05      0.270302617     0.945093023
12.660504            0.271768113     0.944735948   0.000180315557 -6.46134097e-05   0.000180315558  -6.4613409e-05      0.270663236      0.94497864
12.660532            0.272126321     0.944621721   0.000180553927 -6.47813707e-05   0.000180553927   -6.478137e-05      0.271024056     0.944864035
12.66056             0.272484728     0.944507275   0.000180792653 -6.49497585e-05   0.000180792653 -6.49497578e-05      0.271385075     0.944749207
12.660588            0.272843332     0.944392608   0.000181031734 -6.51185744e-05   0.000181031735 -6.51185736e-05      0.271746294     0.944634157
12.660616            0.273202134     0.944277721   0.000181271173 -6.52878194e-05   0.000181271173 -6.52878187e-05      0.272107713     0.944518883
12.660644            0.273561135     0.944162612   0.000181510968 -6.54574948e-05   0.000181510969 -6.54574941e-05      0.272469333     0.944403386
12.660672            0.273920334     0.944047282   0.000181751122 -6.56276017e-05   0.000181751122  -6.5627601e-05      0.272831153     0.944287665
12.6607              0.274279732      0.94393173   0.000181991634 -6.57981413e-05   0.000181991634 -6.57981405e-05      0.273193174     0.944171719
12.660728            0.274639329     0.943815957   0.000182232504 -6.59691147e-05   0.000182232505  -6.5969114e-05      0.273555395     0.944055549
12.660756            0.274999124      0.94369996   0.000182473735 -6.61405232e-05   0.000182473735 -6.61405225e-05      0.273917817     0.943939154
12.660784            0.275359118     0.943583741   0.000182715325  -6.6312368e-05   0.000182715325 -6.63123672e-05      0.274280441     0.943822534
12.660812            0.275719311     0.943467298   0.000182957275 -6.64846501e-05   0.000182957276 -6.64846494e-05      0.274643265     0.943705688
12.66084             0.276079703     0.943350632   0.000183199587 -6.66573709e-05   0.000183199587 -6.66573701e-05      0.275006291     0.943588616
12.660868            0.276440295     0.943233742    0.00018344226 -6.68305314e-05   0.000183442261 -6.68305307e-05      0.275369518     0.943471317
12.660896            0.276801086     0.943116628   0.000183685296 -6.70041329e-05   0.000183685296 -6.70041322e-05      0.275732946     0.943353791
12.660924            0.277162077     0.942999288   0.000183928694 -6.71781767e-05   0.000183928694 -6.71781759e-05      0.276096576     0.943236038
12.660952            0.277523268     0.942881724   0.000184172455 -6.73526638e-05   0.000184172455 -6.73526631e-05      0.276460408     0.943118057
12.66098             0.277884659     0.942763934    0.00018441658 -6.75275955e-05    0.00018441658 -6.75275948e-05      0.276824442     0.942999849
12.661008            0.278246249     0.942645918   0.000184661069 -6.77029731e-05    0.00018466107 -6.77029724e-05      0.277188679     0.942881411
12.661036             0.27860804     0.942527676   0.000184905924 -6.78787977e-05   0.000184905924  -6.7878797e-05      0.277553117     0.942762745
12.661064            0.278970031     0.942409207   0.000185151143 -6.80550705e-05   0.000185151144 -6.80550698e-05      0.277917758      0.94264385
12.661092            0.279332223     0.942290512   0.000185396729 -6.82317928e-05   0.000185396729 -6.82317921e-05      0.278282601     0.942524726
12.66112             0.279694615     0.942171589   0.000185642681 -6.84089658e-05   0.000185642681 -6.84089651e-05      0.278647647     0.942405371
12.661148            0.280057207     0.942052438      0.000185889 -6.85865907e-05   0.000185889001   -6.858659e-05      0.279012895     0.942285786
12.661176            0.280420001     0.941933059   0.000186135687 -6.87646688e-05   0.000186135687 -6.87646681e-05      0.279378347      0.94216597
12.661204            0.280782996     0.941813451   0.000186382742 -6.89432013e-05   0.000186382742 -6.89432006e-05      0.279744001     0.942045923
12.661232            0.281146192     0.941693615   0.000186630166 -6.91221894e-05   0.000186630166 -6.91221887e-05      0.280109859     0.941925645
12.66126             0.281509589     0.941573549   0.000186877959 -6.93016344e-05   0.000186877959 -6.93016336e-05       0.28047592     0.941805134
12.661288            0.281873187     0.941453253   0.000187126121 -6.94815375e-05   0.000187126122 -6.94815367e-05      0.280842185     0.941684392
12.661316            0.282236987     0.941332728   0.000187374655 -6.96618999e-05   0.000187374655 -6.96618992e-05      0.281208653     0.941563416
12.661344            0.282600989     0.941211972   0.000187623559  -6.9842723e-05   0.000187623559 -6.98427223e-05      0.281575325     0.941442208
12.661372            0.282965193     0.941090985   0.000187872834  -7.0024008e-05   0.000187872835 -7.00240073e-05        0.2819422     0.941320766
12.6614              0.283329598     0.940969767   0.000188122482 -7.02057562e-05   0.000188122482 -7.02057554e-05       0.28230928      0.94119909
12.661428            0.283694206     0.940848317   0.000188372502 -7.03879687e-05   0.000188372502  -7.0387968e-05      0.282676564     0.941077181
12.661456            0.284059016     0.940726635   0.000188622895 -7.05706469e-05   0.000188622896 -7.05706462e-05      0.283044052     0.940955036
12.661484            0.284424028     0.940604721   0.000188873662 -7.07537921e-05   0.000188873663 -7.07537914e-05      0.283411745     0.940832656
12.661512            0.284789243     0.940482574   0.000189124803 -7.09374055e-05   0.000189124804 -7.09374048e-05      0.283779642     0.940710041
12.66154              0.28515466     0.940360194    0.00018937632 -7.11214884e-05    0.00018937632 -7.11214877e-05      0.284147744      0.94058719
12.661568             0.28552028     0.940237581   0.000189628211 -7.13060422e-05   0.000189628211 -7.13060414e-05      0.284516051     0.940464103
12.661596            0.285886103     0.940114733   0.000189880478  -7.1491068e-05   0.000189880479 -7.14910672e-05      0.284884562      0.94034078
12.661624             0.28625213     0.939991651   0.000190133122 -7.16765671e-05   0.000190133123 -7.16765664e-05      0.285253279     0.940217219
12.661652            0.286618359     0.939868334   0.000190386143  -7.1862541e-05   0.000190386143 -7.18625402e-05      0.285622201     0.940093421
12.66168             0.286984792     0.939744782   0.000190639542 -7.20489908e-05   0.000190639542 -7.20489901e-05      0.285991329     0.939969385
12.661708            0.287351428     0.939620995   0.000190893318 -7.22359179e-05   0.000190893319 -7.22359172e-05      0.286360662     0.939845111
12.661736            0.287718267     0.939496972   0.000191147474 -7.24233236e-05   0.000191147474 -7.24233228e-05        0.2867302     0.939720598
12.661764            0.288085311     0.939372712   0.000191402008 -7.26112091e-05   0.000191402009 -7.26112084e-05      0.287099945     0.939595846
12.661792            0.288452558     0.939248216   0.000191656923 -7.27995759e-05   0.000191656923 -7.27995752e-05      0.287469895     0.939470855
12.66182              0.28882001     0.939123482   0.000191912218 -7.29884252e-05   0.000191912218 -7.29884245e-05      0.287840051     0.939345623
12.661848            0.289187665     0.938998511   0.000192167894 -7.31777584e-05   0.000192167894 -7.31777576e-05      0.288210414     0.939220152
12.661876            0.289555525     0.938873302   0.000192423951 -7.33675767e-05   0.000192423952  -7.3367576e-05      0.288580983      0.93909444
12.661904            0.289923589     0.938747855   0.000192680391 -7.35578815e-05   0.000192680391 -7.35578808e-05      0.288951759     0.938968487
12.661932            0.290291858     0.938622169   0.000192937213 -7.37486742e-05   0.000192937214 -7.37486735e-05      0.289322741     0.938842293
12.66196             0.290660332     0.938496243   0.000193194419  -7.3939956e-05   0.000193194419 -7.39399553e-05      0.289693929     0.938715856
12.661988             0.29102901     0.938370079   0.000193452008 -7.41317284e-05   0.000193452009 -7.41317277e-05      0.290065325     0.938589178
12.662016            0.291397893     0.938243674   0.000193709982 -7.43239927e-05   0.000193709982 -7.43239919e-05      0.290436928     0.938462256
12.662044            0.291766982     0.938117029    0.00019396834 -7.45167501e-05   0.000193968341 -7.45167494e-05      0.290808738     0.938335092
12.662072            0.292136275     0.937990143   0.000194227085 -7.47100022e-05   0.000194227085 -7.47100014e-05      0.291180755     0.938207684
12.6621              0.292505774     0.937863016   0.000194486215 -7.49037502e-05   0.000194486215 -7.49037494e-05       0.29155298     0.938080032
12.662128            0.292875479     0.937735648   0.000194745732 -7.50979954e-05   0.000194745732 -7.50979947e-05      0.291925412     0.937952136
12.662156            0.293245389     0.937608037   0.000195005636 -7.52927393e-05   0.000195005636 -7.52927386e-05      0.292298052     0.937823995
12.662184            0.293615505     0.937480184   0.000195265928 -7.54879833e-05   0.000195265928 -7.54879826e-05        0.2926709     0.937695609
12.662212            0.293985827     0.937352089   0.000195526608 -7.56837287e-05   0.000195526608 -7.56837279e-05      0.293043956     0.937566977
12.66224             0.294356355      0.93722375   0.000195787677 -7.58799768e-05   0.000195787677 -7.58799761e-05       0.29341722       0.9374381
12.662268             0.29472709     0.937095167   0.000196049136 -7.60767291e-05   0.000196049136 -7.60767284e-05      0.293790692     0.937308975
12.662296             0.29509803     0.936966341   0.000196310984  -7.6273987e-05   0.000196310985 -7.62739863e-05      0.294164373     0.937179605
12.662324            0.295469178      0.93683727   0.000196573224 -7.64717518e-05   0.000196573224 -7.64717511e-05      0.294538262     0.937049986
12.662352            0.295840531     0.936707954   0.000196835854  -7.6670025e-05   0.000196835855 -7.66700243e-05       0.29491236     0.936920121
12.66238             0.296212092     0.936578393   0.000197098877 -7.68688079e-05   0.000197098877 -7.68688072e-05      0.295286666     0.936790007
12.662408            0.296583859     0.936448586   0.000197362291  -7.7068102e-05   0.000197362292 -7.70681012e-05      0.295661182     0.936659644
12.662436            0.296955834     0.936318533   0.000197626099 -7.72679086e-05   0.000197626099 -7.72679078e-05      0.296035907     0.936529033
12.662464            0.297328015     0.936188234     0.0001978903 -7.74682292e-05   0.000197890301 -7.74682284e-05      0.296410841     0.936398172
12.662492            0.297700404     0.936057688   0.000198154895 -7.76690651e-05   0.000198154896 -7.76690644e-05      0.296785984     0.936267062
12.66252                0.298073     0.935926894   0.000198419885 -7.78704179e-05   0.000198419886 -7.78704171e-05      0.297161337     0.936135701
12.662548            0.298445804     0.935795853    0.00019868527 -7.80722888e-05   0.000198685271 -7.80722881e-05      0.297536899      0.93600409
12.662576            0.298818816     0.935664563   0.000198951051 -7.82746795e-05   0.000198951052 -7.82746787e-05      0.297912671     0.935872228
12.662604            0.299192035     0.935533025   0.000199217229 -7.84775912e-05   0.000199217229 -7.84775904e-05      0.298288653     0.935740114
12.662632            0.299565463     0.935401237   0.000199483803 -7.86810254e-05   0.000199483804 -7.86810247e-05      0.298664846     0.935607748
12.66266             0.299939099     0.935269201   0.000199750775 -7.88849836e-05   0.000199750775 -7.88849829e-05      0.299041248      0.93547513
12.662688            0.300312942     0.935136914   0.000200018145 -7.90894673e-05   0.000200018145 -7.90894665e-05      0.299417861     0.935342259
12.662716            0.300686995     0.935004377   0.000200285914 -7.92944778e-05   0.000200285914  -7.9294477e-05      0.299794684     0.935209135
12.662744            0.301061256     0.934871589   0.000200554082 -7.95000166e-05   0.000200554082 -7.95000158e-05      0.300171717     0.935075758
12.662772            0.301435725      0.93473855    0.00020082265 -7.97060852e-05    0.00020082265 -7.97060844e-05      0.300548962     0.934942126
12.6628              0.301810403      0.93460526   0.000201091618  -7.9912685e-05   0.000201091618 -7.99126842e-05      0.300926417      0.93480824
12.662828            0.302185291     0.934471717   0.000201360987 -8.01198175e-05   0.000201360988 -8.01198168e-05      0.301304083     0.934674099
12.662856            0.302560387     0.934337922   0.000201630758 -8.03274842e-05   0.000201630759 -8.03274835e-05      0.301681961     0.934539702
12.662884            0.302935692     0.934203875   0.000201900931 -8.05356866e-05   0.000201900932 -8.05356858e-05       0.30206005      0.93440505
12.662912            0.303311207     0.934069574   0.000202171507 -8.07444261e-05   0.000202171508 -8.07444254e-05       0.30243835     0.934270141
12.66294             0.303686932     0.933935019   0.000202442487 -8.09537042e-05   0.000202442487 -8.09537035e-05      0.302816861     0.934134976
12.662968            0.304062866      0.93380021    0.00020271387 -8.11635225e-05    0.00020271387 -8.11635217e-05      0.303195585     0.933999554
12.662996             0.30443901     0.933665146   0.000202985658 -8.13738823e-05   0.000202985658 -8.13738816e-05       0.30357452     0.933863874
12.663024            0.304815363     0.933529827    0.00020325785 -8.15847853e-05   0.000203257851 -8.15847845e-05      0.303953667     0.933727936
12.663052            0.305191927     0.933394253   0.000203530449 -8.17962328e-05   0.000203530449 -8.17962321e-05      0.304333026      0.93359174
12.66308             0.305568701     0.933258423   0.000203803454 -8.20082265e-05   0.000203803454 -8.20082257e-05      0.304712598     0.933455285
12.663108            0.305945685     0.933122337   0.000204076865 -8.22207678e-05   0.000204076866  -8.2220767e-05      0.305092382     0.933318571
12.663136             0.30632288     0.932985994   0.000204350685 -8.24338582e-05   0.000204350685 -8.24338575e-05      0.305472378     0.933181596
12.663164            0.306700285     0.932849393   0.000204624912 -8.26474993e-05   0.000204624912 -8.26474986e-05      0.305852587     0.933044362
12.663192            0.307077901     0.932712535   0.000204899548 -8.28616927e-05   0.000204899548 -8.28616919e-05      0.306233009     0.932906867
12.66322             0.307455728     0.932575419   0.000205174593 -8.30764397e-05   0.000205174593 -8.30764389e-05      0.306613643     0.932769111
12.663248            0.307833766     0.932438044   0.000205450048  -8.3291742e-05   0.000205450048 -8.32917412e-05      0.306994491     0.932631093
12.663276            0.308212015     0.932300411   0.000205725913  -8.3507601e-05   0.000205725913 -8.35076003e-05      0.307375552     0.932492813
12.663304            0.308590475     0.932162517   0.000206002189 -8.37240184e-05    0.00020600219 -8.37240177e-05      0.307756826     0.932354271
12.663332            0.308969147     0.932024364   0.000206278877 -8.39409958e-05   0.000206278877  -8.3940995e-05      0.308138314     0.932215466
12.66336              0.30934803     0.931885951   0.000206555977 -8.41585345e-05   0.000206555977 -8.41585338e-05      0.308520015     0.932076398
12.663388            0.309727125     0.931747277    0.00020683349 -8.43766362e-05    0.00020683349 -8.43766355e-05       0.30890193     0.931937066
12.663416            0.310106431     0.931608342   0.000207111416 -8.45953026e-05   0.000207111416 -8.45953018e-05      0.309284059      0.93179747
12.663444             0.31048595     0.931469145   0.000207389756  -8.4814535e-05   0.000207389756 -8.48145343e-05      0.309666402     0.931657609
12.663472            0.310865681     0.931329686    0.00020766851 -8.50343351e-05   0.000207668511 -8.50343344e-05      0.310048958     0.931517482
12.6635              0.311245624     0.931189964    0.00020794768 -8.52547046e-05    0.00020794768 -8.52547038e-05       0.31043173     0.931377091
