! TOUCHSTONE file generated by CST MICROWAVE STUDIO
! Date and time: Wed Jul 31 17:37:37 2024
! Project name: WaveGuide_BPF-Ver4.1_U-shape_Ku_T3_C4_CWA_2.cst
! Parameters = {cavity_h=16; cavity_l0=10; cavity_l1=15.1707; cavity_l2=16.8766; cavity_l3=17.0802; cavity_l4=17.2764; cavity_l5=17.126; cavity_l6=17.635; cavity_r=2.5; cavity_screw_l=0.5; cavity_screw_r=1.5; cavity_w=8; iris_h00=0; iris_h01=8.8159; iris_h112=0; iris_h12=5.6129; iris_h211=3.6633; iris_h23=5.2037; iris_h310=3.9602; iris_h34=5.0798; iris_h45=4.9364; iris_h49=4.6258; iris_h56=4.8079; iris_h58=4.4299; iris_h67=6.5755; iris_rx=0.1; iris_screw_l=0.5; iris_screw_r=1.5; iris_shift00=0; iris_shift112=0; iris_shift211=3.5; iris_shift310=0; iris_shift49=0; iris_shift58=3.5; iris_shift67=3.5; iris_tx=4.5; iris_tz=4.5; iris_w00=0; iris_w112=0; iris_w211=4; iris_w310=3.9602; iris_w49=4.6258; iris_w58=4; iris_w67=4; mesh_cavity=5; mesh_iris=7; mesh_screw=7; order=12; reset_all=0; sigma=4.8e+07}
! Header version: 2018
! Port assignment regex: !\s*Touchstone port\s*([0-9]+)\s*=\s*(CST MWS port|CST DS port)\s*([0-9]+|Zmin|Zmax)\s*\(\"(.*)\"\)(\s*mode\s*([0-9]+))?.*
! Touchstone port assignment:
! Touchstone port 1 = CST MWS port 1 ("")
! Touchstone port 2 = CST MWS port 2 ("")
# GHz S RI R 50
12.66                 0.24671725     0.951260021   0.000306815028 -0.000106352691   0.000306815027  -0.00010635269      0.253033676     0.949598284
12.660028            0.247084172     0.951151791    0.00030731147 -0.000106670932   0.000307311469 -0.000106670932      0.253401172     0.949487272
12.660056            0.247451519     0.951043277   0.000307808861  -0.00010699016   0.000307808861  -0.00010699016      0.253768851     0.949376036
12.660084            0.247819212       0.9509345   0.000308307208 -0.000107310371   0.000308307208 -0.000107310371       0.25413674     0.949264569
12.660112            0.248187175     0.950825478   0.000308806519  -0.00010763156   0.000308806518  -0.00010763156      0.254504862     0.949152863
12.66014              0.24855533     0.950716231   0.000309306799 -0.000107953723   0.000309306799 -0.000107953723      0.254873244     0.949040913
12.660168            0.248923678     0.950606759   0.000309808053 -0.000108276863   0.000309808052 -0.000108276863      0.255241886     0.948928716
12.660196            0.249292271     0.950497047   0.000310310277 -0.000108600989   0.000310310277 -0.000108600988      0.255610772     0.948816278
12.660224            0.249661108     0.950387095   0.000310813475 -0.000108926103   0.000310813475 -0.000108926103      0.255979901     0.948703597
12.660252             0.25003019     0.950276903   0.000311317648  -0.00010925221   0.000311317648  -0.00010925221      0.256349273     0.948590674
12.66028             0.250399517      0.95016647   0.000311822799 -0.000109579312   0.000311822799 -0.000109579312       0.25671889     0.948477507
12.660308             0.25076909     0.950055796    0.00031232893 -0.000109907413    0.00031232893 -0.000109907413      0.257088752     0.948364096
12.660336            0.251138909     0.949944881   0.000312836043 -0.000110236517   0.000312836042 -0.000110236517      0.257458858     0.948250441
12.660364            0.251508974     0.949833723   0.000313344139 -0.000110566626   0.000313344139 -0.000110566626      0.257829209     0.948136541
12.660392            0.251879285     0.949722322   0.000313853222 -0.000110897744   0.000313853222 -0.000110897744      0.258199805     0.948022396
12.66042             0.252249843     0.949610678   0.000314363294 -0.000111229875   0.000314363293 -0.000111229874      0.258570646     0.947908005
12.660448            0.252620648      0.94949879   0.000314874355 -0.000111563021   0.000314874355 -0.000111563021      0.258941734     0.947793368
12.660476              0.2529917     0.949386659    0.00031538641 -0.000111897187   0.000315386409 -0.000111897187      0.259313067     0.947678485
12.660504               0.253363     0.949274282   0.000315899459 -0.000112232375   0.000315899459 -0.000112232375      0.259684646     0.947563353
12.660532            0.253734547     0.949161661   0.000316413506  -0.00011256859   0.000316413505  -0.00011256859      0.260056472     0.947447975
12.66056             0.254106342     0.949048793   0.000316928551 -0.000112905834   0.000316928551 -0.000112905834      0.260428545     0.947332348
12.660588            0.254478385      0.94893568   0.000317444598 -0.000113244112   0.000317444598 -0.000113244112      0.260800865     0.947216472
12.660616            0.254850677      0.94882232   0.000317961649 -0.000113583426   0.000317961648 -0.000113583426      0.261173432     0.947100347
12.660644            0.255223218     0.948708713   0.000318479705 -0.000113923781   0.000318479705  -0.00011392378      0.261546246     0.946983972
12.660672            0.255596007     0.948594858    0.00031899877 -0.000114265179   0.000318998769 -0.000114265179      0.261919308     0.946867347
12.6607              0.255969046     0.948480755   0.000319518844 -0.000114607624   0.000319518844 -0.000114607624      0.262292619     0.946750471
12.660728            0.256342335     0.948366403   0.000320039931  -0.00011495112   0.000320039931  -0.00011495112      0.262666178     0.946633344
12.660756            0.256715873     0.948251802   0.000320562033 -0.000115295671   0.000320562033  -0.00011529567      0.263039985     0.946515965
12.660784            0.257089662     0.948136952   0.000321085152 -0.000115641279   0.000321085151 -0.000115641279      0.263414041     0.946398334
12.660812            0.257463701     0.948021851   0.000321609289 -0.000115987949   0.000321609289 -0.000115987949      0.263788347      0.94628045
12.66084              0.25783799     0.947906499   0.000322134448 -0.000116335684   0.000322134448 -0.000116335684      0.264162901     0.946162313
12.660868            0.258212531     0.947790897   0.000322660631 -0.000116684488   0.000322660631 -0.000116684488      0.264537706     0.946043921
12.660896            0.258587323     0.947675043   0.000323187839 -0.000117034364   0.000323187839 -0.000117034364       0.26491276     0.945925276
12.660924            0.258962366     0.947558936   0.000323716076 -0.000117385316   0.000323716075 -0.000117385316      0.265288065     0.945806376
12.660952            0.259337661     0.947442577   0.000324245343 -0.000117737348   0.000324245342 -0.000117737348       0.26566362      0.94568722
12.66098             0.259713208     0.947325964   0.000324775642 -0.000118090463   0.000324775641 -0.000118090463      0.266039426     0.945567809
12.661008            0.260089007     0.947209098   0.000325306976 -0.000118444666   0.000325306976 -0.000118444665      0.266415482     0.945448141
12.661036            0.260465059     0.947091977   0.000325839347 -0.000118799959   0.000325839347 -0.000118799958      0.266791791     0.945328216
12.661064            0.260841364     0.946974602   0.000326372758 -0.000119156346   0.000326372757 -0.000119156346       0.26716835     0.945208034
12.661092            0.261217922     0.946856971    0.00032690721 -0.000119513832   0.000326907209 -0.000119513832      0.267545162     0.945087594
12.66112             0.261594734     0.946739085   0.000327442706 -0.000119872419   0.000327442706 -0.000119872419      0.267922225     0.944966895
12.661148            0.261971799     0.946620942   0.000327979248 -0.000120232113   0.000327979248 -0.000120232112      0.268299541     0.944845938
12.661176            0.262349118     0.946502542   0.000328516839 -0.000120592916   0.000328516839 -0.000120592915       0.26867711      0.94472472
12.661204            0.262726691     0.946383885   0.000329055481 -0.000120954832    0.00032905548 -0.000120954831      0.269054931     0.944603243
12.661232            0.263104519      0.94626497   0.000329595176 -0.000121317865   0.000329595175 -0.000121317865      0.269433006     0.944481505
12.66126             0.263482601     0.946145796   0.000330135926 -0.000121682019   0.000330135925 -0.000121682019      0.269811334     0.944359506
12.661288            0.263860939     0.946026364   0.000330677734 -0.000122047298   0.000330677733 -0.000122047297      0.270189916     0.944237246
12.661316            0.264239532     0.945906672   0.000331220602 -0.000122413705   0.000331220601 -0.000122413705      0.270568752     0.944114723
12.661344             0.26461838     0.945786719   0.000331764532 -0.000122781245   0.000331764531 -0.000122781244      0.270947842     0.943991937
12.661372            0.264997485     0.945666507   0.000332309527 -0.000123149921   0.000332309527  -0.00012314992      0.271327187     0.943868889
12.6614              0.265376846     0.945546033   0.000332855589 -0.000123519737   0.000332855589 -0.000123519737      0.271706786     0.943745576
12.661428            0.265756463     0.945425297    0.00033340272 -0.000123890697    0.00033340272 -0.000123890697      0.272086641     0.943621999
12.661456            0.266136337     0.945304299   0.000333950924 -0.000124262805   0.000333950923 -0.000124262805      0.272466751     0.943498157
12.661484            0.266516467     0.945183039   0.000334500201 -0.000124636066     0.0003345002 -0.000124636065      0.272847116      0.94337405
12.661512            0.266896856     0.945061515   0.000335050554 -0.000125010482   0.000335050554 -0.000125010482      0.273227738     0.943249677
12.66154             0.267277501     0.944939728   0.000335601987 -0.000125386058   0.000335601987 -0.000125386058      0.273608615     0.943125037
12.661568            0.267658405     0.944817676   0.000336154501 -0.000125762798     0.0003361545 -0.000125762798      0.273989749      0.94300013
12.661596            0.268039567     0.944695359   0.000336708098 -0.000126140706   0.000336708097 -0.000126140705       0.27437114     0.942874956
12.661624            0.268420987     0.944572776   0.000337262781 -0.000126519785    0.00033726278 -0.000126519785      0.274752788     0.942749513
12.661652            0.268802666     0.944449928   0.000337818552 -0.000126900041   0.000337818552  -0.00012690004      0.275134693     0.942623802
12.66168             0.269184604     0.944326813   0.000338375414 -0.000127281476   0.000338375414 -0.000127281476      0.275516856     0.942497821
12.661708            0.269566801     0.944203431   0.000338933369 -0.000127664095   0.000338933369 -0.000127664095      0.275899277     0.942371571
12.661736            0.269949258     0.944079781    0.00033949242 -0.000128047903   0.000339492419 -0.000128047903      0.276281955      0.94224505
12.661764            0.270331975     0.943955863   0.000340052568 -0.000128432903   0.000340052568 -0.000128432902      0.276664893     0.942118258
12.661792            0.270714951     0.943831676   0.000340613817 -0.000128819098   0.000340613816 -0.000128819098      0.277048088     0.941991195
12.66182             0.271098189      0.94370722   0.000341176168 -0.000129206495   0.000341176168 -0.000129206494      0.277431543      0.94186386
12.661848            0.271481686     0.943582495   0.000341739625 -0.000129595095   0.000341739624 -0.000129595095      0.277815257     0.941736252
12.661876            0.271865445     0.943457498   0.000342304189 -0.000129984905   0.000342304188 -0.000129984905      0.278199231     0.941608371
12.661904            0.272249465     0.943332231   0.000342869863 -0.000130375927   0.000342869862 -0.000130375927      0.278583464     0.941480217
12.661932            0.272633747     0.943206692   0.000343436649 -0.000130768166   0.000343436649 -0.000130768166      0.278967957     0.941351788
12.66196             0.273018291     0.943080881    0.00034400455 -0.000131161627    0.00034400455 -0.000131161627      0.279352711     0.941223084
12.661988            0.273403096     0.942954797   0.000344573569 -0.000131556313   0.000344573568 -0.000131556312      0.279737726     0.941094105
12.662016            0.273788164      0.94282844   0.000345143707 -0.000131952228   0.000345143706 -0.000131952228      0.280123001     0.940964849
12.662044            0.274173495     0.942701809   0.000345714967 -0.000132349378   0.000345714967 -0.000132349378      0.280508538     0.940835318
12.662072            0.274559089     0.942574904   0.000346287352 -0.000132747766   0.000346287352 -0.000132747765      0.280894336     0.940705509
12.6621              0.274944946     0.942447724   0.000346860865 -0.000133147396   0.000346860864 -0.000133147395      0.281280395     0.940575422
12.662128            0.275331066     0.942320268   0.000347435506 -0.000133548273   0.000347435506 -0.000133548272      0.281666717     0.940445057
12.662156            0.275717451     0.942192536    0.00034801128 -0.000133950401    0.00034801128   -0.0001339504      0.282053302     0.940314413
12.662184            0.276104099     0.942064527   0.000348588189 -0.000134353784   0.000348588188 -0.000134353784      0.282440148      0.94018349
12.662212            0.276491012     0.941936241   0.000349166234 -0.000134758427   0.000349166234 -0.000134758427      0.282827258     0.940052286
12.66224              0.27687819     0.941807678   0.000349745419 -0.000135164335   0.000349745419 -0.000135164335      0.283214631     0.939920802
12.662268            0.277265633     0.941678835   0.000350325746 -0.000135571511   0.000350325746  -0.00013557151      0.283602267     0.939789037
12.662296            0.277653341     0.941549714   0.000350907218  -0.00013597996   0.000350907217 -0.000135979959      0.283990168      0.93965699
12.662324            0.278041315     0.941420313   0.000351489836 -0.000136389686   0.000351489836 -0.000136389686      0.284378332     0.939524661
12.662352            0.278429554     0.941290632   0.000352073605 -0.000136800694   0.000352073604 -0.000136800693       0.28476676     0.939392049
12.66238              0.27881806     0.941160671   0.000352658525 -0.000137212988   0.000352658525 -0.000137212988      0.285155454     0.939259153
12.662408            0.279206832     0.941030427     0.0003532446 -0.000137626573     0.0003532446 -0.000137626573      0.285544412     0.939125973
12.662436            0.279595871     0.940899902   0.000353831832 -0.000138041453   0.000353831832 -0.000138041453      0.285933635     0.938992508
12.662464            0.279985177     0.940769095   0.000354420224 -0.000138457633   0.000354420224 -0.000138457632      0.286323123     0.938858758
12.662492             0.28037475     0.940638004   0.000355009778 -0.000138875117   0.000355009778 -0.000138875116      0.286712878     0.938724722
12.66252             0.280764591     0.940506629   0.000355600497 -0.000139293909   0.000355600497 -0.000139293909      0.287102898       0.9385904
12.662548              0.2811547     0.940374971   0.000356192383 -0.000139714016   0.000356192383 -0.000139714015      0.287493185      0.93845579
12.662576            0.281545077     0.940243027   0.000356785439  -0.00014013544   0.000356785439 -0.000140135439      0.287883739     0.938320893
12.662604            0.281935723     0.940110798   0.000357379668 -0.000140558186   0.000357379668 -0.000140558186      0.288274559     0.938185707
12.662632            0.282326638     0.939978282   0.000357975072  -0.00014098226   0.000357975071 -0.000140982259      0.288665647     0.938050233
12.66266             0.282717821      0.93984548   0.000358571653 -0.000141407665   0.000358571653 -0.000141407665      0.289057002     0.937914469
12.662688            0.283109275     0.939712391   0.000359169414 -0.000141834406   0.000359169414 -0.000141834406      0.289448625     0.937778414
12.662716            0.283500997     0.939579013   0.000359768359 -0.000142262489   0.000359768358 -0.000142262489      0.289840516     0.937642069
12.662744             0.28389299     0.939445347   0.000360368489 -0.000142691918   0.000360368488 -0.000142691917      0.290232675     0.937505433
12.662772            0.284285253     0.939311392   0.000360969806 -0.000143122696   0.000360969806 -0.000143122696      0.290625103     0.937368505
12.6628              0.284677787     0.939177147   0.000361572315  -0.00014355483   0.000361572314  -0.00014355483        0.2910178     0.937231284
12.662828            0.285070592     0.939042612   0.000362176016 -0.000143988324   0.000362176016 -0.000143988324      0.291410766      0.93709377
12.662856            0.285463667     0.938907786   0.000362780913 -0.000144423183   0.000362780913 -0.000144423182      0.291804002     0.936955962
12.662884            0.285857015     0.938772668   0.000363387009 -0.000144859411   0.000363387009  -0.00014485941      0.292197507      0.93681786
12.662912            0.286250634     0.938637258   0.000363994306 -0.000145297013   0.000363994306 -0.000145297012      0.292591283     0.936679462
12.66294             0.286644525     0.938501555   0.000364602807 -0.000145735994   0.000364602806 -0.000145735994      0.292985329     0.936540769
12.662968            0.287038689     0.938365559   0.000365212514 -0.000146176359   0.000365212513 -0.000146176359      0.293379646      0.93640178
12.662996            0.287433125     0.938229268    0.00036582343 -0.000146618113   0.000365823429 -0.000146618112      0.293774233     0.936262493
12.663024            0.287827834     0.938092683   0.000366435557  -0.00014706126   0.000366435557  -0.00014706126      0.294169092      0.93612291
12.663052            0.288222817     0.937955802   0.000367048899 -0.000147505806   0.000367048899 -0.000147505805      0.294564223     0.935983028
12.66308             0.288618073     0.937818626   0.000367663458 -0.000147951755   0.000367663458 -0.000147951755      0.294959625     0.935842847
12.663108            0.289013603     0.937681153   0.000368279237 -0.000148399112   0.000368279236 -0.000148399112        0.2953553     0.935702366
12.663136            0.289409407     0.937543382   0.000368896238 -0.000148847883   0.000368896237 -0.000148847883      0.295751247     0.935561586
12.663164            0.289805486     0.937405314   0.000369514463 -0.000149298072   0.000369514463 -0.000149298072      0.296147467     0.935420505
12.663192             0.29020184     0.937266948   0.000370133917 -0.000149749684   0.000370133917 -0.000149749684       0.29654396     0.935279123
12.66322             0.290598469     0.937128282   0.000370754601 -0.000150202725   0.000370754601 -0.000150202724      0.296940726     0.935137438
12.663248            0.290995373     0.936989316   0.000371376518 -0.000150657198   0.000371376518 -0.000150657198      0.297337766     0.934995451
12.663276            0.291392553      0.93685005   0.000371999671  -0.00015111311    0.00037199967  -0.00015111311       0.29773508     0.934853161
12.663304            0.291790009     0.936710483   0.000372624062 -0.000151570465   0.000372624062 -0.000151570465      0.298132668     0.934710567
12.663332            0.292187741     0.936570614   0.000373249694 -0.000152029269   0.000373249694 -0.000152029269      0.298530531     0.934567668
12.66336              0.29258575     0.936430443   0.000373876571 -0.000152489527    0.00037387657 -0.000152489526      0.298928668     0.934424464
12.663388            0.292984036     0.936289969   0.000374504694 -0.000152951243   0.000374504693 -0.000152951242      0.299327081     0.934280954
12.663416            0.293382599     0.936149192   0.000375134066 -0.000153414422   0.000375134066 -0.000153414422      0.299725769     0.934137138
12.663444            0.293781439      0.93600811   0.000375764691 -0.000153879071    0.00037576469 -0.000153879071      0.300124733     0.933993014
12.663472            0.294180558     0.935866723    0.00037639657 -0.000154345194    0.00037639657 -0.000154345194      0.300523973     0.933848583
12.6635              0.294579954      0.93572503   0.000377029707 -0.000154812797   0.000377029707 -0.000154812796      0.300923489     0.933703843
