! TOUCHSTONE file generated by CST MICROWAVE STUDIO
! Date and time: Wed Jul 31 17:40:43 2024
! Project name: WaveGuide_BPF-Ver4.1_U-shape_Ku_T3_C4_CWA_2.cst
! Parameters = {cavity_h=16; cavity_l0=10; cavity_l1=15.2265; cavity_l2=16.8533; cavity_l3=17.1164; cavity_l4=17.2688; cavity_l5=17.1368; cavity_l6=17.5735; cavity_r=2.5; cavity_screw_l=0.5; cavity_screw_r=1.5; cavity_w=8; iris_h00=0; iris_h01=8.8246; iris_h112=0; iris_h12=5.609; iris_h211=3.6612; iris_h23=5.187; iris_h310=3.9746; iris_h34=5.0854; iris_h45=4.9219; iris_h49=4.6201; iris_h56=4.8042; iris_h58=4.4331; iris_h67=6.5862; iris_rx=0.1; iris_screw_l=0.5; iris_screw_r=1.5; iris_shift00=0; iris_shift112=0; iris_shift211=3.5; iris_shift310=0; iris_shift49=0; iris_shift58=3.5; iris_shift67=3.5; iris_tx=4.5; iris_tz=4.5; iris_w00=0; iris_w112=0; iris_w211=4; iris_w310=3.9746; iris_w49=4.6201; iris_w58=4; iris_w67=4; mesh_cavity=5; mesh_iris=7; mesh_screw=7; order=12; reset_all=0; sigma=4.8e+07}
! Header version: 2018
! Port assignment regex: !\s*Touchstone port\s*([0-9]+)\s*=\s*(CST MWS port|CST DS port)\s*([0-9]+|Zmin|Zmax)\s*\(\"(.*)\"\)(\s*mode\s*([0-9]+))?.*
! Touchstone port assignment:
! Touchstone port 1 = CST MWS port 1 ("")
! Touchstone port 2 = CST MWS port 2 ("")
# GHz S RI R 50
12.66                0.467217895     0.856105756   0.000316662077 -0.000206669669   0.000316662077 -0.000206669669      0.473923492     0.852342951
12.660028            0.467700089     0.855818969   0.000317077217 -0.000207213618   0.000317077217 -0.000207213617      0.474405674     0.852050977
12.660056            0.468182534     0.855531644   0.000317492855  -0.00020775903   0.000317492855  -0.00020775903      0.474887976     0.851758529
12.660084            0.468665228      0.85524378   0.000317908979 -0.000208305918   0.000317908978 -0.000208305918       0.47537045     0.851465575
12.660112             0.46914817     0.854955377   0.000318325576 -0.000208854291   0.000318325576 -0.000208854291      0.475853152     0.851172086
12.66014              0.46963136     0.854666435   0.000318742636  -0.00020940416   0.000318742636  -0.00020940416      0.476336135     0.850878031
12.660168            0.470114797     0.854376953   0.000319160158 -0.000209955529   0.000319160158 -0.000209955528      0.476819399      0.85058341
12.660196            0.470598481     0.854086928    0.00031957815 -0.000210508397   0.000319578149 -0.000210508397      0.477302908      0.85028824
12.660224            0.471082413     0.853796361    0.00031999661 -0.000211062771    0.00031999661 -0.000211062771      0.477786661     0.849992521
12.660252            0.471566594      0.85350525    0.00032041554 -0.000211618653    0.00032041554 -0.000211618653       0.47827066     0.849696252
12.66028             0.472051021     0.853213594   0.000320834939 -0.000212176048   0.000320834939 -0.000212176048      0.478754904     0.849399431
12.660308            0.472535697     0.852921392   0.000321254806 -0.000212734961   0.000321254806 -0.000212734961      0.479239393     0.849102059
12.660336             0.47302062     0.852628644   0.000321675142 -0.000213295395   0.000321675142 -0.000213295395      0.479724126     0.848804132
12.660364            0.473505791     0.852335347   0.000322095946 -0.000213857356   0.000322095945 -0.000213857356      0.480209104     0.848505652
12.660392            0.473991209     0.852041501   0.000322517217 -0.000214420848   0.000322517217 -0.000214420848      0.480694327     0.848206616
12.66042             0.474476875     0.851747106   0.000322938957 -0.000214985874   0.000322938957 -0.000214985874      0.481179794     0.847907023
12.660448            0.474962788     0.851452159   0.000323361163  -0.00021555244   0.000323361163  -0.00021555244      0.481665506     0.847606873
12.660476            0.475448949      0.85115666   0.000323783837  -0.00021612055   0.000323783837  -0.00021612055      0.482151463     0.847306165
12.660504            0.475935357     0.850860609   0.000324206978 -0.000216690208   0.000324206978 -0.000216690208      0.482637664     0.847004897
12.660532            0.476422012     0.850564003   0.000324630585  -0.00021726142   0.000324630585 -0.000217261419      0.483124109     0.846703068
12.66056             0.476908915     0.850266841   0.000325054658 -0.000217834188   0.000325054658 -0.000217834188      0.483610798     0.846400677
12.660588            0.477396065     0.849969124   0.000325479198 -0.000218408518   0.000325479198 -0.000218408518      0.484097732     0.846097724
12.660616            0.477883462     0.849670849   0.000325904203 -0.000218984414   0.000325904203 -0.000218984414       0.48458491     0.845794207
12.660644            0.478371106     0.849372016   0.000326329673 -0.000219561881   0.000326329673 -0.000219561881      0.485072332     0.845490125
12.660672            0.478858997     0.849072624   0.000326755609 -0.000220140924   0.000326755609 -0.000220140923      0.485559999     0.845185477
12.6607              0.479347135     0.848772671   0.000327182009 -0.000220721546   0.000327182009 -0.000220721545      0.486047909     0.844880262
12.660728             0.47983552     0.848472157   0.000327608873 -0.000221303752   0.000327608873 -0.000221303752      0.486536063     0.844574479
12.660756            0.480324152      0.84817108   0.000328036202 -0.000221887548   0.000328036202 -0.000221887547      0.487024461     0.844268127
12.660784            0.480813031      0.84786944   0.000328463994 -0.000222472937   0.000328463994 -0.000222472936      0.487513103     0.843961204
12.660812            0.481302157     0.847567235    0.00032889225 -0.000223059924    0.00032889225 -0.000223059923      0.488001988     0.843653711
12.66084             0.481791529     0.847264465   0.000329320969 -0.000223648513   0.000329320969 -0.000223648513      0.488491117     0.843345645
12.660868            0.482281148     0.846961127    0.00032975015 -0.000224238711    0.00032975015  -0.00022423871       0.48898049     0.843037006
12.660896            0.482771013     0.846657222   0.000330179794  -0.00022483052   0.000330179794 -0.000224830519      0.489470106     0.842727792
12.660924            0.483261125     0.846352748     0.0003306099 -0.000225423945     0.0003306099 -0.000225423945      0.489959966     0.842418002
12.660952            0.483751484     0.846047704   0.000331040467 -0.000226018992   0.000331040467 -0.000226018992      0.490450069     0.842107636
12.66098             0.484242089     0.845742088   0.000331471496 -0.000226615665   0.000331471496 -0.000226615665      0.490940415     0.841796692
12.661008             0.48473294     0.845435901   0.000331902985 -0.000227213969   0.000331902985 -0.000227213968      0.491431005      0.84148517
12.661036            0.485224037      0.84512914   0.000332334935 -0.000227813907   0.000332334935 -0.000227813907      0.491921837     0.841173067
12.661064            0.485715381     0.844821806   0.000332767345 -0.000228415486   0.000332767345 -0.000228415486      0.492412913     0.840860383
12.661092             0.48620697     0.844513895   0.000333200214  -0.00022901871   0.000333200214  -0.00022901871      0.492904231     0.840547118
12.66112             0.486698806     0.844205409   0.000333633543 -0.000229623583   0.000333633542 -0.000229623583      0.493395793     0.840233269
12.661148            0.487190888     0.843896345    0.00033406733  -0.00023023011    0.00033406733  -0.00023023011      0.493887597     0.839918836
12.661176            0.487683215     0.843586702   0.000334501575 -0.000230838297   0.000334501575 -0.000230838297      0.494379644     0.839603817
12.661204            0.488175789     0.843276479   0.000334936279 -0.000231448147   0.000334936279 -0.000231448147      0.494871933     0.839288212
12.661232            0.488668608     0.842965676    0.00033537144 -0.000232059666    0.00033537144 -0.000232059666      0.495364465     0.838972019
12.66126             0.489161672     0.842654291   0.000335807058 -0.000232672858   0.000335807057 -0.000232672858      0.495857239     0.838655238
12.661288            0.489654982     0.842342323   0.000336243132 -0.000233287729   0.000336243132 -0.000233287729      0.496350256     0.838337867
12.661316            0.490148538      0.84202977   0.000336679662 -0.000233904283   0.000336679662 -0.000233904283      0.496843515     0.838019904
12.661344            0.490642339     0.841716633   0.000337116648 -0.000234522525   0.000337116648 -0.000234522524      0.497337016      0.83770135
12.661372            0.491136386     0.841402909    0.00033755409 -0.000235142459   0.000337554089 -0.000235142459      0.497830759     0.837382203
12.6614              0.491630677     0.841088598   0.000337991985 -0.000235764091   0.000337991985 -0.000235764091      0.498324744     0.837062461
12.661428            0.492125214     0.840773698   0.000338430335 -0.000236387426   0.000338430335 -0.000236387426      0.498818971     0.836742124
12.661456            0.492619996     0.840458208   0.000338869139 -0.000237012469   0.000338869138 -0.000237012469      0.499313439     0.836421191
12.661484            0.493115023     0.840142128   0.000339308395 -0.000237639224   0.000339308395 -0.000237639224      0.499808149     0.836099659
12.661512            0.493610294     0.839825456   0.000339748104 -0.000238267696   0.000339748104 -0.000238267696      0.500303101     0.835777529
12.66154             0.494105811     0.839508191   0.000340188265 -0.000238897891   0.000340188265 -0.000238897891      0.500798294     0.835454799
12.661568            0.494601572     0.839190332   0.000340628878 -0.000239529813   0.000340628878 -0.000239529813      0.501293729     0.835131468
12.661596            0.495097578     0.838871877   0.000341069942 -0.000240163467   0.000341069942 -0.000240163467      0.501789404     0.834807535
12.661624            0.495593828     0.838552826   0.000341511456 -0.000240798859   0.000341511456 -0.000240798859      0.502285321     0.834482999
12.661652            0.496090322     0.838233178    0.00034195342 -0.000241435993    0.00034195342 -0.000241435993      0.502781479     0.834157858
12.66168             0.496587061     0.837912931   0.000342395833 -0.000242074875   0.000342395833 -0.000242074874      0.503277878     0.833832111
12.661708            0.497084044     0.837592084   0.000342838695 -0.000242715508   0.000342838695 -0.000242715508      0.503774517     0.833505758
12.661736            0.497581272     0.837270637   0.000343282005   -0.0002433579   0.000343282005   -0.0002433579      0.504271397     0.833178797
12.661764            0.498078743     0.836948587   0.000343725763 -0.000244002054   0.000343725763 -0.000244002054      0.504768518     0.832851226
12.661792            0.498576458     0.836625934   0.000344169968 -0.000244647975   0.000344169967 -0.000244647975      0.505265879     0.832523046
12.66182             0.499074417     0.836302677   0.000344614619  -0.00024529567   0.000344614618  -0.00024529567       0.50576348     0.832194254
12.661848            0.499572619     0.835978814   0.000345059715 -0.000245945142   0.000345059715 -0.000245945142      0.506261322      0.83186485
12.661876            0.500071066     0.835654345   0.000345505257 -0.000246596397   0.000345505257 -0.000246596397      0.506759404     0.831534832
12.661904            0.500569755     0.835329268   0.000345951244 -0.000247249441   0.000345951243 -0.000247249441      0.507257725     0.831204199
12.661932            0.501068688     0.835003582   0.000346397674 -0.000247904278   0.000346397674 -0.000247904278      0.507756287      0.83087295
12.66196             0.501567864     0.834677286   0.000346844547 -0.000248560913   0.000346844547 -0.000248560913      0.508255088     0.830541084
12.661988            0.502067284     0.834350379   0.000347291863 -0.000249219352   0.000347291863 -0.000249219352      0.508754129       0.8302086
12.662016            0.502566946      0.83402286   0.000347739621   -0.0002498796   0.000347739621   -0.0002498796      0.509253409     0.829875496
12.662044            0.503066851     0.833694726    0.00034818782 -0.000250541662    0.00034818782 -0.000250541662      0.509752928     0.829541772
12.662072               0.503567     0.833365979    0.00034863646 -0.000251205544    0.00034863646 -0.000251205544      0.510252687     0.829207426
12.6621               0.50406739     0.833036615   0.000349085539  -0.00025187125   0.000349085539  -0.00025187125      0.510752685     0.828872456
12.662128            0.504568024     0.832706634   0.000349535058 -0.000252538787   0.000349535058 -0.000252538786      0.511252922     0.828536863
12.662156            0.505068899     0.832376035   0.000349985015 -0.000253208158   0.000349985015 -0.000253208158      0.511753397     0.828200644
12.662184            0.505570017     0.832044817   0.000350435409  -0.00025387937   0.000350435409  -0.00025387937      0.512254111     0.827863798
12.662212            0.506071377     0.831712978   0.000350886241 -0.000254552428   0.000350886241 -0.000254552428      0.512755064     0.827526325
12.66224              0.50657298     0.831380517   0.000351337509 -0.000255227337   0.000351337509 -0.000255227337      0.513256255     0.827188223
12.662268            0.507074824     0.831047433   0.000351789213 -0.000255904103   0.000351789213 -0.000255904102      0.513757684      0.82684949
12.662296             0.50757691     0.830713725   0.000352241351  -0.00025658273   0.000352241351  -0.00025658273      0.514259352     0.826510127
12.662324            0.508079237     0.830379392   0.000352693923 -0.000257263225   0.000352693923 -0.000257263225      0.514761257      0.82617013
12.662352            0.508581806     0.830044433   0.000353146929 -0.000257945593   0.000353146929 -0.000257945592        0.5152634       0.8258295
12.66238             0.509084617     0.829708845   0.000353600367 -0.000258629838   0.000353600367 -0.000258629838      0.515765781     0.825488235
12.662408            0.509587669     0.829372629   0.000354054236 -0.000259315968   0.000354054236 -0.000259315967      0.516268399     0.825146334
12.662436            0.510090962     0.829035783   0.000354508537 -0.000260003986   0.000354508537 -0.000260003986      0.516771255     0.824803796
12.662464            0.510594496     0.828698305   0.000354963268 -0.000260693899   0.000354963267 -0.000260693898      0.517274348     0.824460619
12.662492             0.51109827     0.828360195   0.000355418427 -0.000261385711   0.000355418427 -0.000261385711      0.517777677     0.824116802
12.66252             0.511602286     0.828021452   0.000355874016 -0.000262079429   0.000355874016 -0.000262079429      0.518281244     0.823772344
12.662548            0.512106542     0.827682073   0.000356330032 -0.000262775058   0.000356330031 -0.000262775058      0.518785048     0.823427244
12.662576            0.512611038     0.827342058   0.000356786474 -0.000263472604   0.000356786474 -0.000263472604      0.519289088       0.8230815
12.662604            0.513115775     0.827001406   0.000357243343 -0.000264172072   0.000357243343 -0.000264172071      0.519793364     0.822735112
12.662632            0.513620752     0.826660116   0.000357700636 -0.000264873467   0.000357700636 -0.000264873467      0.520297877     0.822388078
12.66266             0.514125969     0.826318185   0.000358158354 -0.000265576795   0.000358158354 -0.000265576795      0.520802626     0.822040396
12.662688            0.514631425     0.825975614   0.000358616495 -0.000266282062   0.000358616495 -0.000266282062      0.521307611     0.821692067
12.662716            0.515137122     0.825632401   0.000359075058 -0.000266989274   0.000359075058 -0.000266989274      0.521812832     0.821343087
12.662744            0.515643057     0.825288544   0.000359534043 -0.000267698435   0.000359534043 -0.000267698435      0.522318288     0.820993457
12.662772            0.516149233     0.824944042   0.000359993448 -0.000268409552   0.000359993448 -0.000268409552       0.52282398     0.820643175
12.6628              0.516655647     0.824598895   0.000360453273 -0.000269122631   0.000360453273 -0.000269122631      0.523329906      0.82029224
12.662828            0.517162301       0.8242531   0.000360913517 -0.000269837676   0.000360913517 -0.000269837676      0.523836068      0.81994065
12.662856            0.517669193     0.823906658   0.000361374178 -0.000270554694   0.000361374178 -0.000270554694      0.524342465     0.819588404
12.662884            0.518176324     0.823559565   0.000361835257 -0.000271273691   0.000361835257  -0.00027127369      0.524849097     0.819235501
12.662912            0.518683694     0.823211822   0.000362296751 -0.000271994671   0.000362296751 -0.000271994671      0.525355963     0.818881939
12.66294             0.519191302     0.822863427    0.00036275866 -0.000272717642   0.000362758659 -0.000272717641      0.525863064     0.818527719
12.662968            0.519699148     0.822514378   0.000363220982 -0.000273442608   0.000363220982 -0.000273442607      0.526370399     0.818172837
12.662996            0.520207233     0.822164675   0.000363683718 -0.000274169575   0.000363683718 -0.000274169575      0.526877967     0.817817293
12.663024            0.520715555     0.821814316   0.000364146866  -0.00027489855   0.000364146865 -0.000274898549       0.52738577     0.817461086
12.663052            0.521224115       0.8214633   0.000364610424 -0.000275629537   0.000364610424 -0.000275629537      0.527893806     0.817104215
12.66308             0.521732913     0.821111626   0.000365074392 -0.000276362544   0.000365074392 -0.000276362543      0.528402076     0.816746677
12.663108            0.522241948     0.820759292   0.000365538769 -0.000277097575   0.000365538769 -0.000277097574      0.528910579     0.816388472
12.663136             0.52275122     0.820406297   0.000366003554 -0.000277834636   0.000366003554 -0.000277834636      0.529419315     0.816029599
12.663164            0.523260729      0.82005264   0.000366468745 -0.000278573734   0.000366468745 -0.000278573734      0.529928284     0.815670056
12.663192            0.523770475      0.81969832   0.000366934342 -0.000279314874   0.000366934342 -0.000279314874      0.530437486     0.815309843
12.66322             0.524280458     0.819343335   0.000367400344 -0.000280058063   0.000367400344 -0.000280058063       0.53094692     0.814948957
12.663248            0.524790677     0.818987685   0.000367866749 -0.000280803306   0.000367866749 -0.000280803305      0.531456587     0.814587397
12.663276            0.525301133     0.818631367   0.000368333556 -0.000281550608   0.000368333556 -0.000281550608      0.531966485     0.814225163
12.663304            0.525811824      0.81827438   0.000368800764 -0.000282299977   0.000368800764 -0.000282299977      0.532476616     0.813862252
12.663332            0.526322752     0.817916724   0.000369268373 -0.000283051418   0.000369268373 -0.000283051418      0.532986978     0.813498664
12.66336             0.526833915     0.817558397    0.00036973638 -0.000283804937    0.00036973638 -0.000283804937      0.533497572     0.813134397
12.663388            0.527345314     0.817199398   0.000370204786  -0.00028456054   0.000370204786 -0.000284560539      0.534008396     0.812769451
12.663416            0.527856949     0.816839725   0.000370673588 -0.000285318233   0.000370673587 -0.000285318232      0.534519452     0.812403823
12.663444            0.528368818     0.816479377   0.000371142785 -0.000286078022   0.000371142785 -0.000286078022      0.535030739     0.812037512
12.663472            0.528880922     0.816118353   0.000371612376 -0.000286839913   0.000371612376 -0.000286839913      0.535542257     0.811670517
12.6635              0.529393261     0.815756651   0.000372082361 -0.000287603913   0.000372082361 -0.000287603913      0.536054005     0.811302838
