! TOUCHSTONE file generated by CST MICROWAVE STUDIO
! Date and time: Wed Jul 31 17:43:50 2024
! Project name: WaveGuide_BPF-Ver4.1_U-shape_Ku_T3_C4_CWA_2.cst
! Parameters = {cavity_h=16; cavity_l0=10; cavity_l1=15.2045; cavity_l2=16.8088; cavity_l3=17.0663; cavity_l4=17.2249; cavity_l5=17.1023; cavity_l6=17.5613; cavity_r=2.5; cavity_screw_l=0.5; cavity_screw_r=1.5; cavity_w=8; iris_h00=0; iris_h01=8.8021; iris_h112=0; iris_h12=5.5863; iris_h211=3.6536; iris_h23=5.2003; iris_h310=3.9618; iris_h34=5.0924; iris_h45=4.9304; iris_h49=4.6251; iris_h56=4.8099; iris_h58=4.4334; iris_h67=6.5648; iris_rx=0.1; iris_screw_l=0.5; iris_screw_r=1.5; iris_shift00=0; iris_shift112=0; iris_shift211=3.5; iris_shift310=0; iris_shift49=0; iris_shift58=3.5; iris_shift67=3.5; iris_tx=4.5; iris_tz=4.5; iris_w00=0; iris_w112=0; iris_w211=4; iris_w310=3.9618; iris_w49=4.6251; iris_w58=4; iris_w67=4; mesh_cavity=5; mesh_iris=7; mesh_screw=7; order=12; reset_all=0; sigma=4.8e+07}
! Header version: 2018
! Port assignment regex: !\s*Touchstone port\s*([0-9]+)\s*=\s*(CST MWS port|CST DS port)\s*([0-9]+|Zmin|Zmax)\s*\(\"(.*)\"\)(\s*mode\s*([0-9]+))?.*
! Touchstone port assignment:
! Touchstone port 1 = CST MWS port 1 ("")
! Touchstone port 2 = CST MWS port 2 ("")
# GHz S RI R 50
12.66                0.259463885     0.948259115   0.000149364895  -5.1282759e-05   0.000149364895 -5.12827591e-05      0.261545585     0.947705623
12.660028            0.259821983     0.948150195   0.000149555809 -5.14152269e-05   0.000149555809  -5.1415227e-05      0.261903737     0.947595855
12.660056            0.260180276      0.94804106   0.000149746997 -5.15480213e-05   0.000149746997 -5.15480214e-05       0.26226206     0.947485879
12.660084            0.260538764     0.947931712   0.000149938458 -5.16811438e-05   0.000149938459 -5.16811438e-05      0.262620565     0.947375691
12.660112            0.260897449     0.947822149   0.000150130193 -5.18145961e-05   0.000150130194 -5.18145962e-05      0.262979263     0.947265289
12.66014             0.261256331      0.94771237   0.000150322201   -5.194838e-05   0.000150322202 -5.19483801e-05      0.263338165     0.947154669
12.660168            0.261615412     0.947602375   0.000150514483 -5.20824964e-05   0.000150514483 -5.20824965e-05      0.263697271      0.94704383
12.660196            0.261974691     0.947492164   0.000150707039 -5.22169456e-05   0.000150707039 -5.22169457e-05      0.264056574     0.946932775
12.660224            0.262334167     0.947381737   0.000150899869 -5.23517284e-05    0.00015089987 -5.23517285e-05      0.264416075     0.946821503
12.660252            0.262693841     0.947271093   0.000151092975 -5.24868457e-05   0.000151092975 -5.24868458e-05      0.264775773     0.946710013
12.66028             0.263053712     0.947160232   0.000151286356 -5.26222984e-05   0.000151286357 -5.26222985e-05      0.265135668     0.946598306
12.660308            0.263413782     0.947049153   0.000151480013 -5.27580874e-05   0.000151480014 -5.27580875e-05      0.265495761      0.94648638
12.660336             0.26377405     0.946937857   0.000151673947 -5.28942135e-05   0.000151673947 -5.28942136e-05      0.265856052     0.946374236
12.660364            0.264134516     0.946826342   0.000151868156 -5.30306777e-05   0.000151868157 -5.30306778e-05      0.266216541     0.946261873
12.660392            0.264495181     0.946714609   0.000152062643 -5.31674808e-05   0.000152062644 -5.31674809e-05      0.266577227     0.946149291
12.66042             0.264856044     0.946602656   0.000152257408 -5.33046237e-05   0.000152257408 -5.33046238e-05      0.266938112      0.94603649
12.660448            0.265217106     0.946490485    0.00015245245 -5.34421073e-05    0.00015245245 -5.34421074e-05      0.267299195     0.945923468
12.660476            0.265578366     0.946378094    0.00015264777 -5.35799325e-05   0.000152647771 -5.35799326e-05      0.267660477     0.945810227
12.660504            0.265939826     0.946265483   0.000152843369 -5.37181002e-05    0.00015284337 -5.37181003e-05      0.268021956     0.945696764
12.660532            0.266301484     0.946152651   0.000153039247 -5.38566114e-05   0.000153039247 -5.38566115e-05      0.268383635     0.945583081
12.66056             0.266663342     0.946039599   0.000153235404 -5.39954668e-05   0.000153235405 -5.39954669e-05      0.268745512     0.945469176
12.660588            0.267025399     0.945926326   0.000153431841 -5.41346675e-05   0.000153431842 -5.41346676e-05      0.269107589      0.94535505
12.660616            0.267387656     0.945812831   0.000153628559 -5.42742143e-05   0.000153628559 -5.42742143e-05      0.269469864     0.945240701
12.660644            0.267750112     0.945699114   0.000153825556 -5.44141081e-05   0.000153825557 -5.44141082e-05      0.269832338      0.94512613
12.660672            0.268112768     0.945585175   0.000154022835 -5.45543498e-05   0.000154022835 -5.45543499e-05      0.270195012     0.945011336
12.6607              0.268475624     0.945471014   0.000154220395 -5.46949404e-05   0.000154220395 -5.46949405e-05      0.270557885     0.944896319
12.660728            0.268838679      0.94535663   0.000154418236 -5.48358808e-05   0.000154418237 -5.48358809e-05      0.270920958     0.944781079
12.660756            0.269201935     0.945242022    0.00015461636  -5.4977172e-05    0.00015461636  -5.4977172e-05       0.27128423     0.944665614
12.660784            0.269565391     0.945127191   0.000154814766 -5.51188147e-05   0.000154814766 -5.51188148e-05      0.271647702     0.944549925
12.660812            0.269929048     0.945012135   0.000155013455   -5.526081e-05   0.000155013455 -5.52608101e-05      0.272011374     0.944434012
12.66084             0.270292904     0.944896856   0.000155212427 -5.54031587e-05   0.000155212428 -5.54031588e-05      0.272375246     0.944317873
12.660868            0.270656962     0.944781351   0.000155411683 -5.55458619e-05   0.000155411684  -5.5545862e-05      0.272739319     0.944201509
12.660896             0.27102122     0.944665622   0.000155611223 -5.56889205e-05   0.000155611224 -5.56889206e-05      0.273103591      0.94408492
12.660924             0.27138568     0.944549666   0.000155811048 -5.58323353e-05   0.000155811048 -5.58323354e-05      0.273468064     0.943968104
12.660952             0.27175034     0.944433485   0.000156011157 -5.59761073e-05   0.000156011157 -5.59761074e-05      0.273832738     0.943851061
12.66098             0.272115201     0.944317078   0.000156211552 -5.61202375e-05   0.000156211552 -5.61202376e-05      0.274197612     0.943733792
12.661008            0.272480264     0.944200444   0.000156412232 -5.62647269e-05   0.000156412232 -5.62647269e-05      0.274562688     0.943616295
12.661036            0.272845528     0.944083583   0.000156613198 -5.64095762e-05   0.000156613198 -5.64095763e-05      0.274927964     0.943498571
12.661064            0.273210994     0.943966495   0.000156814451 -5.65547866e-05   0.000156814451 -5.65547867e-05      0.275293441     0.943380619
12.661092            0.273576661     0.943849179    0.00015701599  -5.6700359e-05    0.00015701599 -5.67003591e-05       0.27565912     0.943262438
12.66112              0.27394253     0.943731634   0.000157217816 -5.68462943e-05   0.000157217817 -5.68462944e-05         0.276025     0.943144029
12.661148            0.274308601     0.943613861   0.000157419931 -5.69925934e-05   0.000157419931 -5.69925935e-05      0.276391081      0.94302539
12.661176            0.274674874      0.94349586   0.000157622333 -5.71392574e-05   0.000157622333 -5.71392575e-05      0.276757364     0.942906522
12.661204             0.27504135     0.943377629   0.000157825023 -5.72862872e-05   0.000157825024 -5.72862873e-05      0.277123849     0.942787424
12.661232            0.275408027     0.943259168   0.000158028003 -5.74336838e-05   0.000158028003 -5.74336839e-05      0.277490535     0.942668095
12.66126             0.275774907     0.943140477   0.000158231271 -5.75814481e-05   0.000158231272 -5.75814482e-05      0.277857424     0.942548536
12.661288             0.27614199     0.943021556   0.000158434829 -5.77295811e-05    0.00015843483 -5.77295812e-05      0.278224514     0.942428746
12.661316            0.276509276     0.942902404   0.000158638678 -5.78780838e-05   0.000158638678 -5.78780839e-05      0.278591807     0.942308724
12.661344            0.276876764     0.942783021   0.000158842816 -5.80269571e-05   0.000158842816 -5.80269572e-05      0.278959303     0.942188471
12.661372            0.277244455     0.942663406   0.000159047245 -5.81762021e-05   0.000159047246 -5.81762022e-05      0.279327001     0.942067985
12.6614               0.27761235     0.942543559   0.000159251966 -5.83258197e-05   0.000159251966 -5.83258198e-05      0.279694901     0.941947267
12.661428            0.277980447      0.94242348   0.000159456978  -5.8475811e-05   0.000159456978 -5.84758111e-05      0.280063004     0.941826315
12.661456            0.278348748     0.942303168   0.000159662282 -5.86261768e-05   0.000159662282 -5.86261769e-05      0.280431311     0.941705131
12.661484            0.278717253     0.942182623   0.000159867878 -5.87769182e-05   0.000159867878 -5.87769183e-05       0.28079982     0.941583712
12.661512            0.279085961     0.942061845   0.000160073767 -5.89280362e-05   0.000160073767 -5.89280363e-05      0.281168532      0.94146206
12.66154             0.279454873     0.941940832   0.000160279949 -5.90795318e-05    0.00016027995 -5.90795319e-05      0.281537448     0.941340172
12.661568            0.279823989     0.941819586   0.000160486425  -5.9231406e-05   0.000160486425 -5.92314061e-05      0.281906567      0.94121805
12.661596            0.280193308     0.941698104   0.000160693195 -5.93836597e-05   0.000160693195 -5.93836598e-05       0.28227589     0.941095693
12.661624            0.280562832     0.941576388   0.000160900259 -5.95362941e-05   0.000160900259 -5.95362942e-05      0.282645416       0.9409731
12.661652            0.280932561     0.941454436   0.000161107618   -5.968931e-05   0.000161107618 -5.96893101e-05      0.283015146     0.940850271
12.66168             0.281302493     0.941332248   0.000161315272 -5.98427086e-05   0.000161315273 -5.98427087e-05       0.28338508     0.940727205
12.661708            0.281672631     0.941209824   0.000161523222 -5.99964908e-05   0.000161523222 -5.99964909e-05      0.283755218     0.940603902
12.661736            0.282042972     0.941087164   0.000161731468 -6.01506576e-05   0.000161731468 -6.01506577e-05      0.284125561     0.940480362
12.661764            0.282413519     0.940964266    0.00016194001   -6.030521e-05    0.00016194001 -6.03052101e-05      0.284496107     0.940356585
12.661792            0.282784271     0.940841131   0.000162148848 -6.04601492e-05   0.000162148849 -6.04601493e-05      0.284866858     0.940232569
12.66182             0.283155227     0.940717758   0.000162357984 -6.06154761e-05   0.000162357985 -6.06154762e-05      0.285237814     0.940108315
12.661848            0.283526389     0.940594147   0.000162567418 -6.07711917e-05   0.000162567418 -6.07711918e-05      0.285608974     0.939983822
12.661876            0.283897757     0.940470297    0.00016277715  -6.0927297e-05    0.00016277715 -6.09272971e-05       0.28598034      0.93985909
12.661904            0.284269329     0.940346208   0.000162987179 -6.10837932e-05    0.00016298718 -6.10837933e-05       0.28635191     0.939734118
12.661932            0.284641108      0.94022188   0.000163197508 -6.12406812e-05   0.000163197508 -6.12406813e-05      0.286723685     0.939608906
12.66196             0.285013092     0.940097312   0.000163408136 -6.13979621e-05   0.000163408136 -6.13979622e-05      0.287095665     0.939483453
12.661988            0.285385281     0.939972503   0.000163619064  -6.1555637e-05   0.000163619064 -6.15556371e-05      0.287467851      0.93935776
12.662016            0.285757677     0.939847455   0.000163830291 -6.17137067e-05   0.000163830291 -6.17137068e-05      0.287840242     0.939231825
12.662044            0.286130279     0.939722165   0.000164041819 -6.18721726e-05   0.000164041819 -6.18721727e-05      0.288212839     0.939105649
12.662072            0.286503087     0.939596633   0.000164253648 -6.20310354e-05   0.000164253648 -6.20310355e-05      0.288585642     0.938979231
12.6621              0.286876102      0.93947086   0.000164465778 -6.21902964e-05   0.000164465778 -6.21902965e-05       0.28895865      0.93885257
12.662128            0.287249323     0.939344845   0.000164678209 -6.23499566e-05    0.00016467821 -6.23499567e-05      0.289331865     0.938725666
12.662156             0.28762275     0.939218587   0.000164890943 -6.25100171e-05   0.000164890943 -6.25100172e-05      0.289705285     0.938598519
12.662184            0.287996385     0.939092085   0.000165103979 -6.26704788e-05   0.000165103979 -6.26704789e-05      0.290078912     0.938471128
12.662212            0.288370226     0.938965341   0.000165317318 -6.28313429e-05   0.000165317318  -6.2831343e-05      0.290452745     0.938343493
12.66224             0.288744274     0.938838353    0.00016553096 -6.29926105e-05    0.00016553096 -6.29926106e-05      0.290826785     0.938215614
12.662268            0.289118529      0.93871112   0.000165744906 -6.31542826e-05   0.000165744906 -6.31542827e-05      0.291201031      0.93808749
12.662296            0.289492992     0.938583642   0.000165959155 -6.33163602e-05   0.000165959156 -6.33163603e-05      0.291575484      0.93795912
12.662324            0.289867662      0.93845592    0.00016617371 -6.34788446e-05    0.00016617371 -6.34788447e-05      0.291950144     0.937830505
12.662352             0.29024254     0.938327952   0.000166388569 -6.36417367e-05   0.000166388569 -6.36417368e-05      0.292325011     0.937701644
12.66238             0.290617625     0.938199738   0.000166603733 -6.38050377e-05   0.000166603733 -6.38050378e-05      0.292700085     0.937572536
12.662408            0.290992918     0.938071278   0.000166819203 -6.39687486e-05   0.000166819203 -6.39687487e-05      0.293075366     0.937443181
12.662436            0.291368419     0.937942571   0.000167034979 -6.41328705e-05    0.00016703498 -6.41328706e-05      0.293450855     0.937313578
12.662464            0.291744128     0.937813617   0.000167251062 -6.42974045e-05   0.000167251062 -6.42974046e-05      0.293826551     0.937183728
12.662492            0.292120045     0.937684415   0.000167467452 -6.44623517e-05   0.000167467452 -6.44623518e-05      0.294202455      0.93705363
12.66252              0.29249617     0.937554966   0.000167684148 -6.46277133e-05   0.000167684149 -6.46277134e-05      0.294578567     0.936923283
12.662548            0.292872504     0.937425268   0.000167901153 -6.47934903e-05   0.000167901153 -6.47934904e-05      0.294954886     0.936792687
12.662576            0.293249047     0.937295321   0.000168118466 -6.49596838e-05   0.000168118466 -6.49596839e-05      0.295331414     0.936661841
12.662604            0.293625798     0.937165125   0.000168336087  -6.5126295e-05   0.000168336087 -6.51262951e-05      0.295708149     0.936530746
12.662632            0.294002758     0.937034679   0.000168554017 -6.52933249e-05   0.000168554017  -6.5293325e-05      0.296085093       0.9363994
12.66266             0.294379927     0.936903983   0.000168772257 -6.54607746e-05   0.000168772257 -6.54607747e-05      0.296462246     0.936267803
12.662688            0.294757305     0.936773037   0.000168990806 -6.56286454e-05   0.000168990806 -6.56286455e-05      0.296839607     0.936135956
12.662716            0.295134892      0.93664184   0.000169209666 -6.57969383e-05   0.000169209666 -6.57969384e-05      0.297217176     0.936003857
12.662744            0.295512688     0.936510391   0.000169428836 -6.59656544e-05   0.000169428836 -6.59656545e-05      0.297594955     0.935871506
12.662772            0.295890694     0.936378691   0.000169648317 -6.61347949e-05   0.000169648317  -6.6134795e-05      0.297972942     0.935738902
12.6628               0.29626891     0.936246739   0.000169868109 -6.63043608e-05   0.000169868109 -6.63043609e-05      0.298351138     0.935606046
12.662828            0.296647335     0.936114534   0.000170088213 -6.64743535e-05   0.000170088214 -6.64743536e-05      0.298729544     0.935472936
12.662856             0.29702597     0.935982075    0.00017030863 -6.66447739e-05    0.00017030863  -6.6644774e-05      0.299108158     0.935339573
12.662884            0.297404815     0.935849364   0.000170529359 -6.68156232e-05   0.000170529359 -6.68156233e-05      0.299486983     0.935205955
12.662912             0.29778387     0.935716399   0.000170750401 -6.69869025e-05   0.000170750401 -6.69869027e-05      0.299866016     0.935072083
12.66294             0.298163135     0.935583179   0.000170971757 -6.71586131e-05   0.000170971757 -6.71586132e-05       0.30024526     0.934937956
12.662968            0.298542611     0.935449704   0.000171193426 -6.73307561e-05   0.000171193427 -6.73307562e-05      0.300624713     0.934803574
12.662996            0.298922297     0.935315975    0.00017141541 -6.75033326e-05    0.00017141541 -6.75033327e-05      0.301004376     0.934668936
12.663024            0.299302194     0.935181989   0.000171637708 -6.76763437e-05   0.000171637709 -6.76763438e-05      0.301384249     0.934534042
12.663052            0.299682302     0.935047748   0.000171860322 -6.78497907e-05   0.000171860322 -6.78497908e-05      0.301764333     0.934398891
12.66308              0.30006262     0.934913251   0.000172083251 -6.80236748e-05   0.000172083251 -6.80236749e-05      0.302144626     0.934263482
12.663108             0.30044315     0.934778496   0.000172306496 -6.81979969e-05   0.000172306496  -6.8197997e-05       0.30252513     0.934127817
12.663136             0.30082389     0.934643484   0.000172530057 -6.83727585e-05   0.000172530058 -6.83727586e-05      0.302905845     0.933991893
12.663164            0.301204842     0.934508214   0.000172753935 -6.85479605e-05   0.000172753936 -6.85479606e-05       0.30328677     0.933855711
12.663192            0.301586005     0.934372686   0.000172978131 -6.87236043e-05   0.000172978131 -6.87236044e-05      0.303667907      0.93371927
12.66322              0.30196738       0.9342369   0.000173202643  -6.8899691e-05   0.000173202644 -6.88996911e-05      0.304049254      0.93358257
12.663248            0.302348966     0.934100854   0.000173427474 -6.90762217e-05   0.000173427475 -6.90762218e-05      0.304430812      0.93344561
12.663276            0.302730764     0.933964549   0.000173652623 -6.92531977e-05   0.000173652624 -6.92531978e-05      0.304812581     0.933308389
12.663304            0.303112774     0.933827984   0.000173878091 -6.94306201e-05   0.000173878092 -6.94306202e-05      0.305194562     0.933170909
12.663332            0.303494996     0.933691159   0.000174103879 -6.96084902e-05   0.000174103879 -6.96084903e-05      0.305576754     0.933033167
12.66336              0.30387743     0.933554072   0.000174329985 -6.97868091e-05   0.000174329986 -6.97868092e-05      0.305959157     0.932895164
12.663388            0.304260077     0.933416725   0.000174556412 -6.99655781e-05   0.000174556413 -6.99655782e-05      0.306341773     0.932756898
12.663416            0.304642935     0.933279116    0.00017478316 -7.01447984e-05    0.00017478316 -7.01447985e-05        0.3067246     0.932618371
12.663444            0.305026007     0.933141244   0.000175010228 -7.03244711e-05   0.000175010228 -7.03244712e-05      0.307107639      0.93247958
12.663472            0.305409291      0.93300311   0.000175237617 -7.05045975e-05   0.000175237618 -7.05045976e-05       0.30749089     0.932340527
12.6635              0.305792787     0.932864713   0.000175465329 -7.06851787e-05   0.000175465329 -7.06851788e-05      0.307874353     0.932201209
