! TOUCHSTONE file generated by CST MICROWAVE STUDIO
! Date and time: Wed Jul 31 17:53:17 2024
! Project name: WaveGuide_BPF-Ver4.1_U-shape_Ku_T3_C4_CWA_2.cst
! Parameters = {cavity_h=16; cavity_l0=10; cavity_l1=15.2252; cavity_l2=16.8425; cavity_l3=17.1359; cavity_l4=17.2997; cavity_l5=17.1356; cavity_l6=17.6259; cavity_r=2.5; cavity_screw_l=0.5; cavity_screw_r=1.5; cavity_w=8; iris_h00=0; iris_h01=8.8087; iris_h112=0; iris_h12=5.6023; iris_h211=3.6675; iris_h23=5.2102; iris_h310=3.9765; iris_h34=5.0761; iris_h45=4.9197; iris_h49=4.6129; iris_h56=4.8111; iris_h58=4.4415; iris_h67=6.5917; iris_rx=0.1; iris_screw_l=0.5; iris_screw_r=1.5; iris_shift00=0; iris_shift112=0; iris_shift211=3.5; iris_shift310=0; iris_shift49=0; iris_shift58=3.5; iris_shift67=3.5; iris_tx=4.5; iris_tz=4.5; iris_w00=0; iris_w112=0; iris_w211=4; iris_w310=3.9765; iris_w49=4.6129; iris_w58=4; iris_w67=4; mesh_cavity=5; mesh_iris=7; mesh_screw=7; order=12; reset_all=0; sigma=4.8e+07}
! Header version: 2018
! Port assignment regex: !\s*Touchstone port\s*([0-9]+)\s*=\s*(CST MWS port|CST DS port)\s*([0-9]+|Zmin|Zmax)\s*\(\"(.*)\"\)(\s*mode\s*([0-9]+))?.*
! Touchstone port assignment:
! Touchstone port 1 = CST MWS port 1 ("")
! Touchstone port 2 = CST MWS port 2 ("")
# GHz S RI R 50
12.66                0.386067024     0.898816057   0.000268725284 -0.000140021539   0.000268725283 -0.000140021539      0.392377599     0.895949167
12.660028            0.386510799     0.898606761   0.000269085958 -0.000140389779   0.000269085958  -0.00014038978      0.392823561      0.89573489
12.660056            0.386954779     0.898397083   0.000269447103    -0.000140759   0.000269447103    -0.000140759      0.393269843     0.895520173
12.660084            0.387398987     0.898187011   0.000269808721 -0.000141129202   0.000269808721 -0.000141129202      0.393716419     0.895305027
12.660112            0.387843444     0.897976537   0.000270170813 -0.000141500389   0.000270170813 -0.000141500389      0.394163262     0.895089462
12.66014             0.388288173      0.89776565   0.000270533379 -0.000141872562   0.000270533379 -0.000141872562      0.394610344      0.89487349
12.660168            0.388733173     0.897554349    0.00027089642 -0.000142245723    0.00027089642 -0.000142245724      0.395057665     0.894657109
12.660196            0.389178431      0.89734264   0.000271259936 -0.000142619877   0.000271259936 -0.000142619878      0.395505244     0.894440312
12.660224            0.389623945     0.897130522   0.000271623927 -0.000142995026   0.000271623927 -0.000142995027       0.39595308     0.894223097
12.660252            0.390069717     0.896917995   0.000271988393 -0.000143371173   0.000271988393 -0.000143371173      0.396401175     0.894005464
12.66028             0.390515746     0.896705057   0.000272353334  -0.00014374832   0.000272353334  -0.00014374832      0.396849527     0.893787412
12.660308            0.390962033     0.896491707   0.000272718751 -0.000144126471   0.000272718751 -0.000144126471      0.397298138     0.893568939
12.660336            0.391408578     0.896277946   0.000273084644 -0.000144505627   0.000273084644 -0.000144505627      0.397747007     0.893350046
12.660364             0.39185538     0.896063772   0.000273451013 -0.000144885792   0.000273451013 -0.000144885793      0.398196134     0.893130732
12.660392             0.39230244     0.895849184   0.000273817859 -0.000145266969   0.000273817859  -0.00014526697      0.398645519     0.892910995
12.66042             0.392749758     0.895634181   0.000274185181 -0.000145649161   0.000274185181 -0.000145649161      0.399095163     0.892690834
12.660448            0.393197334     0.895418764    0.00027455298  -0.00014603237    0.00027455298  -0.00014603237      0.399545066      0.89247025
12.660476            0.393645168      0.89520293   0.000274921256 -0.000146416598   0.000274921256 -0.000146416598      0.399995227     0.892249241
12.660504            0.394093261      0.89498668    0.00027529001  -0.00014680185    0.00027529001  -0.00014680185      0.400445647     0.892027807
12.660532            0.394541612     0.894770012   0.000275659241 -0.000147188128   0.000275659241 -0.000147188128      0.400896327     0.891805946
12.66056             0.394990222     0.894552926   0.000276028951 -0.000147575434   0.000276028951 -0.000147575434      0.401347265     0.891583658
12.660588             0.39543909     0.894335421   0.000276399138 -0.000147963772   0.000276399138 -0.000147963772      0.401798462     0.891360941
12.660616            0.395888217     0.894117495   0.000276769803 -0.000148353144   0.000276769803 -0.000148353144      0.402249919     0.891137796
12.660644            0.396337603     0.893899149   0.000277140947 -0.000148743553   0.000277140947 -0.000148743553      0.402701635     0.890914222
12.660672            0.396787247     0.893680381    0.00027751257 -0.000149135003    0.00027751257 -0.000149135003       0.40315361     0.890690217
12.6607              0.397237151     0.893461191   0.000277884672 -0.000149527495   0.000277884672 -0.000149527496      0.403605845      0.89046578
12.660728            0.397687314     0.893241578   0.000278257253 -0.000149921034   0.000278257253 -0.000149921034      0.404058339     0.890240912
12.660756            0.398137736     0.893021541   0.000278630313 -0.000150315621   0.000278630313 -0.000150315621      0.404511094      0.89001561
12.660784            0.398588418     0.892801079   0.000279003853  -0.00015071126   0.000279003853 -0.000150711261      0.404964108     0.889789875
12.660812            0.399039359     0.892580192   0.000279377872 -0.000151107954   0.000279377872 -0.000151107954      0.405417382     0.889563706
12.66084              0.39949056     0.892358878   0.000279752372 -0.000151505706   0.000279752372 -0.000151505706      0.405870916       0.8893371
12.660868             0.39994202     0.892137137   0.000280127352 -0.000151904518   0.000280127352 -0.000151904518       0.40632471     0.889110059
12.660896             0.40039374     0.891914968   0.000280502812 -0.000152304393   0.000280502812 -0.000152304394      0.406778765      0.88888258
12.660924             0.40084572     0.891692371   0.000280878753 -0.000152705336   0.000280878752 -0.000152705336       0.40723308     0.888654664
12.660952             0.40129796     0.891469343   0.000281255174 -0.000153107347   0.000281255174 -0.000153107347      0.407687655     0.888426309
12.66098              0.40175046     0.891245885   0.000281632076 -0.000153510431   0.000281632076 -0.000153510431      0.408142491     0.888197514
12.661008            0.402203221     0.891021996    0.00028200946 -0.000153914591    0.00028200946 -0.000153914591      0.408597588     0.887968279
12.661036            0.402656241     0.890797675   0.000282387325 -0.000154319828   0.000282387325 -0.000154319828      0.409052945     0.887738603
12.661064            0.403109523     0.890572921   0.000282765671 -0.000154726148   0.000282765671 -0.000154726148      0.409508563     0.887508484
12.661092            0.403563064     0.890347733   0.000283144499 -0.000155133551   0.000283144499 -0.000155133551      0.409964442     0.887277923
12.66112             0.404016866      0.89012211   0.000283523809 -0.000155542042   0.000283523809 -0.000155542042      0.410420582     0.887046917
12.661148            0.404470929     0.889896053   0.000283903601 -0.000155951624   0.000283903601 -0.000155951624      0.410876983     0.886815468
12.661176            0.404925253     0.889669558   0.000284283875 -0.000156362299   0.000284283875 -0.000156362299      0.411333645     0.886583572
12.661204            0.405379838     0.889442627   0.000284664631  -0.00015677407   0.000284664631  -0.00015677407      0.411790569      0.88635123
12.661232            0.405834683     0.889215258    0.00028504587 -0.000157186941    0.00028504587 -0.000157186942      0.412247754     0.886118441
12.66126              0.40628979      0.88898745   0.000285427591 -0.000157600915   0.000285427591 -0.000157600915        0.4127052     0.885885204
12.661288            0.406745158     0.888759203   0.000285809795 -0.000158015995   0.000285809795 -0.000158015995      0.413162908     0.885651518
12.661316            0.407200787     0.888530515   0.000286192482 -0.000158432183   0.000286192482 -0.000158432183      0.413620878     0.885417383
12.661344            0.407656678     0.888301386   0.000286575653 -0.000158849483   0.000286575653 -0.000158849484      0.414079109     0.885182796
12.661372             0.40811283     0.888071815   0.000286959306 -0.000159267899   0.000286959306 -0.000159267899      0.414537602     0.884947758
12.6614              0.408569244     0.887841801   0.000287343443 -0.000159687432   0.000287343443 -0.000159687432      0.414996357     0.884712268
12.661428            0.409025919     0.887611343   0.000287728063 -0.000160108086   0.000287728063 -0.000160108086      0.415455375     0.884476324
12.661456            0.409482856      0.88738044   0.000288113167 -0.000160529865   0.000288113167 -0.000160529865      0.415914654     0.884239927
12.661484            0.409940055     0.887149092   0.000288498755 -0.000160952771   0.000288498755 -0.000160952772      0.416374195     0.884003074
12.661512            0.410397516     0.886917298   0.000288884826 -0.000161376808   0.000288884826 -0.000161376808      0.416833999     0.883765766
12.66154             0.410855239     0.886685056   0.000289271382 -0.000161801979   0.000289271382 -0.000161801979      0.417294065        0.883528
12.661568            0.411313224     0.886452366   0.000289658421 -0.000162228286   0.000289658421 -0.000162228286      0.417754394     0.883289777
12.661596            0.411771472     0.886219228   0.000290045945 -0.000162655734   0.000290045945 -0.000162655734      0.418214985     0.883051096
12.661624            0.412229982     0.885985639   0.000290433953 -0.000163084324   0.000290433953 -0.000163084324      0.418675838     0.882811955
12.661652            0.412688754       0.8857516   0.000290822446 -0.000163514061   0.000290822446 -0.000163514062      0.419136955     0.882572354
12.66168             0.413147789      0.88551711   0.000291211423 -0.000163944948   0.000291211423 -0.000163944948      0.419598334     0.882332292
12.661708            0.413607086     0.885282167   0.000291600885 -0.000164376988   0.000291600885 -0.000164376988      0.420059976     0.882091768
12.661736            0.414066646      0.88504677   0.000291990831 -0.000164810183   0.000291990831 -0.000164810183      0.420521881      0.88185078
12.661764            0.414526469      0.88481092   0.000292381262 -0.000165244538   0.000292381262 -0.000165244538      0.420984049     0.881609329
12.661792            0.414986555     0.884574614   0.000292772179 -0.000165680055   0.000292772179 -0.000165680055       0.42144648     0.881367414
12.66182             0.415446904     0.884337853    0.00029316358 -0.000166116738    0.00029316358 -0.000166116738      0.421909175     0.881125032
12.661848            0.415907515     0.884100635   0.000293555466  -0.00016655459   0.000293555466  -0.00016655459      0.422372132     0.880882184
12.661876             0.41636839     0.883862959   0.000293947838 -0.000166993613   0.000293947838 -0.000166993614      0.422835353     0.880638869
12.661904            0.416829528     0.883624825   0.000294340694 -0.000167433813   0.000294340694 -0.000167433813      0.423298838     0.880395085
12.661932             0.41729093     0.883386232   0.000294734036 -0.000167875191   0.000294734036 -0.000167875191      0.423762586     0.880150833
12.66196             0.417752595     0.883147178   0.000295127864 -0.000168317751   0.000295127863 -0.000168317751      0.424226597      0.87990611
12.661988            0.418214523     0.882907663   0.000295522176 -0.000168761496   0.000295522176 -0.000168761496      0.424690873     0.879660916
12.662016            0.418676715     0.882667685   0.000295916974  -0.00016920643   0.000295916974  -0.00016920643      0.425155412      0.87941525
12.662044             0.41913917     0.882427245   0.000296312258 -0.000169652556   0.000296312258 -0.000169652556      0.425620214     0.879169111
12.662072             0.41960189     0.882186341   0.000296708027 -0.000170099877   0.000296708027 -0.000170099877      0.426085281     0.878922498
12.6621              0.420064873     0.881944973   0.000297104282 -0.000170548396   0.000297104282 -0.000170548397      0.426550612     0.878675411
12.662128             0.42052812     0.881703138   0.000297501023 -0.000170998118   0.000297501023 -0.000170998118      0.427016207     0.878427848
12.662156            0.420991631     0.881460838   0.000297898249 -0.000171449044   0.000297898249 -0.000171449044      0.427482066     0.878179809
12.662184            0.421455406     0.881218069   0.000298295961 -0.000171901179   0.000298295961  -0.00017190118      0.427948189     0.877931292
12.662212            0.421919445     0.880974833   0.000298694158 -0.000172354526   0.000298694158 -0.000172354527      0.428414576     0.877682296
12.66224             0.422383749     0.880731127   0.000299092842 -0.000172809089   0.000299092842 -0.000172809089      0.428881228     0.877432822
12.662268            0.422848316     0.880486951   0.000299492011  -0.00017326487   0.000299492011  -0.00017326487      0.429348144     0.877182867
12.662296            0.423313148     0.880242303   0.000299891666 -0.000173721873   0.000299891666 -0.000173721873      0.429815325     0.876932431
12.662324            0.423778245     0.879997184   0.000300291807 -0.000174180101   0.000300291807 -0.000174180102       0.43028277     0.876681513
12.662352            0.424243606     0.879751592   0.000300692433 -0.000174639559   0.000300692433 -0.000174639559       0.43075048     0.876430112
12.66238             0.424709232     0.879505526   0.000301093546 -0.000175100248   0.000301093546 -0.000175100249      0.431218454     0.876178227
12.662408            0.425175123     0.879258986   0.000301495144 -0.000175562174   0.000301495144 -0.000175562174      0.431686694     0.875925857
12.662436            0.425641278      0.87901197   0.000301897228 -0.000176025338   0.000301897228 -0.000176025339      0.432155198     0.875673001
12.662464            0.426107698     0.878764477   0.000302299798 -0.000176489746   0.000302299798 -0.000176489746      0.432623967     0.875419658
12.662492            0.426574383     0.878516507   0.000302702854 -0.000176955399   0.000302702854 -0.000176955399      0.433093001     0.875165828
12.66252             0.427041333     0.878268058   0.000303106395 -0.000177422301   0.000303106395 -0.000177422302        0.4335623     0.874911508
12.662548            0.427508548      0.87801913   0.000303510422 -0.000177890457   0.000303510422 -0.000177890457      0.434031864       0.8746567
12.662576            0.427976028     0.877769722   0.000303914935 -0.000178359869   0.000303914935 -0.000178359869      0.434501694       0.8744014
12.662604            0.428443774     0.877519832   0.000304319933 -0.000178830541   0.000304319933 -0.000178830542      0.434971788     0.874145609
12.662632            0.428911784      0.87726946   0.000304725417 -0.000179302477   0.000304725417 -0.000179302477      0.435442148     0.873889326
12.66266             0.429380061     0.877018606   0.000305131387  -0.00017977568   0.000305131387  -0.00017977568      0.435912773     0.873632549
12.662688            0.429848602     0.876767267   0.000305537842 -0.000180250153   0.000305537842 -0.000180250153      0.436383664     0.873375278
12.662716            0.430317409     0.876515443   0.000305944783   -0.0001807259   0.000305944783   -0.0001807259       0.43685482     0.873117511
12.662744            0.430786482     0.876263134   0.000306352209 -0.000181202925   0.000306352209 -0.000181202925      0.437326242     0.872859248
12.662772             0.43125582     0.876010337    0.00030676012  -0.00018168123    0.00030676012 -0.000181681231      0.437797929     0.872600487
12.6628              0.431725424     0.875757053   0.000307168517 -0.000182160821   0.000307168517 -0.000182160821      0.438269882     0.872341229
12.662828            0.432195294      0.87550328   0.000307577399   -0.0001826417   0.000307577399   -0.0001826417      0.438742101     0.872081471
12.662856            0.432665429     0.875249017   0.000307986766 -0.000183123871   0.000307986766 -0.000183123871      0.439214586     0.871821212
12.662884            0.433135831     0.874994264   0.000308396618 -0.000183607337   0.000308396618 -0.000183607337      0.439687336     0.871560453
12.662912            0.433606498     0.874739019   0.000308806955 -0.000184092102   0.000308806955 -0.000184092102      0.440160352     0.871299191
12.66294             0.434077432     0.874483281   0.000309217776  -0.00018457817   0.000309217776  -0.00018457817      0.440633634     0.871037426
12.662968            0.434548631      0.87422705   0.000309629083 -0.000185065544   0.000309629083 -0.000185065544      0.441107183     0.870775157
12.662996            0.435020097     0.873970324   0.000310040874 -0.000185554228   0.000310040874 -0.000185554228      0.441580997     0.870512383
12.663024            0.435491829     0.873713103    0.00031045315 -0.000186044225    0.00031045315 -0.000186044225      0.442055077     0.870249103
12.663052            0.435963828     0.873455386    0.00031086591  -0.00018653554    0.00031086591  -0.00018653554      0.442529424     0.869985315
12.66308             0.436436092     0.873197171   0.000311279155 -0.000187028175   0.000311279155 -0.000187028175      0.443004037      0.86972102
12.663108            0.436908623     0.872938458   0.000311692883 -0.000187522135   0.000311692883 -0.000187522136      0.443478916     0.869456215
12.663136            0.437381421     0.872679245   0.000312107096 -0.000188017424   0.000312107096 -0.000188017424      0.443954061       0.8691909
12.663164            0.437854485     0.872419532   0.000312521793 -0.000188514044   0.000312521793 -0.000188514044      0.444429473     0.868925074
12.663192            0.438327816     0.872159318   0.000312936973 -0.000189011999   0.000312936973    -0.000189012      0.444905151     0.868658736
12.66322             0.438801413     0.871898602   0.000313352637 -0.000189511294   0.000313352637 -0.000189511294      0.445381096     0.868391885
12.663248            0.439275277     0.871637382   0.000313768785 -0.000190011932   0.000313768785 -0.000190011932      0.445857307     0.868124519
12.663276            0.439749408     0.871375658   0.000314185416 -0.000190513917   0.000314185416 -0.000190513917      0.446333785     0.867856639
12.663304            0.440223806     0.871113429    0.00031460253 -0.000191017252    0.00031460253 -0.000191017252      0.446810529     0.867588242
12.663332             0.44069847     0.870850693   0.000315020127 -0.000191521942   0.000315020127 -0.000191521942       0.44728754     0.867319328
12.66336             0.441173402     0.870587451   0.000315438207 -0.000192027989   0.000315438207 -0.000192027989      0.447764818     0.867049896
12.663388              0.4416486       0.8703237   0.000315856769 -0.000192535398   0.000315856769 -0.000192535398      0.448242363     0.866779945
12.663416            0.442124065      0.87005944   0.000316275814 -0.000193044173   0.000316275814 -0.000193044173      0.448720174     0.866509474
12.663444            0.442599798      0.86979467   0.000316695342 -0.000193554317   0.000316695341 -0.000193554317      0.449198252     0.866238481
12.663472            0.443075798     0.869529389   0.000317115351 -0.000194065834   0.000317115351 -0.000194065834      0.449676597     0.865966966
12.6635              0.443552065     0.869263595   0.000317535842 -0.000194578728   0.000317535842 -0.000194578728      0.450155209     0.865694928
