! TOUCHSTONE file generated by CST MICROWAVE STUDIO
! Date and time: Wed Jul 31 17:59:23 2024
! Project name: WaveGuide_BPF-Ver4.1_U-shape_Ku_T3_C4_CWA_2.cst
! Parameters = {cavity_h=16; cavity_l0=10; cavity_l1=15.1871; cavity_l2=16.8843; cavity_l3=17.1253; cavity_l4=17.2548; cavity_l5=17.1291; cavity_l6=17.6206; cavity_r=2.5; cavity_screw_l=0.5; cavity_screw_r=1.5; cavity_w=8; iris_h00=0; iris_h01=8.8099; iris_h112=0; iris_h12=5.5983; iris_h211=3.6564; iris_h23=5.2072; iris_h310=3.9652; iris_h34=5.0833; iris_h45=4.9298; iris_h49=4.6183; iris_h56=4.8024; iris_h58=4.4364; iris_h67=6.5787; iris_rx=0.1; iris_screw_l=0.5; iris_screw_r=1.5; iris_shift00=0; iris_shift112=0; iris_shift211=3.5; iris_shift310=0; iris_shift49=0; iris_shift58=3.5; iris_shift67=3.5; iris_tx=4.5; iris_tz=4.5; iris_w00=0; iris_w112=0; iris_w211=4; iris_w310=3.9652; iris_w49=4.6183; iris_w58=4; iris_w67=4; mesh_cavity=5; mesh_iris=7; mesh_screw=7; order=12; reset_all=0; sigma=4.8e+07}
! Header version: 2018
! Port assignment regex: !\s*Touchstone port\s*([0-9]+)\s*=\s*(CST MWS port|CST DS port)\s*([0-9]+|Zmin|Zmax)\s*\(\"(.*)\"\)(\s*mode\s*([0-9]+))?.*
! Touchstone port assignment:
! Touchstone port 1 = CST MWS port 1 ("")
! Touchstone port 2 = CST MWS port 2 ("")
# GHz S RI R 50
12.66                0.265505865     0.945294094   0.000321340516 -0.000119464205   0.000321340515 -0.000119464204      0.272254657     0.943242001
12.660028            0.265889699     0.945171637   0.000321868384  -0.00011982506   0.000321868382 -0.000119825059      0.272642162     0.943115261
12.660056            0.266273928     0.945048874   0.000322397269  -0.00012018705   0.000322397268 -0.000120187049      0.273029898     0.942988253
12.660084            0.266658498      0.94492582   0.000322927179 -0.000120550173   0.000322927178 -0.000120550172      0.273417881     0.942860972
12.660112            0.267043352      0.94480249    0.00032345812 -0.000120914427   0.000323458119 -0.000120914426      0.273806126     0.942733415
12.66014             0.267428434     0.944678898   0.000323990099  -0.00012127981   0.000323990098 -0.000121279809       0.27419465     0.942605575
12.660168            0.267813745     0.944555045   0.000324523117 -0.000121646325   0.000324523116 -0.000121646325      0.274583453     0.942477452
12.660196            0.268199321     0.944430918   0.000325057175 -0.000122013981   0.000325057174 -0.000122013981      0.274972525     0.942349049
12.660224            0.268585164     0.944306519   0.000325592274 -0.000122382782   0.000325592273 -0.000122382781      0.275361867     0.942220365
12.660252            0.268971274     0.944181845   0.000326128417 -0.000122752731   0.000326128416  -0.00012275273      0.275751478     0.942091398
12.66028             0.269357652     0.944056897   0.000326665606 -0.000123123833   0.000326665605 -0.000123123832      0.276141358      0.94196215
12.660308            0.269744296     0.943931674   0.000327203843 -0.000123496091   0.000327203842  -0.00012349609      0.276531509     0.941832618
12.660336            0.270131208     0.943806175   0.000327743131 -0.000123869509    0.00032774313 -0.000123869509       0.27692193     0.941702803
12.660364            0.270518389     0.943680399   0.000328283471 -0.000124244092    0.00032828347 -0.000124244091      0.277312623     0.941572704
12.660392            0.270905837     0.943554347   0.000328824866 -0.000124619843   0.000328824865 -0.000124619843      0.277703586      0.94144232
12.66042             0.271293555     0.943428018   0.000329367319 -0.000124996767   0.000329367318 -0.000124996767       0.27809482     0.941311651
12.660448            0.271681541      0.94330141   0.000329910831 -0.000125374867    0.00032991083 -0.000125374867      0.278486326     0.941180696
12.660476            0.272069797     0.943174524   0.000330455405 -0.000125754148   0.000330455404 -0.000125754148      0.278878104     0.941049454
12.660504            0.272458322     0.943047358   0.000331001043 -0.000126134614   0.000331001042 -0.000126134614      0.279270155     0.940917925
12.660532            0.272847117     0.942919913   0.000331547748 -0.000126516269   0.000331547746 -0.000126516268      0.279662478     0.940786108
12.66056             0.273236182     0.942792187   0.000332095521 -0.000126899116    0.00033209552 -0.000126899116      0.280055074     0.940654003
12.660588            0.273625518      0.94266418   0.000332644365 -0.000127283161   0.000332644364  -0.00012728316      0.280447943     0.940521609
12.660616            0.274015124     0.942535892   0.000333194283 -0.000127668406   0.000333194282 -0.000127668406      0.280841085     0.940388925
12.660644            0.274405002     0.942407321   0.000333745276 -0.000128054857   0.000333745275 -0.000128054857      0.281234502     0.940255951
12.660672            0.274795151     0.942278468   0.000334297347 -0.000128442518   0.000334297346 -0.000128442517      0.281628192     0.940122686
12.6607              0.275185572     0.942149331   0.000334850499 -0.000128831392   0.000334850498 -0.000128831391      0.282022157     0.939989129
12.660728            0.275576265      0.94201991   0.000335404733 -0.000129221484   0.000335404732 -0.000129221484      0.282416397     0.939855281
12.660756             0.27596723     0.941890205   0.000335960052 -0.000129612799   0.000335960051 -0.000129612798      0.282810912     0.939721139
12.660784            0.276358468     0.941760214   0.000336516459 -0.000130005339   0.000336516457 -0.000130005339      0.283205702     0.939586705
12.660812            0.276749979     0.941629938   0.000337073955 -0.000130399111   0.000337073954  -0.00013039911      0.283600768     0.939451976
12.66084             0.277141763     0.941499375   0.000337632543 -0.000130794118   0.000337632542 -0.000130794117       0.28399611     0.939316953
12.660868            0.277533821     0.941368525   0.000338192225 -0.000131190363   0.000338192224 -0.000131190363      0.284391728     0.939181634
12.660896            0.277926152     0.941237387   0.000338753004 -0.000131587853   0.000338753003 -0.000131587852      0.284787623     0.939046019
12.660924            0.278318758     0.941105961   0.000339314882  -0.00013198659   0.000339314881 -0.000131986589      0.285183795     0.938910108
12.660952            0.278711639     0.940974246   0.000339877862 -0.000132386579   0.000339877861 -0.000132386579      0.285580244       0.9387739
12.66098             0.279104794     0.940842241   0.000340441945 -0.000132787825   0.000340441944 -0.000132787825       0.28597697     0.938637394
12.661008            0.279498225     0.940709946   0.000341007135 -0.000133190332   0.000341007134 -0.000133190332      0.286373975     0.938500589
12.661036            0.279891931     0.940577361   0.000341573433 -0.000133594105   0.000341573432 -0.000133594104      0.286771258     0.938363485
12.661064            0.280285912     0.940444484   0.000342140842 -0.000133999147   0.000342140841 -0.000133999147      0.287168819     0.938226082
12.661092             0.28068017     0.940311315   0.000342709364 -0.000134405464   0.000342709363 -0.000134405463      0.287566659     0.938088378
12.66112             0.281074705     0.940177853   0.000343279002 -0.000134813059   0.000343279001 -0.000134813058      0.287964778     0.937950373
12.661148            0.281469516     0.940044098   0.000343849759 -0.000135221937   0.000343849758 -0.000135221937      0.288363177     0.937812067
12.661176            0.281864604     0.939910049   0.000344421635 -0.000135632103   0.000344421634 -0.000135632103      0.288761855     0.937673458
12.661204             0.28225997     0.939775706   0.000344994635 -0.000136043561   0.000344994634 -0.000136043561      0.289160813     0.937534546
12.661232            0.282655613     0.939641067    0.00034556876 -0.000136456316   0.000345568759 -0.000136456316      0.289560052      0.93739533
12.66126             0.283051534     0.939506132   0.000346144013 -0.000136870372   0.000346144012 -0.000136870372      0.289959572      0.93725581
12.661288            0.283447734     0.939370901   0.000346720396 -0.000137285734   0.000346720395 -0.000137285733      0.290359373     0.937115985
12.661316            0.283844212     0.939235373   0.000347297912 -0.000137702406   0.000347297911 -0.000137702405      0.290759455     0.936975854
12.661344             0.28424097     0.939099547   0.000347876563 -0.000138120393   0.000347876562 -0.000138120392      0.291159819     0.936835418
12.661372            0.284638006     0.938963422   0.000348456351 -0.000138539699    0.00034845635 -0.000138539699      0.291560464     0.936694674
12.6614              0.285035323     0.938826999   0.000349037279  -0.00013896033   0.000349037278 -0.000138960329      0.291961393     0.936553622
12.661428            0.285432919     0.938690276    0.00034961935 -0.000139382289   0.000349619349 -0.000139382289      0.292362603     0.936412262
12.661456            0.285830796     0.938553252   0.000350202566 -0.000139805582   0.000350202565 -0.000139805582      0.292764097     0.936270593
12.661484            0.286228953     0.938415927   0.000350786929 -0.000140230213   0.000350786928 -0.000140230213      0.293165874     0.936128615
12.661512            0.286627391     0.938278301   0.000351372441 -0.000140656187    0.00035137244 -0.000140656186      0.293567935     0.935986326
12.66154              0.28702611     0.938140373   0.000351959107 -0.000141083508   0.000351959105 -0.000141083508       0.29397028     0.935843726
12.661568            0.287425111     0.938002141   0.000352546926 -0.000141512182   0.000352546925 -0.000141512181      0.294372909     0.935700815
12.661596            0.287824394     0.937863606   0.000353135903 -0.000141942213   0.000353135902 -0.000141942212      0.294775822     0.935557591
12.661624            0.288223959     0.937724766    0.00035372604 -0.000142373605   0.000353726039 -0.000142373604      0.295179021     0.935414054
12.661652            0.288623806     0.937585621   0.000354317339 -0.000142806364   0.000354317338 -0.000142806364      0.295582504     0.935270203
12.66168             0.289023937     0.937446171   0.000354909802 -0.000143240495   0.000354909801 -0.000143240494      0.295986274     0.935126038
12.661708             0.28942435     0.937306415   0.000355503433 -0.000143676001   0.000355503432 -0.000143676001      0.296390329     0.934981558
12.661736            0.289825048     0.937166351   0.000356098234 -0.000144112889   0.000356098233 -0.000144112889       0.29679467     0.934836762
12.661764            0.290226029      0.93702598   0.000356694207 -0.000144551163   0.000356694205 -0.000144551163      0.297199298      0.93469165
12.661792            0.290627294     0.936885301   0.000357291354 -0.000144990828   0.000357291353 -0.000144990827      0.297604213      0.93454622
12.66182             0.291028844     0.936744312   0.000357889679 -0.000145431888   0.000357889678 -0.000145431888      0.298009415     0.934400473
12.661848            0.291430678     0.936603014   0.000358489183 -0.000145874349   0.000358489182 -0.000145874349      0.298414905     0.934254407
12.661876            0.291832798     0.936461406    0.00035908987 -0.000146318216   0.000359089869 -0.000146318216      0.298820682     0.934108021
12.661904            0.292235203     0.936319486   0.000359691742 -0.000146763494   0.000359691741 -0.000146763493      0.299226748     0.933961316
12.661932            0.292637894     0.936177255   0.000360294801 -0.000147210187     0.0003602948 -0.000147210186      0.299633102      0.93381429
12.66196             0.293040871     0.936034711    0.00036089905   -0.0001476583   0.000360899049   -0.0001476583      0.300039745     0.933666943
12.661988            0.293444135     0.935891854   0.000361504491 -0.000148107839    0.00036150449 -0.000148107839      0.300446677     0.933519273
12.662016            0.293847685     0.935748684   0.000362111128 -0.000148558809   0.000362111127 -0.000148558809      0.300853899     0.933371281
12.662044            0.294251523     0.935605199   0.000362718962 -0.000149011215   0.000362718961 -0.000149011214       0.30126141     0.933222965
12.662072            0.294655648     0.935461399   0.000363327996 -0.000149465061   0.000363327995 -0.000149465061      0.301669212     0.933074325
12.6621              0.295060061     0.935317283   0.000363938233 -0.000149920354   0.000363938232 -0.000149920353      0.302077304      0.93292536
12.662128            0.295464762      0.93517285   0.000364549676 -0.000150377097   0.000364549675 -0.000150377096      0.302485687     0.932776069
12.662156            0.295869752       0.9350281   0.000365162326 -0.000150835297   0.000365162325 -0.000150835296      0.302894362     0.932626452
12.662184             0.29627503     0.934883033   0.000365776187 -0.000151294957   0.000365776186 -0.000151294957      0.303303327     0.932476508
12.662212            0.296680598     0.934737646    0.00036639126 -0.000151756085   0.000366391259 -0.000151756084      0.303712585     0.932326236
12.66224             0.297086455      0.93459194    0.00036700755 -0.000152218684   0.000367007549 -0.000152218684      0.304122135     0.932175635
12.662268            0.297492602     0.934445915   0.000367625058  -0.00015268276   0.000367625057  -0.00015268276      0.304531977     0.932024705
12.662296            0.297899039     0.934299568   0.000368243786 -0.000153148319   0.000368243785 -0.000153148318      0.304942112     0.931873446
12.662324            0.298305766       0.9341529   0.000368863739 -0.000153615365   0.000368863737 -0.000153615364      0.305352541     0.931721855
12.662352            0.298712785      0.93400591   0.000369484917 -0.000154083904   0.000369484916 -0.000154083903      0.305763262     0.931569933
12.66238             0.299120094     0.933858596   0.000370107324  -0.00015455394   0.000370107323  -0.00015455394      0.306174278     0.931417678
12.662408            0.299527695      0.93371096   0.000370730962 -0.000155025481   0.000370730961  -0.00015502548      0.306585588     0.931265091
12.662436            0.299935588     0.933562998   0.000371355834  -0.00015549853   0.000371355833 -0.000155498529      0.306997192      0.93111217
12.662464            0.300343773     0.933414712   0.000371981943 -0.000155973093   0.000371981942 -0.000155973092      0.307409092     0.930958915
12.662492            0.300752251       0.9332661   0.000372609292 -0.000156449176    0.00037260929 -0.000156449175      0.307821286     0.930805324
12.66252             0.301161022     0.933117162   0.000373237882 -0.000156926784   0.000373237881 -0.000156926783      0.308233776     0.930651398
12.662548            0.301570085     0.932967896   0.000373867716 -0.000157405922   0.000373867715 -0.000157405921      0.308646562     0.930497134
12.662576            0.301979443     0.932818302   0.000374498798 -0.000157886596   0.000374498797 -0.000157886595      0.309059644     0.930342534
12.662604            0.302389094      0.93266838    0.00037513113 -0.000158368811   0.000375131129 -0.000158368811      0.309473023     0.930187595
12.662632            0.302799039     0.932518128   0.000375764714 -0.000158852574   0.000375764713 -0.000158852573      0.309886699     0.930032317
12.66266             0.303209279     0.932367546   0.000376399554 -0.000159337889   0.000376399553 -0.000159337888      0.310300672     0.929876699
12.662688            0.303619814     0.932216633   0.000377035652 -0.000159824761    0.00037703565 -0.000159824761      0.310714942     0.929720741
12.662716            0.304030644     0.932065388    0.00037767301 -0.000160313198   0.000377673009 -0.000160313197       0.31112951     0.929564442
12.662744             0.30444177     0.931913811   0.000378311631 -0.000160803203    0.00037831163 -0.000160803203      0.311544377     0.929407801
12.662772            0.304853191     0.931761901   0.000378951518 -0.000161294783   0.000378951517 -0.000161294783      0.311959542     0.929250817
12.6628              0.305264909     0.931609657   0.000379592674 -0.000161787944   0.000379592673 -0.000161787943      0.312375007     0.929093489
12.662828            0.305676924     0.931457079   0.000380235102 -0.000162282691   0.000380235101  -0.00016228269       0.31279077     0.928935817
12.662856            0.306089236     0.931304165   0.000380878803 -0.000162779029   0.000380878802 -0.000162779028      0.313206833       0.9287778
12.662884            0.306501845     0.931150915   0.000381523781 -0.000163276965    0.00038152378 -0.000163276964      0.313623196     0.928619438
12.662912            0.306914751     0.930997328   0.000382170039 -0.000163776504   0.000382170038 -0.000163776503       0.31403986     0.928460728
12.66294             0.307327956     0.930843403   0.000382817579 -0.000164277652   0.000382817578 -0.000164277651      0.314456824     0.928301671
12.662968            0.307741459      0.93068914   0.000383466404 -0.000164780414   0.000383466403 -0.000164780414      0.314874089     0.928142266
12.662996            0.308155261     0.930534538   0.000384116516 -0.000165284798   0.000384116515 -0.000165284797      0.315291656     0.927982512
12.663024            0.308569362     0.930379596   0.000384767919 -0.000165790807   0.000384767918 -0.000165790806      0.315709524     0.927822409
12.663052            0.308983762     0.930224313   0.000385420616 -0.000166298449   0.000385420615 -0.000166298448      0.316127695     0.927661954
12.66308             0.309398462     0.930068689   0.000386074608 -0.000166807728   0.000386074607 -0.000166807728      0.316546168     0.927501149
12.663108            0.309813462     0.929912722   0.000386729899 -0.000167318652   0.000386729897 -0.000167318652      0.316964943     0.927339991
12.663136            0.310228763     0.929756413   0.000387386491 -0.000167831226    0.00038738649 -0.000167831225      0.317384022      0.92717848
12.663164            0.310644364      0.92959976   0.000388044387 -0.000168345455   0.000388044386 -0.000168345455      0.317803404     0.927016616
12.663192            0.311060267     0.929442762   0.000388703591 -0.000168861346   0.000388703589 -0.000168861346       0.31822309     0.926854396
12.66322             0.311476471     0.929285419   0.000389364104 -0.000169378905   0.000389364103 -0.000169378905       0.31864308     0.926691822
12.663248            0.311892977     0.929127729   0.000390025929 -0.000169898138   0.000390025928 -0.000169898137      0.319063375     0.926528892
12.663276            0.312309785     0.928969693    0.00039068907 -0.000170419051   0.000390689069  -0.00017041905      0.319483975     0.926365604
12.663304            0.312726896     0.928811309   0.000391353529 -0.000170941649   0.000391353528 -0.000170941648      0.319904879     0.926201959
12.663332            0.313144309     0.928652577   0.000392019309  -0.00017146594   0.000392019308 -0.000171465939       0.32032609     0.926037955
12.66336             0.313562027     0.928493496   0.000392686413 -0.000171991928   0.000392686412 -0.000171991928      0.320747606     0.925873592
12.663388            0.313980047     0.928334064   0.000393354843 -0.000172519621   0.000393354842  -0.00017251962      0.321169429     0.925708868
12.663416            0.314398372     0.928174281   0.000394024602 -0.000173049024   0.000394024601 -0.000173049024      0.321591558     0.925543784
12.663444            0.314817001     0.928014147   0.000394695694 -0.000173580144   0.000394695692 -0.000173580143      0.322013994     0.925378337
12.663472            0.315235935     0.927853661    0.00039536812 -0.000174112987   0.000395368119 -0.000174112986      0.322436738     0.925212528
12.6635              0.315655174     0.927692821   0.000396041884 -0.000174647558   0.000396041883 -0.000174647558      0.322859789     0.925046356
