! TOUCHSTONE file generated by CST MICROWAVE STUDIO
! Date and time: Wed Jul 31 18:02:35 2024
! Project name: WaveGuide_BPF-Ver4.1_U-shape_Ku_T3_C4_CWA_2.cst
! Parameters = {cavity_h=16; cavity_l0=10; cavity_l1=15.1994; cavity_l2=16.8686; cavity_l3=17.1122; cavity_l4=17.2451; cavity_l5=17.1239; cavity_l6=17.6385; cavity_r=2.5; cavity_screw_l=0.5; cavity_screw_r=1.5; cavity_w=8; iris_h00=0; iris_h01=8.8075; iris_h112=0; iris_h12=5.5972; iris_h211=3.6642; iris_h23=5.2075; iris_h310=3.9756; iris_h34=5.0769; iris_h45=4.9287; iris_h49=4.6247; iris_h56=4.8056; iris_h58=4.4509; iris_h67=6.5686; iris_rx=0.1; iris_screw_l=0.5; iris_screw_r=1.5; iris_shift00=0; iris_shift112=0; iris_shift211=3.5; iris_shift310=0; iris_shift49=0; iris_shift58=3.5; iris_shift67=3.5; iris_tx=4.5; iris_tz=4.5; iris_w00=0; iris_w112=0; iris_w211=4; iris_w310=3.9756; iris_w49=4.6247; iris_w58=4; iris_w67=4; mesh_cavity=5; mesh_iris=7; mesh_screw=7; order=12; reset_all=0; sigma=4.8e+07}
! Header version: 2018
! Port assignment regex: !\s*Touchstone port\s*([0-9]+)\s*=\s*(CST MWS port|CST DS port)\s*([0-9]+|Zmin|Zmax)\s*\(\"(.*)\"\)(\s*mode\s*([0-9]+))?.*
! Touchstone port assignment:
! Touchstone port 1 = CST MWS port 1 ("")
! Touchstone port 2 = CST MWS port 2 ("")
# GHz S RI R 50
12.66                0.291137395     0.937089876   0.000288806168 -0.000115984847   0.000288806167 -0.000115984846      0.301886542     0.933561419
12.660028            0.291531976     0.936952559   0.000289249261 -0.000116317199   0.000289249259 -0.000116317199      0.302284173     0.933417867
12.660056            0.291926861      0.93681494   0.000289693135 -0.000116650523   0.000289693134 -0.000116650523      0.302682002     0.933274037
12.660084            0.292322028     0.936677024   0.000290137793 -0.000116984822   0.000290137792 -0.000116984822      0.303080053     0.933129921
12.660112            0.292717456     0.936538819   0.000290583235 -0.000117320099   0.000290583234 -0.000117320099       0.30347835     0.932985511
12.66014             0.293113124     0.936400329   0.000291029463 -0.000117656358   0.000291029462 -0.000117656358      0.303876917     0.932840799
12.660168            0.293509031     0.936261556   0.000291476478 -0.000117993601   0.000291476476 -0.000117993601      0.304275755     0.932695784
12.660196            0.293905192     0.936122492   0.000291924281 -0.000118331833    0.00029192428 -0.000118331832      0.304674848      0.93255047
12.660224            0.294301607     0.935983139   0.000292372875 -0.000118671055   0.000292372874 -0.000118671054      0.305074195     0.932404857
12.660252            0.294698277     0.935843495    0.00029282226 -0.000119011271   0.000292822259 -0.000119011271      0.305473798     0.932258945
12.66028             0.295095202      0.93570356   0.000293272438 -0.000119352484   0.000293272437 -0.000119352484      0.305873656     0.932112733
12.660308            0.295492382     0.935563333   0.000293723411 -0.000119694698    0.00029372341 -0.000119694698      0.306273769      0.93196622
12.660336            0.295889817     0.935422814    0.00029417518 -0.000120037916   0.000294175178 -0.000120037915      0.306674139     0.931819405
12.660364            0.296287508     0.935282002   0.000294627746  -0.00012038214   0.000294627744  -0.00012038214      0.307074764     0.931672289
12.660392            0.296685455     0.935140896   0.000295081111 -0.000120727375   0.000295081109 -0.000120727374      0.307475646      0.93152487
12.66042             0.297083658     0.934999496   0.000295535276 -0.000121073623   0.000295535275 -0.000121073622      0.307876784     0.931377148
12.660448            0.297482117     0.934857802   0.000295990243 -0.000121420887   0.000295990242 -0.000121420887      0.308278179     0.931229122
12.660476            0.297880832     0.934715813   0.000296446013 -0.000121769172   0.000296446012 -0.000121769171      0.308679832     0.931080792
12.660504            0.298279805     0.934573527   0.000296902588 -0.000122118479   0.000296902587 -0.000122118479      0.309081741     0.930932157
12.660532            0.298679034     0.934430945    0.00029735997 -0.000122468813   0.000297359968 -0.000122468813      0.309483908     0.930783216
12.66056              0.29907852     0.934288067   0.000297818159 -0.000122820177   0.000297818157 -0.000122820177      0.309886332     0.930633969
12.660588            0.299478264      0.93414489   0.000298277157 -0.000123172574   0.000298277155 -0.000123172573      0.310289014     0.930484416
12.660616            0.299878265     0.934001416   0.000298736965 -0.000123526007   0.000298736964 -0.000123526006      0.310691954     0.930334555
12.660644            0.300278525     0.933857643   0.000299197586  -0.00012388048   0.000299197585 -0.000123880479      0.311095153     0.930184386
12.660672            0.300679042      0.93371357   0.000299659021 -0.000124235996    0.00029965902 -0.000124235995       0.31149861     0.930033908
12.6607              0.301079818     0.933569197   0.000300121271 -0.000124592558   0.000300121269 -0.000124592558      0.311902326     0.929883122
12.660728            0.301480852     0.933424524   0.000300584337  -0.00012495017   0.000300584335  -0.00012495017      0.312306301     0.929732026
12.660756            0.301882146      0.93327955   0.000301048221 -0.000125308835    0.00030104822 -0.000125308835      0.312710535     0.929580619
12.660784            0.302283698     0.933134274   0.000301512925 -0.000125668557   0.000301512924 -0.000125668557      0.313115029     0.929428901
12.660812            0.302685509     0.932988696    0.00030197845 -0.000126029339   0.000301978448 -0.000126029339      0.313519782     0.929276871
12.66084              0.30308758     0.932842815   0.000302444797 -0.000126391185   0.000302444796 -0.000126391184      0.313924796      0.92912453
12.660868            0.303489911      0.93269663   0.000302911969 -0.000126754097   0.000302911967 -0.000126754096      0.314330069     0.928971875
12.660896            0.303892502     0.932550141   0.000303379966 -0.000127118079   0.000303379965 -0.000127118079      0.314735603     0.928818907
12.660924            0.304295353     0.932403348    0.00030384879 -0.000127483135   0.000303848789 -0.000127483135      0.315141397     0.928665625
12.660952            0.304698464     0.932256249   0.000304318443 -0.000127849269   0.000304318441 -0.000127849268      0.315547452     0.928512028
12.66098             0.305101836     0.932108844   0.000304788925 -0.000128216483   0.000304788924 -0.000128216482      0.315953769     0.928358116
12.661008            0.305505469     0.931961133    0.00030526024 -0.000128584781   0.000305260239  -0.00012858478      0.316360346     0.928203887
12.661036            0.305909363     0.931813114   0.000305732387 -0.000128954167   0.000305732386 -0.000128954166      0.316767185     0.928049342
12.661064            0.306313519     0.931664788   0.000306205369 -0.000129324644   0.000306205368 -0.000129324643      0.317174286      0.92789448
12.661092            0.306717936     0.931516153   0.000306679188 -0.000129696216   0.000306679186 -0.000129696215      0.317581649       0.9277393
12.66112             0.307122615     0.931367209   0.000307153843 -0.000130068886   0.000307153842 -0.000130068885      0.317989274     0.927583801
12.661148            0.307527556     0.931217956   0.000307629339 -0.000130442658   0.000307629337 -0.000130442657      0.318397161     0.927427984
12.661176            0.307932759     0.931068392   0.000308105674 -0.000130817535   0.000308105673 -0.000130817534      0.318805311     0.927271846
12.661204            0.308338225     0.930918518   0.000308582852 -0.000131193521   0.000308582851 -0.000131193521      0.319213724     0.927115388
12.661232            0.308743954     0.930768332   0.000309060874  -0.00013157062   0.000309060872  -0.00013157062        0.3196224     0.926958609
12.66126             0.309149946     0.930617834   0.000309539741 -0.000131948835   0.000309539739 -0.000131948835      0.320031339     0.926801508
12.661288            0.309556201     0.930467023   0.000310019454  -0.00013232817   0.000310019453  -0.00013232817      0.320440542     0.926644085
12.661316            0.309962719     0.930315899   0.000310500016 -0.000132708628   0.000310500015 -0.000132708628      0.320850008     0.926486339
12.661344            0.310369501      0.93016446   0.000310981428 -0.000133090214   0.000310981427 -0.000133090213      0.321259739     0.926328269
12.661372            0.310776547     0.930012708   0.000311463691  -0.00013347293    0.00031146369 -0.000133472929      0.321669734     0.926169875
12.6614              0.311183858      0.92986064   0.000311946808  -0.00013385678   0.000311946806  -0.00013385678      0.322079993     0.926011156
12.661428            0.311591433     0.929708256   0.000312430778 -0.000134241769   0.000312430777 -0.000134241769      0.322490517     0.925852112
12.661456            0.311999272     0.929555555   0.000312915605   -0.0001346279   0.000312915604 -0.000134627899      0.322901306     0.925692741
12.661484            0.312407376     0.929402538   0.000313401289 -0.000135015176   0.000313401288 -0.000135015175      0.323312361     0.925533043
12.661512            0.312815746     0.929249202   0.000313887832 -0.000135403601   0.000313887831   -0.0001354036       0.32372368     0.925373018
12.66154             0.313224381     0.929095548   0.000314375236 -0.000135793179   0.000314375235 -0.000135793179      0.324135265     0.925212664
12.661568            0.313633281     0.928941575   0.000314863503 -0.000136183914   0.000314863501 -0.000136183914      0.324547117     0.925051982
12.661596            0.314042448     0.928787283   0.000315352632 -0.000136575809   0.000315352631 -0.000136575809      0.324959234      0.92489097
12.661624             0.31445188      0.92863267   0.000315842628 -0.000136968869   0.000315842626 -0.000136968869      0.325371617     0.924729628
12.661652            0.314861579     0.928477736    0.00031633349 -0.000137363097   0.000316333488 -0.000137363096      0.325784267     0.924567955
12.66168             0.315271544      0.92832248    0.00031682522 -0.000137758497   0.000316825219 -0.000137758496      0.326197184      0.92440595
12.661708            0.315681777     0.928166902   0.000317317821 -0.000138155072   0.000317317819 -0.000138155072      0.326610368     0.924243613
12.661736            0.316092276     0.928011002   0.000317811293 -0.000138552827   0.000317811291 -0.000138552826      0.327023819     0.924080944
12.661764            0.316503042     0.927854777   0.000318305638 -0.000138951765   0.000318305637 -0.000138951765      0.327437537     0.923917941
12.661792            0.316914076     0.927698228   0.000318800858 -0.000139351891   0.000318800856  -0.00013935189      0.327851523     0.923754603
12.66182             0.317325378     0.927541355   0.000319296954 -0.000139753207   0.000319296952 -0.000139753207      0.328265778     0.923590931
12.661848            0.317736948     0.927384156   0.000319793927 -0.000140155719   0.000319793926 -0.000140155719        0.3286803     0.923426923
12.661876            0.318148786      0.92722663   0.000320291781 -0.000140559429   0.000320291779 -0.000140559429       0.32909509     0.923262579
12.661904            0.318560892     0.927068778   0.000320790515 -0.000140964343   0.000320790514 -0.000140964342       0.32951015     0.923097899
12.661932            0.318973267     0.926910598   0.000321290131 -0.000141370463    0.00032129013 -0.000141370463      0.329925478      0.92293288
12.66196             0.319385911      0.92675209   0.000321790632 -0.000141777794   0.000321790631 -0.000141777793      0.330341075     0.922767523
12.661988            0.319798825     0.926593253   0.000322292019 -0.000142186339   0.000322292017 -0.000142186339      0.330756942     0.922601828
12.662016            0.320212007     0.926434087   0.000322794292 -0.000142596104   0.000322794291 -0.000142596103      0.331173078     0.922435792
12.662044             0.32062546      0.92627459   0.000323297455  -0.00014300709   0.000323297454  -0.00014300709      0.331589484     0.922269417
12.662072            0.321039182     0.926114763   0.000323801508 -0.000143419304   0.000323801507 -0.000143419303      0.332006159       0.9221027
12.6621              0.321453174     0.925954604   0.000324306453 -0.000143832748   0.000324306452 -0.000143832747      0.332423106     0.921935642
12.662128            0.321867437     0.925794113   0.000324812292 -0.000144247427    0.00032481229 -0.000144247426      0.332840322     0.921768241
12.662156             0.32228197     0.925633289   0.000325319025 -0.000144663344   0.000325319024 -0.000144663344      0.333257809     0.921600497
12.662184            0.322696775     0.925472131   0.000325826656 -0.000145080504   0.000325826655 -0.000145080504      0.333675568     0.921432409
12.662212             0.32311185     0.925310639   0.000326335185 -0.000145498912   0.000326335184 -0.000145498911      0.334093597     0.921263977
12.66224             0.323527197     0.925148812   0.000326844614  -0.00014591857   0.000326844613 -0.000145918569      0.334511898       0.9210952
12.662268            0.323942815      0.92498665   0.000327354944 -0.000146339483   0.000327354943 -0.000146339483       0.33493047     0.920926076
12.662296            0.324358705     0.924824151   0.000327866178 -0.000146761655   0.000327866177 -0.000146761655      0.335349315     0.920756607
12.662324            0.324774867     0.924661315   0.000328378317 -0.000147185091   0.000328378315 -0.000147185091      0.335768431     0.920586789
12.662352            0.325191301     0.924498142   0.000328891361 -0.000147609794    0.00032889136 -0.000147609794       0.33618782     0.920416624
12.66238             0.325608008      0.92433463   0.000329405314 -0.000148035769   0.000329405313 -0.000148035769      0.336607481      0.92024611
12.662408            0.326024988      0.92417078   0.000329920177  -0.00014846302   0.000329920175 -0.000148463019      0.337027415     0.920075247
12.662436            0.326442241     0.924006589    0.00033043595  -0.00014889155   0.000330435949  -0.00014889155      0.337447622     0.919904034
12.662464            0.326859767     0.923842058   0.000330952637 -0.000149321365   0.000330952636 -0.000149321365      0.337868102     0.919732469
12.662492            0.327277566     0.923677186   0.000331470238 -0.000149752468   0.000331470236 -0.000149752468      0.338288856     0.919560554
12.66252             0.327695639     0.923511972   0.000331988755 -0.000150184865   0.000331988753 -0.000150184864      0.338709884     0.919388285
12.662548            0.328113987     0.923346416   0.000332508189 -0.000150618558   0.000332508188 -0.000150618557      0.339131185     0.919215664
12.662576            0.328532608     0.923180516   0.000333028543 -0.000151053552   0.000333028542 -0.000151053551      0.339552761     0.919042689
12.662604            0.328951504     0.923014273   0.000333549818 -0.000151489851   0.000333549816 -0.000151489851      0.339974611      0.91886936
12.662632            0.329370674     0.922847685   0.000334072015 -0.000151927461   0.000334072014 -0.000151927461      0.340396736     0.918695676
12.66266              0.32979012     0.922680751   0.000334595136 -0.000152366385   0.000334595135 -0.000152366384      0.340819135     0.918521635
12.662688            0.330209841     0.922513472   0.000335119183 -0.000152806627   0.000335119182 -0.000152806626       0.34124181     0.918347238
12.662716            0.330629837     0.922345846   0.000335644158 -0.000153248192   0.000335644157 -0.000153248191       0.34166476     0.918172484
12.662744            0.331050109     0.922177872   0.000336170061 -0.000153691084    0.00033617006 -0.000153691084      0.342087986     0.917997372
12.662772            0.331470656      0.92200955   0.000336696896 -0.000154135308   0.000336696894 -0.000154135307      0.342511488       0.9178219
12.6628               0.33189148     0.921840879   0.000337224662 -0.000154580868   0.000337224661 -0.000154580867      0.342935265     0.917646069
12.662828             0.33231258     0.921671859   0.000337753362 -0.000155027768   0.000337753361 -0.000155027767      0.343359319     0.917469878
12.662856            0.332733957     0.921502488   0.000338282998 -0.000155476013   0.000338282997 -0.000155476012      0.343783649     0.917293326
12.662884            0.333155611     0.921332767   0.000338813571 -0.000155925607    0.00033881357 -0.000155925606      0.344208257     0.917116412
12.662912            0.333577542     0.921162693   0.000339345083 -0.000156376555   0.000339345082 -0.000156376554      0.344633141     0.916939136
12.66294              0.33399975     0.920992267   0.000339877535 -0.000156828861   0.000339877534 -0.000156828861      0.345058302     0.916761496
12.662968            0.334422236     0.920821488    0.00034041093  -0.00015728253   0.000340410929 -0.000157282529      0.345483741     0.916583493
12.662996            0.334844999     0.920650355   0.000340945268 -0.000157737566   0.000340945267 -0.000157737566      0.345909457     0.916405124
12.663024            0.335268041     0.920478867   0.000341480551 -0.000158193974    0.00034148055 -0.000158193973      0.346335452      0.91622639
12.663052            0.335691361     0.920307024   0.000342016782 -0.000158651758   0.000342016781 -0.000158651758      0.346761724      0.91604729
12.66308              0.33611496     0.920134825   0.000342553961 -0.000159110923    0.00034255396 -0.000159110923      0.347188275     0.915867823
12.663108            0.336538837     0.919962269   0.000343092091 -0.000159571473    0.00034309209 -0.000159571473      0.347615105     0.915687988
12.663136            0.336962994     0.919789355   0.000343631172 -0.000160033414   0.000343631171 -0.000160033413      0.348042213     0.915507784
12.663164             0.33738743     0.919616083   0.000344171208 -0.000160496749   0.000344171206 -0.000160496749      0.348469601     0.915327211
12.663192            0.337812145     0.919442451   0.000344712198 -0.000160961483   0.000344712197 -0.000160961483      0.348897268     0.915146268
12.66322              0.33823714      0.91926846   0.000345254145 -0.000161427622   0.000345254144 -0.000161427621      0.349325214     0.914964955
12.663248            0.338662416     0.919094109   0.000345797051 -0.000161895169    0.00034579705 -0.000161895168       0.34975344     0.914783269
12.663276            0.339087971     0.918919396   0.000346340918 -0.000162364129   0.000346340916 -0.000162364128      0.350181946     0.914601212
12.663304            0.339513807     0.918744321   0.000346885746 -0.000162834507   0.000346885744 -0.000162834507      0.350610733     0.914418781
12.663332            0.339939924     0.918568883   0.000347431537 -0.000163306308   0.000347431536 -0.000163306307        0.3510398     0.914235976
12.66336             0.340366322     0.918393081   0.000347978294 -0.000163779536   0.000347978293 -0.000163779536      0.351469148     0.914052797
12.663388            0.340793001     0.918216915   0.000348526018 -0.000164254197   0.000348526017 -0.000164254196      0.351898776     0.913869242
12.663416            0.341219961     0.918040385   0.000349074711 -0.000164730294   0.000349074709 -0.000164730293      0.352328686     0.913685311
12.663444            0.341647203     0.917863488   0.000349624373 -0.000165207833   0.000349624372 -0.000165207832      0.352758878     0.913501003
12.663472            0.342074728     0.917686225   0.000350175008 -0.000165686818   0.000350175006 -0.000165686818      0.353189351     0.913316317
12.6635              0.342502534     0.917508594   0.000350726616 -0.000166167255   0.000350726615 -0.000166167255      0.353620105     0.913131253
