! TOUCHSTONE file generated by CST MICROWAVE STUDIO
! Date and time: Wed Jul 31 18:05:41 2024
! Project name: WaveGuide_BPF-Ver4.1_U-shape_Ku_T3_C4_CWA_2.cst
! Parameters = {cavity_h=16; cavity_l0=10; cavity_l1=15.1909; cavity_l2=16.8412; cavity_l3=17.1276; cavity_l4=17.2726; cavity_l5=17.099; cavity_l6=17.5949; cavity_r=2.5; cavity_screw_l=0.5; cavity_screw_r=1.5; cavity_w=8; iris_h00=0; iris_h01=8.8259; iris_h112=0; iris_h12=5.5898; iris_h211=3.6559; iris_h23=5.1967; iris_h310=3.9634; iris_h34=5.0898; iris_h45=4.9297; iris_h49=4.631; iris_h56=4.8089; iris_h58=4.4322; iris_h67=6.572; iris_rx=0.1; iris_screw_l=0.5; iris_screw_r=1.5; iris_shift00=0; iris_shift112=0; iris_shift211=3.5; iris_shift310=0; iris_shift49=0; iris_shift58=3.5; iris_shift67=3.5; iris_tx=4.5; iris_tz=4.5; iris_w00=0; iris_w112=0; iris_w211=4; iris_w310=3.9634; iris_w49=4.631; iris_w58=4; iris_w67=4; mesh_cavity=5; mesh_iris=7; mesh_screw=7; order=12; reset_all=0; sigma=4.8e+07}
! Header version: 2018
! Port assignment regex: !\s*Touchstone port\s*([0-9]+)\s*=\s*(CST MWS port|CST DS port)\s*([0-9]+|Zmin|Zmax)\s*\(\"(.*)\"\)(\s*mode\s*([0-9]+))?.*
! Touchstone port assignment:
! Touchstone port 1 = CST MWS port 1 ("")
! Touchstone port 2 = CST MWS port 2 ("")
# GHz S RI R 50
12.66                 0.30377872     0.933596928   0.000203249535 -8.21924184e-05   0.000203249535 -8.21924186e-05      0.309036402     0.931931822
12.660028            0.304161117      0.93345937   0.000203522606 -8.24059453e-05   0.000203522606 -8.24059454e-05      0.309417658     0.931792316
12.660056            0.304543658     0.933321571   0.000203796085 -8.26200121e-05   0.000203796085 -8.26200123e-05      0.309799095     0.931652555
12.660084            0.304926375      0.93318352    0.00020406997 -8.28346248e-05    0.00020406997  -8.2834625e-05      0.310180728     0.931512535
12.660112            0.305309301     0.933045206   0.000204344256 -8.30497894e-05   0.000204344256 -8.30497895e-05      0.310562573      0.93137225
12.66014             0.305692467     0.932906619   0.000204618942 -8.32655117e-05   0.000204618942 -8.32655118e-05      0.310944646     0.931231695
12.660168            0.306075876     0.932767758   0.000204894027 -8.34817933e-05   0.000204894027 -8.34817935e-05      0.311326946     0.931090868
12.660196            0.306459504     0.932628629   0.000205169514 -8.36986329e-05   0.000205169514  -8.3698633e-05      0.311709465     0.930949774
12.660224            0.306843353     0.932489232   0.000205445404 -8.39160318e-05   0.000205445404 -8.39160319e-05      0.312092201     0.930808411
12.660252            0.307227422     0.932349567   0.000205721698 -8.41339917e-05   0.000205721698 -8.41339918e-05      0.312475155     0.930666779
12.66028             0.307611712     0.932209632   0.000205998395  -8.4352514e-05   0.000205998395 -8.43525141e-05      0.312858327     0.930524878
12.660308            0.307996222     0.932069428   0.000206275497 -8.45716003e-05   0.000206275497 -8.45716004e-05      0.313241717     0.930382707
12.660336            0.308380953     0.931928954   0.000206553004 -8.47912521e-05   0.000206553004 -8.47912523e-05      0.313625325     0.930240265
12.660364            0.308765905     0.931788209   0.000206830917 -8.50114711e-05   0.000206830917 -8.50114712e-05      0.314009153     0.930097553
12.660392            0.309151078     0.931647194   0.000207109235 -8.52322586e-05   0.000207109235 -8.52322588e-05      0.314393199     0.929954569
12.66042             0.309536473     0.931505907    0.00020738796 -8.54536164e-05   0.000207387961 -8.54536165e-05      0.314777463     0.929811313
12.660448            0.309922088     0.931364349   0.000207667093 -8.56755459e-05   0.000207667093  -8.5675546e-05      0.315161947     0.929667786
12.660476            0.310307926     0.931222517   0.000207946633 -8.58980487e-05   0.000207946633 -8.58980489e-05       0.31554665     0.929523985
12.660504            0.310693985     0.931080413   0.000208226581 -8.61211264e-05   0.000208226581 -8.61211266e-05      0.315931572     0.929379911
12.660532            0.311080266     0.930938036   0.000208506937 -8.63447806e-05   0.000208506938 -8.63447807e-05      0.316316713     0.929235563
12.66056             0.311466769     0.930795385   0.000208787703 -8.65690128e-05   0.000208787704 -8.65690129e-05      0.316702075     0.929090941
12.660588            0.311853494      0.93065246   0.000209068879 -8.67938246e-05   0.000209068879 -8.67938247e-05      0.317087655     0.928946045
12.660616            0.312240442     0.930509259   0.000209350465 -8.70192176e-05   0.000209350465 -8.70192177e-05      0.317473456     0.928800873
12.660644            0.312627612     0.930365784   0.000209632462 -8.72451934e-05   0.000209632462 -8.72451935e-05      0.317859477     0.928655426
12.660672            0.313015005     0.930222033    0.00020991487 -8.74717536e-05    0.00020991487 -8.74717537e-05      0.318245718     0.928509702
12.6607              0.313402621     0.930078005    0.00021019769 -8.76988998e-05    0.00021019769 -8.76988999e-05      0.318632179     0.928363702
12.660728            0.313790459     0.929933701   0.000210480922 -8.79266336e-05   0.000210480922 -8.79266337e-05      0.319018861     0.928217424
12.660756            0.314178521     0.929789119   0.000210764567 -8.81549566e-05   0.000210764567 -8.81549567e-05      0.319405764     0.928070869
12.660784            0.314566806      0.92964426   0.000211048626 -8.83838704e-05   0.000211048626 -8.83838705e-05      0.319792887     0.927924036
12.660812            0.314955315     0.929499122   0.000211333098 -8.86133766e-05   0.000211333098 -8.86133768e-05      0.320180231     0.927776924
12.66084             0.315344047     0.929353706   0.000211617985  -8.8843477e-05   0.000211617985 -8.88434771e-05      0.320567796     0.927629534
12.660868            0.315733003      0.92920801   0.000211903287  -8.9074173e-05   0.000211903287 -8.90741731e-05      0.320955583     0.927481863
12.660896            0.316122182     0.929062035   0.000212189004 -8.93054663e-05   0.000212189005 -8.93054664e-05      0.321343591     0.927333913
12.660924            0.316511586      0.92891578   0.000212475138 -8.95373586e-05   0.000212475138 -8.95373587e-05       0.32173182     0.927185681
12.660952            0.316901214     0.928769243   0.000212761688 -8.97698515e-05   0.000212761688 -8.97698516e-05      0.322120271     0.927037169
12.66098             0.317291067     0.928622426   0.000213048655 -9.00029466e-05   0.000213048655 -9.00029468e-05      0.322508944     0.926888375
12.661008            0.317681144     0.928475327    0.00021333604 -9.02366457e-05    0.00021333604 -9.02366458e-05      0.322897839       0.9267393
12.661036            0.318071445     0.928327945   0.000213623843 -9.04709503e-05   0.000213623843 -9.04709504e-05      0.323286956     0.926589941
12.661064            0.318461972     0.928180281   0.000213912064 -9.07058621e-05   0.000213912064 -9.07058623e-05      0.323676295     0.926440299
12.661092            0.318852723     0.928032334   0.000214200705 -9.09413829e-05   0.000214200705  -9.0941383e-05      0.324065857     0.926290374
12.66112             0.319243699     0.927884103   0.000214489765 -9.11775141e-05   0.000214489765 -9.11775143e-05      0.324455641     0.926140165
12.661148            0.319634901     0.927735587   0.000214779246 -9.14142577e-05   0.000214779246 -9.14142578e-05      0.324845648     0.925989671
12.661176            0.320026329     0.927586787   0.000215069147 -9.16516151e-05   0.000215069147 -9.16516153e-05      0.325235878     0.925838892
12.661204            0.320417982     0.927437702    0.00021535947 -9.18895882e-05    0.00021535947 -9.18895883e-05      0.325626331     0.925687828
12.661232             0.32080986     0.927288331   0.000215650214 -9.21281785e-05   0.000215650215 -9.21281786e-05      0.326017007     0.925536477
12.66126             0.321201965     0.927138673   0.000215941381 -9.23673878e-05   0.000215941381  -9.2367388e-05      0.326407907      0.92538484
12.661288            0.321594295     0.926988729   0.000216232971 -9.26072178e-05   0.000216232971  -9.2607218e-05       0.32679903     0.925232916
12.661316            0.321986852     0.926838497   0.000216524984 -9.28476702e-05   0.000216524984 -9.28476704e-05      0.327190376     0.925080704
12.661344            0.322379636     0.926687978   0.000216817421 -9.30887467e-05   0.000216817421 -9.30887469e-05      0.327581947     0.924928203
12.661372            0.322772645      0.92653717   0.000217110282 -9.33304491e-05   0.000217110282 -9.33304492e-05      0.327973741     0.924775414
12.6614              0.323165882     0.926386073   0.000217403568 -9.35727789e-05   0.000217403569 -9.35727791e-05      0.328365759     0.924622336
12.661428            0.323559345     0.926234687    0.00021769728 -9.38157381e-05    0.00021769728 -9.38157382e-05      0.328758002     0.924468969
12.661456            0.323953035     0.926083011   0.000217991418 -9.40593282e-05   0.000217991418 -9.40593283e-05      0.329150469     0.924315311
12.661484            0.324346953     0.925931045   0.000218285982  -9.4303551e-05   0.000218285982 -9.43035512e-05       0.32954316     0.924161362
12.661512            0.324741098     0.925778787   0.000218580973 -9.45484083e-05   0.000218580974 -9.45484085e-05      0.329936076     0.924007122
12.66154              0.32513547     0.925626239   0.000218876392 -9.47939019e-05   0.000218876392  -9.4793902e-05      0.330329217      0.92385259
12.661568             0.32553007     0.925473398   0.000219172239 -9.50400334e-05   0.000219172239 -9.50400335e-05      0.330722583     0.923697766
12.661596            0.325924897     0.925320265   0.000219468515 -9.52868046e-05   0.000219468515 -9.52868047e-05      0.331116174      0.92354265
12.661624            0.326319953     0.925166838   0.000219765219 -9.55342173e-05   0.000219765219 -9.55342174e-05      0.331509991     0.923387239
12.661652            0.326715236     0.925013118   0.000220062353 -9.57822732e-05   0.000220062353 -9.57822733e-05      0.331904032     0.923231535
12.66168             0.327110748     0.924859104   0.000220359918 -9.60309741e-05   0.000220359918 -9.60309743e-05        0.3322983     0.923075537
12.661708            0.327506488     0.924704796   0.000220657913 -9.62803219e-05   0.000220657913  -9.6280322e-05      0.332692792     0.922919244
12.661736            0.327902457     0.924550192   0.000220956339 -9.65303182e-05   0.000220956339 -9.65303183e-05      0.333087511     0.922762655
12.661764            0.328298654     0.924395292   0.000221255197 -9.67809648e-05   0.000221255197  -9.6780965e-05      0.333482456      0.92260577
12.661792            0.328695081     0.924240097   0.000221554487 -9.70322636e-05   0.000221554487 -9.70322638e-05      0.333877627     0.922448589
12.66182             0.329091736     0.924084604    0.00022185421 -9.72842164e-05    0.00022185421 -9.72842165e-05      0.334273024     0.922291111
12.661848             0.32948862     0.923928814   0.000222154366 -9.75368248e-05   0.000222154366  -9.7536825e-05      0.334668648     0.922133335
12.661876            0.329885734     0.923772727   0.000222454956 -9.77900909e-05   0.000222454956  -9.7790091e-05      0.335064499     0.921975261
12.661904            0.330283077     0.923616341    0.00022275598 -9.80440162e-05    0.00022275598 -9.80440164e-05      0.335460576     0.921816888
12.661932             0.33068065     0.923459656   0.000223057439 -9.82986028e-05   0.000223057439 -9.82986029e-05       0.33585688     0.921658217
12.66196             0.331078453     0.923302672   0.000223359333 -9.85538523e-05   0.000223359333 -9.85538525e-05      0.336253411     0.921499245
12.661988            0.331476485     0.923145387   0.000223661663 -9.88097667e-05   0.000223661664 -9.88097669e-05      0.336650169     0.921339974
12.662016            0.331874748     0.922987802    0.00022396443 -9.90663477e-05    0.00022396443 -9.90663479e-05      0.337047155     0.921180401
12.662044             0.33227324     0.922829917   0.000224267633 -9.93235973e-05   0.000224267634 -9.93235974e-05      0.337444368     0.921020528
12.662072            0.332671964     0.922671729   0.000224571274 -9.95815171e-05   0.000224571274 -9.95815173e-05      0.337841808     0.920860352
12.6621              0.333070917     0.922513239   0.000224875353 -9.98401092e-05   0.000224875353 -9.98401093e-05      0.338239477     0.920699874
12.662128            0.333470102     0.922354447    0.00022517987 -0.000100099375    0.00022517987 -0.000100099375      0.338637373     0.920539093
12.662156            0.333869517     0.922195351   0.000225484826 -0.000100359317   0.000225484827 -0.000100359317      0.339035498     0.920378009
12.662184            0.334269163     0.922035952   0.000225790222 -0.000100619937   0.000225790222 -0.000100619937      0.339433851      0.92021662
12.662212             0.33466904     0.921876248   0.000226096057 -0.000100881236   0.000226096058 -0.000100881236      0.339832432     0.920054927
12.66224             0.335069149     0.921716239   0.000226402333 -0.000101143217   0.000226402334 -0.000101143217      0.340231242     0.919892929
12.662268            0.335469489     0.921555925    0.00022670905 -0.000101405881   0.000226709051 -0.000101405882       0.34063028     0.919730625
12.662296            0.335870061     0.921395305   0.000227016209 -0.000101669231   0.000227016209 -0.000101669231      0.341029547     0.919568015
12.662324            0.336270865     0.921234378   0.000227323809 -0.000101933268    0.00022732381 -0.000101933268      0.341429043     0.919405098
12.662352              0.3366719     0.921073144   0.000227631852 -0.000102197993   0.000227631853 -0.000102197994      0.341828769     0.919241874
12.66238             0.337073167     0.920911603   0.000227940339  -0.00010246341   0.000227940339  -0.00010246341      0.342228723     0.919078342
12.662408            0.337474667     0.920749753   0.000228249268  -0.00010272952   0.000228249268  -0.00010272952      0.342628907     0.918914501
12.662436            0.337876399     0.920587595   0.000228558642 -0.000102996324   0.000228558642 -0.000102996324      0.343029321     0.918750352
12.662464            0.338278364     0.920425127    0.00022886846 -0.000103263825    0.00022886846 -0.000103263825      0.343429964     0.918585893
12.662492            0.338680561     0.920262349   0.000229178723 -0.000103532025   0.000229178724 -0.000103532025      0.343830837     0.918421123
12.66252             0.339082991      0.92009926   0.000229489432 -0.000103800925   0.000229489433 -0.000103800925       0.34423194     0.918256044
12.662548            0.339485654     0.919935861   0.000229800587 -0.000104070528   0.000229800588 -0.000104070528      0.344633273     0.918090652
12.662576            0.339888551      0.91977215   0.000230112189 -0.000104340835   0.000230112189 -0.000104340835      0.345034837     0.917924949
12.662604             0.34029168     0.919608127   0.000230424238 -0.000104611848   0.000230424238 -0.000104611849      0.345436631     0.917758934
12.662632            0.340695043     0.919443791   0.000230736734  -0.00010488357   0.000230736734  -0.00010488357      0.345838655     0.917592606
12.66266              0.34109864     0.919279141   0.000231049678 -0.000105156002   0.000231049679 -0.000105156003       0.34624091     0.917425964
12.662688             0.34150247     0.919114178   0.000231363071 -0.000105429147   0.000231363072 -0.000105429147      0.346643397     0.917259008
12.662716            0.341906534       0.9189489   0.000231676914 -0.000105703005   0.000231676914 -0.000105703006      0.347046114     0.917091738
12.662744            0.342310833     0.918783308   0.000231991205  -0.00010597758   0.000231991206  -0.00010597758      0.347449062     0.916924152
12.662772            0.342715365     0.918617399   0.000232305947 -0.000106252873   0.000232305947 -0.000106252873      0.347852242     0.916756251
12.6628              0.343120132     0.918451175    0.00023262114 -0.000106528886    0.00023262114 -0.000106528886      0.348255653     0.916588033
12.662828            0.343525133     0.918284633   0.000232936784 -0.000106805622   0.000232936784 -0.000106805622      0.348659296     0.916419498
12.662856            0.343930369     0.918117775   0.000233252879 -0.000107083081   0.000233252879 -0.000107083081       0.34906317     0.916250646
12.662884             0.34433584     0.917950598   0.000233569426 -0.000107361267   0.000233569427 -0.000107361267      0.349467277     0.916081476
12.662912            0.344741546     0.917783103   0.000233886427  -0.00010764018   0.000233886427  -0.00010764018      0.349871615     0.915911987
12.66294             0.345147487     0.917615289    0.00023420388 -0.000107919824    0.00023420388 -0.000107919824      0.350276186     0.915742179
12.662968            0.345553663     0.917447155   0.000234521787   -0.0001082002   0.000234521787   -0.0001082002      0.350680989     0.915572051
12.662996            0.345960075     0.917278701   0.000234840148 -0.000108481311   0.000234840148 -0.000108481311      0.351086025     0.915401602
12.663024            0.346366722     0.917109926   0.000235158963 -0.000108763157   0.000235158964 -0.000108763157      0.351491293     0.915230833
12.663052            0.346773605     0.916940829   0.000235478234 -0.000109045742   0.000235478234 -0.000109045742      0.351896794     0.915059742
12.66308             0.347180724     0.916771411   0.000235797961 -0.000109329067   0.000235797961 -0.000109329067      0.352302528     0.914888329
12.663108            0.347588078      0.91660167   0.000236118143 -0.000109613135   0.000236118143 -0.000109613135      0.352708495     0.914716593
12.663136            0.347995669     0.916431606   0.000236438782 -0.000109897947   0.000236438783 -0.000109897947      0.353114695     0.914544534
12.663164            0.348403497     0.916261217   0.000236759879 -0.000110183505   0.000236759879 -0.000110183505      0.353521128     0.914372151
12.663192             0.34881156     0.916090505   0.000237081433 -0.000110469812   0.000237081433 -0.000110469812      0.353927796     0.914199444
12.66322             0.349219861     0.915919467   0.000237403445  -0.00011075687   0.000237403445  -0.00011075687      0.354334696     0.914026411
12.663248            0.349628398     0.915748104   0.000237725915  -0.00011104468   0.000237725915  -0.00011104468      0.354741831     0.913853053
12.663276            0.350037172     0.915576415   0.000238048845 -0.000111333245   0.000238048845 -0.000111333246      0.355149199     0.913679368
12.663304            0.350446183     0.915404399   0.000238372234 -0.000111622568   0.000238372234 -0.000111622568      0.355556802     0.913505357
12.663332            0.350855432     0.915232056   0.000238696083 -0.000111912649   0.000238696083 -0.000111912649      0.355964639     0.913331018
12.66336             0.351264918     0.915059384   0.000239020393 -0.000112203491   0.000239020393 -0.000112203491       0.35637271     0.913156351
12.663388            0.351674641     0.914886384   0.000239345164 -0.000112495096   0.000239345164 -0.000112495096      0.356781015     0.912981355
12.663416            0.352084602     0.914713055   0.000239670396 -0.000112787467   0.000239670397 -0.000112787467      0.357189556      0.91280603
12.663444            0.352494801     0.914539396   0.000239996091 -0.000113080605   0.000239996091 -0.000113080605      0.357598331     0.912630375
12.663472            0.352905238     0.914365407   0.000240322248 -0.000113374513   0.000240322248 -0.000113374513      0.358007341      0.91245439
12.6635              0.353315913     0.914191086   0.000240648867 -0.000113669192   0.000240648868 -0.000113669192      0.358416586     0.912278074
