! TOUCHSTONE file generated by CST MICROWAVE STUDIO
! Date and time: Wed Jul 31 18:08:44 2024
! Project name: WaveGuide_BPF-Ver4.1_U-shape_Ku_T3_C4_CWA_2.cst
! Parameters = {cavity_h=16; cavity_l0=10; cavity_l1=15.1662; cavity_l2=16.8756; cavity_l3=17.0704; cavity_l4=17.2771; cavity_l5=17.0887; cavity_l6=17.6232; cavity_r=2.5; cavity_screw_l=0.5; cavity_screw_r=1.5; cavity_w=8; iris_h00=0; iris_h01=8.8332; iris_h112=0; iris_h12=5.6127; iris_h211=3.6621; iris_h23=5.191; iris_h310=3.9655; iris_h34=5.0781; iris_h45=4.9218; iris_h49=4.6212; iris_h56=4.796; iris_h58=4.4478; iris_h67=6.5764; iris_rx=0.1; iris_screw_l=0.5; iris_screw_r=1.5; iris_shift00=0; iris_shift112=0; iris_shift211=3.5; iris_shift310=0; iris_shift49=0; iris_shift58=3.5; iris_shift67=3.5; iris_tx=4.5; iris_tz=4.5; iris_w00=0; iris_w112=0; iris_w211=4; iris_w310=3.9655; iris_w49=4.6212; iris_w58=4; iris_w67=4; mesh_cavity=5; mesh_iris=7; mesh_screw=7; order=12; reset_all=0; sigma=4.8e+07}
! Header version: 2018
! Port assignment regex: !\s*Touchstone port\s*([0-9]+)\s*=\s*(CST MWS port|CST DS port)\s*([0-9]+|Zmin|Zmax)\s*\(\"(.*)\"\)(\s*mode\s*([0-9]+))?.*
! Touchstone port assignment:
! Touchstone port 1 = CST MWS port 1 ("")
! Touchstone port 2 = CST MWS port 2 ("")
# GHz S RI R 50
12.66                0.290168827     0.938016876   0.000306180177  -0.00012047988   0.000306180177  -0.00012047988      0.288742033     0.938593782
12.660028            0.290551368     0.937884591   0.000306660058 -0.000120825698   0.000306660058 -0.000120825698      0.289121295     0.938463322
12.660056             0.29093413     0.937752042   0.000307140826 -0.000121172532   0.000307140826 -0.000121172532      0.289500775     0.938332603
12.660084            0.291317121     0.937619227   0.000307622482 -0.000121520387   0.000307622482 -0.000121520387      0.289880484     0.938201621
12.660112             0.29170035     0.937486142   0.000308105023  -0.00012186927   0.000308105024  -0.00012186927      0.290260429     0.938070374
12.66014             0.292083829     0.937352783   0.000308588452 -0.000122219187   0.000308588452 -0.000122219187      0.290640621     0.937938859
12.660168            0.292467556     0.937219151   0.000309072768  -0.00012257014   0.000309072768  -0.00012257014      0.291021059     0.937807074
12.660196            0.292851527     0.937085246   0.000309557976 -0.000122922131   0.000309557976 -0.000122922132      0.291401739     0.937675022
12.660224             0.29323574     0.936951068   0.000310044077 -0.000123275165   0.000310044077 -0.000123275165      0.291782659       0.9375427
12.660252            0.293620197     0.936816616   0.000310531073 -0.000123629244   0.000310531073 -0.000123629244       0.29216382      0.93741011
12.66028             0.294004897     0.936681891   0.000311018965 -0.000123984371   0.000311018965 -0.000123984371      0.292545223     0.937277251
12.660308            0.294389841      0.93654689   0.000311507756  -0.00012434055   0.000311507756  -0.00012434055      0.292926868     0.937144121
12.660336            0.294775029     0.936411615   0.000311997447 -0.000124697785   0.000311997447 -0.000124697785      0.293308755     0.937010721
12.660364            0.295160461     0.936276063    0.00031248804 -0.000125056079    0.00031248804 -0.000125056079      0.293690883      0.93687705
12.660392            0.295546138     0.936140236   0.000312979537 -0.000125415435   0.000312979537 -0.000125415435      0.294073255     0.936743107
12.66042             0.295932059     0.936004131    0.00031347194 -0.000125775857    0.00031347194 -0.000125775857      0.294455868     0.936608892
12.660448            0.296318225     0.935867749    0.00031396525 -0.000126137349    0.00031396525 -0.000126137349      0.294838725     0.936474405
12.660476            0.296704637      0.93573109    0.00031445947 -0.000126499913    0.00031445947 -0.000126499913      0.295221825     0.936339644
12.660504            0.297091293     0.935594152     0.0003149546 -0.000126863554     0.0003149546 -0.000126863554      0.295605168      0.93620461
12.660532            0.297478196     0.935456934   0.000315450644 -0.000127228274   0.000315450644 -0.000127228274      0.295988754     0.936069301
12.66056             0.297865344     0.935319438   0.000315947602 -0.000127594078   0.000315947602 -0.000127594078      0.296372585     0.935933718
12.660588            0.298252738     0.935181661   0.000316445477 -0.000127960969   0.000316445477 -0.000127960969      0.296756659     0.935797859
12.660616            0.298640378     0.935043604   0.000316944271 -0.000128328951   0.000316944271 -0.000128328951      0.297140977     0.935661724
12.660644            0.299028265     0.934905265   0.000317443985 -0.000128698026   0.000317443985 -0.000128698027       0.29752554     0.935525314
12.660672            0.299416398     0.934766645    0.00031794462   -0.0001290682   0.000317944621   -0.0001290682      0.297910348     0.935388626
12.6607              0.299804779     0.934627743    0.00031844618 -0.000129439474    0.00031844618 -0.000129439475      0.298295401      0.93525166
12.660728            0.300193407     0.934488558   0.000318948666 -0.000129811854   0.000318948666 -0.000129811854      0.298680698     0.935114417
12.660756            0.300582282     0.934349089   0.000319452079 -0.000130185342   0.000319452079 -0.000130185342      0.299066241     0.934976895
12.660784            0.300971405     0.934209337   0.000319956422 -0.000130559942   0.000319956422 -0.000130559943       0.29945203     0.934839094
12.660812            0.301360775       0.9340693   0.000320461697 -0.000130935659   0.000320461697 -0.000130935659      0.299838065     0.934701014
12.66084             0.301750394     0.933928978   0.000320967904 -0.000131312494   0.000320967904 -0.000131312494      0.300224345     0.934562653
12.660868            0.302140261      0.93378837   0.000321475047 -0.000131690453   0.000321475047 -0.000131690453      0.300610872     0.934424011
12.660896            0.302530376     0.933647476   0.000321983126 -0.000132069539   0.000321983126 -0.000132069539      0.300997645     0.934285088
12.660924            0.302920741     0.933506296   0.000322492145 -0.000132449755   0.000322492145 -0.000132449756      0.301384665     0.934145884
12.660952            0.303311354     0.933364828   0.000323002104 -0.000132831106   0.000323002104 -0.000132831106      0.301771932     0.934006397
12.66098             0.303702217     0.933223073   0.000323513006 -0.000133213595   0.000323513006 -0.000133213595      0.302159447     0.933866627
12.661008            0.304093329     0.933081029   0.000324024852 -0.000133597225   0.000324024852 -0.000133597226      0.302547208     0.933726573
12.661036            0.304484691     0.932938696   0.000324537645 -0.000133982002   0.000324537645 -0.000133982002      0.302935218     0.933586236
12.661064            0.304876302     0.932796073   0.000325051385 -0.000134367927   0.000325051385 -0.000134367927      0.303323475     0.933445614
12.661092            0.305268164     0.932653161   0.000325566076 -0.000134755006   0.000325566076 -0.000134755006       0.30371198     0.933304706
12.66112             0.305660277     0.932509957    0.00032608172 -0.000135143241    0.00032608172 -0.000135143242      0.304100734     0.933163513
12.661148            0.306052639     0.932366463   0.000326598317 -0.000135532638   0.000326598317 -0.000135532638      0.304489737     0.933022034
12.661176            0.306445253     0.932222676   0.000327115869 -0.000135923199   0.000327115869 -0.000135923199      0.304878988     0.932880267
12.661204            0.306838118     0.932078597    0.00032763438 -0.000136314928    0.00032763438 -0.000136314928      0.305268488     0.932738214
12.661232            0.307231234     0.931934226    0.00032815385  -0.00013670783    0.00032815385  -0.00013670783      0.305658238     0.932595872
12.66126             0.307624602      0.93178956   0.000328674282 -0.000137101908   0.000328674282 -0.000137101908      0.306048237     0.932453242
12.661288            0.308018222     0.931644601   0.000329195678 -0.000137497166   0.000329195678 -0.000137497166      0.306438486     0.932310322
12.661316            0.308412093     0.931499347   0.000329718038 -0.000137893608   0.000329718039 -0.000137893608      0.306828985     0.932167113
12.661344            0.308806217     0.931353797   0.000330241367 -0.000138291237   0.000330241367 -0.000138291238      0.307219734     0.932023614
12.661372            0.309200593     0.931207952   0.000330765664 -0.000138690059   0.000330765664 -0.000138690059      0.307610733     0.931879824
12.6614              0.309595222      0.93106181   0.000331290933 -0.000139090077   0.000331290933 -0.000139090077      0.308001984     0.931735742
12.661428            0.309990104     0.930915371   0.000331817174 -0.000139491294   0.000331817174 -0.000139491294      0.308393485     0.931591368
12.661456             0.31038524     0.930768634   0.000332344391 -0.000139893715   0.000332344391 -0.000139893715      0.308785237     0.931446702
12.661484            0.310780628     0.930621599   0.000332872585 -0.000140297343   0.000332872585 -0.000140297343      0.309177241     0.931301743
12.661512             0.31117627     0.930474266   0.000333401758 -0.000140702184   0.000333401758 -0.000140702184      0.309569496      0.93115649
12.66154             0.311572167     0.930326632   0.000333931911  -0.00014110824   0.000333931911  -0.00014110824      0.309962004     0.931010942
12.661568            0.311968317     0.930178699   0.000334463048 -0.000141515515   0.000334463048 -0.000141515516      0.310354763       0.9308651
12.661596            0.312364721     0.930030466   0.000334995169 -0.000141924015   0.000334995169 -0.000141924015      0.310747775     0.930718962
12.661624            0.312761381     0.929881931   0.000335528277 -0.000142333742   0.000335528278 -0.000142333743      0.311141039     0.930572528
12.661652            0.313158295     0.929733094   0.000336062374 -0.000142744702   0.000336062374 -0.000142744702      0.311534556     0.930425797
12.66168             0.313555464     0.929583954   0.000336597462 -0.000143156897   0.000336597462 -0.000143156898      0.311928327      0.93027877
12.661708            0.313952888     0.929434512   0.000337133542 -0.000143570333   0.000337133542 -0.000143570333       0.31232235     0.930131444
12.661736            0.314350568     0.929284766   0.000337670617 -0.000143985013   0.000337670617 -0.000143985013      0.312716627      0.92998382
12.661764            0.314748504     0.929134716   0.000338208688 -0.000144400941   0.000338208688 -0.000144400942      0.313111158     0.929835897
12.661792            0.315146696     0.928984361   0.000338747758 -0.000144818122   0.000338747759 -0.000144818122      0.313505943     0.929687674
12.66182             0.315545143     0.928833701   0.000339287829  -0.00014523656   0.000339287829  -0.00014523656      0.313900982     0.929539151
12.661848            0.315943848     0.928682735   0.000339828902 -0.000145656259   0.000339828902 -0.000145656259      0.314296275     0.929390327
12.661876            0.316342809     0.928531462    0.00034037098 -0.000146077222    0.00034037098 -0.000146077223      0.314691823     0.929241201
12.661904            0.316742027     0.928379881   0.000340914064 -0.000146499456   0.000340914064 -0.000146499456      0.315087627     0.929091774
12.661932            0.317141502     0.928227993   0.000341458157 -0.000146922962   0.000341458157 -0.000146922963      0.315483685     0.928942044
12.66196             0.317541235     0.928075796   0.000342003261 -0.000147347747   0.000342003261 -0.000147347747      0.315879999     0.928792011
12.661988            0.317941225      0.92792329   0.000342549377 -0.000147773814   0.000342549377 -0.000147773814      0.316276568     0.928641674
12.662016            0.318341473     0.927770475   0.000343096507 -0.000148201167   0.000343096507 -0.000148201167      0.316673393     0.928491032
12.662044             0.31874198     0.927617349   0.000343644654 -0.000148629811   0.000343644654 -0.000148629811      0.317070475     0.928340086
12.662072            0.319142745     0.927463912    0.00034419382  -0.00014905975    0.00034419382  -0.00014905975      0.317467813     0.928188834
12.6621              0.319543768     0.927310163   0.000344744006 -0.000149490988   0.000344744006 -0.000149490988      0.317865407     0.928037275
12.662128             0.31994505     0.927156103   0.000345295215  -0.00014992353   0.000345295215  -0.00014992353      0.318263258      0.92788541
12.662156            0.320346591     0.927001729   0.000345847448  -0.00015035738   0.000345847448  -0.00015035738      0.318661367     0.927733237
12.662184            0.320748392     0.926847042   0.000346400709 -0.000150792542   0.000346400709 -0.000150792542      0.319059732     0.927580756
12.662212            0.321150452     0.926692041   0.000346954998 -0.000151229021   0.000346954998 -0.000151229021      0.319458356     0.927427966
12.66224             0.321552772     0.926536725   0.000347510317 -0.000151666822   0.000347510317 -0.000151666822      0.319857237     0.927274867
12.662268            0.321955352     0.926381093    0.00034806667 -0.000152105948    0.00034806667 -0.000152105948      0.320256376     0.927121458
12.662296            0.322358192     0.926225146   0.000348624057 -0.000152546404   0.000348624057 -0.000152546404      0.320655773     0.926967738
12.662324            0.322761292     0.926068882   0.000349182481 -0.000152988194   0.000349182481 -0.000152988195      0.321055429     0.926813707
12.662352            0.323164654     0.925912301   0.000349741944 -0.000153431324   0.000349741944 -0.000153431324      0.321455344     0.926659365
12.66238             0.323568276     0.925755402   0.000350302448 -0.000153875797   0.000350302448 -0.000153875798      0.321855517     0.926504709
12.662408             0.32397216     0.925598184   0.000350863995 -0.000154321619   0.000350863995 -0.000154321619       0.32225595     0.926349741
12.662436            0.324376305     0.925440647   0.000351426587 -0.000154768793   0.000351426587 -0.000154768793      0.322656643     0.926194459
12.662464            0.324780712      0.92528279   0.000351990227 -0.000155217324   0.000351990227 -0.000155217324      0.323057595     0.926038862
12.662492             0.32518538     0.925124613   0.000352554915 -0.000155667216   0.000352554915 -0.000155667217      0.323458807     0.925882951
12.66252             0.325590311     0.924966114   0.000353120655 -0.000156118475   0.000353120655 -0.000156118475       0.32386028     0.925726724
12.662548            0.325995505     0.924807294   0.000353687448 -0.000156571105   0.000353687448 -0.000156571105      0.324262012      0.92557018
12.662576            0.326400961     0.924648152   0.000354255297  -0.00015702511   0.000354255297  -0.00015702511      0.324664006      0.92541332
12.662604            0.326806679     0.924488686   0.000354824203 -0.000157480496   0.000354824203 -0.000157480496       0.32506626     0.925256142
12.662632            0.327212662     0.924328896   0.000355394169 -0.000157937266   0.000355394169 -0.000157937266      0.325468776     0.925098646
12.66266             0.327618907     0.924168782   0.000355965196 -0.000158395425   0.000355965196 -0.000158395425      0.325871553     0.924940831
12.662688            0.328025416     0.924008343   0.000356537287 -0.000158854979   0.000356537287 -0.000158854979      0.326274592     0.924782696
12.662716            0.328432189     0.923847579   0.000357110444 -0.000159315931   0.000357110444 -0.000159315931      0.326677892     0.924624242
12.662744            0.328839226     0.923686488   0.000357684669 -0.000159778287   0.000357684669 -0.000159778287      0.327081455     0.924465466
12.662772            0.329246527      0.92352507   0.000358259965 -0.000160242051   0.000358259965 -0.000160242051       0.32748528     0.924306369
12.6628              0.329654093     0.923363324   0.000358836332 -0.000160707228   0.000358836332 -0.000160707228      0.327889368      0.92414695
12.662828            0.330061924      0.92320125   0.000359413774 -0.000161173823   0.000359413774 -0.000161173823      0.328293719     0.923987209
12.662856             0.33047002     0.923038847   0.000359992292  -0.00016164184   0.000359992292  -0.00016164184      0.328698333     0.923827144
12.662884            0.330878381     0.922876114   0.000360571888 -0.000162111285   0.000360571888 -0.000162111285       0.32910321     0.923666755
12.662912            0.331287007      0.92271305   0.000361152565 -0.000162582162   0.000361152565 -0.000162582162       0.32950835     0.923506041
12.66294               0.3316959     0.922549656   0.000361734325 -0.000163054476   0.000361734325 -0.000163054476      0.329913755     0.923345001
12.662968            0.332105058      0.92238593    0.00036231717 -0.000163528231    0.00036231717 -0.000163528232      0.330319424     0.923183636
12.662996            0.332514483     0.922221872   0.000362901102 -0.000164003434   0.000362901102 -0.000164003434      0.330725357     0.923021944
12.663024            0.332924174      0.92205748   0.000363486123 -0.000164480088   0.000363486123 -0.000164480088      0.331131554     0.922859925
12.663052            0.333334132     0.921892755   0.000364072236 -0.000164958199   0.000364072236 -0.000164958199      0.331538017     0.922697578
12.66308             0.333744357     0.921727695   0.000364659441 -0.000165437771   0.000364659441 -0.000165437772      0.331944744     0.922534902
12.663108             0.33415485     0.921562301   0.000365247743  -0.00016591881   0.000365247743  -0.00016591881      0.332351737     0.922371896
12.663136            0.334565609      0.92139657   0.000365837142  -0.00016640132   0.000365837142 -0.000166401321      0.332758996     0.922208561
12.663164            0.334976637     0.921230503   0.000366427641 -0.000166885307   0.000366427641 -0.000166885307       0.33316652     0.922044895
12.663192            0.335387932     0.921064099   0.000367019242 -0.000167370775   0.000367019242 -0.000167370775       0.33357431     0.921880897
12.66322             0.335799496     0.920897357   0.000367611947  -0.00016785773   0.000367611947  -0.00016785773      0.333982367     0.921716567
12.663248            0.336211328     0.920730276   0.000368205758 -0.000168346176   0.000368205758 -0.000168346176       0.33439069     0.921551905
12.663276            0.336623429     0.920562856   0.000368800678 -0.000168836118   0.000368800678 -0.000168836119       0.33479928     0.921386909
12.663304            0.337035799     0.920395096   0.000369396709 -0.000169327563   0.000369396709 -0.000169327563      0.335208137     0.921221579
12.663332            0.337448438     0.920226996   0.000369993852 -0.000169820514   0.000369993853 -0.000169820514      0.335617261     0.921055915
12.66336             0.337861346     0.920058554   0.000370592111 -0.000170314977   0.000370592111 -0.000170314977      0.336026652     0.920889914
12.663388            0.338274525      0.91988977   0.000371191487 -0.000170810957   0.000371191487 -0.000170810957      0.336436312     0.920723578
12.663416            0.338687973     0.919720644   0.000371791982 -0.000171308459   0.000371791982  -0.00017130846      0.336846239     0.920556905
12.663444            0.339101691     0.919551174   0.000372393598 -0.000171807489   0.000372393599 -0.000171807489      0.337256435     0.920389894
12.663472            0.339515679     0.919381359   0.000372996339 -0.000172308052   0.000372996339 -0.000172308052      0.337666899     0.920222545
12.6635              0.339929939       0.9192112   0.000373600205 -0.000172810152   0.000373600205 -0.000172810152      0.338077633     0.920054857
