! TOUCHSTONE file generated by CST MICROWAVE STUDIO
! Date and time: Wed Jul 31 18:11:52 2024
! Project name: WaveGuide_BPF-Ver4.1_U-shape_Ku_T3_C4_CWA_2.cst
! Parameters = {cavity_h=16; cavity_l0=10; cavity_l1=15.1786; cavity_l2=16.8119; cavity_l3=17.1443; cavity_l4=17.2502; cavity_l5=17.1511; cavity_l6=17.5911; cavity_r=2.5; cavity_screw_l=0.5; cavity_screw_r=1.5; cavity_w=8; iris_h00=0; iris_h01=8.8071; iris_h112=0; iris_h12=5.5961; iris_h211=3.6562; iris_h23=5.1962; iris_h310=3.9602; iris_h34=5.0899; iris_h45=4.9266; iris_h49=4.6095; iris_h56=4.7991; iris_h58=4.4464; iris_h67=6.5953; iris_rx=0.1; iris_screw_l=0.5; iris_screw_r=1.5; iris_shift00=0; iris_shift112=0; iris_shift211=3.5; iris_shift310=0; iris_shift49=0; iris_shift58=3.5; iris_shift67=3.5; iris_tx=4.5; iris_tz=4.5; iris_w00=0; iris_w112=0; iris_w211=4; iris_w310=3.9602; iris_w49=4.6095; iris_w58=4; iris_w67=4; mesh_cavity=5; mesh_iris=7; mesh_screw=7; order=12; reset_all=0; sigma=4.8e+07}
! Header version: 2018
! Port assignment regex: !\s*Touchstone port\s*([0-9]+)\s*=\s*(CST MWS port|CST DS port)\s*([0-9]+|Zmin|Zmax)\s*\(\"(.*)\"\)(\s*mode\s*([0-9]+))?.*
! Touchstone port assignment:
! Touchstone port 1 = CST MWS port 1 ("")
! Touchstone port 2 = CST MWS port 2 ("")
# GHz S RI R 50
12.66                0.206983049     0.962720172   0.000137842379 -3.87611049e-05   0.000137842379  -3.8761105e-05      0.211894901     0.961642425
12.660028            0.207309081     0.962640867   0.000138014132 -3.88625309e-05   0.000138014132 -3.88625311e-05       0.21222199     0.961561108
12.660056            0.207635238     0.962561407   0.000138186118 -3.89642015e-05   0.000138186118 -3.89642016e-05      0.212549345     0.961479603
12.660084            0.207961544     0.962481787    0.00013835834 -3.90661162e-05    0.00013835834 -3.90661163e-05      0.212876931     0.961397918
12.660112            0.208288023     0.962402001   0.000138530797 -3.91682747e-05   0.000138530797 -3.91682749e-05       0.21320471     0.961316061
12.66014             0.208614698     0.962322045   0.000138703491 -3.92706768e-05   0.000138703491  -3.9270677e-05      0.213532645      0.96123404
12.660168            0.208941569     0.962241918   0.000138876422 -3.93733231e-05   0.000138876422 -3.93733232e-05      0.213860736     0.961151855
12.660196            0.209268621     0.962161623   0.000139049589 -3.94762147e-05   0.000139049589 -3.94762148e-05      0.214189009     0.961069499
12.660224            0.209595854      0.96208116   0.000139222994 -3.95793522e-05   0.000139222993 -3.95793524e-05      0.214517462     0.960986972
12.660252            0.209923269     0.962000528   0.000139396635 -3.96827363e-05   0.000139396635 -3.96827364e-05      0.214846097     0.960904275
12.66028             0.210250864     0.961919728   0.000139570515 -3.97863675e-05   0.000139570515 -3.97863676e-05      0.215174914     0.960821407
12.660308            0.210578641     0.961838759   0.000139744632 -3.98902464e-05   0.000139744632 -3.98902466e-05      0.215503912     0.960738367
12.660336              0.2109066     0.961757621   0.000139918987 -3.99943737e-05   0.000139918987 -3.99943738e-05      0.215833092     0.960655156
12.660364             0.21123474     0.961676313   0.000140093582 -4.00987499e-05   0.000140093581 -4.00987501e-05      0.216162454     0.960571773
12.660392            0.211563062     0.961594835   0.000140268414 -4.02033757e-05   0.000140268414 -4.02033758e-05      0.216491998     0.960488218
12.66042             0.211891566     0.961513187   0.000140443486 -4.03082516e-05   0.000140443486 -4.03082517e-05      0.216821725      0.96040449
12.660448            0.212220253     0.961431369   0.000140618798 -4.04133783e-05   0.000140618798 -4.04133784e-05      0.217151634     0.960320589
12.660476            0.212549121     0.961349381   0.000140794349 -4.05187563e-05   0.000140794349 -4.05187564e-05      0.217481725     0.960236516
12.660504            0.212878172     0.961267221    0.00014097014 -4.06243863e-05    0.00014097014 -4.06243865e-05      0.217811999     0.960152269
12.660532            0.213207406      0.96118489   0.000141146171  -4.0730269e-05   0.000141146171 -4.07302691e-05      0.218142456     0.960067848
12.66056             0.213536823     0.961102388   0.000141322443 -4.08364048e-05   0.000141322443 -4.08364049e-05      0.218473096     0.959983254
12.660588            0.213866422     0.961019714   0.000141498956 -4.09427944e-05   0.000141498956 -4.09427946e-05      0.218803919     0.959898485
12.660616            0.214196204     0.960936867    0.00014167571 -4.10494385e-05    0.00014167571 -4.10494387e-05      0.219134926     0.959813542
12.660644             0.21452617     0.960853849   0.000141852705 -4.11563377e-05   0.000141852705 -4.11563378e-05      0.219466116     0.959728425
12.660672            0.214856319     0.960770658   0.000142029942 -4.12634925e-05   0.000142029942 -4.12634927e-05      0.219797489     0.959643132
12.6607              0.215186652     0.960687294   0.000142207422 -4.13709037e-05   0.000142207422 -4.13709038e-05      0.220129046     0.959557663
12.660728            0.215517168     0.960603757   0.000142385143 -4.14785717e-05   0.000142385143 -4.14785719e-05      0.220460787      0.95947202
12.660756            0.215847868     0.960520046   0.000142563108 -4.15864973e-05   0.000142563108 -4.15864975e-05      0.220792712       0.9593862
12.660784            0.216178752     0.960436161   0.000142741315 -4.16946811e-05   0.000142741315 -4.16946812e-05      0.221124822     0.959300204
12.660812             0.21650982     0.960352103   0.000142919765 -4.18031237e-05   0.000142919765 -4.18031238e-05      0.221457115     0.959214031
12.66084             0.216841072      0.96026787   0.000143098459 -4.19118257e-05   0.000143098459 -4.19118258e-05      0.221789594     0.959127682
12.660868            0.217172509     0.960183462   0.000143277397 -4.20207878e-05   0.000143277397 -4.20207879e-05      0.222122256     0.959041156
12.660896             0.21750413      0.96009888   0.000143456579 -4.21300105e-05   0.000143456579 -4.21300107e-05      0.222455104     0.958954452
12.660924            0.217835936     0.960014122   0.000143636005 -4.22394946e-05   0.000143636005 -4.22394948e-05      0.222788136     0.958867571
12.660952            0.218167927     0.959929189   0.000143815676 -4.23492407e-05   0.000143815676 -4.23492408e-05      0.223121354     0.958780511
12.66098             0.218500102      0.95984408   0.000143995592 -4.24592493e-05   0.000143995592 -4.24592495e-05      0.223454756     0.958693274
12.661008            0.218832463     0.959758795   0.000144175754 -4.25695212e-05   0.000144175754 -4.25695213e-05      0.223788344     0.958605857
12.661036            0.219165009     0.959673334   0.000144356161  -4.2680057e-05   0.000144356161 -4.26800571e-05      0.224122118     0.958518262
12.661064            0.219497741     0.959587696   0.000144536813 -4.27908572e-05   0.000144536813 -4.27908574e-05      0.224456077     0.958430488
12.661092            0.219830658     0.959501881   0.000144717712 -4.29019227e-05   0.000144717712 -4.29019228e-05      0.224790222     0.958342534
12.66112             0.220163761     0.959415888   0.000144898858 -4.30132539e-05   0.000144898858  -4.3013254e-05      0.225124553     0.958254401
12.661148             0.22049705     0.959329719    0.00014508025 -4.31248516e-05    0.00014508025 -4.31248517e-05       0.22545907     0.958166088
12.661176            0.220830525     0.959243371    0.00014526189 -4.32367164e-05    0.00014526189 -4.32367165e-05      0.225793773     0.958077594
12.661204            0.221164186     0.959156845   0.000145443776 -4.33488489e-05   0.000145443776  -4.3348849e-05      0.226128663      0.95798892
12.661232            0.221498033     0.959070141   0.000145625911 -4.34612498e-05   0.000145625911 -4.34612499e-05      0.226463739     0.957900064
12.66126             0.221832067     0.958983258   0.000145808293 -4.35739197e-05   0.000145808293 -4.35739199e-05      0.226799002     0.957811028
12.661288            0.222166288     0.958896196   0.000145990924 -4.36868594e-05   0.000145990924 -4.36868595e-05      0.227134452     0.957721809
12.661316            0.222500695     0.958808954   0.000146173803 -4.38000694e-05   0.000146173803 -4.38000695e-05      0.227470089     0.957632409
12.661344             0.22283529     0.958721533   0.000146356931 -4.39135504e-05   0.000146356931 -4.39135506e-05      0.227805913     0.957542827
12.661372            0.223170071     0.958633932   0.000146540308 -4.40273031e-05   0.000146540308 -4.40273032e-05      0.228141924     0.957453063
12.6614               0.22350504     0.958546151   0.000146723934 -4.41413281e-05   0.000146723934 -4.41413283e-05      0.228478123     0.957363115
12.661428            0.223840196     0.958458189    0.00014690781 -4.42556261e-05    0.00014690781 -4.42556263e-05      0.228814509     0.957272985
12.661456            0.224175539     0.958370046   0.000147091937 -4.43701978e-05   0.000147091937 -4.43701979e-05      0.229151083     0.957182671
12.661484            0.224511071     0.958281723   0.000147276313 -4.44850437e-05   0.000147276313 -4.44850439e-05      0.229487845     0.957092174
12.661512             0.22484679     0.958193217    0.00014746094 -4.46001647e-05    0.00014746094 -4.46001648e-05      0.229824795     0.957001492
12.66154             0.225182697     0.958104531   0.000147645818 -4.47155613e-05   0.000147645818 -4.47155614e-05      0.230161933     0.956910627
12.661568            0.225518792     0.958015662   0.000147830948 -4.48312342e-05   0.000147830948 -4.48312343e-05       0.23049926     0.956819577
12.661596            0.225855076      0.95792661   0.000148016328 -4.49471841e-05   0.000148016328 -4.49471842e-05      0.230836775     0.956728341
12.661624            0.226191548     0.957837376   0.000148201961 -4.50634116e-05   0.000148201961 -4.50634118e-05      0.231174478     0.956636921
12.661652            0.226528209     0.957747959   0.000148387845 -4.51799175e-05   0.000148387845 -4.51799177e-05      0.231512371     0.956545315
12.66168             0.226865058     0.957658359   0.000148573982 -4.52967024e-05   0.000148573982 -4.52967026e-05      0.231850452     0.956453523
12.661708            0.227202097     0.957568575   0.000148760372  -4.5413767e-05   0.000148760372 -4.54137671e-05      0.232188723     0.956361545
12.661736            0.227539324     0.957478607   0.000148947015  -4.5531112e-05   0.000148947014 -4.55311121e-05      0.232527182     0.956269381
12.661764            0.227876741     0.957388455    0.00014913391 -4.56487379e-05    0.00014913391 -4.56487381e-05      0.232865832      0.95617703
12.661792            0.228214347     0.957298119    0.00014932106 -4.57666457e-05    0.00014932106 -4.57666458e-05       0.23320467     0.956084492
12.66182             0.228552143     0.957207598   0.000149508463 -4.58848358e-05   0.000149508463 -4.58848359e-05      0.233543699     0.955991766
12.661848            0.228890128     0.957116891    0.00014969612  -4.6003309e-05    0.00014969612 -4.60033091e-05      0.233882917     0.955898853
12.661876            0.229228303        0.957026   0.000149884032  -4.6122066e-05   0.000149884032 -4.61220661e-05      0.234222325     0.955805752
12.661904            0.229566669     0.956934922   0.000150072198 -4.62411075e-05   0.000150072198 -4.62411076e-05      0.234561924     0.955712462
12.661932            0.229905224     0.956843658   0.000150260619 -4.63604341e-05   0.000150260619 -4.63604342e-05      0.234901712     0.955618984
12.66196             0.230243969     0.956752208   0.000150449296 -4.64800465e-05   0.000150449296 -4.64800467e-05      0.235241691     0.955525317
12.661988            0.230582906     0.956660572   0.000150638228 -4.65999455e-05   0.000150638228 -4.65999457e-05      0.235581861      0.95543146
12.662016            0.230922032     0.956568748   0.000150827416 -4.67201318e-05   0.000150827416 -4.67201319e-05      0.235922222     0.955337414
12.662044             0.23126135     0.956476737   0.000151016861  -4.6840606e-05   0.000151016861 -4.68406061e-05      0.236262773     0.955243178
12.662072            0.231600858     0.956384538   0.000151206561 -4.69613688e-05   0.000151206561 -4.69613689e-05      0.236603516     0.955148752
12.6621              0.231940558     0.956292152   0.000151396519 -4.70824209e-05   0.000151396519 -4.70824211e-05      0.236944449     0.955054135
12.662128            0.232280448     0.956199577   0.000151586733 -4.72037631e-05   0.000151586733 -4.72037632e-05      0.237285575     0.954959328
12.662156             0.23262053     0.956106814   0.000151777205  -4.7325396e-05   0.000151777205 -4.73253961e-05      0.237626891     0.954864329
12.662184            0.232960804     0.956013861   0.000151967935 -4.74473203e-05   0.000151967935 -4.74473205e-05        0.2379684     0.954769138
12.662212            0.233301269      0.95592072   0.000152158922 -4.75695368e-05   0.000152158922 -4.75695369e-05        0.2383101     0.954673756
12.66224             0.233641926     0.955827389   0.000152350168 -4.76920461e-05   0.000152350167 -4.76920463e-05      0.238651992     0.954578182
12.662268            0.233982775     0.955733868   0.000152541672  -4.7814849e-05   0.000152541672 -4.78148491e-05      0.238994076     0.954482415
12.662296            0.234323817     0.955640157   0.000152733434 -4.79379462e-05   0.000152733434 -4.79379463e-05      0.239336353     0.954386455
12.662324             0.23466505     0.955546255   0.000152925456 -4.80613383e-05   0.000152925456 -4.80613384e-05      0.239678822     0.954290303
12.662352            0.235006476     0.955452163   0.000153117738 -4.81850261e-05   0.000153117738 -4.81850263e-05      0.240021483     0.954193956
12.66238             0.235348095     0.955357879   0.000153310278 -4.83090104e-05   0.000153310278 -4.83090105e-05      0.240364338     0.954097416
12.662408            0.235689906     0.955263404   0.000153503079 -4.84332918e-05   0.000153503079 -4.84332919e-05      0.240707385     0.954000682
12.662436            0.236031911     0.955168738    0.00015369614  -4.8557871e-05    0.00015369614 -4.85578712e-05      0.241050625     0.953903754
12.662464            0.236374108     0.955073879   0.000153889462 -4.86827488e-05   0.000153889462  -4.8682749e-05      0.241394059      0.95380663
12.662492            0.236716499     0.954978827   0.000154083044 -4.88079259e-05   0.000154083044  -4.8807926e-05      0.241737686     0.953709312
12.66252             0.237059083     0.954883583   0.000154276888  -4.8933403e-05   0.000154276888 -4.89334032e-05      0.242081506     0.953611798
12.662548            0.237401861     0.954788146   0.000154470993 -4.90591809e-05   0.000154470993  -4.9059181e-05       0.24242552     0.953514088
12.662576            0.237744832     0.954692516   0.000154665359 -4.91852602e-05   0.000154665359 -4.91852603e-05      0.242769728     0.953416183
12.662604            0.238087997     0.954596691   0.000154859988 -4.93116417e-05   0.000154859988 -4.93116419e-05       0.24311413     0.953318081
12.662632            0.238431357     0.954500673   0.000155054879 -4.94383262e-05   0.000155054879 -4.94383263e-05      0.243458726     0.953219782
12.66266              0.23877491      0.95440446   0.000155250032 -4.95653143e-05   0.000155250032 -4.95653144e-05      0.243803517     0.953121286
12.662688            0.239118658     0.954308052   0.000155445448 -4.96926068e-05   0.000155445448  -4.9692607e-05      0.244148501     0.953022592
12.662716              0.2394626      0.95421145   0.000155641127 -4.98202045e-05   0.000155641127 -4.98202046e-05      0.244493681     0.952923701
12.662744            0.239806737     0.954114652    0.00015583707  -4.9948108e-05    0.00015583707 -4.99481081e-05      0.244839055     0.952824612
12.662772            0.240151069     0.954017658   0.000156033276 -5.00763181e-05   0.000156033276 -5.00763183e-05      0.245184624     0.952725324
12.6628              0.240495596     0.953920468   0.000156229746 -5.02048356e-05   0.000156229746 -5.02048357e-05      0.245530388     0.952625838
12.662828            0.240840318     0.953823082   0.000156426481 -5.03336612e-05   0.000156426481 -5.03336613e-05      0.245876348     0.952526152
12.662856            0.241185235     0.953725499    0.00015662348 -5.04627956e-05    0.00015662348 -5.04627957e-05      0.246222502     0.952426267
12.662884            0.241530347     0.953627719   0.000156820744 -5.05922396e-05   0.000156820744 -5.05922397e-05      0.246568853     0.952326183
12.662912            0.241875656     0.953529742   0.000157018273 -5.07219939e-05   0.000157018273 -5.07219941e-05      0.246915398     0.952225898
12.66294              0.24222116     0.953431567   0.000157216067 -5.08520593e-05   0.000157216067 -5.08520595e-05       0.24726214     0.952125413
12.662968            0.242566859     0.953333194   0.000157414127 -5.09824366e-05   0.000157414127 -5.09824367e-05      0.247609078     0.952024727
12.662996            0.242912755     0.953234622   0.000157612453 -5.11131264e-05   0.000157612453 -5.11131265e-05      0.247956212      0.95192384
12.663024            0.243258848     0.953135852   0.000157811045 -5.12441296e-05   0.000157811045 -5.12441297e-05      0.248303542     0.951822751
12.663052            0.243605136     0.953036883   0.000158009904 -5.13754468e-05   0.000158009904  -5.1375447e-05      0.248651069      0.95172146
12.66308             0.243951621     0.952937714    0.00015820903  -5.1507079e-05    0.00015820903 -5.15070791e-05      0.248998792     0.951619968
12.663108            0.244298303     0.952838345   0.000158408422 -5.16390267e-05   0.000158408422 -5.16390268e-05      0.249346712     0.951518273
12.663136            0.244645182     0.952738777   0.000158608083 -5.17712908e-05   0.000158608082  -5.1771291e-05       0.24969483     0.951416375
12.663164            0.244992257     0.952639008    0.00015880801 -5.19038721e-05    0.00015880801 -5.19038722e-05      0.250043144     0.951314274
12.663192             0.24533953     0.952539038   0.000159008206 -5.20367712e-05   0.000159008206 -5.20367714e-05      0.250391655     0.951211969
12.66322                0.245687     0.952438867    0.00015920867 -5.21699891e-05    0.00015920867 -5.21699892e-05      0.250740364      0.95110946
12.663248            0.246034668     0.952338494   0.000159409402 -5.23035264e-05   0.000159409402 -5.23035265e-05       0.25108927     0.951006747
12.663276            0.246382534      0.95223792   0.000159610403 -5.24373838e-05   0.000159610403  -5.2437384e-05      0.251438374      0.95090383
12.663304            0.246730597     0.952137144   0.000159811673 -5.25715623e-05   0.000159811673 -5.25715625e-05      0.251787676     0.950800708
12.663332            0.247078858     0.952036165   0.000160013213 -5.27060625e-05   0.000160013213 -5.27060627e-05      0.252137176      0.95069738
12.66336             0.247427317     0.951934983   0.000160215022 -5.28408853e-05   0.000160215022 -5.28408854e-05      0.252486875     0.950593847
12.663388            0.247775975     0.951833598   0.000160417101 -5.29760314e-05   0.000160417101 -5.29760315e-05      0.252836771     0.950490108
12.663416            0.248124831     0.951732009   0.000160619451 -5.31115015e-05    0.00016061945 -5.31115017e-05      0.253186866     0.950386162
12.663444            0.248473886     0.951630217    0.00016082207 -5.32472966e-05    0.00016082207 -5.32472967e-05       0.25353716      0.95028201
12.663472            0.248823139      0.95152822   0.000161024961 -5.33834172e-05   0.000161024961 -5.33834174e-05      0.253887653     0.950177651
12.6635              0.249172591     0.951426019   0.000161228122 -5.35198644e-05   0.000161228122 -5.35198645e-05      0.254238344     0.950073084
