! TOUCHSTONE file generated by CST MICROWAVE STUDIO
! Date and time: Wed Jul 31 18:15:02 2024
! Project name: WaveGuide_BPF-Ver4.1_U-shape_Ku_T3_C4_CWA_2.cst
! Parameters = {cavity_h=16; cavity_l0=10; cavity_l1=15.1698; cavity_l2=16.8331; cavity_l3=17.1332; cavity_l4=17.2931; cavity_l5=17.1545; cavity_l6=17.6369; cavity_r=2.5; cavity_screw_l=0.5; cavity_screw_r=1.5; cavity_w=8; iris_h00=0; iris_h01=8.8375; iris_h112=0; iris_h12=5.6094; iris_h211=3.6603; iris_h23=5.2038; iris_h310=3.968; iris_h34=5.073; iris_h45=4.9394; iris_h49=4.6219; iris_h56=4.792; iris_h58=4.4405; iris_h67=6.5806; iris_rx=0.1; iris_screw_l=0.5; iris_screw_r=1.5; iris_shift00=0; iris_shift112=0; iris_shift211=3.5; iris_shift310=0; iris_shift49=0; iris_shift58=3.5; iris_shift67=3.5; iris_tx=4.5; iris_tz=4.5; iris_w00=0; iris_w112=0; iris_w211=4; iris_w310=3.968; iris_w49=4.6219; iris_w58=4; iris_w67=4; mesh_cavity=5; mesh_iris=7; mesh_screw=7; order=12; reset_all=0; sigma=4.8e+07}
! Header version: 2018
! Port assignment regex: !\s*Touchstone port\s*([0-9]+)\s*=\s*(CST MWS port|CST DS port)\s*([0-9]+|Zmin|Zmax)\s*\(\"(.*)\"\)(\s*mode\s*([0-9]+))?.*
! Touchstone port assignment:
! Touchstone port 1 = CST MWS port 1 ("")
! Touchstone port 2 = CST MWS port 2 ("")
# GHz S RI R 50
12.66                0.290441459     0.938524579   0.000203973031 -7.91355888e-05   0.000203973032 -7.91355888e-05      0.298074992      0.93597986
12.660028            0.290810059     0.938398268   0.000204244699 -7.93396894e-05     0.0002042447 -7.93396894e-05      0.298447813     0.935848641
12.660056            0.291178842     0.938271723   0.000204516766 -7.95443039e-05   0.000204516767 -7.95443039e-05      0.298820822     0.935717178
12.660084             0.29154782     0.938144939   0.000204789231 -7.97494357e-05   0.000204789232 -7.97494357e-05      0.299194029     0.935585469
12.660112            0.291917003     0.938017914   0.000205062093 -7.99550882e-05   0.000205062093 -7.99550882e-05      0.299567444     0.935453509
12.66014             0.292286404     0.937890642    0.00020533535 -8.01612649e-05   0.000205335351 -8.01612649e-05      0.299941079     0.935321295
12.660168            0.292656023     0.937763124   0.000205609004 -8.03679673e-05   0.000205609005 -8.03679673e-05      0.300314934     0.935188827
12.660196            0.293025853     0.937635362   0.000205883056 -8.05751953e-05   0.000205883057 -8.05751953e-05      0.300689002     0.935056106
12.660224            0.293395893     0.937507354   0.000206157506 -8.07829504e-05   0.000206157507 -8.07829504e-05      0.301063282     0.934923132
12.660252            0.293766144     0.937379102   0.000206432355 -8.09912339e-05   0.000206432356 -8.09912339e-05      0.301437776     0.934789904
12.66028             0.294136605     0.937250603   0.000206707604 -8.12000473e-05   0.000206707605 -8.12000473e-05      0.301812483     0.934656422
12.660308            0.294507278     0.937121858   0.000206983253  -8.1409392e-05   0.000206983253  -8.1409392e-05      0.302187403     0.934522685
12.660336            0.294878161     0.936992867   0.000207259302 -8.16192695e-05   0.000207259302 -8.16192695e-05      0.302562537     0.934388693
12.660364            0.295249256     0.936863628   0.000207535752 -8.18296811e-05   0.000207535752 -8.18296811e-05      0.302937884     0.934254446
12.660392            0.295620563     0.936734142   0.000207812603 -8.20406282e-05   0.000207812604 -8.20406282e-05      0.303313446     0.934119943
12.66042             0.295992081     0.936604408   0.000208089857 -8.22521124e-05   0.000208089857 -8.22521124e-05      0.303689221     0.933985183
12.660448            0.296363811     0.936474426   0.000208367513 -8.24641351e-05   0.000208367514 -8.24641351e-05      0.304065211     0.933850167
12.660476            0.296735753     0.936344195   0.000208645572 -8.26766976e-05   0.000208645573 -8.26766976e-05      0.304441415     0.933714894
12.660504            0.297107907     0.936213714   0.000208924035 -8.28898015e-05   0.000208924036 -8.28898015e-05      0.304817834     0.933579362
12.660532            0.297480273     0.936082984   0.000209202902 -8.31034482e-05   0.000209202902 -8.31034482e-05      0.305194467     0.933443573
12.66056             0.297852851     0.935952004   0.000209482173 -8.33176391e-05   0.000209482174 -8.33176391e-05      0.305571315     0.933307525
12.660588            0.298225643     0.935820773    0.00020976185 -8.35323758e-05   0.000209761851 -8.35323758e-05      0.305948378     0.933171218
12.660616            0.298598647     0.935689291   0.000210041932 -8.37476596e-05   0.000210041933 -8.37476596e-05      0.306325656     0.933034651
12.660644            0.298971864     0.935557558   0.000210322421  -8.3963492e-05   0.000210322421  -8.3963492e-05      0.306703149     0.932897824
12.660672            0.299345294     0.935425572   0.000210603316 -8.41798746e-05   0.000210603317 -8.41798746e-05      0.307080858     0.932760737
12.6607              0.299718937     0.935293335   0.000210884618 -8.43968088e-05   0.000210884619 -8.43968088e-05      0.307458782     0.932623389
12.660728            0.300092793     0.935160844   0.000211166328  -8.4614296e-05   0.000211166329  -8.4614296e-05      0.307836923      0.93248578
12.660756            0.300466863     0.935028101   0.000211448447 -8.48323378e-05   0.000211448447 -8.48323378e-05      0.308215279     0.932347908
12.660784            0.300841147     0.934895104   0.000211730974 -8.50509356e-05   0.000211730974 -8.50509356e-05      0.308593851     0.932209775
12.660812            0.301215645     0.934761852    0.00021201391  -8.5270091e-05   0.000212013911 -8.52700909e-05      0.308972639     0.932071379
12.66084             0.301590356     0.934628346   0.000212297256 -8.54898053e-05   0.000212297257 -8.54898053e-05      0.309351644     0.931932719
12.660868            0.301965282     0.934494585   0.000212581013 -8.57100802e-05   0.000212581013 -8.57100802e-05      0.309730865     0.931793796
12.660896            0.302340422     0.934360569    0.00021286518 -8.59309172e-05   0.000212865181 -8.59309171e-05      0.310110303     0.931654608
12.660924            0.302715777     0.934226297   0.000213149759 -8.61523176e-05   0.000213149759 -8.61523176e-05      0.310489958     0.931515157
12.660952            0.303091346     0.934091768   0.000213434749 -8.63742831e-05    0.00021343475 -8.63742831e-05       0.31086983     0.931375439
12.66098              0.30346713     0.933956982   0.000213720152 -8.65968152e-05   0.000213720153 -8.65968152e-05      0.311249919     0.931235457
12.661008            0.303843129      0.93382194   0.000214005968 -8.68199154e-05   0.000214005968 -8.68199154e-05      0.311630226     0.931095208
12.661036            0.304219343     0.933686639   0.000214292197 -8.70435852e-05   0.000214292198 -8.70435852e-05      0.312010749     0.930954693
12.661064            0.304595772      0.93355108    0.00021457884 -8.72678261e-05   0.000214578841 -8.72678261e-05      0.312391491     0.930813911
12.661092            0.304972417     0.933415263   0.000214865898 -8.74926398e-05   0.000214865898 -8.74926398e-05       0.31277245     0.930672862
12.66112             0.305349278     0.933279187    0.00021515337 -8.77180276e-05   0.000215153371 -8.77180276e-05      0.313153627     0.930531544
12.661148            0.305726354     0.933142851   0.000215441258 -8.79439912e-05   0.000215441259 -8.79439912e-05      0.313535023     0.930389958
12.661176            0.306103646     0.933006255   0.000215729562 -8.81705321e-05   0.000215729562 -8.81705321e-05      0.313916636     0.930248104
12.661204            0.306481154     0.932869399   0.000216018282 -8.83976518e-05   0.000216018283 -8.83976518e-05      0.314298468      0.93010598
12.661232            0.306858878     0.932732281    0.00021630742  -8.8625352e-05    0.00021630742  -8.8625352e-05      0.314680519     0.929963586
12.66126             0.307236819     0.932594903   0.000216596975 -8.88536341e-05   0.000216596975 -8.88536341e-05      0.315062788     0.929820922
12.661288            0.307614976     0.932457262   0.000216886948 -8.90824998e-05   0.000216886948 -8.90824998e-05      0.315445276     0.929677987
12.661316             0.30799335     0.932319359   0.000217177339 -8.93119506e-05    0.00021717734 -8.93119506e-05      0.315827984     0.929534781
12.661344            0.308371941     0.932181194    0.00021746815  -8.9541988e-05    0.00021746815  -8.9541988e-05       0.31621091     0.929391303
12.661372            0.308750749     0.932042765    0.00021775938 -8.97726137e-05   0.000217759381 -8.97726137e-05      0.316594056     0.929247553
12.6614              0.309129774     0.931904073    0.00021805103 -9.00038293e-05   0.000218051031 -9.00038293e-05      0.316977421      0.92910353
12.661428            0.309509016     0.931765116   0.000218343101 -9.02356362e-05   0.000218343102 -9.02356362e-05      0.317361006     0.928959234
12.661456            0.309888476     0.931625895   0.000218635593 -9.04680362e-05   0.000218635594 -9.04680362e-05      0.317744811     0.928814664
12.661484            0.310268154     0.931486408   0.000218928507 -9.07010307e-05   0.000218928507 -9.07010307e-05      0.318128836     0.928669821
12.661512            0.310648049     0.931346656   0.000219221843 -9.09346215e-05   0.000219221843 -9.09346215e-05      0.318513081     0.928524702
12.66154             0.311028162     0.931206638   0.000219515601 -9.11688101e-05   0.000219515602 -9.11688101e-05      0.318897546     0.928379308
12.661568            0.311408494     0.931066353   0.000219809783 -9.14035981e-05   0.000219809783 -9.14035981e-05      0.319282232     0.928233639
12.661596            0.311789043     0.930925802   0.000220104388 -9.16389871e-05   0.000220104389 -9.16389871e-05      0.319667138     0.928087694
12.661624            0.312169812     0.930784983   0.000220399418 -9.18749787e-05   0.000220399418 -9.18749787e-05      0.320052265     0.927941472
12.661652            0.312550799     0.930643896   0.000220694872 -9.21115747e-05   0.000220694873 -9.21115747e-05      0.320437614     0.927794973
12.66168             0.312932004      0.93050254   0.000220990751 -9.23487765e-05   0.000220990752 -9.23487765e-05      0.320823183     0.927648196
12.661708            0.313313429     0.930360916   0.000221287057 -9.25865858e-05   0.000221287057 -9.25865858e-05      0.321208973     0.927501141
12.661736            0.313695072     0.930219022   0.000221583788 -9.28250043e-05   0.000221583789 -9.28250043e-05      0.321594985     0.927353808
12.661764            0.314076935     0.930076859   0.000221880946 -9.30640335e-05   0.000221880947 -9.30640336e-05      0.321981218     0.927206195
12.661792            0.314459017     0.929934425   0.000222178532 -9.33036753e-05   0.000222178532 -9.33036753e-05      0.322367674     0.927058303
12.66182             0.314841319      0.92979172   0.000222476545  -9.3543931e-05   0.000222476546 -9.35439311e-05      0.322754351     0.926910131
12.661848            0.315223841     0.929648744   0.000222774986 -9.37848026e-05   0.000222774987 -9.37848026e-05       0.32314125     0.926761678
12.661876            0.315606582     0.929505496   0.000223073857 -9.40262915e-05   0.000223073857 -9.40262915e-05      0.323528371     0.926612945
12.661904            0.315989544     0.929361976   0.000223373156 -9.42683995e-05   0.000223373157 -9.42683995e-05      0.323915714     0.926463929
12.661932            0.316372726     0.929218183   0.000223672886 -9.45111282e-05   0.000223672886 -9.45111282e-05      0.324303281     0.926314632
12.66196             0.316756128     0.929074117   0.000223973045 -9.47544793e-05   0.000223973046 -9.47544793e-05      0.324691069     0.926165051
12.661988            0.317139751     0.928929777   0.000224273636 -9.49984545e-05   0.000224273637 -9.49984545e-05      0.325079081     0.926015188
12.662016            0.317523594     0.928785163   0.000224574658 -9.52430554e-05   0.000224574658 -9.52430554e-05      0.325467315     0.925865041
12.662044            0.317907658     0.928640275   0.000224876112 -9.54882838e-05   0.000224876112 -9.54882838e-05      0.325855773      0.92571461
12.662072            0.318291943     0.928495111   0.000225177998 -9.57341412e-05   0.000225177998 -9.57341413e-05      0.326244454     0.925563895
12.6621               0.31867645     0.928349671   0.000225480316 -9.59806295e-05   0.000225480317 -9.59806296e-05      0.326633359     0.925412894
12.662128            0.319061177     0.928203955   0.000225783069 -9.62277504e-05   0.000225783069 -9.62277504e-05      0.327022487     0.925261607
12.662156            0.319446127     0.928057962   0.000226086255 -9.64755054e-05   0.000226086256 -9.64755054e-05      0.327411838     0.925110035
12.662184            0.319831297     0.927911693   0.000226389875 -9.67238964e-05   0.000226389876 -9.67238964e-05      0.327801414     0.924958175
12.662212             0.32021669     0.927765145   0.000226693931  -9.6972925e-05   0.000226693931  -9.6972925e-05      0.328191214     0.924806029
12.66224             0.320602305      0.92761832   0.000226998421  -9.7222593e-05   0.000226998422  -9.7222593e-05      0.328581238     0.924653595
12.662268            0.320988142     0.927471215   0.000227303348  -9.7472902e-05   0.000227303349 -9.74729021e-05      0.328971487     0.924500872
12.662296            0.321374201     0.927323832   0.000227608711 -9.77238539e-05   0.000227608712 -9.77238539e-05       0.32936196     0.924347861
12.662324            0.321760482     0.927176169   0.000227914511 -9.79754503e-05   0.000227914512 -9.79754504e-05      0.329752657      0.92419456
12.662352            0.322146986     0.927028226   0.000228220748  -9.8227693e-05   0.000228220749 -9.82276931e-05       0.33014358      0.92404097
12.66238             0.322533713     0.926880002   0.000228527423 -9.84805838e-05   0.000228527424 -9.84805838e-05      0.330534728     0.923887089
12.662408            0.322920663     0.926731497   0.000228834537 -9.87341243e-05   0.000228834537 -9.87341243e-05      0.330926101     0.923732918
12.662436            0.323307836      0.92658271   0.000229142089 -9.89883163e-05    0.00022914209 -9.89883163e-05      0.331317699     0.923578455
12.662464            0.323695232     0.926433641   0.000229450081 -9.92431616e-05   0.000229450082 -9.92431616e-05      0.331709522       0.9234237
12.662492            0.324082852     0.926284289   0.000229758513 -9.94986619e-05   0.000229758513 -9.94986619e-05      0.332101572     0.923268653
12.66252             0.324470695     0.926134654   0.000230067385  -9.9754819e-05   0.000230067385  -9.9754819e-05      0.332493847     0.923113313
12.662548            0.324858762     0.925984735   0.000230376698 -0.000100011635   0.000230376698 -0.000100011635      0.332886348     0.922957679
12.662576            0.325247052     0.925834532   0.000230686452 -0.000100269111   0.000230686453 -0.000100269111      0.333279075     0.922801752
12.662604            0.325635567     0.925684045   0.000230996648 -0.000100527249   0.000230996649 -0.000100527249      0.333672029      0.92264553
12.662632            0.326024306     0.925533272   0.000231307287 -0.000100786051   0.000231307287 -0.000100786051      0.334065209     0.922489012
12.66266              0.32641327     0.925382213   0.000231618368 -0.000101045519   0.000231618369 -0.000101045519      0.334458615       0.9223322
12.662688            0.326802458     0.925230868   0.000231929893 -0.000101305654   0.000231929894 -0.000101305654      0.334852249     0.922175091
12.662716             0.32719187     0.925079236   0.000232241862 -0.000101566459   0.000232241862 -0.000101566459      0.335246109     0.922017685
12.662744            0.327581508     0.924927317   0.000232554275 -0.000101827934   0.000232554276 -0.000101827934      0.335640196     0.921859982
12.662772             0.32797137      0.92477511   0.000232867133 -0.000102090083   0.000232867133 -0.000102090083      0.336034511     0.921701981
12.6628              0.328361458     0.924622615   0.000233180436 -0.000102352906   0.000233180437 -0.000102352906      0.336429053     0.921543683
12.662828            0.328751771     0.924469831   0.000233494185 -0.000102616406   0.000233494186 -0.000102616406      0.336823823     0.921385085
12.662856             0.32914231     0.924316757   0.000233808381 -0.000102880585   0.000233808381 -0.000102880585       0.33721882     0.921226188
12.662884            0.329533074     0.924163394   0.000234123023 -0.000103145443   0.000234123024 -0.000103145443      0.337614045     0.921066991
12.662912            0.329924064      0.92400974   0.000234438112 -0.000103410984   0.000234438113 -0.000103410984      0.338009498     0.920907493
12.66294              0.33031528     0.923855795    0.00023475365 -0.000103677208    0.00023475365 -0.000103677208      0.338405179     0.920747695
12.662968            0.330706722     0.923701558   0.000235069635 -0.000103944118   0.000235069636 -0.000103944118      0.338801089     0.920587595
12.662996             0.33109839      0.92354703    0.00023538607 -0.000104211716   0.000235386071 -0.000104211716      0.339197227     0.920427192
12.663024            0.331490285     0.923392209   0.000235702954 -0.000104480003   0.000235702954 -0.000104480003      0.339593594     0.920266488
12.663052            0.331882407     0.923237095   0.000236020287 -0.000104748981   0.000236020288 -0.000104748981      0.339990189      0.92010548
12.66308             0.332274755     0.923081687   0.000236338071 -0.000105018653   0.000236338071 -0.000105018653      0.340387014     0.919944168
12.663108             0.33266733     0.922925985   0.000236656305  -0.00010528902   0.000236656306  -0.00010528902      0.340784068     0.919782552
12.663136            0.333060133     0.922769988   0.000236974991 -0.000105560083   0.000236974992 -0.000105560083       0.34118135     0.919620631
12.663164            0.333453162     0.922613696   0.000237294128 -0.000105831845   0.000237294129 -0.000105831845      0.341578863     0.919458404
12.663192            0.333846419     0.922457109   0.000237613718 -0.000106104308   0.000237613718 -0.000106104308      0.341976605     0.919295872
12.66322             0.334239904     0.922300225    0.00023793376 -0.000106377474   0.000237933761 -0.000106377474      0.342374576     0.919133033
12.663248            0.334633616     0.922143044   0.000238254255 -0.000106651344   0.000238254256 -0.000106651344      0.342772778     0.918969887
12.663276            0.335027556     0.921985566   0.000238575204  -0.00010692592   0.000238575205  -0.00010692592       0.34317121     0.918806433
12.663304            0.335421725      0.92182779   0.000238896607 -0.000107201205   0.000238896608 -0.000107201205      0.343569872     0.918642672
12.663332            0.335816121     0.921669715   0.000239218465 -0.000107477199   0.000239218466 -0.000107477199      0.343968764     0.918478601
12.66336             0.336210746     0.921511342   0.000239540778 -0.000107753906   0.000239540779 -0.000107753906      0.344367887     0.918314221
12.663388            0.336605599     0.921352669   0.000239863546 -0.000108031327   0.000239863547 -0.000108031327       0.34476724     0.918149531
12.663416            0.337000682     0.921193696   0.000240186771 -0.000108309464   0.000240186771 -0.000108309464      0.345166825     0.917984531
12.663444            0.337395993     0.921034422   0.000240510451 -0.000108588319   0.000240510452 -0.000108588319       0.34556664     0.917819219
12.663472            0.337791533     0.920874847   0.000240834589 -0.000108867893    0.00024083459 -0.000108867893      0.345966687     0.917653596
12.6635              0.338187302      0.92071497   0.000241159184 -0.000109148189   0.000241159185 -0.000109148189      0.346366964     0.917487661
