! TOUCHSTONE file generated by CST MICROWAVE STUDIO
! Date and time: Wed Jul 31 18:21:23 2024
! Project name: WaveGuide_BPF-Ver4.1_U-shape_Ku_T3_C4_CWA_2.cst
! Parameters = {cavity_h=16; cavity_l0=10; cavity_l1=15.1786; cavity_l2=16.8776; cavity_l3=17.1005; cavity_l4=17.2917; cavity_l5=17.0961; cavity_l6=17.6402; cavity_r=2.5; cavity_screw_l=0.5; cavity_screw_r=1.5; cavity_w=8; iris_h00=0; iris_h01=8.8216; iris_h112=0; iris_h12=5.5979; iris_h211=3.6645; iris_h23=5.1894; iris_h310=3.977; iris_h34=5.0891; iris_h45=4.9279; iris_h49=4.621; iris_h56=4.799; iris_h58=4.4347; iris_h67=6.5937; iris_rx=0.1; iris_screw_l=0.5; iris_screw_r=1.5; iris_shift00=0; iris_shift112=0; iris_shift211=3.5; iris_shift310=0; iris_shift49=0; iris_shift58=3.5; iris_shift67=3.5; iris_tx=4.5; iris_tz=4.5; iris_w00=0; iris_w112=0; iris_w211=4; iris_w310=3.977; iris_w49=4.621; iris_w58=4; iris_w67=4; mesh_cavity=5; mesh_iris=7; mesh_screw=7; order=12; reset_all=0; sigma=4.8e+07}
! Header version: 2018
! Port assignment regex: !\s*Touchstone port\s*([0-9]+)\s*=\s*(CST MWS port|CST DS port)\s*([0-9]+|Zmin|Zmax)\s*\(\"(.*)\"\)(\s*mode\s*([0-9]+))?.*
! Touchstone port assignment:
! Touchstone port 1 = CST MWS port 1 ("")
! Touchstone port 2 = CST MWS port 2 ("")
# GHz S RI R 50
12.66                0.269992617     0.944458634   0.000284037475 -0.000105479443   0.000284037475 -0.000105479443      0.274728152     0.943104784
12.660028             0.27036721     0.944338233   0.000284478672 -0.000105783228   0.000284478672 -0.000105783227      0.275102621     0.942982325
12.660056            0.270742069     0.944217573   0.000284920668 -0.000106087909   0.000284920668 -0.000106087908      0.275477352     0.942859606
12.660084            0.271117183     0.944096656   0.000285363465 -0.000106393487   0.000285363465 -0.000106393486      0.275852336     0.942736628
12.660112             0.27149254     0.943975485   0.000285807068 -0.000106699961   0.000285807068 -0.000106699961      0.276227562     0.942613395
12.66014             0.271868128     0.943854064    0.00028625148 -0.000107007333    0.00028625148 -0.000107007332      0.276603021     0.942489909
12.660168            0.272243946     0.943732392   0.000286696703 -0.000107315604   0.000286696703 -0.000107315603      0.276978711     0.942366169
12.660196            0.272620004     0.943610466   0.000287142738 -0.000107624779   0.000287142738 -0.000107624779       0.27735464     0.942242173
12.660224            0.272996301     0.943488285   0.000287589585 -0.000107934862   0.000287589585 -0.000107934861      0.277730809      0.94211792
12.660252            0.273372838     0.943365849   0.000288037247 -0.000108245855   0.000288037247 -0.000108245854      0.278107218     0.941993411
12.66028             0.273749615     0.943243158   0.000288485724 -0.000108557761   0.000288485724  -0.00010855776      0.278483867     0.941868643
12.660308            0.274126633     0.943120211   0.000288935019 -0.000108870583   0.000288935019 -0.000108870583      0.278860756     0.941743618
12.660336            0.274503891     0.942997008   0.000289385134 -0.000109184324   0.000289385134 -0.000109184324      0.279237885     0.941618334
12.660364            0.274881389     0.942873548   0.000289836069 -0.000109498988   0.000289836069 -0.000109498987      0.279615256     0.941492791
12.660392            0.275259128      0.94274983   0.000290287827 -0.000109814576   0.000290287827 -0.000109814576      0.279992867     0.941366988
12.66042             0.275637109     0.942625855   0.000290740409 -0.000110131092   0.000290740408 -0.000110131092      0.280370719     0.941240925
12.660448            0.276015331     0.942501621   0.000291193816  -0.00011044854   0.000291193816 -0.000110448539      0.280748813     0.941114602
12.660476            0.276393795     0.942377128   0.000291648051 -0.000110766921   0.000291648051  -0.00011076692      0.281127149     0.940988017
12.660504              0.2767725     0.942252375   0.000292103115 -0.000111086239   0.000292103115 -0.000111086239      0.281505727     0.940861171
12.660532            0.277151448     0.942127363   0.000292559009 -0.000111406497   0.000292559009 -0.000111406497      0.281884546     0.940734062
12.66056             0.277530638     0.942002091   0.000293015736 -0.000111727699   0.000293015736 -0.000111727698      0.282263608     0.940606691
12.660588             0.27791007     0.941876557   0.000293473297 -0.000112049846   0.000293473297 -0.000112049846      0.282642913     0.940479057
12.660616            0.278289745     0.941750762   0.000293931693 -0.000112372943   0.000293931693 -0.000112372942      0.283022461     0.940351159
12.660644            0.278669664     0.941624705   0.000294390927 -0.000112696991   0.000294390927 -0.000112696991      0.283402251     0.940222996
12.660672            0.279049825     0.941498385   0.000294850999 -0.000113021995   0.000294850999 -0.000113021995      0.283782285     0.940094569
12.6607               0.27943023     0.941371803   0.000295311912 -0.000113347958   0.000295311912 -0.000113347958      0.284162563     0.939965877
12.660728            0.279810879     0.941244957   0.000295773667 -0.000113674882   0.000295773667 -0.000113674881      0.284543084     0.939836919
12.660756            0.280191772     0.941117847   0.000296236266  -0.00011400277   0.000296236266  -0.00011400277       0.28492385     0.939707695
12.660784            0.280572909     0.940990473    0.00029669971 -0.000114331627    0.00029669971 -0.000114331626      0.285304859     0.939578203
12.660812            0.280954291     0.940862833   0.000297164002 -0.000114661454   0.000297164002 -0.000114661453      0.285686113     0.939448445
12.66084             0.281335917     0.940734928   0.000297629143 -0.000114992255   0.000297629143 -0.000114992255      0.286067612     0.939318419
12.660868            0.281717788     0.940606757   0.000298095134 -0.000115324033   0.000298095134 -0.000115324033      0.286449356     0.939188124
12.660896            0.282099904     0.940478319   0.000298561977 -0.000115656792   0.000298561977 -0.000115656792      0.286831345      0.93905756
12.660924            0.282482266     0.940349614   0.000299029674 -0.000115990534   0.000299029674 -0.000115990534       0.28721358     0.938926727
12.660952            0.282864873     0.940220641   0.000299498227 -0.000116325263   0.000299498227 -0.000116325263       0.28759606     0.938795624
12.66098             0.283247726     0.940091401   0.000299967637 -0.000116660982   0.000299967637 -0.000116660981      0.287978786      0.93866425
12.661008            0.283630826     0.939961891   0.000300437907 -0.000116997694   0.000300437906 -0.000116997693      0.288361758     0.938532606
12.661036            0.284014171     0.939832112   0.000300909036 -0.000117335402   0.000300909036 -0.000117335402      0.288744977     0.938400689
12.661064            0.284397764     0.939702064   0.000301381028  -0.00011767411   0.000301381028 -0.000117674109      0.289128442     0.938268501
12.661092            0.284781603     0.939571745   0.000301853885 -0.000118013821   0.000301853885  -0.00011801382      0.289512155      0.93813604
12.66112             0.285165689     0.939441156   0.000302327607 -0.000118354537   0.000302327607 -0.000118354537      0.289896114     0.938003306
12.661148            0.285550022     0.939310295   0.000302802196 -0.000118696263   0.000302802196 -0.000118696263      0.290280321     0.937870298
12.661176            0.285934603     0.939179162   0.000303277655 -0.000119039002   0.000303277655 -0.000119039002      0.290664775     0.937737016
12.661204            0.286319432     0.939047756   0.000303753984 -0.000119382757   0.000303753984 -0.000119382757      0.291049478     0.937603459
12.661232            0.286704509     0.938916078   0.000304231186 -0.000119727531   0.000304231186 -0.000119727531      0.291434428     0.937469626
12.66126             0.287089834     0.938784126   0.000304709263 -0.000120073328   0.000304709263 -0.000120073327      0.291819627     0.937335518
12.661288            0.287475407       0.9386519   0.000305188215  -0.00012042015   0.000305188215  -0.00012042015      0.292205074     0.937201133
12.661316             0.28786123       0.9385194   0.000305668046 -0.000120768002   0.000305668046 -0.000120768001       0.29259077     0.937066472
12.661344            0.288247301     0.938386624   0.000306148756 -0.000121116886   0.000306148756 -0.000121116886      0.292976715     0.936931532
12.661372            0.288633622     0.938253573   0.000306630347 -0.000121466806   0.000306630347 -0.000121466806      0.293362909     0.936796315
12.6614              0.289020192     0.938120245   0.000307112821 -0.000121817766   0.000307112821 -0.000121817766      0.293749353     0.936660819
12.661428            0.289407011     0.937986641   0.000307596179 -0.000122169769   0.000307596179 -0.000122169768      0.294136047     0.936525044
12.661456            0.289794081     0.937852759   0.000308080425 -0.000122522817   0.000308080425 -0.000122522817      0.294522991     0.936388989
12.661484            0.290181401       0.9377186   0.000308565558 -0.000122876915   0.000308565558 -0.000122876915      0.294910185     0.936252654
12.661512            0.290568971     0.937584162   0.000309051581 -0.000123232066   0.000309051581 -0.000123232066      0.295297629     0.936116038
12.66154             0.290956792     0.937449445   0.000309538496 -0.000123588274   0.000309538496 -0.000123588274      0.295685324      0.93597914
12.661568            0.291344864     0.937314449   0.000310026305 -0.000123945542   0.000310026305 -0.000123945541      0.296073271     0.935841961
12.661596            0.291733187     0.937179172   0.000310515009 -0.000124303872   0.000310515009 -0.000124303872      0.296461468     0.935704499
12.661624            0.292121761     0.937043615   0.000311004609  -0.00012466327   0.000311004609  -0.00012466327      0.296849917     0.935566753
12.661652            0.292510588     0.936907777   0.000311495109 -0.000125023738   0.000311495109 -0.000125023738      0.297238618     0.935428725
12.66168             0.292899666     0.936771657   0.000311986509  -0.00012538528   0.000311986508  -0.00012538528       0.29762757     0.935290412
12.661708            0.293288996     0.936635254   0.000312478811 -0.000125747899   0.000312478811 -0.000125747899      0.298016775     0.935151814
12.661736            0.293678578     0.936498569   0.000312972017 -0.000126111599   0.000312972017 -0.000126111599      0.298406233      0.93501293
12.661764            0.294068413       0.9363616   0.000313466129 -0.000126476384   0.000313466129 -0.000126476383      0.298795943     0.934873761
12.661792            0.294458501     0.936224347   0.000313961148 -0.000126842256   0.000313961148 -0.000126842256      0.299185906     0.934734306
12.66182             0.294848843      0.93608681   0.000314457077 -0.000127209221   0.000314457077  -0.00012720922      0.299576122     0.934594563
12.661848            0.295239437     0.935948987   0.000314953917  -0.00012757728   0.000314953917 -0.000127577279      0.299966591     0.934454532
12.661876            0.295630285     0.935810879    0.00031545167 -0.000127946438    0.00031545167 -0.000127946437      0.300357315     0.934314214
12.661904            0.296021387     0.935672485   0.000315950338 -0.000128316698   0.000315950338 -0.000128316698      0.300748292     0.934173606
12.661932            0.296412743     0.935533803   0.000316449922 -0.000128688064   0.000316449922 -0.000128688064      0.301139523     0.934032709
12.66196             0.296804354     0.935394834   0.000316950424  -0.00012906054   0.000316950424  -0.00012906054      0.301531009     0.933891523
12.661988            0.297196219     0.935255578   0.000317451847 -0.000129434129   0.000317451847 -0.000129434129       0.30192275     0.933750045
12.662016            0.297588338     0.935116032   0.000317954191 -0.000129808835   0.000317954191 -0.000129808835      0.302314745     0.933608277
12.662044            0.297980713     0.934976198    0.00031845746 -0.000130184662    0.00031845746 -0.000130184661      0.302706996     0.933466216
12.662072            0.298373343     0.934836073   0.000318961653 -0.000130561613   0.000318961653 -0.000130561612      0.303099502     0.933323864
12.6621              0.298766229     0.934695659   0.000319466774 -0.000130939692   0.000319466774 -0.000130939691      0.303492263     0.933181218
12.662128            0.299159371     0.934554953   0.000319972825 -0.000131318902   0.000319972825 -0.000131318902      0.303885281      0.93303828
12.662156            0.299552769     0.934413956   0.000320479806 -0.000131699248   0.000320479806 -0.000131699248      0.304278555     0.932895047
12.662184            0.299946423     0.934272667    0.00032098772 -0.000132080733    0.00032098772 -0.000132080733      0.304672085     0.932751519
12.662212            0.300340333     0.934131085   0.000321496568 -0.000132463361   0.000321496568 -0.000132463361      0.305065872     0.932607696
12.66224             0.300734501      0.93398921   0.000322006353 -0.000132847136   0.000322006353 -0.000132847135      0.305459915     0.932463577
12.662268            0.301128925     0.933847041   0.000322517077 -0.000133232061   0.000322517077  -0.00013323206      0.305854216     0.932319162
12.662296            0.301523607     0.933704578    0.00032302874  -0.00013361814    0.00032302874  -0.00013361814      0.306248774      0.93217445
12.662324            0.301918546      0.93356182   0.000323541345 -0.000134005378   0.000323541345 -0.000134005377       0.30664359      0.93202944
12.662352            0.302313743     0.933418766   0.000324054894 -0.000134393777   0.000324054894 -0.000134393776      0.307038664     0.931884132
12.66238             0.302709198     0.933275416   0.000324569389 -0.000134783342   0.000324569389 -0.000134783341      0.307433996     0.931738525
12.662408            0.303104912     0.933131769   0.000325084831 -0.000135174077   0.000325084831 -0.000135174076      0.307829586     0.931592618
12.662436            0.303500884     0.932987824   0.000325601223 -0.000135565985   0.000325601223 -0.000135565984      0.308225435     0.931446412
12.662464            0.303897115     0.932843582   0.000326118565  -0.00013595907   0.000326118565  -0.00013595907      0.308621543     0.931299905
12.662492            0.304293604     0.932699041   0.000326636861 -0.000136353337   0.000326636861 -0.000136353336       0.30901791     0.931153096
12.66252             0.304690354     0.932554201   0.000327156112 -0.000136748788   0.000327156111 -0.000136748788      0.309414537     0.931005986
12.662548            0.305087362     0.932409061   0.000327676319 -0.000137145429   0.000327676319 -0.000137145429      0.309811423     0.930858573
12.662576            0.305484631     0.932263621   0.000328197485 -0.000137543263   0.000328197485 -0.000137543263      0.310208569     0.930710857
12.662604             0.30588216     0.932117879   0.000328719611 -0.000137942294   0.000328719611 -0.000137942293      0.310605975     0.930562838
12.662632            0.306279948     0.931971836     0.0003292427 -0.000138342525     0.0003292427 -0.000138342525      0.311003642     0.930414514
12.66266             0.306677998     0.931825491   0.000329766752 -0.000138743962   0.000329766752 -0.000138743962      0.311401569     0.930265885
12.662688            0.307076308     0.931678843   0.000330291771 -0.000139146607   0.000330291771 -0.000139146607      0.311799757      0.93011695
12.662716             0.30747488     0.931531891   0.000330817758 -0.000139550466   0.000330817758 -0.000139550465      0.312198207     0.929967709
12.662744            0.307873712     0.931384635   0.000331344715 -0.000139955541   0.000331344715 -0.000139955541      0.312596917     0.929818162
12.662772            0.308272806     0.931237075   0.000331872643 -0.000140361837   0.000331872643 -0.000140361837       0.31299589     0.929668307
12.6628              0.308672163     0.931089209   0.000332401546 -0.000140769358   0.000332401545 -0.000140769358      0.313395124     0.929518144
12.662828            0.309071781     0.930941037   0.000332931423 -0.000141178109   0.000332931423 -0.000141178108      0.313794621     0.929367672
12.662856            0.309471661     0.930792559   0.000333462278 -0.000141588092   0.000333462278 -0.000141588092       0.31419438     0.929216891
12.662884            0.309871804     0.930643773   0.000333994112 -0.000141999313   0.000333994112 -0.000141999313      0.314594402       0.9290658
12.662912             0.31027221      0.93049468   0.000334526928 -0.000142411775   0.000334526928 -0.000142411775      0.314994686     0.928914399
12.66294             0.310672879     0.930345278   0.000335060727 -0.000142825483   0.000335060726 -0.000142825483      0.315395234     0.928762686
12.662968            0.311073811     0.930195567    0.00033559551 -0.000143240441    0.00033559551  -0.00014324044      0.315796045     0.928610661
12.662996            0.311475007     0.930045547   0.000336131281 -0.000143656652   0.000336131281 -0.000143656651       0.31619712     0.928458324
12.663024            0.311876467     0.929895216    0.00033666804 -0.000144074121    0.00033666804 -0.000144074121      0.316598459     0.928305674
12.663052            0.312278191     0.929744574    0.00033720579 -0.000144492852    0.00033720579 -0.000144492852      0.317000062      0.92815271
12.66308             0.312680179      0.92959362   0.000337744533  -0.00014491285   0.000337744533  -0.00014491285       0.31740193     0.927999431
12.663108            0.313082432     0.929442355    0.00033828427 -0.000145334119    0.00033828427 -0.000145334118      0.317804063     0.927845837
12.663136            0.313484949     0.929290776   0.000338825004 -0.000145756662   0.000338825004 -0.000145756662       0.31820646     0.927691928
12.663164            0.313887732     0.929138884   0.000339366736 -0.000146180485   0.000339366736 -0.000146180484      0.318609123     0.927537703
12.663192             0.31429078     0.928986678   0.000339909469  -0.00014660559   0.000339909469  -0.00014660559      0.319012051      0.92738316
12.66322             0.314694094     0.928834157   0.000340453204 -0.000147031984   0.000340453204 -0.000147031983      0.319415245       0.9272283
12.663248            0.315097674      0.92868132   0.000340997943 -0.000147459669   0.000340997943 -0.000147459669      0.319818704     0.927073121
12.663276             0.31550152     0.928528167   0.000341543689 -0.000147888651   0.000341543689 -0.000147888651      0.320222431     0.926917624
12.663304            0.315905632     0.928374698   0.000342090442 -0.000148318934   0.000342090442 -0.000148318933      0.320626423     0.926761806
12.663332            0.316310011     0.928220911   0.000342638206 -0.000148750521   0.000342638206 -0.000148750521      0.321030683     0.926605669
12.66336             0.316714657     0.928066806   0.000343186981 -0.000149183418   0.000343186981 -0.000149183417      0.321435209     0.926449211
12.663388             0.31711957     0.927912383   0.000343736771 -0.000149617628   0.000343736771 -0.000149617628      0.321840003     0.926292431
12.663416             0.31752475      0.92775764   0.000344287577 -0.000150053157   0.000344287576 -0.000150053156      0.322245064     0.926135329
12.663444            0.317930199     0.927602577     0.0003448394 -0.000150490008     0.0003448394 -0.000150490008      0.322650394     0.925977903
12.663472            0.318335915     0.927447194   0.000345392243 -0.000150928186   0.000345392243 -0.000150928186      0.323055991     0.925820155
12.6635              0.318741899     0.927291489   0.000345946108 -0.000151367696   0.000345946108 -0.000151367695      0.323461857     0.925662082
