! TOUCHSTONE file generated by CST MICROWAVE STUDIO
! Date and time: Wed Jul 31 18:24:33 2024
! Project name: WaveGuide_BPF-Ver4.1_U-shape_Ku_T3_C4_CWA_2.cst
! Parameters = {cavity_h=16; cavity_l0=10; cavity_l1=15.1921; cavity_l2=16.8604; cavity_l3=17.0885; cavity_l4=17.2545; cavity_l5=17.1184; cavity_l6=17.6041; cavity_r=2.5; cavity_screw_l=0.5; cavity_screw_r=1.5; cavity_w=8; iris_h00=0; iris_h01=8.8407; iris_h112=0; iris_h12=5.5881; iris_h211=3.6582; iris_h23=5.2062; iris_h310=3.9641; iris_h34=5.0781; iris_h45=4.94; iris_h49=4.6187; iris_h56=4.7911; iris_h58=4.4511; iris_h67=6.5786; iris_rx=0.1; iris_screw_l=0.5; iris_screw_r=1.5; iris_shift00=0; iris_shift112=0; iris_shift211=3.5; iris_shift310=0; iris_shift49=0; iris_shift58=3.5; iris_shift67=3.5; iris_tx=4.5; iris_tz=4.5; iris_w00=0; iris_w112=0; iris_w211=4; iris_w310=3.9641; iris_w49=4.6187; iris_w58=4; iris_w67=4; mesh_cavity=5; mesh_iris=7; mesh_screw=7; order=12; reset_all=0; sigma=4.8e+07}
! Header version: 2018
! Port assignment regex: !\s*Touchstone port\s*([0-9]+)\s*=\s*(CST MWS port|CST DS port)\s*([0-9]+|Zmin|Zmax)\s*\(\"(.*)\"\)(\s*mode\s*([0-9]+))?.*
! Touchstone port assignment:
! Touchstone port 1 = CST MWS port 1 ("")
! Touchstone port 2 = CST MWS port 2 ("")
# GHz S RI R 50
12.66                0.368735507     0.907745736   0.000269332928 -0.000131614877   0.000269332927 -0.000131614877      0.361143179     0.910929297
12.660028            0.369150755     0.907560755   0.000269717502 -0.000131966699   0.000269717501 -0.000131966699      0.361557041     0.910749161
12.660056            0.369566262     0.907375418   0.000270102662 -0.000132319502   0.000270102661 -0.000132319502      0.361971215     0.910568656
12.660084            0.369982019      0.90718973   0.000270488413 -0.000132673286   0.000270488412 -0.000132673286      0.362385669     0.910387794
12.660112            0.370398017     0.907003692   0.000270874762 -0.000133028047   0.000270874761 -0.000133028047      0.362800371     0.910206587
12.66014             0.370814245     0.906817309   0.000271261715 -0.000133383785   0.000271261714 -0.000133383785       0.36321529     0.910025046
12.660168            0.371230705     0.906630579   0.000271649272 -0.000133740502   0.000271649272 -0.000133740501      0.363630426     0.909843171
12.660196            0.371647402       0.9064435   0.000272037432 -0.000134098203   0.000272037431 -0.000134098203      0.364045799     0.909660953
12.660224            0.372064336      0.90625607   0.000272426195 -0.000134456893   0.000272426194 -0.000134456893       0.36446141     0.909478392
12.660252            0.372481509     0.906068289   0.000272815562 -0.000134816574   0.000272815561 -0.000134816574       0.36487726     0.909295486
12.66028              0.37289892     0.905880157   0.000273205533  -0.00013517725   0.000273205532 -0.000135177249      0.365293348     0.909112235
12.660308            0.373316568     0.905691673   0.000273596109 -0.000135538922   0.000273596108 -0.000135538922      0.365709674     0.908928639
12.660336            0.373734455     0.905502835   0.000273987292 -0.000135901594   0.000273987291 -0.000135901594      0.366126239     0.908744696
12.660364            0.374152581     0.905313645   0.000274379082  -0.00013626527   0.000274379081  -0.00013626527      0.366543043     0.908560407
12.660392            0.374570944       0.9051241    0.00027477148 -0.000136629951   0.000274771479 -0.000136629951      0.366960086      0.90837577
12.66042             0.374989547       0.9049342   0.000275164486 -0.000136995642   0.000275164486 -0.000136995642      0.367377368     0.908190785
12.660448            0.375408388     0.904743945   0.000275558103 -0.000137362345   0.000275558102 -0.000137362345      0.367794889     0.908005451
12.660476            0.375827468     0.904553333   0.000275952329 -0.000137730063   0.000275952328 -0.000137730063      0.368212649     0.907819768
12.660504            0.376246787     0.904362365   0.000276347167 -0.000138098799   0.000276347166 -0.000138098799      0.368630649     0.907633735
12.660532            0.376666346      0.90417104   0.000276742617 -0.000138468557   0.000276742616 -0.000138468556      0.369048888     0.907447352
12.66056             0.377086143     0.903979356    0.00027713868 -0.000138839339   0.000277138679 -0.000138839338      0.369467367     0.907260617
12.660588             0.37750618     0.903787314   0.000277535356 -0.000139211148   0.000277535355 -0.000139211148      0.369886086      0.90707353
12.660616            0.377926457     0.903594912   0.000277932647 -0.000139583988   0.000277932647 -0.000139583988      0.370305046      0.90688609
12.660644            0.378346973      0.90340215   0.000278330554 -0.000139957862   0.000278330553 -0.000139957861      0.370724245     0.906698298
12.660672            0.378767729     0.903209028   0.000278729077 -0.000140332772   0.000278729076 -0.000140332772      0.371143684     0.906510151
12.6607              0.379188725     0.903015544   0.000279128216 -0.000140708722   0.000279128216 -0.000140708722      0.371563364      0.90632165
12.660728            0.379609961     0.902821698   0.000279527974 -0.000141085716   0.000279527973 -0.000141085715      0.371983284     0.906132793
12.660756            0.380031437     0.902627489   0.000279928351 -0.000141463755    0.00027992835 -0.000141463755      0.372403445     0.905943581
12.660784            0.380453154     0.902432917   0.000280329347 -0.000141842844   0.000280329346 -0.000141842843      0.372823847     0.905754012
12.660812            0.380875111     0.902237981   0.000280730963 -0.000142222985   0.000280730962 -0.000142222985       0.37324449     0.905564086
12.66084             0.381297308      0.90204268   0.000281133201 -0.000142604182     0.0002811332 -0.000142604181      0.373665374     0.905373802
12.660868            0.381719747     0.901847013    0.00028153606 -0.000142986437    0.00028153606 -0.000142986437      0.374086499      0.90518316
12.660896            0.382142426     0.901650981   0.000281939543 -0.000143369755   0.000281939542 -0.000143369755      0.374507866     0.904992159
12.660924            0.382565346     0.901454581   0.000282343649 -0.000143754138   0.000282343648 -0.000143754138      0.374929474     0.904800797
12.660952            0.382988507     0.901257815    0.00028274838 -0.000144139589   0.000282748379 -0.000144139589      0.375351323     0.904609076
12.66098              0.38341191      0.90106068   0.000283153736 -0.000144526113   0.000283153735 -0.000144526112      0.375773414     0.904416993
12.661008            0.383835554     0.900863176   0.000283559718 -0.000144913711   0.000283559718  -0.00014491371      0.376195747     0.904224548
12.661036            0.384259439     0.900665303   0.000283966328 -0.000145302387   0.000283966327 -0.000145302386      0.376618323     0.904031741
12.661064            0.384683566      0.90046706   0.000284373565 -0.000145692144   0.000284373564 -0.000145692144       0.37704114      0.90383857
12.661092            0.385107934     0.900268446   0.000284781431 -0.000146082986    0.00028478143 -0.000146082986      0.377464199     0.903645036
12.66112             0.385532545      0.90006946   0.000285189926 -0.000146474917   0.000285189925 -0.000146474916      0.377887501     0.903451138
12.661148            0.385957397     0.899870102   0.000285599052 -0.000146867938   0.000285599051 -0.000146867938      0.378311046     0.903256874
12.661176            0.386382492     0.899670371   0.000286008809 -0.000147262054   0.000286008808 -0.000147262054      0.378734833     0.903062244
12.661204            0.386807829     0.899470267   0.000286419198 -0.000147657268   0.000286419197 -0.000147657268      0.379158863     0.902867248
12.661232            0.387233408     0.899269788   0.000286830219 -0.000148053583   0.000286830218 -0.000148053583      0.379583136     0.902671884
12.66126              0.38765923     0.899068934   0.000287241875 -0.000148451003   0.000287241874 -0.000148451002      0.380007651     0.902476153
12.661288            0.388085294     0.898867704   0.000287654164  -0.00014884953   0.000287654164  -0.00014884953       0.38043241     0.902280053
12.661316            0.388511601     0.898666098   0.000288067089 -0.000149249169   0.000288067089 -0.000149249169      0.380857413     0.902083584
12.661344            0.388938151     0.898464115   0.000288480651 -0.000149649922    0.00028848065 -0.000149649922      0.381282658     0.901886745
12.661372            0.389364944     0.898261754   0.000288894849 -0.000150051794   0.000288894848 -0.000150051793      0.381708148     0.901689535
12.6614               0.38979198     0.898059015   0.000289309684 -0.000150454786   0.000289309684 -0.000150454786      0.382133881     0.901491954
12.661428            0.390219259     0.897855896   0.000289725159 -0.000150858904   0.000289725158 -0.000150858903      0.382559858        0.901294
12.661456            0.390646781     0.897652398   0.000290141273 -0.000151264149   0.000290141272 -0.000151264149      0.382986079     0.901095675
12.661484            0.391074547     0.897448519   0.000290558027 -0.000151670526   0.000290558026 -0.000151670526      0.383412543     0.900896975
12.661512            0.391502557     0.897244258   0.000290975422 -0.000152078038   0.000290975421 -0.000152078038      0.383839252     0.900697902
12.66154              0.39193081     0.897039615   0.000291393459 -0.000152486689   0.000291393458 -0.000152486689      0.384266206     0.900498454
12.661568            0.392359308      0.89683459   0.000291812139 -0.000152896482   0.000291812138 -0.000152896481      0.384693404      0.90029863
12.661596            0.392788049     0.896629181   0.000292231462  -0.00015330742   0.000292231461 -0.000153307419      0.385120846      0.90009843
12.661624            0.393217034     0.896423388   0.000292651429 -0.000153719507   0.000292651429 -0.000153719506      0.385548533     0.899897854
12.661652            0.393646264      0.89621721   0.000293072042 -0.000154132746   0.000293072041 -0.000154132745      0.385976466     0.899696899
12.66168             0.394075737     0.896010647   0.000293493301 -0.000154547141     0.0002934933  -0.00015454714      0.386404643     0.899495567
12.661708            0.394505456     0.895803697   0.000293915206 -0.000154962695   0.000293915206 -0.000154962695      0.386833065     0.899293855
12.661736            0.394935418      0.89559636   0.000294337759 -0.000155379413   0.000294337759 -0.000155379412      0.387261732     0.899091764
12.661764            0.395365626     0.895388635   0.000294760961 -0.000155797296    0.00029476096 -0.000155797296      0.387690645     0.898889292
12.661792            0.395796078     0.895180522   0.000295184812  -0.00015621635   0.000295184811  -0.00015621635      0.388119803     0.898686439
12.66182             0.396226776     0.894972019   0.000295609312 -0.000156636578   0.000295609312 -0.000156636577      0.388549207     0.898483205
12.661848            0.396657718     0.894763127   0.000296034464 -0.000157057982   0.000296034463 -0.000157057982      0.388978856     0.898279587
12.661876            0.397088906     0.894553844   0.000296460267 -0.000157480567   0.000296460267 -0.000157480567      0.389408751     0.898075587
12.661904            0.397520338     0.894344169   0.000296886723 -0.000157904337   0.000296886723 -0.000157904337      0.389838893     0.897871202
12.661932            0.397952017     0.894134102   0.000297313832 -0.000158329294   0.000297313832 -0.000158329294       0.39026928     0.897666433
12.66196              0.39838394     0.893923642   0.000297741596 -0.000158755443   0.000297741595 -0.000158755443      0.390699914     0.897461278
12.661988             0.39881611     0.893712789   0.000298170014 -0.000159182787   0.000298170013 -0.000159182787      0.391130794     0.897255738
12.662016            0.399248525     0.893501541   0.000298599088  -0.00015961133   0.000298599087  -0.00015961133       0.39156192      0.89704981
12.662044            0.399681186     0.893289899   0.000299028819 -0.000160041076   0.000299028818 -0.000160041075      0.391993293     0.896843495
12.662072            0.400114093      0.89307786   0.000299459207 -0.000160472027   0.000299459206 -0.000160472027      0.392424913     0.896636791
12.6621              0.400547246     0.892865425   0.000299890253 -0.000160904189   0.000299890252 -0.000160904188       0.39285678     0.896429698
12.662128            0.400980646     0.892652592   0.000300321958 -0.000161337564   0.000300321957 -0.000161337563      0.393288893     0.896222216
12.662156            0.401414291     0.892439361   0.000300754323 -0.000161772156   0.000300754322 -0.000161772155      0.393721254     0.896014343
12.662184            0.401848184     0.892225732   0.000301187348 -0.000162207969   0.000301187347 -0.000162207968      0.394153862     0.895806079
12.662212            0.402282323     0.892011702   0.000301621035 -0.000162645006   0.000301621034 -0.000162645006      0.394586717     0.895597423
12.66224             0.402716708     0.891797273   0.000302055384 -0.000163083272   0.000302055383 -0.000163083272      0.395019819     0.895388374
12.662268             0.40315134     0.891582442   0.000302490396 -0.000163522771   0.000302490395  -0.00016352277      0.395453169     0.895178931
12.662296             0.40358622      0.89136721   0.000302926072 -0.000163963505   0.000302926071 -0.000163963505      0.395886767     0.894969095
12.662324            0.404021346     0.891151575   0.000303362413 -0.000164405479   0.000303362412 -0.000164405478      0.396320613     0.894758863
12.662352            0.404456719     0.890935536   0.000303799419 -0.000164848696   0.000303799418 -0.000164848696      0.396754707     0.894548236
12.66238              0.40489234     0.890719094   0.000304237091 -0.000165293161    0.00030423709  -0.00016529316      0.397189048     0.894337213
12.662408            0.405328208     0.890502246    0.00030467543 -0.000165738876   0.000304675429 -0.000165738876      0.397623638     0.894125792
12.662436            0.405764324     0.890284993   0.000305114437 -0.000166185847   0.000305114436 -0.000166185847      0.398058476     0.893913973
12.662464            0.406200687     0.890067334   0.000305554113 -0.000166634077   0.000305554112 -0.000166634076      0.398493563     0.893701756
12.662492            0.406637298     0.889849267   0.000305994458 -0.000167083569   0.000305994457 -0.000167083568      0.398928898     0.893489139
12.66252             0.407074157     0.889630792   0.000306435473 -0.000167534327   0.000306435472 -0.000167534327      0.399364481     0.893276122
12.662548            0.407511264     0.889411909   0.000306877159 -0.000167986356   0.000306877159 -0.000167986356      0.399800314     0.893062705
12.662576            0.407948619     0.889192616   0.000307319518  -0.00016843966   0.000307319517 -0.000168439659      0.400236395     0.892848885
12.662604            0.408386222     0.888972913   0.000307762548 -0.000168894241   0.000307762547 -0.000168894241      0.400672725     0.892634663
12.662632            0.408824073     0.888752799   0.000308206252 -0.000169350105   0.000308206251 -0.000169350104      0.401109305     0.892420038
12.66266             0.409262173     0.888532273    0.00030865063 -0.000169807254    0.00030865063 -0.000169807254      0.401546134     0.892205009
12.662688            0.409700521     0.888311334   0.000309095684 -0.000170265694   0.000309095683 -0.000170265694      0.401983212     0.891989575
12.662716            0.410139117     0.888089982   0.000309541413 -0.000170725428   0.000309541412 -0.000170725427      0.402420539     0.891773736
12.662744            0.410577963     0.887868216   0.000309987818 -0.000171186459   0.000309987817 -0.000171186459      0.402858116      0.89155749
12.662772            0.411017057     0.887646035   0.000310434901 -0.000171648792     0.0003104349 -0.000171648792      0.403295943     0.891340838
12.6628              0.411456401     0.887423438   0.000310882662 -0.000172112432   0.000310882661 -0.000172112431      0.403734019     0.891123778
12.662828            0.411895993     0.887200425   0.000311331101 -0.000172577381   0.000311331101 -0.000172577381      0.404172346     0.890906309
12.662856            0.412335834     0.886976994   0.000311780221 -0.000173043644    0.00031178022 -0.000173043644      0.404610922      0.89068843
12.662884            0.412775925     0.886753146   0.000312230021 -0.000173511225    0.00031223002 -0.000173511225      0.405049749     0.890470142
12.662912            0.413216265     0.886528878   0.000312680502 -0.000173980128   0.000312680501 -0.000173980128      0.405488826     0.890251443
12.66294             0.413656855     0.886304191   0.000313131665 -0.000174450357   0.000313131664 -0.000174450357      0.405928153     0.890032332
12.662968            0.414097694     0.886079083   0.000313583511 -0.000174921917    0.00031358351 -0.000174921916      0.406367731     0.889812809
12.662996            0.414538783     0.885853554    0.00031403604  -0.00017539481   0.000314036039  -0.00017539481      0.406807559     0.889592872
12.663024            0.414980122     0.885627603   0.000314489254 -0.000175869042   0.000314489253 -0.000175869042      0.407247638     0.889372521
12.663052             0.41542171     0.885401229   0.000314943153 -0.000176344617   0.000314943152 -0.000176344617      0.407687968     0.889151756
12.66308             0.415863549     0.885174431   0.000315397738 -0.000176821538   0.000315397737 -0.000176821538      0.408128549     0.888930575
12.663108            0.416305638     0.884947209   0.000315853009  -0.00017729981   0.000315853008  -0.00017729981      0.408569381     0.888708978
12.663136            0.416747977     0.884719562   0.000316308968 -0.000177779437   0.000316308967 -0.000177779437      0.409010464     0.888486963
12.663164            0.417190566     0.884491488   0.000316765615 -0.000178260423   0.000316765614 -0.000178260423      0.409451799     0.888264531
12.663192            0.417633405     0.884262988   0.000317222951 -0.000178742772    0.00031722295 -0.000178742772      0.409893384      0.88804168
12.66322             0.418076496      0.88403406   0.000317680976 -0.000179226489   0.000317680976 -0.000179226489      0.410335221     0.887818409
12.663248            0.418519836     0.883804703   0.000318139692 -0.000179711577   0.000318139692 -0.000179711577       0.41077731     0.887594718
12.663276            0.418963428     0.883574917     0.0003185991 -0.000180198042   0.000318599099 -0.000180198041      0.411219651     0.887370606
12.663304             0.41940727     0.883344701   0.000319059199 -0.000180685886   0.000319059198 -0.000180685886      0.411662243     0.887146071
12.663332            0.419851364     0.883114053   0.000319519991 -0.000181175116    0.00031951999 -0.000181175115      0.412105087     0.886921114
12.66336             0.420295708     0.882882974   0.000319981477 -0.000181665733   0.000319981476 -0.000181665733      0.412548184     0.886695734
12.663388            0.420740304     0.882651463   0.000320443657 -0.000182157744   0.000320443656 -0.000182157744      0.412991532     0.886469929
12.663416             0.42118515     0.882419517   0.000320906531 -0.000182651152   0.000320906531 -0.000182651152      0.413435133     0.886243699
12.663444            0.421630249     0.882187138   0.000321370102 -0.000183145962   0.000321370101 -0.000183145962      0.413878986     0.886017043
12.663472            0.422075598     0.881954323   0.000321834369 -0.000183642178   0.000321834368 -0.000183642178      0.414323092      0.88578996
12.6635              0.422521199     0.881721073   0.000322299334 -0.000184139804   0.000322299333 -0.000184139804       0.41476745      0.88556245
