! TOUCHSTONE file generated by CST MICROWAVE STUDIO
! Date and time: Wed Jul 31 18:27:42 2024
! Project name: WaveGuide_BPF-Ver4.1_U-shape_Ku_T3_C4_CWA_2.cst
! Parameters = {cavity_h=16; cavity_l0=10; cavity_l1=15.1642; cavity_l2=16.8524; cavity_l3=17.1145; cavity_l4=17.2289; cavity_l5=17.1573; cavity_l6=17.5844; cavity_r=2.5; cavity_screw_l=0.5; cavity_screw_r=1.5; cavity_w=8; iris_h00=0; iris_h01=8.8229; iris_h112=0; iris_h12=5.5948; iris_h211=3.6538; iris_h23=5.1884; iris_h310=3.9772; iris_h34=5.0823; iris_h45=4.92; iris_h49=4.6112; iris_h56=4.8034; iris_h58=4.4447; iris_h67=6.5933; iris_rx=0.1; iris_screw_l=0.5; iris_screw_r=1.5; iris_shift00=0; iris_shift112=0; iris_shift211=3.5; iris_shift310=0; iris_shift49=0; iris_shift58=3.5; iris_shift67=3.5; iris_tx=4.5; iris_tz=4.5; iris_w00=0; iris_w112=0; iris_w211=4; iris_w310=3.9772; iris_w49=4.6112; iris_w58=4; iris_w67=4; mesh_cavity=5; mesh_iris=7; mesh_screw=7; order=12; reset_all=0; sigma=4.8e+07}
! Header version: 2018
! Port assignment regex: !\s*Touchstone port\s*([0-9]+)\s*=\s*(CST MWS port|CST DS port)\s*([0-9]+|Zmin|Zmax)\s*\(\"(.*)\"\)(\s*mode\s*([0-9]+))?.*
! Touchstone port assignment:
! Touchstone port 1 = CST MWS port 1 ("")
! Touchstone port 2 = CST MWS port 2 ("")
# GHz S RI R 50
12.66                0.218202153     0.959861129    0.00019148337 -5.78452728e-05    0.00019148337 -5.78452726e-05      0.223413254     0.958722105
12.660028            0.218535301     0.959775385   0.000191754671 -5.80054388e-05   0.000191754671 -5.80054386e-05      0.223745838     0.958634625
12.660056            0.218868648      0.95968946   0.000192026429 -5.81660254e-05   0.000192026429 -5.81660252e-05      0.224078505     0.958546989
12.660084            0.219202192     0.959603354   0.000192298643  -5.8327038e-05   0.000192298643 -5.83270378e-05      0.224411301     0.958459187
12.660112             0.21953593     0.959517067   0.000192571311 -5.84884818e-05   0.000192571311 -5.84884816e-05      0.224744275     0.958371206
12.66014              0.21986986       0.9594306   0.000192844432 -5.86503621e-05   0.000192844433 -5.86503619e-05      0.225077472     0.958283037
12.660168            0.220203983     0.959343952   0.000193118008 -5.88126801e-05   0.000193118008 -5.88126799e-05      0.225410893     0.958194679
12.660196              0.2205383     0.959257122   0.000193392039 -5.89754345e-05   0.000193392039 -5.89754343e-05      0.225744506     0.958106138
12.660224            0.220872811      0.95917011   0.000193666528 -5.91386264e-05   0.000193666528 -5.91386262e-05      0.226078313     0.958017415
12.660252            0.221207516     0.959082916   0.000193941474 -5.93022572e-05   0.000193941474 -5.93022571e-05      0.226412313     0.957928509
12.66028             0.221542416     0.958995539    0.00019421688 -5.94663282e-05    0.00019421688  -5.9466328e-05      0.226746506     0.957839419
12.660308            0.221877511      0.95890798   0.000194492745 -5.96308405e-05   0.000194492745 -5.96308404e-05      0.227080893     0.957750146
12.660336            0.222212801     0.958820237    0.00019476907 -5.97957956e-05    0.00019476907 -5.97957954e-05      0.227415473      0.95766069
12.660364            0.222548286     0.958732311   0.000195045856 -5.99611946e-05   0.000195045857 -5.99611945e-05      0.227750247     0.957571049
12.660392            0.222883967     0.958644202   0.000195323105 -6.01270389e-05   0.000195323105 -6.01270388e-05      0.228085215     0.957481223
12.66042             0.223219842     0.958555908   0.000195600817 -6.02933298e-05   0.000195600817 -6.02933296e-05      0.228420378     0.957391213
12.660448            0.223555914      0.95846743   0.000195878993 -6.04600685e-05   0.000195878993 -6.04600683e-05      0.228755735     0.957301017
12.660476            0.223892182     0.958378766   0.000196157633 -6.06272564e-05   0.000196157633 -6.06272562e-05      0.229091286     0.957210636
12.660504            0.224228645     0.958289918   0.000196436739 -6.07948947e-05   0.000196436739 -6.07948945e-05      0.229427032      0.95712007
12.660532            0.224565305     0.958200885   0.000196716311 -6.09629848e-05   0.000196716311 -6.09629846e-05      0.229762973     0.957029317
12.66056             0.224902161     0.958111665   0.000196996351  -6.1131528e-05   0.000196996351 -6.11315278e-05      0.230099109     0.956938377
12.660588            0.225239214      0.95802226   0.000197276858 -6.13005256e-05   0.000197276859 -6.13005254e-05       0.23043544     0.956847251
12.660616            0.225576463     0.957932668   0.000197557835 -6.14699789e-05   0.000197557835 -6.14699787e-05      0.230771967     0.956755938
12.660644             0.22591391      0.95784289   0.000197839282 -6.16398893e-05   0.000197839282 -6.16398891e-05      0.231108689     0.956664438
12.660672            0.226251553     0.957752925   0.000198121199  -6.1810258e-05   0.000198121199 -6.18102578e-05      0.231445607     0.956572749
12.6607              0.226589394     0.957662772   0.000198403588 -6.19810865e-05   0.000198403588 -6.19810863e-05      0.231782721     0.956480873
12.660728            0.226927432     0.957572431   0.000198686449  -6.2152376e-05   0.000198686449 -6.21523759e-05      0.232120031     0.956388808
12.660756            0.227265668     0.957481903   0.000198969784  -6.2324128e-05   0.000198969784 -6.23241278e-05      0.232457538     0.956296555
12.660784            0.227604102     0.957391186   0.000199253593 -6.24963437e-05   0.000199253593 -6.24963435e-05      0.232795241     0.956204112
12.660812            0.227942734     0.957300281   0.000199537877 -6.26690245e-05   0.000199537877 -6.26690243e-05       0.23313314      0.95611148
12.66084             0.228281564     0.957209186   0.000199822637 -6.28421717e-05   0.000199822637 -6.28421715e-05      0.233471236     0.956018658
12.660868            0.228620592     0.957117902   0.000200107874 -6.30157868e-05   0.000200107874 -6.30157866e-05       0.23380953     0.955925647
12.660896            0.228959819     0.957026429   0.000200393588  -6.3189871e-05   0.000200393588 -6.31898709e-05       0.23414802     0.955832444
12.660924            0.229299244     0.956934766   0.000200679781 -6.33644259e-05   0.000200679781 -6.33644257e-05      0.234486708     0.955739052
12.660952            0.229638869     0.956842912   0.000200966454 -6.35394526e-05   0.000200966454 -6.35394524e-05      0.234825593     0.955645468
12.66098             0.229978692     0.956750867   0.000201253606 -6.37149527e-05   0.000201253607 -6.37149525e-05      0.235164676     0.955551692
12.661008            0.230318715     0.956658632    0.00020154124 -6.38909274e-05   0.000201541241 -6.38909272e-05      0.235503957     0.955457726
12.661036            0.230658937     0.956566205   0.000201829357 -6.40673782e-05   0.000201829357  -6.4067378e-05      0.235843436     0.955363566
12.661064            0.230999358     0.956473587   0.000202117956 -6.42443065e-05   0.000202117956 -6.42443063e-05      0.236183113     0.955269215
12.661092             0.23133998     0.956380776   0.000202407039 -6.44217136e-05   0.000202407039 -6.44217135e-05      0.236522989     0.955174671
12.66112             0.231680801     0.956287773   0.000202696607 -6.45996011e-05   0.000202696607 -6.45996009e-05      0.236863063     0.955079934
12.661148            0.232021823     0.956194578   0.000202986661 -6.47779702e-05   0.000202986661   -6.477797e-05      0.237203336     0.954985003
12.661176            0.232363045     0.956101189   0.000203277201 -6.49568223e-05   0.000203277201 -6.49568222e-05      0.237543808     0.954889879
12.661204            0.232704467     0.956007607   0.000203568228  -6.5136159e-05   0.000203568228 -6.51361588e-05      0.237884479      0.95479456
12.661232            0.233046091     0.955913832   0.000203859744 -6.53159816e-05   0.000203859744 -6.53159814e-05      0.238225349     0.954699047
12.66126             0.233387914     0.955819862    0.00020415175 -6.54962915e-05    0.00020415175 -6.54962913e-05      0.238566419      0.95460334
12.661288             0.23372994     0.955725698   0.000204444245 -6.56770902e-05   0.000204444245   -6.567709e-05      0.238907689     0.954507437
12.661316            0.234072166     0.955631339   0.000204737231  -6.5858379e-05   0.000204737232 -6.58583789e-05      0.239249158     0.954411339
12.661344            0.234414593     0.955536786    0.00020503071 -6.60401596e-05    0.00020503071 -6.60401594e-05      0.239590827     0.954315045
12.661372            0.234757223     0.955442036   0.000205324681 -6.62224332e-05   0.000205324681  -6.6222433e-05      0.239932697     0.954218555
12.6614              0.235100054     0.955347091   0.000205619146 -6.64052013e-05   0.000205619146 -6.64052011e-05      0.240274767     0.954121868
12.661428            0.235443087      0.95525195   0.000205914106 -6.65884654e-05   0.000205914106 -6.65884652e-05      0.240617037     0.954024985
12.661456            0.235786322     0.955156613   0.000206209561 -6.67722269e-05   0.000206209562 -6.67722267e-05      0.240959508     0.953927904
12.661484            0.236129759     0.955061078   0.000206505513 -6.69564873e-05   0.000206505513 -6.69564871e-05       0.24130218     0.953830626
12.661512            0.236473399     0.954965347   0.000206801963 -6.71412481e-05   0.000206801963 -6.71412479e-05      0.241645053      0.95373315
12.66154             0.236817242     0.954869417    0.00020709891 -6.73265106e-05    0.00020709891 -6.73265105e-05      0.241988128     0.953635476
12.661568            0.237161288     0.954773291   0.000207396357 -6.75122765e-05   0.000207396357 -6.75122764e-05      0.242331403     0.953537603
12.661596            0.237505536     0.954676965   0.000207694304 -6.76985472e-05   0.000207694304  -6.7698547e-05      0.242674881     0.953439531
12.661624            0.237849988     0.954580442   0.000207992753 -6.78853241e-05   0.000207992753  -6.7885324e-05       0.24301856      0.95334126
12.661652            0.238194643     0.954483719   0.000208291703 -6.80726088e-05   0.000208291703 -6.80726086e-05      0.243362441      0.95324279
12.66168             0.238539502     0.954386797   0.000208591156 -6.82604028e-05   0.000208591156 -6.82604026e-05      0.243706525     0.953144119
12.661708            0.238884565     0.954289676   0.000208891113 -6.84487074e-05   0.000208891113 -6.84487073e-05      0.244050811     0.953045248
12.661736            0.239229831     0.954192354   0.000209191575 -6.86375244e-05   0.000209191575 -6.86375242e-05      0.244395299     0.952946177
12.661764            0.239575302     0.954094832   0.000209492542  -6.8826855e-05   0.000209492542 -6.88268549e-05       0.24473999     0.952846904
12.661792            0.239920977      0.95399711   0.000209794016  -6.9016701e-05   0.000209794017 -6.90167008e-05      0.245084884      0.95274743
12.66182             0.240266857     0.953899186   0.000210095998 -6.92070637e-05   0.000210095998 -6.92070636e-05      0.245429981     0.952647754
12.661848            0.240612941     0.953801061   0.000210398489 -6.93979448e-05   0.000210398489 -6.93979446e-05      0.245775281     0.952547876
12.661876             0.24095923     0.953702735   0.000210701488 -6.95893457e-05   0.000210701488 -6.95893455e-05      0.246120785     0.952447796
12.661904            0.241305724     0.953604206   0.000211004998 -6.97812679e-05   0.000211004998 -6.97812677e-05      0.246466492     0.952347513
12.661932            0.241652424     0.953505475    0.00021130902 -6.99737131e-05    0.00021130902 -6.99737129e-05      0.246812403     0.952247026
12.66196             0.241999329     0.953406541   0.000211613553 -7.01666827e-05   0.000211613554 -7.01666825e-05      0.247158519     0.952146336
12.661988             0.24234644     0.953307403     0.0002119186 -7.03601783e-05     0.0002119186 -7.03601782e-05      0.247504838     0.952045442
12.662016            0.242693756     0.953208062   0.000212224161 -7.05542015e-05   0.000212224162 -7.05542013e-05      0.247851362     0.951944344
12.662044            0.243041279     0.953108518   0.000212530238 -7.07487538e-05   0.000212530238 -7.07487536e-05       0.24819809     0.951843042
12.662072            0.243389007     0.953008768    0.00021283683 -7.09438367e-05    0.00021283683 -7.09438366e-05      0.248545023     0.951741534
12.6621              0.243736942     0.952908815   0.000213143939 -7.11394519e-05   0.000213143939 -7.11394518e-05      0.248892161     0.951639821
12.662128            0.244085084     0.952808656   0.000213451566  -7.1335601e-05   0.000213451566 -7.13356008e-05      0.249239504     0.951537902
12.662156            0.244433432     0.952708292   0.000213759712 -7.15322854e-05   0.000213759712 -7.15322852e-05      0.249587052     0.951435777
12.662184            0.244781987     0.952607722   0.000214068378 -7.17295067e-05   0.000214068378 -7.17295066e-05      0.249934806     0.951333445
12.662212             0.24513075     0.952506946   0.000214377564 -7.19272667e-05   0.000214377565 -7.19272665e-05      0.250282765     0.951230907
12.66224              0.24547972     0.952405963   0.000214687273 -7.21255668e-05   0.000214687273 -7.21255666e-05       0.25063093     0.951128161
12.662268            0.245828897     0.952304774   0.000214997504 -7.23244087e-05   0.000214997504 -7.23244085e-05      0.250979301     0.951025208
12.662296            0.246178282     0.952203377   0.000215308259 -7.25237939e-05   0.000215308259 -7.25237937e-05      0.251327879     0.950922047
12.662324            0.246527875     0.952101773   0.000215619538 -7.27237241e-05   0.000215619538 -7.27237239e-05      0.251676662     0.950818678
12.662352            0.246877675     0.951999961   0.000215931343 -7.29242008e-05   0.000215931343 -7.29242007e-05      0.252025653       0.9507151
12.66238             0.247227684      0.95189794   0.000216243675 -7.31252258e-05   0.000216243675 -7.31252257e-05       0.25237485     0.950611313
12.662408            0.247577902     0.951795711   0.000216556534 -7.33268006e-05   0.000216556534 -7.33268005e-05      0.252724254     0.950507316
12.662436            0.247928328     0.951693273   0.000216869921 -7.35289269e-05   0.000216869922 -7.35289267e-05      0.253073865      0.95040311
12.662464            0.248278963     0.951590625   0.000217183838 -7.37316063e-05   0.000217183839 -7.37316061e-05      0.253423683     0.950298694
12.662492            0.248629807     0.951487767   0.000217498286 -7.39348404e-05   0.000217498286 -7.39348402e-05      0.253773709     0.950194067
12.66252              0.24898086     0.951384699   0.000217813265 -7.41386309e-05   0.000217813265 -7.41386307e-05      0.254123943     0.950089229
12.662548            0.249332123      0.95128142   0.000218128776 -7.43429794e-05   0.000218128776 -7.43429792e-05      0.254474384     0.949984179
12.662576            0.249683595     0.951177931   0.000218444821 -7.45478876e-05   0.000218444821 -7.45478874e-05      0.254825034     0.949878918
12.662604            0.250035277      0.95107423     0.0002187614 -7.47533572e-05     0.0002187614  -7.4753357e-05      0.255175892     0.949773445
12.662632            0.250387169     0.950970317   0.000219078514 -7.49593897e-05   0.000219078514 -7.49593896e-05      0.255526958      0.94966776
12.66266             0.250739271     0.950866193   0.000219396165  -7.5165987e-05   0.000219396165 -7.51659869e-05      0.255878233     0.949561861
12.662688            0.251091583     0.950761855   0.000219714353 -7.53731507e-05   0.000219714353 -7.53731505e-05      0.256229717      0.94945575
12.662716            0.251444106     0.950657305   0.000220033079 -7.55808824e-05   0.000220033079 -7.55808822e-05      0.256581409     0.949349425
12.662744             0.25179684     0.950552542   0.000220352344 -7.57891839e-05   0.000220352345 -7.57891837e-05      0.256933311     0.949242885
12.662772            0.252149784     0.950447565    0.00022067215 -7.59980568e-05    0.00022067215 -7.59980566e-05      0.257285422     0.949136132
12.6628               0.25250294     0.950342374   0.000220992497 -7.62075028e-05   0.000220992497 -7.62075026e-05      0.257637743     0.949029164
12.662828            0.252856307     0.950236968   0.000221313386 -7.64175237e-05   0.000221313386 -7.64175235e-05      0.257990274      0.94892198
12.662856            0.253209885     0.950131348   0.000221634819 -7.66281212e-05   0.000221634819  -7.6628121e-05      0.258343014     0.948814581
12.662884            0.253563675     0.950025512   0.000221956795 -7.68392969e-05   0.000221956795 -7.68392967e-05      0.258695965     0.948706966
12.662912            0.253917677     0.949919461   0.000222279317 -7.70510527e-05   0.000222279317 -7.70510525e-05      0.259049125     0.948599135
12.66294             0.254271891     0.949813194   0.000222602385 -7.72633901e-05   0.000222602385   -7.726339e-05      0.259402497     0.948491087
12.662968            0.254626317      0.94970671   0.000222926001 -7.74763111e-05   0.000222926001 -7.74763109e-05      0.259756079     0.948382823
12.662996            0.254980956      0.94960001   0.000223250164 -7.76898172e-05   0.000223250164 -7.76898171e-05      0.260109872      0.94827434
12.663024            0.255335807     0.949493092   0.000223574877 -7.79039103e-05   0.000223574877 -7.79039102e-05      0.260463876      0.94816564
12.663052            0.255690871     0.949385957    0.00022390014 -7.81185921e-05    0.00022390014  -7.8118592e-05      0.260818091     0.948056721
12.66308             0.256046148     0.949278604   0.000224225954 -7.83338644e-05   0.000224225954 -7.83338642e-05      0.261172518     0.947947584
12.663108            0.256401638     0.949171033    0.00022455232 -7.85497289e-05   0.000224552321 -7.85497287e-05      0.261527156     0.947838228
12.663136            0.256757342     0.949063243    0.00022487924 -7.87661874e-05    0.00022487924 -7.87661872e-05      0.261882006     0.947728652
12.663164            0.257113259     0.948955233   0.000225206714 -7.89832417e-05   0.000225206714 -7.89832415e-05      0.262237068     0.947618857
12.663192             0.25746939     0.948847005   0.000225534744 -7.92008935e-05   0.000225534744 -7.92008933e-05      0.262592343     0.947508841
12.66322             0.257825735     0.948738556   0.000225863329 -7.94191446e-05   0.000225863329 -7.94191445e-05       0.26294783     0.947398604
12.663248            0.258182295     0.948629887   0.000226192472 -7.96379969e-05   0.000226192472 -7.96379967e-05      0.263303529     0.947288147
12.663276            0.258539068     0.948520997   0.000226522173 -7.98574521e-05   0.000226522173 -7.98574519e-05      0.263659441     0.947177468
12.663304            0.258896056     0.948411886   0.000226852434  -8.0077512e-05   0.000226852434 -8.00775119e-05      0.264015566     0.947066567
12.663332            0.259253259     0.948302553   0.000227183255 -8.02981785e-05   0.000227183255 -8.02981783e-05      0.264371905     0.946955444
12.66336             0.259610677     0.948192999   0.000227514637 -8.05194533e-05   0.000227514638 -8.05194532e-05      0.264728456     0.946844099
12.663388             0.25996831     0.948083222   0.000227846582 -8.07413384e-05   0.000227846582 -8.07413382e-05      0.265085221      0.94673253
12.663416            0.260326159     0.947973223   0.000228179091 -8.09638354e-05   0.000228179091 -8.09638352e-05        0.2654422     0.946620738
12.663444            0.260684223        0.947863   0.000228512163 -8.11869462e-05   0.000228512164 -8.11869461e-05      0.265799393     0.946508722
12.663472            0.261042502     0.947752554   0.000228845802 -8.14106728e-05   0.000228845802 -8.14106726e-05        0.2661568     0.946396482
12.6635              0.261400998     0.947641883   0.000229180007 -8.16350168e-05   0.000229180007 -8.16350167e-05      0.266514421     0.946284017
