! TOUCHSTONE file generated by CST MICROWAVE STUDIO
! Date and time: Wed Jul 31 18:30:53 2024
! Project name: WaveGuide_BPF-Ver4.1_U-shape_Ku_T3_C4_CWA_2.cst
! Parameters = {cavity_h=16; cavity_l0=10; cavity_l1=15.229; cavity_l2=16.8292; cavity_l3=17.0803; cavity_l4=17.2854; cavity_l5=17.1584; cavity_l6=17.603; cavity_r=2.5; cavity_screw_l=0.5; cavity_screw_r=1.5; cavity_w=8; iris_h00=0; iris_h01=8.8076; iris_h112=0; iris_h12=5.6125; iris_h211=3.6513; iris_h23=5.2067; iris_h310=3.9612; iris_h34=5.0696; iris_h45=4.9221; iris_h49=4.6172; iris_h56=4.8095; iris_h58=4.4337; iris_h67=6.5732; iris_rx=0.1; iris_screw_l=0.5; iris_screw_r=1.5; iris_shift00=0; iris_shift112=0; iris_shift211=3.5; iris_shift310=0; iris_shift49=0; iris_shift58=3.5; iris_shift67=3.5; iris_tx=4.5; iris_tz=4.5; iris_w00=0; iris_w112=0; iris_w211=4; iris_w310=3.9612; iris_w49=4.6172; iris_w58=4; iris_w67=4; mesh_cavity=5; mesh_iris=7; mesh_screw=7; order=12; reset_all=0; sigma=4.8e+07}
! Header version: 2018
! Port assignment regex: !\s*Touchstone port\s*([0-9]+)\s*=\s*(CST MWS port|CST DS port)\s*([0-9]+|Zmin|Zmax)\s*\(\"(.*)\"\)(\s*mode\s*([0-9]+))?.*
! Touchstone port assignment:
! Touchstone port 1 = CST MWS port 1 ("")
! Touchstone port 2 = CST MWS port 2 ("")
# GHz S RI R 50
12.66                0.402358339     0.891066271   0.000251709376 -0.000136585604   0.000251709375 -0.000136585604      0.406267123     0.889330289
12.660028            0.402809027     0.890843765   0.000252041141 -0.000136941339    0.00025204114 -0.000136941339      0.406716896     0.889105777
12.660056            0.403260039     0.890620806   0.000252373316  -0.00013729803   0.000252373315 -0.000137298029      0.407166961     0.888880822
12.660084            0.403711341     0.890397406   0.000252705908 -0.000137655672   0.000252705908 -0.000137655671      0.407617297     0.888655432
12.660112            0.404162901     0.890173579   0.000253038926 -0.000138014263   0.000253038925 -0.000138014262      0.408067886     0.888429616
12.66014             0.404614686     0.889949339   0.000253372375   -0.0001383738   0.000253372375   -0.0001383738      0.408518708     0.888203382
12.660168            0.405066696     0.889724685   0.000253706258 -0.000138734286   0.000253706257 -0.000138734286      0.408969763     0.887976729
12.660196            0.405518953     0.889499607   0.000254040568 -0.000139095728   0.000254040568 -0.000139095727      0.409421064     0.887749649
12.660224            0.405971457     0.889274105   0.000254375306 -0.000139458127   0.000254375306 -0.000139458127      0.409872611     0.887522144
12.660252            0.406424208     0.889048176   0.000254710474 -0.000139821487   0.000254710473 -0.000139821486      0.410324403     0.887294211
12.66028             0.406877206     0.888821821   0.000255046069  -0.00014018581   0.000255046069 -0.000140185809      0.410776443     0.887065849
12.660308            0.407330452     0.888595039   0.000255382094 -0.000140551099   0.000255382094 -0.000140551099      0.411228728     0.886837059
12.660336            0.407783945     0.888367828   0.000255718548 -0.000140917357   0.000255718548 -0.000140917356       0.41168126     0.886607839
12.660364            0.408237685     0.888140189   0.000256055431 -0.000141284586   0.000256055431 -0.000141284585      0.412134038     0.886378189
12.660392            0.408691673      0.88791212   0.000256392744 -0.000141652789   0.000256392744 -0.000141652789      0.412587062     0.886148108
12.66042             0.409145908     0.887683621   0.000256730487 -0.000142021969   0.000256730486 -0.000142021969      0.413040333     0.885917594
12.660448            0.409600391     0.887454691    0.00025706866 -0.000142392129   0.000257068659 -0.000142392129       0.41349385     0.885686648
12.660476            0.410055122     0.887225329   0.000257407263 -0.000142763271   0.000257407262 -0.000142763271      0.413947614     0.885455268
12.660504              0.4105101     0.886995534   0.000257746296 -0.000143135398   0.000257746296 -0.000143135398      0.414401624     0.885223454
12.660532            0.410965325     0.886765305   0.000258085761 -0.000143508513    0.00025808576 -0.000143508513      0.414855882     0.884991205
12.66056             0.411420799     0.886534643   0.000258425656 -0.000143882619   0.000258425656 -0.000143882619      0.415310385      0.88475852
12.660588             0.41187652     0.886303545   0.000258765982 -0.000144257718   0.000258765982 -0.000144257718      0.415765136     0.884525398
12.660616            0.412332489     0.886072011    0.00025910674 -0.000144633814    0.00025910674 -0.000144633814      0.416220133     0.884291838
12.660644            0.412788706      0.88584004   0.000259447929 -0.000145010908   0.000259447929 -0.000145010908      0.416675378      0.88405784
12.660672            0.413245171     0.885607633    0.00025978955 -0.000145389005    0.00025978955 -0.000145389004      0.417130869     0.883823403
12.6607              0.413701884     0.885374786   0.000260131603 -0.000145768106   0.000260131603 -0.000145768105      0.417586607     0.883588527
12.660728            0.414158845     0.885141501   0.000260474088 -0.000146148214   0.000260474088 -0.000146148214      0.418042592     0.883353209
12.660756            0.414616054     0.884907776   0.000260817006 -0.000146529333   0.000260817005 -0.000146529333      0.418498824      0.88311745
12.660784            0.415073511     0.884673611   0.000261160356 -0.000146911465   0.000261160355 -0.000146911465      0.418955303     0.882881248
12.660812            0.415531217     0.884439003   0.000261504138 -0.000147294613   0.000261504138 -0.000147294613       0.41941203     0.882644604
12.66084              0.41598917     0.884203954   0.000261848354  -0.00014767878   0.000261848354  -0.00014767878      0.419869003     0.882407515
12.660868            0.416447372     0.883968461   0.000262193003 -0.000148063969   0.000262193002 -0.000148063968      0.420326224     0.882169982
12.660896            0.416905823     0.883732525   0.000262538085 -0.000148450182   0.000262538084 -0.000148450182      0.420783692     0.881932003
12.660924            0.417364521     0.883496144     0.0002628836 -0.000148837423     0.0002628836 -0.000148837422      0.421241407     0.881693578
12.660952            0.417823468     0.883259318   0.000263229549 -0.000149225694   0.000263229549 -0.000149225694       0.42169937     0.881454706
12.66098             0.418282663     0.883022045   0.000263575932 -0.000149614998   0.000263575932 -0.000149614998       0.42215758     0.881215385
12.661008            0.418742107     0.882784325   0.000263922749 -0.000150005339   0.000263922748 -0.000150005339      0.422616038     0.880975616
12.661036              0.4192018     0.882546157       0.00026427 -0.000150396719   0.000264269999 -0.000150396719      0.423074743     0.880735397
12.661064            0.419661741      0.88230754   0.000264617685 -0.000150789141   0.000264617685 -0.000150789141      0.423533695     0.880494728
12.661092             0.42012193     0.882068474   0.000264965805 -0.000151182608   0.000264965805 -0.000151182607      0.423992895     0.880253608
12.66112             0.420582369     0.881828958   0.000265314359 -0.000151577123   0.000265314359 -0.000151577122      0.424452343     0.880012035
12.661148            0.421043056      0.88158899   0.000265663349 -0.000151972688   0.000265663348 -0.000151972688      0.424912038      0.87977001
12.661176            0.421503991      0.88134857   0.000266012773 -0.000152369308   0.000266012772 -0.000152369307      0.425371981      0.87952753
12.661204            0.421965176     0.881107697   0.000266362632 -0.000152766984   0.000266362632 -0.000152766984      0.425832171     0.879284596
12.661232            0.422426609     0.880866371   0.000266712927  -0.00015316572   0.000266712926  -0.00015316572       0.42629261     0.879041207
12.66126             0.422888291      0.88062459   0.000267063657 -0.000153565519   0.000267063656 -0.000153565519      0.426753296     0.878797362
12.661288            0.423350222     0.880382354   0.000267414822 -0.000153966384   0.000267414822 -0.000153966383       0.42721423     0.878553059
12.661316            0.423812402     0.880139662   0.000267766424 -0.000154368317   0.000267766423 -0.000154368317      0.427675411     0.878308299
12.661344            0.424274831     0.879896512   0.000268118461 -0.000154771323   0.000268118461 -0.000154771322      0.428136841     0.878063079
12.661372            0.424737508     0.879652905   0.000268470934 -0.000155175403   0.000268470934 -0.000155175402      0.428598518       0.8778174
12.6614              0.425200435     0.879408839   0.000268823843 -0.000155580561   0.000268823843  -0.00015558056      0.429060444     0.877571261
12.661428            0.425663611     0.879164314   0.000269177189   -0.0001559868   0.000269177189 -0.000155986799      0.429522617     0.877324661
12.661456            0.426127036     0.878919328   0.000269530971 -0.000156394122    0.00026953097 -0.000156394122      0.429985038     0.877077598
12.661484             0.42659071     0.878673881   0.000269885189 -0.000156802532   0.000269885189 -0.000156802532      0.430447708     0.876830073
12.661512            0.427054633     0.878427973   0.000270239844 -0.000157212032   0.000270239844 -0.000157212032      0.430910625     0.876582083
12.66154             0.427518805     0.878181601   0.000270594936 -0.000157622625   0.000270594936 -0.000157622625      0.431373791     0.876333629
12.661568            0.427983227     0.877934765   0.000270950465 -0.000158034314   0.000270950465 -0.000158034314      0.431837204      0.87608471
12.661596            0.428447897     0.877687465   0.000271306431 -0.000158447103    0.00027130643 -0.000158447102      0.432300866     0.875835324
12.661624            0.428912817       0.8774397   0.000271662833 -0.000158860994   0.000271662833 -0.000158860993      0.432764776     0.875585471
12.661652            0.429377986     0.877191468   0.000272019673  -0.00015927599   0.000272019673  -0.00015927599      0.433228934      0.87533515
12.66168             0.429843405     0.876942769   0.000272376951 -0.000159692096    0.00027237695 -0.000159692095       0.43369334      0.87508436
12.661708            0.430309073     0.876693602   0.000272734666 -0.000160109313   0.000272734665 -0.000160109312      0.434157994       0.8748331
12.661736             0.43077499     0.876443966   0.000273092818 -0.000160527645   0.000273092818 -0.000160527644      0.434622897     0.874581369
12.661764            0.431241156     0.876193861   0.000273451408 -0.000160947095   0.000273451407 -0.000160947094      0.435088048     0.874329167
12.661792            0.431707572     0.875943285   0.000273810435 -0.000161367666   0.000273810435 -0.000161367666      0.435553447     0.874076493
12.66182             0.432174238     0.875692237   0.000274169901 -0.000161789362   0.000274169901 -0.000161789361      0.436019095     0.873823345
12.661848            0.432641152     0.875440717   0.000274529804 -0.000162212185   0.000274529804 -0.000162212185      0.436484991     0.873569724
12.661876            0.433108317     0.875188725   0.000274890146 -0.000162636139   0.000274890145 -0.000162636139      0.436951135     0.873315627
12.661904             0.43357573     0.874936258   0.000275250925 -0.000163061227   0.000275250925 -0.000163061227      0.437417528     0.873061054
12.661932            0.434043394     0.874683316   0.000275612142 -0.000163487452   0.000275612142 -0.000163487452      0.437884169     0.872806005
12.66196             0.434511306     0.874429898   0.000275973798 -0.000163914818   0.000275973798 -0.000163914817      0.438351058     0.872550478
12.661988            0.434979469     0.874176004   0.000276335892 -0.000164343327   0.000276335892 -0.000164343327      0.438818196     0.872294473
12.662016             0.43544788     0.873921632   0.000276698425 -0.000164772983   0.000276698424 -0.000164772983      0.439285582     0.872037989
12.662044            0.435916542     0.873666782   0.000277061395 -0.000165203789   0.000277061395 -0.000165203789      0.439753217     0.871781024
12.662072            0.436385453     0.873411453   0.000277424805 -0.000165635749   0.000277424804 -0.000165635748        0.4402211     0.871523578
12.6621              0.436854613     0.873155643   0.000277788652 -0.000166068865   0.000277788652 -0.000166068865      0.440689232      0.87126565
12.662128            0.437324023     0.872899353   0.000278152939 -0.000166503141   0.000278152938 -0.000166503141      0.441157612     0.871007239
12.662156            0.437793683      0.87264258   0.000278517664  -0.00016693858   0.000278517663  -0.00016693858       0.44162624     0.870748344
12.662184            0.438263593     0.872385325   0.000278882828 -0.000167375186   0.000278882827 -0.000167375185      0.442095118     0.870488965
12.662212            0.438733752     0.872127586    0.00027924843 -0.000167812961    0.00027924843 -0.000167812961      0.442564243       0.8702291
12.66224             0.439204161     0.871869363   0.000279614471  -0.00016825191   0.000279614471 -0.000168251909      0.443033617     0.869968749
12.662268            0.439674819     0.871610654   0.000279980951 -0.000168692035   0.000279980951 -0.000168692034       0.44350324     0.869707911
12.662296            0.440145727     0.871351458    0.00028034787 -0.000169133339    0.00028034787 -0.000169133339      0.443973112     0.869446584
12.662324            0.440616885     0.871091776   0.000280715228 -0.000169575827   0.000280715228 -0.000169575826      0.444443231     0.869184768
12.662352            0.441088292     0.870831605   0.000281083025 -0.000170019501   0.000281083024   -0.0001700195        0.4449136     0.868922462
12.66238              0.44155995     0.870570945    0.00028145126 -0.000170464365    0.00028145126 -0.000170464364      0.445384217     0.868659665
12.662408            0.442031856     0.870309796   0.000281819935 -0.000170910421   0.000281819935 -0.000170910421      0.445855082     0.868396376
12.662436            0.442504013     0.870048155   0.000282189048 -0.000171357675   0.000282189048 -0.000171357675      0.446326197     0.868132595
12.662464            0.442976419     0.869786023   0.000282558601 -0.000171806128   0.000282558601 -0.000171806128      0.446797559      0.86786832
12.662492            0.443449076     0.869523398   0.000282928592 -0.000172255785   0.000282928592 -0.000172255785      0.447269171      0.86760355
12.66252             0.443921981     0.869260279   0.000283299023 -0.000172706648   0.000283299023 -0.000172706648       0.44774103     0.867338285
12.662548            0.444395137     0.868996666   0.000283669892 -0.000173158722   0.000283669892 -0.000173158722      0.448213139     0.867072523
12.662576            0.444868542     0.868732558   0.000284041201 -0.000173612009   0.000284041201 -0.000173612009      0.448685496     0.866806264
12.662604            0.445342197     0.868467953   0.000284412948 -0.000174066513   0.000284412948 -0.000174066513      0.449158102     0.866539507
12.662632            0.445816102     0.868202851   0.000284785135 -0.000174522238   0.000284785134 -0.000174522237      0.449630956     0.866272251
12.66266             0.446290256     0.867937251    0.00028515776 -0.000174979186    0.00028515776 -0.000174979186      0.450104058     0.866004495
12.662688             0.44676466     0.867671152   0.000285530824 -0.000175437362   0.000285530824 -0.000175437361       0.45057741     0.865736237
12.662716            0.447239314     0.867404553   0.000285904328 -0.000175896769   0.000285904327 -0.000175896768       0.45105101     0.865467478
12.662744            0.447714218     0.867137454    0.00028627827  -0.00017635741    0.00028627827 -0.000176357409      0.451524858     0.865198216
12.662772            0.448189371     0.866869852   0.000286652651 -0.000176819288   0.000286652651 -0.000176819288      0.451998955     0.864928451
12.6628              0.448664774     0.866601747   0.000287027471 -0.000177282409    0.00028702747 -0.000177282408      0.452473301      0.86465818
12.662828            0.449140427     0.866333139   0.000287402729 -0.000177746774   0.000287402729 -0.000177746773      0.452947895     0.864387404
12.662856            0.449616329     0.866064027   0.000287778427 -0.000178212387   0.000287778427 -0.000178212387      0.453422737     0.864116121
12.662884            0.450092481     0.865794408   0.000288154563 -0.000178679253   0.000288154563 -0.000178679252      0.453897829     0.863844331
12.662912            0.450568883     0.865524284   0.000288531138 -0.000179147374   0.000288531137 -0.000179147373      0.454373168     0.863572033
12.66294             0.451045535     0.865253652   0.000288908151 -0.000179616754   0.000288908151 -0.000179616754      0.454848756     0.863299225
12.662968            0.451522436     0.864982511   0.000289285603 -0.000180087397   0.000289285603 -0.000180087396      0.455324593     0.863025907
12.662996            0.451999587     0.864710862   0.000289663493 -0.000180559306   0.000289663493 -0.000180559305      0.455800678     0.862752077
12.663024            0.452476987     0.864438702   0.000290041822 -0.000181032484   0.000290041822 -0.000181032484      0.456277012     0.862477735
12.663052            0.452954637     0.864166031   0.000290420589 -0.000181506937   0.000290420589 -0.000181506936      0.456753594     0.862202881
12.66308             0.453432537     0.863892848   0.000290799795 -0.000181982666   0.000290799794 -0.000181982665      0.457230424     0.861927512
12.663108            0.453910686     0.863619151   0.000291179438 -0.000182459676   0.000291179438 -0.000182459675      0.457707503     0.861651628
12.663136            0.454389085     0.863344941    0.00029155952  -0.00018293797    0.00029155952 -0.000182937969       0.45818483     0.861375228
12.663164            0.454867733     0.863070216    0.00029194004 -0.000183417552    0.00029194004 -0.000183417552      0.458662406     0.861098311
12.663192            0.455346631     0.862794975   0.000292320998 -0.000183898426   0.000292320997 -0.000183898425      0.459140229     0.860820876
12.66322             0.455825778     0.862519217   0.000292702393 -0.000184380595   0.000292702393 -0.000184380594      0.459618302     0.860542922
12.663248            0.456305175     0.862242942   0.000293084226 -0.000184864063   0.000293084226 -0.000184864062      0.460096622     0.860264448
12.663276            0.456784822     0.861966147   0.000293466497 -0.000185348833   0.000293466497 -0.000185348833      0.460575191     0.859985454
12.663304            0.457264717     0.861688833   0.000293849206  -0.00018583491   0.000293849205  -0.00018583491      0.461054008     0.859705938
12.663332            0.457744863     0.861410998   0.000294232351 -0.000186322297   0.000294232351 -0.000186322297      0.461533073     0.859425899
12.66336             0.458225257     0.861132642   0.000294615934 -0.000186810998   0.000294615934 -0.000186810998      0.462012387     0.859145337
12.663388            0.458705901     0.860853763   0.000294999955 -0.000187301016   0.000294999954 -0.000187301016      0.462491949     0.858864249
12.663416            0.459186795      0.86057436   0.000295384412 -0.000187792356   0.000295384411 -0.000187792355      0.462971759     0.858582636
12.663444            0.459667938     0.860294433   0.000295769306  -0.00018828502   0.000295769306  -0.00018828502      0.463451817     0.858300497
12.663472             0.46014933      0.86001398   0.000296154637 -0.000188779014   0.000296154636 -0.000188779013      0.463932123      0.85801783
12.6635              0.460630971        0.859733   0.000296540404 -0.000189274339   0.000296540404 -0.000189274339      0.464412677     0.857734634
