! TOUCHSTONE file generated by CST MICROWAVE STUDIO
! Date and time: Wed Jul 31 18:37:16 2024
! Project name: WaveGuide_BPF-Ver4.1_U-shape_Ku_T3_C4_CWA_2.cst
! Parameters = {cavity_h=16; cavity_l0=10; cavity_l1=15.1977; cavity_l2=16.8108; cavity_l3=17.1122; cavity_l4=17.2383; cavity_l5=17.1685; cavity_l6=17.5679; cavity_r=2.5; cavity_screw_l=0.5; cavity_screw_r=1.5; cavity_w=8; iris_h00=0; iris_h01=8.836; iris_h112=0; iris_h12=5.5909; iris_h211=3.6679; iris_h23=5.1882; iris_h310=3.961; iris_h34=5.0824; iris_h45=4.9202; iris_h49=4.6297; iris_h56=4.7922; iris_h58=4.4316; iris_h67=6.5654; iris_rx=0.1; iris_screw_l=0.5; iris_screw_r=1.5; iris_shift00=0; iris_shift112=0; iris_shift211=3.5; iris_shift310=0; iris_shift49=0; iris_shift58=3.5; iris_shift67=3.5; iris_tx=4.5; iris_tz=4.5; iris_w00=0; iris_w112=0; iris_w211=4; iris_w310=3.961; iris_w49=4.6297; iris_w58=4; iris_w67=4; mesh_cavity=5; mesh_iris=7; mesh_screw=7; order=12; reset_all=0; sigma=4.8e+07}
! Header version: 2018
! Port assignment regex: !\s*Touchstone port\s*([0-9]+)\s*=\s*(CST MWS port|CST DS port)\s*([0-9]+|Zmin|Zmax)\s*\(\"(.*)\"\)(\s*mode\s*([0-9]+))?.*
! Touchstone port assignment:
! Touchstone port 1 = CST MWS port 1 ("")
! Touchstone port 2 = CST MWS port 2 ("")
# GHz S RI R 50
12.66                0.349372698     0.916485589   0.000172891251 -7.98710023e-05   0.000172891249 -7.98710005e-05      0.358951584     0.912683742
12.660028            0.349768431     0.916320989   0.000173101854 -8.00644468e-05   0.000173101852  -8.0064445e-05      0.359349325      0.91251339
12.660056              0.3501644     0.916156082   0.000173312724 -8.02583506e-05   0.000173312723 -8.02583488e-05      0.359747169     0.912342776
12.660084            0.350560593     0.915990874   0.000173523861 -8.04527172e-05   0.000173523859 -8.04527154e-05      0.360145161     0.912171882
12.660112            0.350956995     0.915825367   0.000173735261 -8.06475501e-05   0.000173735259 -8.06475482e-05      0.360543342      0.91200069
12.66014             0.351353595     0.915659568   0.000173946922 -8.08428527e-05    0.00017394692 -8.08428509e-05      0.360941758     0.911829183
12.660168            0.351750392     0.915493474   0.000174158845 -8.10386263e-05   0.000174158843 -8.10386245e-05      0.361340408     0.911657361
12.660196            0.352147396     0.915327083   0.000174371031 -8.12348706e-05    0.00017437103 -8.12348687e-05      0.361739264     0.911485234
12.660224            0.352544605     0.915160393   0.000174583481 -8.14315866e-05   0.000174583479 -8.14315847e-05      0.362138325     0.911312802
12.660252            0.352942022     0.914993405   0.000174796195 -8.16287756e-05   0.000174796193 -8.16287737e-05      0.362537591     0.911140065
12.66028             0.353339644     0.914826118   0.000175009173 -8.18264387e-05   0.000175009171 -8.18264369e-05      0.362937063     0.910967021
12.660308            0.353737473     0.914658531   0.000175222415 -8.20245773e-05   0.000175222413 -8.20245754e-05       0.36333674     0.910793671
12.660336            0.354135508     0.914490644   0.000175435922 -8.22231924e-05    0.00017543592 -8.22231905e-05      0.363736623     0.910620014
12.660364            0.354533751     0.914322457   0.000175649693 -8.24222853e-05   0.000175649691 -8.24222834e-05      0.364136712     0.910446049
12.660392              0.3549322     0.914153968   0.000175863729 -8.26218572e-05   0.000175863727 -8.26218553e-05      0.364537006     0.910271776
12.66042             0.355330855     0.913985178    0.00017607803 -8.28219092e-05   0.000176078028 -8.28219074e-05      0.364937507     0.910097194
12.660448            0.355729718     0.913816086   0.000176292597 -8.30224427e-05   0.000176292595 -8.30224408e-05      0.365338214     0.909922304
12.660476            0.356128788     0.913646692   0.000176507429 -8.32234588e-05   0.000176507427 -8.32234569e-05      0.365739126     0.909747103
12.660504            0.356528065     0.913476994   0.000176722527 -8.34249588e-05   0.000176722525 -8.34249569e-05      0.366140245     0.909571593
12.660532            0.356927549     0.913306993   0.000176937891 -8.36269438e-05   0.000176937889 -8.36269419e-05       0.36654157     0.909395772
12.66056              0.35732724     0.913136687   0.000177153522 -8.38294151e-05    0.00017715352 -8.38294132e-05      0.366943101     0.909219639
12.660588            0.357727138     0.912966077   0.000177369418 -8.40323739e-05   0.000177369416  -8.4032372e-05      0.367344839     0.909043195
12.660616            0.358127244     0.912795162   0.000177585582 -8.42358215e-05    0.00017758558 -8.42358196e-05      0.367746783     0.908866439
12.660644            0.358527558     0.912623942   0.000177802012 -8.44397591e-05    0.00017780201 -8.44397572e-05      0.368148933      0.90868937
12.660672            0.358928079     0.912452415   0.000178018709 -8.46441879e-05   0.000178018707  -8.4644186e-05      0.368551291     0.908511988
12.6607              0.359328808     0.912280582   0.000178235674 -8.48491092e-05   0.000178235672 -8.48491073e-05      0.368953854     0.908334293
12.660728            0.359729744     0.912108442   0.000178452906 -8.50545242e-05   0.000178452904 -8.50545223e-05      0.369356625     0.908156283
12.660756            0.360130889     0.911935994   0.000178670405 -8.52604341e-05   0.000178670403 -8.52604322e-05      0.369759603     0.907977958
12.660784            0.360532241     0.911763238   0.000178888173 -8.54668403e-05   0.000178888171 -8.54668384e-05      0.370162787     0.907799318
12.660812            0.360933801     0.911590174   0.000179106208  -8.5673744e-05   0.000179106207 -8.56737421e-05      0.370566178     0.907620362
12.66084             0.361335569       0.9114168   0.000179324512 -8.58811463e-05   0.000179324511 -8.58811444e-05      0.370969777      0.90744109
12.660868            0.361737546     0.911243117   0.000179543085 -8.60890487e-05   0.000179543083 -8.60890468e-05      0.371373582     0.907261501
12.660896            0.362139731     0.911069124   0.000179761926 -8.62974524e-05   0.000179761924 -8.62974505e-05      0.371777595     0.907081595
12.660924            0.362542124      0.91089482   0.000179981036 -8.65063585e-05   0.000179981034 -8.65063566e-05      0.372181815      0.90690137
12.660952            0.362944725     0.910720205   0.000180200416 -8.67157685e-05   0.000180200414 -8.67157666e-05      0.372586242     0.906720828
12.66098             0.363347535     0.910545278   0.000180420064 -8.69256835e-05   0.000180420062 -8.69256816e-05      0.372990877     0.906539966
12.661008            0.363750554      0.91037004   0.000180639982 -8.71361049e-05    0.00018063998  -8.7136103e-05      0.373395719     0.906358785
12.661036            0.364153781     0.910194488    0.00018086017  -8.7347034e-05   0.000180860168  -8.7347032e-05      0.373800768     0.906177285
12.661064            0.364557217     0.910018623   0.000181080628 -8.75584719e-05   0.000181080626   -8.755847e-05      0.374206026     0.905995463
12.661092            0.364960861     0.909842445   0.000181301356 -8.77704201e-05   0.000181301354 -8.77704182e-05      0.374611491     0.905813321
12.66112             0.365364715     0.909665952   0.000181522354 -8.79828798e-05   0.000181522352 -8.79828778e-05      0.375017164     0.905630857
12.661148            0.365768777     0.909489145   0.000181743623 -8.81958522e-05   0.000181743621 -8.81958503e-05      0.375423044     0.905448071
12.661176            0.366173049     0.909312022   0.000181965163 -8.84093388e-05   0.000181965161 -8.84093369e-05      0.375829133     0.905264962
12.661204             0.36657753     0.909134583   0.000182186973 -8.86233407e-05   0.000182186972 -8.86233388e-05       0.37623543      0.90508153
12.661232             0.36698222     0.908956828   0.000182409055 -8.88378594e-05   0.000182409053 -8.88378575e-05      0.376641934     0.904897775
12.66126             0.367387119     0.908778757   0.000182631408 -8.90528961e-05   0.000182631406 -8.90528942e-05      0.377048647     0.904713695
12.661288            0.367792227     0.908600368   0.000182854033 -8.92684521e-05   0.000182854031 -8.92684502e-05      0.377455568     0.904529291
12.661316            0.368197545     0.908421661   0.000183076929 -8.94845288e-05   0.000183076927 -8.94845268e-05      0.377862697     0.904344561
12.661344            0.368603072     0.908242635   0.000183300097 -8.97011274e-05   0.000183300095 -8.97011254e-05      0.378270035     0.904159505
12.661372            0.369008809     0.908063291   0.000183523538 -8.99182493e-05   0.000183523536 -8.99182473e-05      0.378677581     0.903974123
12.6614              0.369414756     0.907883627    0.00018374725 -9.01358958e-05   0.000183747248 -9.01358939e-05      0.379085335     0.903788415
12.661428            0.369820912     0.907703643   0.000183971235 -9.03540683e-05   0.000183971233 -9.03540663e-05      0.379493298     0.903602378
12.661456            0.370227278     0.907523339   0.000184195493  -9.0572768e-05   0.000184195491  -9.0572766e-05      0.379901469     0.903416014
12.661484            0.370633854     0.907342714   0.000184420024 -9.07919963e-05   0.000184420022 -9.07919944e-05       0.38030985     0.903229321
12.661512             0.37104064     0.907161767   0.000184644828 -9.10117546e-05   0.000184644826 -9.10117527e-05      0.380718439       0.9030423
12.66154             0.371447636     0.906980498   0.000184869905 -9.12320443e-05   0.000184869903 -9.12320423e-05      0.381127236     0.902854948
12.661568            0.371854843     0.906798906   0.000185095255 -9.14528665e-05   0.000185095253 -9.14528645e-05      0.381536243     0.902667267
12.661596            0.372262259     0.906616991   0.000185320879 -9.16742227e-05   0.000185320878 -9.16742208e-05      0.381945459     0.902479255
12.661624            0.372669885     0.906434752   0.000185546777 -9.18961143e-05   0.000185546776 -9.18961124e-05      0.382354883     0.902290911
12.661652            0.373077722     0.906252189   0.000185772949 -9.21185426e-05   0.000185772948 -9.21185407e-05      0.382764517     0.902102236
12.66168              0.37348577     0.906069301   0.000185999396  -9.2341509e-05   0.000185999394 -9.23415071e-05       0.38317436     0.901913228
12.661708            0.373894027     0.905886088   0.000186226116 -9.25650148e-05   0.000186226114 -9.25650129e-05      0.383584412     0.901723888
12.661736            0.374302496     0.905702549   0.000186453111 -9.27890615e-05    0.00018645311 -9.27890595e-05      0.383994673     0.901534214
12.661764            0.374711175     0.905518684   0.000186680381 -9.30136503e-05   0.000186680379 -9.30136483e-05      0.384405144     0.901344206
12.661792            0.375120064     0.905334491   0.000186907926 -9.32387826e-05   0.000186907924 -9.32387807e-05      0.384815824     0.901153864
12.66182             0.375529165     0.905149971   0.000187135746 -9.34644599e-05   0.000187135744 -9.34644579e-05      0.385226713     0.900963186
12.661848            0.375938476     0.904965124   0.000187363841 -9.36906835e-05    0.00018736384 -9.36906816e-05      0.385637812     0.900772173
12.661876            0.376347998     0.904779947   0.000187592212 -9.39174549e-05    0.00018759221 -9.39174529e-05      0.386049121     0.900580823
12.661904            0.376757731     0.904594441   0.000187820859 -9.41447753e-05   0.000187820857 -9.41447733e-05      0.386460639     0.900389137
12.661932            0.377167675     0.904408606   0.000188049781 -9.43726462e-05   0.000188049779 -9.43726442e-05      0.386872367     0.900197114
12.66196              0.37757783      0.90422244   0.000188278979  -9.4601069e-05   0.000188278977  -9.4601067e-05      0.387284305     0.900004752
12.661988            0.377988197     0.904035944   0.000188508453 -9.48300451e-05   0.000188508452 -9.48300431e-05      0.387696452     0.899812053
12.662016            0.378398775     0.903849116   0.000188738204 -9.50595758e-05   0.000188738202 -9.50595738e-05       0.38810881     0.899619014
12.662044            0.378809564     0.903661956   0.000188968232 -9.52896627e-05    0.00018896823 -9.52896607e-05      0.388521377     0.899425635
12.662072            0.379220564     0.903474464   0.000189198536 -9.55203071e-05   0.000189198534 -9.55203051e-05      0.388934155     0.899231917
12.6621              0.379631776     0.903286639   0.000189429116 -9.57515105e-05   0.000189429115 -9.57515085e-05      0.389347143     0.899037858
12.662128              0.3800432      0.90309848   0.000189659974 -9.59832742e-05   0.000189659973 -9.59832722e-05       0.38976034     0.898843457
12.662156            0.380454835     0.902909988    0.00018989111 -9.62155996e-05   0.000189891108 -9.62155976e-05      0.390173748     0.898648715
12.662184            0.380866682      0.90272116   0.000190122522 -9.64484883e-05    0.00019012252 -9.64484863e-05      0.390587366      0.89845363
12.662212             0.38127874     0.902531998   0.000190354212 -9.66819416e-05    0.00019035421 -9.66819396e-05      0.391001195     0.898258203
12.66224              0.38169101     0.902342499    0.00019058618  -9.6915961e-05   0.000190586178  -9.6915959e-05      0.391415234     0.898062431
12.662268            0.382103493     0.902152664   0.000190818426 -9.71505479e-05   0.000190818424 -9.71505459e-05      0.391829483     0.897866316
12.662296            0.382516187     0.901962493    0.00019105095 -9.73857038e-05   0.000191050948 -9.73857018e-05      0.392243943     0.897669856
12.662324            0.382929093     0.901771984   0.000191283752 -9.76214301e-05    0.00019128375 -9.76214281e-05      0.392658614     0.897473051
12.662352            0.383342211     0.901581136   0.000191516832 -9.78577282e-05    0.00019151683 -9.78577262e-05      0.393073495       0.8972759
12.66238             0.383755542     0.901389951   0.000191750191 -9.80945996e-05   0.000191750189 -9.80945976e-05      0.393488587     0.897078403
12.662408            0.384169084     0.901198426   0.000191983829 -9.83320458e-05   0.000191983827 -9.83320438e-05      0.393903889     0.896880558
12.662436            0.384582839     0.901006561   0.000192217746 -9.85700682e-05   0.000192217744 -9.85700662e-05      0.394319402     0.896682367
12.662464            0.384996807     0.900814356   0.000192451941 -9.88086683e-05   0.000192451939 -9.88086663e-05      0.394735127     0.896483827
12.662492            0.385410986     0.900621811   0.000192686416 -9.90478476e-05   0.000192686414 -9.90478456e-05      0.395151062     0.896284938
12.66252             0.385825379     0.900428924    0.00019292117 -9.92876075e-05   0.000192921168 -9.92876055e-05      0.395567208       0.8960857
12.662548            0.386239983     0.900235694   0.000193156204 -9.95279495e-05   0.000193156202 -9.95279475e-05      0.395983565     0.895886112
12.662576            0.386654801     0.900042123   0.000193391517 -9.97688751e-05   0.000193391515 -9.97688731e-05      0.396400133     0.895686174
12.662604            0.387069831     0.899848208   0.000193627111 -0.000100010386   0.000193627109 -0.000100010384      0.396816912     0.895485884
12.662632            0.387485073     0.899653949   0.000193862984 -0.000100252483   0.000193862982 -0.000100252481      0.397233903     0.895285243
12.66266             0.387900529     0.899459347   0.000194099137 -0.000100495168   0.000194099135 -0.000100495166      0.397651104      0.89508425
12.662688            0.388316197     0.899264399   0.000194335571 -0.000100738443   0.000194335569 -0.000100738441      0.398068517     0.894882904
12.662716            0.388732079     0.899069106   0.000194572285 -0.000100982309   0.000194572283 -0.000100982307      0.398486142     0.894681205
12.662744            0.389148173     0.898873467   0.000194809279 -0.000101226768   0.000194809277 -0.000101226766      0.398903977     0.894479152
12.662772             0.38956448     0.898677481   0.000195046555  -0.00010147182   0.000195046553 -0.000101471818      0.399322025     0.894276744
12.6628              0.389981001     0.898481148   0.000195284111 -0.000101717468   0.000195284109 -0.000101717466      0.399740283     0.894073981
12.662828            0.390397734     0.898284468   0.000195521948 -0.000101963714   0.000195521946 -0.000101963712      0.400158753     0.893870862
12.662856            0.390814681     0.898087439   0.000195760066 -0.000102210557   0.000195760065 -0.000102210555      0.400577435     0.893667387
12.662884            0.391231841     0.897890061   0.000195998466 -0.000102458001   0.000195998464 -0.000102457999      0.400996329     0.893463555
12.662912            0.391649215     0.897692334   0.000196237147 -0.000102706047   0.000196237145 -0.000102706045      0.401415434     0.893259366
12.66294             0.392066802     0.897494256    0.00019647611 -0.000102954696   0.000196476108 -0.000102954694      0.401834751     0.893054818
12.662968            0.392484602     0.897295828   0.000196715355  -0.00010320395   0.000196715353 -0.000103203948       0.40225428     0.892849912
12.662996            0.392902616     0.897097049   0.000196954881  -0.00010345381   0.000196954879 -0.000103453808      0.402674021     0.892644646
12.663024            0.393320844     0.896897918   0.000197194689 -0.000103704277   0.000197194688 -0.000103704275      0.403093973     0.892439021
12.663052            0.393739285     0.896698434    0.00019743478 -0.000103955354   0.000197434778 -0.000103955352      0.403514138     0.892233035
12.66308              0.39415794     0.896498598   0.000197675153 -0.000104207043   0.000197675151  -0.00010420704      0.403934514     0.892026687
12.663108            0.394576808     0.896298407   0.000197915808 -0.000104459343   0.000197915806 -0.000104459341      0.404355103     0.891819979
12.663136            0.394995891     0.896097863   0.000198156746 -0.000104712258   0.000198156744 -0.000104712256      0.404775904     0.891612907
12.663164            0.395415187     0.895896964   0.000198397967 -0.000104965788   0.000198397965 -0.000104965786      0.405196916     0.891405473
12.663192            0.395834697     0.895695709    0.00019863947 -0.000105219935   0.000198639468 -0.000105219933      0.405618142     0.891197676
12.66322             0.396254422     0.895494099   0.000198881256 -0.000105474701   0.000198881254 -0.000105474699      0.406039579     0.890989514
12.663248             0.39667436     0.895292131   0.000199123326 -0.000105730088   0.000199123324 -0.000105730086      0.406461228     0.890780987
12.663276            0.397094513     0.895089807   0.000199365678 -0.000105986096   0.000199365676 -0.000105986094       0.40688309     0.890572095
12.663304            0.397514879     0.894887125   0.000199608314 -0.000106242728   0.000199608312 -0.000106242726      0.407305165     0.890362837
12.663332             0.39793546     0.894684084   0.000199851234 -0.000106499985   0.000199851232 -0.000106499983      0.407727452     0.890153213
12.66336             0.398356255     0.894480685   0.000200094437 -0.000106757869   0.000200094435 -0.000106757866      0.408149951     0.889943221
12.663388            0.398777264     0.894276926   0.000200337923  -0.00010701638   0.000200337921 -0.000107016378      0.408572663     0.889732862
12.663416            0.399198488     0.894072806   0.000200581694 -0.000107275522   0.000200581692  -0.00010727552      0.408995587     0.889522134
12.663444            0.399619926     0.893868326   0.000200825748 -0.000107535296   0.000200825746 -0.000107535293      0.409418724     0.889311037
12.663472            0.400041579     0.893663485   0.000201070087 -0.000107795702   0.000201070085   -0.0001077957      0.409842074      0.88909957
12.6635              0.400463446     0.893458281    0.00020131471 -0.000108056743   0.000201314708 -0.000108056741      0.410265636     0.888887733
