! TOUCHSTONE file generated by CST MICROWAVE STUDIO
! Date and time: Wed Jul 31 18:40:24 2024
! Project name: WaveGuide_BPF-Ver4.1_U-shape_Ku_T3_C4_CWA_2.cst
! Parameters = {cavity_h=16; cavity_l0=10; cavity_l1=15.1976; cavity_l2=16.8618; cavity_l3=17.1119; cavity_l4=17.234; cavity_l5=17.1671; cavity_l6=17.6124; cavity_r=2.5; cavity_screw_l=0.5; cavity_screw_r=1.5; cavity_w=8; iris_h00=0; iris_h01=8.8118; iris_h112=0; iris_h12=5.601; iris_h211=3.6621; iris_h23=5.2089; iris_h310=3.975; iris_h34=5.0805; iris_h45=4.9272; iris_h49=4.6245; iris_h56=4.7951; iris_h58=4.4413; iris_h67=6.5706; iris_rx=0.1; iris_screw_l=0.5; iris_screw_r=1.5; iris_shift00=0; iris_shift112=0; iris_shift211=3.5; iris_shift310=0; iris_shift49=0; iris_shift58=3.5; iris_shift67=3.5; iris_tx=4.5; iris_tz=4.5; iris_w00=0; iris_w112=0; iris_w211=4; iris_w310=3.975; iris_w49=4.6245; iris_w58=4; iris_w67=4; mesh_cavity=5; mesh_iris=7; mesh_screw=7; order=12; reset_all=0; sigma=4.8e+07}
! Header version: 2018
! Port assignment regex: !\s*Touchstone port\s*([0-9]+)\s*=\s*(CST MWS port|CST DS port)\s*([0-9]+|Zmin|Zmax)\s*\(\"(.*)\"\)(\s*mode\s*([0-9]+))?.*
! Touchstone port assignment:
! Touchstone port 1 = CST MWS port 1 ("")
! Touchstone port 2 = CST MWS port 2 ("")
# GHz S RI R 50
12.66                0.300998087     0.933839824   0.000275704049  -0.00011316868   0.000275704049  -0.00011316868      0.308335331     0.931360195
12.660028            0.301393397     0.933697682   0.000276117218 -0.000113486754   0.000276117218 -0.000113486754      0.308733503     0.931213498
12.660056            0.301789065     0.933555216   0.000276531089 -0.000113805744   0.000276531089 -0.000113805744      0.309131852     0.931066526
12.660084            0.302185044     0.933412439   0.000276945663  -0.00011412565   0.000276945663  -0.00011412565       0.30953041     0.930919271
12.660112            0.302581286     0.933269366   0.000277360944 -0.000114446474   0.000277360944 -0.000114446475      0.309929205     0.930771721
12.66014             0.302977745      0.93312601   0.000277776935 -0.000114768217   0.000277776935 -0.000114768217       0.31032827     0.930623866
12.660168            0.303374422     0.932982373   0.000278193637 -0.000115090881   0.000278193637 -0.000115090881      0.310727604     0.930475705
12.660196            0.303771347     0.932838442    0.00027861105  -0.00011541447    0.00027861105  -0.00011541447      0.311127187     0.930327244
12.660224            0.304168522     0.932694218   0.000279029176 -0.000115738988   0.000279029175 -0.000115738988      0.311527019     0.930178483
12.660252            0.304565945     0.932549699   0.000279448015 -0.000116064437   0.000279448014 -0.000116064437      0.311927101     0.930029422
12.66028             0.304963618     0.932404886   0.000279867568  -0.00011639082   0.000279867568  -0.00011639082      0.312327433     0.929880058
12.660308            0.305361541     0.932259778   0.000280287838  -0.00011671814   0.000280287838 -0.000116718141      0.312728014     0.929730393
12.660336            0.305759713     0.932114373   0.000280708825 -0.000117046401   0.000280708825 -0.000117046401      0.313128846     0.929580425
12.660364            0.306158136     0.931968673   0.000281130531 -0.000117375604   0.000281130531 -0.000117375604      0.313529928     0.929430154
12.660392            0.306556809     0.931822675   0.000281552956 -0.000117705754   0.000281552956 -0.000117705754      0.313931261     0.929279579
12.66042             0.306955732      0.93167638   0.000281976103 -0.000118036852   0.000281976103 -0.000118036852      0.314332845       0.9291287
12.660448            0.307354906     0.931529787   0.000282399972 -0.000118368902   0.000282399971 -0.000118368902      0.314734679     0.928977516
12.660476            0.307754331     0.931382895   0.000282824564 -0.000118701907   0.000282824564 -0.000118701907      0.315136765     0.928826026
12.660504            0.308154007     0.931235703   0.000283249881  -0.00011903587   0.000283249881  -0.00011903587      0.315539103      0.92867423
12.660532            0.308553934     0.931088212   0.000283675924 -0.000119370794   0.000283675924 -0.000119370794      0.315941692     0.928522128
12.66056             0.308954113     0.930940421   0.000284102695 -0.000119706682   0.000284102694 -0.000119706682      0.316344532     0.928369718
12.660588            0.309354544     0.930792328   0.000284530194 -0.000120043537   0.000284530193 -0.000120043537      0.316747625        0.928217
12.660616            0.309755226     0.930643934   0.000284958422 -0.000120381361   0.000284958422 -0.000120381361       0.31715097     0.928063974
12.660644            0.310156161     0.930495237   0.000285387382 -0.000120720159   0.000285387382 -0.000120720159      0.317554568     0.927910638
12.660672            0.310557348     0.930346238   0.000285817074 -0.000121059933   0.000285817074 -0.000121059933      0.317958418     0.927756993
12.6607              0.310958788     0.930196936     0.0002862475 -0.000121400686     0.0002862475 -0.000121400686      0.318362521     0.927603038
12.660728            0.311360481     0.930047329   0.000286678661 -0.000121742421    0.00028667866 -0.000121742421      0.318766877     0.927448772
12.660756            0.311762426     0.929897418   0.000287110557 -0.000122085141   0.000287110557 -0.000122085141      0.319171486     0.927294194
12.660784            0.312164625     0.929747202   0.000287543191  -0.00012242885   0.000287543191  -0.00012242885      0.319576349     0.927139304
12.660812            0.312567077      0.92959668   0.000287976564 -0.000122773551   0.000287976564 -0.000122773551      0.319981466     0.926984101
12.66084             0.312969783     0.929445851   0.000288410677 -0.000123119246   0.000288410676 -0.000123119246      0.320386836     0.926828585
12.660868            0.313372743     0.929294716   0.000288845531 -0.000123465938    0.00028884553 -0.000123465938      0.320792461     0.926672756
12.660896            0.313775957     0.929143273   0.000289281127 -0.000123813632   0.000289281127 -0.000123813632       0.32119834     0.926516611
12.660924            0.314179425     0.928991522   0.000289717467  -0.00012416233   0.000289717467  -0.00012416233      0.321604473     0.926360152
12.660952            0.314583148     0.928839463   0.000290154552 -0.000124512035   0.000290154552 -0.000124512035      0.322010861     0.926203376
12.66098             0.314987126     0.928687094   0.000290592383  -0.00012486275   0.000290592383  -0.00012486275      0.322417504     0.926046284
12.661008            0.315391358     0.928534415   0.000291030962 -0.000125214479   0.000291030962 -0.000125214479      0.322824402     0.925888876
12.661036            0.315795846     0.928381425    0.00029147029 -0.000125567225    0.00029147029 -0.000125567225      0.323231556     0.925731149
12.661064            0.316200589     0.928228125   0.000291910368 -0.000125920991   0.000291910368 -0.000125920991      0.323638965     0.925573105
12.661092            0.316605587     0.928074512   0.000292351197  -0.00012627578   0.000292351197  -0.00012627578       0.32404663     0.925414741
12.66112             0.317010841     0.927920587   0.000292792779 -0.000126631596   0.000292792779 -0.000126631596      0.324454551     0.925256059
12.661148            0.317416352      0.92776635   0.000293235115 -0.000126988441   0.000293235115 -0.000126988441      0.324862728     0.925097056
12.661176            0.317822118     0.927611798   0.000293678207 -0.000127346319   0.000293678206 -0.000127346319      0.325271161     0.924937732
12.661204            0.318228141     0.927456933   0.000294122055 -0.000127705233   0.000294122054 -0.000127705233      0.325679851     0.924778087
12.661232            0.318634421     0.927301753    0.00029456666 -0.000128065187    0.00029456666 -0.000128065187      0.326088798      0.92461812
12.66126             0.319040957     0.927146257   0.000295012025 -0.000128426184   0.000295012025 -0.000128426184      0.326498002      0.92445783
12.661288            0.319447751     0.926990445    0.00029545815 -0.000128788227    0.00029545815 -0.000128788227      0.326907463     0.924297217
12.661316            0.319854802     0.926834316   0.000295905037 -0.000129151319   0.000295905037 -0.000129151319      0.327317181      0.92413628
12.661344             0.32026211     0.926677871   0.000296352688 -0.000129515464   0.000296352687 -0.000129515464      0.327727157     0.923975019
12.661372            0.320669676     0.926521107   0.000296801102 -0.000129880665   0.000296801102 -0.000129880665      0.328137391     0.923813433
12.6614              0.321077501     0.926364025   0.000297250282 -0.000130246925   0.000297250282 -0.000130246925      0.328547883      0.92365152
12.661428            0.321485583     0.926206623   0.000297700229 -0.000130614248   0.000297700228 -0.000130614248      0.328958633     0.923489282
12.661456            0.321893923     0.926048902   0.000298150944 -0.000130982637   0.000298150944 -0.000130982637      0.329369642     0.923326716
12.661484            0.322302523      0.92589086   0.000298602429 -0.000131352096   0.000298602428 -0.000131352096      0.329780909     0.923163823
12.661512            0.322711381     0.925732498   0.000299054684 -0.000131722628   0.000299054684 -0.000131722628      0.330192435     0.923000601
12.66154             0.323120498     0.925573813   0.000299507712 -0.000132094235   0.000299507711 -0.000132094235      0.330604221      0.92283705
12.661568            0.323529874     0.925414806   0.000299961513 -0.000132466923   0.000299961512 -0.000132466923      0.331016265      0.92267317
12.661596            0.323939509     0.925255477   0.000300416088 -0.000132840694   0.000300416088 -0.000132840694      0.331428569     0.922508959
12.661624            0.324349405     0.925095823    0.00030087144 -0.000133215551    0.00030087144 -0.000133215551      0.331841133     0.922344418
12.661652             0.32475956     0.924935846    0.00030132757 -0.000133591499   0.000301327569 -0.000133591499      0.332253957     0.922179545
12.66168             0.325169975     0.924775544   0.000301784477 -0.000133968539   0.000301784477 -0.000133968539      0.332667041      0.92201434
12.661708            0.325580651     0.924614916   0.000302242165 -0.000134346677   0.000302242165 -0.000134346677      0.333080385     0.921848801
12.661736            0.325991587     0.924453962   0.000302700634 -0.000134725916   0.000302700634 -0.000134725916       0.33349399      0.92168293
12.661764            0.326402784     0.924292681   0.000303159886 -0.000135106258   0.000303159886 -0.000135106258      0.333907855     0.921516724
12.661792            0.326814241     0.924131072   0.000303619922 -0.000135487708   0.000303619922 -0.000135487708      0.334321982     0.921350183
12.66182              0.32722596     0.923969136   0.000304080743 -0.000135870268   0.000304080743 -0.000135870269       0.33473637     0.921183306
12.661848            0.327637941     0.923806871   0.000304542351 -0.000136253944    0.00030454235 -0.000136253944      0.335151019     0.921016094
12.661876            0.328050183     0.923644276   0.000305004746 -0.000136638737   0.000305004746 -0.000136638737      0.335565929     0.920848545
12.661904            0.328462686     0.923481352   0.000305467931 -0.000137024652    0.00030546793 -0.000137024652      0.335981102     0.920680658
12.661932            0.328875452     0.923318097   0.000305931906 -0.000137411693   0.000305931906 -0.000137411693      0.336396536     0.920512433
12.66196              0.32928848      0.92315451   0.000306396673 -0.000137799862   0.000306396673 -0.000137799862      0.336812233     0.920343869
12.661988             0.32970177     0.922990591   0.000306862233 -0.000138189163   0.000306862233 -0.000138189163      0.337228192     0.920174966
12.662016            0.330115324      0.92282634   0.000307328588 -0.000138579601   0.000307328588 -0.000138579601      0.337644413     0.920005722
12.662044             0.33052914     0.922661755   0.000307795739 -0.000138971178   0.000307795738 -0.000138971178      0.338060898     0.919836138
12.662072            0.330943219     0.922496837   0.000308263687 -0.000139363899   0.000308263686 -0.000139363899      0.338477645     0.919666212
12.6621              0.331357561     0.922331583   0.000308732433 -0.000139757766   0.000308732433 -0.000139757766      0.338894656     0.919495944
12.662128            0.331772167     0.922165995   0.000309201979 -0.000140152784   0.000309201979 -0.000140152784       0.33931193     0.919325333
12.662156            0.332187037      0.92200007   0.000309672326 -0.000140548956   0.000309672326 -0.000140548956      0.339729468     0.919154378
12.662184             0.33260217     0.921833809   0.000310143476 -0.000140946287   0.000310143476 -0.000140946287       0.34014727     0.918983079
12.662212            0.333017568      0.92166721    0.00031061543 -0.000141344779    0.00031061543 -0.000141344779      0.340565336     0.918811435
12.66224             0.333433231     0.921500274   0.000311088189 -0.000141744436   0.000311088188 -0.000141744436      0.340983666     0.918639446
12.662268            0.333849158     0.921332999   0.000311561754 -0.000142145262   0.000311561754 -0.000142145263      0.341402261      0.91846711
12.662296            0.334265349     0.921165384   0.000312036127 -0.000142547262   0.000312036127 -0.000142547262      0.341821121     0.918294428
12.662324            0.334681806      0.92099743    0.00031251131 -0.000142950438   0.000312511309 -0.000142950438      0.342240245     0.918121397
12.662352            0.335098528     0.920829134   0.000312987302 -0.000143354794   0.000312987302 -0.000143354794      0.342659634     0.917948019
12.66238             0.335515516     0.920660498   0.000313464107 -0.000143760335   0.000313464107 -0.000143760335      0.343079289     0.917774291
12.662408            0.335932769     0.920491519   0.000313941725 -0.000144167063   0.000313941725 -0.000144167063       0.34349921     0.917600213
12.662436            0.336350288     0.920322197   0.000314420158 -0.000144574983   0.000314420158 -0.000144574983      0.343919396     0.917425785
12.662464            0.336768073     0.920152533   0.000314899406 -0.000144984099   0.000314899406 -0.000144984099      0.344339848     0.917251006
12.662492            0.337186125     0.919982524   0.000315379472 -0.000145394414   0.000315379472 -0.000145394414      0.344760566     0.917075875
12.66252             0.337604443      0.91981217   0.000315860356 -0.000145805933   0.000315860356 -0.000145805933      0.345181551     0.916900392
12.662548            0.338023028      0.91964147   0.000316342061 -0.000146218658    0.00031634206 -0.000146218658      0.345602802     0.916724555
12.662576             0.33844188     0.919470425   0.000316824586 -0.000146632595   0.000316824586 -0.000146632595       0.34602432     0.916548364
12.662604               0.338861     0.919299033   0.000317307934 -0.000147047747   0.000317307934 -0.000147047747      0.346446106     0.916371819
12.662632            0.339280386     0.919127293   0.000317792107 -0.000147464117   0.000317792106 -0.000147464117      0.346868158     0.916194918
12.66266             0.339700041     0.918955205   0.000318277104  -0.00014788171   0.000318277104  -0.00014788171      0.347290478     0.916017661
12.662688            0.340119963     0.918782767   0.000318762928 -0.000148300529   0.000318762928  -0.00014830053      0.347713065     0.915840048
12.662716            0.340540153     0.918609981   0.000319249581  -0.00014872058    0.00031924958  -0.00014872058       0.34813592     0.915662077
12.662744            0.340960612     0.918436843   0.000319737063 -0.000149141865   0.000319737062 -0.000149141865      0.348559044     0.915483747
12.662772            0.341381339     0.918263355   0.000320225375 -0.000149564388   0.000320225375 -0.000149564388      0.348982435     0.915305059
12.6628              0.341802335     0.918089515    0.00032071452 -0.000149988154   0.000320714519 -0.000149988154      0.349406095     0.915126011
12.662828            0.342223599     0.917915323   0.000321204498 -0.000150413166   0.000321204498 -0.000150413166      0.349830024     0.914946602
12.662856            0.342645133     0.917740777   0.000321695311 -0.000150839429   0.000321695311 -0.000150839429      0.350254222     0.914766833
12.662884            0.343066937     0.917565877    0.00032218696 -0.000151266946    0.00032218696 -0.000151266946      0.350678689     0.914586702
12.662912             0.34348901     0.917390623   0.000322679447 -0.000151695722   0.000322679446 -0.000151695722      0.351103425     0.914406208
12.66294             0.343911352     0.917215014   0.000323172772 -0.000152125761   0.000323172772 -0.000152125761       0.35152843     0.914225351
12.662968            0.344333965     0.917039048   0.000323666938 -0.000152557066   0.000323666938 -0.000152557066      0.351953705      0.91404413
12.662996            0.344756848     0.916862726   0.000324161946 -0.000152989642   0.000324161946 -0.000152989642      0.352379251     0.913862544
12.663024            0.345180002     0.916686046   0.000324657797 -0.000153423493   0.000324657797 -0.000153423493      0.352805066     0.913680592
12.663052            0.345603426     0.916509008   0.000325154492 -0.000153858623   0.000325154492 -0.000153858623      0.353231152     0.913498275
12.66308             0.346027121     0.916331611   0.000325652033 -0.000154295036   0.000325652032 -0.000154295036      0.353657508      0.91331559
12.663108            0.346451088     0.916153854   0.000326150421 -0.000154732737    0.00032615042 -0.000154732737      0.354084135     0.913132538
12.663136            0.346875325     0.915975737   0.000326649657 -0.000155171729   0.000326649657 -0.000155171729      0.354511033     0.912949118
12.663164            0.347299834     0.915797259   0.000327149743 -0.000155612016   0.000327149743 -0.000155612016      0.354938202     0.912765328
12.663192            0.347724615     0.915618419   0.000327650681 -0.000156053604   0.000327650681 -0.000156053604      0.355365643     0.912581168
12.66322             0.348149668     0.915439217   0.000328152471 -0.000156496495   0.000328152471 -0.000156496495      0.355793355     0.912396638
12.663248            0.348574994     0.915259651   0.000328655115 -0.000156940695   0.000328655115 -0.000156940695      0.356221339     0.912211736
12.663276            0.349000591     0.915079721   0.000329158615 -0.000157386207   0.000329158614 -0.000157386207      0.356649595     0.912026462
12.663304            0.349426461     0.914899427   0.000329662971 -0.000157833036   0.000329662971 -0.000157833036      0.357078124     0.911840815
12.663332            0.349852605     0.914718766   0.000330168185 -0.000158281185   0.000330168185 -0.000158281186      0.357506925     0.911654795
12.66336             0.350279021      0.91453774   0.000330674259 -0.000158730661   0.000330674259 -0.000158730661      0.357935998       0.9114684
12.663388             0.35070571     0.914356347   0.000331181194 -0.000159181465   0.000331181193 -0.000159181465      0.358365344      0.91128163
12.663416            0.351132673     0.914174586   0.000331688991 -0.000159633604    0.00033168899 -0.000159633604      0.358794963     0.911094484
12.663444             0.35155991     0.913992456   0.000332197651  -0.00016008708   0.000332197651  -0.00016008708      0.359224856     0.910906962
12.663472            0.351987421     0.913809957   0.000332707176   -0.0001605419   0.000332707176   -0.0001605419      0.359655022     0.910719061
12.6635              0.352415206     0.913627088   0.000333217568 -0.000160998066   0.000333217568 -0.000160998066      0.360085462     0.910530783
