! TOUCHSTONE file generated by CST MICROWAVE STUDIO
! Date and time: Wed Jul 31 18:43:26 2024
! Project name: WaveGuide_BPF-Ver4.1_U-shape_Ku_T3_C4_CWA_2.cst
! Parameters = {cavity_h=16; cavity_l0=10; cavity_l1=15.1861; cavity_l2=16.8547; cavity_l3=17.099; cavity_l4=17.303; cavity_l5=17.0959; cavity_l6=17.6141; cavity_r=2.5; cavity_screw_l=0.5; cavity_screw_r=1.5; cavity_w=8; iris_h00=0; iris_h01=8.8124; iris_h112=0; iris_h12=5.5943; iris_h211=3.6624; iris_h23=5.1913; iris_h310=3.9739; iris_h34=5.0905; iris_h45=4.9248; iris_h49=4.6309; iris_h56=4.7894; iris_h58=4.4464; iris_h67=6.5891; iris_rx=0.1; iris_screw_l=0.5; iris_screw_r=1.5; iris_shift00=0; iris_shift112=0; iris_shift211=3.5; iris_shift310=0; iris_shift49=0; iris_shift58=3.5; iris_shift67=3.5; iris_tx=4.5; iris_tz=4.5; iris_w00=0; iris_w112=0; iris_w211=4; iris_w310=3.9739; iris_w49=4.6309; iris_w58=4; iris_w67=4; mesh_cavity=5; mesh_iris=7; mesh_screw=7; order=12; reset_all=0; sigma=4.8e+07}
! Header version: 2018
! Port assignment regex: !\s*Touchstone port\s*([0-9]+)\s*=\s*(CST MWS port|CST DS port)\s*([0-9]+|Zmin|Zmax)\s*\(\"(.*)\"\)(\s*mode\s*([0-9]+))?.*
! Touchstone port assignment:
! Touchstone port 1 = CST MWS port 1 ("")
! Touchstone port 2 = CST MWS port 2 ("")
# GHz S RI R 50
12.66                0.260188225     0.947879102   0.000219997986 -7.62896551e-05   0.000219997986 -7.62896549e-05      0.254493505     0.949451001
12.660028            0.260550378     0.947767812    0.00022031297 -7.65001213e-05   0.000220312971 -7.65001211e-05      0.254856063     0.949341984
12.660056            0.260912819     0.947656277   0.000220628473 -7.67111593e-05   0.000220628473 -7.67111592e-05      0.255218761     0.949232762
12.660084            0.261275517     0.947544504   0.000220944494 -7.69227711e-05   0.000220944494 -7.69227709e-05      0.255581633     0.949123326
12.660112            0.261638441     0.947432501   0.000221261035 -7.71349584e-05   0.000221261035 -7.71349583e-05      0.255944711     0.949013668
12.66014              0.26200156     0.947320275   0.000221578096 -7.73477233e-05   0.000221578096 -7.73477231e-05      0.256308028     0.948903779
12.660168            0.262364875     0.947207827   0.000221895677 -7.75610673e-05   0.000221895677 -7.75610672e-05      0.256671584     0.948793657
12.660196            0.262728407     0.947095151   0.000222213781 -7.77749921e-05   0.000222213781 -7.77749919e-05      0.257035358     0.948683309
12.660224            0.263092155     0.946982246   0.000222532408 -7.79894994e-05   0.000222532408 -7.79894992e-05       0.25739935     0.948572733
12.660252             0.26345612     0.946869112   0.000222851558 -7.82045907e-05   0.000222851558 -7.82045905e-05       0.25776356      0.94846193
12.66028             0.263820301     0.946755748   0.000223171233 -7.84202679e-05   0.000223171233 -7.84202678e-05      0.258127988       0.9483509
12.660308              0.2641847     0.946642155   0.000223491434 -7.86365327e-05   0.000223491434 -7.86365325e-05      0.258492635     0.948239641
12.660336            0.264549317      0.94652833   0.000223812161 -7.88533868e-05   0.000223812161 -7.88533866e-05        0.2588575     0.948128153
12.660364            0.264914151     0.946414275   0.000224133416 -7.90708318e-05   0.000224133416 -7.90708316e-05      0.259222584     0.948016436
12.660392            0.265279202     0.946299989   0.000224455199 -7.92888696e-05   0.000224455199 -7.92888694e-05      0.259587887     0.947904489
12.66042             0.265644472      0.94618547   0.000224777511 -7.95075019e-05   0.000224777511 -7.95075017e-05      0.259953409     0.947792313
12.660448            0.266009959      0.94607072   0.000225100353 -7.97267304e-05   0.000225100353 -7.97267302e-05      0.260319151     0.947679906
12.660476            0.266375665     0.945955737   0.000225423726 -7.99465568e-05   0.000225423726 -7.99465566e-05      0.260685112     0.947567268
12.660504            0.266741589     0.945840521   0.000225747631  -8.0166983e-05   0.000225747631 -8.01669828e-05      0.261051293     0.947454399
12.660532            0.267107732     0.945725072   0.000226072069 -8.03880106e-05   0.000226072069 -8.03880104e-05      0.261417693     0.947341299
12.66056             0.267474094     0.945609389    0.00022639704 -8.06096414e-05   0.000226397041 -8.06096412e-05      0.261784314     0.947227966
12.660588            0.267840674     0.945493472   0.000226722547 -8.08318773e-05   0.000226722547 -8.08318771e-05      0.262151156     0.947114401
12.660616            0.268207474      0.94537732   0.000227048588 -8.10547199e-05   0.000227048589 -8.10547197e-05      0.262518217     0.947000603
12.660644            0.268574493     0.945260933   0.000227375167 -8.12781711e-05   0.000227375167 -8.12781709e-05        0.2628855     0.946886572
12.660672            0.268941732     0.945144311   0.000227702282 -8.15022326e-05   0.000227702282 -8.15022324e-05      0.263253003     0.946772307
12.6607               0.26930919     0.945027452   0.000228029936 -8.17269062e-05   0.000228029936  -8.1726906e-05      0.263620727     0.946657807
12.660728            0.269676868     0.944910358   0.000228358129 -8.19521938e-05   0.000228358129 -8.19521936e-05      0.263988673     0.946543074
12.660756            0.270044767     0.944793026   0.000228686863 -8.21780971e-05   0.000228686863 -8.21780969e-05      0.264356839     0.946428105
12.660784            0.270412886     0.944675458   0.000229016137 -8.24046179e-05   0.000229016137 -8.24046178e-05      0.264725228     0.946312901
12.660812            0.270781225     0.944557651   0.000229345953 -8.26317581e-05   0.000229345953 -8.26317579e-05      0.265093838      0.94619746
12.66084             0.271149784     0.944439607   0.000229676312 -8.28595195e-05   0.000229676313 -8.28595193e-05      0.265462671     0.946081784
12.660868            0.271518565     0.944321324   0.000230007215 -8.30879039e-05   0.000230007216 -8.30879037e-05      0.265831725     0.945965871
12.660896            0.271887567     0.944202802   0.000230338663  -8.3316913e-05   0.000230338663 -8.33169129e-05      0.266201002     0.945849721
12.660924             0.27225679     0.944084041   0.000230670657 -8.35465489e-05   0.000230670657 -8.35465487e-05      0.266570501     0.945733333
12.660952            0.272626234      0.94396504   0.000231003197 -8.37768133e-05   0.000231003197 -8.37768131e-05      0.266940223     0.945616707
12.66098               0.2729959     0.943845799   0.000231336284  -8.4007708e-05   0.000231336284 -8.40077078e-05      0.267310169     0.945499842
12.661008            0.273365787     0.943726317    0.00023166992 -8.42392349e-05    0.00023166992 -8.42392348e-05      0.267680337     0.945382739
12.661036            0.273735897     0.943606594   0.000232004106  -8.4471396e-05   0.000232004106 -8.44713958e-05      0.268050728     0.945265396
12.661064            0.274106229     0.943486629   0.000232338841 -8.47041929e-05   0.000232338841 -8.47041927e-05      0.268421343     0.945147814
12.661092            0.274476783     0.943366423   0.000232674128 -8.49376277e-05   0.000232674128 -8.49376275e-05      0.268792182     0.945029991
12.66112             0.274847559     0.943245974   0.000233009967 -8.51717022e-05   0.000233009968  -8.5171702e-05      0.269163244     0.944911928
12.661148            0.275218558     0.943125282    0.00023334636 -8.54064182e-05    0.00023334636  -8.5406418e-05      0.269534531     0.944793624
12.661176             0.27558978     0.943004347   0.000233683306 -8.56417777e-05   0.000233683306 -8.56417775e-05      0.269906042     0.944675078
12.661204            0.275961226     0.942883168   0.000234020807 -8.58777826e-05   0.000234020807 -8.58777824e-05      0.270277777      0.94455629
12.661232            0.276332894     0.942761745   0.000234358865 -8.61144347e-05   0.000234358865 -8.61144345e-05      0.270649737      0.94443726
12.66126             0.276704786     0.942640077   0.000234697479 -8.63517361e-05   0.000234697479 -8.63517359e-05      0.271021922     0.944317987
12.661288            0.277076901     0.942518164   0.000235036651 -8.65896885e-05   0.000235036651 -8.65896883e-05      0.271394332     0.944198471
12.661316            0.277449241     0.942396006   0.000235376381 -8.68282939e-05   0.000235376382 -8.68282937e-05      0.271766967     0.944078711
12.661344            0.277821804     0.942273601   0.000235716672 -8.70675543e-05   0.000235716672 -8.70675541e-05      0.272139827     0.943958706
12.661372            0.278194592      0.94215095   0.000236057523 -8.73074715e-05   0.000236057523 -8.73074713e-05      0.272512913     0.943838457
12.6614              0.278567603     0.942028053   0.000236398936 -8.75480475e-05   0.000236398936 -8.75480474e-05      0.272886225     0.943717963
12.661428             0.27894084     0.941904908   0.000236740911 -8.77892844e-05   0.000236740911 -8.77892842e-05      0.273259762     0.943597224
12.661456            0.279314301     0.941781515    0.00023708345 -8.80311839e-05    0.00023708345 -8.80311837e-05      0.273633526     0.943476238
12.661484            0.279687987     0.941657874   0.000237426553 -8.82737481e-05   0.000237426553 -8.82737479e-05      0.274007516     0.943355006
12.661512            0.280061899     0.941533984   0.000237770221 -8.85169789e-05   0.000237770221 -8.85169787e-05      0.274381733     0.943233528
12.66154             0.280436035     0.941409845   0.000238114456 -8.87608783e-05   0.000238114456 -8.87608781e-05      0.274756177     0.943111802
12.661568            0.280810397     0.941285457   0.000238459258 -8.90054483e-05   0.000238459259 -8.90054481e-05      0.275130847     0.942989828
12.661596            0.281184985     0.941160818   0.000238804629 -8.92506909e-05   0.000238804629 -8.92506907e-05      0.275505744     0.942867605
12.661624            0.281559799     0.941035929   0.000239150569  -8.9496608e-05   0.000239150569 -8.94966078e-05      0.275880869     0.942745135
12.661652            0.281934839     0.940910789   0.000239497079 -8.97432017e-05   0.000239497079 -8.97432015e-05      0.276256222     0.942622414
12.66168             0.282310105     0.940785398    0.00023984416 -8.99904739e-05    0.00023984416 -8.99904737e-05      0.276631802     0.942499445
12.661708            0.282685597     0.940659754   0.000240191813 -9.02384267e-05   0.000240191813 -9.02384265e-05      0.277007609     0.942376225
12.661736            0.283061316     0.940533859   0.000240540039  -9.0487062e-05   0.000240540039 -9.04870619e-05      0.277383645     0.942252755
12.661764            0.283437262      0.94040771   0.000240888839  -9.0736382e-05   0.000240888839 -9.07363818e-05       0.27775991     0.942129034
12.661792            0.283813435     0.940281308   0.000241238214 -9.09863886e-05   0.000241238214 -9.09863884e-05      0.278136402     0.942005061
12.66182             0.284189835     0.940154653   0.000241588165 -9.12370838e-05   0.000241588165 -9.12370837e-05      0.278513123     0.941880836
12.661848            0.284566463     0.940027743   0.000241938693 -9.14884698e-05   0.000241938694 -9.14884696e-05      0.278890074     0.941756359
12.661876            0.284943318     0.939900578   0.000242289799 -9.17405485e-05   0.000242289799 -9.17405483e-05      0.279267253     0.941631629
12.661904            0.285320401     0.939773159   0.000242641484  -9.1993322e-05   0.000242641484 -9.19933218e-05      0.279644661     0.941506646
12.661932            0.285697712     0.939645483   0.000242993749 -9.22467923e-05   0.000242993749 -9.22467922e-05      0.280022299     0.941381409
12.66196             0.286075251     0.939517552   0.000243346594 -9.25009616e-05   0.000243346594 -9.25009615e-05      0.280400166     0.941255918
12.661988            0.286453019     0.939389364   0.000243700021 -9.27558319e-05   0.000243700021 -9.27558318e-05      0.280778264     0.941130172
12.662016            0.286831014     0.939260919   0.000244054031 -9.30114053e-05   0.000244054031 -9.30114051e-05      0.281156591     0.941004171
12.662044            0.287209239     0.939132216   0.000244408624 -9.32676839e-05   0.000244408625 -9.32676837e-05      0.281535148     0.940877914
12.662072            0.287587693     0.939003256   0.000244763803 -9.35246697e-05   0.000244763803 -9.35246695e-05      0.281913936     0.940751401
12.6621              0.287966375     0.938874037   0.000245119566 -9.37823649e-05   0.000245119567 -9.37823647e-05      0.282292955     0.940624631
12.662128            0.288345287     0.938744559   0.000245475917 -9.40407716e-05   0.000245475917 -9.40407714e-05      0.282672204     0.940497604
12.662156            0.288724429     0.938614821   0.000245832855 -9.42998919e-05   0.000245832855 -9.42998917e-05      0.283051684      0.94037032
12.662184              0.2891038     0.938484824   0.000246190382 -9.45597279e-05   0.000246190382 -9.45597277e-05      0.283431395     0.940242778
12.662212            0.289483401     0.938354567   0.000246548498 -9.48202817e-05   0.000246548498 -9.48202815e-05      0.283811338     0.940114977
12.66224             0.289863232     0.938224048   0.000246907205 -9.50815555e-05   0.000246907205 -9.50815553e-05      0.284191512     0.939986917
12.662268            0.290243294     0.938093268   0.000247266503 -9.53435514e-05   0.000247266503 -9.53435512e-05      0.284571918     0.939858597
12.662296            0.290623585     0.937962226   0.000247626394 -9.56062716e-05   0.000247626394 -9.56062714e-05      0.284952556     0.939730018
12.662324            0.291004108     0.937830922   0.000247986878 -9.58697182e-05   0.000247986879  -9.5869718e-05      0.285333426     0.939601178
12.662352            0.291384861     0.937699356   0.000248347957 -9.61338934e-05   0.000248347957 -9.61338932e-05      0.285714528     0.939472078
12.66238             0.291765845     0.937567526   0.000248709632 -9.63987993e-05   0.000248709632 -9.63987991e-05      0.286095863     0.939342716
12.662408            0.292147061     0.937435432   0.000249071902 -9.66644382e-05   0.000249071903  -9.6664438e-05      0.286477431     0.939213092
12.662436            0.292528508     0.937303074   0.000249434771 -9.69308122e-05   0.000249434771  -9.6930812e-05      0.286859231     0.939083205
12.662464            0.292910186     0.937170451   0.000249798237 -9.71979235e-05   0.000249798238 -9.71979233e-05      0.287241265     0.938953056
12.662492            0.293292096     0.937037562   0.000250162304 -9.74657742e-05   0.000250162304 -9.74657741e-05      0.287623531     0.938822643
12.66252             0.293674239     0.936904409    0.00025052697 -9.77343667e-05    0.00025052697 -9.77343666e-05      0.288006032     0.938691967
12.662548            0.294056613     0.936770989   0.000250892238 -9.80037031e-05   0.000250892238  -9.8003703e-05      0.288388766     0.938561026
12.662576             0.29443922     0.936637302   0.000251258109 -9.82737857e-05   0.000251258109 -9.82737855e-05      0.288771734      0.93842982
12.662604            0.294822059     0.936503348   0.000251624583 -9.85446166e-05   0.000251624583 -9.85446164e-05      0.289154936     0.938298349
12.662632            0.295205131     0.936369126   0.000251991661 -9.88161981e-05   0.000251991661 -9.88161979e-05      0.289538372     0.938166612
12.66266             0.295588436     0.936234636   0.000252359345 -9.90885324e-05   0.000252359345 -9.90885322e-05      0.289922043     0.938034609
12.662688            0.295971974     0.936099877   0.000252727635 -9.93616218e-05   0.000252727635 -9.93616217e-05      0.290305949     0.937902339
12.662716            0.296355746     0.935964849   0.000253096532 -9.96354686e-05   0.000253096532 -9.96354684e-05      0.290690089     0.937769801
12.662744            0.296739751     0.935829552   0.000253466038  -9.9910075e-05   0.000253466038 -9.99100748e-05      0.291074464     0.937636996
12.662772            0.297123989     0.935693984   0.000253836154 -0.000100185443   0.000253836154 -0.000100185443      0.291459075     0.937503923
12.6628              0.297508462     0.935558145   0.000254206879 -0.000100461576   0.000254206879 -0.000100461575      0.291843921      0.93737058
12.662828            0.297893169     0.935422035   0.000254578217 -0.000100738474   0.000254578217 -0.000100738474      0.292229003     0.937236969
12.662856            0.298278109     0.935285654   0.000254950166 -0.000101016142   0.000254950166 -0.000101016142       0.29261432     0.937103087
12.662884            0.298663285        0.935149   0.000255322729  -0.00010129458   0.000255322729  -0.00010129458      0.292999874     0.936968935
12.662912            0.299048695     0.935012074   0.000255695907 -0.000101573792   0.000255695907 -0.000101573792      0.293385664     0.936834513
12.66294              0.29943434     0.934874874     0.0002560697  -0.00010185378     0.0002560697  -0.00010185378       0.29377169     0.936699819
12.662968             0.29982022       0.9347374   0.000256444109 -0.000102134545   0.000256444109 -0.000102134545      0.294157953     0.936564853
12.662996            0.300206335     0.934599652   0.000256819136 -0.000102416091   0.000256819136 -0.000102416091      0.294544453     0.936429615
12.663024            0.300592686      0.93446163   0.000257194782 -0.000102698419   0.000257194782 -0.000102698419       0.29493119     0.936294103
12.663052            0.300979272     0.934323332   0.000257571047 -0.000102981533   0.000257571047 -0.000102981532      0.295318164     0.936158319
12.66308             0.301366095     0.934184758   0.000257947932 -0.000103265433   0.000257947932 -0.000103265433      0.295705375      0.93602226
12.663108            0.301753153     0.934045908   0.000258325439 -0.000103550124   0.000258325439 -0.000103550123      0.296092825     0.935885928
12.663136            0.302140447     0.933906781   0.000258703569 -0.000103835606   0.000258703569 -0.000103835606      0.296480511      0.93574932
12.663164            0.302527978     0.933767377   0.000259082322 -0.000104121883   0.000259082322 -0.000104121883      0.296868436     0.935612437
12.663192            0.302915746     0.933627695   0.000259461699 -0.000104408956     0.0002594617 -0.000104408956        0.2972566     0.935475277
12.66322              0.30330375     0.933487734   0.000259841703 -0.000104696829   0.000259841703 -0.000104696829      0.297645001     0.935337842
12.663248            0.303691991     0.933347494   0.000260222333 -0.000104985504   0.000260222333 -0.000104985503      0.298033641     0.935200129
12.663276             0.30408047     0.933206975    0.00026060359 -0.000105274982    0.00026060359 -0.000105274982       0.29842252     0.935062139
12.663304            0.304469186     0.933066176   0.000260985476 -0.000105565267   0.000260985477 -0.000105565267      0.298811638      0.93492387
12.663332            0.304858139     0.932925097   0.000261367992  -0.00010585636   0.000261367993  -0.00010585636      0.299200995     0.934785324
12.66336              0.30524733     0.932783736   0.000261751139 -0.000106148265   0.000261751139 -0.000106148265      0.299590592     0.934646498
12.663388             0.30563676     0.932642094   0.000262134917 -0.000106440984   0.000262134918 -0.000106440984      0.299980428     0.934507392
12.663416            0.306026427      0.93250017   0.000262519329 -0.000106734518   0.000262519329 -0.000106734518      0.300370504     0.934368006
12.663444            0.306416333     0.932357963   0.000262904374 -0.000107028872   0.000262904374 -0.000107028871       0.30076082      0.93422834
12.663472            0.306806477     0.932215473   0.000263290053 -0.000107324046   0.000263290054 -0.000107324046      0.301151376     0.934088392
12.6635               0.30719686     0.932072699   0.000263676369 -0.000107620044   0.000263676369 -0.000107620044      0.301542173     0.933948163
