! TOUCHSTONE file generated by CST MICROWAVE STUDIO
! Date and time: Wed Jul 31 18:56:11 2024
! Project name: WaveGuide_BPF-Ver4.1_U-shape_Ku_T3_C4_CWA_2.cst
! Parameters = {cavity_h=16; cavity_l0=10; cavity_l1=15.2197; cavity_l2=16.8706; cavity_l3=17.0699; cavity_l4=17.2404; cavity_l5=17.1632; cavity_l6=17.5843; cavity_r=2.5; cavity_screw_l=0.5; cavity_screw_r=1.5; cavity_w=8; iris_h00=0; iris_h01=8.8323; iris_h112=0; iris_h12=5.5909; iris_h211=3.6538; iris_h23=5.2028; iris_h310=3.9799; iris_h34=5.0695; iris_h45=4.9249; iris_h49=4.6214; iris_h56=4.8015; iris_h58=4.4431; iris_h67=6.5815; iris_rx=0.1; iris_screw_l=0.5; iris_screw_r=1.5; iris_shift00=0; iris_shift112=0; iris_shift211=3.5; iris_shift310=0; iris_shift49=0; iris_shift58=3.5; iris_shift67=3.5; iris_tx=4.5; iris_tz=4.5; iris_w00=0; iris_w112=0; iris_w211=4; iris_w310=3.9799; iris_w49=4.6214; iris_w58=4; iris_w67=4; mesh_cavity=5; mesh_iris=7; mesh_screw=7; order=12; reset_all=0; sigma=4.8e+07}
! Header version: 2018
! Port assignment regex: !\s*Touchstone port\s*([0-9]+)\s*=\s*(CST MWS port|CST DS port)\s*([0-9]+|Zmin|Zmax)\s*\(\"(.*)\"\)(\s*mode\s*([0-9]+))?.*
! Touchstone port assignment:
! Touchstone port 1 = CST MWS port 1 ("")
! Touchstone port 2 = CST MWS port 2 ("")
# GHz S RI R 50
12.66                0.447995294     0.867254286   0.000340122394 -0.000213530034   0.000340122394 -0.000213530034      0.458026942       0.8617972
12.660028            0.448466408     0.866988434   0.000340604499  -0.00021411251   0.000340604499  -0.00021411251       0.45850035     0.861522625
12.660056            0.448937731     0.866722104   0.000341087271 -0.000214696648   0.000341087271 -0.000214696648      0.458974031     0.861247523
12.660084            0.449409283     0.866455284    0.00034157071 -0.000215282456    0.00034157071 -0.000215282456      0.459447977     0.860971897
12.660112            0.449881085     0.866187963   0.000342054813 -0.000215869938   0.000342054813 -0.000215869938      0.459922181     0.860695752
12.66014             0.450353156      0.86592013   0.000342539577 -0.000216459103   0.000342539577 -0.000216459103      0.460396633     0.860419091
12.660168            0.450825496     0.865651783   0.000343025004 -0.000217049956   0.000343025004 -0.000217049956      0.460871333     0.860141912
12.660196            0.451298093      0.86538293   0.000343511094 -0.000217642499   0.000343511095 -0.000217642499      0.461346287     0.859864212
12.660224            0.451770946     0.865113568    0.00034399785  -0.00021823674    0.00034399785  -0.00021823674      0.461821495      0.85958599
12.660252            0.452244054     0.864843697    0.00034448527 -0.000218832683    0.00034448527 -0.000218832683      0.462296957     0.859307244
12.66028             0.452717419     0.864573316   0.000344973355 -0.000219430333   0.000344973355 -0.000219430333      0.462772674     0.859027974
12.660308            0.453191041     0.864302424   0.000345462105 -0.000220029696   0.000345462105 -0.000220029696      0.463248644     0.858748179
12.660336            0.453664918     0.864031019   0.000345951522 -0.000220630777   0.000345951522 -0.000220630777      0.463724868     0.858467858
12.660364            0.454139051     0.863759102   0.000346441604 -0.000221233581   0.000346441604 -0.000221233581      0.464201347      0.85818701
12.660392            0.454613441      0.86348667   0.000346932353 -0.000221838113   0.000346932353 -0.000221838113      0.464678079     0.857905633
12.66042             0.455088087     0.863213724   0.000347423768  -0.00022244438   0.000347423768  -0.00022244438      0.465155066     0.857623727
12.660448            0.455562989     0.862940261    0.00034791585 -0.000223052386   0.000347915851 -0.000223052386      0.465632306      0.85734129
12.660476            0.456038148     0.862666281     0.0003484086 -0.000223662136     0.0003484086 -0.000223662136      0.466109801     0.857058322
12.660504            0.456513563     0.862391783   0.000348902017 -0.000224273637   0.000348902017 -0.000224273637       0.46658755     0.856774822
12.660532            0.456989234     0.862116766   0.000349396102 -0.000224886893   0.000349396102 -0.000224886893      0.467065552     0.856490789
12.66056             0.457465161      0.86184123   0.000349890855  -0.00022550191   0.000349890855  -0.00022550191      0.467543809     0.856206221
12.660588            0.457941345     0.861565172   0.000350386276 -0.000226118693   0.000350386276 -0.000226118693       0.46802232     0.855921118
12.660616            0.458417785     0.861288592   0.000350882366 -0.000226737248   0.000350882366 -0.000226737248      0.468501085     0.855635478
12.660644            0.458894482     0.861011489   0.000351379125 -0.000227357581   0.000351379125 -0.000227357581      0.468980104     0.855349301
12.660672            0.459371435     0.860733862   0.000351876553 -0.000227979696   0.000351876553 -0.000227979696      0.469459378     0.855062586
12.6607              0.459848644      0.86045571    0.00035237465   -0.0002286036   0.000352374651   -0.0002286036      0.469938905     0.854775331
12.660728             0.46032611     0.860177032   0.000352873417 -0.000229229298   0.000352873418 -0.000229229298      0.470418686     0.854487535
12.660756            0.460803833     0.859897827   0.000353372854 -0.000229856796   0.000353372854 -0.000229856796      0.470898721     0.854199198
12.660784            0.461281811     0.859618094   0.000353872961 -0.000230486098   0.000353872961 -0.000230486098      0.471379011     0.853910318
12.660812            0.461760046     0.859337831   0.000354373738 -0.000231117212   0.000354373739 -0.000231117212      0.471859554     0.853620894
12.66084             0.462238538     0.859057039   0.000354875186 -0.000231750141   0.000354875186 -0.000231750141      0.472340351     0.853330926
12.660868            0.462717286     0.858775716   0.000355377305 -0.000232384893   0.000355377305 -0.000232384893      0.472821403     0.853040412
12.660896             0.46319629      0.85849386   0.000355880095 -0.000233021472   0.000355880095 -0.000233021472      0.473302708     0.852749351
12.660924            0.463675551     0.858211471   0.000356383555 -0.000233659885   0.000356383556 -0.000233659885      0.473784267     0.852457742
12.660952            0.464155069     0.857928548   0.000356887688 -0.000234300137   0.000356887688 -0.000234300137      0.474266081     0.852165584
12.66098             0.464634843      0.85764509   0.000357392491 -0.000234942233   0.000357392492 -0.000234942233      0.474748148     0.851872876
12.661008            0.465114873     0.857361096   0.000357897967  -0.00023558618   0.000357897967  -0.00023558618      0.475230469     0.851579618
12.661036             0.46559516     0.857076564   0.000358404115 -0.000236231983   0.000358404115 -0.000236231983      0.475713044     0.851285807
12.661064            0.466075703     0.856791494   0.000358910935 -0.000236879648   0.000358910935 -0.000236879648      0.476195873     0.850991443
12.661092            0.466556503     0.856505885   0.000359418427 -0.000237529181   0.000359418427 -0.000237529181      0.476678956     0.850696524
12.66112             0.467037559     0.856219735   0.000359926591 -0.000238180588   0.000359926592 -0.000238180588      0.477162292     0.850401051
12.661148            0.467518872     0.855933044   0.000360435429 -0.000238833874   0.000360435429 -0.000238833874      0.477645883     0.850105021
12.661176            0.468000441     0.855645811   0.000360944939 -0.000239489045   0.000360944939 -0.000239489045      0.478129727     0.849808433
12.661204            0.468482267     0.855358033   0.000361455122 -0.000240146108   0.000361455122 -0.000240146108      0.478613825     0.849511287
12.661232            0.468964349     0.855069712   0.000361965978 -0.000240805068   0.000361965979 -0.000240805068      0.479098177     0.849213582
12.66126             0.469446688     0.854780844   0.000362477508  -0.00024146593   0.000362477508  -0.00024146593      0.479582782     0.848915315
12.661288            0.469929282      0.85449143   0.000362989711 -0.000242128702   0.000362989711 -0.000242128702      0.480067642     0.848616487
12.661316            0.470412134     0.854201469   0.000363502588 -0.000242793388   0.000363502588 -0.000242793388      0.480552755     0.848317096
12.661344            0.470895242     0.853910958   0.000364016138 -0.000243459995   0.000364016138 -0.000243459995      0.481038121     0.848017141
12.661372            0.471378606     0.853619898   0.000364530362 -0.000244128529   0.000364530362 -0.000244128529      0.481523741     0.847716622
12.6614              0.471862227     0.853328287    0.00036504526 -0.000244798996    0.00036504526 -0.000244798996      0.482009615     0.847415536
12.661428            0.472346104     0.853036123   0.000365560832 -0.000245471402   0.000365560832 -0.000245471402      0.482495742     0.847113882
12.661456            0.472830237     0.852743407   0.000366077078 -0.000246145752   0.000366077078 -0.000246145752      0.482982123     0.846811661
12.661484            0.473314627     0.852450137   0.000366593999 -0.000246822054   0.000366593999 -0.000246822054      0.483468757      0.84650887
12.661512            0.473799273     0.852156311   0.000367111593 -0.000247500312   0.000367111593 -0.000247500312      0.483955645     0.846205508
12.66154             0.474284175     0.851861929   0.000367629862 -0.000248180534   0.000367629862 -0.000248180534      0.484442786     0.845901575
12.661568            0.474769334      0.85156699   0.000368148806 -0.000248862725   0.000368148806 -0.000248862725       0.48493018     0.845597069
12.661596            0.475254749     0.851271493   0.000368668424 -0.000249546891   0.000368668424 -0.000249546891      0.485417828      0.84529199
12.661624             0.47574042     0.850975435   0.000369188716  -0.00025023304   0.000369188716  -0.00025023304      0.485905729     0.844986335
12.661652            0.476226347     0.850678818   0.000369709684 -0.000250921175   0.000369709684 -0.000250921175      0.486393883     0.844680104
12.66168             0.476712531     0.850381638   0.000370231325 -0.000251611305   0.000370231326 -0.000251611305      0.486882291     0.844373296
12.661708            0.477198971     0.850083896   0.000370753642 -0.000252303436   0.000370753642 -0.000252303436      0.487370952      0.84406591
12.661736            0.477685667      0.84978559   0.000371276633 -0.000252997572   0.000371276634 -0.000252997572      0.487859865     0.843757945
12.661764            0.478172619      0.84948672     0.0003718003 -0.000253693722     0.0003718003 -0.000253693722      0.488349032     0.843449398
12.661792            0.478659827     0.849187283   0.000372324641  -0.00025439189   0.000372324641  -0.00025439189      0.488838452     0.843140271
12.66182             0.479147292     0.848887279   0.000372849656 -0.000255092084   0.000372849657 -0.000255092084      0.489328125      0.84283056
12.661848            0.479635012     0.848586706   0.000373375347  -0.00025579431   0.000373375347  -0.00025579431      0.489818051     0.842520265
12.661876            0.480122989     0.848285565   0.000373901713 -0.000256498574   0.000373901713 -0.000256498574      0.490308229     0.842209386
12.661904            0.480611221     0.847983853   0.000374428753 -0.000257204882   0.000374428753 -0.000257204882      0.490798661      0.84189792
12.661932             0.48109971     0.847681569   0.000374956468 -0.000257913241   0.000374956468 -0.000257913241      0.491289345     0.841585867
12.66196             0.481588454     0.847378713   0.000375484858 -0.000258623657   0.000375484858 -0.000258623657      0.491780282     0.841273225
12.661988            0.482077454     0.847075283   0.000376013923 -0.000259336138   0.000376013923 -0.000259336138      0.492271472     0.840959994
12.662016             0.48256671     0.846771278   0.000376543662 -0.000260050688   0.000376543663 -0.000260050688      0.492762914     0.840646172
12.662044            0.483056222     0.846466697   0.000377074077 -0.000260767315   0.000377074077 -0.000260767315      0.493254609     0.840331758
12.662072             0.48354599     0.846161539   0.000377605165 -0.000261486025   0.000377605166 -0.000261486025      0.493746556     0.840016751
12.6621              0.484036014     0.845855803   0.000378136929 -0.000262206825   0.000378136929 -0.000262206825      0.494238756     0.839701149
12.662128            0.484526293     0.845549487   0.000378669367 -0.000262929721   0.000378669367 -0.000262929721      0.494731208     0.839384953
12.662156            0.485016828     0.845242591   0.000379202479  -0.00026365472   0.000379202479  -0.00026365472      0.495223912     0.839068159
12.662184            0.485507619     0.844935113   0.000379736266 -0.000264381829   0.000379736266 -0.000264381829      0.495716869     0.838750769
12.662212            0.485998665     0.844627052   0.000380270727 -0.000265111053   0.000380270727 -0.000265111053      0.496210077     0.838432779
12.66224             0.486489967     0.844318408   0.000380805862 -0.000265842401   0.000380805863 -0.000265842401      0.496703538     0.838114189
12.662268            0.486981524     0.844009178   0.000381341672 -0.000266575877   0.000381341672 -0.000266575877      0.497197251     0.837794998
12.662296            0.487473336     0.843699362   0.000381878155  -0.00026731149   0.000381878155  -0.00026731149      0.497691216     0.837475205
12.662324            0.487965405     0.843388959   0.000382415313 -0.000268049245   0.000382415313 -0.000268049245      0.498185433     0.837154808
12.662352            0.488457728     0.843077968   0.000382953144  -0.00026878915   0.000382953144  -0.00026878915      0.498679901     0.836833806
12.66238             0.488950307     0.842766387   0.000383491648 -0.000269531211   0.000383491648 -0.000269531211      0.499174622     0.836512198
12.662408            0.489443141     0.842454215   0.000384030826 -0.000270275435   0.000384030826 -0.000270275435      0.499669594     0.836189984
12.662436             0.48993623     0.842141451   0.000384570678 -0.000271021829   0.000384570678 -0.000271021829      0.500164817     0.835867161
12.662464            0.490429574     0.841828094   0.000385111202   -0.0002717704   0.000385111203   -0.0002717704      0.500660293     0.835543728
12.662492            0.490923174     0.841514143     0.0003856524 -0.000272521154     0.0003856524 -0.000272521154      0.501156019     0.835219685
12.66252             0.491417028     0.841199596    0.00038619427 -0.000273274098   0.000386194271 -0.000273274098      0.501651997      0.83489503
12.662548            0.491911138     0.840884453   0.000386736814  -0.00027402924   0.000386736814  -0.00027402924      0.502148227     0.834569762
12.662576            0.492405502     0.840568712   0.000387280029 -0.000274786585   0.000387280029 -0.000274786585      0.502644707      0.83424388
12.662604            0.492900121     0.840252373   0.000387823917 -0.000275546142   0.000387823917 -0.000275546142      0.503141439     0.833917382
12.662632            0.493394995     0.839935433   0.000388368477 -0.000276307917   0.000388368477 -0.000276307917      0.503638421     0.833590268
12.66266             0.493890124     0.839617892   0.000388913708 -0.000277071916   0.000388913708 -0.000277071916      0.504135655     0.833262536
12.662688            0.494385508     0.839299748   0.000389459612 -0.000277838148   0.000389459612 -0.000277838148      0.504633139     0.832934185
12.662716            0.494881146     0.838981001   0.000390006186 -0.000278606619   0.000390006186 -0.000278606619      0.505130874     0.832605213
12.662744            0.495377038      0.83866165   0.000390553432 -0.000279377336   0.000390553432 -0.000279377336       0.50562886      0.83227562
12.662772            0.495873185     0.838341692   0.000391101349 -0.000280150306   0.000391101349 -0.000280150306      0.506127097     0.831945405
12.6628              0.496369587     0.838021127   0.000391649936 -0.000280925536   0.000391649936 -0.000280925536      0.506625584     0.831614565
12.662828            0.496866243     0.837699954   0.000392199194 -0.000281703033   0.000392199194 -0.000281703033      0.507124321       0.8312831
12.662856            0.497363153     0.837378171   0.000392749121 -0.000282482806   0.000392749121 -0.000282482806      0.507623309     0.830951009
12.662884            0.497860317     0.837055777   0.000393299719 -0.000283264859   0.000393299719 -0.000283264859      0.508122547     0.830618291
12.662912            0.498357736     0.836732772   0.000393850986 -0.000284049202   0.000393850986 -0.000284049202      0.508622035     0.830284943
12.66294             0.498855408     0.836409153   0.000394402922 -0.000284835841   0.000394402922 -0.000284835841      0.509121773     0.829950965
12.662968            0.499353335      0.83608492   0.000394955527 -0.000285624783   0.000394955527 -0.000285624783      0.509621761     0.829616357
12.662996            0.499851515     0.835760072   0.000395508801 -0.000286416035   0.000395508801 -0.000286416035      0.510121999     0.829281115
12.663024            0.500349949     0.835434607   0.000396062742 -0.000287209606   0.000396062743 -0.000287209606      0.510622486      0.82894524
12.663052            0.500848637     0.835108524   0.000396617352 -0.000288005502   0.000396617352 -0.000288005502      0.511123223      0.82860873
12.66308             0.501347578     0.834781822   0.000397172629  -0.00028880373    0.00039717263  -0.00028880373       0.51162421     0.828271583
12.663108            0.501846773     0.834454499   0.000397728574 -0.000289604298   0.000397728574 -0.000289604298      0.512125446     0.827933799
12.663136            0.502346222     0.834126555   0.000398285185 -0.000290407213   0.000398285185 -0.000290407213      0.512626931     0.827595377
12.663164            0.502845924     0.833797988   0.000398842462 -0.000291212484   0.000398842463 -0.000291212484      0.513128666     0.827256314
12.663192            0.503345879     0.833468797   0.000399400406 -0.000292020116   0.000399400406 -0.000292020116      0.513630649      0.82691661
12.66322             0.503846087      0.83313898   0.000399959015 -0.000292830118   0.000399959015 -0.000292830118      0.514132881     0.826576263
12.663248            0.504346549     0.832808537   0.000400518289 -0.000293642497    0.00040051829 -0.000293642497      0.514635363     0.826235273
12.663276            0.504847264     0.832477467   0.000401078229  -0.00029445726   0.000401078229  -0.00029445726      0.515138093     0.825893637
12.663304            0.505348231     0.832145767   0.000401638832 -0.000295274416   0.000401638832 -0.000295274416      0.515641071     0.825551355
12.663332            0.505849451     0.831813437   0.000402200099 -0.000296093971     0.0004022001 -0.000296093971      0.516144298     0.825208426
12.66336             0.506350925     0.831480476    0.00040276203 -0.000296915934    0.00040276203 -0.000296915934      0.516647773     0.824864848
12.663388             0.50685265     0.831146882   0.000403324624 -0.000297740312   0.000403324624 -0.000297740312      0.517151497     0.824520619
12.663416            0.507354629     0.830812654    0.00040388788 -0.000298567112   0.000403887881 -0.000298567112      0.517655468     0.824175739
12.663444            0.507856859     0.830477791   0.000404451799 -0.000299396342   0.000404451799 -0.000299396342      0.518159688     0.823830206
12.663472            0.508359343     0.830142292   0.000405016379  -0.00030022801   0.000405016379  -0.00030022801      0.518664155      0.82348402
12.6635              0.508862078     0.829806155    0.00040558162 -0.000301062124    0.00040558162 -0.000301062124       0.51916887     0.823137178
