! TOUCHSTONE file generated by CST MICROWAVE STUDIO
! Date and time: Wed Jul 31 18:59:17 2024
! Project name: WaveGuide_BPF-Ver4.1_U-shape_Ku_T3_C4_CWA_2.cst
! Parameters = {cavity_h=16; cavity_l0=10; cavity_l1=15.19; cavity_l2=16.8274; cavity_l3=17.1; cavity_l4=17.2456; cavity_l5=17.1289; cavity_l6=17.5828; cavity_r=2.5; cavity_screw_l=0.5; cavity_screw_r=1.5; cavity_w=8; iris_h00=0; iris_h01=8.8168; iris_h112=0; iris_h12=5.6062; iris_h211=3.6525; iris_h23=5.2046; iris_h310=3.976; iris_h34=5.0683; iris_h45=4.935; iris_h49=4.613; iris_h56=4.7953; iris_h58=4.4317; iris_h67=6.5883; iris_rx=0.1; iris_screw_l=0.5; iris_screw_r=1.5; iris_shift00=0; iris_shift112=0; iris_shift211=3.5; iris_shift310=0; iris_shift49=0; iris_shift58=3.5; iris_shift67=3.5; iris_tx=4.5; iris_tz=4.5; iris_w00=0; iris_w112=0; iris_w211=4; iris_w310=3.976; iris_w49=4.613; iris_w58=4; iris_w67=4; mesh_cavity=5; mesh_iris=7; mesh_screw=7; order=12; reset_all=0; sigma=4.8e+07}
! Header version: 2018
! Port assignment regex: !\s*Touchstone port\s*([0-9]+)\s*=\s*(CST MWS port|CST DS port)\s*([0-9]+|Zmin|Zmax)\s*\(\"(.*)\"\)(\s*mode\s*([0-9]+))?.*
! Touchstone port assignment:
! Touchstone port 1 = CST MWS port 1 ("")
! Touchstone port 2 = CST MWS port 2 ("")
# GHz S RI R 50
12.66                0.288901765     0.938735881    0.00019374712 -7.38029187e-05    0.00019374712 -7.38029185e-05      0.287239495      0.93944004
12.660028            0.289277486     0.938607799    0.00019400764 -7.39963781e-05    0.00019400764  -7.3996378e-05      0.287611061     0.939314192
12.660056            0.289653401     0.938479473   0.000194268557 -7.41903296e-05   0.000194268557 -7.41903295e-05      0.287982759     0.939188123
12.660084            0.290029519     0.938350901    0.00019452987 -7.43847783e-05    0.00019452987 -7.43847781e-05      0.288354623     0.939061824
12.660112            0.290405849      0.93822208   0.000194791576 -7.45797292e-05   0.000194791576 -7.45797291e-05      0.288726688     0.938935284
12.66014             0.290782398     0.938093007   0.000195053673 -7.47751875e-05   0.000195053673 -7.47751874e-05      0.289098985     0.938808493
12.660168            0.291159166     0.937963681   0.000195316161 -7.49711546e-05   0.000195316161 -7.49711545e-05      0.289471517      0.93868145
12.660196            0.291536149     0.937834103   0.000195579042 -7.51676295e-05   0.000195579042 -7.51676294e-05       0.28984426     0.938554161
12.660224            0.291913347     0.937704274   0.000195842318 -7.53646134e-05   0.000195842318 -7.53646133e-05      0.290217215     0.938426625
12.660252            0.292290759     0.937574193   0.000196105989 -7.55621079e-05   0.000196105989 -7.55621078e-05      0.290590382     0.938298844
12.66028             0.292668386     0.937443859   0.000196370056 -7.57601144e-05   0.000196370056 -7.57601143e-05      0.290963761     0.938170815
12.660308            0.293046228     0.937313271   0.000196634519 -7.59586342e-05   0.000196634518 -7.59586341e-05      0.291337352      0.93804254
12.660336            0.293424285     0.937182431   0.000196899378 -7.61576688e-05   0.000196899378 -7.61576687e-05      0.291711155     0.937914016
12.660364            0.293802557     0.937051336   0.000197164634 -7.63572196e-05   0.000197164634 -7.63572195e-05      0.292085171     0.937785244
12.660392            0.294181044     0.936919987   0.000197430289  -7.6557288e-05   0.000197430289 -7.65572879e-05      0.292459399     0.937656224
12.66042             0.294559748     0.936788383   0.000197696342 -7.67578756e-05   0.000197696342 -7.67578755e-05       0.29283384     0.937526954
12.660448            0.294938666     0.936656524   0.000197962794 -7.69589836e-05   0.000197962794 -7.69589835e-05      0.293208494     0.937397435
12.660476            0.295317801     0.936524409   0.000198229645 -7.71606136e-05   0.000198229645 -7.71606135e-05      0.293583361     0.937267667
12.660504            0.295697152     0.936392038   0.000198496897 -7.73627671e-05   0.000198496897  -7.7362767e-05      0.293958442     0.937137647
12.660532            0.296076719      0.93625941   0.000198764549 -7.75654454e-05   0.000198764549 -7.75654453e-05      0.294333735     0.937007377
12.66056             0.296456502     0.936126525   0.000199032603   -7.776865e-05   0.000199032603 -7.77686499e-05      0.294709242     0.936876856
12.660588            0.296836501     0.935993383   0.000199301059 -7.79723824e-05   0.000199301059 -7.79723823e-05      0.295084963     0.936746083
12.660616            0.297216717     0.935859982   0.000199569917 -7.81766441e-05   0.000199569917  -7.8176644e-05      0.295460898     0.936615059
12.660644             0.29759715     0.935726323   0.000199839178 -7.83814365e-05   0.000199839178 -7.83814364e-05      0.295837046     0.936483781
12.660672              0.2979778     0.935592406   0.000200108843  -7.8586761e-05   0.000200108843 -7.85867609e-05      0.296213409     0.936352251
12.6607              0.298358667     0.935458229   0.000200378912 -7.87926193e-05   0.000200378912 -7.87926192e-05      0.296589985     0.936220467
12.660728            0.298739751     0.935323792   0.000200649386 -7.89990127e-05   0.000200649386 -7.89990126e-05      0.296966777     0.936088429
12.660756            0.299121052     0.935189095   0.000200920265 -7.92059428e-05   0.000200920265 -7.92059427e-05      0.297343782     0.935956138
12.660784            0.299502571     0.935054137   0.000201191551  -7.9413411e-05   0.000201191551 -7.94134109e-05      0.297721003     0.935823591
12.660812            0.299884307     0.934918919   0.000201463243 -7.96214189e-05   0.000201463243 -7.96214187e-05      0.298098438     0.935690789
12.66084             0.300266261     0.934783438   0.000201735342 -7.98299678e-05   0.000201735342 -7.98299677e-05      0.298476088     0.935557732
12.660868            0.300648433     0.934647696   0.000202007849 -8.00390595e-05   0.000202007849 -8.00390594e-05      0.298853953     0.935424419
12.660896            0.301030823     0.934511691   0.000202280764 -8.02486953e-05   0.000202280764 -8.02486951e-05      0.299232034     0.935290849
12.660924            0.301413431     0.934375423   0.000202554088 -8.04588767e-05   0.000202554088 -8.04588766e-05       0.29961033     0.935157022
12.660952            0.301796258     0.934238892   0.000202827822 -8.06696054e-05   0.000202827822 -8.06696052e-05      0.299988842     0.935022938
12.66098             0.302179303     0.934102097   0.000203101966 -8.08808827e-05   0.000203101966 -8.08808826e-05      0.300367569     0.934888596
12.661008            0.302562566     0.933965037    0.00020337652 -8.10927103e-05    0.00020337652 -8.10927102e-05      0.300746512     0.934753995
12.661036            0.302946049     0.933827713   0.000203651486 -8.13050897e-05   0.000203651486 -8.13050896e-05      0.301125671     0.934619136
12.661064             0.30332975     0.933690123   0.000203926864 -8.15180224e-05   0.000203926864 -8.15180223e-05      0.301505047     0.934484018
12.661092            0.303713671     0.933552268   0.000204202654 -8.17315099e-05   0.000204202654 -8.17315098e-05      0.301884638     0.934348641
12.66112             0.304097811     0.933414147   0.000204478857 -8.19455539e-05   0.000204478857 -8.19455538e-05      0.302264446     0.934213003
12.661148             0.30448217     0.933275758   0.000204755474 -8.21601558e-05   0.000204755474 -8.21601557e-05      0.302644471     0.934077104
12.661176            0.304866748     0.933137103   0.000205032505 -8.23753172e-05   0.000205032505 -8.23753171e-05      0.303024712     0.933940945
12.661204            0.305251547     0.932998181   0.000205309951 -8.25910397e-05   0.000205309951 -8.25910396e-05      0.303405171     0.933804524
12.661232            0.305636565      0.93285899   0.000205587813 -8.28073249e-05   0.000205587813 -8.28073247e-05      0.303785846     0.933667841
12.66126             0.306021803      0.93271953    0.00020586609 -8.30241742e-05    0.00020586609 -8.30241741e-05      0.304166739     0.933530896
12.661288            0.306407261     0.932579802   0.000206144784 -8.32415893e-05   0.000206144784 -8.32415892e-05      0.304547849     0.933393688
12.661316            0.306792939     0.932439804   0.000206423895 -8.34595718e-05   0.000206423895 -8.34595717e-05      0.304929176     0.933256217
12.661344            0.307178838     0.932299537   0.000206703424 -8.36781232e-05   0.000206703424 -8.36781231e-05      0.305310721     0.933118482
12.661372            0.307564958     0.932158998   0.000206983372 -8.38972452e-05   0.000206983372 -8.38972451e-05      0.305692484     0.932980483
12.6614              0.307951298     0.932018189   0.000207263738 -8.41169393e-05   0.000207263738 -8.41169392e-05      0.306074465     0.932842219
12.661428            0.308337859     0.931877109   0.000207544524 -8.43372072e-05   0.000207544524 -8.43372071e-05      0.306456663     0.932703691
12.661456            0.308724641     0.931735757   0.000207825731 -8.45580504e-05   0.000207825731 -8.45580503e-05      0.306839081     0.932564896
12.661484            0.309111644     0.931594132   0.000208107358 -8.47794705e-05   0.000208107358 -8.47794704e-05      0.307221716     0.932425836
12.661512            0.309498868     0.931452235   0.000208389406 -8.50014692e-05   0.000208389406 -8.50014691e-05       0.30760457     0.932286509
12.66154             0.309886314     0.931310065   0.000208671876  -8.5224048e-05   0.000208671876 -8.52240479e-05      0.307987643     0.932146915
12.661568            0.310273981      0.93116762   0.000208954769 -8.54472087e-05   0.000208954769 -8.54472086e-05      0.308370934     0.932007054
12.661596             0.31066187     0.931024902   0.000209238085 -8.56709528e-05   0.000209238085 -8.56709527e-05      0.308754444     0.931866924
12.661624            0.311049981     0.930881909   0.000209521825 -8.58952819e-05   0.000209521825 -8.58952818e-05      0.309138174     0.931726527
12.661652            0.311438314      0.93073864   0.000209805989 -8.61201978e-05   0.000209805989 -8.61201976e-05      0.309522123      0.93158586
12.66168             0.311826869     0.930595096   0.000210090578 -8.63457019e-05   0.000210090578 -8.63457018e-05      0.309906291     0.931444924
12.661708            0.312215647     0.930451276   0.000210375593 -8.65717961e-05   0.000210375593  -8.6571796e-05      0.310290679     0.931303719
12.661736            0.312604647     0.930307179   0.000210661034 -8.67984819e-05   0.000210661034 -8.67984818e-05      0.310675286     0.931162243
12.661764            0.312993869     0.930162805   0.000210946901 -8.70257611e-05   0.000210946901  -8.7025761e-05      0.311060114     0.931020496
12.661792            0.313383314     0.930018154   0.000211233196 -8.72536351e-05   0.000211233196  -8.7253635e-05      0.311445161     0.930878478
12.66182             0.313772982     0.929873224   0.000211519919 -8.74821059e-05   0.000211519919 -8.74821057e-05      0.311830428     0.930736189
12.661848            0.314162874     0.929728016    0.00021180707 -8.77111749e-05    0.00021180707 -8.77111748e-05      0.312215916     0.930593627
12.661876            0.314552988     0.929582529   0.000212094651 -8.79408439e-05   0.000212094651 -8.79408438e-05      0.312601624     0.930450793
12.661904            0.314943326     0.929436762   0.000212382661 -8.81711145e-05   0.000212382661 -8.81711144e-05      0.312987553     0.930307685
12.661932            0.315333887     0.929290715   0.000212671102 -8.84019885e-05   0.000212671102 -8.84019884e-05      0.313373703     0.930164304
12.66196             0.315724672     0.929144387   0.000212959973 -8.86334676e-05   0.000212959973 -8.86334675e-05      0.313760073     0.930020649
12.661988             0.31611568     0.928997779   0.000213249276 -8.88655534e-05   0.000213249276 -8.88655533e-05      0.314146665      0.92987672
12.662016            0.316506913     0.928850888   0.000213539012 -8.90982477e-05   0.000213539012 -8.90982476e-05      0.314533477     0.929732515
12.662044            0.316898369     0.928703716    0.00021382918 -8.93315521e-05    0.00021382918  -8.9331552e-05      0.314920511     0.929588035
12.662072             0.31729005     0.928556261   0.000214119781 -8.95654684e-05   0.000214119781 -8.95654682e-05      0.315307767     0.929443278
12.6621              0.317681955     0.928408524   0.000214410816 -8.97999982e-05   0.000214410816 -8.97999981e-05      0.315695244     0.929298246
12.662128            0.318074085     0.928260502   0.000214702286 -9.00351434e-05   0.000214702286 -9.00351433e-05      0.316082942     0.929152936
12.662156            0.318466439     0.928112197   0.000214994191 -9.02709056e-05   0.000214994191 -9.02709055e-05      0.316470863     0.929007349
12.662184            0.318859018     0.927963607   0.000215286532 -9.05072866e-05   0.000215286532 -9.05072865e-05      0.316859006     0.928861483
12.662212            0.319251822     0.927814732   0.000215579309 -9.07442881e-05   0.000215579309  -9.0744288e-05      0.317247371      0.92871534
12.66224             0.319644851     0.927665572   0.000215872523 -9.09819119e-05   0.000215872523 -9.09819118e-05      0.317635958     0.928568917
12.662268            0.320038105     0.927516125   0.000216166175 -9.12201597e-05   0.000216166175 -9.12201596e-05      0.318024768     0.928422215
12.662296            0.320431585     0.927366392   0.000216460265 -9.14590333e-05   0.000216460265 -9.14590332e-05      0.318413801     0.928275233
12.662324             0.32082529     0.927216372   0.000216754794 -9.16985343e-05   0.000216754794 -9.16985342e-05      0.318803056     0.928127971
12.662352            0.321219221     0.927066064   0.000217049762 -9.19386647e-05   0.000217049762 -9.19386646e-05      0.319192534     0.927980428
12.66238             0.321613377     0.926915468    0.00021734517 -9.21794262e-05    0.00021734517 -9.21794261e-05      0.319582236     0.927832603
12.662408             0.32200776     0.926764584   0.000217641019 -9.24208204e-05   0.000217641019 -9.24208203e-05       0.31997216     0.927684496
12.662436            0.322402369      0.92661341   0.000217937308 -9.26628494e-05   0.000217937308 -9.26628493e-05      0.320362308     0.927536107
12.662464            0.322797204     0.926461947    0.00021823404 -9.29055147e-05    0.00021823404 -9.29055146e-05      0.320752679     0.927387435
12.662492            0.323192265     0.926310194   0.000218531214 -9.31488182e-05   0.000218531214 -9.31488181e-05      0.321143275      0.92723848
12.66252             0.323587553      0.92615815   0.000218828831 -9.33927617e-05   0.000218828831 -9.33927616e-05      0.321534094      0.92708924
12.662548            0.323983067     0.926005815   0.000219126892 -9.36373471e-05   0.000219126892  -9.3637347e-05      0.321925137     0.926939717
12.662576            0.324378809     0.925853188   0.000219425397  -9.3882576e-05   0.000219425397 -9.38825759e-05      0.322316404     0.926789908
12.662604            0.324774777     0.925700269   0.000219724347 -9.41284504e-05   0.000219724347 -9.41284503e-05      0.322707895     0.926639814
12.662632            0.325170972     0.925547057   0.000220023742 -9.43749721e-05   0.000220023742  -9.4374972e-05      0.323099611     0.926489434
12.66266             0.325567395     0.925393552   0.000220323584 -9.46221428e-05   0.000220323584 -9.46221427e-05      0.323491551     0.926338768
12.662688            0.325964045     0.925239753   0.000220623872 -9.48699645e-05   0.000220623872 -9.48699644e-05      0.323883716     0.926187814
12.662716            0.326360923      0.92508566   0.000220924607 -9.51184388e-05   0.000220924607 -9.51184387e-05      0.324276106     0.926036574
12.662744            0.326758028     0.924931272    0.00022122579 -9.53675678e-05    0.00022122579 -9.53675677e-05       0.32466872     0.925885045
12.662772            0.327155361     0.924776589   0.000221527422 -9.56173532e-05   0.000221527422 -9.56173531e-05       0.32506156     0.925733228
12.6628              0.327552922      0.92462161   0.000221829502 -9.58677969e-05   0.000221829502 -9.58677968e-05      0.325454626     0.925581121
12.662828            0.327950711     0.924466335   0.000222132033 -9.61189008e-05   0.000222132033 -9.61189007e-05      0.325847916     0.925428726
12.662856            0.328348729     0.924310762   0.000222435013 -9.63706667e-05   0.000222435013 -9.63706666e-05      0.326241433      0.92527604
12.662884            0.328746975     0.924154893   0.000222738445 -9.66230965e-05   0.000222738445 -9.66230964e-05      0.326635174     0.925123064
12.662912            0.329145449     0.923998725   0.000223042328  -9.6876192e-05   0.000223042328 -9.68761919e-05      0.327029142     0.924969796
12.66294             0.329544152     0.923842259   0.000223346663 -9.71299552e-05   0.000223346663 -9.71299551e-05      0.327423336     0.924816238
12.662968            0.329943084     0.923685493   0.000223651451 -9.73843879e-05   0.000223651451 -9.73843878e-05      0.327817756     0.924662387
12.662996            0.330342245     0.923528429   0.000223956693  -9.7639492e-05   0.000223956693 -9.76394919e-05      0.328212402     0.924508243
12.663024            0.330741635     0.923371064   0.000224262388 -9.78952695e-05   0.000224262388 -9.78952694e-05      0.328607275     0.924353807
12.663052            0.331141254     0.923213398   0.000224568538 -9.81517222e-05   0.000224568538 -9.81517221e-05      0.329002374     0.924199076
12.66308             0.331541103     0.923055431   0.000224875143 -9.84088521e-05   0.000224875143  -9.8408852e-05        0.3293977     0.924044052
12.663108            0.331941181     0.922897163   0.000225182204  -9.8666661e-05   0.000225182204 -9.86666609e-05      0.329793253     0.923888733
12.663136            0.332341489     0.922738592   0.000225489721 -9.89251509e-05   0.000225489721 -9.89251508e-05      0.330189033     0.923733118
12.663164            0.332742027     0.922579719   0.000225797696 -9.91843237e-05   0.000225797696 -9.91843236e-05      0.330585041     0.923577208
12.663192            0.333142795     0.922420542   0.000226106127 -9.94441814e-05   0.000226106127 -9.94441813e-05      0.330981275     0.923421002
12.66322             0.333543793     0.922261061   0.000226415018 -9.97047258e-05   0.000226415017 -9.97047257e-05      0.331377737     0.923264499
12.663248            0.333945021     0.922101276   0.000226724366  -9.9965959e-05   0.000226724366 -9.99659589e-05      0.331774427     0.923107699
12.663276             0.33434648     0.921941186   0.000227034175 -0.000100227883   0.000227034175 -0.000100227883      0.332171344       0.9229506
12.663304            0.334748169     0.921780791   0.000227344443 -0.000100490499   0.000227344443 -0.000100490499      0.332568489     0.922793204
12.663332            0.335150089     0.921620089   0.000227655172  -0.00010075381   0.000227655172  -0.00010075381      0.332965862     0.922635508
12.66336             0.335552239     0.921459081   0.000227966363 -0.000101017818   0.000227966363 -0.000101017818      0.333363464     0.922477513
12.663388            0.335954621     0.921297766   0.000228278015 -0.000101282524   0.000228278015 -0.000101282524      0.333761293     0.922319218
12.663416            0.336357234     0.921136143    0.00022859013 -0.000101547931    0.00022859013 -0.000101547931      0.334159352     0.922160622
12.663444            0.336760078     0.920974211   0.000228902708  -0.00010181404   0.000228902708  -0.00010181404      0.334557639     0.922001726
12.663472            0.337163153     0.920811971   0.000229215749 -0.000102080854   0.000229215749 -0.000102080854      0.334956154     0.921842528
12.6635               0.33756646     0.920649422   0.000229529255 -0.000102348375   0.000229529255 -0.000102348375      0.335354899     0.921683027
