! TOUCHSTONE file generated by CST MICROWAVE STUDIO
! Date and time: Wed Jul 31 19:02:27 2024
! Project name: WaveGuide_BPF-Ver4.1_U-shape_Ku_T3_C4_CWA_2.cst
! Parameters = {cavity_h=16; cavity_l0=10; cavity_l1=15.1788; cavity_l2=16.8468; cavity_l3=17.0992; cavity_l4=17.2289; cavity_l5=17.1523; cavity_l6=17.6355; cavity_r=2.5; cavity_screw_l=0.5; cavity_screw_r=1.5; cavity_w=8; iris_h00=0; iris_h01=8.8103; iris_h112=0; iris_h12=5.5925; iris_h211=3.6533; iris_h23=5.2127; iris_h310=3.9665; iris_h34=5.0864; iris_h45=4.9236; iris_h49=4.6175; iris_h56=4.8061; iris_h58=4.4481; iris_h67=6.5924; iris_rx=0.1; iris_screw_l=0.5; iris_screw_r=1.5; iris_shift00=0; iris_shift112=0; iris_shift211=3.5; iris_shift310=0; iris_shift49=0; iris_shift58=3.5; iris_shift67=3.5; iris_tx=4.5; iris_tz=4.5; iris_w00=0; iris_w112=0; iris_w211=4; iris_w310=3.9665; iris_w49=4.6175; iris_w58=4; iris_w67=4; mesh_cavity=5; mesh_iris=7; mesh_screw=7; order=12; reset_all=0; sigma=4.8e+07}
! Header version: 2018
! Port assignment regex: !\s*Touchstone port\s*([0-9]+)\s*=\s*(CST MWS port|CST DS port)\s*([0-9]+|Zmin|Zmax)\s*\(\"(.*)\"\)(\s*mode\s*([0-9]+))?.*
! Touchstone port assignment:
! Touchstone port 1 = CST MWS port 1 ("")
! Touchstone port 2 = CST MWS port 2 ("")
# GHz S RI R 50
12.66                0.223060366     0.958454879   0.000195313404 -5.97855279e-05   0.000195313404 -5.97855279e-05      0.224018644     0.958144063
12.660028            0.223399431     0.958365558   0.000195592709  -5.9952971e-05   0.000195592709  -5.9952971e-05      0.224361083     0.958053469
12.660056            0.223738693      0.95827605   0.000195872483 -6.01208673e-05   0.000195872483 -6.01208673e-05      0.224703706     0.957962688
12.660084            0.224078154     0.958186353   0.000196152728 -6.02892191e-05   0.000196152728 -6.02892191e-05      0.225046521     0.957871717
12.660112            0.224417814     0.958096468   0.000196433443 -6.04580284e-05   0.000196433443 -6.04580284e-05      0.225389537     0.957780554
12.66014             0.224757675     0.958006394   0.000196714629 -6.06272974e-05   0.000196714629 -6.06272974e-05       0.22573276     0.957689197
12.660168            0.225097737      0.95791613   0.000196996287 -6.07970275e-05   0.000196996287 -6.07970275e-05      0.226076192     0.957597645
12.660196            0.225437999     0.957825676   0.000197278418 -6.09672194e-05   0.000197278418 -6.09672194e-05      0.226419827     0.957505901
12.660224            0.225778461     0.957735032   0.000197561022 -6.11378745e-05   0.000197561022 -6.11378745e-05      0.226763665     0.957413962
12.660252            0.226119124     0.957644197   0.000197844102 -6.13089942e-05   0.000197844102 -6.13089942e-05      0.227107707     0.957321829
12.66028             0.226459989     0.957553172   0.000198127657 -6.14805798e-05   0.000198127657 -6.14805798e-05      0.227451952     0.957229501
12.660308            0.226801054     0.957461956   0.000198411689 -6.16526327e-05   0.000198411689 -6.16526327e-05      0.227796402     0.957136979
12.660336             0.22714232     0.957370548   0.000198696198 -6.18251543e-05   0.000198696198 -6.18251543e-05      0.228141055     0.957044261
12.660364            0.227483788     0.957278949   0.000198981185 -6.19981459e-05   0.000198981185 -6.19981459e-05      0.228485913     0.956951348
12.660392            0.227825458     0.957187157   0.000199266651  -6.2171609e-05   0.000199266651  -6.2171609e-05      0.228830976     0.956858238
12.66042             0.228167329     0.957095173   0.000199552598 -6.23455449e-05   0.000199552598 -6.23455449e-05      0.229176243     0.956764933
12.660448            0.228509403     0.957002996   0.000199839025  -6.2519955e-05   0.000199839025  -6.2519955e-05      0.229521715      0.95667143
12.660476            0.228851678     0.956910626   0.000200125934 -6.26948407e-05   0.000200125934 -6.26948407e-05      0.229867391     0.956577731
12.660504            0.229194156     0.956818062   0.000200413326 -6.28702034e-05   0.000200413326 -6.28702034e-05      0.230213274     0.956483835
12.660532            0.229536836     0.956725305   0.000200701202 -6.30460445e-05   0.000200701202 -6.30460445e-05      0.230559361      0.95638974
12.66056              0.22987972     0.956632353   0.000200989561 -6.32223654e-05   0.000200989561 -6.32223654e-05      0.230905654     0.956295448
12.660588            0.230222806     0.956539207   0.000201278407 -6.33991676e-05   0.000201278407 -6.33991676e-05      0.231252153     0.956200957
12.660616            0.230566095     0.956445866   0.000201567738 -6.35764524e-05   0.000201567738 -6.35764524e-05      0.231598858     0.956106268
12.660644            0.230909587      0.95635233   0.000201857557 -6.37542213e-05   0.000201857557 -6.37542213e-05      0.231945768     0.956011379
12.660672            0.231253283     0.956258598   0.000202147864 -6.39324756e-05   0.000202147864 -6.39324756e-05      0.232292886     0.955916291
12.6607              0.231597182     0.956164671    0.00020243866 -6.41112169e-05    0.00020243866 -6.41112169e-05      0.232640209     0.955821003
12.660728            0.231941286     0.956070547   0.000202729945 -6.42904466e-05   0.000202729945 -6.42904466e-05       0.23298774     0.955725515
12.660756            0.232285593     0.955976226   0.000203021722  -6.4470166e-05   0.000203021722  -6.4470166e-05      0.233335477     0.955629827
12.660784            0.232630104     0.955881709    0.00020331399 -6.46503767e-05    0.00020331399 -6.46503767e-05      0.233683421     0.955533937
12.660812             0.23297482     0.955786994    0.00020360675 -6.48310801e-05    0.00020360675 -6.48310801e-05      0.234031573     0.955437847
12.66084              0.23331974     0.955692082   0.000203900005 -6.50122777e-05   0.000203900005 -6.50122777e-05      0.234379932     0.955341555
12.660868            0.233664865     0.955596972   0.000204193753 -6.51939708e-05   0.000204193753 -6.51939708e-05      0.234728498      0.95524506
12.660896            0.234010195     0.955501663   0.000204487997 -6.53761611e-05   0.000204487997 -6.53761611e-05      0.235077272     0.955148364
12.660924             0.23435573     0.955406156   0.000204782737 -6.55588499e-05   0.000204782737 -6.55588499e-05      0.235426255     0.955051465
12.660952            0.234701471     0.955310449   0.000205077974 -6.57420387e-05   0.000205077974 -6.57420387e-05      0.235775445     0.954954363
12.66098             0.235047416     0.955214543    0.00020537371 -6.59257289e-05    0.00020537371 -6.59257289e-05      0.236124844     0.954857057
12.661008            0.235393568     0.955118438   0.000205669944 -6.61099222e-05   0.000205669944 -6.61099222e-05      0.236474451     0.954759548
12.661036            0.235739925     0.955022132   0.000205966678   -6.629462e-05   0.000205966678   -6.629462e-05      0.236824267     0.954661834
12.661064            0.236086488     0.954925626   0.000206263913 -6.64798237e-05   0.000206263913 -6.64798237e-05      0.237174292     0.954563916
12.661092            0.236433258     0.954828919    0.00020656165 -6.66655348e-05    0.00020656165 -6.66655348e-05      0.237524526     0.954465793
12.66112             0.236780234      0.95473201    0.00020685989 -6.68517549e-05    0.00020685989 -6.68517549e-05      0.237874969     0.954367465
12.661148            0.237127416     0.954634901   0.000207158633 -6.70384855e-05   0.000207158633 -6.70384855e-05      0.238225622     0.954268931
12.661176            0.237474805     0.954537589    0.00020745788 -6.72257281e-05    0.00020745788 -6.72257281e-05      0.238576484     0.954170192
12.661204            0.237822402     0.954440075   0.000207757633 -6.74134842e-05   0.000207757633 -6.74134841e-05      0.238927557     0.954071246
12.661232            0.238170205     0.954342358   0.000208057893 -6.76017552e-05   0.000208057893 -6.76017552e-05      0.239278839     0.953972093
12.66126             0.238518215     0.954244439   0.000208358659 -6.77905429e-05   0.000208358659 -6.77905429e-05      0.239630331     0.953872733
12.661288            0.238866434     0.954146316   0.000208659935 -6.79798486e-05   0.000208659934 -6.79798486e-05      0.239982034     0.953773166
12.661316            0.239214859     0.954047989   0.000208961719 -6.81696739e-05   0.000208961719 -6.81696739e-05      0.240333948     0.953673391
12.661344            0.239563493     0.953949459   0.000209264013 -6.83600204e-05   0.000209264013 -6.83600204e-05      0.240686072     0.953573408
12.661372            0.239912335     0.953850723   0.000209566819 -6.85508896e-05   0.000209566819 -6.85508896e-05      0.241038407     0.953473216
12.6614              0.240261385     0.953751783   0.000209870136  -6.8742283e-05   0.000209870136  -6.8742283e-05      0.241390953     0.953372815
12.661428            0.240610643     0.953652638   0.000210173966 -6.89342023e-05   0.000210173966 -6.89342023e-05      0.241743711     0.953272205
12.661456             0.24096011     0.953553287   0.000210478311 -6.91266489e-05   0.000210478311 -6.91266489e-05       0.24209668     0.953171386
12.661484            0.241309786     0.953453731    0.00021078317 -6.93196245e-05    0.00021078317 -6.93196245e-05      0.242449861     0.953070356
12.661512            0.241659671     0.953353968   0.000211088545 -6.95131306e-05   0.000211088545 -6.95131306e-05      0.242803254     0.952969116
12.66154             0.242009765     0.953253998   0.000211394437 -6.97071688e-05   0.000211394437 -6.97071688e-05      0.243156859     0.952867665
12.661568            0.242360068     0.953153822   0.000211700846 -6.99017406e-05   0.000211700846 -6.99017406e-05      0.243510676     0.952766002
12.661596            0.242710581     0.953053438   0.000212007774 -7.00968478e-05   0.000212007774 -7.00968478e-05      0.243864706     0.952664129
12.661624            0.243061304     0.952952846   0.000212315222 -7.02924918e-05   0.000212315222 -7.02924918e-05      0.244218948     0.952562043
12.661652            0.243412237     0.952852046    0.00021262319 -7.04886742e-05    0.00021262319 -7.04886742e-05      0.244573404     0.952459745
12.66168              0.24376338     0.952751037    0.00021293168 -7.06853967e-05    0.00021293168 -7.06853967e-05      0.244928072     0.952357234
12.661708            0.244114733      0.95264982   0.000213240693 -7.08826609e-05   0.000213240693 -7.08826609e-05      0.245282954      0.95225451
12.661736            0.244466296     0.952548393   0.000213550228 -7.10804684e-05   0.000213550228 -7.10804684e-05      0.245638049     0.952151572
12.661764            0.244818071     0.952446757   0.000213860289 -7.12788207e-05   0.000213860289 -7.12788207e-05      0.245993357     0.952048421
12.661792            0.245170056     0.952344911   0.000214170874 -7.14777196e-05   0.000214170874 -7.14777196e-05      0.246348879     0.951945055
12.66182             0.245522252     0.952242854   0.000214481986 -7.16771667e-05   0.000214481986 -7.16771667e-05      0.246704616     0.951841475
12.661848             0.24587466     0.952140587   0.000214793625 -7.18771635e-05   0.000214793625 -7.18771635e-05      0.247060566     0.951737679
12.661876            0.246227279     0.952038108   0.000215105793 -7.20777118e-05   0.000215105793 -7.20777118e-05      0.247416731     0.951633669
12.661904             0.24658011     0.951935418    0.00021541849 -7.22788132e-05    0.00021541849 -7.22788132e-05      0.247773111     0.951529442
12.661932            0.246933152     0.951832516   0.000215731717 -7.24804693e-05   0.000215731717 -7.24804693e-05      0.248129705     0.951424999
12.66196             0.247286407     0.951729401   0.000216045475 -7.26826818e-05   0.000216045475 -7.26826817e-05      0.248486515      0.95132034
12.661988            0.247639873     0.951626074   0.000216359766 -7.28854523e-05   0.000216359766 -7.28854523e-05      0.248843539     0.951215463
12.662016            0.247993553     0.951522534   0.000216674589 -7.30887825e-05   0.000216674589 -7.30887825e-05      0.249200779     0.951110369
12.662044            0.248347444      0.95141878   0.000216989947 -7.32926742e-05   0.000216989947 -7.32926742e-05      0.249558234     0.951005058
12.662072            0.248701549     0.951314813    0.00021730584 -7.34971289e-05    0.00021730584 -7.34971289e-05      0.249915905     0.950899528
12.6621              0.249055867     0.951210631   0.000217622269 -7.37021484e-05   0.000217622269 -7.37021484e-05      0.250273792     0.950793779
12.662128            0.249410397     0.951106235   0.000217939236 -7.39077343e-05   0.000217939235 -7.39077343e-05      0.250631895     0.950687812
12.662156            0.249765142     0.951001623    0.00021825674 -7.41138884e-05    0.00021825674 -7.41138883e-05      0.250990214     0.950581625
12.662184            0.250120099     0.950896797   0.000218574783 -7.43206123e-05   0.000218574783 -7.43206122e-05       0.25134875     0.950475219
12.662212            0.250475271     0.950791754   0.000218893367 -7.45279077e-05   0.000218893367 -7.45279077e-05      0.251707503     0.950368592
12.66224             0.250830656     0.950686495   0.000219212491 -7.47357764e-05   0.000219212491 -7.47357764e-05      0.252066472     0.950261745
12.662268            0.251186256      0.95058102   0.000219532158 -7.49442201e-05   0.000219532158 -7.49442201e-05      0.252425659     0.950154676
12.662296            0.251542069     0.950475328   0.000219852367 -7.51532405e-05   0.000219852367 -7.51532405e-05      0.252785063     0.950047387
12.662324            0.251898098     0.950369418   0.000220173121 -7.53628393e-05   0.000220173121 -7.53628393e-05      0.253144684     0.949939875
12.662352            0.252254341     0.950263291    0.00022049442 -7.55730183e-05    0.00022049442 -7.55730183e-05      0.253504523     0.949832141
12.66238             0.252610799     0.950156945   0.000220816265 -7.57837792e-05   0.000220816265 -7.57837792e-05       0.25386458     0.949724185
12.662408            0.252967472     0.950050381   0.000221138657 -7.59951238e-05   0.000221138657 -7.59951238e-05      0.254224854     0.949616006
12.662436             0.25332436     0.949943598   0.000221461597 -7.62070537e-05   0.000221461596 -7.62070537e-05      0.254585348     0.949507603
12.662464            0.253681464     0.949836596   0.000221785086 -7.64195708e-05   0.000221785086 -7.64195708e-05      0.254946059     0.949398977
12.662492            0.254038784     0.949729374   0.000222109125 -7.66326769e-05   0.000222109125 -7.66326769e-05      0.255306989     0.949290126
12.66252             0.254396319     0.949621932   0.000222433715 -7.68463736e-05   0.000222433715 -7.68463736e-05      0.255668138     0.949181051
12.662548            0.254754071     0.949514269   0.000222758857 -7.70606629e-05   0.000222758857 -7.70606629e-05      0.256029506     0.949071751
12.662576            0.255112039     0.949406385   0.000223084553 -7.72755463e-05   0.000223084553 -7.72755463e-05      0.256391094     0.948962225
12.662604            0.255470223      0.94929828   0.000223410802 -7.74910259e-05   0.000223410802 -7.74910258e-05        0.2567529     0.948852473
12.662632            0.255828624     0.949189953   0.000223737607 -7.77071032e-05   0.000223737607 -7.77071032e-05      0.257114927     0.948742495
12.66266             0.256187242     0.949081404   0.000224064968 -7.79237802e-05   0.000224064968 -7.79237802e-05      0.257477173     0.948632291
12.662688            0.256546076     0.948972633   0.000224392886 -7.81410586e-05   0.000224392886 -7.81410586e-05      0.257839639     0.948521859
12.662716            0.256905129     0.948863638   0.000224721362 -7.83589403e-05   0.000224721362 -7.83589403e-05      0.258202325     0.948411199
12.662744            0.257264398      0.94875442   0.000225050398  -7.8577427e-05   0.000225050398  -7.8577427e-05      0.258565232     0.948300312
12.662772            0.257623885     0.948644979   0.000225379994 -7.87965206e-05   0.000225379994 -7.87965206e-05      0.258928359     0.948189197
12.6628               0.25798359     0.948535313   0.000225710151  -7.9016223e-05   0.000225710151  -7.9016223e-05      0.259291707     0.948077852
12.662828            0.258343513     0.948425423    0.00022604087 -7.92365359e-05    0.00022604087 -7.92365358e-05      0.259655276     0.947966279
12.662856            0.258703654     0.948315307   0.000226372153 -7.94574611e-05   0.000226372153 -7.94574611e-05      0.260019067     0.947854476
12.662884            0.259064014     0.948204966      0.000226704 -7.96790007e-05      0.000226704 -7.96790007e-05      0.260383078     0.947742442
12.662912            0.259424592       0.9480944   0.000227036413 -7.99011563e-05   0.000227036413 -7.99011563e-05      0.260747312     0.947630179
12.66294             0.259785389     0.947983607   0.000227369392 -8.01239299e-05   0.000227369392 -8.01239299e-05      0.261111767     0.947517684
12.662968            0.260146405     0.947872587   0.000227702939 -8.03473233e-05   0.000227702939 -8.03473233e-05      0.261476444     0.947404958
12.662996            0.260507641      0.94776134   0.000228037054 -8.05713384e-05   0.000228037054 -8.05713383e-05      0.261841343     0.947292001
12.663024            0.260869095     0.947649866   0.000228371739  -8.0795977e-05   0.000228371739  -8.0795977e-05      0.262206464     0.947178811
12.663052             0.26123077     0.947538164   0.000228706994 -8.10212411e-05   0.000228706994 -8.10212411e-05      0.262571809     0.947065389
12.66308             0.261592664     0.947426234   0.000229042821 -8.12471326e-05   0.000229042821 -8.12471326e-05      0.262937376     0.946951733
12.663108            0.261954778     0.947314075   0.000229379221 -8.14736533e-05   0.000229379221 -8.14736533e-05      0.263303165     0.946837844
12.663136            0.262317112     0.947201686   0.000229716194 -8.17008051e-05   0.000229716194 -8.17008051e-05      0.263669179     0.946723722
12.663164            0.262679667     0.947089068   0.000230053742   -8.192859e-05   0.000230053742   -8.192859e-05      0.264035415     0.946609365
12.663192            0.263042442      0.94697622   0.000230391867 -8.21570099e-05   0.000230391867 -8.21570099e-05      0.264401875     0.946494773
12.66322             0.263405438     0.946863142   0.000230730568 -8.23860666e-05   0.000230730568 -8.23860666e-05      0.264768559     0.946379946
12.663248            0.263768655     0.946749833   0.000231069847 -8.26157622e-05   0.000231069847 -8.26157622e-05      0.265135467     0.946264883
12.663276            0.264132093     0.946636292   0.000231409705 -8.28460985e-05   0.000231409705 -8.28460985e-05      0.265502599     0.946149585
12.663304            0.264495753      0.94652252   0.000231750143 -8.30770776e-05   0.000231750143 -8.30770776e-05      0.265869955      0.94603405
12.663332            0.264859634     0.946408516   0.000232091163 -8.33087012e-05   0.000232091163 -8.33087012e-05      0.266237536     0.945918278
12.66336             0.265223737     0.946294279   0.000232432764 -8.35409715e-05   0.000232432764 -8.35409715e-05      0.266605341     0.945802268
12.663388            0.265588062     0.946179809   0.000232774949 -8.37738904e-05   0.000232774949 -8.37738903e-05      0.266973372     0.945686021
12.663416            0.265952609     0.946065105   0.000233117718 -8.40074597e-05   0.000233117718 -8.40074597e-05      0.267341628     0.945569536
12.663444            0.266317379     0.945950168   0.000233461073 -8.42416816e-05   0.000233461073 -8.42416816e-05      0.267710109     0.945452812
12.663472            0.266682371     0.945834997   0.000233805014 -8.44765579e-05   0.000233805014 -8.44765579e-05      0.268078816     0.945335848
12.6635              0.267047586      0.94571959   0.000234149543 -8.47120908e-05   0.000234149543 -8.47120907e-05      0.268447748     0.945218646
