! TOUCHSTONE file generated by CST MICROWAVE STUDIO
! Date and time: Wed Jul 31 19:11:48 2024
! Project name: WaveGuide_BPF-Ver4.1_U-shape_Ku_T3_C4_CWA_2.cst
! Parameters = {cavity_h=16; cavity_l0=10; cavity_l1=15.1704; cavity_l2=16.8281; cavity_l3=17.1206; cavity_l4=17.2684; cavity_l5=17.142; cavity_l6=17.6072; cavity_r=2.5; cavity_screw_l=0.5; cavity_screw_r=1.5; cavity_w=8; iris_h00=0; iris_h01=8.833; iris_h112=0; iris_h12=5.6133; iris_h211=3.6516; iris_h23=5.1942; iris_h310=3.9695; iris_h34=5.0908; iris_h45=4.9215; iris_h49=4.6171; iris_h56=4.7996; iris_h58=4.4358; iris_h67=6.586; iris_rx=0.1; iris_screw_l=0.5; iris_screw_r=1.5; iris_shift00=0; iris_shift112=0; iris_shift211=3.5; iris_shift310=0; iris_shift49=0; iris_shift58=3.5; iris_shift67=3.5; iris_tx=4.5; iris_tz=4.5; iris_w00=0; iris_w112=0; iris_w211=4; iris_w310=3.9695; iris_w49=4.6171; iris_w58=4; iris_w67=4; mesh_cavity=5; mesh_iris=7; mesh_screw=7; order=12; reset_all=0; sigma=4.8e+07}
! Header version: 2018
! Port assignment regex: !\s*Touchstone port\s*([0-9]+)\s*=\s*(CST MWS port|CST DS port)\s*([0-9]+|Zmin|Zmax)\s*\(\"(.*)\"\)(\s*mode\s*([0-9]+))?.*
! Touchstone port assignment:
! Touchstone port 1 = CST MWS port 1 ("")
! Touchstone port 2 = CST MWS port 2 ("")
# GHz S RI R 50
12.66                0.284763356     0.940512947   0.000190665336 -7.22355277e-05   0.000190665336 -7.22355278e-05      0.290444909     0.938706468
12.660028            0.285128277     0.940390629    0.00019091722 -7.24213342e-05    0.00019091722 -7.24213343e-05      0.290811897     0.938580969
12.660056            0.285493503     0.940268047   0.000191169465 -7.26076182e-05   0.000191169465 -7.26076182e-05      0.291179071     0.938455236
12.660084            0.285858992     0.940145213   0.000191422077 -7.27943778e-05   0.000191422077 -7.27943779e-05      0.291546439     0.938329268
12.660112            0.286224701      0.94002214   0.000191675056 -7.29816113e-05   0.000191675056 -7.29816114e-05      0.291914011      0.93820306
12.66014             0.286590587     0.939898839   0.000191928407 -7.31693169e-05   0.000191928407  -7.3169317e-05      0.292281794     0.938076611
12.660168            0.286956649      0.93977531   0.000192182129 -7.33574959e-05   0.000192182129 -7.33574959e-05       0.29264979     0.937949919
12.660196            0.287322917     0.939651546   0.000192436221 -7.35461515e-05   0.000192436221 -7.35461515e-05      0.293017992     0.937822987
12.660224            0.287689391     0.939527544   0.000192690685  -7.3735285e-05   0.000192690685 -7.37352851e-05        0.2933864     0.937695813
12.660252            0.288056071     0.939403305    0.00019294552 -7.39248978e-05    0.00019294552 -7.39248979e-05      0.293755016     0.937568398
12.66028             0.288422956     0.939278828   0.000193200728 -7.41149911e-05   0.000193200728 -7.41149912e-05      0.294123838      0.93744074
12.660308            0.288790049     0.939154113   0.000193456308 -7.43055662e-05   0.000193456308 -7.43055663e-05      0.294492867     0.937312839
12.660336            0.289157347      0.93902916   0.000193712261 -7.44966245e-05   0.000193712261 -7.44966245e-05      0.294862103     0.937184696
12.660364            0.289524853     0.938903967   0.000193968587 -7.46881671e-05   0.000193968587 -7.46881672e-05      0.295231547     0.937056309
12.660392            0.289892564     0.938778536   0.000194225288 -7.48801955e-05   0.000194225288 -7.48801955e-05      0.295601198     0.936927678
12.66042             0.290260483     0.938652864   0.000194482364 -7.50727109e-05   0.000194482364 -7.50727109e-05      0.295971057     0.936798803
12.660448            0.290628609     0.938526953   0.000194739814 -7.52657146e-05   0.000194739814 -7.52657146e-05      0.296341124     0.936669683
12.660476            0.290996942       0.9384008    0.00019499764 -7.54592079e-05    0.00019499764  -7.5459208e-05      0.296711398     0.936540319
12.660504            0.291365483     0.938274407   0.000195255843 -7.56531922e-05   0.000195255843 -7.56531923e-05      0.297081881     0.936410708
12.660532            0.291734231     0.938147773   0.000195514422 -7.58476688e-05   0.000195514422 -7.58476689e-05      0.297452571     0.936280852
12.66056             0.292103186     0.938020896   0.000195773378  -7.6042639e-05   0.000195773378 -7.60426391e-05       0.29782347     0.936150749
12.660588            0.292472349     0.937893778   0.000196032712 -7.62381042e-05   0.000196032712 -7.62381042e-05      0.298194578     0.936020399
12.660616            0.292841721     0.937766416   0.000196292424 -7.64340656e-05   0.000196292424 -7.64340656e-05      0.298565894     0.935889803
12.660644              0.2932113     0.937638812   0.000196552515 -7.66305246e-05   0.000196552515 -7.66305247e-05      0.298937419     0.935758958
12.660672            0.293581087     0.937510964   0.000196812985 -7.68274826e-05   0.000196812985 -7.68274826e-05      0.299309153     0.935627866
12.6607              0.293951083     0.937382872   0.000197073835 -7.70249408e-05   0.000197073835 -7.70249409e-05      0.299681096     0.935496525
12.660728            0.294321288     0.937254536   0.000197335065 -7.72229008e-05   0.000197335065 -7.72229008e-05      0.300053249     0.935364935
12.660756            0.294691701     0.937125955   0.000197596677 -7.74213637e-05   0.000197596676 -7.74213637e-05       0.30042561     0.935233095
12.660784            0.295062322     0.936997129   0.000197858669 -7.76203309e-05   0.000197858669  -7.7620331e-05      0.300798182     0.935101006
12.660812            0.295433153     0.936868057   0.000198121043 -7.78198039e-05   0.000198121043 -7.78198039e-05      0.301170962     0.934968667
12.66084             0.295804193      0.93673874     0.0001983838 -7.80197839e-05     0.0001983838  -7.8019784e-05      0.301543953     0.934836076
12.660868            0.296175442     0.936609176   0.000198646939 -7.82202724e-05   0.000198646939 -7.82202725e-05      0.301917154     0.934703235
12.660896            0.296546901     0.936479365   0.000198910462 -7.84212707e-05   0.000198910462 -7.84212708e-05      0.302290565     0.934570143
12.660924            0.296918569     0.936349306   0.000199174368 -7.86227802e-05   0.000199174368 -7.86227802e-05      0.302664186     0.934436798
12.660952            0.297290447        0.936219   0.000199438659 -7.88248022e-05   0.000199438659 -7.88248023e-05      0.303038017     0.934303201
12.66098             0.297662535     0.936088446   0.000199703335 -7.90273382e-05   0.000199703335 -7.90273383e-05      0.303412059     0.934169351
12.661008            0.298034833     0.935957644   0.000199968397 -7.92303896e-05   0.000199968397 -7.92303897e-05      0.303786312     0.934035248
12.661036            0.298407341     0.935826592   0.000200233844 -7.94339577e-05   0.000200233844 -7.94339577e-05      0.304160776     0.933900891
12.661064            0.298780059     0.935695291   0.000200499678 -7.96380439e-05   0.000200499678 -7.96380439e-05       0.30453545      0.93376628
12.661092            0.299152987      0.93556374   0.000200765899 -7.98426496e-05   0.000200765899 -7.98426497e-05      0.304910336     0.933631414
12.66112             0.299526127     0.935431938   0.000201032507 -8.00477763e-05   0.000201032507 -8.00477763e-05      0.305285433     0.933496293
12.661148            0.299899477     0.935299886   0.000201299504 -8.02534253e-05   0.000201299504 -8.02534253e-05      0.305660742     0.933360917
12.661176            0.300273038     0.935167583   0.000201566889  -8.0459598e-05   0.000201566889 -8.04595981e-05      0.306036262     0.933225285
12.661204             0.30064681     0.935035028   0.000201834663 -8.06662959e-05   0.000201834663  -8.0666296e-05      0.306411994     0.933089397
12.661232            0.301020793     0.934902221   0.000202102826 -8.08735204e-05   0.000202102826 -8.08735205e-05      0.306787937     0.932953251
12.66126             0.301394987     0.934769162    0.00020237138 -8.10812729e-05    0.00020237138  -8.1081273e-05      0.307164093     0.932816849
12.661288            0.301769393     0.934635849   0.000202640324 -8.12895549e-05   0.000202640324 -8.12895549e-05      0.307540461     0.932680189
12.661316            0.302144011     0.934502284    0.00020290966 -8.14983677e-05    0.00020290966 -8.14983677e-05      0.307917041      0.93254327
12.661344             0.30251884     0.934368464   0.000203179387 -8.17077128e-05   0.000203179387 -8.17077129e-05      0.308293834     0.932406093
12.661372            0.302893882      0.93423439   0.000203449506 -8.19175916e-05   0.000203449506 -8.19175917e-05       0.30867084     0.932268657
12.6614              0.303269135     0.934100062   0.000203720018 -8.21280057e-05   0.000203720018 -8.21280057e-05      0.309048058     0.932130962
12.661428            0.303644601     0.933965479   0.000203990924 -8.23389564e-05   0.000203990924 -8.23389564e-05      0.309425489     0.931993007
12.661456            0.304020279      0.93383064   0.000204262223 -8.25504451e-05   0.000204262223 -8.25504452e-05      0.309803133     0.931854791
12.661484             0.30439617     0.933695545   0.000204533916 -8.27624734e-05   0.000204533916 -8.27624735e-05       0.31018099     0.931716314
12.661512            0.304772273     0.933560193   0.000204806004 -8.29750427e-05   0.000204806004 -8.29750428e-05      0.310559061     0.931577576
12.66154              0.30514859     0.933424585   0.000205078487 -8.31881545e-05   0.000205078487 -8.31881545e-05      0.310937345     0.931438576
12.661568            0.305525119     0.933288719   0.000205351366 -8.34018102e-05   0.000205351366 -8.34018103e-05      0.311315843     0.931299315
12.661596            0.305901861     0.933152595   0.000205624642 -8.36160113e-05   0.000205624642 -8.36160114e-05      0.311694554      0.93115979
12.661624            0.306278817     0.933016214   0.000205898314 -8.38307593e-05   0.000205898314 -8.38307594e-05       0.31207348     0.931020002
12.661652            0.306655986     0.932879573   0.000206172384 -8.40460557e-05   0.000206172384 -8.40460558e-05       0.31245262     0.930879951
12.66168             0.307033369     0.932742673   0.000206446851  -8.4261902e-05   0.000206446851  -8.4261902e-05      0.312831974     0.930739636
12.661708            0.307410965     0.932605514   0.000206721717 -8.44782995e-05   0.000206721717 -8.44782996e-05      0.313211542     0.930599056
12.661736            0.307788775     0.932468095   0.000206996982   -8.469525e-05   0.000206996982   -8.469525e-05      0.313591325     0.930458211
12.661764              0.3081668     0.932330415   0.000207272647 -8.49127547e-05   0.000207272647 -8.49127548e-05      0.313971322     0.930317101
12.661792            0.308545038     0.932192475   0.000207548711 -8.51308153e-05   0.000207548711 -8.51308154e-05      0.314351535     0.930175725
12.66182             0.308923491     0.932054272   0.000207825176 -8.53494333e-05   0.000207825176 -8.53494334e-05      0.314731962     0.930034082
12.661848            0.309302158     0.931915808   0.000208102042 -8.55686101e-05   0.000208102042 -8.55686102e-05      0.315112605     0.929892173
12.661876             0.30968104     0.931777082   0.000208379309 -8.57883473e-05   0.000208379309 -8.57883474e-05      0.315493462     0.929749996
12.661904            0.310060137     0.931638093   0.000208656979 -8.60086464e-05   0.000208656979 -8.60086465e-05      0.315874535     0.929607552
12.661932            0.310439449     0.931498841   0.000208935051 -8.62295089e-05   0.000208935051  -8.6229509e-05      0.316255824      0.92946484
12.66196             0.310818976     0.931359325   0.000209213526 -8.64509364e-05   0.000209213526 -8.64509365e-05      0.316637329     0.929321858
12.661988            0.311198718     0.931219545   0.000209492405 -8.66729303e-05   0.000209492405 -8.66729304e-05      0.317019049     0.929178608
12.662016            0.311578675       0.9310795   0.000209771688 -8.68954923e-05   0.000209771688 -8.68954924e-05      0.317400985     0.929035088
12.662044            0.311958848      0.93093919   0.000210051375 -8.71186239e-05   0.000210051375 -8.71186239e-05      0.317783138     0.928891298
12.662072            0.312339237     0.930798614   0.000210331468 -8.73423265e-05   0.000210331468 -8.73423266e-05      0.318165507     0.928747237
12.6621              0.312719841     0.930657773   0.000210611967 -8.75666018e-05   0.000210611967 -8.75666019e-05      0.318548092     0.928602905
12.662128            0.313100661     0.930516665   0.000210892871 -8.77914514e-05   0.000210892871 -8.77914514e-05      0.318930894     0.928458302
12.662156            0.313481698      0.93037529   0.000211174183 -8.80168767e-05   0.000211174183 -8.80168767e-05      0.319313912     0.928313427
12.662184            0.313862951     0.930233648   0.000211455901 -8.82428793e-05   0.000211455901 -8.82428794e-05      0.319697148     0.928168279
12.662212             0.31424442     0.930091738   0.000211738028 -8.84694609e-05   0.000211738028  -8.8469461e-05        0.3200806     0.928022859
12.66224             0.314626106     0.929949559   0.000212020563  -8.8696623e-05   0.000212020563  -8.8696623e-05       0.32046427     0.927877164
12.662268            0.315008009     0.929807112   0.000212303506 -8.89243671e-05   0.000212303506 -8.89243671e-05      0.320848157     0.927731196
12.662296            0.315390128     0.929664395   0.000212586859 -8.91526948e-05   0.000212586859 -8.91526949e-05      0.321232261     0.927584954
12.662324            0.315772464     0.929521409   0.000212870622 -8.93816078e-05   0.000212870622 -8.93816079e-05      0.321616584     0.927438437
12.662352            0.316155018     0.929378152   0.000213154796 -8.96111077e-05   0.000213154795 -8.96111077e-05      0.322001123     0.927291644
12.66238             0.316537789     0.929234625    0.00021343938 -8.98411959e-05    0.00021343938  -8.9841196e-05      0.322385881     0.927144575
12.662408            0.316920778     0.929090826   0.000213724375 -9.00718742e-05   0.000213724375 -9.00718742e-05      0.322770857     0.926997231
12.662436            0.317303984     0.928946756   0.000214009783  -9.0303144e-05   0.000214009783 -9.03031441e-05      0.323156051     0.926849609
12.662464            0.317687407     0.928802413   0.000214295603 -9.05350072e-05   0.000214295603 -9.05350072e-05      0.323541464      0.92670171
12.662492            0.318071049     0.928657798   0.000214581836 -9.07674651e-05   0.000214581836 -9.07674652e-05      0.323927095     0.926553533
12.66252             0.318454909      0.92851291   0.000214868482 -9.10005196e-05   0.000214868482 -9.10005197e-05      0.324312945     0.926405078
12.662548            0.318838987     0.928367749   0.000215155543 -9.12341721e-05   0.000215155543 -9.12341722e-05      0.324699013     0.926256344
12.662576            0.319223284     0.928222313   0.000215443018 -9.14684244e-05   0.000215443018 -9.14684245e-05        0.3250853     0.926107331
12.662604            0.319607799     0.928076602   0.000215730908  -9.1703278e-05   0.000215730908 -9.17032781e-05      0.325471807     0.925958039
12.662632            0.319992532     0.927930617   0.000216019214 -9.19387346e-05   0.000216019214 -9.19387347e-05      0.325858533     0.925808465
12.66266             0.320377485     0.927784356   0.000216307936 -9.21747959e-05   0.000216307936 -9.21747959e-05      0.326245478     0.925658612
12.662688            0.320762656     0.927637819   0.000216597074 -9.24114634e-05   0.000216597074 -9.24114635e-05      0.326632643     0.925508477
12.662716            0.321148047     0.927491006    0.00021688663 -9.26487389e-05    0.00021688663 -9.26487389e-05      0.327020027      0.92535806
12.662744            0.321533657     0.927343915   0.000217176604 -9.28866239e-05   0.000217176604  -9.2886624e-05      0.327407631     0.925207361
12.662772            0.321919486     0.927196548   0.000217466995 -9.31251202e-05   0.000217466995 -9.31251203e-05      0.327795455     0.925056379
12.6628              0.322305535     0.927048902   0.000217757805 -9.33642294e-05   0.000217757805 -9.33642295e-05        0.3281835     0.924905114
12.662828            0.322691803     0.926900978   0.000218049035 -9.36039533e-05   0.000218049035 -9.36039533e-05      0.328571764     0.924753565
12.662856            0.323078291     0.926752774   0.000218340684 -9.38442933e-05   0.000218340684 -9.38442934e-05      0.328960249     0.924601733
12.662884               0.323465     0.926604292   0.000218632754 -9.40852514e-05   0.000218632754 -9.40852514e-05      0.329348955     0.924449615
12.662912            0.323851928     0.926455529   0.000218925244  -9.4326829e-05   0.000218925244 -9.43268291e-05      0.329737881     0.924297212
12.66294             0.324239077     0.926306486   0.000219218156  -9.4569028e-05   0.000219218156 -9.45690281e-05      0.330127028     0.924144523
12.662968            0.324626447     0.926157162   0.000219511489   -9.481185e-05   0.000219511489 -9.48118501e-05      0.330516397     0.923991548
12.662996            0.325014037     0.926007557   0.000219805245 -9.50552967e-05   0.000219805245 -9.50552968e-05      0.330905986     0.923838287
12.663024            0.325401847     0.925857669   0.000220099424 -9.52993699e-05   0.000220099423 -9.52993699e-05      0.331295797     0.923684738
12.663052            0.325789879       0.9257075   0.000220394026 -9.55440711e-05   0.000220394026 -9.55440712e-05      0.331685829     0.923530901
12.66308             0.326178132     0.925557047   0.000220689052 -9.57894023e-05   0.000220689051 -9.57894023e-05      0.332076082     0.923376776
12.663108            0.326566606     0.925406311   0.000220984502 -9.60353649e-05   0.000220984502  -9.6035365e-05      0.332466558     0.923222362
12.663136            0.326955301     0.925255291   0.000221280377 -9.62819609e-05   0.000221280377  -9.6281961e-05      0.332857255     0.923067659
12.663164            0.327344218     0.925103987   0.000221576678 -9.65291919e-05   0.000221576678  -9.6529192e-05      0.333248174     0.922912667
12.663192            0.327733356     0.924952397   0.000221873405 -9.67770597e-05   0.000221873405 -9.67770597e-05      0.333639316     0.922757383
12.66322             0.328122716     0.924800523   0.000222170558 -9.70255659e-05   0.000222170558  -9.7025566e-05       0.33403068     0.922601809
12.663248            0.328512298     0.924648362   0.000222468138 -9.72747124e-05   0.000222468138 -9.72747124e-05      0.334422266     0.922445944
12.663276            0.328902103     0.924495915   0.000222766146 -9.75245008e-05   0.000222766146 -9.75245009e-05      0.334814075     0.922289786
12.663304            0.329292129      0.92434318   0.000223064582  -9.7774933e-05   0.000223064581 -9.77749331e-05      0.335206107     0.922133337
12.663332            0.329682378     0.924190159   0.000223363446 -9.80260108e-05   0.000223363446 -9.80260108e-05      0.335598361     0.921976594
12.66336              0.33007285     0.924036849   0.000223662739 -9.82777357e-05   0.000223662739 -9.82777358e-05      0.335990839     0.921819558
12.663388            0.330463544     0.923883251   0.000223962462 -9.85301097e-05   0.000223962462 -9.85301098e-05       0.33638354     0.921662228
12.663416            0.330854461     0.923729364   0.000224262615 -9.87831346e-05   0.000224262615 -9.87831346e-05      0.336776464     0.921504603
12.663444            0.331245601     0.923575187   0.000224563199  -9.9036812e-05   0.000224563199  -9.9036812e-05      0.337169612     0.921346684
12.663472            0.331636964     0.923420721   0.000224864214 -9.92911437e-05   0.000224864214 -9.92911438e-05      0.337562983     0.921188469
12.6635              0.332028551     0.923265963    0.00022516566 -9.95461317e-05    0.00022516566 -9.95461317e-05      0.337956578     0.921029957
