! TOUCHSTONE file generated by CST MICROWAVE STUDIO
! Date and time: Wed Jul 31 19:18:20 2024
! Project name: WaveGuide_BPF-Ver4.1_U-shape_Ku_T3_C4_CWA_2.cst
! Parameters = {cavity_h=16; cavity_l0=10; cavity_l1=15.2331; cavity_l2=16.8307; cavity_l3=17.0651; cavity_l4=17.3097; cavity_l5=17.141; cavity_l6=17.6284; cavity_r=2.5; cavity_screw_l=0.5; cavity_screw_r=1.5; cavity_w=8; iris_h00=0; iris_h01=8.83; iris_h112=0; iris_h12=5.6038; iris_h211=3.6681; iris_h23=5.1977; iris_h310=3.9771; iris_h34=5.069; iris_h45=4.9372; iris_h49=4.62; iris_h56=4.8069; iris_h58=4.44; iris_h67=6.5651; iris_rx=0.1; iris_screw_l=0.5; iris_screw_r=1.5; iris_shift00=0; iris_shift112=0; iris_shift211=3.5; iris_shift310=0; iris_shift49=0; iris_shift58=3.5; iris_shift67=3.5; iris_tx=4.5; iris_tz=4.5; iris_w00=0; iris_w112=0; iris_w211=4; iris_w310=3.9771; iris_w49=4.62; iris_w58=4; iris_w67=4; mesh_cavity=5; mesh_iris=7; mesh_screw=7; order=12; reset_all=0; sigma=4.8e+07}
! Header version: 2018
! Port assignment regex: !\s*Touchstone port\s*([0-9]+)\s*=\s*(CST MWS port|CST DS port)\s*([0-9]+|Zmin|Zmax)\s*\(\"(.*)\"\)(\s*mode\s*([0-9]+))?.*
! Touchstone port assignment:
! Touchstone port 1 = CST MWS port 1 ("")
! Touchstone port 2 = CST MWS port 2 ("")
# GHz S RI R 50
12.66                0.498319032      0.83760543   0.000271211423 -0.000189422081   0.000271211423 -0.000189422081      0.501065735      0.83583599
12.660028            0.498803369      0.83729337    0.00027153379 -0.000189896213    0.00027153379 -0.000189896213      0.501552379      0.83552009
12.660056            0.499287919     0.836980756   0.000271856432 -0.000190371555   0.000271856432 -0.000190371555      0.502039245     0.835203624
12.660084            0.499772683     0.836667586   0.000272179349  -0.00019084811    0.00027217935  -0.00019084811      0.502526329     0.834886591
12.660112            0.500257662     0.836353858   0.000272502541 -0.000191325881   0.000272502542 -0.000191325881      0.503013628     0.834568993
12.66014             0.500742856     0.836039572   0.000272826009 -0.000191804871   0.000272826009 -0.000191804871       0.50350114     0.834250829
12.660168            0.501228264     0.835724727    0.00027314975 -0.000192285083    0.00027314975 -0.000192285083      0.503988865     0.833932099
12.660196            0.501713887     0.835409321   0.000273473765 -0.000192766521   0.000273473765 -0.000192766521      0.504476804     0.833612802
12.660224            0.502199723     0.835093354   0.000273798052 -0.000193249188   0.000273798053 -0.000193249188      0.504964957     0.833292935
12.660252            0.502685774     0.834776825   0.000274122613 -0.000193733086   0.000274122613 -0.000193733086      0.505453323     0.832972497
12.66028             0.503172038     0.834459733   0.000274447445  -0.00019421822   0.000274447445  -0.00019421822      0.505941904     0.832651489
12.660308            0.503658516     0.834142076   0.000274772548 -0.000194704593   0.000274772548 -0.000194704593      0.506430698     0.832329909
12.660336            0.504145208     0.833823855   0.000275097922 -0.000195192207   0.000275097922 -0.000195192207      0.506919705     0.832007756
12.660364            0.504632112     0.833505067   0.000275423566 -0.000195681067   0.000275423566 -0.000195681067      0.507408925     0.831685028
12.660392             0.50511923     0.833185712   0.000275749479 -0.000196171175   0.000275749479 -0.000196171175      0.507898359     0.831361726
12.66042             0.505606561     0.832865789   0.000276075662 -0.000196662534   0.000276075662 -0.000196662534      0.508388005     0.831037847
12.660448            0.506094105     0.832545297   0.000276402113 -0.000197155149   0.000276402113 -0.000197155149      0.508877864     0.830713391
12.660476            0.506581861     0.832224235   0.000276728831 -0.000197649022   0.000276728831 -0.000197649022      0.509367936     0.830388358
12.660504             0.50706983     0.831902602   0.000277055817 -0.000198144156   0.000277055817 -0.000198144156       0.50985822     0.830062745
12.660532            0.507558011     0.831580397   0.000277383069 -0.000198640556   0.000277383069 -0.000198640556      0.510348716     0.829736552
12.66056             0.508046405     0.831257619   0.000277710587 -0.000199138223   0.000277710587 -0.000199138224      0.510839424     0.829409778
12.660588             0.50853501     0.830934267    0.00027803837 -0.000199637163   0.000278038371 -0.000199637163      0.511330344     0.829082422
12.660616            0.509023828      0.83061034   0.000278366418 -0.000200137377   0.000278366419 -0.000200137377      0.511821476     0.828754482
12.660644            0.509512857     0.830285838    0.00027869473  -0.00020063887   0.000278694731  -0.00020063887      0.512312819     0.828425959
12.660672            0.510002097     0.829960758   0.000279023306 -0.000201141644   0.000279023306 -0.000201141644      0.512804374     0.828096851
12.6607              0.510491549       0.8296351   0.000279352144 -0.000201645703   0.000279352144 -0.000201645704       0.51329614     0.827767156
12.660728            0.510981213     0.829308863   0.000279681244 -0.000202151051   0.000279681244 -0.000202151051      0.513788117     0.827436874
12.660756            0.511471087     0.828982046   0.000280010606 -0.000202657691   0.000280010606 -0.000202657691      0.514280304     0.827106004
12.660784            0.511961172     0.828654648   0.000280340228 -0.000203165626   0.000280340228 -0.000203165626      0.514772703     0.826774545
12.660812            0.512451468     0.828326668    0.00028067011  -0.00020367486   0.000280670111  -0.00020367486      0.515265311     0.826442496
12.66084             0.512941974     0.827998106   0.000281000252 -0.000204185396   0.000281000252 -0.000204185396       0.51575813     0.826109855
12.660868            0.513432691     0.827668959   0.000281330653 -0.000204697237   0.000281330653 -0.000204697237      0.516251159     0.825776622
12.660896            0.513923618     0.827339227   0.000281661311 -0.000205210387   0.000281661312 -0.000205210388      0.516744398     0.825442796
12.660924            0.514414755     0.827008909   0.000281992227  -0.00020572485   0.000281992227  -0.00020572485      0.517237847     0.825108375
12.660952            0.514906102     0.826678004     0.0002823234 -0.000206240629     0.0002823234 -0.000206240629      0.517731505     0.824773359
12.66098             0.515397658     0.826346511   0.000282654828 -0.000206757727   0.000282654828 -0.000206757727      0.518225373     0.824437747
12.661008            0.515889424     0.826014429   0.000282986512 -0.000207276148   0.000282986512 -0.000207276148      0.518719449     0.824101537
12.661036            0.516381399     0.825681756    0.00028331845 -0.000207795895    0.00028331845 -0.000207795895      0.519213735     0.823764729
12.661064            0.516873583     0.825348493   0.000283650642 -0.000208316972   0.000283650642 -0.000208316972      0.519708229     0.823427321
12.661092            0.517365976     0.825014637   0.000283983086 -0.000208839382   0.000283983087 -0.000208839382      0.520202932     0.823089312
12.66112             0.517858577     0.824680189   0.000284315784 -0.000209363129   0.000284315784  -0.00020936313      0.520697843     0.822750702
12.661148            0.518351388     0.824345146   0.000284648732 -0.000209888217   0.000284648732 -0.000209888217      0.521192962      0.82241149
12.661176            0.518844406     0.824009507   0.000284981932 -0.000210414648   0.000284981932 -0.000210414648      0.521688289     0.822071673
12.661204            0.519337633     0.823673273   0.000285315381 -0.000210942427   0.000285315381 -0.000210942427      0.522183824     0.821731252
12.661232            0.519831067     0.823336441    0.00028564908 -0.000211471557    0.00028564908 -0.000211471557      0.522679567     0.821390226
12.66126              0.52032471     0.822999011   0.000285983027 -0.000212002041   0.000285983027 -0.000212002041      0.523175516     0.821048592
12.661288            0.520818559     0.822660981   0.000286317222 -0.000212533883   0.000286317222 -0.000212533884      0.523671673      0.82070635
12.661316            0.521312617     0.822322351   0.000286651663 -0.000213067088   0.000286651664 -0.000213067088      0.524168037       0.8203635
12.661344            0.521806881      0.82198312   0.000286986351 -0.000213601657   0.000286986351 -0.000213601657      0.524664607     0.820020039
12.661372            0.522301352     0.821643286   0.000287321284 -0.000214137595   0.000287321285 -0.000214137595      0.525161384     0.819675967
12.6614               0.52279603     0.821302848   0.000287656462 -0.000214674906   0.000287656462 -0.000214674906      0.525658368     0.819331284
12.661428            0.523290914     0.820961806   0.000287991883 -0.000215213592   0.000287991884 -0.000215213593      0.526155557     0.818985987
12.661456            0.523786005     0.820620158   0.000288327548 -0.000215753659   0.000288327548 -0.000215753659      0.526652952     0.818640075
12.661484            0.524281302     0.820277904   0.000288663454 -0.000216295109   0.000288663454 -0.000216295109      0.527150553     0.818293549
12.661512            0.524776805     0.819935042   0.000288999601 -0.000216837945   0.000288999601 -0.000216837945      0.527648359     0.817946406
12.66154             0.525272513      0.81959157   0.000289335989 -0.000217382173   0.000289335989 -0.000217382173       0.52814637     0.817598645
12.661568            0.525768427     0.819247489   0.000289672616 -0.000217927794   0.000289672617 -0.000217927794      0.528644586     0.817250266
12.661596            0.526264547     0.818902798   0.000290009482 -0.000218474814   0.000290009483 -0.000218474814      0.529143007     0.816901267
12.661624            0.526760871     0.818557494   0.000290346586 -0.000219023235   0.000290346586 -0.000219023235      0.529641632     0.816551648
12.661652              0.5272574     0.818211577   0.000290683927 -0.000219573061   0.000290683927 -0.000219573062      0.530140462     0.816201407
12.66168             0.527754134     0.817865046   0.000291021503 -0.000220124297   0.000291021504 -0.000220124297      0.530639496     0.815850543
12.661708            0.528251072     0.817517899   0.000291359315 -0.000220676945   0.000291359316 -0.000220676945      0.531138733     0.815499055
12.661736            0.528748214     0.817170137   0.000291697361  -0.00022123101   0.000291697362  -0.00022123101      0.531638174     0.815146942
12.661764             0.52924556     0.816821757   0.000292035641 -0.000221786495   0.000292035641 -0.000221786495      0.532137819     0.814794203
12.661792             0.52974311     0.816472759   0.000292374153 -0.000222343403   0.000292374153 -0.000222343404      0.532637666     0.814440837
12.66182             0.530240863     0.816123141   0.000292712896  -0.00022290174   0.000292712897  -0.00022290174      0.533137716     0.814086842
12.661848             0.53073882     0.815772903    0.00029305187 -0.000223461508   0.000293051871 -0.000223461508      0.533637969     0.813732218
12.661876             0.53123698     0.815422043   0.000293391074  -0.00022402271   0.000293391075 -0.000224022711      0.534138425     0.813376964
12.661904            0.531735342     0.815070561   0.000293730507 -0.000224585352   0.000293730507 -0.000224585353      0.534639082     0.813021078
12.661932            0.532233907     0.814718454   0.000294070167 -0.000225149437   0.000294070167 -0.000225149437      0.535139941     0.812664559
12.66196             0.532732675     0.814365723   0.000294410054 -0.000225714968   0.000294410055 -0.000225714968      0.535641002     0.812307406
12.661988            0.533231644     0.814012366   0.000294750168  -0.00022628195   0.000294750168  -0.00022628195      0.536142265     0.811949619
12.662016            0.533730816     0.813658382   0.000295090506 -0.000226850385   0.000295090506 -0.000226850385      0.536643728     0.811591196
12.662044            0.534230189      0.81330377   0.000295431068 -0.000227420279   0.000295431068 -0.000227420279      0.537145393     0.811232135
12.662072            0.534729763     0.812948528   0.000295771853 -0.000227991634   0.000295771853 -0.000227991634      0.537647258     0.810872437
12.6621              0.535229538     0.812592657   0.000296112859 -0.000228564455    0.00029611286 -0.000228564455      0.538149323     0.810512099
12.662128            0.535729515     0.812236153   0.000296454087 -0.000229138745   0.000296454088 -0.000229138746      0.538651589      0.81015112
12.662156            0.536229692     0.811879018   0.000296795535 -0.000229714509   0.000296795535 -0.000229714509      0.539154054     0.809789501
12.662184            0.536730069     0.811521248   0.000297137202  -0.00023029175   0.000297137202  -0.00023029175      0.539656719     0.809427238
12.662212            0.537230647     0.811162845   0.000297479087 -0.000230870472   0.000297479087 -0.000230870472      0.540159583     0.809064332
12.66224             0.537731424     0.810803805   0.000297821189 -0.000231450679   0.000297821189  -0.00023145068      0.540662647     0.808700781
12.662268            0.538232401     0.810444128   0.000298163506 -0.000232032375   0.000298163506 -0.000232032376      0.541165909     0.808336584
12.662296            0.538733578     0.810083814   0.000298506039 -0.000232615564   0.000298506039 -0.000232615564       0.54166937     0.807971739
12.662324            0.539234953      0.80972286   0.000298848785  -0.00023320025   0.000298848785  -0.00023320025      0.542173029     0.807606247
12.662352            0.539736528     0.809361266   0.000299191744 -0.000233786436   0.000299191744 -0.000233786436      0.542676886     0.807240105
12.66238             0.540238301      0.80899903   0.000299534914 -0.000234374126   0.000299534914 -0.000234374127      0.543180941     0.806873312
12.662408            0.540740272     0.808636153   0.000299878295 -0.000234963326   0.000299878295 -0.000234963326      0.543685193     0.806505868
12.662436            0.541242441     0.808272631   0.000300221886 -0.000235554037   0.000300221886 -0.000235554038      0.544189643     0.806137772
12.662464            0.541744809     0.807908465   0.000300565685 -0.000236146266   0.000300565685 -0.000236146266      0.544694289     0.805769021
12.662492            0.542247374     0.807543654   0.000300909691 -0.000236740014   0.000300909691 -0.000236740015      0.545199132     0.805399615
12.66252             0.542750136     0.807178195   0.000301253903 -0.000237335288   0.000301253903 -0.000237335288      0.545704171     0.805029553
12.662548            0.543253095     0.806812088    0.00030159832 -0.000237932089   0.000301598321 -0.000237932089      0.546209406     0.804658834
12.662576            0.543756251     0.806445332   0.000301942942 -0.000238530423   0.000301942942 -0.000238530423      0.546714838     0.804287456
12.662604            0.544259603     0.806077926   0.000302287766 -0.000239130294   0.000302287766 -0.000239130294      0.547220464     0.803915419
12.662632            0.544763151     0.805709868   0.000302632791 -0.000239731705   0.000302632791 -0.000239731705      0.547726286      0.80354272
12.66266             0.545266896     0.805341158   0.000302978017  -0.00024033466   0.000302978017 -0.000240334661      0.548232303      0.80316936
12.662688            0.545770836     0.804971794   0.000303323443 -0.000240939165   0.000303323443 -0.000240939165      0.548738514     0.802795337
12.662716            0.546274971     0.804601775   0.000303669066 -0.000241545221   0.000303669066 -0.000241545222       0.54924492      0.80242065
12.662744            0.546779302     0.804231101   0.000304014887 -0.000242152835   0.000304014887 -0.000242152835      0.549751519     0.802045297
12.662772            0.547283827     0.803859769   0.000304360903  -0.00024276201   0.000304360903  -0.00024276201      0.550258313     0.801669278
12.6628              0.547788547     0.803487779   0.000304707113 -0.000243372749   0.000304707114 -0.000243372749      0.550765299     0.801292591
12.662828            0.548293461     0.803115129   0.000305053518 -0.000243985057   0.000305053518 -0.000243985057      0.551272479     0.800915235
12.662856            0.548798568     0.802741819   0.000305400114 -0.000244598939   0.000305400114 -0.000244598939      0.551779852     0.800537209
12.662884             0.54930387     0.802367847   0.000305746901 -0.000245214397   0.000305746901 -0.000245214398      0.552287417     0.800158512
12.662912            0.549809365     0.801993213   0.000306093878 -0.000245831438   0.000306093878 -0.000245831438      0.552795175     0.799779143
12.66294             0.550315052     0.801617914   0.000306441043 -0.000246450063   0.000306441043 -0.000246450063      0.553303124       0.7993991
12.662968            0.550820933     0.801241951   0.000306788395 -0.000247070278   0.000306788395 -0.000247070279      0.553811265     0.799018383
12.662996            0.551327006     0.800865321   0.000307135933 -0.000247692088   0.000307135934 -0.000247692088      0.554319597     0.798636989
12.663024            0.551833271     0.800488023   0.000307483656 -0.000248315495   0.000307483656 -0.000248315495       0.55482812     0.798254919
12.663052            0.552339728     0.800110057   0.000307831562 -0.000248940504   0.000307831563 -0.000248940504      0.555336834      0.79787217
12.66308             0.552846376     0.799731422   0.000308179651  -0.00024956712   0.000308179651  -0.00024956712      0.555845738     0.797488742
12.663108            0.553353216     0.799352115    0.00030852792 -0.000250195346    0.00030852792 -0.000250195347      0.556354832     0.797104634
12.663136            0.553860246     0.798972136   0.000308876368 -0.000250825188   0.000308876368 -0.000250825188      0.556864115     0.796719843
12.663164            0.554367468     0.798591484   0.000309224995 -0.000251456648   0.000309224995 -0.000251456648      0.557373588      0.79633437
12.663192            0.554874879     0.798210157   0.000309573798 -0.000252089732   0.000309573798 -0.000252089732       0.55788325     0.795948213
12.66322              0.55538248     0.797828155   0.000309922777 -0.000252724443   0.000309922777 -0.000252724443      0.558393101      0.79556137
12.663248            0.555890271     0.797445476    0.00031027193 -0.000253360786    0.00031027193 -0.000253360786       0.55890314      0.79517384
12.663276            0.556398252     0.797062119   0.000310621256 -0.000253998765   0.000310621256 -0.000253998765      0.559413367     0.794785623
12.663304            0.556906421     0.796678083   0.000310970753 -0.000254638384   0.000310970753 -0.000254638384      0.559923782     0.794396718
12.663332            0.557414779     0.796293367    0.00031132042 -0.000255279648    0.00031132042 -0.000255279648      0.560434384     0.794007122
12.66336             0.557923325     0.795907969   0.000311670255 -0.000255922561   0.000311670256 -0.000255922561      0.560945173     0.793616834
12.663388             0.55843206     0.795521889   0.000312020258 -0.000256567127   0.000312020259 -0.000256567127      0.561456149     0.793225854
12.663416            0.558940982     0.795135124   0.000312370427 -0.000257213351   0.000312370427 -0.000257213351      0.561967311     0.792834181
12.663444            0.559450091     0.794747675    0.00031272076 -0.000257861236    0.00031272076 -0.000257861237      0.562478659     0.792441812
12.663472            0.559959387     0.794359539   0.000313071256 -0.000258510788   0.000313071256 -0.000258510789      0.562990192     0.792048748
12.6635              0.560468871     0.793970716   0.000313421914 -0.000259162011   0.000313421914 -0.000259162011      0.563501911     0.791654986
