! TOUCHSTONE file generated by CST MICROWAVE STUDIO
! Date and time: Wed Jul 31 19:24:41 2024
! Project name: WaveGuide_BPF-Ver4.1_U-shape_Ku_T3_C4_CWA_2.cst
! Parameters = {cavity_h=16; cavity_l0=10; cavity_l1=15.1649; cavity_l2=16.8351; cavity_l3=17.0999; cavity_l4=17.2529; cavity_l5=17.1519; cavity_l6=17.6063; cavity_r=2.5; cavity_screw_l=0.5; cavity_screw_r=1.5; cavity_w=8; iris_h00=0; iris_h01=8.8106; iris_h112=0; iris_h12=5.5925; iris_h211=3.6618; iris_h23=5.2034; iris_h310=3.9677; iris_h34=5.0785; iris_h45=4.9422; iris_h49=4.6164; iris_h56=4.8064; iris_h58=4.4361; iris_h67=6.564; iris_rx=0.1; iris_screw_l=0.5; iris_screw_r=1.5; iris_shift00=0; iris_shift112=0; iris_shift211=3.5; iris_shift310=0; iris_shift49=0; iris_shift58=3.5; iris_shift67=3.5; iris_tx=4.5; iris_tz=4.5; iris_w00=0; iris_w112=0; iris_w211=4; iris_w310=3.9677; iris_w49=4.6164; iris_w58=4; iris_w67=4; mesh_cavity=5; mesh_iris=7; mesh_screw=7; order=12; reset_all=0; sigma=4.8e+07}
! Header version: 2018
! Port assignment regex: !\s*Touchstone port\s*([0-9]+)\s*=\s*(CST MWS port|CST DS port)\s*([0-9]+|Zmin|Zmax)\s*\(\"(.*)\"\)(\s*mode\s*([0-9]+))?.*
! Touchstone port assignment:
! Touchstone port 1 = CST MWS port 1 ("")
! Touchstone port 2 = CST MWS port 2 ("")
# GHz S RI R 50
12.66                 0.17882848     0.969090488   0.000159056515 -4.04907251e-05   0.000159056514  -4.0490725e-05      0.184631432     0.967999367
12.660028            0.179139273     0.969024601   0.000159272925 -4.06042165e-05   0.000159272924 -4.06042164e-05      0.184942932     0.967931381
12.660056            0.179450268     0.968958562   0.000159489685 -4.07179954e-05   0.000159489685 -4.07179953e-05      0.185254477     0.967863271
12.660084            0.179761453     0.968892374   0.000159706796 -4.08320659e-05   0.000159706795 -4.08320658e-05      0.185566123     0.967795026
12.660112            0.180072816     0.968826038   0.000159924255 -4.09464321e-05   0.000159924254  -4.0946432e-05      0.185877924     0.967726636
12.66014             0.180384345     0.968759557   0.000160142062  -4.1061098e-05   0.000160142061 -4.10610979e-05      0.186189936     0.967658091
12.660168            0.180696039      0.96869293   0.000160360217 -4.11760646e-05   0.000160360217 -4.11760646e-05      0.186502158     0.967589389
12.660196            0.181007907     0.968626155   0.000160578723 -4.12913305e-05   0.000160578722 -4.12913304e-05      0.186814555     0.967520537
12.660224            0.181319949     0.968559233   0.000160797579 -4.14068965e-05   0.000160797579 -4.14068964e-05      0.187127127     0.967451536
12.660252            0.181632166     0.968492163   0.000161016787 -4.15227634e-05   0.000161016786 -4.15227633e-05      0.187439873     0.967382385
12.66028             0.181944558     0.968424944   0.000161236346  -4.1638932e-05   0.000161236346 -4.16389319e-05      0.187752793     0.967313083
12.660308            0.182257124     0.968357577   0.000161456258 -4.17554032e-05   0.000161456258 -4.17554031e-05      0.188065889     0.967243631
12.660336            0.182569865     0.968290061   0.000161676524 -4.18721779e-05   0.000161676523 -4.18721778e-05       0.18837916     0.967174028
12.660364            0.182882781     0.968222396   0.000161897143 -4.19892568e-05   0.000161897143 -4.19892567e-05      0.188692605     0.967104275
12.660392            0.183195872     0.968154581   0.000162118117 -4.21066409e-05   0.000162118117 -4.21066408e-05      0.189006227      0.96703437
12.66042             0.183509139     0.968086617   0.000162339446 -4.22243309e-05   0.000162339446 -4.22243308e-05      0.189320023     0.966964314
12.660448            0.183822581     0.968018504   0.000162561131 -4.23423277e-05    0.00016256113 -4.23423276e-05      0.189633996     0.966894105
12.660476            0.184136198      0.96795024   0.000162783172 -4.24606322e-05   0.000162783172 -4.24606321e-05      0.189948144     0.966823745
12.660504            0.184449992     0.967881826    0.00016300557 -4.25792452e-05    0.00016300557 -4.25792451e-05      0.190262468     0.966753233
12.660532            0.184763961     0.967813262   0.000163228326 -4.26981675e-05   0.000163228326 -4.26981674e-05      0.190576968     0.966682568
12.66056             0.185078106     0.967744547    0.00016345144 -4.28174001e-05    0.00016345144    -4.28174e-05      0.190891645     0.966611751
12.660588            0.185392428     0.967675681   0.000163674913 -4.29369438e-05   0.000163674913 -4.29369437e-05      0.191206498      0.96654078
12.660616            0.185706926     0.967606663   0.000163898746 -4.30567995e-05   0.000163898746 -4.30567994e-05      0.191521527     0.966469656
12.660644            0.186021601     0.967537494   0.000164122939 -4.31769679e-05   0.000164122939 -4.31769678e-05      0.191836734     0.966398379
12.660672            0.186336452     0.967468174   0.000164347493 -4.32974501e-05   0.000164347492   -4.329745e-05      0.192152117     0.966326948
12.6607              0.186651481     0.967398701   0.000164572408 -4.34182468e-05   0.000164572408 -4.34182467e-05      0.192467677     0.966255363
12.660728            0.186966686     0.967329076   0.000164797686  -4.3539359e-05   0.000164797685 -4.35393589e-05      0.192783415     0.966183624
12.660756            0.187282068     0.967259298   0.000165023326 -4.36607874e-05   0.000165023326 -4.36607873e-05      0.193099329      0.96611173
12.660784            0.187597628     0.967189368    0.00016524933 -4.37825331e-05    0.00016524933  -4.3782533e-05      0.193415422     0.966039681
12.660812            0.187913365     0.967119285   0.000165475698 -4.39045969e-05   0.000165475697 -4.39045968e-05      0.193731692     0.965967478
12.66084              0.18822928     0.967049048    0.00016570243 -4.40269796e-05    0.00016570243 -4.40269795e-05       0.19404814     0.965895119
12.660868            0.188545373     0.966978658   0.000165929528 -4.41496821e-05   0.000165929528  -4.4149682e-05      0.194364765     0.965822604
12.660896            0.188861643     0.966908114   0.000166156993 -4.42727054e-05   0.000166156992 -4.42727054e-05      0.194681569     0.965749934
12.660924            0.189178092     0.966837416   0.000166384823 -4.43960504e-05   0.000166384823 -4.43960503e-05      0.194998552     0.965677107
12.660952            0.189494719     0.966766563   0.000166613022 -4.45197179e-05   0.000166613021 -4.45197178e-05      0.195315712     0.965604125
12.66098             0.189811525     0.966695556   0.000166841588 -4.46437088e-05   0.000166841588 -4.46437087e-05      0.195633052     0.965530985
12.661008            0.190128509     0.966624395   0.000167070523  -4.4768024e-05   0.000167070522 -4.47680239e-05       0.19595057     0.965457689
12.661036            0.190445672     0.966553078   0.000167299827 -4.48926645e-05   0.000167299827 -4.48926644e-05      0.196268267     0.965384236
12.661064            0.190763013     0.966481606   0.000167529501 -4.50176311e-05   0.000167529501  -4.5017631e-05      0.196586143     0.965310625
12.661092            0.191080534     0.966409978   0.000167759546 -4.51429248e-05   0.000167759546 -4.51429247e-05      0.196904198     0.965236856
12.66112             0.191398234     0.966338194   0.000167989962 -4.52685465e-05   0.000167989962 -4.52685464e-05      0.197222433      0.96516293
12.661148            0.191716113     0.966266254    0.00016822075  -4.5394497e-05    0.00016822075 -4.53944969e-05      0.197540847     0.965088846
12.661176            0.192034172     0.966194158   0.000168451911 -4.55207773e-05   0.000168451911 -4.55207772e-05      0.197859441     0.965014603
12.661204            0.192352411     0.966121905   0.000168683445 -4.56473883e-05   0.000168683445 -4.56473883e-05      0.198178215     0.964940201
12.661232            0.192670829     0.966049495   0.000168915354  -4.5774331e-05   0.000168915353 -4.57743309e-05      0.198497168      0.96486564
12.66126             0.192989428     0.965976928   0.000169147636 -4.59016063e-05   0.000169147636 -4.59016062e-05      0.198816302     0.964790921
12.661288            0.193308206     0.965904204   0.000169380294 -4.60292151e-05   0.000169380294  -4.6029215e-05      0.199135617     0.964716041
12.661316            0.193627165     0.965831322   0.000169613328 -4.61571583e-05   0.000169613328 -4.61571582e-05      0.199455111     0.964641002
12.661344            0.193946304     0.965758281   0.000169846739 -4.62854368e-05   0.000169846739 -4.62854367e-05      0.199774787     0.964565803
12.661372            0.194265624     0.965685083   0.000170080527 -4.64140517e-05   0.000170080527 -4.64140516e-05      0.200094643     0.964490443
12.6614              0.194585125     0.965611726   0.000170314693 -4.65430038e-05   0.000170314693 -4.65430037e-05       0.20041468     0.964414923
12.661428            0.194904807      0.96553821   0.000170549238 -4.66722941e-05   0.000170549237  -4.6672294e-05      0.200734899     0.964339242
12.661456             0.19522467     0.965464536   0.000170784162 -4.68019235e-05   0.000170784161 -4.68019234e-05      0.201055298       0.9642634
12.661484            0.195544714     0.965390702   0.000171019466 -4.69318931e-05   0.000171019465  -4.6931893e-05      0.201375879     0.964187397
12.661512            0.195864939     0.965316708    0.00017125515 -4.70622036e-05    0.00017125515 -4.70622035e-05      0.201696642     0.964111231
12.66154             0.196185346     0.965242555   0.000171491216 -4.71928562e-05   0.000171491216 -4.71928561e-05      0.202017587     0.964034904
12.661568            0.196505935     0.965168241   0.000171727664 -4.73238517e-05   0.000171727664 -4.73238516e-05      0.202338713     0.963958415
12.661596            0.196826706     0.965093767   0.000171964495 -4.74551911e-05   0.000171964495  -4.7455191e-05      0.202660022     0.963881763
12.661624            0.197147659     0.965019133    0.00017220171 -4.75868754e-05   0.000172201709 -4.75868753e-05      0.202981512     0.963804949
12.661652            0.197468794     0.964944337   0.000172439308 -4.77189055e-05   0.000172439308 -4.77189054e-05      0.203303185     0.963727971
12.66168             0.197790112      0.96486938   0.000172677291 -4.78512824e-05   0.000172677291 -4.78512823e-05      0.203625041      0.96365083
12.661708            0.198111612     0.964794262    0.00017291566 -4.79840072e-05    0.00017291566 -4.79840071e-05      0.203947079     0.963573526
12.661736            0.198433294     0.964718982   0.000173154415 -4.81170806e-05   0.000173154414 -4.81170806e-05      0.204269301     0.963496057
12.661764             0.19875516      0.96464354   0.000173393556 -4.82505039e-05   0.000173393556 -4.82505038e-05      0.204591705     0.963418425
12.661792            0.199077209     0.964567936   0.000173633086 -4.83842778e-05   0.000173633085 -4.83842777e-05      0.204914293     0.963340628
12.66182             0.199399441     0.964492169   0.000173873003 -4.85184035e-05   0.000173873003 -4.85184034e-05      0.205237064     0.963262667
12.661848            0.199721856      0.96441624    0.00017411331 -4.86528818e-05   0.000174113309 -4.86528817e-05      0.205560018      0.96318454
12.661876            0.200044455     0.964340147   0.000174354006 -4.87877138e-05   0.000174354005 -4.87877137e-05      0.205883156     0.963106248
12.661904            0.200367237     0.964263891   0.000174595092 -4.89229005e-05   0.000174595092 -4.89229004e-05      0.206206478     0.963027791
12.661932            0.200690204     0.964187471   0.000174836569 -4.90584429e-05   0.000174836569 -4.90584428e-05      0.206529984     0.962949168
12.66196             0.201013354     0.964110887   0.000175078438  -4.9194342e-05   0.000175078438 -4.91943419e-05      0.206853674     0.962870379
12.661988            0.201336688     0.964034139     0.0001753207 -4.93305987e-05   0.000175320699 -4.93305986e-05      0.207177549     0.962791423
12.662016            0.201660207     0.963957227   0.000175563354 -4.94672141e-05   0.000175563354  -4.9467214e-05      0.207501608     0.962712301
12.662044             0.20198391     0.963880149   0.000175806403 -4.96041892e-05   0.000175806402 -4.96041891e-05      0.207825852     0.962633012
12.662072            0.202307798     0.963802907   0.000176049846  -4.9741525e-05   0.000176049845 -4.97415249e-05       0.20815028     0.962553555
12.6621              0.202631871       0.9637255   0.000176293684 -4.98792225e-05   0.000176293683 -4.98792224e-05      0.208474894     0.962473931
12.662128            0.202956129     0.963647926   0.000176537918 -5.00172828e-05   0.000176537917 -5.00172827e-05      0.208799692      0.96239414
12.662156            0.203280572     0.963570187   0.000176782548 -5.01557068e-05   0.000176782548 -5.01557067e-05      0.209124676      0.96231418
12.662184              0.2036052     0.963492282   0.000177027576 -5.02944956e-05   0.000177027576 -5.02944955e-05      0.209449846     0.962234052
12.662212            0.203930014      0.96341421   0.000177273003 -5.04336502e-05   0.000177273002 -5.04336501e-05      0.209775201     0.962153755
12.66224             0.204255013     0.963335971   0.000177518827 -5.05731717e-05   0.000177518827 -5.05731716e-05      0.210100742     0.962073289
12.662268            0.204580199     0.963257566   0.000177765052  -5.0713061e-05   0.000177765051 -5.07130609e-05      0.210426469     0.961992655
12.662296             0.20490557     0.963178993   0.000178011676 -5.08533193e-05   0.000178011676 -5.08533192e-05      0.210752382      0.96191185
12.662324            0.205231127     0.963100252   0.000178258701 -5.09939475e-05   0.000178258701 -5.09939474e-05      0.211078481     0.961830876
12.662352            0.205556871     0.963021344   0.000178506128 -5.11349467e-05   0.000178506128 -5.11349466e-05      0.211404767     0.961749732
12.66238             0.205882801     0.962942267   0.000178753958 -5.12763179e-05   0.000178753957 -5.12763178e-05      0.211731239     0.961668417
12.662408            0.206208917     0.962863022    0.00017900219 -5.14180622e-05    0.00017900219 -5.14180621e-05      0.212057898     0.961586932
12.662436            0.206535221     0.962783609   0.000179250826 -5.15601807e-05   0.000179250826 -5.15601806e-05      0.212384744     0.961505276
12.662464            0.206861711     0.962704026   0.000179499866 -5.17026744e-05   0.000179499866 -5.17026743e-05      0.212711777     0.961423448
12.662492            0.207188389     0.962624274   0.000179749312 -5.18455443e-05   0.000179749312 -5.18455442e-05      0.213038998     0.961341449
12.66252             0.207515254     0.962544352   0.000179999164 -5.19887916e-05   0.000179999164 -5.19887915e-05      0.213366406     0.961259278
12.662548            0.207842306     0.962464261   0.000180249422 -5.21324173e-05   0.000180249422 -5.21324172e-05      0.213694001     0.961176935
12.662576            0.208169546     0.962383999   0.000180500088 -5.22764224e-05   0.000180500088 -5.22764223e-05      0.214021785      0.96109442
12.662604            0.208496974     0.962303566   0.000180751162 -5.24208081e-05   0.000180751161  -5.2420808e-05      0.214349756     0.961011732
12.662632            0.208824589     0.962222963   0.000181002644 -5.25655753e-05   0.000181002644 -5.25655752e-05      0.214677915     0.960928871
12.66266             0.209152393     0.962142189   0.000181254536 -5.27107253e-05   0.000181254536 -5.27107252e-05      0.215006263     0.960845837
12.662688            0.209480385     0.962061244   0.000181506839  -5.2856259e-05   0.000181506839 -5.28562589e-05      0.215334799     0.960762629
12.662716            0.209808566     0.961980127   0.000181759552 -5.30021776e-05   0.000181759552 -5.30021775e-05      0.215663524     0.960679247
12.662744            0.210136935     0.961898838   0.000182012678 -5.31484822e-05   0.000182012677 -5.31484821e-05      0.215992437     0.960595691
12.662772            0.210465493     0.961817376   0.000182266215 -5.32951738e-05   0.000182266215 -5.32951737e-05       0.21632154      0.96051196
12.6628              0.210794239     0.961735743   0.000182520166 -5.34422535e-05   0.000182520166 -5.34422534e-05      0.216650831     0.960428055
12.662828            0.211123175     0.961653936   0.000182774531 -5.35897224e-05   0.000182774531 -5.35897223e-05      0.216980312     0.960343975
12.662856            0.211452301     0.961571956    0.00018302931 -5.37375817e-05    0.00018302931 -5.37375816e-05      0.217309983     0.960259719
12.662884            0.211781615     0.961489803   0.000183284505 -5.38858325e-05   0.000183284505 -5.38858324e-05      0.217639842     0.960175287
12.662912             0.21211112     0.961407476   0.000183540117 -5.40344758e-05   0.000183540116 -5.40344757e-05      0.217969892      0.96009068
12.66294             0.212440814     0.961324975   0.000183796145 -5.41835128e-05   0.000183796144 -5.41835127e-05      0.218300132     0.960005896
12.662968            0.212770698       0.9612423    0.00018405259 -5.43329445e-05    0.00018405259 -5.43329444e-05      0.218630561     0.959920936
12.662996            0.213100772      0.96115945   0.000184309454 -5.44827722e-05   0.000184309454 -5.44827721e-05      0.218961181     0.959835799
12.663024            0.213431037     0.961076426   0.000184566738 -5.46329969e-05   0.000184566737 -5.46329968e-05      0.219291992     0.959750484
12.663052            0.213761492     0.960993226   0.000184824441 -5.47836198e-05   0.000184824441 -5.47836196e-05      0.219622993     0.959664992
12.66308             0.214092138      0.96090985   0.000185082565 -5.49346419e-05   0.000185082564 -5.49346418e-05      0.219954185     0.959579323
12.663108            0.214422974     0.960826299    0.00018534111 -5.50860645e-05   0.000185341109 -5.50860643e-05      0.220285567     0.959493475
12.663136            0.214754001     0.960742571   0.000185600077 -5.52378886e-05   0.000185600077 -5.52378885e-05      0.220617141     0.959407449
12.663164             0.21508522     0.960658668   0.000185859467 -5.53901154e-05   0.000185859467 -5.53901153e-05      0.220948906     0.959321244
12.663192             0.21541663     0.960574587   0.000186119281 -5.55427461e-05   0.000186119281  -5.5542746e-05      0.221280863      0.95923486
12.66322             0.215748231     0.960490329   0.000186379519 -5.56957817e-05   0.000186379519 -5.56957816e-05      0.221613011     0.959148296
12.663248            0.216080024     0.960405895   0.000186640183 -5.58492235e-05   0.000186640182 -5.58492234e-05      0.221945351     0.959061553
12.663276            0.216412009     0.960321282   0.000186901272 -5.60030726e-05   0.000186901272 -5.60030725e-05      0.222277884      0.95897463
12.663304            0.216744186     0.960236492   0.000187162788 -5.61573302e-05   0.000187162788 -5.61573301e-05      0.222610608     0.958887527
12.663332            0.217076555     0.960151523   0.000187424732 -5.63119974e-05   0.000187424731 -5.63119973e-05      0.222943524     0.958800243
12.66336             0.217409116     0.960066375   0.000187687103 -5.64670753e-05   0.000187687103 -5.64670752e-05      0.223276633     0.958712779
12.663388             0.21774187     0.959981049   0.000187949904 -5.66225653e-05   0.000187949903 -5.66225652e-05      0.223609935     0.958625133
12.663416            0.218074816     0.959895544   0.000188213134 -5.67784683e-05   0.000188213134 -5.67784682e-05      0.223943429     0.958537305
12.663444            0.218407956     0.959809859   0.000188476795 -5.69347857e-05   0.000188476794 -5.69347856e-05      0.224277117     0.958449296
12.663472            0.218741288     0.959723994   0.000188740887 -5.70915185e-05   0.000188740886 -5.70915184e-05      0.224610997     0.958361105
12.6635              0.219074814      0.95963795   0.000189005411 -5.72486681e-05    0.00018900541  -5.7248668e-05      0.224945071     0.958272731
