! TOUCHSTONE file generated by CST MICROWAVE STUDIO
! Date and time: Wed Jul 31 19:31:05 2024
! Project name: WaveGuide_BPF-Ver4.1_U-shape_Ku_T3_C4_CWA_2.cst
! Parameters = {cavity_h=16; cavity_l0=10; cavity_l1=15.1872; cavity_l2=16.8588; cavity_l3=17.1282; cavity_l4=17.2782; cavity_l5=17.119; cavity_l6=17.5731; cavity_r=2.5; cavity_screw_l=0.5; cavity_screw_r=1.5; cavity_w=8; iris_h00=0; iris_h01=8.8082; iris_h112=0; iris_h12=5.5989; iris_h211=3.654; iris_h23=5.1881; iris_h310=3.961; iris_h34=5.0686; iris_h45=4.9252; iris_h49=4.6112; iris_h56=4.793; iris_h58=4.4292; iris_h67=6.5934; iris_rx=0.1; iris_screw_l=0.5; iris_screw_r=1.5; iris_shift00=0; iris_shift112=0; iris_shift211=3.5; iris_shift310=0; iris_shift49=0; iris_shift58=3.5; iris_shift67=3.5; iris_tx=4.5; iris_tz=4.5; iris_w00=0; iris_w112=0; iris_w211=4; iris_w310=3.961; iris_w49=4.6112; iris_w58=4; iris_w67=4; mesh_cavity=5; mesh_iris=7; mesh_screw=7; order=12; reset_all=0; sigma=4.8e+07}
! Header version: 2018
! Port assignment regex: !\s*Touchstone port\s*([0-9]+)\s*=\s*(CST MWS port|CST DS port)\s*([0-9]+|Zmin|Zmax)\s*\(\"(.*)\"\)(\s*mode\s*([0-9]+))?.*
! Touchstone port assignment:
! Touchstone port 1 = CST MWS port 1 ("")
! Touchstone port 2 = CST MWS port 2 ("")
# GHz S RI R 50
12.66                0.251005559     0.950305939     0.0002256136 -7.72146876e-05     0.0002256136 -7.72146877e-05      0.254087379     0.949551825
12.660028            0.251369058     0.950197817   0.000225941782 -7.74308119e-05   0.000225941782  -7.7430812e-05       0.25444959     0.949442831
12.660056            0.251732738     0.950089478   0.000226270523 -7.76475222e-05   0.000226270523 -7.76475223e-05      0.254811956     0.949333627
12.660084            0.252096615     0.949980919    0.00022659982 -7.78648249e-05    0.00022659982  -7.7864825e-05      0.255174508     0.949224206
12.660112             0.25246071     0.949872134    0.00022692967 -7.80827269e-05    0.00022692967  -7.8082727e-05      0.255537272      0.94911456
12.66014              0.25282504     0.949763118   0.000227260072 -7.83012348e-05   0.000227260072 -7.83012349e-05      0.255900276     0.949004682
12.660168            0.253189606     0.949653871   0.000227591026 -7.85203504e-05   0.000227591026 -7.85203505e-05      0.256263521     0.948894571
12.660196            0.253554396     0.949544394   0.000227922535 -7.87400722e-05   0.000227922536 -7.87400723e-05      0.256626989     0.948784232
12.660224            0.253919409     0.949434689   0.000228254601 -7.89604021e-05   0.000228254601 -7.89604022e-05       0.25699068     0.948673663
12.660252            0.254284647     0.949324754   0.000228587225 -7.91813418e-05   0.000228587225 -7.91813419e-05      0.257354593     0.948562865
12.66028             0.254650108     0.949214588   0.000228920406 -7.94028933e-05   0.000228920407 -7.94028934e-05      0.257718729     0.948451837
12.660308            0.255015795     0.949104193   0.000229254148 -7.96250582e-05   0.000229254148 -7.96250583e-05      0.258083089      0.94834058
12.660336            0.255381706     0.948993566   0.000229588449 -7.98478385e-05   0.000229588449 -7.98478386e-05      0.258447672     0.948229091
12.660364            0.255747842     0.948882708   0.000229923312 -8.00712359e-05   0.000229923312  -8.0071236e-05      0.258812479     0.948117372
12.660392            0.256114203     0.948771618   0.000230258737 -8.02952524e-05   0.000230258737 -8.02952524e-05       0.25917751     0.948005421
12.66042             0.256480789     0.948660296   0.000230594726 -8.05198897e-05   0.000230594726 -8.05198898e-05      0.259542765     0.947893238
12.660448            0.256847601     0.948548741   0.000230931279 -8.07451497e-05   0.000230931279 -8.07451498e-05      0.259908244     0.947780822
12.660476            0.257214639     0.948436954   0.000231268397 -8.09710343e-05   0.000231268397 -8.09710344e-05      0.260273947     0.947668174
12.660504            0.257581902     0.948324933   0.000231606082 -8.11975453e-05   0.000231606082 -8.11975454e-05      0.260639875     0.947555293
12.660532            0.257949392     0.948212677   0.000231944334 -8.14246847e-05   0.000231944334 -8.14246848e-05      0.261006029     0.947442178
12.66056             0.258317108     0.948100188   0.000232283154 -8.16524543e-05   0.000232283154 -8.16524543e-05      0.261372407     0.947328829
12.660588            0.258685051     0.947987464   0.000232622544 -8.18808559e-05   0.000232622544  -8.1880856e-05       0.26173901     0.947215246
12.660616             0.25905322     0.947874504   0.000232962504 -8.21098915e-05   0.000232962504 -8.21098916e-05      0.262105839     0.947101428
12.660644            0.259421616     0.947761309   0.000233303036 -8.23395629e-05   0.000233303036  -8.2339563e-05      0.262472894     0.946987374
12.660672            0.259790239     0.947647878   0.000233644139 -8.25698722e-05   0.000233644139 -8.25698723e-05      0.262840175     0.946873085
12.6607               0.26015909      0.94753421   0.000233985816 -8.28008211e-05   0.000233985817 -8.28008212e-05      0.263207682     0.946758559
12.660728            0.260528169     0.947420305   0.000234328068 -8.30324116e-05   0.000234328068 -8.30324117e-05      0.263575415     0.946643796
12.660756            0.260897475     0.947306163   0.000234670895 -8.32646456e-05   0.000234670895 -8.32646457e-05      0.263943374     0.946528797
12.660784            0.261267009     0.947191783   0.000235014298  -8.3497525e-05   0.000235014298 -8.34975251e-05      0.264311561      0.94641356
12.660812            0.261636771     0.947077164   0.000235358279 -8.37310519e-05   0.000235358279  -8.3731052e-05      0.264679974     0.946298085
12.66084             0.262006762     0.946962307   0.000235702838  -8.3965228e-05   0.000235702838 -8.39652281e-05      0.265048615     0.946182371
12.660868            0.262376981      0.94684721   0.000236047976 -8.42000554e-05   0.000236047976 -8.42000555e-05      0.265417483     0.946066418
12.660896            0.262747429     0.946731874   0.000236393695  -8.4435536e-05   0.000236393695 -8.44355361e-05      0.265786578     0.945950227
12.660924            0.263118106     0.946616298   0.000236739996 -8.46716718e-05   0.000236739996 -8.46716719e-05      0.266155901     0.945833795
12.660952            0.263489012     0.946500481   0.000237086879 -8.49084648e-05   0.000237086879 -8.49084649e-05      0.266525452     0.945717123
12.66098             0.263860148     0.946384423   0.000237434345 -8.51459168e-05   0.000237434345 -8.51459169e-05      0.266895232      0.94560021
12.661008            0.264231514     0.946268124   0.000237782396   -8.538403e-05   0.000237782396 -8.53840301e-05       0.26726524     0.945483057
12.661036            0.264603109     0.946151583   0.000238131033 -8.56228062e-05   0.000238131033 -8.56228063e-05      0.267635476     0.945365661
12.661064            0.264974934     0.946034799   0.000238480256 -8.58622475e-05   0.000238480256 -8.58622476e-05      0.268005941     0.945248024
12.661092             0.26534699     0.945917773   0.000238830066 -8.61023558e-05   0.000238830066 -8.61023559e-05      0.268376635     0.945130144
12.66112             0.265719276     0.945800503   0.000239180466 -8.63431333e-05   0.000239180466 -8.63431334e-05      0.268747559     0.945012021
12.661148            0.266091792      0.94568299   0.000239531455 -8.65845818e-05   0.000239531455 -8.65845819e-05      0.269118711     0.944893655
12.661176             0.26646454     0.945565232   0.000239883035 -8.68267034e-05   0.000239883035 -8.68267035e-05      0.269490094     0.944775045
12.661204            0.266837519      0.94544723   0.000240235206 -8.70695001e-05   0.000240235206 -8.70695002e-05      0.269861706     0.944656191
12.661232            0.267210729     0.945328983    0.00024058797  -8.7312974e-05    0.00024058797 -8.73129741e-05      0.270233548     0.944537091
12.66126              0.26758417      0.94521049   0.000240941328 -8.75571271e-05   0.000240941328 -8.75571272e-05      0.270605621     0.944417747
12.661288            0.267957843     0.945091751   0.000241295281 -8.78019615e-05   0.000241295281 -8.78019616e-05      0.270977924     0.944298157
12.661316            0.268331749     0.944972765    0.00024164983 -8.80474791e-05    0.00024164983 -8.80474792e-05      0.271350458     0.944178321
12.661344            0.268705886     0.944853533   0.000242004976  -8.8293682e-05   0.000242004976 -8.82936821e-05      0.271723222     0.944058238
12.661372            0.269080256     0.944734053   0.000242360719 -8.85405724e-05   0.000242360719 -8.85405725e-05      0.272096218     0.943937908
12.6614              0.269454858     0.944614325   0.000242717062 -8.87881523e-05   0.000242717062 -8.87881524e-05      0.272469445      0.94381733
12.661428            0.269829693     0.944494349   0.000243074005 -8.90364237e-05   0.000243074005 -8.90364238e-05      0.272842904     0.943696504
12.661456            0.270204761     0.944374124   0.000243431549 -8.92853888e-05   0.000243431549 -8.92853889e-05      0.273216594      0.94357543
12.661484            0.270580062      0.94425365   0.000243789694 -8.95350496e-05   0.000243789695 -8.95350497e-05      0.273590516     0.943454107
12.661512            0.270955597     0.944132926   0.000244148444 -8.97854082e-05   0.000244148444 -8.97854083e-05      0.273964671     0.943332535
12.66154             0.271331365     0.944011952   0.000244507797 -9.00364668e-05   0.000244507797 -9.00364669e-05      0.274339057     0.943210712
12.661568            0.271707367     0.943890727   0.000244867756 -9.02882275e-05   0.000244867756 -9.02882276e-05      0.274713677      0.94308864
12.661596            0.272083603     0.943769251   0.000245228321 -9.05406923e-05   0.000245228321 -9.05406924e-05      0.275088529     0.942966316
12.661624            0.272460074     0.943647523   0.000245589493 -9.07938634e-05   0.000245589493 -9.07938635e-05      0.275463614     0.942843741
12.661652            0.272836779     0.943525543   0.000245951274  -9.1047743e-05   0.000245951274 -9.10477431e-05      0.275838932     0.942720915
12.66168             0.273213718     0.943403311   0.000246313665 -9.13023331e-05   0.000246313665 -9.13023332e-05      0.276214484     0.942597836
12.661708            0.273590893     0.943280825   0.000246676666 -9.15576359e-05   0.000246676666  -9.1557636e-05      0.276590269     0.942474504
12.661736            0.273968302     0.943158086   0.000247040278 -9.18136537e-05   0.000247040278 -9.18136538e-05      0.276966288     0.942350919
12.661764            0.274345947     0.943035093   0.000247404504 -9.20703884e-05   0.000247404504 -9.20703885e-05      0.277342541      0.94222708
12.661792            0.274723827     0.942911845   0.000247769343 -9.23278424e-05   0.000247769343 -9.23278425e-05      0.277719029     0.942102988
12.66182             0.275101944     0.942788342   0.000248134797 -9.25860177e-05   0.000248134797 -9.25860178e-05      0.278095751      0.94197864
12.661848            0.275480296     0.942664584   0.000248500866 -9.28449166e-05   0.000248500866 -9.28449167e-05      0.278472707     0.941854038
12.661876            0.275858884     0.942540569   0.000248867553 -9.31045413e-05   0.000248867553 -9.31045414e-05      0.278849899     0.941729179
12.661904            0.276237709     0.942416299   0.000249234858 -9.33648939e-05   0.000249234858  -9.3364894e-05      0.279227325     0.941604065
12.661932             0.27661677     0.942291771   0.000249602782 -9.36259766e-05   0.000249602782 -9.36259767e-05      0.279604987     0.941478694
12.66196             0.276996068     0.942166986   0.000249971326 -9.38877918e-05   0.000249971326 -9.38877919e-05      0.279982884     0.941353066
12.661988            0.277375603     0.942041943   0.000250340491 -9.41503415e-05   0.000250340491 -9.41503416e-05      0.280361018     0.941227181
12.662016            0.277755375     0.941916641   0.000250710279  -9.4413628e-05   0.000250710279 -9.44136281e-05      0.280739387     0.941101037
12.662044            0.278135385     0.941791081    0.00025108069 -9.46776536e-05    0.00025108069 -9.46776537e-05      0.281117992     0.940974635
12.662072            0.278515633     0.941665261   0.000251451725 -9.49424204e-05   0.000251451726 -9.49424205e-05      0.281496834     0.940847973
12.6621              0.278896118     0.941539181   0.000251823387 -9.52079308e-05   0.000251823387 -9.52079309e-05      0.281875912     0.940721053
12.662128            0.279276842     0.941412841   0.000252195674  -9.5474187e-05   0.000252195674 -9.54741871e-05      0.282255227     0.940593872
12.662156            0.279657803      0.94128624    0.00025256859 -9.57411912e-05    0.00025256859 -9.57411913e-05      0.282634779     0.940466431
12.662184            0.280039004     0.941159377   0.000252942134 -9.60089458e-05   0.000252942134 -9.60089459e-05      0.283014569     0.940338728
12.662212            0.280420443     0.941032253   0.000253316308  -9.6277453e-05   0.000253316308 -9.62774531e-05      0.283394595     0.940210764
12.66224             0.280802121     0.940904866   0.000253691113  -9.6546715e-05   0.000253691113 -9.65467151e-05       0.28377486     0.940082538
12.662268            0.281184038     0.940777217    0.00025406655 -9.68167342e-05    0.00025406655 -9.68167343e-05      0.284155362      0.93995405
12.662296            0.281566195     0.940649304    0.00025444262 -9.70875129e-05    0.00025444262  -9.7087513e-05      0.284536103     0.939825298
12.662324            0.281948591     0.940521127   0.000254819325 -9.73590534e-05   0.000254819325 -9.73590535e-05      0.284917082     0.939696283
12.662352            0.282331227     0.940392685   0.000255196664  -9.7631358e-05   0.000255196664 -9.76313581e-05      0.285298299     0.939567004
12.66238             0.282714103     0.940263979    0.00025557464 -9.79044291e-05    0.00025557464 -9.79044291e-05      0.285679755     0.939437461
12.662408            0.283097219     0.940135007   0.000255953254 -9.81782688e-05   0.000255953254 -9.81782689e-05       0.28606145     0.939307652
12.662436            0.283480576      0.94000577   0.000256332506 -9.84528797e-05   0.000256332506 -9.84528798e-05      0.286443384     0.939177578
12.662464            0.283864174     0.939876266   0.000256712398 -9.87282641e-05   0.000256712398 -9.87282642e-05      0.286825558     0.939047238
12.662492            0.284248012     0.939746495   0.000257092931 -9.90044242e-05   0.000257092931 -9.90044243e-05      0.287207971     0.938916631
12.66252             0.284632092     0.939616456   0.000257474106 -9.92813625e-05   0.000257474106 -9.92813626e-05      0.287590624     0.938785757
12.662548            0.285016412      0.93948615   0.000257855923 -9.95590813e-05   0.000257855923 -9.95590814e-05      0.287973518     0.938654616
12.662576            0.285400975     0.939355575   0.000258238385 -9.98375831e-05   0.000258238385 -9.98375831e-05      0.288356651     0.938523206
12.662604            0.285785779     0.939224731   0.000258621492  -0.00010011687   0.000258621492  -0.00010011687      0.288740025     0.938391528
12.662632            0.286170825     0.939093617   0.000259005245 -0.000100396945   0.000259005245 -0.000100396945       0.28912364     0.938259581
12.66266             0.286556114     0.938962234   0.000259389646  -0.00010067781   0.000259389646  -0.00010067781      0.289507495     0.938127364
12.662688            0.286941645      0.93883058   0.000259774695 -0.000100959467   0.000259774695 -0.000100959467      0.289891592     0.937994877
12.662716            0.287327418     0.938698655   0.000260160393 -0.000101241919   0.000260160394 -0.000101241919       0.29027593     0.937862119
12.662744            0.287713435     0.938566458   0.000260546743 -0.000101525169   0.000260546743 -0.000101525169      0.290660509      0.93772909
12.662772            0.288099694     0.938433989   0.000260933744 -0.000101809218   0.000260933744 -0.000101809218      0.291045331      0.93759579
12.6628              0.288486197     0.938301248   0.000261321398  -0.00010209407   0.000261321399  -0.00010209407      0.291430394     0.937462217
12.662828            0.288872944     0.938168233   0.000261709707 -0.000102379726   0.000261709707 -0.000102379726      0.291815699     0.937328371
12.662856            0.289259934     0.938034944    0.00026209867 -0.000102666189    0.00026209867 -0.000102666189      0.292201247     0.937194252
12.662884            0.289647168     0.937901382    0.00026248829 -0.000102953462    0.00026248829 -0.000102953462      0.292587038     0.937059859
12.662912            0.290034646     0.937767544   0.000262878567 -0.000103241547   0.000262878567 -0.000103241547      0.292973072     0.936925192
12.66294             0.290422369     0.937633432   0.000263269503 -0.000103530447   0.000263269503 -0.000103530447      0.293359348      0.93679025
12.662968            0.290810336     0.937499043   0.000263661098 -0.000103820163   0.000263661098 -0.000103820163      0.293745868     0.936655032
12.662996            0.291198548     0.937364378   0.000264053355   -0.0001041107   0.000264053355   -0.0001041107      0.294132632     0.936519539
12.663024            0.291587006     0.937229437   0.000264446273 -0.000104402058   0.000264446273 -0.000104402058      0.294519639     0.936383769
12.663052            0.291975708     0.937094217   0.000264839854  -0.00010469424   0.000264839854 -0.000104694241       0.29490689     0.936247722
12.66308             0.292364656      0.93695872   0.000265234099  -0.00010498725   0.000265234099  -0.00010498725      0.295294386     0.936111398
12.663108             0.29275385     0.936822945   0.000265629009  -0.00010528109   0.000265629009  -0.00010528109      0.295682126     0.935974795
12.663136             0.29314329      0.93668689   0.000266024586 -0.000105575761   0.000266024586 -0.000105575761       0.29607011     0.935837914
12.663164            0.293532976     0.936550556   0.000266420831 -0.000105871268   0.000266420831 -0.000105871268       0.29645834     0.935700754
12.663192            0.293922908     0.936413941   0.000266817744 -0.000106167611   0.000266817744 -0.000106167611      0.296846814     0.935563314
12.66322             0.294313087     0.936277046   0.000267215327 -0.000106464795   0.000267215327 -0.000106464795      0.297235534     0.935425593
12.663248            0.294703513      0.93613987    0.00026761358  -0.00010676282    0.00026761358 -0.000106762821      0.297624499     0.935287592
12.663276            0.295094186     0.936002412   0.000268012506 -0.000107061691   0.000268012506 -0.000107061691       0.29801371      0.93514931
12.663304            0.295485106     0.935864672   0.000268412105  -0.00010736141   0.000268412105  -0.00010736141      0.298403167     0.935010745
12.663332            0.295876273     0.935726648   0.000268812378 -0.000107661978   0.000268812379 -0.000107661978       0.29879287     0.934871899
12.66336             0.296267689     0.935588342   0.000269213327 -0.000107963399   0.000269213327   -0.0001079634       0.29918282     0.934732769
12.663388            0.296659352     0.935449751   0.000269614953 -0.000108265676   0.000269614953 -0.000108265676      0.299573016     0.934593356
12.663416            0.297051264     0.935310876   0.000270017256 -0.000108568811   0.000270017256 -0.000108568811      0.299963459     0.934453658
12.663444            0.297443424     0.935171716   0.000270420238 -0.000108872806   0.000270420238 -0.000108872807      0.300354149     0.934313677
12.663472            0.297835832      0.93503227     0.0002708239 -0.000109177665     0.0002708239 -0.000109177665      0.300745086     0.934173409
12.6635               0.29822849     0.934892538   0.000271228243  -0.00010948339   0.000271228243  -0.00010948339      0.301136271     0.934032857
