! TOUCHSTONE file generated by CST MICROWAVE STUDIO
! Date and time: Wed Jul 31 19:46:39 2024
! Project name: WaveGuide_BPF-Ver4.1_U-shape_Ku_T3_C4_CWA_2.cst
! Parameters = {cavity_h=16; cavity_l0=10; cavity_l1=15.2097; cavity_l2=16.8806; cavity_l3=17.104; cavity_l4=17.2367; cavity_l5=17.1242; cavity_l6=17.5757; cavity_r=2.5; cavity_screw_l=0.5; cavity_screw_r=1.5; cavity_w=8; iris_h00=0; iris_h01=8.8149; iris_h112=0; iris_h12=5.5944; iris_h211=3.6654; iris_h23=5.209; iris_h310=3.9781; iris_h34=5.0701; iris_h45=4.9232; iris_h49=4.6164; iris_h56=4.8043; iris_h58=4.4467; iris_h67=6.5773; iris_rx=0.1; iris_screw_l=0.5; iris_screw_r=1.5; iris_shift00=0; iris_shift112=0; iris_shift211=3.5; iris_shift310=0; iris_shift49=0; iris_shift58=3.5; iris_shift67=3.5; iris_tx=4.5; iris_tz=4.5; iris_w00=0; iris_w112=0; iris_w211=4; iris_w310=3.9781; iris_w49=4.6164; iris_w58=4; iris_w67=4; mesh_cavity=5; mesh_iris=7; mesh_screw=7; order=12; reset_all=0; sigma=4.8e+07}
! Header version: 2018
! Port assignment regex: !\s*Touchstone port\s*([0-9]+)\s*=\s*(CST MWS port|CST DS port)\s*([0-9]+|Zmin|Zmax)\s*\(\"(.*)\"\)(\s*mode\s*([0-9]+))?.*
! Touchstone port assignment:
! Touchstone port 1 = CST MWS port 1 ("")
! Touchstone port 2 = CST MWS port 2 ("")
# GHz S RI R 50
12.66                0.353900332     0.912693564   0.000357244584 -0.000173843704   0.000357244584 -0.000173843704      0.359894958     0.910363804
12.660028             0.35433592     0.912505943   0.000357809145 -0.000174349005   0.000357809145 -0.000174349005      0.360330114     0.910173021
12.660056            0.354771797     0.912317935   0.000358374706 -0.000174855843   0.000358374706 -0.000174855843      0.360765532     0.909981856
12.660084            0.355207958     0.912129539   0.000358941269 -0.000175364225   0.000358941269 -0.000175364224      0.361201221     0.909790306
12.660112            0.355644404     0.911940756   0.000359508834 -0.000175874155   0.000359508834 -0.000175874154      0.361637188     0.909598367
12.66014             0.356081132     0.911751586   0.000360077402  -0.00017638564   0.000360077402  -0.00017638564      0.362073442     0.909406035
12.660168            0.356518142     0.911562027   0.000360646974 -0.000176898685   0.000360646974 -0.000176898685      0.362509981      0.90921331
12.660196            0.356955436     0.911372078   0.000361217554 -0.000177413296   0.000361217554 -0.000177413296      0.362946803     0.909020193
12.660224            0.357393013     0.911181739   0.000361789143 -0.000177929476   0.000361789143 -0.000177929476      0.363383905     0.908826682
12.660252            0.357830876     0.910991009   0.000362361742 -0.000178447233   0.000362361742 -0.000178447232       0.36382129     0.908632778
12.66028             0.358269022     0.910799887   0.000362935353 -0.000178966569   0.000362935353 -0.000178966569      0.364258957     0.908438478
12.660308            0.358707454     0.910608372   0.000363509978 -0.000179487492   0.000363509978 -0.000179487492      0.364696906     0.908243783
12.660336             0.35914617     0.910416463   0.000364085618 -0.000180010007   0.000364085618 -0.000180010007      0.365135138     0.908048692
12.660364            0.359585172      0.91022416   0.000364662276 -0.000180534118   0.000364662276 -0.000180534118      0.365573652     0.907853203
12.660392            0.360024459     0.910031461   0.000365239953 -0.000181059831   0.000365239953 -0.000181059831       0.36601245     0.907657317
12.66042             0.360464031     0.909838367    0.00036581865 -0.000181587152    0.00036581865 -0.000181587152       0.36645153     0.907461031
12.660448             0.36090389     0.909644875    0.00036639837 -0.000182116086    0.00036639837 -0.000182116086      0.366890894     0.907264346
12.660476            0.361344034     0.909450986   0.000366979114 -0.000182646638   0.000366979115 -0.000182646638      0.367330542     0.907067261
12.660504            0.361784465     0.909256698   0.000367560885 -0.000183178814   0.000367560885 -0.000183178814      0.367770474     0.906869774
12.660532            0.362225182     0.909062011   0.000368143682  -0.00018371262   0.000368143682  -0.00018371262      0.368210689     0.906671885
12.66056             0.362666186     0.908866923   0.000368727509  -0.00018424806   0.000368727509  -0.00018424806      0.368651189     0.906473593
12.660588            0.363107477     0.908671435   0.000369312367 -0.000184785141   0.000369312367 -0.000184785141      0.369091973     0.906274897
12.660616            0.363549055     0.908475544   0.000369898258 -0.000185323867   0.000369898258 -0.000185323867      0.369533042     0.906075797
12.660644            0.363990921     0.908279251   0.000370485183 -0.000185864245   0.000370485183 -0.000185864245      0.369974396     0.905876291
12.660672            0.364433074     0.908082554   0.000371073145  -0.00018640628   0.000371073145  -0.00018640628      0.370416035     0.905676378
12.6607              0.364875515     0.907885453   0.000371662144 -0.000186949978   0.000371662144 -0.000186949977      0.370857959     0.905476059
12.660728            0.365318244     0.907687947   0.000372252183 -0.000187495343   0.000372252184 -0.000187495343      0.371300169     0.905275331
12.660756            0.365761261     0.907490034   0.000372843264 -0.000188042383   0.000372843264 -0.000188042383      0.371742664     0.905074195
12.660784            0.366204567     0.907291715   0.000373435388 -0.000188591102   0.000373435388 -0.000188591102      0.372185446     0.904872649
12.660812            0.366648162     0.907092988   0.000374028556 -0.000189141507   0.000374028556 -0.000189141506      0.372628513     0.904670692
12.66084             0.367092045     0.906893852   0.000374622771 -0.000189693602   0.000374622771 -0.000189693602      0.373071867     0.904468324
12.660868            0.367536218     0.906694306   0.000375218035 -0.000190247394   0.000375218035 -0.000190247394      0.373515508     0.904265543
12.660896             0.36798068      0.90649435   0.000375814348 -0.000190802888   0.000375814348 -0.000190802888      0.373959436      0.90406235
12.660924            0.368425432     0.906293983   0.000376411714 -0.000191360091   0.000376411714 -0.000191360091       0.37440365     0.903858742
12.660952            0.368870473     0.906093204   0.000377010132 -0.000191919008   0.000377010132 -0.000191919007      0.374848152      0.90365472
12.66098             0.369315805     0.905892012   0.000377609606 -0.000192479644   0.000377609607 -0.000192479644      0.375292941     0.903450282
12.661008            0.369761427     0.905690406   0.000378210138 -0.000193042006   0.000378210138 -0.000193042006      0.375738018     0.903245427
12.661036            0.370207339     0.905488386   0.000378811727 -0.000193606099   0.000378811727 -0.000193606099      0.376183383     0.903040155
12.661064            0.370653542      0.90528595   0.000379414378  -0.00019417193   0.000379414378  -0.00019417193      0.376629036     0.902834465
12.661092            0.371100036     0.905083097    0.00038001809 -0.000194739504    0.00038001809 -0.000194739504      0.377074977     0.902628355
12.66112             0.371546821     0.904879828   0.000380622867 -0.000195308827   0.000380622867 -0.000195308827      0.377521206     0.902421825
12.661148            0.371993898      0.90467614   0.000381228709 -0.000195879905   0.000381228709 -0.000195879905      0.377967725     0.902214875
12.661176            0.372441266     0.904472033   0.000381835618 -0.000196452744   0.000381835618 -0.000196452744      0.378414532     0.902007502
12.661204            0.372888926     0.904267506   0.000382443597 -0.000197027351   0.000382443597 -0.000197027351      0.378861629     0.901799707
12.661232            0.373336877     0.904062558   0.000383052647  -0.00019760373   0.000383052647  -0.00019760373      0.379309014     0.901591488
12.66126             0.373785122     0.903857189   0.000383662769 -0.000198181889   0.000383662769 -0.000198181889       0.37975669     0.901382845
12.661288            0.374233658     0.903651397   0.000384273966 -0.000198761832   0.000384273966 -0.000198761832      0.380204655     0.901173776
12.661316            0.374682487     0.903445182   0.000384886238 -0.000199343567   0.000384886238 -0.000199343567       0.38065291     0.900964281
12.661344             0.37513161     0.903238542   0.000385499589   -0.0001999271   0.000385499589 -0.000199927099      0.381101456     0.900754359
12.661372            0.375581025     0.903031477   0.000386114019 -0.000200512435   0.000386114019 -0.000200512435      0.381550292     0.900544009
12.6614              0.376030734     0.902823986   0.000386729531 -0.000201099581   0.000386729531 -0.000201099581      0.381999418      0.90033323
12.661428            0.376480736     0.902616068   0.000387346126 -0.000201688542   0.000387346126 -0.000201688542      0.382448835     0.900122021
12.661456            0.376931032     0.902407722   0.000387963805 -0.000202279325   0.000387963806 -0.000202279325      0.382898544     0.899910381
12.661484            0.377381622     0.902198947   0.000388582572 -0.000202871937   0.000388582572 -0.000202871936      0.383348543      0.89969831
12.661512            0.377832506     0.901989743   0.000389202426 -0.000203466382   0.000389202426 -0.000203466382      0.383798834     0.899485806
12.66154             0.378283684     0.901780107   0.000389823371 -0.000204062669   0.000389823371 -0.000204062669      0.384249417     0.899272868
12.661568            0.378735158     0.901570041   0.000390445408 -0.000204660802   0.000390445408 -0.000204660802      0.384700292     0.899059497
12.661596            0.379186926     0.901359541   0.000391068538 -0.000205260789   0.000391068538 -0.000205260789      0.385151458     0.898845689
12.661624            0.379638989     0.901148609   0.000391692763 -0.000205862636   0.000391692763 -0.000205862636      0.385602918     0.898631446
12.661652            0.380091348     0.900937242   0.000392318086 -0.000206466348   0.000392318086 -0.000206466348      0.386054669     0.898416766
12.66168             0.380544002     0.900725439   0.000392944507 -0.000207071933   0.000392944507 -0.000207071933      0.386506713     0.898201647
12.661708            0.380996951     0.900513201   0.000393572029 -0.000207679397   0.000393572029 -0.000207679397      0.386959051      0.89798609
12.661736            0.381450197     0.900300526   0.000394200654 -0.000208288746   0.000394200654 -0.000208288746      0.387411681     0.897770092
12.661764            0.381903739     0.900087412   0.000394830382 -0.000208899986   0.000394830382 -0.000208899986      0.387864605     0.897553654
12.661792            0.382357577      0.89987386   0.000395461216 -0.000209513125   0.000395461216 -0.000209513125      0.388317822     0.897336774
12.66182             0.382811712     0.899659868   0.000396093158 -0.000210128169   0.000396093158 -0.000210128168      0.388771333     0.897119451
12.661848            0.383266144     0.899445435   0.000396726209 -0.000210745123   0.000396726209 -0.000210745123      0.389225138     0.896901685
12.661876            0.383720873      0.89923056   0.000397360372 -0.000211363996   0.000397360372 -0.000211363996      0.389679237     0.896683474
12.661904            0.384175899     0.899015242   0.000397995647 -0.000211984793   0.000397995647 -0.000211984792      0.390133631     0.896464817
12.661932            0.384631222     0.898799481   0.000398632036  -0.00021260752   0.000398632037  -0.00021260752      0.390588319     0.896245715
12.66196             0.385086843     0.898583276   0.000399269542 -0.000213232186   0.000399269543 -0.000213232186      0.391043302     0.896026164
12.661988            0.385542762     0.898366625   0.000399908167 -0.000213858795   0.000399908167 -0.000213858795       0.39149858     0.895806166
12.662016            0.385998979     0.898149527    0.00040054791 -0.000214487356   0.000400547911 -0.000214487356      0.391954153     0.895585718
12.662044            0.386455495     0.897931982   0.000401188776 -0.000215117874   0.000401188776 -0.000215117874      0.392410022     0.895364819
12.662072            0.386912309     0.897713989   0.000401830765 -0.000215750356   0.000401830765 -0.000215750356      0.392866186      0.89514347
12.6621              0.387369422     0.897495546   0.000402473879  -0.00021638481   0.000402473879  -0.00021638481      0.393322646     0.894921668
12.662128            0.387826833     0.897276653   0.000403118119 -0.000217021242    0.00040311812 -0.000217021241      0.393779402     0.894699414
12.662156            0.388284544     0.897057309   0.000403763489 -0.000217659658   0.000403763489 -0.000217659658      0.394236455     0.894476705
12.662184            0.388742555     0.896837513   0.000404409988 -0.000218300066   0.000404409988 -0.000218300065      0.394693804     0.894253541
12.662212            0.389200865     0.896617264    0.00040505762 -0.000218942472    0.00040505762 -0.000218942472      0.395151449     0.894029921
12.66224             0.389659474      0.89639656   0.000405706386 -0.000219586883   0.000405706386 -0.000219586883      0.395609392     0.893805844
12.662268            0.390118384     0.896175401   0.000406356287 -0.000220233307   0.000406356287 -0.000220233307      0.396067631     0.893581309
12.662296            0.390577594     0.895953787   0.000407007325  -0.00022088175   0.000407007325 -0.000220881749      0.396526168     0.893356315
12.662324            0.391037105     0.895731715   0.000407659503 -0.000221532218   0.000407659503 -0.000221532218      0.396985002     0.893130862
12.662352            0.391496916     0.895509185   0.000408312821  -0.00022218472   0.000408312821  -0.00022218472      0.397444134     0.892904947
12.66238             0.391957028     0.895286196   0.000408967282 -0.000222839263   0.000408967282 -0.000222839262      0.397903564     0.892678571
12.662408            0.392417442     0.895062747   0.000409622887 -0.000223495852   0.000409622887 -0.000223495852      0.398363291     0.892451731
12.662436            0.392878156     0.894838838   0.000410279638 -0.000224154495   0.000410279638 -0.000224154495      0.398823318     0.892224428
12.662464            0.393339172     0.894614466   0.000410937537   -0.0002248152   0.000410937537   -0.0002248152      0.399283642      0.89199666
12.662492             0.39380049     0.894389631   0.000411596585 -0.000225477974   0.000411596585 -0.000225477973      0.399744266     0.891768426
12.66252              0.39426211     0.894164332   0.000412256785 -0.000226142822   0.000412256785 -0.000226142822      0.400205188     0.891539725
12.662548            0.394724032     0.893938569   0.000412918138 -0.000226809754   0.000412918138 -0.000226809754      0.400666409     0.891310556
12.662576            0.395186256     0.893712339   0.000413580645 -0.000227478776   0.000413580646 -0.000227478776       0.40112793     0.891080919
12.662604            0.395648783     0.893485643    0.00041424431 -0.000228149895    0.00041424431 -0.000228149895       0.40158975     0.890850811
12.662632            0.396111613     0.893258478   0.000414909132 -0.000228823118   0.000414909132 -0.000228823118       0.40205187     0.890620233
12.66266             0.396574746     0.893030845   0.000415575114 -0.000229498454   0.000415575114 -0.000229498453      0.402514289     0.890389183
12.662688            0.397038182     0.892802741   0.000416242258 -0.000230175908   0.000416242258 -0.000230175908      0.402977009      0.89015766
12.662716            0.397501921     0.892574167   0.000416910566 -0.000230855489   0.000416910566 -0.000230855489       0.40344003     0.889925664
12.662744            0.397965964      0.89234512   0.000417580038 -0.000231537203   0.000417580038 -0.000231537203       0.40390335     0.889693192
12.662772            0.398430311     0.892115601   0.000418250678 -0.000232221059   0.000418250678 -0.000232221059      0.404366972     0.889460244
12.6628              0.398894962     0.891885607   0.000418922486 -0.000232907064   0.000418922486 -0.000232907064      0.404830894      0.88922682
12.662828            0.399359918     0.891655139   0.000419595465 -0.000233595225   0.000419595465 -0.000233595225      0.405295117     0.888992917
12.662856            0.399825177     0.891424194   0.000420269616 -0.000234285549   0.000420269616 -0.000234285549      0.405759642     0.888758535
12.662884            0.400290742     0.891192772    0.00042094494 -0.000234978045   0.000420944941 -0.000234978044      0.406224468     0.888523674
12.662912            0.400756611     0.890960872   0.000421621441 -0.000235672719   0.000421621441 -0.000235672719      0.406689596     0.888288331
12.66294             0.401222786     0.890728493   0.000422299118 -0.000236369579   0.000422299119 -0.000236369579      0.407155026     0.888052506
12.662968            0.401689265     0.890495634   0.000422977975 -0.000237068634   0.000422977975 -0.000237068633      0.407620758     0.887816198
12.662996            0.402156051     0.890262293   0.000423658013 -0.000237769889   0.000423658013 -0.000237769889      0.408086792     0.887579406
12.663024            0.402623142      0.89002847   0.000424339233 -0.000238473354   0.000424339233 -0.000238473354      0.408553129     0.887342129
12.663052            0.403090538     0.889794164   0.000425021637 -0.000239179036   0.000425021637 -0.000239179036      0.409019768     0.887104365
12.66308             0.403558241     0.889559373   0.000425705227 -0.000239886943   0.000425705227 -0.000239886943      0.409486711     0.886866115
12.663108            0.404026251     0.889324097   0.000426390005 -0.000240597082   0.000426390005 -0.000240597081      0.409953956     0.886627375
12.663136            0.404494567     0.889088334   0.000427075973 -0.000241309461   0.000427075973  -0.00024130946      0.410421505     0.886388147
12.663164             0.40496319     0.888852084   0.000427763131 -0.000242024087   0.000427763131 -0.000242024087      0.410889357     0.886148427
12.663192            0.405432119     0.888615345   0.000428451483  -0.00024274097   0.000428451483  -0.00024274097      0.411357513     0.885908217
12.66322             0.405901356     0.888378116   0.000429141029 -0.000243460116   0.000429141029 -0.000243460116      0.411825973     0.885667513
12.663248              0.4063709     0.888140397   0.000429831771 -0.000244181534   0.000429831771 -0.000244181534      0.412294736     0.885426316
12.663276            0.406840752     0.887902186   0.000430523711 -0.000244905231   0.000430523711 -0.000244905231      0.412763804     0.885184624
12.663304            0.407310912     0.887663482   0.000431216851 -0.000245631216   0.000431216851 -0.000245631216      0.413233177     0.884942437
12.663332            0.407781379     0.887424283   0.000431911192 -0.000246359496   0.000431911193 -0.000246359496      0.413702854     0.884699752
12.66336             0.408252155      0.88718459   0.000432606737  -0.00024709008   0.000432606737  -0.00024709008      0.414172836     0.884456569
12.663388            0.408723239     0.886944401   0.000433303486 -0.000247822975   0.000433303486 -0.000247822975      0.414643123     0.884212888
12.663416            0.409194632     0.886703715   0.000434001442  -0.00024855819   0.000434001442  -0.00024855819      0.415113715     0.883968706
12.663444            0.409666333      0.88646253   0.000434700607 -0.000249295733   0.000434700607 -0.000249295733      0.415584613     0.883724023
12.663472            0.410138344     0.886220846   0.000435400981 -0.000250035611   0.000435400981 -0.000250035611      0.416055816     0.883478838
12.6635              0.410610664     0.885978661   0.000436102567 -0.000250777834   0.000436102567 -0.000250777833      0.416527325     0.883233149
