! TOUCHSTONE file generated by CST MICROWAVE STUDIO
! Date and time: Wed Jul 31 19:49:50 2024
! Project name: WaveGuide_BPF-Ver4.1_U-shape_Ku_T3_C4_CWA_2.cst
! Parameters = {cavity_h=16; cavity_l0=10; cavity_l1=15.216; cavity_l2=16.803; cavity_l3=17.0777; cavity_l4=17.2977; cavity_l5=17.1252; cavity_l6=17.6027; cavity_r=2.5; cavity_screw_l=0.5; cavity_screw_r=1.5; cavity_w=8; iris_h00=0; iris_h01=8.7993; iris_h112=0; iris_h12=5.5926; iris_h211=3.6542; iris_h23=5.1971; iris_h310=3.974; iris_h34=5.0784; iris_h45=4.9243; iris_h49=4.619; iris_h56=4.7884; iris_h58=4.4321; iris_h67=6.5705; iris_rx=0.1; iris_screw_l=0.5; iris_screw_r=1.5; iris_shift00=0; iris_shift112=0; iris_shift211=3.5; iris_shift310=0; iris_shift49=0; iris_shift58=3.5; iris_shift67=3.5; iris_tx=4.5; iris_tz=4.5; iris_w00=0; iris_w112=0; iris_w211=4; iris_w310=3.974; iris_w49=4.619; iris_w58=4; iris_w67=4; mesh_cavity=5; mesh_iris=7; mesh_screw=7; order=12; reset_all=0; sigma=4.8e+07}
! Header version: 2018
! Port assignment regex: !\s*Touchstone port\s*([0-9]+)\s*=\s*(CST MWS port|CST DS port)\s*([0-9]+|Zmin|Zmax)\s*\(\"(.*)\"\)(\s*mode\s*([0-9]+))?.*
! Touchstone port assignment:
! Touchstone port 1 = CST MWS port 1 ("")
! Touchstone port 2 = CST MWS port 2 ("")
# GHz S RI R 50
12.66                0.297017536     0.935834962    0.00015696618 -6.11521752e-05    0.00015696618 -6.11521748e-05      0.299755622     0.935020725
12.660028            0.297400252     0.935700982   0.000157162423 -6.13066743e-05   0.000157162422 -6.13066739e-05      0.300137263     0.934885891
12.660056            0.297783142     0.935566757   0.000157358928 -6.14615496e-05   0.000157358928 -6.14615492e-05       0.30051912     0.934750797
12.660084            0.298166221     0.935432281   0.000157555698  -6.1616803e-05   0.000157555697 -6.16168026e-05      0.300901191     0.934615444
12.660112            0.298549506     0.935297548    0.00015775273 -6.17724363e-05   0.000157752729 -6.17724358e-05      0.301283473     0.934479833
12.66014             0.298933011     0.935162554   0.000157950024 -6.19284514e-05   0.000157950023 -6.19284509e-05      0.301665962     0.934343964
12.660168            0.299316738     0.935027297   0.000158147581 -6.20848492e-05    0.00015814758 -6.20848488e-05      0.302048658     0.934207837
12.660196            0.299700675     0.934891782   0.000158345402 -6.22416302e-05   0.000158345401 -6.22416298e-05      0.302431564     0.934071451
12.660224            0.300084823     0.934756006   0.000158543486 -6.23987954e-05   0.000158543485  -6.2398795e-05       0.30281468     0.933934806
12.660252            0.300469182     0.934619971   0.000158741835 -6.25563457e-05   0.000158741834 -6.25563453e-05      0.303198006       0.9337979
12.66028             0.300853752     0.934483675   0.000158940447 -6.27142821e-05   0.000158940447 -6.27142817e-05      0.303581542     0.933660734
12.660308            0.301238533     0.934347118   0.000159139325 -6.28726057e-05   0.000159139324 -6.28726052e-05      0.303965288     0.933523307
12.660336            0.301623525     0.934210299   0.000159338467 -6.30313173e-05   0.000159338467 -6.30313169e-05      0.304349245     0.933385619
12.660364            0.302008729     0.934073219   0.000159537875  -6.3190418e-05   0.000159537875 -6.31904176e-05      0.304733412     0.933247669
12.660392            0.302394144     0.933935876   0.000159737549 -6.33499089e-05   0.000159737548 -6.33499084e-05      0.305117789     0.933109456
12.66042             0.302779771     0.933798271   0.000159937488 -6.35097908e-05   0.000159937487 -6.35097904e-05      0.305502377     0.932970981
12.660448             0.30316561     0.933660402   0.000160137693 -6.36700648e-05   0.000160137692 -6.36700644e-05      0.305887177     0.932832243
12.660476             0.30355166      0.93352227   0.000160338165  -6.3830732e-05   0.000160338164 -6.38307316e-05      0.306272187     0.932693242
12.660504            0.303937923     0.933383874   0.000160538903 -6.39917933e-05   0.000160538903 -6.39917929e-05      0.306657408     0.932553976
12.660532            0.304324398     0.933245213   0.000160739909 -6.41532497e-05   0.000160739908 -6.41532493e-05       0.30704284     0.932414446
12.66056             0.304711085     0.933106287   0.000160941182 -6.43151023e-05   0.000160941181 -6.43151019e-05      0.307428483     0.932274651
12.660588            0.305097984     0.932967096   0.000161142722 -6.44773521e-05   0.000161142721 -6.44773516e-05      0.307814338     0.932134591
12.660616            0.305485096     0.932827639    0.00016134453      -6.464e-05    0.00016134453 -6.46399996e-05      0.308200405     0.931994265
12.660644             0.30587242     0.932687916   0.000161546607 -6.48030472e-05   0.000161546606 -6.48030467e-05      0.308586683     0.931853673
12.660672            0.306259957     0.932547926   0.000161748952 -6.49664946e-05   0.000161748951 -6.49664942e-05      0.308973173     0.931712814
12.6607              0.306647707     0.932407669   0.000161951566 -6.51303433e-05   0.000161951565 -6.51303429e-05      0.309359874     0.931571688
12.660728             0.30703567     0.932267144   0.000162154449 -6.52945943e-05   0.000162154448 -6.52945939e-05      0.309746788     0.931430295
12.660756            0.307423846     0.932126351   0.000162357601 -6.54592486e-05     0.0001623576 -6.54592482e-05      0.310133914     0.931288634
12.660784            0.307812235      0.93198529   0.000162561023 -6.56243073e-05   0.000162561022 -6.56243069e-05      0.310521252     0.931146704
12.660812            0.308200837      0.93184396   0.000162764715 -6.57897715e-05   0.000162764714 -6.57897711e-05      0.310908802     0.931004505
12.66084             0.308589653      0.93170236   0.000162968677 -6.59556421e-05   0.000162968676 -6.59556417e-05      0.311296565     0.930862037
12.660868            0.308978682      0.93156049    0.00016317291 -6.61219202e-05   0.000163172909 -6.61219198e-05       0.31168454       0.9307193
12.660896            0.309367925      0.93141835   0.000163377413 -6.62886069e-05   0.000163377413 -6.62886065e-05      0.312072728     0.930576292
12.660924            0.309757382      0.93127594   0.000163582188 -6.64557032e-05   0.000163582187 -6.64557028e-05      0.312461129     0.930433013
12.660952            0.310147052     0.931133258   0.000163787234 -6.66232101e-05   0.000163787233 -6.66232097e-05      0.312849743     0.930289463
12.66098             0.310536937     0.930990304   0.000163992552 -6.67911288e-05   0.000163992551 -6.67911284e-05       0.31323857     0.930145642
12.661008            0.310927035     0.930847078   0.000164198141 -6.69594603e-05   0.000164198141 -6.69594599e-05       0.31362761     0.930001549
12.661036            0.311317348      0.93070358   0.000164404004 -6.71282056e-05   0.000164404003 -6.71282052e-05      0.314016863     0.929857183
12.661064            0.311707875     0.930559808   0.000164610138 -6.72973658e-05   0.000164610137 -6.72973654e-05      0.314406329     0.929712544
12.661092            0.312098617     0.930415763   0.000164816546 -6.74669421e-05   0.000164816545 -6.74669416e-05      0.314796009     0.929567632
12.66112             0.312489573     0.930271444   0.000165023226 -6.76369353e-05   0.000165023226 -6.76369349e-05      0.315185903     0.929422445
12.661148            0.312880744     0.930126851    0.00016523018 -6.78073467e-05    0.00016523018 -6.78073463e-05       0.31557601     0.929276985
12.661176             0.31327213     0.929981982   0.000165437408 -6.79781773e-05   0.000165437407 -6.79781769e-05      0.315966331      0.92913125
12.661204             0.31366373     0.929836839    0.00016564491 -6.81494282e-05   0.000165644909 -6.81494278e-05      0.316356866     0.928985239
12.661232            0.314055546     0.929691419   0.000165852686 -6.83211005e-05   0.000165852685    -6.83211e-05      0.316747616     0.928838953
12.66126             0.314447577     0.929545723   0.000166060737 -6.84931952e-05   0.000166060736 -6.84931947e-05      0.317138579      0.92869239
12.661288            0.314839823     0.929399751   0.000166269062 -6.86657134e-05   0.000166269062  -6.8665713e-05      0.317529756     0.928545551
12.661316            0.315232284     0.929253501   0.000166477663 -6.88386564e-05   0.000166477663 -6.88386559e-05      0.317921148     0.928398435
12.661344            0.315624961     0.929106973   0.000166686539  -6.9012025e-05   0.000166686539 -6.90120245e-05      0.318312755     0.928251041
12.661372            0.316017853     0.928960168   0.000166895691 -6.91858205e-05   0.000166895691   -6.918582e-05      0.318704576      0.92810337
12.6614              0.316410962     0.928813083    0.00016710512 -6.93600439e-05   0.000167105119 -6.93600434e-05      0.319096612     0.927955419
12.661428            0.316804286      0.92866572   0.000167314824 -6.95346963e-05   0.000167314823 -6.95346959e-05      0.319488863      0.92780719
12.661456            0.317197825     0.928518077   0.000167524805 -6.97097789e-05   0.000167524804 -6.97097784e-05      0.319881328     0.927658681
12.661484            0.317591581     0.928370154   0.000167735063 -6.98852927e-05   0.000167735062 -6.98852923e-05      0.320274009     0.927509892
12.661512            0.317985554      0.92822195   0.000167945598 -7.00612389e-05   0.000167945597 -7.00612385e-05      0.320666905     0.927360823
12.66154             0.318379742     0.928073466   0.000168156411 -7.02376186e-05    0.00016815641 -7.02376182e-05      0.321060017     0.927211473
12.661568            0.318774147       0.9279247   0.000168367501 -7.04144329e-05     0.0001683675 -7.04144325e-05      0.321453343     0.927061842
12.661596            0.319168768     0.927775652   0.000168578869 -7.05916829e-05   0.000168578869 -7.05916825e-05      0.321846886     0.926911929
12.661624            0.319563606     0.927626322   0.000168790516 -7.07693698e-05   0.000168790515 -7.07693693e-05      0.322240643     0.926761734
12.661652            0.319958661     0.927476709   0.000169002441 -7.09474946e-05   0.000169002441 -7.09474942e-05      0.322634617     0.926611255
12.66168             0.320353933     0.927326812   0.000169214645 -7.11260586e-05   0.000169214645 -7.11260581e-05      0.323028807     0.926460494
12.661708            0.320749421     0.927176632   0.000169427129 -7.13050627e-05   0.000169427128 -7.13050623e-05      0.323423212     0.926309449
12.661736            0.321145127     0.927026167   0.000169639892 -7.14845083e-05   0.000169639891 -7.14845079e-05      0.323817834      0.92615812
12.661764            0.321541049     0.926875418   0.000169852934 -7.16643964e-05   0.000169852934 -7.16643959e-05      0.324212671     0.926006506
12.661792            0.321937189     0.926724383   0.000170066257 -7.18447281e-05   0.000170066256 -7.18447277e-05      0.324607726     0.925854607
12.66182             0.322333547     0.926573062    0.00017027986 -7.20255047e-05   0.000170279859 -7.20255042e-05      0.325002996     0.925702422
12.661848            0.322730122     0.926421456   0.000170493744 -7.22067272e-05   0.000170493743 -7.22067267e-05      0.325398483     0.925549951
12.661876            0.323126915     0.926269562   0.000170707908 -7.23883968e-05   0.000170707907 -7.23883964e-05      0.325794187     0.925397193
12.661904            0.323523925     0.926117381   0.000170922354 -7.25705147e-05   0.000170922353 -7.25705143e-05      0.326190107     0.925244149
12.661932            0.323921153     0.925964913   0.000171137081  -7.2753082e-05    0.00017113708 -7.27530816e-05      0.326586245     0.925090817
12.66196             0.324318599     0.925812156    0.00017135209 -7.29360999e-05   0.000171352089 -7.29360995e-05      0.326982599     0.924937196
12.661988            0.324716264     0.925659111   0.000171567381 -7.31195696e-05    0.00017156738 -7.31195691e-05      0.327379171     0.924783288
12.662016            0.325114146     0.925505777   0.000171782954 -7.33034921e-05   0.000171782953 -7.33034917e-05      0.327775959      0.92462909
12.662044            0.325512247     0.925352152   0.000171998809 -7.34878688e-05   0.000171998809 -7.34878683e-05      0.328172965     0.924474603
12.662072            0.325910566     0.925198238   0.000172214948 -7.36727007e-05   0.000172214947 -7.36727003e-05      0.328570189     0.924319825
12.6621              0.326309104     0.925044033    0.00017243137 -7.38579891e-05   0.000172431369 -7.38579886e-05      0.328967629     0.924164757
12.662128             0.32670786     0.924889537   0.000172648075 -7.40437351e-05   0.000172648074 -7.40437346e-05      0.329365288     0.924009399
12.662156            0.327106835      0.92473475   0.000172865064 -7.42299399e-05   0.000172865063 -7.42299394e-05      0.329763164     0.923853748
12.662184            0.327506029      0.92457967   0.000173082336 -7.44166047e-05   0.000173082336 -7.44166042e-05      0.330161258     0.923697806
12.662212            0.327905442     0.924424298   0.000173299893 -7.46037306e-05   0.000173299893 -7.46037302e-05      0.330559571     0.923541571
12.66224             0.328305074     0.924268632   0.000173517735  -7.4791319e-05   0.000173517734 -7.47913185e-05      0.330958101     0.923385044
12.662268            0.328704925     0.924112673   0.000173735861 -7.49793709e-05   0.000173735861 -7.49793704e-05      0.331356849     0.923228222
12.662296            0.329104995      0.92395642   0.000173954273 -7.51678876e-05   0.000173954272 -7.51678871e-05      0.331755816     0.923071107
12.662324            0.329505285     0.923799872    0.00017417297 -7.53568703e-05   0.000174172969 -7.53568698e-05      0.332155001     0.922913698
12.662352            0.329905794     0.923643029   0.000174391952 -7.55463201e-05   0.000174391951 -7.55463197e-05      0.332554405     0.922755993
12.66238             0.330306523     0.923485891    0.00017461122 -7.57362384e-05    0.00017461122 -7.57362379e-05      0.332954027     0.922597993
12.662408            0.330707472     0.923328456   0.000174830775 -7.59266263e-05   0.000174830774 -7.59266258e-05      0.333353868     0.922439697
12.662436            0.331108641     0.923170725   0.000175050616 -7.61174849e-05   0.000175050615 -7.61174845e-05      0.333753928     0.922281105
12.662464            0.331510029     0.923012697   0.000175270744 -7.63088156e-05   0.000175270743 -7.63088152e-05      0.334154206     0.922122215
12.662492            0.331911637     0.922854371   0.000175491158 -7.65006196e-05   0.000175491158 -7.65006192e-05      0.334554704     0.921963028
12.66252             0.332313466     0.922695747    0.00017571186 -7.66928981e-05    0.00017571186 -7.66928976e-05      0.334955421     0.921803544
12.662548            0.332715515     0.922536825    0.00017593285 -7.68856523e-05   0.000175932849 -7.68856518e-05      0.335356357      0.92164376
12.662576            0.333117784     0.922377603   0.000176154127 -7.70788834e-05   0.000176154127  -7.7078883e-05      0.335757513     0.921483678
12.662604            0.333520274     0.922218082   0.000176375693 -7.72725928e-05   0.000176375692 -7.72725923e-05      0.336158888     0.921323296
12.662632            0.333922984      0.92205826   0.000176597547 -7.74667815e-05   0.000176597546 -7.74667811e-05      0.336560483     0.921162614
12.66266             0.334325915     0.921898138   0.000176819689  -7.7661451e-05   0.000176819689 -7.76614505e-05      0.336962297     0.921001632
12.662688            0.334729067     0.921737715   0.000177042121 -7.78566023e-05    0.00017704212 -7.78566018e-05      0.337364331     0.920840349
12.662716             0.33513244      0.92157699   0.000177264842 -7.80522368e-05   0.000177264841 -7.80522363e-05      0.337766585     0.920678764
12.662744            0.335536034     0.921415962   0.000177487852 -7.82483557e-05   0.000177487851 -7.82483552e-05       0.33816906     0.920516877
12.662772            0.335939849     0.921254632   0.000177711152 -7.84449603e-05   0.000177711151 -7.84449598e-05      0.338571754     0.920354687
12.6628              0.336343885     0.921092999   0.000177934741 -7.86420518e-05   0.000177934741 -7.86420514e-05      0.338974668     0.920192195
12.662828            0.336748142     0.920931062   0.000178158622 -7.88396316e-05   0.000178158621 -7.88396311e-05      0.339377803     0.920029399
12.662856            0.337152621     0.920768821   0.000178382792 -7.90377007e-05   0.000178382792 -7.90377003e-05      0.339781158     0.919866298
12.662884            0.337557322     0.920606275   0.000178607254 -7.92362607e-05   0.000178607253 -7.92362602e-05      0.340184734     0.919702894
12.662912            0.337962244     0.920443424   0.000178832006 -7.94353126e-05   0.000178832006 -7.94353121e-05       0.34058853     0.919539184
12.66294             0.338367388     0.920280267    0.00017905705 -7.96348578e-05   0.000179057049 -7.96348573e-05      0.340992547     0.919375168
12.662968            0.338772753     0.920116804   0.000179282385 -7.98348975e-05   0.000179282385  -7.9834897e-05      0.341396785     0.919210846
12.662996            0.339178341     0.919953033   0.000179508013 -8.00354331e-05   0.000179508012 -8.00354326e-05      0.341801244     0.919046217
12.663024            0.339584151     0.919788956   0.000179733932 -8.02364658e-05   0.000179733932 -8.02364653e-05      0.342205924     0.918881282
12.663052            0.339990183      0.91962457   0.000179960144  -8.0437997e-05   0.000179960144 -8.04379965e-05      0.342610826     0.918716038
12.66308             0.340396437     0.919459876   0.000180186649 -8.06400278e-05   0.000180186648 -8.06400273e-05      0.343015948     0.918550486
12.663108            0.340802913     0.919294873   0.000180413446 -8.08425597e-05   0.000180413446 -8.08425592e-05      0.343421292     0.918384626
12.663136            0.341209612     0.919129561   0.000180640537 -8.10455938e-05   0.000180640536 -8.10455933e-05      0.343826857     0.918218456
12.663164            0.341616534     0.918963938   0.000180867921 -8.12491316e-05    0.00018086792 -8.12491311e-05      0.344232644     0.918051976
12.663192            0.342023678     0.918798006   0.000181095599 -8.14531743e-05   0.000181095598 -8.14531738e-05      0.344638652     0.917885186
12.66322             0.342431045     0.918631761   0.000181323571 -8.16577233e-05    0.00018132357 -8.16577228e-05      0.345044883     0.917718085
12.663248            0.342838636     0.918465206   0.000181551837 -8.18627797e-05   0.000181551836 -8.18627792e-05      0.345451335     0.917550672
12.663276            0.343246449     0.918298338   0.000181780397 -8.20683451e-05   0.000181780397 -8.20683446e-05      0.345858009     0.917382948
12.663304            0.343654485     0.918131158   0.000182009252 -8.22744206e-05   0.000182009252 -8.22744201e-05      0.346264905     0.917214911
12.663332            0.344062744     0.917963664   0.000182238403 -8.24810077e-05   0.000182238402 -8.24810072e-05      0.346672024     0.917046561
12.66336             0.344471227     0.917795856   0.000182467848 -8.26881075e-05   0.000182467848 -8.26881071e-05      0.347079365     0.916877897
12.663388            0.344879933     0.917627735   0.000182697589 -8.28957216e-05   0.000182697589 -8.28957211e-05      0.347486928     0.916708919
12.663416            0.345288862     0.917459298   0.000182927626 -8.31038512e-05   0.000182927626 -8.31038507e-05      0.347894713     0.916539627
12.663444            0.345698015     0.917290546   0.000183157959 -8.33124976e-05   0.000183157959 -8.33124971e-05      0.348302722     0.916370019
12.663472            0.346107392     0.917121479   0.000183388589 -8.35216622e-05   0.000183388588 -8.35216617e-05      0.348710953     0.916200096
12.6635              0.346516993     0.916952094   0.000183619514 -8.37313463e-05   0.000183619514 -8.37313458e-05      0.349119406     0.916029857
