! TOUCHSTONE file generated by CST MICROWAVE STUDIO
! Date and time: Wed Jul 31 20:02:28 2024
! Project name: WaveGuide_BPF-Ver4.1_U-shape_Ku_T3_C4_CWA_2.cst
! Parameters = {cavity_h=16; cavity_l0=10; cavity_l1=15.1829; cavity_l2=16.8197; cavity_l3=17.0921; cavity_l4=17.2935; cavity_l5=17.088; cavity_l6=17.5558; cavity_r=2.5; cavity_screw_l=0.5; cavity_screw_r=1.5; cavity_w=8; iris_h00=0; iris_h01=8.8202; iris_h112=0; iris_h12=5.5912; iris_h211=3.6689; iris_h23=5.1912; iris_h310=3.9799; iris_h34=5.0922; iris_h45=4.9312; iris_h49=4.6206; iris_h56=4.8008; iris_h58=4.4453; iris_h67=6.5733; iris_rx=0.1; iris_screw_l=0.5; iris_screw_r=1.5; iris_shift00=0; iris_shift112=0; iris_shift211=3.5; iris_shift310=0; iris_shift49=0; iris_shift58=3.5; iris_shift67=3.5; iris_tx=4.5; iris_tz=4.5; iris_w00=0; iris_w112=0; iris_w211=4; iris_w310=3.9799; iris_w49=4.6206; iris_w58=4; iris_w67=4; mesh_cavity=5; mesh_iris=7; mesh_screw=7; order=12; reset_all=0; sigma=4.8e+07}
! Header version: 2018
! Port assignment regex: !\s*Touchstone port\s*([0-9]+)\s*=\s*(CST MWS port|CST DS port)\s*([0-9]+|Zmin|Zmax)\s*\(\"(.*)\"\)(\s*mode\s*([0-9]+))?.*
! Touchstone port assignment:
! Touchstone port 1 = CST MWS port 1 ("")
! Touchstone port 2 = CST MWS port 2 ("")
# GHz S RI R 50
12.66                0.256615692     0.949441562    0.00016165713 -5.50049727e-05    0.00016165713 -5.50049726e-05      0.259331224     0.948731442
12.660028            0.256964966      0.94933665   0.000161864922 -5.51461294e-05   0.000161864922 -5.51461293e-05      0.259680718     0.948625391
12.660056            0.257314531     0.949231507   0.000162073007 -5.52876429e-05   0.000162073007 -5.52876428e-05      0.260030413     0.948519132
12.660084            0.257664345     0.949126144   0.000162281388 -5.54295104e-05   0.000162281388 -5.54295103e-05      0.260380303     0.948412667
12.660112            0.258014364     0.949020573   0.000162490067 -5.55717293e-05   0.000162490067 -5.55717292e-05      0.260730385     0.948305996
12.66014             0.258364545     0.948914805   0.000162699048 -5.57142971e-05   0.000162699048  -5.5714297e-05      0.261080655     0.948199119
12.660168            0.258714888     0.948808839    0.00016290833 -5.58572144e-05    0.00016290833 -5.58572143e-05      0.261431114     0.948092037
12.660196            0.259065423     0.948702667   0.000163117913 -5.60004847e-05   0.000163117913 -5.60004846e-05      0.261781764     0.947984748
12.660224            0.259416149      0.94859629   0.000163327797 -5.61441089e-05   0.000163327797 -5.61441088e-05      0.262132605     0.947877252
12.660252            0.259767066     0.948489706   0.000163537983  -5.6288088e-05   0.000163537983 -5.62880879e-05      0.262483638     0.947769549
12.66028             0.260118175     0.948382915    0.00016374847 -5.64324227e-05    0.00016374847 -5.64324226e-05      0.262834862     0.947661638
12.660308            0.260469475     0.948275918    0.00016395926 -5.65771141e-05    0.00016395926  -5.6577114e-05      0.263186278     0.947553519
12.660336            0.260820968     0.948168713   0.000164170353 -5.67221631e-05   0.000164170353  -5.6722163e-05      0.263537886     0.947445191
12.660364            0.261172652       0.9480613   0.000164381748 -5.68675706e-05   0.000164381748 -5.68675705e-05      0.263889686     0.947336655
12.660392            0.261524528      0.94795368   0.000164593448 -5.70133375e-05   0.000164593448 -5.70133374e-05      0.264241678     0.947227909
12.66042             0.261876597     0.947845851   0.000164805451 -5.71594649e-05   0.000164805451 -5.71594648e-05      0.264593862     0.947118955
12.660448            0.262228858     0.947737813   0.000165017759 -5.73059535e-05   0.000165017759 -5.73059535e-05      0.264946238      0.94700979
12.660476            0.262581312     0.947629567   0.000165230372 -5.74528045e-05   0.000165230372 -5.74528044e-05      0.265298807     0.946900416
12.660504            0.262933958     0.947521111    0.00016544329 -5.76000187e-05    0.00016544329 -5.76000186e-05      0.265651569      0.94679083
12.660532            0.263286797     0.947412445   0.000165656513  -5.7747597e-05   0.000165656513 -5.77475969e-05      0.266004523     0.946681035
12.66056             0.263639829     0.947303569   0.000165870043 -5.78955404e-05   0.000165870043 -5.78955403e-05      0.266357671     0.946571028
12.660588            0.263993054     0.947194483    0.00016608388 -5.80438499e-05    0.00016608388 -5.80438498e-05      0.266711011     0.946460809
12.660616            0.264346473     0.947085186   0.000166298023 -5.81925265e-05   0.000166298023 -5.81925264e-05      0.267064545     0.946350379
12.660644            0.264700084     0.946975678   0.000166512474  -5.8341571e-05   0.000166512474 -5.83415709e-05      0.267418271     0.946239736
12.660672            0.265053889     0.946865958   0.000166727233 -5.84909845e-05   0.000166727233 -5.84909844e-05      0.267772192     0.946128881
12.6607              0.265407888     0.946756027     0.0001669423 -5.86407678e-05     0.0001669423 -5.86407677e-05      0.268126305     0.946017813
12.660728             0.26576208     0.946645883   0.000167157676 -5.87909221e-05   0.000167157676  -5.8790922e-05      0.268480613     0.945906532
12.660756            0.266116467     0.946535528   0.000167373361 -5.89414481e-05   0.000167373361 -5.89414481e-05      0.268835114     0.945795037
12.660784            0.266471047     0.946424959   0.000167589356  -5.9092347e-05   0.000167589355 -5.90923469e-05      0.269189809     0.945683328
12.660812            0.266825821     0.946314177    0.00016780566 -5.92436197e-05    0.00016780566 -5.92436196e-05      0.269544699     0.945571405
12.66084              0.26718079     0.946203181   0.000168022275 -5.93952672e-05   0.000168022275 -5.93952671e-05      0.269899782     0.945459267
12.660868            0.267535953     0.946091972   0.000168239201 -5.95472903e-05   0.000168239201 -5.95472903e-05       0.27025506     0.945346915
12.660896             0.26789131     0.945980548   0.000168456438 -5.96996903e-05   0.000168456438 -5.96996902e-05      0.270610533     0.945234347
12.660924            0.268246862      0.94586891   0.000168673987 -5.98524679e-05   0.000168673987 -5.98524678e-05        0.2709662     0.945121563
12.660952            0.268602609     0.945757056   0.000168891849 -6.00056242e-05   0.000168891849 -6.00056241e-05      0.271322062     0.945008563
12.66098             0.268958551     0.945644988   0.000169110022 -6.01591602e-05   0.000169110022 -6.01591601e-05      0.271678119     0.944895347
12.661008            0.269314688     0.945532703   0.000169328509 -6.03130769e-05   0.000169328509 -6.03130768e-05       0.27203437     0.944781914
12.661036             0.26967102     0.945420203    0.00016954731 -6.04673753e-05    0.00016954731 -6.04673752e-05      0.272390817     0.944668263
12.661064            0.270027548     0.945307486   0.000169766424 -6.06220563e-05   0.000169766424 -6.06220562e-05       0.27274746     0.944554396
12.661092            0.270384271     0.945194553   0.000169985852 -6.07771211e-05   0.000169985852  -6.0777121e-05      0.273104297      0.94444031
12.66112             0.270741189     0.945081402   0.000170205596 -6.09325705e-05   0.000170205596 -6.09325704e-05      0.273461331     0.944326006
12.661148            0.271098303     0.944968035   0.000170425654 -6.10884056e-05   0.000170425654 -6.10884055e-05       0.27381856     0.944211484
12.661176            0.271455614     0.944854449   0.000170646029 -6.12446274e-05   0.000170646029 -6.12446273e-05      0.274175984     0.944096743
12.661204             0.27181312     0.944740645   0.000170866719 -6.14012369e-05   0.000170866719 -6.14012368e-05      0.274533605     0.943981782
12.661232            0.272170822     0.944626622   0.000171087726 -6.15582351e-05   0.000171087726  -6.1558235e-05      0.274891422     0.943866602
12.66126             0.272528721     0.944512381    0.00017130905 -6.17156231e-05    0.00017130905  -6.1715623e-05      0.275249435     0.943751202
12.661288            0.272886815      0.94439792   0.000171530691 -6.18734018e-05   0.000171530691 -6.18734018e-05      0.275607645     0.943635581
12.661316            0.273245107      0.94428324    0.00017175265 -6.20315724e-05    0.00017175265 -6.20315723e-05      0.275966051      0.94351974
12.661344            0.273603595      0.94416834   0.000171974927 -6.21901357e-05   0.000171974927 -6.21901357e-05      0.276324653     0.943403677
12.661372             0.27396228     0.944053219   0.000172197523  -6.2349093e-05   0.000172197523 -6.23490929e-05      0.276683453     0.943287393
12.6614              0.274321162     0.943937878   0.000172420438  -6.2508445e-05   0.000172420438 -6.25084449e-05      0.277042449     0.943170887
12.661428            0.274680241     0.943822315   0.000172643673  -6.2668193e-05   0.000172643673 -6.26681929e-05      0.277401643     0.943054159
12.661456            0.275039517     0.943706532   0.000172867228  -6.2828338e-05   0.000172867228 -6.28283379e-05      0.277761033     0.942937209
12.661484            0.275398991     0.943590526   0.000173091103 -6.29888809e-05   0.000173091103 -6.29888809e-05      0.278120621     0.942820035
12.661512            0.275758662     0.943474298   0.000173315299 -6.31498229e-05   0.000173315299 -6.31498228e-05      0.278480406     0.942702638
12.66154              0.27611853     0.943357848   0.000173539816  -6.3311165e-05   0.000173539816 -6.33111649e-05      0.278840389     0.942585018
12.661568            0.276478597     0.943241174   0.000173764655 -6.34729082e-05   0.000173764655 -6.34729081e-05       0.27920057     0.942467173
12.661596            0.276838861     0.943124278   0.000173989817 -6.36350536e-05   0.000173989817 -6.36350535e-05      0.279560948     0.942349104
12.661624            0.277199323     0.943007157   0.000174215301 -6.37976022e-05   0.000174215301 -6.37976021e-05      0.279921525      0.94223081
12.661652            0.277559984     0.942889813   0.000174441108 -6.39605552e-05   0.000174441108 -6.39605551e-05      0.280282299     0.942112291
12.66168             0.277920842     0.942772245   0.000174667238 -6.41239135e-05   0.000174667238 -6.41239134e-05      0.280643272     0.941993546
12.661708            0.278281899     0.942654451   0.000174893693 -6.42876782e-05   0.000174893693 -6.42876781e-05      0.281004443     0.941874576
12.661736            0.278643155     0.942536432   0.000175120472 -6.44518504e-05   0.000175120472 -6.44518503e-05      0.281365813     0.941755379
12.661764            0.279004609     0.942418188   0.000175347576 -6.46164312e-05   0.000175347576 -6.46164311e-05      0.281727381     0.941635955
12.661792            0.279366263     0.942299718   0.000175575005 -6.47814216e-05   0.000175575005 -6.47814216e-05      0.282089148     0.941516304
12.66182             0.279728115     0.942181022    0.00017580276 -6.49468228e-05    0.00017580276 -6.49468227e-05      0.282451114     0.941396426
12.661848            0.280090166     0.942062099   0.000176030841 -6.51126357e-05   0.000176030841 -6.51126356e-05      0.282813279      0.94127632
12.661876            0.280452416     0.941942949   0.000176259248 -6.52788615e-05   0.000176259248 -6.52788614e-05      0.283175644     0.941155986
12.661904            0.280814866     0.941823572   0.000176487983 -6.54455013e-05   0.000176487983 -6.54455012e-05      0.283538207     0.941035423
12.661932            0.281177516     0.941703966   0.000176717045 -6.56125561e-05   0.000176717045  -6.5612556e-05       0.28390097     0.940914632
12.66196             0.281540365     0.941584133   0.000176946435 -6.57800271e-05   0.000176946435  -6.5780027e-05      0.284263933     0.940793611
12.661988            0.281903413     0.941464071   0.000177176153 -6.59479153e-05   0.000177176153 -6.59479152e-05      0.284627095      0.94067236
12.662016            0.282266662      0.94134378   0.000177406201 -6.61162218e-05   0.000177406201 -6.61162217e-05      0.284990457     0.940550879
12.662044             0.28263011      0.94122326   0.000177636577 -6.62849478e-05   0.000177636577 -6.62849477e-05       0.28535402     0.940429168
12.662072            0.282993759     0.941102511   0.000177867283 -6.64540943e-05   0.000177867283 -6.64540942e-05      0.285717782     0.940307226
12.6621              0.283357608     0.940981531    0.00017809832 -6.66236624e-05    0.00017809832 -6.66236623e-05      0.286081744     0.940185052
12.662128            0.283721658      0.94086032   0.000178329687 -6.67936533e-05   0.000178329687 -6.67936532e-05      0.286445907     0.940062647
12.662156            0.284085908     0.940738879   0.000178561385 -6.69640681e-05   0.000178561385  -6.6964068e-05      0.286810271      0.93994001
12.662184            0.284450359     0.940617207   0.000178793414 -6.71349078e-05   0.000178793414 -6.71349077e-05      0.287174835     0.939817141
12.662212             0.28481501     0.940495303   0.000179025776 -6.73061736e-05   0.000179025776 -6.73061735e-05        0.2875396     0.939694038
12.66224             0.285179863     0.940373167   0.000179258469 -6.74778667e-05   0.000179258469 -6.74778666e-05      0.287904566     0.939570703
12.662268            0.285544917     0.940250798   0.000179491496 -6.76499881e-05   0.000179491496  -6.7649988e-05      0.288269733     0.939447134
12.662296            0.285910172     0.940128197   0.000179724856  -6.7822539e-05   0.000179724856 -6.78225389e-05      0.288635101     0.939323331
12.662324            0.286275628     0.940005363   0.000179958549 -6.79955205e-05   0.000179958549 -6.79955204e-05       0.28900067     0.939199293
12.662352            0.286641286     0.939882295   0.000180192577 -6.81689337e-05   0.000180192577 -6.81689336e-05      0.289366441     0.939075021
12.66238             0.287007146     0.939758993   0.000180426939 -6.83427798e-05   0.000180426939 -6.83427797e-05      0.289732414     0.938950514
12.662408            0.287373207     0.939635457   0.000180661637 -6.85170599e-05   0.000180661637 -6.85170598e-05      0.290098588     0.938825771
12.662436             0.28773947     0.939511686   0.000180896669 -6.86917752e-05   0.000180896669 -6.86917751e-05      0.290464964     0.938700792
12.662464            0.288105935      0.93938768   0.000181132038 -6.88669268e-05   0.000181132038 -6.88669267e-05      0.290831543     0.938575577
12.662492            0.288472603     0.939263439   0.000181367743 -6.90425159e-05   0.000181367743 -6.90425158e-05      0.291198323     0.938450125
12.66252             0.288839472     0.939138961   0.000181603785 -6.92185435e-05   0.000181603785 -6.92185434e-05      0.291565305     0.938324436
12.662548            0.289206545     0.939014248   0.000181840164  -6.9395011e-05   0.000181840164 -6.93950109e-05       0.29193249     0.938198509
12.662576             0.28957382     0.938889297   0.000182076881 -6.95719193e-05   0.000182076881 -6.95719192e-05      0.292299878     0.938072345
12.662604            0.289941297      0.93876411   0.000182313936 -6.97492698e-05   0.000182313936 -6.97492697e-05      0.292667468     0.937945942
12.662632            0.290308977     0.938638685    0.00018255133 -6.99270635e-05    0.00018255133 -6.99270634e-05      0.293035261       0.9378193
12.66266             0.290676861     0.938513022   0.000182789063 -7.01053017e-05   0.000182789063 -7.01053016e-05      0.293403257      0.93769242
12.662688            0.291044947     0.938387121   0.000183027135 -7.02839854e-05   0.000183027135 -7.02839853e-05      0.293771456       0.9375653
12.662716            0.291413237     0.938260981   0.000183265547  -7.0463116e-05   0.000183265547 -7.04631159e-05      0.294139858      0.93743794
12.662744             0.29178173     0.938134602     0.0001835043 -7.06426945e-05     0.0001835043 -7.06426944e-05      0.294508464     0.937310339
12.662772            0.292150427     0.938007983   0.000183743393 -7.08227221e-05   0.000183743393  -7.0822722e-05      0.294877273     0.937182498
12.6628              0.292519327     0.937881125   0.000183982828 -7.10032001e-05   0.000183982828    -7.10032e-05      0.295246285     0.937054416
12.662828            0.292888431     0.937754026   0.000184222605 -7.11841295e-05   0.000184222604 -7.11841294e-05      0.295615502     0.936926092
12.662856             0.29325774     0.937626687   0.000184462723 -7.13655117e-05   0.000184462723 -7.13655116e-05      0.295984922     0.936797526
12.662884            0.293627252     0.937499106   0.000184703185 -7.15473478e-05   0.000184703184 -7.15473477e-05      0.296354546     0.936668718
12.662912            0.293996968     0.937371284   0.000184943989  -7.1729639e-05   0.000184943989 -7.17296389e-05      0.296724375     0.936539667
12.66294             0.294366889      0.93724322   0.000185185137 -7.19123865e-05   0.000185185137 -7.19123864e-05      0.297094407     0.936410373
12.662968            0.294737014     0.937114914   0.000185426629 -7.20955915e-05   0.000185426629 -7.20955914e-05      0.297464644     0.936280836
12.662996            0.295107344     0.936986365   0.000185668465 -7.22792552e-05   0.000185668465 -7.22792551e-05      0.297835086     0.936151054
12.663024            0.295477878     0.936857573   0.000185910646 -7.24633789e-05   0.000185910646 -7.24633788e-05      0.298205732     0.936021028
12.663052            0.295848618     0.936728538   0.000186153173 -7.26479637e-05   0.000186153173 -7.26479636e-05      0.298576583     0.935890757
12.66308             0.296219562     0.936599258   0.000186396045 -7.28330109e-05   0.000186396045 -7.28330108e-05       0.29894764     0.935760241
12.663108            0.296590712     0.936469734   0.000186639264 -7.30185217e-05   0.000186639264 -7.30185216e-05      0.299318901     0.935629479
12.663136            0.296962066     0.936339965   0.000186882829 -7.32044973e-05   0.000186882829 -7.32044972e-05      0.299690367     0.935498472
12.663164            0.297333627     0.936209951   0.000187126742 -7.33909389e-05   0.000187126742 -7.33909388e-05      0.300062039     0.935367218
12.663192            0.297705392     0.936079692   0.000187371002 -7.35778479e-05   0.000187371002 -7.35778478e-05      0.300433916     0.935235717
12.66322             0.298077364     0.935949186    0.00018761561 -7.37652253e-05    0.00018761561 -7.37652252e-05      0.300805999     0.935103968
12.663248            0.298449541     0.935818434   0.000187860567 -7.39530725e-05   0.000187860566 -7.39530724e-05      0.301178288     0.934971972
12.663276            0.298821924     0.935687435   0.000188105872 -7.41413907e-05   0.000188105872 -7.41413906e-05      0.301550782     0.934839728
12.663304            0.299194514     0.935556189   0.000188351527 -7.43301812e-05   0.000188351527 -7.43301811e-05      0.301923483     0.934707235
12.663332            0.299567309     0.935424695   0.000188597532 -7.45194451e-05   0.000188597532  -7.4519445e-05      0.302296389     0.934574493
12.66336             0.299940311     0.935292953   0.000188843887 -7.47091838e-05   0.000188843887 -7.47091837e-05      0.302669502     0.934441502
12.663388            0.300313519     0.935160962   0.000189090592 -7.48993985e-05   0.000189090592 -7.48993984e-05      0.303042822     0.934308261
12.663416            0.300686934     0.935028723   0.000189337649 -7.50900905e-05   0.000189337649 -7.50900904e-05      0.303416348      0.93417477
12.663444            0.301060556     0.934896234   0.000189585058  -7.5281261e-05   0.000189585058 -7.52812609e-05       0.30379008     0.934041028
12.663472            0.301434385     0.934763495   0.000189832818 -7.54729114e-05   0.000189832818 -7.54729113e-05       0.30416402     0.933907035
12.6635               0.30180842     0.934630506   0.000190080932 -7.56650427e-05   0.000190080932 -7.56650426e-05      0.304538166     0.933772791
