! TOUCHSTONE file generated by CST MICROWAVE STUDIO
! Date and time: Wed Jul 31 20:05:39 2024
! Project name: WaveGuide_BPF-Ver4.1_U-shape_Ku_T3_C4_CWA_2.cst
! Parameters = {cavity_h=16; cavity_l0=10; cavity_l1=15.217; cavity_l2=16.8602; cavity_l3=17.1412; cavity_l4=17.2672; cavity_l5=17.1155; cavity_l6=17.5885; cavity_r=2.5; cavity_screw_l=0.5; cavity_screw_r=1.5; cavity_w=8; iris_h00=0; iris_h01=8.7983; iris_h112=0; iris_h12=5.5902; iris_h211=3.654; iris_h23=5.2007; iris_h310=3.968; iris_h34=5.0822; iris_h45=4.9324; iris_h49=4.6207; iris_h56=4.7896; iris_h58=4.4444; iris_h67=6.5698; iris_rx=0.1; iris_screw_l=0.5; iris_screw_r=1.5; iris_shift00=0; iris_shift112=0; iris_shift211=3.5; iris_shift310=0; iris_shift49=0; iris_shift58=3.5; iris_shift67=3.5; iris_tx=4.5; iris_tz=4.5; iris_w00=0; iris_w112=0; iris_w211=4; iris_w310=3.968; iris_w49=4.6207; iris_w58=4; iris_w67=4; mesh_cavity=5; mesh_iris=7; mesh_screw=7; order=12; reset_all=0; sigma=4.8e+07}
! Header version: 2018
! Port assignment regex: !\s*Touchstone port\s*([0-9]+)\s*=\s*(CST MWS port|CST DS port)\s*([0-9]+|Zmin|Zmax)\s*\(\"(.*)\"\)(\s*mode\s*([0-9]+))?.*
! Touchstone port assignment:
! Touchstone port 1 = CST MWS port 1 ("")
! Touchstone port 2 = CST MWS port 2 ("")
# GHz S RI R 50
12.66                 0.31144511     0.929748218   0.000254930413 -0.000106224004   0.000254930413 -0.000106224004        0.3107577     0.930172981
12.660028            0.311854045     0.929595641   0.000255299266 -0.000106518176   0.000255299266 -0.000106518176      0.311162436     0.930022419
12.660056            0.312263118     0.929442789   0.000255668717 -0.000106813152   0.000255668717 -0.000106813152      0.311567416     0.929871554
12.660084            0.312672379     0.929289645    0.00025603876  -0.00010710894   0.000256038761  -0.00010710894      0.311972645     0.929720381
12.660112            0.313081881     0.929136192   0.000256409392 -0.000107405549   0.000256409392 -0.000107405549      0.312378127     0.929568901
12.66014             0.313491674     0.928982413   0.000256780607 -0.000107702988   0.000256780607 -0.000107702988      0.312783865      0.92941711
12.660168             0.31390176     0.928828306   0.000257152406 -0.000108001259   0.000257152406 -0.000108001259      0.313189861     0.929265009
12.660196            0.314312103     0.928673883   0.000257524794 -0.000108300361   0.000257524794 -0.000108300361      0.313596111     0.929112598
12.660224            0.314722706     0.928519142   0.000257897771 -0.000108600296   0.000257897771 -0.000108600296      0.314002616     0.928959875
12.660252            0.315133566     0.928364084   0.000258271338 -0.000108901067   0.000258271338 -0.000108901067      0.314409376     0.928806841
12.66028             0.315544685     0.928208707   0.000258645497 -0.000109202675   0.000258645497 -0.000109202675      0.314816392     0.928653494
12.660308            0.315956064     0.928053011   0.000259020248 -0.000109505124   0.000259020248 -0.000109505124      0.315223663     0.928499835
12.660336            0.316367701     0.927896996   0.000259395591 -0.000109808416   0.000259395591 -0.000109808416      0.315631189     0.928345862
12.660364            0.316779598      0.92774066   0.000259771529 -0.000110112553   0.000259771529 -0.000110112553      0.316038972     0.928191575
12.660392            0.317191754     0.927584003    0.00026014806 -0.000110417539   0.000260148061 -0.000110417539       0.31644701     0.928036974
12.66042              0.31760417     0.927427024   0.000260525188 -0.000110723375   0.000260525188 -0.000110723374      0.316855305     0.927882057
12.660448            0.318016846     0.927269724   0.000260902911 -0.000111030064   0.000260902911 -0.000111030064      0.317263857     0.927726824
12.660476            0.318429782       0.9271121   0.000261281232 -0.000111337608   0.000261281232 -0.000111337608      0.317672665     0.927571275
12.660504            0.318842979     0.926954153    0.00026166015 -0.000111646011    0.00026166015 -0.000111646011       0.31808173     0.927415409
12.660532            0.319256436     0.926795882   0.000262039667 -0.000111955275   0.000262039667 -0.000111955275      0.318491052     0.927259225
12.66056             0.319670154     0.926637286   0.000262419784 -0.000112265401   0.000262419784 -0.000112265401      0.318900631     0.927102722
12.660588            0.320084133     0.926478364   0.000262800501 -0.000112576394   0.000262800501 -0.000112576394      0.319310468     0.926945901
12.660616            0.320498373     0.926319117   0.000263181819 -0.000112888255    0.00026318182 -0.000112888255      0.319720563      0.92678876
12.660644            0.320912874     0.926159543    0.00026356374 -0.000113200988    0.00026356374 -0.000113200987      0.320130916     0.926631299
12.660672            0.321327638     0.925999642   0.000263946263 -0.000113514593   0.000263946264 -0.000113514593      0.320541527     0.926473517
12.6607              0.321742663     0.925839412   0.000264329391 -0.000113829075   0.000264329391 -0.000113829075      0.320952396     0.926315413
12.660728             0.32215795     0.925678854   0.000264713122 -0.000114144436   0.000264713123 -0.000114144436      0.321363524     0.926156988
12.660756              0.3225735     0.925517967    0.00026509746 -0.000114460679    0.00026509746 -0.000114460679      0.321774911     0.925998239
12.660784            0.322989311      0.92535675   0.000265482403 -0.000114777805   0.000265482403 -0.000114777805      0.322186556     0.925839167
12.660812            0.323405386     0.925195203   0.000265867954 -0.000115095819   0.000265867954 -0.000115095818      0.322598461     0.925679772
12.66084             0.323821724     0.925033324   0.000266254112 -0.000115414721   0.000266254113 -0.000115414721      0.323010626     0.925520051
12.660868            0.324238324     0.924871113    0.00026664088 -0.000115734516    0.00026664088 -0.000115734516      0.323423049     0.925360006
12.660896            0.324655188      0.92470857   0.000267028257 -0.000116055205   0.000267028257 -0.000116055205      0.323835733     0.925199634
12.660924            0.325072315     0.924545694   0.000267416244 -0.000116376792   0.000267416245 -0.000116376792      0.324248677     0.925038936
12.660952            0.325489707     0.924382484   0.000267804843 -0.000116699279   0.000267804843 -0.000116699279      0.324661881      0.92487791
12.66098             0.325907362      0.92421894   0.000268194054 -0.000117022669   0.000268194054 -0.000117022669      0.325075345     0.924716557
12.661008            0.326325281      0.92405506   0.000268583878 -0.000117346964   0.000268583878 -0.000117346964      0.325489071     0.924554876
12.661036            0.326743465     0.923890845   0.000268974316 -0.000117672168   0.000268974316 -0.000117672167      0.325903057     0.924392865
12.661064            0.327161913     0.923726293   0.000269365368 -0.000117998282   0.000269365369 -0.000117998282      0.326317304     0.924230524
12.661092            0.327580626     0.923561404   0.000269757036  -0.00011832531   0.000269757036  -0.00011832531      0.326731812     0.924067853
12.66112             0.327999604     0.923396177   0.000270149321 -0.000118653254   0.000270149321 -0.000118653254      0.327146582     0.923904851
12.661148            0.328418847     0.923230612   0.000270542222 -0.000118982117   0.000270542222 -0.000118982117      0.327561613     0.923741518
12.661176            0.328838355     0.923064708   0.000270935741 -0.000119311903   0.000270935742 -0.000119311903      0.327976907     0.923577851
12.661204            0.329258129     0.922898464    0.00027132988 -0.000119642612    0.00027132988 -0.000119642612      0.328392463     0.923413852
12.661232            0.329678169     0.922731879   0.000271724638  -0.00011997425   0.000271724638  -0.00011997425      0.328808281     0.923249519
12.66126             0.330098475     0.922564954   0.000272120016 -0.000120306817   0.000272120016 -0.000120306817      0.329224361     0.923084852
12.661288            0.330519047     0.922397686   0.000272516016 -0.000120640317   0.000272516016 -0.000120640317      0.329640704      0.92291985
12.661316            0.330939886     0.922230076   0.000272912638 -0.000120974753   0.000272912638 -0.000120974753       0.33005731     0.922754512
12.661344            0.331360991     0.922062123   0.000273309883 -0.000121310128   0.000273309883 -0.000121310128       0.33047418     0.922588838
12.661372            0.331782363     0.921893826   0.000273707751 -0.000121646444   0.000273707752 -0.000121646444      0.330891312     0.922422827
12.6614              0.332204003     0.921725185   0.000274106245 -0.000121983704   0.000274106245 -0.000121983704      0.331308709     0.922256478
12.661428            0.332625909     0.921556198   0.000274505364 -0.000122321911   0.000274505364 -0.000122321911      0.331726369     0.922089791
12.661456            0.333048083     0.921386866   0.000274905109 -0.000122661068   0.000274905109 -0.000122661068      0.332144293     0.921922765
12.661484            0.333470525     0.921217187   0.000275305482 -0.000123001178   0.000275305482 -0.000123001177      0.332562481     0.921755399
12.661512            0.333893234      0.92104716   0.000275706482 -0.000123342243   0.000275706482 -0.000123342243      0.332980934     0.921587693
12.66154             0.334316212     0.920876786   0.000276108111 -0.000123684266   0.000276108111 -0.000123684266      0.333399651     0.921419646
12.661568            0.334739458     0.920706063    0.00027651037 -0.000124027251    0.00027651037 -0.000124027251      0.333818633     0.921251258
12.661596            0.335162973     0.920534991    0.00027691326   -0.0001243712    0.00027691326   -0.0001243712       0.33423788     0.921082527
12.661624            0.335586756     0.920363569    0.00027731678 -0.000124716117   0.000277316781 -0.000124716116      0.334657393     0.920913452
12.661652            0.336010808     0.920191795   0.000277720933 -0.000125062003   0.000277720934 -0.000125062003      0.335077171     0.920744035
12.66168              0.33643513     0.920019671   0.000278125719 -0.000125408862   0.000278125719 -0.000125408862      0.335497214     0.920574272
12.661708            0.336859721     0.919847194   0.000278531139 -0.000125756697   0.000278531139 -0.000125756696      0.335917523     0.920404165
12.661736            0.337284581     0.919674365   0.000278937193  -0.00012610551   0.000278937194  -0.00012610551      0.336338099     0.920233712
12.661764            0.337709711     0.919501182   0.000279343883 -0.000126455305   0.000279343883 -0.000126455305      0.336758941     0.920062912
12.661792            0.338135111     0.919327645   0.000279751209 -0.000126806085   0.000279751209 -0.000126806085      0.337180049     0.919891766
12.66182             0.338560782     0.919153752   0.000280159172 -0.000127157853   0.000280159173 -0.000127157853      0.337601424     0.919720271
12.661848            0.338986723     0.918979504   0.000280567774 -0.000127510611   0.000280567774 -0.000127510611      0.338023066     0.919548428
12.661876            0.339412934       0.9188049   0.000280977014 -0.000127864362   0.000280977014 -0.000127864362      0.338444975     0.919376236
12.661904            0.339839416     0.918629939   0.000281386893  -0.00012821911   0.000281386893  -0.00012821911      0.338867151     0.919203694
12.661932             0.34026617      0.91845462   0.000281797413 -0.000128574858   0.000281797413 -0.000128574858      0.339289595     0.919030801
12.66196             0.340693194     0.918278942   0.000282208574 -0.000128931608   0.000282208574 -0.000128931608      0.339712307     0.918857557
12.661988            0.341120491     0.918102905   0.000282620377 -0.000129289364   0.000282620378 -0.000129289364      0.340135287     0.918683961
12.662016            0.341548058     0.917926508   0.000283032824 -0.000129648128   0.000283032824 -0.000129648128      0.340558534     0.918510012
12.662044            0.341975898      0.91774975   0.000283445913 -0.000130007904   0.000283445914 -0.000130007904      0.340982051      0.91833571
12.662072             0.34240401     0.917572631   0.000283859648 -0.000130368695   0.000283859648 -0.000130368695      0.341405835     0.918161053
12.6621              0.342832394      0.91739515   0.000284274027 -0.000130730503   0.000284274027 -0.000130730503      0.341829889     0.917986042
12.662128             0.34326105     0.917217306   0.000284689053 -0.000131093332   0.000284689053 -0.000131093332      0.342254212     0.917810676
12.662156             0.34368998     0.917039099   0.000285104726 -0.000131457185   0.000285104726 -0.000131457185      0.342678803     0.917634953
12.662184            0.344119182     0.916860527   0.000285521047 -0.000131822065   0.000285521047 -0.000131822064      0.343103665     0.917458873
12.662212            0.344548657      0.91668159   0.000285938016 -0.000132187974   0.000285938016 -0.000132187974      0.343528796     0.917282435
12.66224             0.344978406     0.916502287   0.000286355634 -0.000132554917   0.000286355635 -0.000132554917      0.343954196     0.917105639
12.662268            0.345408428     0.916322618   0.000286773903 -0.000132922896   0.000286773903 -0.000132922896      0.344379867     0.916928484
12.662296            0.345838724     0.916142582   0.000287192823 -0.000133291915   0.000287192823 -0.000133291915      0.344805808     0.916750969
12.662324            0.346269294     0.915962177   0.000287612395 -0.000133661976   0.000287612395 -0.000133661976       0.34523202     0.916573094
12.662352            0.346700138     0.915781404   0.000288032619 -0.000134033083    0.00028803262 -0.000134033083      0.345658502     0.916394857
12.66238             0.347131257     0.915600262   0.000288453497 -0.000134405238   0.000288453498 -0.000134405238      0.346085255     0.916216259
12.662408             0.34756265     0.915418749    0.00028887503 -0.000134778446    0.00028887503 -0.000134778445      0.346512279     0.916037297
12.662436            0.347994318     0.915236865   0.000289297217 -0.000135152708   0.000289297217 -0.000135152708      0.346939574     0.915857972
12.662464            0.348426261     0.915054609    0.00028972006 -0.000135528029   0.000289720061 -0.000135528029      0.347367141     0.915678283
12.662492             0.34885848     0.914871981    0.00029014356 -0.000135904411   0.000290143561 -0.000135904411       0.34779498     0.915498229
12.66252             0.349290973      0.91468898   0.000290567718 -0.000136281858   0.000290567718 -0.000136281858      0.348223091      0.91531781
12.662548            0.349723743     0.914505605   0.000290992534 -0.000136660373   0.000290992534 -0.000136660373      0.348651474     0.915137024
12.662576            0.350156788     0.914321855   0.000291418009 -0.000137039959   0.000291418009 -0.000137039959      0.349080129      0.91495587
12.662604            0.350590109     0.914137729   0.000291844144  -0.00013742062   0.000291844144  -0.00013742062      0.349509056     0.914774349
12.662632            0.351023707     0.913953228    0.00029227094 -0.000137802358    0.00029227094 -0.000137802358      0.349938257      0.91459246
12.66266             0.351457581     0.913768349   0.000292698397 -0.000138185177   0.000292698397 -0.000138185177       0.35036773     0.914410201
12.662688            0.351891732     0.913583092   0.000293126517  -0.00013856908   0.000293126517  -0.00013856908      0.350797477     0.914227572
12.662716            0.352326159     0.913397457     0.0002935553 -0.000138954071     0.0002935553 -0.000138954071      0.351227497     0.914044572
12.662744            0.352760864     0.913211443   0.000293984747 -0.000139340152   0.000293984747 -0.000139340152      0.351657791     0.913861201
12.662772            0.353195846     0.913025049   0.000294414858 -0.000139727327   0.000294414858 -0.000139727327      0.352088358     0.913677457
12.6628              0.353631106     0.912838273   0.000294845635   -0.0001401156   0.000294845635   -0.0001401156      0.352519199      0.91349334
12.662828            0.354066643     0.912651117   0.000295277079 -0.000140504973   0.000295277079 -0.000140504973      0.352950315     0.913308849
12.662856            0.354502458     0.912463577   0.000295709189  -0.00014089545   0.000295709189  -0.00014089545      0.353381705     0.913123984
12.662884            0.354938552     0.912275655   0.000296141968 -0.000141287035   0.000296141968 -0.000141287034       0.35381337     0.912938743
12.662912            0.355374924     0.912087348   0.000296575415  -0.00014167973   0.000296575415 -0.000141679729       0.35424531     0.912753127
12.66294             0.355811574     0.911898657   0.000297009532 -0.000142073539   0.000297009532 -0.000142073539      0.354677524     0.912567133
12.662968            0.356248503     0.911709581   0.000297444319 -0.000142468465   0.000297444319 -0.000142468465      0.355110014     0.912380762
12.662996            0.356685711     0.911520118   0.000297879777 -0.000142864512   0.000297879777 -0.000142864512       0.35554278     0.912194012
12.663024            0.357123198     0.911330268   0.000298315907 -0.000143261684   0.000298315907 -0.000143261683      0.355975821     0.912006883
12.663052            0.357560965      0.91114003    0.00029875271 -0.000143659982    0.00029875271 -0.000143659982      0.356409138     0.911819375
12.66308             0.357999012     0.910949403   0.000299190186 -0.000144059412   0.000299190186 -0.000144059412      0.356842731     0.911631485
12.663108            0.358437338     0.910758387   0.000299628336 -0.000144459976   0.000299628336 -0.000144459976        0.3572766     0.911443214
12.663136            0.358875944     0.910566981   0.000300067161 -0.000144861679   0.000300067162 -0.000144861678      0.357710746     0.911254561
12.663164             0.35931483     0.910375184   0.000300506662 -0.000145264522   0.000300506663 -0.000145264522      0.358145169     0.911065525
12.663192            0.359753997     0.910182994    0.00030094684  -0.00014566851    0.00030094684  -0.00014566851      0.358579869     0.910876105
12.66322             0.360193445     0.909990413   0.000301387695 -0.000146073646   0.000301387695 -0.000146073646      0.359014846       0.9106863
12.663248            0.360633173     0.909797437   0.000301829228 -0.000146479934   0.000301829229 -0.000146479934        0.3594501      0.91049611
12.663276            0.361073182     0.909604068    0.00030227144 -0.000146887377   0.000302271441 -0.000146887377      0.359885631     0.910305534
12.663304            0.361513473     0.909410303   0.000302714332 -0.000147295979   0.000302714332 -0.000147295978      0.360321441      0.91011457
12.663332            0.361954045     0.909216143   0.000303157904 -0.000147705742   0.000303157904 -0.000147705742      0.360757528      0.90992322
12.66336             0.362394899     0.909021586   0.000303602158 -0.000148116672   0.000303602158 -0.000148116672      0.361193894      0.90973148
12.663388            0.362836035     0.908826631   0.000304047093 -0.000148528771   0.000304047093 -0.000148528771      0.361630538     0.909539351
12.663416            0.363277453     0.908631278   0.000304492711 -0.000148942042   0.000304492711 -0.000148942042       0.36206746     0.909346832
12.663444            0.363719153     0.908435526   0.000304939012  -0.00014935649   0.000304939013  -0.00014935649      0.362504662     0.909153923
12.663472            0.364161135     0.908239374   0.000305385998 -0.000149772118   0.000305385998 -0.000149772118      0.362942142     0.908960621
12.6635              0.364603401     0.908042821   0.000305833669 -0.000150188929   0.000305833669 -0.000150188929      0.363379902     0.908766927
