! TOUCHSTONE file generated by CST MICROWAVE STUDIO
! Date and time: Wed Jul 31 20:08:52 2024
! Project name: WaveGuide_BPF-Ver4.1_U-shape_Ku_T3_C4_CWA_2.cst
! Parameters = {cavity_h=16; cavity_l0=10; cavity_l1=15.1748; cavity_l2=16.8529; cavity_l3=17.0621; cavity_l4=17.2707; cavity_l5=17.1519; cavity_l6=17.5761; cavity_r=2.5; cavity_screw_l=0.5; cavity_screw_r=1.5; cavity_w=8; iris_h00=0; iris_h01=8.8385; iris_h112=0; iris_h12=5.6114; iris_h211=3.6682; iris_h23=5.199; iris_h310=3.9732; iris_h34=5.0801; iris_h45=4.9196; iris_h49=4.6286; iris_h56=4.7928; iris_h58=4.4407; iris_h67=6.5874; iris_rx=0.1; iris_screw_l=0.5; iris_screw_r=1.5; iris_shift00=0; iris_shift112=0; iris_shift211=3.5; iris_shift310=0; iris_shift49=0; iris_shift58=3.5; iris_shift67=3.5; iris_tx=4.5; iris_tz=4.5; iris_w00=0; iris_w112=0; iris_w211=4; iris_w310=3.9732; iris_w49=4.6286; iris_w58=4; iris_w67=4; mesh_cavity=5; mesh_iris=7; mesh_screw=7; order=12; reset_all=0; sigma=4.8e+07}
! Header version: 2018
! Port assignment regex: !\s*Touchstone port\s*([0-9]+)\s*=\s*(CST MWS port|CST DS port)\s*([0-9]+|Zmin|Zmax)\s*\(\"(.*)\"\)(\s*mode\s*([0-9]+))?.*
! Touchstone port assignment:
! Touchstone port 1 = CST MWS port 1 ("")
! Touchstone port 2 = CST MWS port 2 ("")
# GHz S RI R 50
12.66                0.318662919     0.928135838   0.000263999107 -0.000113082689   0.000263999107 -0.000113082689      0.323431257      0.92655026
12.660028            0.319052616     0.927988044     0.0002643797 -0.000113387145   0.000264379699 -0.000113387145      0.323819764     0.926400674
12.660056            0.319442544     0.927839965   0.000264760906 -0.000113692445   0.000264760906 -0.000113692445      0.324208551     0.926250784
12.660084              0.3198327       0.9276916   0.000265142729 -0.000113998588   0.000265142729 -0.000113998588      0.324597594     0.926100598
12.660112            0.320223085     0.927542951   0.000265525173 -0.000114305575   0.000265525173 -0.000114305575      0.324986871     0.925950124
12.66014             0.320613696     0.927394016   0.000265908242 -0.000114613405   0.000265908242 -0.000114613405      0.325376358      0.92579937
12.660168            0.321004535     0.927244795   0.000266291937  -0.00011492208   0.000266291936  -0.00011492208      0.325766056     0.925648333
12.660196            0.321395603     0.927095287   0.000266676256 -0.000115231605   0.000266676256 -0.000115231605      0.326155981      0.92549701
12.660224            0.321786898     0.926945493   0.000267061201 -0.000115541983   0.000267061201 -0.000115541983      0.326546132     0.925345399
12.660252            0.322178422      0.92679541   0.000267446773 -0.000115853215   0.000267446773 -0.000115853215       0.32693651     0.925193499
12.66028             0.322570175      0.92664504   0.000267832973 -0.000116165305   0.000267832973 -0.000116165305      0.327327114     0.925041311
12.660308            0.322962156      0.92649438   0.000268219801 -0.000116478255   0.000268219801 -0.000116478255      0.327717946     0.924888834
12.660336            0.323354367     0.926343432    0.00026860726 -0.000116792068    0.00026860726 -0.000116792068      0.328109005     0.924736066
12.660364            0.323746807     0.926192194    0.00026899535 -0.000117106746    0.00026899535 -0.000117106746      0.328500291     0.924583009
12.660392            0.324139476     0.926040665   0.000269384071 -0.000117422292   0.000269384071 -0.000117422292      0.328891805      0.92442966
12.66042             0.324532374     0.925888846   0.000269773426 -0.000117738708   0.000269773426 -0.000117738708      0.329283546      0.92427602
12.660448            0.324925502     0.925736735   0.000270163415 -0.000118055998   0.000270163415 -0.000118055998      0.329675515     0.924122089
12.660476            0.325318861     0.925584332   0.000270554039 -0.000118374163   0.000270554038 -0.000118374163      0.330067712     0.923967864
12.660504            0.325712449     0.925431637   0.000270945298 -0.000118693206   0.000270945298 -0.000118693206      0.330460138     0.923813347
12.660532            0.326106267     0.925278649   0.000271337195 -0.000119013131   0.000271337195 -0.000119013131      0.330852791     0.923658537
12.66056             0.326500315     0.925125368   0.000271729731 -0.000119333939    0.00027172973 -0.000119333939      0.331245673     0.923503432
12.660588            0.326894594     0.924971793   0.000272122905 -0.000119655633   0.000272122905 -0.000119655633      0.331638784     0.923348033
12.660616            0.327289103     0.924817923    0.00027251672 -0.000119978217   0.000272516719 -0.000119978217      0.332032123     0.923192338
12.660644            0.327683844     0.924663758   0.000272911175 -0.000120301692   0.000272911175 -0.000120301691      0.332425691     0.923036348
12.660672            0.328078815     0.924509297   0.000273306274 -0.000120626061   0.000273306273 -0.000120626061      0.332819489     0.922880062
12.6607              0.328474017     0.924354541   0.000273702015 -0.000120951327   0.000273702015 -0.000120951327      0.333213515     0.922723479
12.660728            0.328869451     0.924199487   0.000274098401 -0.000121277493   0.000274098401 -0.000121277493      0.333607771     0.922566599
12.660756            0.329265116     0.924044136   0.000274495432 -0.000121604561   0.000274495432 -0.000121604561      0.334002257     0.922409421
12.660784            0.329661013     0.923888488    0.00027489311 -0.000121932535    0.00027489311 -0.000121932535      0.334396972     0.922251945
12.660812            0.330057141     0.923732541   0.000275291436 -0.000122261416   0.000275291435 -0.000122261416      0.334791917     0.922094169
12.66084             0.330453502     0.923576296    0.00027569041 -0.000122591208   0.000275690409 -0.000122591208      0.335187093     0.921936095
12.660868            0.330850094     0.923419751   0.000276090033 -0.000122921913   0.000276090033 -0.000122921913      0.335582498      0.92177772
12.660896            0.331246919     0.923262906   0.000276490307 -0.000123253534   0.000276490307 -0.000123253534      0.335978134     0.921619045
12.660924            0.331643976     0.923105761   0.000276891233 -0.000123586075   0.000276891233 -0.000123586075         0.336374     0.921460069
12.660952            0.332041265     0.922948314   0.000277292812 -0.000123919536   0.000277292811 -0.000123919536      0.336770097     0.921300792
12.66098             0.332438788     0.922790566   0.000277695044 -0.000124253923   0.000277695044 -0.000124253922      0.337166425     0.921141212
12.661008            0.332836543     0.922632516   0.000278097931 -0.000124589236   0.000278097931 -0.000124589236      0.337562984     0.920981329
12.661036            0.333234531     0.922474163   0.000278501474 -0.000124925479   0.000278501474 -0.000124925479      0.337959773     0.920821144
12.661064            0.333632753     0.922315507   0.000278905674 -0.000125262655   0.000278905674 -0.000125262655      0.338356795     0.920660654
12.661092            0.334031208     0.922156547   0.000279310532 -0.000125600767   0.000279310532 -0.000125600767      0.338754047      0.92049986
12.66112             0.334429896     0.921997283   0.000279716049 -0.000125939817   0.000279716049 -0.000125939817      0.339151532     0.920338761
12.661148            0.334828818     0.921837714   0.000280122226 -0.000126279809   0.000280122226 -0.000126279809      0.339549248     0.920177357
12.661176            0.335227974     0.921677839   0.000280529065 -0.000126620744   0.000280529064 -0.000126620744      0.339947196     0.920015647
12.661204            0.335627365     0.921517659   0.000280936565 -0.000126962627   0.000280936565 -0.000126962627      0.340345376      0.91985363
12.661232            0.336026989     0.921357172   0.000281344729 -0.000127305459   0.000281344729 -0.000127305459      0.340743788     0.919691306
12.66126             0.336426847     0.921196377   0.000281753557 -0.000127649245   0.000281753557 -0.000127649245      0.341142433     0.919528674
12.661288             0.33682694     0.921035275    0.00028216305 -0.000127993985    0.00028216305 -0.000127993985       0.34154131     0.919365734
12.661316            0.337227268     0.920873865    0.00028257321 -0.000128339685    0.00028257321 -0.000128339685      0.341940421     0.919202486
12.661344            0.337627831     0.920712146   0.000282984038 -0.000128686345   0.000282984037 -0.000128686345      0.342339763     0.919038927
12.661372            0.338028628     0.920550117   0.000283395534  -0.00012903397   0.000283395533  -0.00012903397       0.34273934     0.918875059
12.6614              0.338429661     0.920387778   0.000283807699 -0.000129382563   0.000283807699 -0.000129382563      0.343139149     0.918710881
12.661428            0.338830929     0.920225129   0.000284220535 -0.000129732125   0.000284220535 -0.000129732125      0.343539191     0.918546391
12.661456            0.339232432     0.920062169   0.000284634043 -0.000130082661   0.000284634043 -0.000130082661      0.343939467     0.918381589
12.661484            0.339634171     0.919898897   0.000285048224 -0.000130434172   0.000285048224 -0.000130434172      0.344339977     0.918216476
12.661512            0.340036146     0.919735313   0.000285463079 -0.000130786663   0.000285463079 -0.000130786663      0.344740721     0.918051049
12.66154             0.340438357     0.919571416   0.000285878609 -0.000131140136   0.000285878609 -0.000131140135      0.345141698      0.91788531
12.661568            0.340840804     0.919407205   0.000286294814 -0.000131494593   0.000286294814 -0.000131494593       0.34554291     0.917719256
12.661596            0.341243487     0.919242681   0.000286711697 -0.000131850039   0.000286711697 -0.000131850039      0.345944356     0.917552887
12.661624            0.341646407     0.919077842   0.000287129258 -0.000132206475   0.000287129258 -0.000132206475      0.346346037     0.917386204
12.661652            0.342049563     0.918912688   0.000287547498 -0.000132563906   0.000287547498 -0.000132563906      0.346747952     0.917219205
12.66168             0.342452956     0.918747218   0.000287966419 -0.000132922334   0.000287966419 -0.000132922333      0.347150102      0.91705189
12.661708            0.342856586     0.918581432   0.000288386021 -0.000133281761   0.000288386021 -0.000133281761      0.347552487     0.916884257
12.661736            0.343260453     0.918415329   0.000288806305 -0.000133642192   0.000288806305 -0.000133642192      0.347955107     0.916716308
12.661764            0.343664558     0.918248908   0.000289227273 -0.000134003629   0.000289227273 -0.000134003629      0.348357962      0.91654804
12.661792            0.344068899     0.918082169   0.000289648925 -0.000134366075   0.000289648925 -0.000134366075      0.348761052     0.916379454
12.66182             0.344473478     0.917915112   0.000290071264 -0.000134729533   0.000290071263 -0.000134729533      0.349164379     0.916210548
12.661848            0.344878295     0.917747736   0.000290494288 -0.000135094007   0.000290494288 -0.000135094007      0.349567941     0.916041323
12.661876             0.34528335     0.917580039   0.000290918001 -0.000135459499   0.000290918001 -0.000135459499      0.349971738     0.915871778
12.661904            0.345688643     0.917412022   0.000291342403 -0.000135826013   0.000291342403 -0.000135826012      0.350375772     0.915701911
12.661932            0.346094174     0.917243685   0.000291767494 -0.000136193551   0.000291767494 -0.000136193551      0.350780042     0.915531723
12.66196             0.346499943     0.917075025   0.000292193277 -0.000136562117   0.000292193277 -0.000136562117      0.351184549     0.915361213
12.661988            0.346905951     0.916906044   0.000292619752 -0.000136931714   0.000292619752 -0.000136931714      0.351589291      0.91519038
12.662016            0.347312198     0.916736739    0.00029304692 -0.000137302345    0.00029304692 -0.000137302345      0.351994271     0.915019224
12.662044            0.347718683     0.916567111   0.000293474782 -0.000137674013   0.000293474782 -0.000137674013      0.352399487     0.914847743
12.662072            0.348125408      0.91639716    0.00029390334 -0.000138046722    0.00029390334 -0.000138046722      0.352804941     0.914675939
12.6621              0.348532371     0.916226883   0.000294332595 -0.000138420474   0.000294332594 -0.000138420474      0.353210631     0.914503809
12.662128            0.348939574     0.916056282   0.000294762546 -0.000138795273   0.000294762546 -0.000138795273      0.353616559     0.914331353
12.662156            0.349347017     0.915885354   0.000295193197 -0.000139171122   0.000295193197 -0.000139171122      0.354022724     0.914158572
12.662184            0.349754699     0.915714101   0.000295624547 -0.000139548024   0.000295624547 -0.000139548024      0.354429127     0.913985463
12.662212            0.350162621      0.91554252   0.000296056598 -0.000139925983   0.000296056598 -0.000139925983      0.354835767     0.913812026
12.66224             0.350570782     0.915370611   0.000296489351 -0.000140305001   0.000296489351 -0.000140305001      0.355242646     0.913638262
12.662268            0.350979184     0.915198375   0.000296922807 -0.000140685082   0.000296922807 -0.000140685082      0.355649762     0.913464169
12.662296            0.351387826     0.915025809   0.000297356967 -0.000141066229   0.000297356967 -0.000141066229      0.356057117     0.913289746
12.662324            0.351796709     0.914852914   0.000297791833 -0.000141448445   0.000297791832 -0.000141448445       0.35646471     0.913114994
12.662352            0.352205832     0.914679689   0.000298227404 -0.000141831734   0.000298227404 -0.000141831734      0.356872541     0.912939911
12.66238             0.352615196     0.914506134   0.000298663683 -0.000142216099   0.000298663683 -0.000142216099      0.357280612     0.912764497
12.662408            0.353024801     0.914332247    0.00029910067 -0.000142601543    0.00029910067 -0.000142601543      0.357688921      0.91258875
12.662436            0.353434647     0.914158028   0.000299538367  -0.00014298807   0.000299538367  -0.00014298807      0.358097469     0.912412672
12.662464            0.353844734     0.913983476   0.000299976775 -0.000143375682   0.000299976775 -0.000143375682      0.358506256     0.912236261
12.662492            0.354255063     0.913808592   0.000300415894 -0.000143764384   0.000300415894 -0.000143764384      0.358915283     0.912059515
12.66252             0.354665633     0.913633373   0.000300855726 -0.000144154178   0.000300855726 -0.000144154178      0.359324549     0.911882436
12.662548            0.355076444     0.913457821   0.000301296272 -0.000144545068   0.000301296272 -0.000144545068      0.359734055     0.911705022
12.662576            0.355487498     0.913281933   0.000301737534 -0.000144937057   0.000301737533 -0.000144937057        0.3601438     0.911527272
12.662604            0.355898794      0.91310571   0.000302179511 -0.000145330149   0.000302179511 -0.000145330149      0.360553785     0.911349186
12.662632            0.356310331      0.91292915   0.000302622205 -0.000145724347   0.000302622205 -0.000145724346      0.360964011     0.911170763
12.66266             0.356722111     0.912752254   0.000303065618 -0.000146119654   0.000303065618 -0.000146119654      0.361374477     0.910992003
12.662688            0.357134134      0.91257502    0.00030350975 -0.000146516074    0.00030350975 -0.000146516073      0.361785183     0.910812905
12.662716            0.357546399     0.912397448   0.000303954603  -0.00014691361   0.000303954603 -0.000146913609      0.362196129     0.910633468
12.662744            0.357958907     0.912219537   0.000304400177 -0.000147312265   0.000304400177 -0.000147312265      0.362607317     0.910453692
12.662772            0.358371658     0.912041286   0.000304846474 -0.000147712044   0.000304846474 -0.000147712044      0.363018745     0.910273576
12.6628              0.358784652     0.911862696   0.000305293495 -0.000148112949   0.000305293495 -0.000148112949      0.363430414      0.91009312
12.662828             0.35919789     0.911683765   0.000305741241 -0.000148514984   0.000305741241 -0.000148514984      0.363842324     0.909912322
12.662856            0.359611371     0.911504493   0.000306189713 -0.000148918153   0.000306189713 -0.000148918153      0.364254476     0.909731182
12.662884            0.360025095     0.911324878   0.000306638912 -0.000149322459   0.000306638912 -0.000149322459      0.364666869       0.9095497
12.662912            0.360439063     0.911144921   0.000307088839 -0.000149727905   0.000307088839 -0.000149727905      0.365079504     0.909367875
12.66294             0.360853275     0.910964621   0.000307539496 -0.000150134495   0.000307539495 -0.000150134495       0.36549238     0.909185707
12.662968            0.361267732     0.910783977   0.000307990883 -0.000150542232   0.000307990882 -0.000150542232      0.365905499     0.909003193
12.662996            0.361682432     0.910602988   0.000308443001 -0.000150951121   0.000308443001 -0.000150951121      0.366318859     0.908820335
12.663024            0.362097377     0.910421655   0.000308895852 -0.000151361164   0.000308895852 -0.000151361164      0.366732462     0.908637131
12.663052            0.362512566     0.910239975   0.000309349437 -0.000151772365   0.000309349437 -0.000151772365      0.367146307     0.908453581
12.66308                0.362928     0.910057949   0.000309803757 -0.000152184728   0.000309803757 -0.000152184728      0.367560395     0.908269684
12.663108            0.363343679     0.909875576   0.000310258813 -0.000152598256   0.000310258813 -0.000152598256      0.367974725     0.908085439
12.663136            0.363759602     0.909692855   0.000310714606 -0.000153012954   0.000310714605 -0.000153012953      0.368389298     0.907900846
12.663164            0.364175771     0.909509785   0.000311171137 -0.000153428823   0.000311171137 -0.000153428823      0.368804114     0.907715905
12.663192            0.364592185     0.909326367   0.000311628407 -0.000153845869   0.000311628407 -0.000153845869      0.369219173     0.907530613
12.66322             0.365008845     0.909142599   0.000312086418 -0.000154264094   0.000312086418 -0.000154264094      0.369634476     0.907344971
12.663248             0.36542575      0.90895848    0.00031254517 -0.000154683503    0.00031254517 -0.000154683503      0.370050022     0.907158979
12.663276            0.365842901      0.90877401   0.000313004665 -0.000155104099   0.000313004665 -0.000155104099      0.370465812     0.906972635
12.663304            0.366260298     0.908589189   0.000313464904 -0.000155525885   0.000313464903 -0.000155525885      0.370881845     0.906785938
12.663332            0.366677942     0.908404015   0.000313925887 -0.000155948866   0.000313925887 -0.000155948866      0.371298122     0.906598889
12.66336             0.367095831     0.908218488   0.000314387616 -0.000156373045   0.000314387616 -0.000156373045      0.371714644     0.906411487
12.663388            0.367513967     0.908032607   0.000314850093 -0.000156798426   0.000314850093 -0.000156798426      0.372131409      0.90622373
12.663416            0.367932349     0.907846373   0.000315313318 -0.000157225013   0.000315313317 -0.000157225012      0.372548419     0.906035618
12.663444            0.368350978     0.907659783   0.000315777292 -0.000157652808   0.000315777291 -0.000157652808      0.372965674     0.905847151
12.663472            0.368769854     0.907472837   0.000316242016 -0.000158081817   0.000316242016 -0.000158081817      0.373383173     0.905658328
12.6635              0.369188977     0.907285535   0.000316707492 -0.000158512042   0.000316707492 -0.000158512042      0.373800917     0.905469147
