! TOUCHSTONE file generated by CST MICROWAVE STUDIO
! Date and time: Wed Jul 31 20:12:03 2024
! Project name: WaveGuide_BPF-Ver4.1_U-shape_Ku_T3_C4_CWA_2.cst
! Parameters = {cavity_h=16; cavity_l0=10; cavity_l1=15.2126; cavity_l2=16.85; cavity_l3=17.1315; cavity_l4=17.2994; cavity_l5=17.1156; cavity_l6=17.5719; cavity_r=2.5; cavity_screw_l=0.5; cavity_screw_r=1.5; cavity_w=8; iris_h00=0; iris_h01=8.8161; iris_h112=0; iris_h12=5.6138; iris_h211=3.6578; iris_h23=5.1969; iris_h310=3.9764; iris_h34=5.0808; iris_h45=4.9319; iris_h49=4.6301; iris_h56=4.7883; iris_h58=4.4335; iris_h67=6.595; iris_rx=0.1; iris_screw_l=0.5; iris_screw_r=1.5; iris_shift00=0; iris_shift112=0; iris_shift211=3.5; iris_shift310=0; iris_shift49=0; iris_shift58=3.5; iris_shift67=3.5; iris_tx=4.5; iris_tz=4.5; iris_w00=0; iris_w112=0; iris_w211=4; iris_w310=3.9764; iris_w49=4.6301; iris_w58=4; iris_w67=4; mesh_cavity=5; mesh_iris=7; mesh_screw=7; order=12; reset_all=0; sigma=4.8e+07}
! Header version: 2018
! Port assignment regex: !\s*Touchstone port\s*([0-9]+)\s*=\s*(CST MWS port|CST DS port)\s*([0-9]+|Zmin|Zmax)\s*\(\"(.*)\"\)(\s*mode\s*([0-9]+))?.*
! Touchstone port assignment:
! Touchstone port 1 = CST MWS port 1 ("")
! Touchstone port 2 = CST MWS port 2 ("")
# GHz S RI R 50
12.66                0.383320373     0.900169181   0.000285387953 -0.000147499931   0.000285387952  -0.00014749993      0.386778657     0.898671437
12.660028            0.383761381     0.899962737   0.000285782451 -0.000147893537    0.00028578245 -0.000147893537      0.387220132     0.898462694
12.660056            0.384202668     0.899755884   0.000286177505  -0.00014828821   0.000286177505 -0.000148288209      0.387661807     0.898253573
12.660084            0.384644225     0.899548625   0.000286573116 -0.000148683953   0.000286573115 -0.000148683953      0.388103707     0.898044061
12.660112            0.385086043     0.899340963   0.000286969279 -0.000149080773   0.000286969279 -0.000149080773      0.388545859     0.897834147
12.66014             0.385528117       0.8991329   0.000287365994 -0.000149478675   0.000287365993 -0.000149478675      0.388988287      0.89762382
12.660168            0.385970444     0.898924435    0.00028776326 -0.000149877661   0.000287763259 -0.000149877661       0.38943099      0.89741308
12.660196            0.386413031     0.898715566    0.00028816108 -0.000150277734   0.000288161079 -0.000150277733      0.389873953     0.897201931
12.660224            0.386855879     0.898506292   0.000288559454 -0.000150678896   0.000288559453 -0.000150678895      0.390317176     0.896990374
12.660252            0.387298986     0.898296611   0.000288958382  -0.00015108115   0.000288958382  -0.00015108115      0.390760659     0.896778408
12.66028             0.387742354     0.898086524   0.000289357866 -0.000151484501   0.000289357865   -0.0001514845      0.391204401     0.896566032
12.660308            0.388185982     0.897876028   0.000289757905  -0.00015188895   0.000289757905  -0.00015188895      0.391648403     0.896353245
12.660336            0.388629871     0.897665125     0.0002901585 -0.000152294501     0.0002901585 -0.000152294501      0.392092666     0.896140047
12.660364             0.38907402     0.897453812   0.000290559652 -0.000152701158   0.000290559651 -0.000152701158      0.392537189     0.895926436
12.660392             0.38951843     0.897242089    0.00029096136 -0.000153108923    0.00029096136 -0.000153108923      0.392981972     0.895712412
12.66042             0.389963101     0.897029955   0.000291363626   -0.0001535178   0.000291363625   -0.0001535178      0.393427016     0.895497974
12.660448            0.390408033      0.89681741   0.000291766449 -0.000153927792   0.000291766449 -0.000153927792      0.393872321     0.895283121
12.660476            0.390853226     0.896604452   0.000292169831 -0.000154338902    0.00029216983 -0.000154338902      0.394317886     0.895067853
12.660504             0.39129868     0.896391082   0.000292573771 -0.000154751133    0.00029257377 -0.000154751133      0.394763712     0.894852168
12.660532            0.391744396     0.896177297    0.00029297827 -0.000155164489   0.000292978269 -0.000155164489        0.3952098     0.894636066
12.66056             0.392190373     0.895963097   0.000293383328 -0.000155578973   0.000293383328 -0.000155578972      0.395656148     0.894419547
12.660588            0.392636612     0.895748482   0.000293788947 -0.000155994588   0.000293788946 -0.000155994587      0.396102758     0.894202608
12.660616            0.393083113      0.89553345   0.000294195125 -0.000156411337   0.000294195125 -0.000156411337      0.396549629      0.89398525
12.660644            0.393529876     0.895318002   0.000294601864 -0.000156829224   0.000294601864 -0.000156829223      0.396996761     0.893767472
12.660672            0.393976901     0.895102135   0.000295009164 -0.000157248251   0.000295009164 -0.000157248251      0.397444156     0.893549272
12.6607              0.394424188      0.89488585   0.000295417026 -0.000157668423   0.000295417026 -0.000157668423      0.397891812      0.89333065
12.660728            0.394871737     0.894669144    0.00029582545 -0.000158089743   0.000295825449 -0.000158089743      0.398339729     0.893111606
12.660756            0.395319548     0.894452019   0.000296234436 -0.000158512213   0.000296234435 -0.000158512213      0.398787909     0.892892138
12.660784            0.395767622     0.894234472   0.000296643984 -0.000158935838   0.000296643984 -0.000158935838      0.399236351     0.892672245
12.660812            0.396215959     0.894016504   0.000297054096  -0.00015936062   0.000297054096  -0.00015936062      0.399685056     0.892451928
12.66084             0.396664559     0.893798112   0.000297464772 -0.000159786563   0.000297464771 -0.000159786563      0.400134022     0.892231184
12.660868            0.397113421     0.893579297   0.000297876011  -0.00016021367    0.00029787601  -0.00016021367      0.400583251     0.892010013
12.660896            0.397562546     0.893360057   0.000298287814 -0.000160641945   0.000298287814 -0.000160641945      0.401032743     0.891788415
12.660924            0.398011935     0.893140392   0.000298700182 -0.000161071391   0.000298700182  -0.00016107139      0.401482498     0.891566388
12.660952            0.398461587     0.892920301   0.000299113116 -0.000161502011   0.000299113115  -0.00016150201      0.401932515     0.891343931
12.66098             0.398911502     0.892699783   0.000299526614 -0.000161933809   0.000299526614 -0.000161933808      0.402382795     0.891121045
12.661008            0.399361681     0.892478838   0.000299940679 -0.000162366788   0.000299940679 -0.000162366787      0.402833338     0.890897727
12.661036            0.399812123     0.892257463    0.00030035531 -0.000162800951   0.000300355309 -0.000162800951      0.403284145     0.890673978
12.661064            0.400262829     0.892035659   0.000300770507 -0.000163236303   0.000300770507 -0.000163236303      0.403735215     0.890449795
12.661092            0.400713799     0.891813425   0.000301186272 -0.000163672846   0.000301186271 -0.000163672846      0.404186548      0.89022518
12.66112             0.401165033      0.89159076   0.000301602604 -0.000164110584   0.000301602603 -0.000164110584      0.404638145      0.89000013
12.661148            0.401616531     0.891367663   0.000302019503  -0.00016454952   0.000302019503  -0.00016454952      0.405090005     0.889774644
12.661176            0.402068293     0.891144134   0.000302436971 -0.000164989659    0.00030243697 -0.000164989658       0.40554213     0.889548723
12.661204             0.40252032      0.89092017   0.000302855007 -0.000165431002   0.000302855007 -0.000165431002      0.405994518     0.889322364
12.661232            0.402972611     0.890695773   0.000303273612 -0.000165873554   0.000303273611 -0.000165873554       0.40644717     0.889095568
12.66126             0.403425166     0.890470939   0.000303692786 -0.000166317319   0.000303692786 -0.000166317319      0.406900086     0.888868333
12.661288            0.403877986      0.89024567    0.00030411253 -0.000166762299   0.000304112529 -0.000166762299      0.407353266     0.888640659
12.661316            0.404331071     0.890019964   0.000304532843 -0.000167208499   0.000304532843 -0.000167208499      0.407806711     0.888412544
12.661344            0.404784421      0.88979382   0.000304953727 -0.000167655922   0.000304953727 -0.000167655921      0.408260421     0.888183989
12.661372            0.405238036     0.889567238   0.000305375181 -0.000168104571   0.000305375181  -0.00016810457      0.408714394     0.887954991
12.6614              0.405691916     0.889340215   0.000305797207  -0.00016855445   0.000305797206 -0.000168554449      0.409168633      0.88772555
12.661428            0.406146062     0.889112753   0.000306219803 -0.000169005562   0.000306219803 -0.000169005562      0.409623136     0.887495666
12.661456            0.406600473     0.888884849   0.000306642972 -0.000169457912   0.000306642971 -0.000169457912      0.410077904     0.887265337
12.661484            0.407055149     0.888656503   0.000307066712 -0.000169911502   0.000307066711 -0.000169911502      0.410532937     0.887034562
12.661512            0.407510091     0.888427714   0.000307491024 -0.000170366337   0.000307491024 -0.000170366337      0.410988236     0.886803341
12.66154             0.407965298     0.888198482   0.000307915909  -0.00017082242   0.000307915909 -0.000170822419      0.411443799     0.886571673
12.661568            0.408420771     0.887968805   0.000308341367 -0.000171279754   0.000308341367 -0.000171279753      0.411899628     0.886339557
12.661596            0.408876511     0.887738682   0.000308767398 -0.000171738343   0.000308767398 -0.000171738342      0.412355722     0.886106992
12.661624            0.409332516     0.887508113   0.000309194003 -0.000172198191   0.000309194003  -0.00017219819      0.412812082     0.885873977
12.661652            0.409788788     0.887277096   0.000309621182 -0.000172659301   0.000309621181 -0.000172659301      0.413268708     0.885640511
12.66168             0.410245325     0.887045631   0.000310048935 -0.000173121678   0.000310048934 -0.000173121677      0.413725599     0.885406594
12.661708            0.410702129     0.886813718   0.000310477262 -0.000173585324   0.000310477262 -0.000173585323      0.414182756     0.885172224
12.661736              0.4111592     0.886581354   0.000310906164 -0.000174050244   0.000310906164 -0.000174050243      0.414640179     0.884937401
12.661764            0.411616537      0.88634854   0.000311335642  -0.00017451644   0.000311335641  -0.00017451644      0.415097869     0.884702123
12.661792            0.412074141     0.886115274   0.000311765694 -0.000174983918   0.000311765694 -0.000174983918      0.415555824     0.884466391
12.66182             0.412532012     0.885881555   0.000312196323  -0.00017545268   0.000312196322  -0.00017545268      0.416014046     0.884230202
12.661848            0.412990149     0.885647383   0.000312627527 -0.000175922731   0.000312627527  -0.00017592273      0.416472534     0.883993557
12.661876            0.413448554     0.885412757   0.000313059308 -0.000176394074   0.000313059307 -0.000176394073      0.416931289     0.883756453
12.661904            0.413907226     0.885177675   0.000313491665 -0.000176866712   0.000313491665 -0.000176866711       0.41739031     0.883518891
12.661932            0.414366165     0.884942138   0.000313924599  -0.00017734065   0.000313924599 -0.000177340649      0.417849598      0.88328087
12.66196             0.414825371     0.884706143    0.00031435811 -0.000177815891    0.00031435811 -0.000177815891      0.418309152     0.883042387
12.661988            0.415284845      0.88446969   0.000314792199 -0.000178292439   0.000314792199 -0.000178292439      0.418768974     0.882803444
12.662016            0.415744586     0.884232779   0.000315226865 -0.000178770299   0.000315226865 -0.000178770298      0.419229063     0.882564038
12.662044            0.416204595     0.883995408    0.00031566211 -0.000179249472   0.000315662109 -0.000179249472      0.419689419     0.882324169
12.662072            0.416664872     0.883757577   0.000316097932 -0.000179729965   0.000316097932 -0.000179729964      0.420150042     0.882083836
12.6621              0.417125417     0.883519284   0.000316534333  -0.00018021178   0.000316534333 -0.000180211779      0.420610932     0.881843038
12.662128            0.417586229     0.883280528   0.000316971313 -0.000180694921   0.000316971312  -0.00018069492       0.42107209     0.881601773
12.662156             0.41804731      0.88304131   0.000317408871 -0.000181179392   0.000317408871 -0.000181179391      0.421533515     0.881360042
12.662184            0.418508659     0.882801627   0.000317847009 -0.000181665197   0.000317847009 -0.000181665196      0.421995208     0.881117844
12.662212            0.418970276     0.882561479   0.000318285726 -0.000182152339   0.000318285726 -0.000182152339      0.422457168     0.880875176
12.66224             0.419432161     0.882320865   0.000318725023 -0.000182640824   0.000318725023 -0.000182640823      0.422919397     0.880632039
12.662268            0.419894315     0.882079784     0.0003191649 -0.000183130653     0.0003191649 -0.000183130653      0.423381893     0.880388431
12.662296            0.420356738     0.881838235   0.000319605357 -0.000183621833   0.000319605357 -0.000183621832      0.423844657     0.880144352
12.662324            0.420819429     0.881596217   0.000320046395 -0.000184114365   0.000320046394 -0.000184114365       0.42430769     0.879899801
12.662352            0.421282389      0.88135373   0.000320488013 -0.000184608256   0.000320488012 -0.000184608255       0.42477099     0.879654776
12.66238             0.421745618     0.881110772   0.000320930212 -0.000185103507   0.000320930211 -0.000185103506      0.425234559     0.879409277
12.662408            0.422209116     0.880867342   0.000321372992 -0.000185600123   0.000321372991 -0.000185600123      0.425698397     0.879163303
12.662436            0.422672883      0.88062344   0.000321816353 -0.000186098109   0.000321816352 -0.000186098109      0.426162502     0.878916852
12.662464            0.423136919     0.880379065   0.000322260296 -0.000186597468   0.000322260295 -0.000186597468      0.426626877     0.878669925
12.662492            0.423601224     0.880134215    0.00032270482 -0.000187098204    0.00032270482 -0.000187098204       0.42709152     0.878422519
12.66252             0.424065799      0.87988889   0.000323149926 -0.000187600321   0.000323149926 -0.000187600321      0.427556431     0.878174635
12.662548            0.424530643     0.879643089   0.000323595615 -0.000188103824   0.000323595614 -0.000188103823      0.428021612     0.877926271
12.662576            0.424995756      0.87939681   0.000324041885 -0.000188608715   0.000324041885 -0.000188608715      0.428487061     0.877677426
12.662604             0.42546114     0.879150054   0.000324488738    -0.000189115   0.000324488738 -0.000189114999       0.42895278     0.877428099
12.662632            0.425926793     0.878902818   0.000324936174 -0.000189622682   0.000324936173 -0.000189622682      0.429418768     0.877178289
12.66266             0.426392715     0.878655103   0.000325384192 -0.000190131765   0.000325384192 -0.000190131765      0.429885024     0.876927996
12.662688            0.426858908     0.878406906   0.000325832794 -0.000190642254   0.000325832793 -0.000190642254      0.430351551     0.876677218
12.662716            0.427325371     0.878158228   0.000326281978 -0.000191154153   0.000326281978 -0.000191154152      0.430818346     0.876425954
12.662744            0.427792104     0.877909067   0.000326731746 -0.000191667465   0.000326731746 -0.000191667464      0.431285411     0.876174204
12.662772            0.428259107     0.877659422   0.000327182098 -0.000192182194   0.000327182097 -0.000192182194      0.431752746     0.875921967
12.6628               0.42872638     0.877409292   0.000327633033 -0.000192698346   0.000327633032 -0.000192698345       0.43222035      0.87566924
12.662828            0.429193924     0.877158676   0.000328084552 -0.000193215923   0.000328084551 -0.000193215923      0.432688224     0.875416025
12.662856            0.429661738     0.876907574   0.000328536654 -0.000193734931   0.000328536654 -0.000193734931      0.433156367     0.875162319
12.662884            0.430129823     0.876655984   0.000328989341 -0.000194255373   0.000328989341 -0.000194255373      0.433624781     0.874908121
12.662912            0.430598178     0.876403906   0.000329442612 -0.000194777253   0.000329442612 -0.000194777253      0.434093465     0.874653432
12.66294             0.431066804     0.876151338   0.000329896468 -0.000195300576   0.000329896467 -0.000195300576      0.434562418     0.874398248
12.662968            0.431535701     0.875898279   0.000330350907 -0.000195825346   0.000330350907 -0.000195825346      0.435031642     0.874142571
12.662996            0.432004869     0.875644729   0.000330805932 -0.000196351567   0.000330805931 -0.000196351567      0.435501136     0.873886398
12.663024            0.432474307     0.875390687   0.000331261541 -0.000196879243    0.00033126154 -0.000196879243        0.4359709     0.873629729
12.663052            0.432944017     0.875136151   0.000331717735 -0.000197408379   0.000331717734 -0.000197408379      0.436440935     0.873372563
12.66308             0.433413998      0.87488112   0.000332174514 -0.000197938979   0.000332174513 -0.000197938978       0.43691124     0.873114898
12.663108             0.43388425     0.874625594   0.000332631878 -0.000198471046   0.000332631877 -0.000198471046      0.437381816     0.872856734
12.663136            0.434354774     0.874369572   0.000333089827 -0.000199004586   0.000333089826 -0.000199004585      0.437852662      0.87259807
12.663164            0.434825568     0.874113053   0.000333548361 -0.000199539602    0.00033354836 -0.000199539602      0.438323779     0.872338905
12.663192            0.435296635     0.873856034    0.00033400748 -0.000200076099    0.00033400748 -0.000200076099      0.438795167     0.872079237
12.66322             0.435767973     0.873598517   0.000334467185 -0.000200614082   0.000334467185 -0.000200614081      0.439266826     0.871819067
12.663248            0.436239582     0.873340499   0.000334927476 -0.000201153554   0.000334927475 -0.000201153553      0.439738755     0.871558392
12.663276            0.436711463      0.87308198   0.000335388351 -0.000201694519   0.000335388351 -0.000201694519      0.440210956     0.871297211
12.663304            0.437183616     0.872822958   0.000335849813 -0.000202236983   0.000335849813 -0.000202236983      0.440683428     0.871035525
12.663332            0.437656041     0.872563433    0.00033631186  -0.00020278095    0.00033631186 -0.000202780949      0.441156171     0.870773331
12.66336             0.438128738     0.872303404   0.000336774493 -0.000203326423   0.000336774493 -0.000203326423      0.441629185     0.870510629
12.663388            0.438601707     0.872042869   0.000337237712 -0.000203873408   0.000337237711 -0.000203873407       0.44210247     0.870247418
12.663416            0.439074948     0.871781828   0.000337701516 -0.000204421908   0.000337701516 -0.000204421908      0.442576027     0.869983696
12.663444            0.439548461      0.87152028   0.000338165907 -0.000204971929   0.000338165906 -0.000204971928      0.443049855     0.869719463
12.663472            0.440022246     0.871258223   0.000338630883 -0.000205523474   0.000338630882 -0.000205523473      0.443523955     0.869454718
12.6635              0.440496304     0.870995657   0.000339096445 -0.000206076547   0.000339096445 -0.000206076547      0.443998326     0.869189459
