! TOUCHSTONE file generated by CST MICROWAVE STUDIO
! Date and time: Wed Jul 31 20:15:10 2024
! Project name: WaveGuide_BPF-Ver4.1_U-shape_Ku_T3_C4_CWA_2.cst
! Parameters = {cavity_h=16; cavity_l0=10; cavity_l1=15.1743; cavity_l2=16.8559; cavity_l3=17.1142; cavity_l4=17.2866; cavity_l5=17.1393; cavity_l6=17.6122; cavity_r=2.5; cavity_screw_l=0.5; cavity_screw_r=1.5; cavity_w=8; iris_h00=0; iris_h01=8.8302; iris_h112=0; iris_h12=5.5969; iris_h211=3.659; iris_h23=5.1894; iris_h310=3.9724; iris_h34=5.0827; iris_h45=4.9398; iris_h49=4.6096; iris_h56=4.8112; iris_h58=4.4324; iris_h67=6.5932; iris_rx=0.1; iris_screw_l=0.5; iris_screw_r=1.5; iris_shift00=0; iris_shift112=0; iris_shift211=3.5; iris_shift310=0; iris_shift49=0; iris_shift58=3.5; iris_shift67=3.5; iris_tx=4.5; iris_tz=4.5; iris_w00=0; iris_w112=0; iris_w211=4; iris_w310=3.9724; iris_w49=4.6096; iris_w58=4; iris_w67=4; mesh_cavity=5; mesh_iris=7; mesh_screw=7; order=12; reset_all=0; sigma=4.8e+07}
! Header version: 2018
! Port assignment regex: !\s*Touchstone port\s*([0-9]+)\s*=\s*(CST MWS port|CST DS port)\s*([0-9]+|Zmin|Zmax)\s*\(\"(.*)\"\)(\s*mode\s*([0-9]+))?.*
! Touchstone port assignment:
! Touchstone port 1 = CST MWS port 1 ("")
! Touchstone port 2 = CST MWS port 2 ("")
# GHz S RI R 50
12.66                0.276629577     0.942892719   0.000224025834 -8.39582843e-05   0.000224025834 -8.39582839e-05      0.284416801     0.940548868
12.660028            0.276996074      0.94277296     0.0002243436 -8.41844376e-05     0.0002243436 -8.41844373e-05      0.284784448     0.940425366
12.660056            0.277362802     0.942652959   0.000224661874 -8.44112062e-05   0.000224661874 -8.44112059e-05      0.285152361     0.940301608
12.660084            0.277729754     0.942532718    0.00022498066 -8.46385889e-05    0.00022498066 -8.46385886e-05      0.285520518       0.9401776
12.660112            0.278096924     0.942412238   0.000225299959 -8.48665847e-05   0.000225299959 -8.48665844e-05      0.285888898     0.940053346
12.66014             0.278464306     0.942291521   0.000225619776 -8.50951924e-05   0.000225619776 -8.50951921e-05       0.28625748     0.939928855
12.660168            0.278831899     0.942170567    0.00022594011 -8.53244138e-05    0.00022594011 -8.53244135e-05      0.286626263     0.939804124
12.660196             0.27919971     0.942049373   0.000226260962 -8.55542526e-05   0.000226260962 -8.55542523e-05      0.286995262      0.93967915
12.660224            0.279567736     0.941927939   0.000226582332 -8.57847106e-05   0.000226582332 -8.57847102e-05      0.287364478     0.939553932
12.660252             0.27993598     0.941806265   0.000226904221 -8.60157895e-05   0.000226904221 -8.60157892e-05       0.28773391     0.939428469
12.66028              0.28030444     0.941684351    0.00022722663 -8.62474913e-05    0.00022722663 -8.62474909e-05      0.288103559     0.939302761
12.660308            0.280673117     0.941562196    0.00022754956 -8.64798176e-05    0.00022754956 -8.64798173e-05      0.288473425     0.939176807
12.660336            0.281042012     0.941439799   0.000227873012 -8.67127704e-05   0.000227873012 -8.67127701e-05      0.288843508     0.939050608
12.660364            0.281411124      0.94131716   0.000228196986 -8.69463514e-05   0.000228196986 -8.69463511e-05      0.289213809     0.938924163
12.660392            0.281780454     0.941194279   0.000228521483 -8.71805624e-05   0.000228521483 -8.71805621e-05      0.289584326      0.93879747
12.66042             0.282150002     0.941071155   0.000228846505 -8.74154054e-05   0.000228846505  -8.7415405e-05      0.289955062     0.938670531
12.660448            0.282519767     0.940947788   0.000229172052  -8.7650882e-05   0.000229172052 -8.76508817e-05      0.290326015     0.938543344
12.660476            0.282889751     0.940824177   0.000229498125 -8.78869943e-05   0.000229498125 -8.78869939e-05      0.290697186     0.938415908
12.660504            0.283259953     0.940700322   0.000229824724 -8.81237439e-05   0.000229824724 -8.81237436e-05      0.291068576     0.938288225
12.660532            0.283630374     0.940576223   0.000230151851 -8.83611328e-05   0.000230151851 -8.83611325e-05      0.291440184     0.938160292
12.66056             0.284001013     0.940451878   0.000230479507 -8.85991628e-05   0.000230479507 -8.85991625e-05       0.29181201      0.93803211
12.660588            0.284371871     0.940327289   0.000230807692 -8.88378359e-05   0.000230807692 -8.88378355e-05      0.292184055     0.937903678
12.660616            0.284742949     0.940202453   0.000231136408 -8.90771538e-05   0.000231136408 -8.90771534e-05      0.292556319     0.937774995
12.660644            0.285114245     0.940077371   0.000231465654 -8.93171184e-05   0.000231465654 -8.93171181e-05      0.292928801     0.937646062
12.660672            0.285485761     0.939952042   0.000231795433 -8.95577316e-05   0.000231795433 -8.95577313e-05      0.293301504     0.937516878
12.6607              0.285857497     0.939826467   0.000232125745 -8.97989954e-05   0.000232125745 -8.97989951e-05      0.293674425     0.937387442
12.660728            0.286229452     0.939700643    0.00023245659 -9.00409116e-05    0.00023245659 -9.00409113e-05      0.294047566     0.937257754
12.660756            0.286601627     0.939574572    0.00023278797 -9.02834821e-05    0.00023278797 -9.02834817e-05      0.294420927     0.937127813
12.660784            0.286974023     0.939448252   0.000233119885 -9.05267088e-05   0.000233119885 -9.05267084e-05      0.294794507     0.936997619
12.660812            0.287346639     0.939321683   0.000233452337 -9.07705936e-05   0.000233452337 -9.07705933e-05      0.295168308     0.936867172
12.66084             0.287719475     0.939194864   0.000233785326 -9.10151385e-05   0.000233785326 -9.10151382e-05      0.295542329      0.93673647
12.660868            0.288092532     0.939067796   0.000234118854 -9.12603454e-05   0.000234118854  -9.1260345e-05      0.295916571     0.936605515
12.660896             0.28846581     0.938940477    0.00023445292 -9.15062161e-05    0.00023445292 -9.15062158e-05      0.296291033     0.936474304
12.660924            0.288839309     0.938812908   0.000234787526 -9.17527527e-05   0.000234787526 -9.17527524e-05      0.296665716     0.936342838
12.660952            0.289213029     0.938685087   0.000235122673 -9.19999571e-05   0.000235122673 -9.19999568e-05       0.29704062     0.936211117
12.66098              0.28958697     0.938557015   0.000235458362 -9.22478312e-05   0.000235458362 -9.22478309e-05      0.297415745     0.936079139
12.661008            0.289961133      0.93842869   0.000235794593 -9.24963771e-05   0.000235794593 -9.24963767e-05      0.297791091     0.935946904
12.661036            0.290335518     0.938300113   0.000236131367 -9.27455965e-05   0.000236131367 -9.27455962e-05      0.298166659     0.935814412
12.661064            0.290710125     0.938171283   0.000236468686 -9.29954916e-05   0.000236468686 -9.29954913e-05      0.298542449     0.935681663
12.661092            0.291084954     0.938042199    0.00023680655 -9.32460643e-05    0.00023680655  -9.3246064e-05       0.29891846     0.935548655
12.66112             0.291460005     0.937912861   0.000237144961 -9.34973166e-05   0.000237144961 -9.34973163e-05      0.299294694     0.935415389
12.661148            0.291835279     0.937783269   0.000237483918 -9.37492504e-05   0.000237483918 -9.37492501e-05      0.299671149     0.935281863
12.661176            0.292210775     0.937653422   0.000237823423 -9.40018678e-05   0.000237823423 -9.40018675e-05      0.300047828     0.935148079
12.661204            0.292586494      0.93752332   0.000238163477 -9.42551708e-05   0.000238163476 -9.42551704e-05      0.300424728     0.935014034
12.661232            0.292962436     0.937392961    0.00023850408 -9.45091613e-05    0.00023850408  -9.4509161e-05      0.300801852     0.934879729
12.66126             0.293338602     0.937262347   0.000238845234 -9.47638414e-05   0.000238845234  -9.4763841e-05      0.301179198     0.934745162
12.661288            0.293714991     0.937131476   0.000239186939 -9.50192131e-05   0.000239186939 -9.50192127e-05      0.301556768     0.934610335
12.661316            0.294091603     0.937000347   0.000239529197 -9.52752784e-05   0.000239529197  -9.5275278e-05      0.301934561     0.934475245
12.661344            0.294468439     0.936868961   0.000239872007 -9.55320393e-05   0.000239872007  -9.5532039e-05      0.302312577     0.934339893
12.661372            0.294845499     0.936737316   0.000240215372 -9.57894979e-05   0.000240215372 -9.57894976e-05      0.302690817     0.934204279
12.6614              0.295222784     0.936605413   0.000240559292 -9.60476563e-05   0.000240559292  -9.6047656e-05      0.303069281       0.9340684
12.661428            0.295600292     0.936473251   0.000240903768 -9.63065165e-05   0.000240903768 -9.63065161e-05      0.303447968     0.933932259
12.661456            0.295978025     0.936340829   0.000241248801 -9.65660804e-05   0.000241248801 -9.65660801e-05       0.30382688     0.933795852
12.661484            0.296355983     0.936208148   0.000241594391 -9.68263503e-05   0.000241594391   -9.682635e-05      0.304206017     0.933659181
12.661512            0.296734166     0.936075205    0.00024194054 -9.70873282e-05    0.00024194054 -9.70873279e-05      0.304585378     0.933522245
12.66154             0.297112573     0.935942002   0.000242287248 -9.73490161e-05   0.000242287248 -9.73490158e-05      0.304964963     0.933385043
12.661568            0.297491206     0.935808537   0.000242634517 -9.76114162e-05   0.000242634517 -9.76114159e-05      0.305344774     0.933247575
12.661596            0.297870064      0.93567481   0.000242982347 -9.78745305e-05   0.000242982347 -9.78745301e-05      0.305724809      0.93310984
12.661624            0.298249148     0.935540821   0.000243330739 -9.81383611e-05   0.000243330739 -9.81383607e-05       0.30610507     0.932971838
12.661652            0.298628458     0.935406569   0.000243679694 -9.84029101e-05   0.000243679694 -9.84029098e-05      0.306485556     0.932833569
12.66168             0.299007993     0.935272053   0.000244029213 -9.86681797e-05   0.000244029213 -9.86681793e-05      0.306866268     0.932695031
12.661708            0.299387755     0.935137273   0.000244379297 -9.89341719e-05   0.000244379297 -9.89341715e-05      0.307247206     0.932556224
12.661736            0.299767743      0.93500223   0.000244729947 -9.92008889e-05   0.000244729947 -9.92008885e-05       0.30762837     0.932417149
12.661764            0.300147957     0.934866921   0.000245081164 -9.94683328e-05   0.000245081164 -9.94683324e-05      0.308009759     0.932277803
12.661792            0.300528398     0.934731347   0.000245432948 -9.97365057e-05   0.000245432948 -9.97365054e-05      0.308391375     0.932138188
12.66182             0.300909066     0.934595507   0.000245785301  -0.00010000541   0.000245785301  -0.00010000541      0.308773218     0.931998302
12.661848            0.301289961     0.934459401   0.000246138223 -0.000100275047   0.000246138223 -0.000100275047      0.309155287     0.931858145
12.661876            0.301671084     0.934323028   0.000246491716  -0.00010054542   0.000246491716  -0.00010054542      0.309537584     0.931717716
12.661904            0.302052433     0.934186387    0.00024684578 -0.000100816531    0.00024684578 -0.000100816531      0.309920107     0.931577015
12.661932            0.302434011     0.934049479   0.000247200416 -0.000101088381   0.000247200416 -0.000101088381      0.310302858     0.931436041
12.66196             0.302815816     0.933912303   0.000247555625 -0.000101360974   0.000247555625 -0.000101360973      0.310685835     0.931294795
12.661988            0.303197849     0.933774858   0.000247911408  -0.00010163431   0.000247911408  -0.00010163431      0.311069041     0.931153274
12.662016             0.30358011     0.933637143   0.000248267766 -0.000101908393   0.000248267766 -0.000101908393      0.311452474      0.93101148
12.662044              0.3039626     0.933499159     0.0002486247 -0.000102183225     0.0002486247 -0.000102183225      0.311836136     0.930869411
12.662072            0.304345318     0.933360905   0.000248982211 -0.000102458808   0.000248982211 -0.000102458807      0.312220025     0.930727067
12.6621              0.304728264     0.933222379   0.000249340299 -0.000102735143   0.000249340299 -0.000102735143      0.312604143     0.930584447
12.662128             0.30511144     0.933083583   0.000249698966 -0.000103012234   0.000249698966 -0.000103012233      0.312988489     0.930441551
12.662156            0.305494845     0.932944515   0.000250058213 -0.000103290082   0.000250058213 -0.000103290081      0.313373064     0.930298379
12.662184            0.305878479     0.932805174    0.00025041804 -0.000103568689   0.000250418039 -0.000103568689      0.313757867     0.930154929
12.662212            0.306262342     0.932665561   0.000250778448 -0.000103848059   0.000250778448 -0.000103848059        0.3141429     0.930011201
12.66224             0.306646435     0.932525674   0.000251139438 -0.000104128193   0.000251139438 -0.000104128193      0.314528162     0.929867196
12.662268            0.307030758     0.932385514   0.000251501012 -0.000104409093   0.000251501012 -0.000104409093      0.314913654     0.929722912
12.662296            0.307415311      0.93224508    0.00025186317 -0.000104690762    0.00025186317 -0.000104690762      0.315299375     0.929578348
12.662324            0.307800094      0.93210437   0.000252225913 -0.000104973202   0.000252225913 -0.000104973202      0.315685325     0.929433505
12.662352            0.308185108     0.931963386   0.000252589241 -0.000105256416   0.000252589241 -0.000105256415      0.316071506     0.929288381
12.66238             0.308570352     0.931822125   0.000252953157 -0.000105540404   0.000252953157 -0.000105540404      0.316457917     0.929142977
12.662408            0.308955826     0.931680588   0.000253317661 -0.000105825171   0.000253317661  -0.00010582517      0.316844558     0.928997292
12.662436            0.309341532     0.931538775   0.000253682753 -0.000106110718   0.000253682753 -0.000106110717       0.31723143     0.928851324
12.662464            0.309727469     0.931396684   0.000254048435 -0.000106397047   0.000254048435 -0.000106397046      0.317618532     0.928705075
12.662492            0.310113637     0.931254315   0.000254414707  -0.00010668416   0.000254414707  -0.00010668416      0.318005865     0.928558542
12.66252             0.310500037     0.931111668   0.000254781572 -0.000106972061   0.000254781571 -0.000106972061      0.318393429     0.928411727
12.662548            0.310886668     0.930968742   0.000255149028 -0.000107260752   0.000255149028 -0.000107260751      0.318781224     0.928264627
12.662576            0.311273531     0.930825537   0.000255517078 -0.000107550234   0.000255517078 -0.000107550233      0.319169251     0.928117243
12.662604            0.311660626     0.930682051   0.000255885722  -0.00010784051   0.000255885722 -0.000107840509      0.319557509     0.927969574
12.662632            0.312047953     0.930538286   0.000256254962 -0.000108131582   0.000256254962 -0.000108131582         0.319946     0.927821619
12.66266             0.312435513     0.930394239   0.000256624798 -0.000108423454   0.000256624798 -0.000108423453      0.320334722     0.927673379
12.662688            0.312823305     0.930249911   0.000256995231 -0.000108716126   0.000256995231 -0.000108716126      0.320723676     0.927524852
12.662716            0.313211331     0.930105301   0.000257366262 -0.000109009602   0.000257366262 -0.000109009602      0.321112862     0.927376038
12.662744            0.313599589     0.929960408   0.000257737892 -0.000109303884   0.000257737891 -0.000109303883      0.321502281     0.927226936
12.662772             0.31398808     0.929815232   0.000258110121 -0.000109598974   0.000258110121 -0.000109598974      0.321891933     0.927077546
12.6628              0.314376804     0.929669773   0.000258482952 -0.000109894875   0.000258482952 -0.000109894874      0.322281817     0.926927868
12.662828            0.314765763      0.92952403   0.000258856385 -0.000110191589   0.000258856385 -0.000110191588      0.322671935       0.9267779
12.662856            0.315154954     0.929378002    0.00025923042 -0.000110489118    0.00025923042 -0.000110489118      0.323062285     0.926627643
12.662884             0.31554438     0.929231688   0.000259605059 -0.000110787465   0.000259605059 -0.000110787465      0.323452869     0.926477095
12.662912             0.31593404     0.929085089   0.000259980303 -0.000111086633   0.000259980303 -0.000111086633      0.323843687     0.926326257
12.66294             0.316323934     0.928938204   0.000260356152 -0.000111386623   0.000260356152 -0.000111386623      0.324234738     0.926175127
12.662968            0.316714063     0.928791032   0.000260732608 -0.000111687439   0.000260732608 -0.000111687439      0.324626024     0.926023705
12.662996            0.317104426     0.928643573   0.000261109671 -0.000111989083   0.000261109671 -0.000111989082      0.325017543     0.925871991
12.663024            0.317495024     0.928495826   0.000261487343 -0.000112291556   0.000261487343 -0.000112291556      0.325409297     0.925719984
12.663052            0.317885857     0.928347791   0.000261865624 -0.000112594862   0.000261865624 -0.000112594862      0.325801285     0.925567683
12.66308             0.318276925     0.928199466   0.000262244515 -0.000112899003   0.000262244515 -0.000112899003      0.326193508     0.925415089
12.663108            0.318668229     0.928050853   0.000262624018 -0.000113203982   0.000262624018 -0.000113203982      0.326585966     0.925262199
12.663136            0.319059768     0.927901949   0.000263004132 -0.000113509801   0.000263004132 -0.000113509801      0.326978659     0.925109015
12.663164            0.319451543     0.927752755    0.00026338486 -0.000113816462    0.00026338486 -0.000113816462      0.327371587     0.924955534
12.663192            0.319843554     0.927603269   0.000263766202 -0.000114123969   0.000263766202 -0.000114123968      0.327764751     0.924801758
12.66322             0.320235801     0.927453492   0.000264148159 -0.000114432323   0.000264148159 -0.000114432322       0.32815815     0.924647684
12.663248            0.320628285     0.927303423   0.000264530732 -0.000114741527   0.000264530732 -0.000114741526      0.328551784     0.924493314
12.663276            0.321021005     0.927153061   0.000264913922 -0.000115051583   0.000264913922 -0.000115051583      0.328945655     0.924338645
12.663304            0.321413962     0.927002406   0.000265297729 -0.000115362495   0.000265297729 -0.000115362495      0.329339762     0.924183678
12.663332            0.321807155     0.926851457   0.000265682156 -0.000115674265   0.000265682156 -0.000115674265      0.329734105     0.924028411
12.66336             0.322200586     0.926700213   0.000266067202 -0.000115986895   0.000266067202 -0.000115986894      0.330128685     0.923872845
12.663388            0.322594254     0.926548675   0.000266452869 -0.000116300387   0.000266452869 -0.000116300387      0.330523501     0.923716979
12.663416            0.322988159     0.926396841   0.000266839158 -0.000116614746   0.000266839158 -0.000116614745      0.330918555     0.923560813
12.663444            0.323382303     0.926244712   0.000267226069 -0.000116929972   0.000267226069 -0.000116929971      0.331313845     0.923404344
12.663472            0.323776683     0.926092285   0.000267613604 -0.000117246068   0.000267613604 -0.000117246068      0.331709373     0.923247574
12.6635              0.324171302     0.925939562   0.000268001764 -0.000117563038   0.000268001764 -0.000117563038      0.332105138     0.923090502
