! TOUCHSTONE file generated by CST MICROWAVE STUDIO
! Date and time: Wed Jul 31 20:18:24 2024
! Project name: WaveGuide_BPF-Ver4.1_U-shape_Ku_T3_C4_CWA_2.cst
! Parameters = {cavity_h=16; cavity_l0=10; cavity_l1=15.1884; cavity_l2=16.8043; cavity_l3=17.1067; cavity_l4=17.2819; cavity_l5=17.1251; cavity_l6=17.6344; cavity_r=2.5; cavity_screw_l=0.5; cavity_screw_r=1.5; cavity_w=8; iris_h00=0; iris_h01=8.8046; iris_h112=0; iris_h12=5.6092; iris_h211=3.6574; iris_h23=5.1937; iris_h310=3.974; iris_h34=5.0867; iris_h45=4.9291; iris_h49=4.6311; iris_h56=4.808; iris_h58=4.4378; iris_h67=6.5866; iris_rx=0.1; iris_screw_l=0.5; iris_screw_r=1.5; iris_shift00=0; iris_shift112=0; iris_shift211=3.5; iris_shift310=0; iris_shift49=0; iris_shift58=3.5; iris_shift67=3.5; iris_tx=4.5; iris_tz=4.5; iris_w00=0; iris_w112=0; iris_w211=4; iris_w310=3.974; iris_w49=4.6311; iris_w58=4; iris_w67=4; mesh_cavity=5; mesh_iris=7; mesh_screw=7; order=12; reset_all=0; sigma=4.8e+07}
! Header version: 2018
! Port assignment regex: !\s*Touchstone port\s*([0-9]+)\s*=\s*(CST MWS port|CST DS port)\s*([0-9]+|Zmin|Zmax)\s*\(\"(.*)\"\)(\s*mode\s*([0-9]+))?.*
! Touchstone port assignment:
! Touchstone port 1 = CST MWS port 1 ("")
! Touchstone port 2 = CST MWS port 2 ("")
# GHz S RI R 50
12.66                0.239074588     0.954218498   0.000149490456 -4.78905605e-05   0.000149490456 -4.78905601e-05      0.245138609     0.952663719
12.660028             0.23942115     0.954121391   0.000149678997 -4.80143808e-05   0.000149678997 -4.80143804e-05      0.245485674     0.952564076
12.660056            0.239767876     0.954024096   0.000149867803 -4.81385024e-05   0.000149867803  -4.8138502e-05      0.245832946     0.952464232
12.660084            0.240114778     0.953926608   0.000150056874 -4.82629265e-05   0.000150056874 -4.82629261e-05      0.246180418     0.952364186
12.660112            0.240461868     0.953828925   0.000150246209 -4.83876541e-05   0.000150246209 -4.83876537e-05      0.246528083     0.952263942
12.66014             0.240809158     0.953731043    0.00015043581 -4.85126865e-05    0.00015043581 -4.85126861e-05      0.246875936     0.952163499
12.660168            0.241156647     0.953632963   0.000150625676 -4.86380244e-05   0.000150625676  -4.8638024e-05      0.247223976     0.952062858
12.660196            0.241504328     0.953534685   0.000150815808 -4.87636683e-05   0.000150815808 -4.87636679e-05      0.247572209     0.951962017
12.660224            0.241852201      0.95343621   0.000151006207 -4.88896191e-05   0.000151006207 -4.88896187e-05      0.247920633     0.951860976
12.660252            0.242200267     0.953337537   0.000151196872 -4.90158774e-05   0.000151196872  -4.9015877e-05       0.24826925     0.951759735
12.66028             0.242548525     0.953238666   0.000151387804 -4.91424442e-05   0.000151387804 -4.91424438e-05      0.248618059     0.951658292
12.660308            0.242896976     0.953139596   0.000151579004 -4.92693201e-05   0.000151579003 -4.92693198e-05      0.248967061     0.951556649
12.660336            0.243245619     0.953040327   0.000151770471 -4.93965061e-05   0.000151770471 -4.93965057e-05      0.249316255     0.951454804
12.660364            0.243594455     0.952940859   0.000151962206 -4.95240028e-05   0.000151962206 -4.95240024e-05      0.249665642     0.951352757
12.660392            0.243943485     0.952841191    0.00015215421  -4.9651811e-05    0.00015215421 -4.96518106e-05      0.250015222     0.951250509
12.66042             0.244292707     0.952741324   0.000152346482 -4.97799316e-05   0.000152346482 -4.97799312e-05      0.250364995     0.951148058
12.660448            0.244642123     0.952641256   0.000152539024 -4.99083654e-05   0.000152539024  -4.9908365e-05      0.250714961     0.951045404
12.660476            0.244991732     0.952540988   0.000152731836 -5.00371131e-05   0.000152731835 -5.00371127e-05      0.251065121     0.950942546
12.660504            0.245341535     0.952440519   0.000152924917 -5.01661755e-05   0.000152924917 -5.01661752e-05      0.251415474     0.950839486
12.660532            0.245691531     0.952339849   0.000153118268 -5.02955536e-05   0.000153118268 -5.02955532e-05      0.251766021     0.950736222
12.66056             0.246041722     0.952238977    0.00015331189  -5.0425248e-05    0.00015331189 -5.04252476e-05      0.252116762     0.950632753
12.660588            0.246392106     0.952137904   0.000153505783 -5.05552596e-05   0.000153505783 -5.05552592e-05      0.252467696      0.95052908
12.660616            0.246742684     0.952036628   0.000153699948 -5.06855891e-05   0.000153699948 -5.06855887e-05      0.252818824     0.950425203
12.660644            0.247093457      0.95193515   0.000153894384 -5.08162375e-05   0.000153894384 -5.08162371e-05      0.253170147      0.95032112
12.660672            0.247444424     0.951833469   0.000154089092 -5.09472055e-05   0.000154089092 -5.09472051e-05      0.253521664     0.950216831
12.6607              0.247795586     0.951731584   0.000154284073 -5.10784939e-05   0.000154284073 -5.10784935e-05      0.253873376     0.950112337
12.660728            0.248146942     0.951629496   0.000154479326 -5.12101036e-05   0.000154479326 -5.12101032e-05      0.254225282     0.950007637
12.660756            0.248498493     0.951527205   0.000154674853 -5.13420353e-05   0.000154674853 -5.13420349e-05      0.254577383      0.94990273
12.660784            0.248850239     0.951424709   0.000154870653   -5.147429e-05   0.000154870653 -5.14742896e-05      0.254929678     0.949797616
12.660812             0.24920218     0.951322008   0.000155066727 -5.16068684e-05   0.000155066727  -5.1606868e-05      0.255282169     0.949692296
12.66084             0.249554316     0.951219103   0.000155263076 -5.17397713e-05   0.000155263076 -5.17397709e-05      0.255634855     0.949586767
12.660868            0.249906648     0.951115992   0.000155459698 -5.18729996e-05   0.000155459698 -5.18729992e-05      0.255987736     0.949481031
12.660896            0.250259175     0.951012676   0.000155656596 -5.20065542e-05   0.000155656596 -5.20065538e-05      0.256340812     0.949375087
12.660924            0.250611898     0.950909154    0.00015585377 -5.21404358e-05    0.00015585377 -5.21404354e-05      0.256694084     0.949268934
12.660952            0.250964817     0.950805426   0.000156051219 -5.22746453e-05   0.000156051218 -5.22746449e-05      0.257047552     0.949162572
12.66098             0.251317931     0.950701491   0.000156248944 -5.24091835e-05   0.000156248943 -5.24091831e-05      0.257401216     0.949056001
12.661008            0.251671242     0.950597349   0.000156446945 -5.25440514e-05   0.000156446945  -5.2544051e-05      0.257755075      0.94894922
12.661036            0.252024749        0.950493   0.000156645223 -5.26792496e-05   0.000156645223 -5.26792492e-05      0.258109131     0.948842229
12.661064            0.252378452     0.950388444   0.000156843779 -5.28147791e-05   0.000156843779 -5.28147787e-05      0.258463383     0.948735028
12.661092            0.252732351     0.950283679   0.000157042612 -5.29506407e-05   0.000157042612 -5.29506403e-05      0.258817831     0.948627617
12.66112             0.253086448     0.950178706   0.000157241722 -5.30868353e-05   0.000157241722 -5.30868349e-05      0.259172476     0.948519994
12.661148            0.253440741     0.950073524   0.000157441112 -5.32233637e-05   0.000157441111 -5.32233633e-05      0.259527318      0.94841216
12.661176            0.253795231     0.949968134   0.000157640779 -5.33602268e-05   0.000157640779 -5.33602264e-05      0.259882356     0.948304114
12.661204            0.254149918     0.949862534   0.000157840726 -5.34974255e-05   0.000157840726 -5.34974251e-05      0.260237591     0.948195857
12.661232            0.254504802     0.949756724   0.000158040952 -5.36349605e-05   0.000158040952 -5.36349601e-05      0.260593024     0.948087387
12.66126             0.254859883     0.949650705   0.000158241458 -5.37728328e-05   0.000158241458 -5.37728324e-05      0.260948653     0.947978704
12.661288            0.255215162     0.949544475   0.000158442244 -5.39110432e-05   0.000158442244 -5.39110428e-05       0.26130448     0.947869808
12.661316            0.255570639     0.949438034    0.00015864331 -5.40495926e-05    0.00015864331 -5.40495922e-05      0.261660504     0.947760699
12.661344            0.255926313     0.949331382   0.000158844657 -5.41884819e-05   0.000158844657 -5.41884815e-05      0.262016726     0.947651376
12.661372            0.256282185     0.949224519   0.000159046286 -5.43277119e-05   0.000159046286 -5.43277115e-05      0.262373146     0.947541838
12.6614              0.256638255     0.949117444   0.000159248196 -5.44672835e-05   0.000159248196 -5.44672831e-05      0.262729764     0.947432086
12.661428            0.256994523     0.949010156   0.000159450388 -5.46071976e-05   0.000159450388 -5.46071972e-05       0.26308658      0.94732212
12.661456             0.25735099     0.948902657   0.000159652862  -5.4747455e-05   0.000159652862 -5.47474546e-05      0.263443594     0.947211938
12.661484            0.257707655     0.948794944   0.000159855619 -5.48880567e-05   0.000159855619 -5.48880563e-05      0.263800806      0.94710154
12.661512            0.258064519     0.948687018   0.000160058659 -5.50290036e-05   0.000160058659 -5.50290032e-05      0.264158217     0.946990927
12.66154             0.258421581     0.948578879   0.000160261982 -5.51702964e-05   0.000160261982  -5.5170296e-05      0.264515826     0.946880097
12.661568            0.258778842     0.948470526   0.000160465589 -5.53119362e-05   0.000160465589 -5.53119358e-05      0.264873634      0.94676905
12.661596            0.259136302     0.948361958    0.00016066948 -5.54539238e-05    0.00016066948 -5.54539234e-05      0.265231641     0.946657787
12.661624            0.259493962     0.948253176   0.000160873656   -5.559626e-05   0.000160873656 -5.55962596e-05      0.265589847     0.946546306
12.661652             0.25985182     0.948144179   0.000161078116 -5.57389459e-05   0.000161078116 -5.57389455e-05      0.265948252     0.946434607
12.66168             0.260209878     0.948034966   0.000161282862 -5.58819822e-05   0.000161282862 -5.58819818e-05      0.266306857     0.946322691
12.661708            0.260568136     0.947925538   0.000161487894 -5.60253699e-05   0.000161487894 -5.60253695e-05       0.26666566     0.946210555
12.661736            0.260926593     0.947815894   0.000161693211 -5.61691099e-05   0.000161693211 -5.61691095e-05      0.267024664     0.946098201
12.661764             0.26128525     0.947706033   0.000161898815 -5.63132031e-05   0.000161898815 -5.63132027e-05      0.267383867     0.945985628
12.661792            0.261644107     0.947595955   0.000162104705 -5.64576504e-05   0.000162104705   -5.645765e-05       0.26774327     0.945872835
12.66182             0.262003164     0.947485661   0.000162310883 -5.66024527e-05   0.000162310883 -5.66024523e-05      0.268102873     0.945759822
12.661848            0.262362422     0.947375148   0.000162517348 -5.67476109e-05   0.000162517348 -5.67476105e-05      0.268462676     0.945646589
12.661876             0.26272188     0.947264418   0.000162724101 -5.68931259e-05   0.000162724101 -5.68931255e-05      0.268822679     0.945533135
12.661904            0.263081538      0.94715347   0.000162931142 -5.70389988e-05   0.000162931142 -5.70389984e-05      0.269182883      0.94541946
12.661932            0.263441397     0.947042303   0.000163138472 -5.71852303e-05   0.000163138472 -5.71852299e-05      0.269543288     0.945305564
12.66196             0.263801457     0.946930917    0.00016334609 -5.73318214e-05    0.00016334609  -5.7331821e-05      0.269903893     0.945191446
12.661988            0.264161718     0.946819312   0.000163553998  -5.7478773e-05   0.000163553998 -5.74787726e-05      0.270264698     0.945077105
12.662016             0.26452218     0.946707487   0.000163762196 -5.76260861e-05   0.000163762196 -5.76260857e-05      0.270625705     0.944962543
12.662044            0.264882843     0.946595442   0.000163970684 -5.77737615e-05   0.000163970683 -5.77737611e-05      0.270986913     0.944847757
12.662072            0.265243707     0.946483176   0.000164179462 -5.79218003e-05   0.000164179462 -5.79217999e-05      0.271348322     0.944732748
12.6621              0.265604773      0.94637069    0.00016438853 -5.80702034e-05    0.00016438853  -5.8070203e-05      0.271709933     0.944617515
12.662128            0.265966041     0.946257983   0.000164597891 -5.82189716e-05    0.00016459789 -5.82189712e-05      0.272071745     0.944502058
12.662156            0.266327511     0.946145054   0.000164807542 -5.83681059e-05   0.000164807542 -5.83681055e-05      0.272433758     0.944386377
12.662184            0.266689182     0.946031903   0.000165017486 -5.85176074e-05   0.000165017486  -5.8517607e-05      0.272795974     0.944270471
12.662212            0.267051056     0.945918529   0.000165227721 -5.86674768e-05   0.000165227721 -5.86674764e-05      0.273158391      0.94415434
12.66224             0.267413131     0.945804933    0.00016543825 -5.88177152e-05    0.00016543825 -5.88177148e-05      0.273521011     0.944037984
12.662268             0.26777541     0.945691114   0.000165649071 -5.89683235e-05   0.000165649071 -5.89683231e-05      0.273883833     0.943921401
12.662296             0.26813789     0.945577072   0.000165860186 -5.91193027e-05   0.000165860186 -5.91193023e-05      0.274246857     0.943804592
12.662324            0.268500573     0.945462806   0.000166071595 -5.92706537e-05   0.000166071595 -5.92706533e-05      0.274610083     0.943687557
12.662352            0.268863459     0.945348315   0.000166283297 -5.94223775e-05   0.000166283297 -5.94223771e-05      0.274973512     0.943570294
12.66238             0.269226548       0.9452336   0.000166495295 -5.95744751e-05   0.000166495295 -5.95744747e-05      0.275337144     0.943452804
12.662408             0.26958984      0.94511866   0.000166707587 -5.97269473e-05   0.000166707587 -5.97269469e-05      0.275700979     0.943335087
12.662436            0.269953336     0.945003495   0.000166920174 -5.98797952e-05   0.000166920174 -5.98797948e-05      0.276065017     0.943217141
12.662464            0.270317034     0.944888104   0.000167133057 -6.00330198e-05   0.000167133057 -6.00330194e-05      0.276429258     0.943098966
12.662492            0.270680936     0.944772487   0.000167346236  -6.0186622e-05   0.000167346236 -6.01866216e-05      0.276793703     0.942980562
12.66252             0.271045042     0.944656644   0.000167559712 -6.03406027e-05   0.000167559712 -6.03406023e-05      0.277158351      0.94286193
12.662548            0.271409352     0.944540574   0.000167773484  -6.0494963e-05   0.000167773484 -6.04949626e-05      0.277523202     0.942743067
12.662576            0.271773865     0.944424276   0.000167987553 -6.06497039e-05   0.000167987553 -6.06497035e-05      0.277888257     0.942623974
12.662604            0.272138582     0.944307751    0.00016820192 -6.08048263e-05    0.00016820192 -6.08048259e-05      0.278253516     0.942504651
12.662632            0.272503504     0.944190998   0.000168416585 -6.09603312e-05   0.000168416585 -6.09603307e-05       0.27861898     0.942385097
12.66266              0.27286863     0.944074017   0.000168631547 -6.11162195e-05   0.000168631547 -6.11162191e-05      0.278984647     0.942265311
12.662688             0.27323396     0.943956807   0.000168846809 -6.12724924e-05   0.000168846809  -6.1272492e-05      0.279350519     0.942145294
12.662716            0.273599496     0.943839367   0.000169062369 -6.14291507e-05   0.000169062369 -6.14291503e-05      0.279716595     0.942025045
12.662744            0.273965235     0.943721699   0.000169278229 -6.15861955e-05   0.000169278229 -6.15861951e-05      0.280082875     0.941904563
12.662772             0.27433118       0.9436038   0.000169494389 -6.17436278e-05   0.000169494389 -6.17436274e-05      0.280449361     0.941783848
12.6628               0.27469733     0.943485671   0.000169710848 -6.19014485e-05   0.000169710848 -6.19014481e-05      0.280816051     0.941662901
12.662828            0.275063685     0.943367311   0.000169927608 -6.20596587e-05   0.000169927608 -6.20596583e-05      0.281182946     0.941541719
12.662856            0.275430245      0.94324872   0.000170144669 -6.22182594e-05   0.000170144669  -6.2218259e-05      0.281550046     0.941420304
12.662884            0.275797011     0.943129898   0.000170362031 -6.23772515e-05   0.000170362031 -6.23772511e-05      0.281917352     0.941298654
12.662912            0.276163982     0.943010844   0.000170579695 -6.25366362e-05   0.000170579695 -6.25366358e-05      0.282284863     0.941176769
12.66294             0.276531159     0.942891558   0.000170797661 -6.26964143e-05   0.000170797661 -6.26964139e-05       0.28265258     0.941054649
12.662968            0.276898542     0.942772039   0.000171015929  -6.2856587e-05   0.000171015929 -6.28565866e-05      0.283020502     0.940932293
12.662996            0.277266131     0.942652287     0.0001712345 -6.30171552e-05     0.0001712345 -6.30171548e-05       0.28338863     0.940809702
12.663024            0.277633926     0.942532302   0.000171453374   -6.317812e-05   0.000171453374 -6.31781196e-05      0.283756964     0.940686874
12.663052            0.278001927     0.942412082   0.000171672551 -6.33394824e-05   0.000171672551  -6.3339482e-05      0.284125504     0.940563809
12.66308             0.278370135     0.942291629   0.000171892032 -6.35012434e-05   0.000171892032 -6.35012429e-05      0.284494251     0.940440507
12.663108            0.278738549     0.942170941   0.000172111817  -6.3663404e-05   0.000172111817 -6.36634036e-05      0.284863204     0.940316967
12.663136            0.279107171     0.942050018   0.000172331907 -6.38259653e-05   0.000172331907 -6.38259649e-05      0.285232363     0.940193189
12.663164            0.279475999     0.941928859   0.000172552302 -6.39889283e-05   0.000172552302 -6.39889279e-05      0.285601729     0.940069173
12.663192            0.279845034     0.941807465   0.000172773002 -6.41522941e-05   0.000172773002 -6.41522937e-05      0.285971302     0.939944918
12.66322             0.280214276     0.941685835   0.000172994008 -6.43160637e-05   0.000172994008 -6.43160632e-05      0.286341082     0.939820424
12.663248            0.280583725     0.941563967    0.00017321532 -6.44802381e-05    0.00017321532 -6.44802376e-05      0.286711069      0.93969569
12.663276            0.280953382     0.941441863   0.000173436939 -6.46448184e-05   0.000173436939 -6.46448179e-05      0.287081263     0.939570716
12.663304            0.281323247     0.941319522   0.000173658864 -6.48098056e-05   0.000173658864 -6.48098052e-05      0.287451665     0.939445502
12.663332            0.281693319     0.941196943   0.000173881096 -6.49752008e-05   0.000173881096 -6.49752004e-05      0.287822274     0.939320046
12.66336             0.282063599     0.941074125   0.000174103636  -6.5141005e-05   0.000174103636 -6.51410046e-05       0.28819309      0.93919435
12.663388            0.282434087     0.940951069   0.000174326484 -6.53072194e-05   0.000174326484  -6.5307219e-05      0.288564115     0.939068412
12.663416            0.282804783     0.940827774    0.00017454964 -6.54738449e-05    0.00017454964 -6.54738445e-05      0.288935347     0.938942231
12.663444            0.283175687     0.940704239   0.000174773105 -6.56408826e-05   0.000174773105 -6.56408822e-05      0.289306787     0.938815809
12.663472              0.2835468     0.940580464   0.000174996879 -6.58083337e-05   0.000174996879 -6.58083332e-05      0.289678436     0.938689143
12.6635              0.283918122      0.94045645   0.000175220963 -6.59761991e-05   0.000175220963 -6.59761986e-05      0.290050293     0.938562234
