! TOUCHSTONE file generated by CST MICROWAVE STUDIO
! Date and time: Wed Jul 31 20:21:40 2024
! Project name: WaveGuide_BPF-Ver4.1_U-shape_Ku_T3_C4_CWA_2.cst
! Parameters = {cavity_h=16; cavity_l0=10; cavity_l1=15.2079; cavity_l2=16.8297; cavity_l3=17.1163; cavity_l4=17.2397; cavity_l5=17.0871; cavity_l6=17.5545; cavity_r=2.5; cavity_screw_l=0.5; cavity_screw_r=1.5; cavity_w=8; iris_h00=0; iris_h01=8.8339; iris_h112=0; iris_h12=5.6127; iris_h211=3.6535; iris_h23=5.1957; iris_h310=3.9698; iris_h34=5.0826; iris_h45=4.9275; iris_h49=4.6231; iris_h56=4.7987; iris_h58=4.4386; iris_h67=6.5903; iris_rx=0.1; iris_screw_l=0.5; iris_screw_r=1.5; iris_shift00=0; iris_shift112=0; iris_shift211=3.5; iris_shift310=0; iris_shift49=0; iris_shift58=3.5; iris_shift67=3.5; iris_tx=4.5; iris_tz=4.5; iris_w00=0; iris_w112=0; iris_w211=4; iris_w310=3.9698; iris_w49=4.6231; iris_w58=4; iris_w67=4; mesh_cavity=5; mesh_iris=7; mesh_screw=7; order=12; reset_all=0; sigma=4.8e+07}
! Header version: 2018
! Port assignment regex: !\s*Touchstone port\s*([0-9]+)\s*=\s*(CST MWS port|CST DS port)\s*([0-9]+|Zmin|Zmax)\s*\(\"(.*)\"\)(\s*mode\s*([0-9]+))?.*
! Touchstone port assignment:
! Touchstone port 1 = CST MWS port 1 ("")
! Touchstone port 2 = CST MWS port 2 ("")
# GHz S RI R 50
12.66                0.422271598     0.882011281   0.000242380227 -0.000136685871   0.000242380227 -0.000136685871      0.417947456     0.884083383
12.660028            0.422714237     0.881780694   0.000242688945 -0.000137030591   0.000242688945 -0.000137030591      0.418391275     0.883854933
12.660056            0.423157089     0.881549698   0.000242998037 -0.000137376197   0.000242998037 -0.000137376197      0.418835348     0.883626058
12.660084            0.423600162     0.881318288   0.000243307502  -0.00013772269   0.000243307502  -0.00013772269      0.419279666     0.883396759
12.660112            0.424043462     0.881086462   0.000243617342 -0.000138070074   0.000243617341 -0.000138070074      0.419724219     0.883167041
12.66014             0.424486997     0.880854213   0.000243927555 -0.000138418351   0.000243927555 -0.000138418351      0.420168999     0.882936908
12.660168            0.424930766     0.880621543   0.000244238144 -0.000138767522   0.000244238144 -0.000138767522      0.420614005     0.882706358
12.660196            0.425374766     0.880388452   0.000244549107  -0.00013911759   0.000244549107  -0.00013911759      0.421059245     0.882475388
12.660224            0.425818996     0.880154939   0.000244860445 -0.000139468559   0.000244860445 -0.000139468559      0.421504716     0.882243997
12.660252            0.426263455     0.879921004   0.000245172158 -0.000139820429   0.000245172158 -0.000139820429      0.421950421     0.882012184
12.66028             0.426708145     0.879686647   0.000245484246 -0.000140173205   0.000245484246 -0.000140173204      0.422396358      0.88177995
12.660308            0.427153065     0.879451865   0.000245796709 -0.000140526887   0.000245796709 -0.000140526887      0.422842528     0.881547292
12.660336            0.427598215     0.879216659   0.000246109548 -0.000140881479   0.000246109548 -0.000140881479      0.423288931      0.88131421
12.660364            0.428043596     0.878981028   0.000246422762 -0.000141236983   0.000246422762 -0.000141236983      0.423735567     0.881080704
12.660392            0.428489206     0.878744971   0.000246736351 -0.000141593402   0.000246736351 -0.000141593402      0.424182436     0.880846773
12.66042             0.428935047     0.878508487   0.000247050316 -0.000141950738   0.000247050316 -0.000141950738      0.424629538     0.880612415
12.660448            0.429381119     0.878271576   0.000247364656 -0.000142308993   0.000247364656 -0.000142308993      0.425076873     0.880377631
12.660476             0.42982742     0.878034237   0.000247679373  -0.00014266817   0.000247679373  -0.00014266817      0.425524441     0.880142419
12.660504            0.430273953     0.877796469   0.000247994465 -0.000143028272   0.000247994465 -0.000143028272      0.425972242     0.879906779
12.660532            0.430720715     0.877558271   0.000248309934 -0.000143389301   0.000248309934 -0.000143389301      0.426420277      0.87967071
12.66056             0.431167708     0.877319642   0.000248625778  -0.00014375126   0.000248625778  -0.00014375126      0.426868544     0.879434211
12.660588            0.431614931     0.877080582   0.000248941999  -0.00014411415   0.000248941999  -0.00014411415      0.427317045     0.879197281
12.660616            0.432062385     0.876841091   0.000249258597 -0.000144477976   0.000249258596 -0.000144477976      0.427765779      0.87895992
12.660644             0.43251007     0.876601166    0.00024957557 -0.000144842738    0.00024957557 -0.000144842738      0.428214746     0.878722127
12.660672            0.432957985     0.876360808   0.000249892921  -0.00014520844    0.00024989292  -0.00014520844      0.428663946     0.878483901
12.6607               0.43340613     0.876120016   0.000250210647 -0.000145575085   0.000250210647 -0.000145575085       0.42911338     0.878245241
12.660728            0.433854507     0.875878788   0.000250528751 -0.000145942674   0.000250528751 -0.000145942674      0.429563047     0.878006147
12.660756            0.434303114     0.875637125   0.000250847231 -0.000146311211   0.000250847231 -0.000146311211      0.430012948     0.877766617
12.660784            0.434751951     0.875395025   0.000251166089 -0.000146680697   0.000251166089 -0.000146680697      0.430463082     0.877526652
12.660812            0.435201019     0.875152488   0.000251485323 -0.000147051137   0.000251485323 -0.000147051137      0.430913449     0.877286249
12.66084             0.435650318     0.874909513   0.000251804935 -0.000147422531   0.000251804934 -0.000147422531       0.43136405      0.87704541
12.660868            0.436099848     0.874666099   0.000252124923 -0.000147794883   0.000252124923 -0.000147794883      0.431814885     0.876804131
12.660896            0.436549608     0.874422245   0.000252445289 -0.000148168196   0.000252445289 -0.000148168196      0.432265953     0.876562414
12.660924              0.4369996      0.87417795   0.000252766032 -0.000148542471   0.000252766032 -0.000148542471      0.432717254     0.876320257
12.660952            0.437449822     0.873933214   0.000253087152 -0.000148917712   0.000253087152 -0.000148917712       0.43316879     0.876077659
12.66098             0.437900275     0.873688037    0.00025340865 -0.000149293921    0.00025340865 -0.000149293921      0.433620558      0.87583462
12.661008            0.438350958     0.873442416   0.000253730525 -0.000149671102   0.000253730525 -0.000149671101      0.434072561     0.875591139
12.661036            0.438801873     0.873196352   0.000254052778 -0.000150049255   0.000254052778 -0.000150049255      0.434524797     0.875347214
12.661064            0.439253018     0.872949843   0.000254375408 -0.000150428385   0.000254375408 -0.000150428385      0.434977267     0.875102846
12.661092            0.439704395     0.872702889   0.000254698416 -0.000150808493   0.000254698416 -0.000150808493       0.43542997     0.874858033
12.66112             0.440156002      0.87245549   0.000255021802 -0.000151189583   0.000255021802 -0.000151189583      0.435882907     0.874612775
12.661148             0.44060784     0.872207643   0.000255345566 -0.000151571658   0.000255345566 -0.000151571658      0.436336079      0.87436707
12.661176            0.441059909     0.871959349   0.000255669707 -0.000151954719   0.000255669707 -0.000151954718      0.436789483     0.874120919
12.661204            0.441512209     0.871710606   0.000255994226 -0.000152338769   0.000255994226 -0.000152338769      0.437243122     0.873874319
12.661232            0.441964741     0.871461415   0.000256319123 -0.000152723812   0.000256319123 -0.000152723812      0.437696994     0.873627271
12.66126             0.442417503     0.871211773   0.000256644399 -0.000153109849   0.000256644398 -0.000153109849      0.438151101     0.873379774
12.661288            0.442870496     0.870961681   0.000256970052 -0.000153496884   0.000256970051 -0.000153496884      0.438605441     0.873131827
12.661316             0.44332372     0.870711137   0.000257296083  -0.00015388492   0.000257296082  -0.00015388492      0.439060015     0.872883428
12.661344            0.443777175      0.87046014   0.000257622492 -0.000154273958   0.000257622492 -0.000154273958      0.439514823     0.872634578
12.661372            0.444230861     0.870208691   0.000257949279 -0.000154664003   0.000257949279 -0.000154664003      0.439969865     0.872385275
12.6614              0.444684779     0.869956788   0.000258276444 -0.000155055056   0.000258276444 -0.000155055056       0.44042514     0.872135519
12.661428            0.445138927     0.869704429   0.000258603987  -0.00015544712   0.000258603987  -0.00015544712       0.44088065     0.871885308
12.661456            0.445593306     0.869451616   0.000258931909 -0.000155840198   0.000258931909 -0.000155840198      0.441336394     0.871634643
12.661484            0.446047917     0.869198345   0.000259260208 -0.000156234293   0.000259260208 -0.000156234293      0.441792372     0.871383522
12.661512            0.446502759     0.868944618   0.000259588886 -0.000156629407   0.000259588886 -0.000156629407      0.442248583     0.871131943
12.66154             0.446957831     0.868690433   0.000259917942 -0.000157025544   0.000259917942 -0.000157025544      0.442705029     0.870879908
12.661568            0.447413135     0.868435788   0.000260247376 -0.000157422706   0.000260247376 -0.000157422706      0.443161709     0.870627414
12.661596             0.44786867     0.868180684   0.000260577189 -0.000157820896   0.000260577189 -0.000157820896      0.443618622     0.870374461
12.661624            0.448324436      0.86792512   0.000260907379 -0.000158220117   0.000260907379 -0.000158220117       0.44407577     0.870121048
12.661652            0.448780434     0.867669094   0.000261237948 -0.000158620371   0.000261237948 -0.000158620371      0.444533152     0.869867175
12.66168             0.449236662     0.867412606   0.000261568895 -0.000159021661   0.000261568895 -0.000159021661      0.444990768     0.869612839
12.661708            0.449693121     0.867155656    0.00026190022 -0.000159423991    0.00026190022 -0.000159423991      0.445448618     0.869358042
12.661736            0.450149812     0.866898241   0.000262231923 -0.000159827363   0.000262231923 -0.000159827363      0.445906702     0.869102781
12.661764            0.450606734     0.866640362   0.000262564005 -0.000160231779   0.000262564005 -0.000160231779       0.44636502     0.868847056
12.661792            0.451063887     0.866382017   0.000262896464 -0.000160637244   0.000262896464 -0.000160637243      0.446823572     0.868590866
12.66182             0.451521271     0.866123207   0.000263229302 -0.000161043758   0.000263229302 -0.000161043758      0.447282358      0.86833421
12.661848            0.451978886     0.865863929   0.000263562518 -0.000161451327   0.000263562518 -0.000161451327      0.447741379     0.868077088
12.661876            0.452436732     0.865604183   0.000263896111 -0.000161859951   0.000263896111 -0.000161859951      0.448200633     0.867819499
12.661904             0.45289481     0.865343968   0.000264230083 -0.000162269635   0.000264230083 -0.000162269635      0.448660122     0.867561441
12.661932            0.453353119     0.865083284   0.000264564433 -0.000162680381   0.000264564433 -0.000162680381      0.449119844     0.867302914
12.66196             0.453811658     0.864822129   0.000264899161 -0.000163092192   0.000264899161 -0.000163092192      0.449579801     0.867043917
12.661988            0.454270429     0.864560504   0.000265234267  -0.00016350507   0.000265234267  -0.00016350507      0.450039992     0.866784449
12.662016            0.454729431     0.864298406   0.000265569751  -0.00016391902    0.00026556975  -0.00016391902      0.450500417      0.86652451
12.662044            0.455188664     0.864035835   0.000265905612 -0.000164334043   0.000265905612 -0.000164334043      0.450961076     0.866264098
12.662072            0.455648129      0.86377279   0.000266241851 -0.000164750143   0.000266241851 -0.000164750143      0.451421969     0.866003213
12.6621              0.456107824      0.86350927   0.000266578469 -0.000165167323   0.000266578468 -0.000165167323      0.451883097     0.865741854
12.662128            0.456567751     0.863245276   0.000266915463 -0.000165585585   0.000266915463 -0.000165585585      0.452344458      0.86548002
12.662156            0.457027908     0.862980804   0.000267252836 -0.000166004932   0.000267252836 -0.000166004932      0.452806054      0.86521771
12.662184            0.457488297     0.862715856   0.000267590586 -0.000166425368   0.000267590586 -0.000166425368      0.453267884     0.864954923
12.662212            0.457948917     0.862450429   0.000267928713 -0.000166846896   0.000267928713 -0.000166846896      0.453729947     0.864691659
12.66224             0.458409767     0.862184524   0.000268267218 -0.000167269518   0.000268267218 -0.000167269517      0.454192245     0.864427916
12.662268            0.458870849     0.861918139     0.0002686061 -0.000167693237     0.0002686061 -0.000167693237      0.454654777     0.864163694
12.662296            0.459332162     0.861651273    0.00026894536 -0.000168118056    0.00026894536 -0.000168118056      0.455117543     0.863898991
12.662324            0.459793706     0.861383925   0.000269284997  -0.00016854398   0.000269284996 -0.000168543979      0.455580543     0.863633808
12.662352            0.460255481     0.861116096    0.00026962501 -0.000168971009    0.00026962501 -0.000168971009      0.456043778     0.863368143
12.66238             0.460717487     0.860847783   0.000269965401 -0.000169399148   0.000269965401 -0.000169399148      0.456507246     0.863101995
12.662408            0.461179724     0.860578986   0.000270306169 -0.000169828399   0.000270306169 -0.000169828399      0.456970948     0.862835363
12.662436            0.461642192     0.860309704   0.000270647314 -0.000170258766   0.000270647314 -0.000170258766      0.457434884     0.862568247
12.662464            0.462104891     0.860039936   0.000270988835 -0.000170690252   0.000270988835 -0.000170690252      0.457899055     0.862300646
12.662492             0.46256782     0.859769682   0.000271330733 -0.000171122859   0.000271330733 -0.000171122859      0.458363459     0.862032558
12.66252             0.463030981      0.85949894   0.000271673008 -0.000171556591   0.000271673008 -0.000171556591      0.458828098     0.861763983
12.662548            0.463494373     0.859227709   0.000272015659 -0.000171991451   0.000272015659 -0.000171991451       0.45929297     0.861494921
12.662576            0.463957995      0.85895599   0.000272358686 -0.000172427441   0.000272358686 -0.000172427441      0.459758076     0.861225369
12.662604            0.464421849      0.85868378    0.00027270209 -0.000172864566   0.000272702089 -0.000172864565      0.460223417     0.860955327
12.662632            0.464885933     0.858411079   0.000273045869 -0.000173302827   0.000273045869 -0.000173302827      0.460688991     0.860684795
12.66266             0.465350248     0.858137886   0.000273390025 -0.000173742229   0.000273390025 -0.000173742229      0.461154799     0.860413772
12.662688            0.465814793       0.8578642   0.000273734556 -0.000174182774   0.000273734556 -0.000174182773      0.461620841     0.860142256
12.662716             0.46627957      0.85759002   0.000274079463 -0.000174624465   0.000274079463 -0.000174624465      0.462087117     0.859870246
12.662744            0.466744577     0.857315346   0.000274424746 -0.000175067306   0.000274424746 -0.000175067306      0.462553627     0.859597743
12.662772            0.467209815     0.857040176   0.000274770404 -0.000175511299   0.000274770404 -0.000175511299       0.46302037     0.859324744
12.6628              0.467675284      0.85676451   0.000275116437 -0.000175956449   0.000275116437 -0.000175956448      0.463487348      0.85905125
12.662828            0.468140983     0.856488347   0.000275462845 -0.000176402757   0.000275462845 -0.000176402757      0.463954559     0.858777258
12.662856            0.468606913     0.856211685   0.000275809629 -0.000176850227   0.000275809629 -0.000176850227      0.464422004     0.858502769
12.662884            0.469073074     0.855934525   0.000276156787 -0.000177298863   0.000276156787 -0.000177298863      0.464889683     0.858227781
12.662912            0.469539465     0.855656864    0.00027650432 -0.000177748668    0.00027650432 -0.000177748667      0.465357595     0.857952294
12.66294             0.470006086     0.855378703   0.000276852227 -0.000178199644   0.000276852227 -0.000178199644      0.465825742     0.857676306
12.662968            0.470472939      0.85510004   0.000277200509 -0.000178651795   0.000277200509 -0.000178651795      0.466294122     0.857399817
12.662996            0.470940021     0.854820874   0.000277549165 -0.000179105124   0.000277549164 -0.000179105124      0.466762735     0.857122825
12.663024            0.471407334     0.854541204   0.000277898194 -0.000179559634   0.000277898194 -0.000179559634      0.467231582      0.85684533
12.663052            0.471874878      0.85426103   0.000278247598  -0.00018001533   0.000278247598 -0.000180015329      0.467700663     0.856567331
12.66308             0.472342652     0.853980351   0.000278597375 -0.000180472213   0.000278597375 -0.000180472212      0.468169977     0.856288827
12.663108            0.472810656     0.853699165   0.000278947526 -0.000180930287   0.000278947525 -0.000180930287      0.468639525     0.856009818
12.663136             0.47327889     0.853417473   0.000279298049 -0.000181389555   0.000279298049 -0.000181389555      0.469109307     0.855730301
12.663164            0.473747355     0.853135272   0.000279648946 -0.000181850021   0.000279648946 -0.000181850021      0.469579322     0.855450276
12.663192             0.47421605     0.852852562   0.000280000216 -0.000182311688   0.000280000216 -0.000182311688       0.47004957     0.855169743
12.66322             0.474684975     0.852569342   0.000280351858  -0.00018277456   0.000280351858 -0.000182774559      0.470520052     0.854888701
12.663248            0.475154131     0.852285611   0.000280703873 -0.000183238638   0.000280703872 -0.000183238638      0.470990767     0.854607147
12.663276            0.475623516     0.852001368   0.000281056259 -0.000183703928   0.000281056259 -0.000183703928      0.471461715     0.854325083
12.663304            0.476093131     0.851716613   0.000281409018 -0.000184170431   0.000281409018 -0.000184170431      0.471932897     0.854042506
12.663332            0.476562977     0.851431344   0.000281762149 -0.000184638152   0.000281762148 -0.000184638152      0.472404312     0.853759415
12.66336             0.477033052      0.85114556   0.000282115651 -0.000185107094   0.000282115651 -0.000185107094       0.47287596     0.853475811
12.663388            0.477503357     0.850859261   0.000282469524  -0.00018557726   0.000282469524  -0.00018557726      0.473347841     0.853191691
12.663416            0.477973893     0.850572445   0.000282823768 -0.000186048654   0.000282823768 -0.000186048654      0.473819955     0.852907055
12.663444            0.478444658     0.850285112   0.000283178383 -0.000186521278   0.000283178383 -0.000186521278      0.474292303     0.852621902
12.663472            0.478915652     0.849997261   0.000283533369 -0.000186995136   0.000283533369 -0.000186995136      0.474764884     0.852336231
12.6635              0.479386877     0.849708891   0.000283888725 -0.000187470232   0.000283888725 -0.000187470232      0.475237697     0.852050041
