! TOUCHSTONE file generated by CST MICROWAVE STUDIO
! Date and time: Wed Jul 31 20:28:06 2024
! Project name: WaveGuide_BPF-Ver4.1_U-shape_Ku_T3_C4_CWA_2.cst
! Parameters = {cavity_h=16; cavity_l0=10; cavity_l1=15.1666; cavity_l2=16.8206; cavity_l3=17.0687; cavity_l4=17.3071; cavity_l5=17.1378; cavity_l6=17.6243; cavity_r=2.5; cavity_screw_l=0.5; cavity_screw_r=1.5; cavity_w=8; iris_h00=0; iris_h01=8.8323; iris_h112=0; iris_h12=5.6095; iris_h211=3.6542; iris_h23=5.1908; iris_h310=3.9756; iris_h34=5.0784; iris_h45=4.9338; iris_h49=4.6133; iris_h56=4.8071; iris_h58=4.4495; iris_h67=6.5928; iris_rx=0.1; iris_screw_l=0.5; iris_screw_r=1.5; iris_shift00=0; iris_shift112=0; iris_shift211=3.5; iris_shift310=0; iris_shift49=0; iris_shift58=3.5; iris_shift67=3.5; iris_tx=4.5; iris_tz=4.5; iris_w00=0; iris_w112=0; iris_w211=4; iris_w310=3.9756; iris_w49=4.6133; iris_w58=4; iris_w67=4; mesh_cavity=5; mesh_iris=7; mesh_screw=7; order=12; reset_all=0; sigma=4.8e+07}
! Header version: 2018
! Port assignment regex: !\s*Touchstone port\s*([0-9]+)\s*=\s*(CST MWS port|CST DS port)\s*([0-9]+|Zmin|Zmax)\s*\(\"(.*)\"\)(\s*mode\s*([0-9]+))?.*
! Touchstone port assignment:
! Touchstone port 1 = CST MWS port 1 ("")
! Touchstone port 2 = CST MWS port 2 ("")
# GHz S RI R 50
12.66                0.265666849     0.946861918   0.000171197526 -5.98903535e-05   0.000171197526 -5.98903535e-05      0.264712485     0.947258717
12.660028            0.266017901     0.946752764   0.000171420874 -6.00439788e-05   0.000171420875 -6.00439787e-05       0.26506067     0.947150885
12.660056            0.266369062     0.946643423   0.000171644554 -6.01979843e-05   0.000171644554 -6.01979843e-05      0.265409089     0.947042834
12.660084            0.266720367     0.946533887   0.000171868563 -6.03523725e-05   0.000171868563 -6.03523725e-05      0.265757722     0.946934571
12.660112            0.267071851     0.946424144   0.000172092902 -6.05071457e-05   0.000172092902 -6.05071456e-05      0.266106552     0.946826099
12.66014             0.267423549     0.946314185    0.00017231757 -6.06623061e-05    0.00017231757 -6.06623061e-05      0.266455558     0.946717424
12.660168            0.267775463     0.946204009   0.000172542568 -6.08178549e-05   0.000172542568 -6.08178548e-05      0.266804742     0.946608546
12.660196            0.268127568     0.946093623   0.000172767897  -6.0973792e-05   0.000172767898  -6.0973792e-05      0.267154115     0.946499461
12.660224            0.268479865     0.945983026   0.000172993558 -6.11301187e-05   0.000172993558 -6.11301186e-05      0.267503678     0.946390168
12.660252            0.268832354     0.945872217    0.00017321955 -6.12868359e-05   0.000173219551 -6.12868358e-05      0.267853431     0.946280667
12.66028             0.269185035     0.945761198   0.000173445875 -6.14439446e-05   0.000173445875 -6.14439446e-05      0.268203374     0.946170958
12.660308            0.269537907     0.945649966   0.000173672533  -6.1601446e-05   0.000173672533 -6.16014459e-05      0.268553508     0.946061041
12.660336            0.269890972     0.945538522   0.000173899524  -6.1759341e-05   0.000173899524 -6.17593409e-05      0.268903832     0.945950914
12.660364            0.270244229     0.945426865   0.000174126849 -6.19176307e-05   0.000174126849 -6.19176306e-05      0.269254347     0.945840578
12.660392            0.270597679     0.945314996   0.000174354508 -6.20763161e-05   0.000174354509  -6.2076316e-05      0.269605052     0.945730032
12.66042             0.270951321     0.945202913   0.000174582503 -6.22353983e-05   0.000174582503 -6.22353982e-05      0.269955948     0.945619277
12.660448            0.271305156     0.945090617   0.000174810832 -6.23948784e-05   0.000174810832 -6.23948783e-05      0.270307036     0.945508311
12.660476            0.271659184     0.944978107   0.000175039498 -6.25547573e-05   0.000175039498 -6.25547573e-05      0.270658314     0.945397134
12.660504            0.272013404     0.944865382   0.000175268499 -6.27150362e-05   0.000175268499 -6.27150362e-05      0.271009784     0.945285746
12.660532            0.272367818     0.944752443   0.000175497838 -6.28757162e-05   0.000175497838 -6.28757161e-05      0.271361445     0.945174147
12.66056             0.272722425     0.944639288   0.000175727514 -6.30367982e-05   0.000175727514 -6.30367982e-05      0.271713298     0.945062336
12.660588            0.273077225     0.944525918   0.000175957527 -6.31982834e-05   0.000175957528 -6.31982834e-05      0.272065343     0.944950313
12.660616            0.273432219     0.944412333    0.00017618788 -6.33601729e-05    0.00017618788 -6.33601728e-05      0.272417579     0.944838078
12.660644            0.273787407     0.944298531    0.00017641857 -6.35224676e-05   0.000176418571 -6.35224676e-05      0.272770007      0.94472563
12.660672            0.274142788     0.944184513   0.000176649601 -6.36851688e-05   0.000176649601 -6.36851687e-05      0.273122627     0.944612969
12.6607              0.274498363     0.944070278    0.00017688097 -6.38482774e-05   0.000176880971 -6.38482773e-05       0.27347544     0.944500094
12.660728            0.274854132     0.943955826   0.000177112681 -6.40117945e-05   0.000177112681 -6.40117945e-05      0.273828445     0.944387006
12.660756            0.275210096     0.943841157   0.000177344732 -6.41757214e-05   0.000177344732 -6.41757213e-05      0.274181642     0.944273703
12.660784            0.275566253     0.943726269   0.000177577124 -6.43400589e-05   0.000177577124 -6.43400589e-05      0.274535032     0.944160186
12.660812            0.275922605     0.943611163   0.000177809858 -6.45048083e-05   0.000177809859 -6.45048083e-05      0.274888615     0.944046454
12.66084             0.276279152     0.943495839   0.000178042935 -6.46699706e-05   0.000178042935 -6.46699706e-05       0.27524239     0.943932506
12.660868            0.276635893     0.943380296   0.000178276354  -6.4835547e-05   0.000178276354 -6.48355469e-05      0.275596359     0.943818344
12.660896             0.27699283     0.943264533   0.000178510117 -6.50015385e-05   0.000178510117 -6.50015384e-05       0.27595052     0.943703965
12.660924            0.277349961     0.943148551   0.000178744223 -6.51679462e-05   0.000178744223 -6.51679461e-05      0.276304875      0.94358937
12.660952            0.277707287     0.943032348   0.000178978674 -6.53347713e-05   0.000178978674 -6.53347712e-05      0.276659424     0.943474558
12.66098             0.278064808     0.942915926   0.000179213469 -6.55020148e-05    0.00017921347 -6.55020148e-05      0.277014166     0.943359529
12.661008            0.278422525     0.942799282    0.00017944861  -6.5669678e-05   0.000179448611 -6.56696779e-05      0.277369101     0.943244283
12.661036            0.278780438     0.942682417   0.000179684097 -6.58377618e-05   0.000179684097 -6.58377617e-05      0.277724231     0.943128819
12.661064            0.279138546     0.942565331    0.00017991993 -6.60062674e-05    0.00017991993 -6.60062674e-05      0.278079554     0.943013137
12.661092            0.279496849     0.942448023    0.00018015611 -6.61751961e-05    0.00018015611  -6.6175196e-05      0.278435072     0.942897237
12.66112             0.279855349     0.942330493   0.000180392637 -6.63445487e-05   0.000180392637 -6.63445487e-05      0.278790783     0.942781118
12.661148            0.280214045      0.94221274   0.000180629512 -6.65143266e-05   0.000180629512 -6.65143266e-05      0.279146689     0.942664779
12.661176            0.280572936     0.942094764   0.000180866735 -6.66845309e-05   0.000180866735 -6.66845308e-05       0.27950279     0.942548221
12.661204            0.280932025     0.941976565   0.000181104307 -6.68551626e-05   0.000181104307 -6.68551626e-05      0.279859085     0.942431444
12.661232            0.281291309     0.941858142   0.000181342229  -6.7026223e-05   0.000181342229 -6.70262229e-05      0.280215575     0.942314446
12.66126              0.28165079     0.941739495     0.0001815805 -6.71977131e-05     0.0001815805 -6.71977131e-05       0.28057226     0.942197227
12.661288            0.282010468     0.941620623   0.000181819122 -6.73696342e-05   0.000181819122 -6.73696341e-05      0.280929139     0.942079787
12.661316            0.282370343     0.941501527   0.000182058094 -6.75419873e-05   0.000182058094 -6.75419873e-05      0.281286214     0.941962126
12.661344            0.282730414     0.941382205   0.000182297418 -6.77147737e-05   0.000182297418 -6.77147737e-05      0.281643485     0.941844244
12.661372            0.283090683     0.941262658   0.000182537094 -6.78879945e-05   0.000182537094 -6.78879944e-05       0.28200095     0.941726139
12.6614              0.283451149     0.941142885   0.000182777122 -6.80616508e-05   0.000182777122 -6.80616507e-05      0.282358611     0.941607812
12.661428            0.283811812     0.941022886   0.000183017503 -6.82357438e-05   0.000183017504 -6.82357438e-05      0.282716468     0.941489262
12.661456            0.284172673      0.94090266   0.000183258238 -6.84102748e-05   0.000183258238 -6.84102747e-05      0.283074521     0.941370488
12.661484            0.284533732     0.940782206   0.000183499326 -6.85852447e-05   0.000183499327 -6.85852447e-05       0.28343277     0.941251492
12.661512            0.284894988     0.940661526   0.000183740769  -6.8760655e-05    0.00018374077 -6.87606549e-05      0.283791214     0.941132271
12.66154             0.285256442     0.940540617   0.000183982567 -6.89365066e-05   0.000183982567 -6.89365065e-05      0.284149855     0.941012826
12.661568            0.285618094     0.940419481    0.00018422472 -6.91128008e-05   0.000184224721 -6.91128008e-05      0.284508693     0.940893156
12.661596            0.285979944     0.940298116    0.00018446723 -6.92895388e-05    0.00018446723 -6.92895388e-05      0.284867727     0.940773261
12.661624            0.286341993     0.940176521   0.000184710096 -6.94667218e-05   0.000184710096 -6.94667217e-05      0.285226957     0.940653141
12.661652             0.28670424     0.940054698   0.000184953318  -6.9644351e-05   0.000184953319 -6.96443509e-05      0.285586384     0.940532795
12.66168             0.287066686     0.939932644   0.000185196899 -6.98224275e-05   0.000185196899 -6.98224274e-05      0.285946008     0.940412223
12.661708             0.28742933     0.939810361   0.000185440837 -7.00009525e-05   0.000185440837 -7.00009524e-05      0.286305829     0.940291425
12.661736            0.287792173     0.939687847   0.000185685134 -7.01799273e-05   0.000185685134 -7.01799273e-05      0.286665848     0.940170399
12.661764            0.288155215     0.939565102    0.00018592979 -7.03593531e-05    0.00018592979  -7.0359353e-05      0.287026063     0.940049146
12.661792            0.288518456     0.939442126   0.000186174805 -7.05392311e-05   0.000186174805  -7.0539231e-05      0.287386476     0.939927666
12.66182             0.288881897     0.939318919   0.000186420181 -7.07195624e-05   0.000186420181 -7.07195624e-05      0.287747087     0.939805957
12.661848            0.289245536     0.939195479   0.000186665917 -7.09003484e-05   0.000186665917 -7.09003483e-05      0.288107895      0.93968402
12.661876            0.289609376     0.939071807   0.000186912014 -7.10815901e-05   0.000186912014 -7.10815901e-05      0.288468901     0.939561854
12.661904            0.289973415     0.938947902   0.000187158473  -7.1263289e-05   0.000187158473 -7.12632889e-05      0.288830105     0.939439459
12.661932            0.290337653     0.938823764   0.000187405294 -7.14454461e-05   0.000187405294  -7.1445446e-05      0.289191507     0.939316835
12.66196             0.290702092     0.938699392   0.000187652478 -7.16280627e-05   0.000187652478 -7.16280626e-05      0.289553108      0.93919398
12.661988            0.291066731     0.938574786   0.000187900025   -7.181114e-05   0.000187900025   -7.181114e-05      0.289914907     0.939070895
12.662016            0.291431569     0.938449946   0.000188147935 -7.19946794e-05   0.000188147935 -7.19946793e-05      0.290276904      0.93894758
12.662044            0.291796608     0.938324871    0.00018839621 -7.21786819e-05    0.00018839621 -7.21786818e-05        0.2906391     0.938824033
12.662072            0.292161848     0.938199561    0.00018864485 -7.23631489e-05    0.00018864485 -7.23631488e-05      0.291001494     0.938700255
12.6621              0.292527288     0.938074016   0.000188893854 -7.25480816e-05   0.000188893855 -7.25480816e-05      0.291364088     0.938576245
12.662128            0.292892929     0.937948234   0.000189143225 -7.27334813e-05   0.000189143225 -7.27334812e-05      0.291726881     0.938452003
12.662156            0.293258771     0.937822216   0.000189392962 -7.29193492e-05   0.000189392962 -7.29193492e-05      0.292089872     0.938327528
12.662184            0.293624813     0.937695962   0.000189643066 -7.31056866e-05   0.000189643066 -7.31056865e-05      0.292453063      0.93820282
12.662212            0.293991057      0.93756947   0.000189893537 -7.32924947e-05   0.000189893537 -7.32924947e-05      0.292816454     0.938077878
12.66224             0.294357502     0.937442741   0.000190144376 -7.34797748e-05   0.000190144376 -7.34797748e-05      0.293180044     0.937952703
12.662268            0.294724148     0.937315774   0.000190395583 -7.36675282e-05   0.000190395583 -7.36675282e-05      0.293543834     0.937827293
12.662296            0.295090996     0.937188568   0.000190647159 -7.38557562e-05   0.000190647159 -7.38557561e-05      0.293907824     0.937701649
12.662324            0.295458045     0.937061124   0.000190899105   -7.404446e-05   0.000190899105 -7.40444599e-05      0.294272013      0.93757577
12.662352            0.295825297     0.936933441    0.00019115142 -7.42336409e-05   0.000191151421 -7.42336408e-05      0.294636403     0.937449656
12.66238              0.29619275     0.936805518   0.000191404106 -7.44233002e-05   0.000191404107 -7.44233001e-05      0.295000993     0.937323306
12.662408            0.296560405     0.936677356   0.000191657163 -7.46134391e-05   0.000191657164 -7.46134391e-05      0.295365783     0.937196719
12.662436            0.296928262     0.936548953   0.000191910592 -7.48040591e-05   0.000191910592  -7.4804059e-05      0.295730774     0.937069896
12.662464            0.297296322     0.936420309   0.000192164393 -7.49951613e-05   0.000192164393 -7.49951612e-05      0.296095966     0.936942836
12.662492            0.297664584     0.936291424   0.000192418566 -7.51867471e-05   0.000192418566  -7.5186747e-05      0.296461358     0.936815539
12.66252             0.298033048     0.936162298   0.000192673112 -7.53788177e-05   0.000192673112 -7.53788177e-05      0.296826951     0.936688004
12.662548            0.298401716     0.936032929   0.000192928032 -7.55713745e-05   0.000192928032 -7.55713745e-05      0.297192746     0.936560231
12.662576            0.298770586     0.935903319   0.000193183326 -7.57644189e-05   0.000193183326 -7.57644188e-05      0.297558741     0.936432219
12.662604            0.299139659     0.935773465   0.000193438995  -7.5957952e-05   0.000193438995 -7.59579519e-05      0.297924938     0.936303968
12.662632            0.299508935     0.935643369   0.000193695039 -7.61519752e-05   0.000193695039 -7.61519752e-05      0.298291336     0.936175478
12.66266             0.299878415     0.935513029   0.000193951459 -7.63464899e-05   0.000193951459 -7.63464899e-05      0.298657936     0.936046748
12.662688            0.300248098     0.935382445   0.000194208255 -7.65414974e-05   0.000194208255 -7.65414973e-05      0.299024737     0.935917778
12.662716            0.300617984     0.935251616   0.000194465427 -7.67369989e-05   0.000194465428 -7.67369989e-05      0.299391741     0.935788568
12.662744            0.300988074     0.935120543   0.000194722977 -7.69329959e-05   0.000194722978 -7.69329959e-05      0.299758946     0.935659116
12.662772            0.301358368     0.934989225   0.000194980905 -7.71294897e-05   0.000194980906 -7.71294896e-05      0.300126354     0.935529423
12.6628              0.301728865     0.934857661   0.000195239212 -7.73264816e-05   0.000195239212 -7.73264815e-05      0.300493964     0.935399488
12.662828            0.302099567     0.934725851   0.000195497897 -7.75239729e-05   0.000195497897 -7.75239728e-05      0.300861776     0.935269312
12.662856            0.302470473     0.934593794   0.000195756961  -7.7721965e-05   0.000195756962  -7.7721965e-05       0.30122979     0.935138892
12.662884            0.302841583     0.934461491   0.000196016406 -7.79204593e-05   0.000196016406 -7.79204592e-05      0.301598008      0.93500823
12.662912            0.303212898      0.93432894   0.000196276231 -7.81194571e-05   0.000196276231 -7.81194571e-05      0.301966428     0.934877324
12.66294             0.303584417     0.934196142   0.000196536437 -7.83189598e-05   0.000196536437 -7.83189597e-05      0.302335051     0.934746174
12.662968            0.303956141     0.934063095   0.000196797025 -7.85189687e-05   0.000196797025 -7.85189687e-05      0.302703877      0.93461478
12.662996            0.304328069       0.9339298   0.000197057994 -7.87194853e-05   0.000197057995 -7.87194852e-05      0.303072907     0.934483141
12.663024            0.304700203     0.933796256   0.000197319347 -7.89205108e-05   0.000197319347 -7.89205107e-05      0.303442139     0.934351258
12.663052            0.305072542     0.933662463   0.000197581082 -7.91220466e-05   0.000197581082 -7.91220466e-05      0.303811575     0.934219129
12.66308             0.305445086      0.93352842   0.000197843201 -7.93240942e-05   0.000197843201 -7.93240942e-05      0.304181215     0.934086754
12.663108            0.305817835     0.933394126   0.000198105704  -7.9526655e-05   0.000198105705 -7.95266549e-05      0.304551059     0.933954132
12.663136             0.30619079     0.933259582   0.000198368593 -7.97297302e-05   0.000198368593 -7.97297302e-05      0.304921106     0.933821264
12.663164            0.306563951     0.933124787   0.000198631866 -7.99333214e-05   0.000198631866 -7.99333213e-05      0.305291357     0.933688149
12.663192            0.306937317     0.932989741   0.000198895525 -8.01374298e-05   0.000198895525 -8.01374297e-05      0.305661813     0.933554787
12.66322             0.307310889     0.932854443    0.00019915957 -8.03420569e-05   0.000199159571 -8.03420569e-05      0.306032472     0.933421176
12.663248            0.307684667     0.932718892   0.000199424003 -8.05472042e-05   0.000199424003 -8.05472041e-05      0.306403337     0.933287317
12.663276            0.308058652     0.932583088   0.000199688823 -8.07528729e-05   0.000199688823 -8.07528729e-05      0.306774405     0.933153209
12.663304            0.308432842     0.932447032    0.00019995403 -8.09590646e-05    0.00019995403 -8.09590645e-05      0.307145679     0.933018852
12.663332            0.308807239     0.932310721   0.000200219626 -8.11657806e-05   0.000200219627 -8.11657806e-05      0.307517157     0.932884246
12.66336             0.309181843     0.932174157   0.000200485612 -8.13730224e-05   0.000200485612 -8.13730223e-05       0.30788884     0.932749389
12.663388            0.309556653     0.932037338   0.000200751986 -8.15807914e-05   0.000200751986 -8.15807913e-05      0.308260728     0.932614282
12.663416            0.309931671     0.931900265   0.000201018751  -8.1789089e-05   0.000201018751 -8.17890889e-05      0.308632821     0.932478924
12.663444            0.310306895     0.931762936   0.000201285906 -8.19979166e-05   0.000201285907 -8.19979165e-05       0.30900512     0.932343314
12.663472            0.310682326     0.931625351   0.000201553453 -8.22072757e-05   0.000201553453 -8.22072756e-05      0.309377624     0.932207453
12.6635              0.311057964      0.93148751   0.000201821391 -8.24171677e-05   0.000201821391 -8.24171677e-05      0.309750334      0.93207134
