! TOUCHSTONE file generated by CST MICROWAVE STUDIO
! Date and time: Wed Jul 31 20:31:17 2024
! Project name: WaveGuide_BPF-Ver4.1_U-shape_Ku_T3_C4_CWA_2.cst
! Parameters = {cavity_h=16; cavity_l0=10; cavity_l1=15.231; cavity_l2=16.8605; cavity_l3=17.1357; cavity_l4=17.2757; cavity_l5=17.1419; cavity_l6=17.6338; cavity_r=2.5; cavity_screw_l=0.5; cavity_screw_r=1.5; cavity_w=8; iris_h00=0; iris_h01=8.8313; iris_h112=0; iris_h12=5.6051; iris_h211=3.6661; iris_h23=5.1952; iris_h310=3.9609; iris_h34=5.0837; iris_h45=4.9421; iris_h49=4.6168; iris_h56=4.7997; iris_h58=4.4357; iris_h67=6.5711; iris_rx=0.1; iris_screw_l=0.5; iris_screw_r=1.5; iris_shift00=0; iris_shift112=0; iris_shift211=3.5; iris_shift310=0; iris_shift49=0; iris_shift58=3.5; iris_shift67=3.5; iris_tx=4.5; iris_tz=4.5; iris_w00=0; iris_w112=0; iris_w211=4; iris_w310=3.9609; iris_w49=4.6168; iris_w58=4; iris_w67=4; mesh_cavity=5; mesh_iris=7; mesh_screw=7; order=12; reset_all=0; sigma=4.8e+07}
! Header version: 2018
! Port assignment regex: !\s*Touchstone port\s*([0-9]+)\s*=\s*(CST MWS port|CST DS port)\s*([0-9]+|Zmin|Zmax)\s*\(\"(.*)\"\)(\s*mode\s*([0-9]+))?.*
! Touchstone port assignment:
! Touchstone port 1 = CST MWS port 1 ("")
! Touchstone port 2 = CST MWS port 2 ("")
# GHz S RI R 50
12.66                0.513178198     0.827034057   0.000353596648 -0.000260454233   0.000353596649 -0.000260454234      0.517370576     0.824282626
12.660028             0.51368152     0.826693855   0.000354046361 -0.000261142803   0.000354046362 -0.000261142803      0.517875676     0.823937353
12.660056             0.51418513     0.826352988   0.000354496477 -0.000261833258   0.000354496478 -0.000261833258      0.518380981     0.823591453
12.660084            0.514689006     0.826011466   0.000354946998 -0.000262525603   0.000354946998 -0.000262525603      0.518886504     0.823244918
12.660112            0.515193129     0.825669301   0.000355397923 -0.000263219843   0.000355397924 -0.000263219843      0.519392261     0.822897737
12.66014             0.515697476     0.825326504   0.000355849254 -0.000263915982   0.000355849255 -0.000263915983      0.519898266     0.822549901
12.660168            0.516202049     0.824983073   0.000356300991 -0.000264614026   0.000356300991 -0.000264614027      0.520404518     0.822201407
12.660196             0.51670686        0.824639    0.00035675313 -0.000265313981    0.00035675313 -0.000265313982      0.520911008     0.821852261
12.660224             0.51721191     0.824294282    0.00035720567 -0.000266015853   0.000357205671 -0.000266015853      0.521417735     0.821502461
12.660252            0.517717198      0.82394892   0.000357658612 -0.000266719646   0.000357658612 -0.000266719646      0.521924699     0.821152006
12.66028             0.518222724      0.82360291   0.000358111953 -0.000267425366   0.000358111953 -0.000267425367      0.522431901     0.820800895
12.660308            0.518728488     0.823256253   0.000358565693 -0.000268133019   0.000358565694  -0.00026813302      0.522939339     0.820449126
12.660336             0.51923449     0.822908947   0.000359019831 -0.000268842611   0.000359019832 -0.000268842611      0.523447014     0.820096698
12.660364            0.519740729     0.822560991   0.000359474366 -0.000269554146   0.000359474366 -0.000269554147      0.523954926     0.819743611
12.660392            0.520247207     0.822212383   0.000359929296 -0.000270267631   0.000359929297 -0.000270267631      0.524463075     0.819389862
12.66042             0.520753921     0.821863123   0.000360384622  -0.00027098307   0.000360384622 -0.000270983071       0.52497146      0.81903545
12.660448            0.521260873     0.821513208   0.000360840341  -0.00027170047   0.000360840341 -0.000271700471       0.52548008     0.818680375
12.660476            0.521768062     0.821162638   0.000361296452 -0.000272419836   0.000361296453 -0.000272419837      0.525988937     0.818324635
12.660504            0.522275487     0.820811412   0.000361752955 -0.000273141174   0.000361752956 -0.000273141175       0.52649803     0.817968228
12.660532             0.52278315     0.820459528   0.000362209849 -0.000273864489   0.000362209849  -0.00027386449      0.527007358     0.817611153
12.66056             0.523291049     0.820106985   0.000362667132 -0.000274589788   0.000362667132 -0.000274589788      0.527516921      0.81725341
12.660588            0.523799184     0.819753781   0.000363124803 -0.000275317075   0.000363124803 -0.000275317075       0.52802672     0.816894996
12.660616            0.524307555     0.819399916   0.000363582861 -0.000276046356   0.000363582862 -0.000276046357      0.528536753     0.816535911
12.660644            0.524816163     0.819045388   0.000364041306 -0.000276777637   0.000364041306 -0.000276777638      0.529047022     0.816176152
12.660672            0.525325006     0.818690196   0.000364500135 -0.000277510924   0.000364500135 -0.000277510925      0.529557525      0.81581572
12.6607              0.525834085     0.818334339   0.000364959348 -0.000278246223   0.000364959348 -0.000278246224      0.530068263     0.815454612
12.660728            0.526343399     0.817977815   0.000365418944 -0.000278983539   0.000365418944  -0.00027898354      0.530579235     0.815092828
12.660756            0.526852949     0.817620623    0.00036587892 -0.000279722878   0.000365878921 -0.000279722878      0.531090441     0.814730365
12.660784            0.527362734     0.817262762   0.000366339278 -0.000280464245   0.000366339278 -0.000280464246       0.53160188     0.814367223
12.660812            0.527872754      0.81690423   0.000366800014 -0.000281207648   0.000366800014 -0.000281207648      0.532113554     0.814003401
12.66084             0.528383008     0.816545027   0.000367261128  -0.00028195309   0.000367261128 -0.000281953091      0.532625461     0.813638896
12.660868            0.528893497      0.81618515   0.000367722618 -0.000282700579   0.000367722619  -0.00028270058      0.533137601     0.813273709
12.660896            0.529404221     0.815824599   0.000368184484  -0.00028345012   0.000368184485 -0.000283450121      0.533649974     0.812907836
12.660924            0.529915179     0.815463372   0.000368646724 -0.000284201719   0.000368646725 -0.000284201719      0.534162581     0.812541278
12.660952             0.53042637     0.815101468   0.000369109337 -0.000284955381   0.000369109338 -0.000284955382      0.534675419     0.812174032
12.66098             0.530937796     0.814738886   0.000369572322 -0.000285711113   0.000369572322 -0.000285711114      0.535188491     0.811806098
12.661008            0.531449455     0.814375625   0.000370035677 -0.000286468921   0.000370035677 -0.000286468922      0.535701794     0.811437474
12.661036            0.531961347     0.814011682     0.0003704994 -0.000287228811   0.000370499401 -0.000287228811       0.53621533     0.811068159
12.661064            0.532473473     0.813647057   0.000370963492 -0.000287990787   0.000370963492 -0.000287990788      0.536729097     0.810698151
12.661092            0.532985831     0.813281749    0.00037142795 -0.000288754858    0.00037142795 -0.000288754858      0.537243096     0.810327449
12.66112             0.533498423     0.812915756   0.000371892773 -0.000289521027   0.000371892773 -0.000289521028      0.537757326     0.809956052
12.661148            0.534011247     0.812549076    0.00037235796 -0.000290289302    0.00037235796 -0.000290289303      0.538271788     0.809583959
12.661176            0.534524303     0.812181709   0.000372823509 -0.000291059689   0.000372823509 -0.000291059689       0.53878648     0.809211167
12.661204            0.535037591     0.811813654   0.000373289419 -0.000291832192    0.00037328942 -0.000291832193      0.539301403     0.808837677
12.661232            0.535551112     0.811444908   0.000373755689  -0.00029260682   0.000373755689  -0.00029260682      0.539816557     0.808463485
12.66126             0.536064864      0.81107547   0.000374222317 -0.000293383576   0.000374222317 -0.000293383577      0.540331941     0.808088592
12.661288            0.536578848      0.81070534   0.000374689302 -0.000294162469   0.000374689302 -0.000294162469      0.540847555     0.807712995
12.661316            0.537093063     0.810334516   0.000375156642 -0.000294943503   0.000375156643 -0.000294943504      0.541363398     0.807336694
12.661344            0.537607509     0.809962996   0.000375624337 -0.000295726685   0.000375624337 -0.000295726685      0.541879471     0.806959686
12.661372            0.538122186     0.809590779   0.000376092384 -0.000296512021   0.000376092384 -0.000296512021      0.542395774     0.806581971
12.6614              0.538637094     0.809217864   0.000376560782 -0.000297299517   0.000376560782 -0.000297299517      0.542912306     0.806203548
12.661428            0.539152232     0.808844249    0.00037702953 -0.000298089179    0.00037702953  -0.00029808918      0.543429066     0.805824414
12.661456              0.5396676     0.808469934   0.000377498625 -0.000298881014   0.000377498626 -0.000298881014      0.543946055     0.805444568
12.661484            0.540183198     0.808094916   0.000377968068 -0.000299675027   0.000377968068 -0.000299675027      0.544463273      0.80506401
12.661512            0.540699026     0.807719195   0.000378437856 -0.000300471225   0.000378437856 -0.000300471226      0.544980718     0.804682737
12.66154             0.541215084     0.807342768   0.000378907987 -0.000301269614   0.000378907988 -0.000301269615      0.545498392     0.804300749
12.661568             0.54173137     0.806965636   0.000379378461 -0.000302070201   0.000379378461 -0.000302070201      0.546016293     0.803918043
12.661596            0.542247886     0.806587795   0.000379849275 -0.000302872991   0.000379849275 -0.000302872991      0.546534421     0.803534619
12.661624            0.542764631     0.806209246   0.000380320428 -0.000303677991   0.000380320428 -0.000303677991      0.547052776     0.803150475
12.661652            0.543281604     0.805829986   0.000380791918 -0.000304485207   0.000380791918 -0.000304485208      0.547571359      0.80276561
12.66168             0.543798805     0.805450015   0.000381263744 -0.000305294646   0.000381263745 -0.000305294646      0.548090168     0.802380022
12.661708            0.544316235      0.80506933   0.000381735905 -0.000306106313   0.000381735905 -0.000306106314      0.548609203     0.801993711
12.661736            0.544833892      0.80468793   0.000382208398 -0.000306920216   0.000382208398 -0.000306920217      0.549128465     0.801606673
12.661764            0.545351777     0.804305815   0.000382681222 -0.000307736361   0.000382681222 -0.000307736361      0.549647952     0.801218909
12.661792            0.545869889     0.803922982   0.000383154375 -0.000308554753   0.000383154376 -0.000308554754      0.550167664     0.800830417
12.66182             0.546388228      0.80353943   0.000383627856   -0.0003093754   0.000383627857   -0.0003093754      0.550687602     0.800441195
12.661848            0.546906794     0.803155159   0.000384101663 -0.000310198307   0.000384101664 -0.000310198308      0.551207766     0.800051241
12.661876            0.547425587     0.802770166   0.000384575795 -0.000311023482   0.000384575795 -0.000311023483      0.551728153     0.799660556
12.661904            0.547944606     0.802384449   0.000385050249  -0.00031185093   0.000385050249 -0.000311850931      0.552248766     0.799269136
12.661932            0.548463851     0.801998009   0.000385525023 -0.000312680659   0.000385525024  -0.00031268066      0.552769602     0.798876981
12.66196             0.548983322     0.801610843   0.000386000117 -0.000313512674   0.000386000118 -0.000313512675      0.553290662     0.798484089
12.661988            0.549503018     0.801222949   0.000386475529 -0.000314346983   0.000386475529 -0.000314346984      0.553811946     0.798090459
12.662016             0.55002294     0.800834327   0.000386951256 -0.000315183591   0.000386951256 -0.000315183592      0.554333454     0.797696089
12.662044            0.550543086     0.800444975   0.000387427297 -0.000316022506   0.000387427297 -0.000316022507      0.554855184     0.797300978
12.662072            0.551063457     0.800054892    0.00038790365 -0.000316863733    0.00038790365 -0.000316863734      0.555377137     0.796905124
12.6621              0.551584053     0.799664076   0.000388380313  -0.00031770728   0.000388380313 -0.000317707281      0.555899313     0.796508527
12.662128            0.552104873     0.799272526   0.000388857284 -0.000318553153   0.000388857285 -0.000318553154       0.55642171     0.796111183
12.662156            0.552625916      0.79888024   0.000389334563 -0.000319401359   0.000389334563  -0.00031940136       0.55694433     0.795713094
12.662184            0.553147184     0.798487217   0.000389812146 -0.000320251904   0.000389812146 -0.000320251905      0.557467171     0.795314255
12.662212            0.553668674     0.798093455   0.000390290031 -0.000321104795   0.000390290032 -0.000321104796      0.557990234     0.794914667
12.66224             0.554190388     0.797698954   0.000390768218 -0.000321960039   0.000390768219  -0.00032196004      0.558513518     0.794514328
12.662268            0.554712324     0.797303711   0.000391246704 -0.000322817642   0.000391246705 -0.000322817643      0.559037022     0.794113236
12.662296            0.555234483     0.796907725   0.000391725487 -0.000323677611   0.000391725488 -0.000323677612      0.559560746     0.793711389
12.662324            0.555756864     0.796510995   0.000392204566 -0.000324539953   0.000392204566 -0.000324539954      0.560084691     0.793308787
12.662352            0.556279467     0.796113519   0.000392683937 -0.000325404675   0.000392683938 -0.000325404676      0.560608856     0.792905428
12.66238             0.556802292     0.795715296     0.0003931636 -0.000326271783     0.0003931636 -0.000326271784       0.56113324     0.792501311
12.662408            0.557325338     0.795316324   0.000393643552 -0.000327141284   0.000393643553 -0.000327141285      0.561657843     0.792096433
12.662436            0.557848604     0.794916603   0.000394123792 -0.000328013185   0.000394123792 -0.000328013186      0.562182665     0.791690793
12.662464            0.558372092     0.794516129   0.000394604317 -0.000328887493   0.000394604317 -0.000328887494      0.562707705     0.791284391
12.662492              0.5588958     0.794114903   0.000395085125 -0.000329764215   0.000395085126 -0.000329764216      0.563232964     0.790877224
12.66252             0.559419728     0.793712922   0.000395566215 -0.000330643357   0.000395566215 -0.000330643358       0.56375844     0.790469291
12.662548            0.559943875     0.793310185   0.000396047583 -0.000331524927   0.000396047584 -0.000331524927      0.564284134      0.79006059
12.662576            0.560468242     0.792906691   0.000396529229  -0.00033240893   0.000396529229 -0.000332408931      0.564810045      0.78965112
12.662604            0.560992829     0.792502438    0.00039701115 -0.000333295375    0.00039701115 -0.000333295376      0.565336173      0.78924088
12.662632            0.561517634     0.792097425   0.000397493344 -0.000334184269   0.000397493344 -0.000334184269      0.565862518     0.788829868
12.66266             0.562042657      0.79169165   0.000397975808 -0.000335075617   0.000397975808 -0.000335075618      0.566389079     0.788418082
12.662688            0.562567899     0.791285111   0.000398458541 -0.000335969428   0.000398458542 -0.000335969428      0.566915855     0.788005521
12.662716            0.563093359     0.790877807   0.000398941541 -0.000336865707   0.000398941541 -0.000336865708      0.567442847     0.787592184
12.662744            0.563619036     0.790469738   0.000399424805 -0.000337764463   0.000399424805 -0.000337764463      0.567970055     0.787178068
12.662772             0.56414493       0.7900609    0.00039990833 -0.000338665702   0.000399908331 -0.000338665702      0.568497477     0.786763173
12.6628              0.564671042     0.789651293   0.000400392116 -0.000339569431   0.000400392117 -0.000339569431      0.569025113     0.786347497
12.662828            0.565197369     0.789240915    0.00040087616 -0.000340475657    0.00040087616 -0.000340475658      0.569552964     0.785931038
12.662856            0.565723913     0.788829765   0.000401360458 -0.000341384388   0.000401360459 -0.000341384389      0.570081029     0.785513795
12.662884            0.566250673     0.788417841    0.00040184501  -0.00034229563   0.000401845011 -0.000342295631      0.570609307     0.785095766
12.662912            0.566777649     0.788005142   0.000402329813 -0.000343209391   0.000402329813 -0.000343209392      0.571137798      0.78467695
12.66294             0.567304839     0.787591666   0.000402814864 -0.000344125678   0.000402814865 -0.000344125679      0.571666501     0.784257345
12.662968            0.567832245     0.787177411   0.000403300162 -0.000345044498   0.000403300162 -0.000345044499      0.572195417      0.78383695
12.662996            0.568359865     0.786762377   0.000403785703 -0.000345965858   0.000403785703 -0.000345965858      0.572724545     0.783415763
12.663024            0.568887699     0.786346561   0.000404271486 -0.000346889765   0.000404271486 -0.000346889766      0.573253885     0.782993782
12.663052            0.569415747     0.785929962   0.000404757507 -0.000347816227   0.000404757508 -0.000347816228      0.573783436     0.782571006
12.66308             0.569944009     0.785512579   0.000405243766 -0.000348745251   0.000405243766 -0.000348745251      0.574313198     0.782147434
12.663108            0.570472483     0.785094409   0.000405730259 -0.000349676844   0.000405730259 -0.000349676844       0.57484317     0.781723064
12.663136             0.57100117     0.784675453   0.000406216983 -0.000350611013   0.000406216984 -0.000350611014      0.575373352     0.781297894
12.663164             0.57153007     0.784255707   0.000406703937 -0.000351547766   0.000406703938 -0.000351547767      0.575903744     0.780871923
12.663192            0.572059182      0.78383517   0.000407191118  -0.00035248711   0.000407191119 -0.000352487111      0.576434345     0.780445149
12.66322             0.572588505     0.783413841   0.000407678524 -0.000353429053   0.000407678524 -0.000353429054      0.576965155      0.78001757
12.663248            0.573118039     0.782991719   0.000408166151 -0.000354373601   0.000408166152 -0.000354373602      0.577496174     0.779589186
12.663276            0.573647785     0.782568801   0.000408653998 -0.000355320763   0.000408653998 -0.000355320763      0.578027401     0.779159994
12.663304            0.574177741     0.782145086   0.000409142061 -0.000356270545   0.000409142062 -0.000356270545      0.578558836     0.778729993
12.663332            0.574707907     0.781720573   0.000409630339 -0.000357222955    0.00040963034 -0.000357222956      0.579090478     0.778299181
12.66336             0.575238283      0.78129526   0.000410118829 -0.000358178001   0.000410118829 -0.000358178001      0.579622327     0.777867557
12.663388            0.575768868     0.780869146   0.000410607527 -0.000359135689   0.000410607528  -0.00035913569      0.580154383     0.777435119
12.663416            0.576299662     0.780442228   0.000411096432 -0.000360096028   0.000411096433 -0.000360096029      0.580686644     0.777001866
12.663444            0.576830665     0.780014506   0.000411585541 -0.000361059025   0.000411585542 -0.000361059025      0.581219112     0.776567795
12.663472            0.577361876     0.779585977   0.000412074851 -0.000362024687   0.000412074851 -0.000362024688      0.581751785     0.776132906
12.6635              0.577893295      0.77915664   0.000412564359 -0.000362993022    0.00041256436 -0.000362993023      0.582284662     0.775697196
