! TOUCHSTONE file generated by CST MICROWAVE STUDIO
! Date and time: Wed Jul 31 20:34:26 2024
! Project name: WaveGuide_BPF-Ver4.1_U-shape_Ku_T3_C4_CWA_2.cst
! Parameters = {cavity_h=16; cavity_l0=10; cavity_l1=15.2194; cavity_l2=16.8724; cavity_l3=17.0619; cavity_l4=17.294; cavity_l5=17.1156; cavity_l6=17.6397; cavity_r=2.5; cavity_screw_l=0.5; cavity_screw_r=1.5; cavity_w=8; iris_h00=0; iris_h01=8.8158; iris_h112=0; iris_h12=5.5908; iris_h211=3.6583; iris_h23=5.1943; iris_h310=3.978; iris_h34=5.0718; iris_h45=4.9344; iris_h49=4.6183; iris_h56=4.7911; iris_h58=4.448; iris_h67=6.5842; iris_rx=0.1; iris_screw_l=0.5; iris_screw_r=1.5; iris_shift00=0; iris_shift112=0; iris_shift211=3.5; iris_shift310=0; iris_shift49=0; iris_shift58=3.5; iris_shift67=3.5; iris_tx=4.5; iris_tz=4.5; iris_w00=0; iris_w112=0; iris_w211=4; iris_w310=3.978; iris_w49=4.6183; iris_w58=4; iris_w67=4; mesh_cavity=5; mesh_iris=7; mesh_screw=7; order=12; reset_all=0; sigma=4.8e+07}
! Header version: 2018
! Port assignment regex: !\s*Touchstone port\s*([0-9]+)\s*=\s*(CST MWS port|CST DS port)\s*([0-9]+|Zmin|Zmax)\s*\(\"(.*)\"\)(\s*mode\s*([0-9]+))?.*
! Touchstone port assignment:
! Touchstone port 1 = CST MWS port 1 ("")
! Touchstone port 2 = CST MWS port 2 ("")
# GHz S RI R 50
12.66                0.388118039      0.89780765   0.000324329048 -0.000171033083   0.000324329049 -0.000171033084      0.388821598     0.897577913
12.660028            0.388564644     0.897595292   0.000324810327 -0.000171509645   0.000324810327 -0.000171509645      0.389267085     0.897365712
12.660056            0.389011548     0.897382505   0.000325292359 -0.000171987593   0.000325292359 -0.000171987593      0.389712841     0.897153096
12.660084            0.389458735     0.897169294   0.000325775148 -0.000172466928   0.000325775149 -0.000172466929      0.390158865     0.896940064
12.660112            0.389906193     0.896955664   0.000326258698 -0.000172947654   0.000326258698 -0.000172947655      0.390605154     0.896726616
12.66014             0.390353908     0.896741619   0.000326743012 -0.000173429773   0.000326743012 -0.000173429773      0.391051708     0.896512751
12.660168             0.39080188      0.89652716   0.000327228091 -0.000173913288   0.000327228091 -0.000173913289      0.391498525      0.89629847
12.660196            0.391250119      0.89631228   0.000327713934 -0.000174398206   0.000327713935 -0.000174398207      0.391945608     0.896083771
12.660224            0.391698624     0.896096981   0.000328200543 -0.000174884532   0.000328200544 -0.000174884532      0.392392957     0.895868653
12.660252            0.392147396      0.89588126   0.000328687919 -0.000175372269   0.000328687919 -0.000175372269      0.392840572     0.895653115
12.66028             0.392596435     0.895665118   0.000329176061 -0.000175861422   0.000329176062 -0.000175861422      0.393288452     0.895437156
12.660308            0.393045741     0.895448552   0.000329664972 -0.000176351995   0.000329664973 -0.000176351995      0.393736599     0.895220777
12.660336            0.393495314     0.895231563   0.000330154653 -0.000176843993   0.000330154653 -0.000176843994      0.394185012     0.895003974
12.660364            0.393945154     0.895014149   0.000330645103 -0.000177337421   0.000330645103 -0.000177337421      0.394633691     0.894786749
12.660392            0.394395262     0.894796309   0.000331136324 -0.000177832283   0.000331136325 -0.000177832283      0.395082636       0.8945691
12.66042             0.394845637     0.894578044   0.000331628318 -0.000178328583   0.000331628319 -0.000178328584      0.395531849     0.894351026
12.660448            0.395296279     0.894359352   0.000332121085 -0.000178826327   0.000332121085 -0.000178826327      0.395981327     0.894132527
12.660476            0.395747189     0.894140231   0.000332614625 -0.000179325518   0.000332614626 -0.000179325518      0.396431073     0.893913601
12.660504            0.396198368     0.893920683   0.000333108941 -0.000179826161   0.000333108941 -0.000179826161      0.396881086     0.893694248
12.660532            0.396649814     0.893700704   0.000333604032 -0.000180328261   0.000333604033 -0.000180328261      0.397331365     0.893474467
12.66056             0.397101528     0.893480295   0.000334099901 -0.000180831822   0.000334099901 -0.000180831822      0.397781912     0.893254258
12.660588             0.39755351     0.893259455   0.000334596547 -0.000181336849   0.000334596547 -0.000181336849      0.398232726     0.893033618
12.660616            0.398005761     0.893038184   0.000335093972 -0.000181843347   0.000335093972 -0.000181843347      0.398683808     0.892812548
12.660644            0.398458281     0.892816479   0.000335592176  -0.00018235132   0.000335592177  -0.00018235132      0.399135157     0.892591047
12.660672            0.398911069      0.89259434   0.000336091162 -0.000182860773   0.000336091162 -0.000182860773      0.399586774     0.892369114
12.6607              0.399364125     0.892371767   0.000336590928  -0.00018337171   0.000336590929  -0.00018337171      0.400038659     0.892146747
12.660728            0.399817451     0.892148759   0.000337091478 -0.000183884137   0.000337091478 -0.000183884137      0.400490812     0.891923947
12.660756            0.400271046     0.891925314    0.00033759281 -0.000184398058   0.000337592811 -0.000184398058      0.400943233     0.891700712
12.660784            0.400724909     0.891701432   0.000338094927 -0.000184913477   0.000338094928 -0.000184913477      0.401395922     0.891477041
12.660812            0.401179042     0.891477112    0.00033859783   -0.0001854304    0.00033859783 -0.000185430401      0.401848879     0.891252934
12.66084             0.401633445     0.891252354   0.000339101518 -0.000185948832   0.000339101519 -0.000185948832      0.402302105      0.89102839
12.660868            0.402088116     0.891027155   0.000339605994 -0.000186468776   0.000339605995 -0.000186468776        0.4027556     0.890803407
12.660896            0.402543058     0.890801517   0.000340111258 -0.000186990238   0.000340111259 -0.000186990238      0.403209363     0.890577986
12.660924            0.402998269     0.890575436   0.000340617311 -0.000187513223   0.000340617312 -0.000187513223      0.403663395     0.890352124
12.660952             0.40345375     0.890348914   0.000341124154 -0.000188037735   0.000341124155 -0.000188037735      0.404117696     0.890125822
12.66098             0.403909501     0.890121948   0.000341631788 -0.000188563779   0.000341631788  -0.00018856378      0.404572266     0.889899079
12.661008            0.404365522     0.889894539   0.000342140214 -0.000189091361   0.000342140214 -0.000189091361      0.405027105     0.889671893
12.661036            0.404821813     0.889666684   0.000342649432 -0.000189620485   0.000342649432 -0.000189620485      0.405482213     0.889444263
12.661064            0.405278375     0.889438384   0.000343159444 -0.000190151155   0.000343159445 -0.000190151155      0.405937591      0.88921619
12.661092            0.405735207     0.889209637   0.000343670251 -0.000190683378   0.000343670251 -0.000190683378      0.406393238     0.888987671
12.66112             0.406192309     0.888980443   0.000344181853 -0.000191217157   0.000344181853 -0.000191217157      0.406849156     0.888758707
12.661148            0.406649682       0.8887508   0.000344694251 -0.000191752498   0.000344694252 -0.000191752498      0.407305342     0.888529295
12.661176            0.407107326     0.888520708   0.000345207447 -0.000192289405   0.000345207448 -0.000192289406      0.407761799     0.888299437
12.661204            0.407565241     0.888290166   0.000345721441 -0.000192827885   0.000345721442 -0.000192827885      0.408218526     0.888069129
12.661232            0.408023427     0.888059173   0.000346236235  -0.00019336794   0.000346236235 -0.000193367941      0.408675523     0.887838372
12.66126             0.408481885     0.887827728   0.000346751828 -0.000193909578   0.000346751829 -0.000193909578       0.40913279     0.887607165
12.661288            0.408940613      0.88759583   0.000347268222 -0.000194452802   0.000347268223 -0.000194452802      0.409590327     0.887375507
12.661316            0.409399613     0.887363479   0.000347785419 -0.000194997618   0.000347785419 -0.000194997618      0.410048135     0.887143396
12.661344            0.409858884     0.887130673   0.000348303418 -0.000195544031   0.000348303418 -0.000195544031      0.410506214     0.886910833
12.661372            0.410318427     0.886897411    0.00034882222 -0.000196092046   0.000348822221 -0.000196092046      0.410964563     0.886677815
12.6614              0.410778242     0.886663693   0.000349341828 -0.000196641667   0.000349341828 -0.000196641668      0.411423183     0.886444343
12.661428            0.411238328     0.886429518    0.00034986224 -0.000197192901   0.000349862241 -0.000197192901      0.411882074     0.886210416
12.661456            0.411698686     0.886194885   0.000350383459 -0.000197745752    0.00035038346 -0.000197745752      0.412341236     0.885976032
12.661484            0.412159317     0.885959793   0.000350905486 -0.000198300225   0.000350905486 -0.000198300226      0.412800669      0.88574119
12.661512            0.412620219      0.88572424    0.00035142832 -0.000198856326   0.000351428321 -0.000198856327      0.413260374      0.88550589
12.66154             0.413081394     0.885488227   0.000351951964  -0.00019941406   0.000351951964  -0.00019941406      0.413720349     0.885270131
12.661568            0.413542842     0.885251752   0.000352476417 -0.000199973432   0.000352476418 -0.000199973432      0.414180597     0.885033911
12.661596            0.414004561     0.885014815   0.000353001681 -0.000200534447   0.000353001682 -0.000200534447      0.414641115     0.884797231
12.661624            0.414466554     0.884777413   0.000353527757  -0.00020109711   0.000353527758  -0.00020109711      0.415101906     0.884560089
12.661652            0.414928819     0.884539547   0.000354054646 -0.000201661427   0.000354054646 -0.000201661427      0.415562969     0.884322484
12.66168             0.415391357     0.884301216   0.000354582348 -0.000202227403   0.000354582348 -0.000202227403      0.416024303     0.884084415
12.661708            0.415854168     0.884062419   0.000355110864 -0.000202795043   0.000355110865 -0.000202795043      0.416485909     0.883845881
12.661736            0.416317252     0.883823154   0.000355640196 -0.000203364353   0.000355640196 -0.000203364353      0.416947788     0.883606881
12.661764            0.416780609      0.88358342   0.000356170343 -0.000203935337   0.000356170344 -0.000203935338      0.417409938     0.883367416
12.661792            0.417244239     0.883343218   0.000356701308 -0.000204508002   0.000356701308 -0.000204508003      0.417872362     0.883127482
12.66182             0.417708143     0.883102546    0.00035723309 -0.000205082353    0.00035723309 -0.000205082353      0.418335057     0.882887081
12.661848             0.41817232     0.882861403   0.000357765691 -0.000205658394   0.000357765691 -0.000205658395      0.418798025      0.88264621
12.661876            0.418636771     0.882619787   0.000358299111 -0.000206236132   0.000358299112 -0.000206236133      0.419261266     0.882404868
12.661904            0.419101495     0.882377699   0.000358833352 -0.000206815572   0.000358833353 -0.000206815573       0.41972478     0.882163056
12.661932            0.419566494     0.882135137   0.000359368414 -0.000207396719   0.000359368415  -0.00020739672      0.420188566     0.881920771
12.66196             0.420031766     0.881892101   0.000359904299 -0.000207979579   0.000359904299  -0.00020797958      0.420652626     0.881678014
12.661988            0.420497312     0.881648588   0.000360441006 -0.000208564157   0.000360441006 -0.000208564158      0.421116958     0.881434782
12.662016            0.420963132     0.881404599   0.000360978537 -0.000209150459   0.000360978537  -0.00020915046      0.421581564     0.881191076
12.662044            0.421429227     0.881160133   0.000361516892 -0.000209738491   0.000361516893 -0.000209738491      0.422046443     0.880946894
12.662072            0.421895595     0.880915188   0.000362056073 -0.000210328256   0.000362056074 -0.000210328257      0.422511595     0.880702234
12.6621              0.422362238     0.880669763    0.00036259608 -0.000210919763   0.000362596081 -0.000210919763      0.422977021     0.880457098
12.662128            0.422829156     0.880423858   0.000363136915 -0.000211513015   0.000363136915 -0.000211513015      0.423442721     0.880211482
12.662156            0.423296348     0.880177472   0.000363678577 -0.000212108019   0.000363678578 -0.000212108019      0.423908694     0.879965387
12.662184            0.423763815     0.879930603   0.000364221069  -0.00021270478   0.000364221069  -0.00021270478      0.424374941     0.879718811
12.662212            0.424231557     0.879683251    0.00036476439 -0.000213303304    0.00036476439 -0.000213303304      0.424841462     0.879471754
12.66224             0.424699574     0.879435415   0.000365308541 -0.000213903596   0.000365308542 -0.000213903596      0.425308257     0.879224214
12.662268            0.425167865     0.879187094   0.000365853524 -0.000214505662   0.000365853524 -0.000214505663      0.425775326     0.878976191
12.662296            0.425636432     0.878938286   0.000366399338 -0.000215109508   0.000366399339 -0.000215109509      0.426242669     0.878727683
12.662324            0.426105274     0.878688991   0.000366945986  -0.00021571514   0.000366945987  -0.00021571514      0.426710286      0.87847869
12.662352            0.426574391     0.878439208   0.000367493468 -0.000216322563   0.000367493468 -0.000216322563      0.427178178     0.878229211
12.66238             0.427043783     0.878188937   0.000368041784 -0.000216931783   0.000368041784 -0.000216931783      0.427646344     0.877979244
12.662408            0.427513451     0.877938175   0.000368590935 -0.000217542806   0.000368590936 -0.000217542806      0.428114785     0.877728789
12.662436            0.427983395     0.877686921   0.000369140923 -0.000218155637   0.000369140923 -0.000218155638      0.428583501     0.877477845
12.662464            0.428453614     0.877435176   0.000369691747 -0.000218770283   0.000369691748 -0.000218770283      0.429052491      0.87722641
12.662492            0.428924109     0.877182938   0.000370243409 -0.000219386749    0.00037024341  -0.00021938675      0.429521756     0.876974484
12.66252              0.42939488     0.876930206    0.00037079591 -0.000220005041   0.000370795911 -0.000220005042      0.429991296     0.876722067
12.662548            0.429865926     0.876676979    0.00037134925 -0.000220625166   0.000371349251 -0.000220625166      0.430461111     0.876469155
12.662576            0.430337249     0.876423256    0.00037190343 -0.000221247128   0.000371903431 -0.000221247128      0.430931202      0.87621575
12.662604            0.430808848     0.876169036   0.000372458452 -0.000221870933   0.000372458452 -0.000221870934      0.431401567      0.87596185
12.662632            0.431280723     0.875914318   0.000373014315 -0.000222496589   0.000373014315 -0.000222496589      0.431872208     0.875707453
12.66266             0.431752874     0.875659101    0.00037357102   -0.0002231241    0.00037357102   -0.0002231241      0.432343124      0.87545256
12.662688            0.432225302     0.875403385   0.000374128568 -0.000223753473   0.000374128569 -0.000223753473      0.432814315     0.875197168
12.662716            0.432698006     0.875147167   0.000374686961 -0.000224384714   0.000374686962 -0.000224384714      0.433285782     0.874941277
12.662744            0.433170987     0.874890447   0.000375246198 -0.000225017828   0.000375246199 -0.000225017828      0.433757525     0.874684886
12.662772            0.433644244     0.874633225   0.000375806281 -0.000225652822   0.000375806282 -0.000225652822      0.434229544     0.874427994
12.6628              0.434117778     0.874375498   0.000376367211 -0.000226289701   0.000376367211 -0.000226289702      0.434701838       0.8741706
12.662828            0.434591589     0.874117267   0.000376928987 -0.000226928473   0.000376928988 -0.000226928473      0.435174408     0.873912702
12.662856            0.435065676     0.873858529   0.000377491611 -0.000227569143   0.000377491612 -0.000227569143      0.435647254     0.873654301
12.662884            0.435540041     0.873599285   0.000378055084 -0.000228211716   0.000378055084 -0.000228211716      0.436120377     0.873395394
12.662912            0.436014683     0.873339532   0.000378619406   -0.0002288562   0.000378619406   -0.0002288562      0.436593775     0.873135981
12.66294             0.436489602     0.873079271   0.000379184578   -0.0002295026   0.000379184578 -0.000229502601       0.43706745     0.872876062
12.662968            0.436964798     0.872818499   0.000379750601 -0.000230150923   0.000379750601 -0.000230150924      0.437541401     0.872615634
12.662996            0.437440271     0.872557216   0.000380317475 -0.000230801175   0.000380317476 -0.000230801175      0.438015628     0.872354696
12.663024            0.437916022     0.872295422   0.000380885202 -0.000231453362   0.000380885202 -0.000231453362      0.438490132     0.872093249
12.663052             0.43839205     0.872033114   0.000381453781  -0.00023210749   0.000381453782  -0.00023210749      0.438964913      0.87183129
12.66308             0.438868356     0.871770292   0.000382023215 -0.000232763566   0.000382023215 -0.000232763566       0.43943997     0.871568819
12.663108            0.439344939     0.871506955   0.000382593502 -0.000233421595   0.000382593503 -0.000233421595      0.439915304     0.871305835
12.663136              0.4398218     0.871243101   0.000383164645 -0.000234081585   0.000383164646 -0.000234081585      0.440390914     0.871042336
12.663164            0.440298939      0.87097873   0.000383736644 -0.000234743541   0.000383736644 -0.000234743541      0.440866802     0.870778322
12.663192            0.440776356     0.870713841   0.000384309499  -0.00023540747   0.000384309499 -0.000235407471      0.441342966     0.870513792
12.66322              0.44125405     0.870448433   0.000384883211 -0.000236073379   0.000384883212 -0.000236073379      0.441819408     0.870248744
12.663248            0.441732023     0.870182504   0.000385457782 -0.000236741273   0.000385457782 -0.000236741273      0.442296126     0.869983178
12.663276            0.442210274     0.869916054   0.000386033211 -0.000237411159   0.000386033211  -0.00023741116      0.442773122     0.869717092
12.663304            0.442688802     0.869649081   0.000386609499 -0.000238083044   0.000386609499 -0.000238083044      0.443250395     0.869450486
12.663332            0.443167609     0.869381585   0.000387186647 -0.000238756934   0.000387186648 -0.000238756934      0.443727945     0.869183358
12.66336             0.443646694     0.869113564   0.000387764656 -0.000239432836   0.000387764657 -0.000239432836      0.444205773     0.868915707
12.663388            0.444126058     0.868845018   0.000388343527 -0.000240110755   0.000388343527 -0.000240110755      0.444683878     0.868647533
12.663416              0.4446057     0.868575945   0.000388923259 -0.000240790699   0.000388923259   -0.0002407907      0.445162261     0.868378834
12.663444            0.445085621     0.868306344   0.000389503854 -0.000241472675   0.000389503854 -0.000241472675      0.445640921     0.868109609
12.663472             0.44556582     0.868036214   0.000390085312 -0.000242156688   0.000390085313 -0.000242156688      0.446119859     0.867839857
12.6635              0.446046297     0.867765554   0.000390667634 -0.000242842746   0.000390667635 -0.000242842746      0.446599074     0.867569577
