! TOUCHSTONE file generated by CST MICROWAVE STUDIO
! Date and time: Wed Jul 31 20:44:03 2024
! Project name: WaveGuide_BPF-Ver4.1_U-shape_Ku_T3_C4_CWA_2.cst
! Parameters = {cavity_h=16; cavity_l0=10; cavity_l1=15.1944; cavity_l2=16.8119; cavity_l3=17.1399; cavity_l4=17.2427; cavity_l5=17.1623; cavity_l6=17.6262; cavity_r=2.5; cavity_screw_l=0.5; cavity_screw_r=1.5; cavity_w=8; iris_h00=0; iris_h01=8.8237; iris_h112=0; iris_h12=5.5867; iris_h211=3.6587; iris_h23=5.2097; iris_h310=3.9751; iris_h34=5.0764; iris_h45=4.9322; iris_h49=4.623; iris_h56=4.7958; iris_h58=4.4476; iris_h67=6.5893; iris_rx=0.1; iris_screw_l=0.5; iris_screw_r=1.5; iris_shift00=0; iris_shift112=0; iris_shift211=3.5; iris_shift310=0; iris_shift49=0; iris_shift58=3.5; iris_shift67=3.5; iris_tx=4.5; iris_tz=4.5; iris_w00=0; iris_w112=0; iris_w211=4; iris_w310=3.9751; iris_w49=4.623; iris_w58=4; iris_w67=4; mesh_cavity=5; mesh_iris=7; mesh_screw=7; order=12; reset_all=0; sigma=4.8e+07}
! Header version: 2018
! Port assignment regex: !\s*Touchstone port\s*([0-9]+)\s*=\s*(CST MWS port|CST DS port)\s*([0-9]+|Zmin|Zmax)\s*\(\"(.*)\"\)(\s*mode\s*([0-9]+))?.*
! Touchstone port assignment:
! Touchstone port 1 = CST MWS port 1 ("")
! Touchstone port 2 = CST MWS port 2 ("")
# GHz S RI R 50
12.66                0.297248708     0.936176817    0.00016023741 -6.29519246e-05   0.000160237409 -6.29519246e-05      0.306163548     0.933229743
12.660028            0.297621832     0.936046239   0.000160435428  -6.3107722e-05   0.000160435427  -6.3107722e-05      0.306538829     0.933094371
12.660056            0.297995155     0.935915417   0.000160633709  -6.3263884e-05   0.000160633709 -6.32638839e-05      0.306914203     0.932958781
12.660084            0.298368681     0.935784349   0.000160832251  -6.3420415e-05   0.000160832251 -6.34204149e-05      0.307289718      0.93282296
12.660112            0.298742409     0.935653033   0.000161031051 -6.35773196e-05   0.000161031051 -6.35773195e-05      0.307665421      0.93268689
12.66014             0.299116343      0.93552147   0.000161230106 -6.37346023e-05   0.000161230106 -6.37346023e-05       0.30804136     0.932550557
12.660168            0.299490482     0.935389659   0.000161429417 -6.38922641e-05   0.000161429417  -6.3892264e-05      0.308417535      0.93241396
12.660196            0.299864826     0.935257599   0.000161628986 -6.40503035e-05   0.000161628986 -6.40503034e-05      0.308793915     0.932277109
12.660224            0.300239374     0.935125291   0.000161828812 -6.42087214e-05   0.000161828812 -6.42087213e-05      0.309170499     0.932140002
12.660252            0.300614127     0.934992734   0.000162028897 -6.43675187e-05   0.000162028897 -6.43675187e-05      0.309547289     0.932002641
12.66028             0.300989084     0.934859927    0.00016222924 -6.45266965e-05    0.00016222924 -6.45266964e-05      0.309924283     0.931865024
12.660308            0.301364246      0.93472687   0.000162429842 -6.46862555e-05   0.000162429842 -6.46862555e-05      0.310301482     0.931727151
12.660336            0.301739613     0.934593562   0.000162630703 -6.48461969e-05   0.000162630703 -6.48461968e-05      0.310678887     0.931589021
12.660364            0.302115186     0.934460004   0.000162831823 -6.50065215e-05   0.000162831823 -6.50065214e-05      0.311056497     0.931450635
12.660392            0.302490963     0.934326195   0.000163033203 -6.51672302e-05   0.000163033203 -6.51672302e-05      0.311434312     0.931311991
12.66042             0.302866946     0.934192134   0.000163234842 -6.53283241e-05   0.000163234842 -6.53283241e-05      0.311812333      0.93117309
12.660448            0.303243135     0.934057821   0.000163436742 -6.54898041e-05   0.000163436742  -6.5489804e-05       0.31219056      0.93103393
12.660476            0.303619529     0.933923255   0.000163638902 -6.56516711e-05   0.000163638901 -6.56516711e-05      0.312568992     0.930894512
12.660504            0.303996128     0.933788437   0.000163841322 -6.58139261e-05   0.000163841322 -6.58139261e-05      0.312947631     0.930754835
12.660532            0.304372934     0.933653365   0.000164044002 -6.59765701e-05   0.000164044002   -6.597657e-05      0.313326475     0.930614898
12.66056             0.304749946     0.933518039   0.000164246944 -6.61396039e-05   0.000164246944 -6.61396039e-05      0.313705526     0.930474701
12.660588            0.305127164      0.93338246   0.000164450147 -6.63030287e-05   0.000164450147 -6.63030286e-05      0.314084783     0.930334244
12.660616            0.305504588     0.933246625   0.000164653612 -6.64668453e-05   0.000164653612 -6.64668452e-05      0.314464246     0.930193526
12.660644            0.305882218     0.933110536   0.000164857338 -6.66310547e-05   0.000164857338 -6.66310546e-05      0.314843916     0.930052547
12.660672            0.306260055     0.932974191   0.000165061326 -6.67956579e-05   0.000165061326 -6.67956579e-05      0.315223793     0.929911307
12.6607              0.306638098      0.93283759   0.000165265577 -6.69606559e-05   0.000165265577 -6.69606558e-05      0.315603877     0.929769804
12.660728            0.307016349     0.932700733    0.00016547009 -6.71260496e-05    0.00016547009 -6.71260496e-05      0.315984167     0.929628039
12.660756            0.307394806     0.932563619   0.000165674865 -6.72918401e-05   0.000165674865   -6.729184e-05      0.316364665      0.92948601
12.660784             0.30777347     0.932426248   0.000165879904 -6.74580282e-05   0.000165879904 -6.74580282e-05      0.316745369     0.929343719
12.660812            0.308152341     0.932288619   0.000166085206 -6.76246151e-05   0.000166085206  -6.7624615e-05      0.317126281     0.929201163
12.66084              0.30853142     0.932150732   0.000166290771 -6.77916016e-05   0.000166290771 -6.77916015e-05      0.317507401     0.929058343
12.660868            0.308910706     0.932012587     0.0001664966 -6.79589888e-05     0.0001664966 -6.79589887e-05      0.317888727     0.928915259
12.660896              0.3092902     0.931874183   0.000166702692 -6.81267776e-05   0.000166702692 -6.81267776e-05      0.318270262     0.928771909
12.660924            0.309669901     0.931735519   0.000166909049 -6.82949691e-05   0.000166909049 -6.82949691e-05      0.318652004     0.928628293
12.660952             0.31004981     0.931596596   0.000167115671 -6.84635643e-05   0.000167115671 -6.84635642e-05      0.319033955     0.928484412
12.66098             0.310429927     0.931457412   0.000167322557 -6.86325641e-05   0.000167322557  -6.8632564e-05      0.319416113     0.928340264
12.661008            0.310810252     0.931317968   0.000167529708 -6.88019696e-05   0.000167529708 -6.88019695e-05       0.31979848     0.928195849
12.661036            0.311190785     0.931178262   0.000167737124 -6.89717817e-05   0.000167737124 -6.89717816e-05      0.320181054     0.928051166
12.661064            0.311571526     0.931038295   0.000167944805 -6.91420015e-05   0.000167944805 -6.91420014e-05      0.320563838     0.927906216
12.661092            0.311952476     0.930898066   0.000168152752 -6.93126299e-05   0.000168152752 -6.93126299e-05      0.320946829     0.927760997
12.66112             0.312333634     0.930757575   0.000168360965 -6.94836681e-05   0.000168360965  -6.9483668e-05       0.32133003     0.927615509
12.661148            0.312715001     0.930616821   0.000168569444 -6.96551169e-05   0.000168569444 -6.96551168e-05      0.321713439     0.927469752
12.661176            0.313096576     0.930475803   0.000168778189 -6.98269775e-05   0.000168778189 -6.98269774e-05      0.322097057     0.927323726
12.661204            0.313478361     0.930334522   0.000168987201 -6.99992507e-05   0.000168987201 -6.99992507e-05      0.322480884     0.927177429
12.661232            0.313860355     0.930192976    0.00016919648 -7.01719378e-05    0.00016919648 -7.01719377e-05       0.32286492     0.927030862
12.66126             0.314242557     0.930051166   0.000169406026 -7.03450396e-05   0.000169406026 -7.03450396e-05      0.323249166     0.926884024
12.661288             0.31462497      0.92990909   0.000169615839 -7.05185573e-05   0.000169615839 -7.05185572e-05       0.32363362     0.926736914
12.661316            0.315007591     0.929766749   0.000169825919 -7.06924917e-05   0.000169825919 -7.06924917e-05      0.324018285     0.926589532
12.661344            0.315390422     0.929624142   0.000170036267 -7.08668441e-05   0.000170036267  -7.0866844e-05      0.324403159     0.926441878
12.661372            0.315773463     0.929481269   0.000170246884 -7.10416154e-05   0.000170246884 -7.10416153e-05      0.324788242      0.92629395
12.6614              0.316156713     0.929338128   0.000170457768 -7.12168066e-05   0.000170457768 -7.12168065e-05      0.325173536      0.92614575
12.661428            0.316540174      0.92919472   0.000170668921 -7.13924187e-05   0.000170668921 -7.13924187e-05      0.325559039     0.925997276
12.661456            0.316923844     0.929051045   0.000170880343  -7.1568453e-05   0.000170880343 -7.15684529e-05      0.325944753     0.925848527
12.661484            0.317307725     0.928907101   0.000171092033 -7.17449102e-05   0.000171092033 -7.17449102e-05      0.326330677     0.925699503
12.661512            0.317691816     0.928762889   0.000171303993 -7.19217916e-05   0.000171303993 -7.19217916e-05      0.326716811     0.925550205
12.66154             0.318076117     0.928618407   0.000171516222 -7.20990982e-05   0.000171516222 -7.20990982e-05      0.327103156      0.92540063
12.661568            0.318460629     0.928473655   0.000171728721  -7.2276831e-05   0.000171728721 -7.22768309e-05      0.327489711      0.92525078
12.661596            0.318845351     0.928328634   0.000171941489 -7.24549911e-05   0.000171941489  -7.2454991e-05      0.327876477     0.925100653
12.661624            0.319230285     0.928183342   0.000172154528 -7.26335795e-05   0.000172154528 -7.26335794e-05      0.328263454     0.924950248
12.661652            0.319615429     0.928037779   0.000172367837 -7.28125973e-05   0.000172367837 -7.28125972e-05      0.328650642     0.924799567
12.66168             0.320000784     0.927891944   0.000172581416 -7.29920455e-05   0.000172581416 -7.29920454e-05      0.329038041     0.924648607
12.661708             0.32038635     0.927745838   0.000172795266 -7.31719253e-05   0.000172795266 -7.31719252e-05      0.329425651     0.924497368
12.661736            0.320772128     0.927599459   0.000173009387 -7.33522376e-05   0.000173009387 -7.33522376e-05      0.329813472     0.924345851
12.661764            0.321158117     0.927452807    0.00017322378 -7.35329837e-05    0.00017322378 -7.35329836e-05      0.330201505     0.924194054
12.661792            0.321544318     0.927305882   0.000173438444 -7.37141644e-05   0.000173438444 -7.37141644e-05      0.330589749     0.924041978
12.66182              0.32193073     0.927158684   0.000173653379  -7.3895781e-05   0.000173653379  -7.3895781e-05      0.330978205     0.923889621
12.661848            0.322317355      0.92701121   0.000173868586 -7.40778345e-05   0.000173868586 -7.40778344e-05      0.331366873     0.923736983
12.661876            0.322704191     0.926863463   0.000174084066 -7.42603259e-05   0.000174084066 -7.42603259e-05      0.331755753     0.923584063
12.661904            0.323091239      0.92671544   0.000174299818 -7.44432564e-05   0.000174299818 -7.44432564e-05      0.332144845     0.923430862
12.661932            0.323478499     0.926567141   0.000174515842 -7.46266271e-05   0.000174515842  -7.4626627e-05      0.332534149     0.923277379
12.66196             0.323865971     0.926418566   0.000174732139  -7.4810439e-05   0.000174732139 -7.48104389e-05      0.332923665     0.923123612
12.661988            0.324253656     0.926269715    0.00017494871 -7.49946932e-05    0.00017494871 -7.49946931e-05      0.333313393     0.922969563
12.662016            0.324641554     0.926120587   0.000175165553 -7.51793908e-05   0.000175165553 -7.51793908e-05      0.333703335      0.92281523
12.662044            0.325029664     0.925971181    0.00017538267  -7.5364533e-05    0.00017538267 -7.53645329e-05      0.334093488     0.922660612
12.662072            0.325417987     0.925821497   0.000175600061 -7.55501207e-05    0.00017560006 -7.55501207e-05      0.334483855      0.92250571
12.6621              0.325806523     0.925671535   0.000175817725 -7.57361552e-05   0.000175817725 -7.57361552e-05      0.334874434     0.922350522
12.662128            0.326195272     0.925521293   0.000176035664 -7.59226376e-05   0.000176035663 -7.59226375e-05      0.335265227     0.922195049
12.662156            0.326584234     0.925370772   0.000176253876 -7.61095688e-05   0.000176253876 -7.61095688e-05      0.335656232      0.92203929
12.662184            0.326973409     0.925219972   0.000176472364 -7.62969501e-05   0.000176472364 -7.62969501e-05      0.336047451     0.921883244
12.662212            0.327362798     0.925068891   0.000176691126 -7.64847826e-05   0.000176691126 -7.64847825e-05      0.336438883     0.921726911
12.66224               0.3277524     0.924917529   0.000176910163 -7.66730674e-05   0.000176910163 -7.66730673e-05      0.336830529      0.92157029
12.662268            0.328142216     0.924765885   0.000177129476 -7.68618055e-05   0.000177129475 -7.68618054e-05      0.337222388     0.921413381
12.662296            0.328532245      0.92461396   0.000177349063 -7.70509982e-05   0.000177349063 -7.70509981e-05      0.337614461     0.921256184
12.662324            0.328922489     0.924461753   0.000177568927 -7.72406465e-05   0.000177568927 -7.72406464e-05      0.338006747     0.921098697
12.662352            0.329312946     0.924309263   0.000177789066 -7.74307516e-05   0.000177789066 -7.74307515e-05      0.338399248     0.920940921
12.66238             0.329703618     0.924156489   0.000178009481 -7.76213146e-05   0.000178009481 -7.76213145e-05      0.338791962     0.920782854
12.662408            0.330094504     0.924003432   0.000178230173 -7.78123366e-05   0.000178230173 -7.78123365e-05      0.339184891     0.920624497
12.662436            0.330485604      0.92385009   0.000178451141 -7.80038188e-05   0.000178451141 -7.80038187e-05      0.339578034     0.920465849
12.662464            0.330876919     0.923696464   0.000178672385 -7.81957623e-05   0.000178672385 -7.81957623e-05      0.339971392     0.920306909
12.662492            0.331268448     0.923542553   0.000178893907 -7.83881683e-05   0.000178893907 -7.83881682e-05      0.340364964     0.920147678
12.66252             0.331660193     0.923388356   0.000179115705 -7.85810379e-05   0.000179115705 -7.85810378e-05      0.340758751     0.919988153
12.662548            0.332052152     0.923233872   0.000179337781 -7.87743722e-05   0.000179337781 -7.87743721e-05      0.341152752     0.919828336
12.662576            0.332444326     0.923079102   0.000179560135 -7.89681724e-05   0.000179560135 -7.89681723e-05      0.341546969     0.919668225
12.662604            0.332836715     0.922924045   0.000179782766 -7.91624396e-05   0.000179782766 -7.91624395e-05        0.3419414     0.919507819
12.662632            0.333229319       0.9227687   0.000180005675 -7.93571751e-05   0.000180005675  -7.9357175e-05      0.342336047      0.91934712
12.66266             0.333622139     0.922613067   0.000180228862 -7.95523799e-05   0.000180228862 -7.95523798e-05      0.342730908     0.919186125
12.662688            0.334015175     0.922457146   0.000180452328 -7.97480552e-05   0.000180452328 -7.97480551e-05      0.343125985     0.919024834
12.662716            0.334408425     0.922300935   0.000180676072 -7.99442022e-05   0.000180676072 -7.99442022e-05      0.343521278     0.918863248
12.662744            0.334801892     0.922144434   0.000180900095 -8.01408221e-05   0.000180900094  -8.0140822e-05      0.343916786     0.918701364
12.662772            0.335195575     0.921987644   0.000181124396  -8.0337916e-05   0.000181124396 -8.03379159e-05       0.34431251     0.918539184
12.6628              0.335589473     0.921830562   0.000181348977 -8.05354851e-05   0.000181348977  -8.0535485e-05       0.34470845     0.918376706
12.662828            0.335983588      0.92167319   0.000181573837 -8.07335305e-05   0.000181573837 -8.07335305e-05      0.345104605      0.91821393
12.662856            0.336377918     0.921515526   0.000181798977 -8.09320535e-05   0.000181798977 -8.09320535e-05      0.345500977     0.918050855
12.662884            0.336772465      0.92135757   0.000182024396 -8.11310553e-05   0.000182024396 -8.11310552e-05      0.345897565     0.917887481
12.662912            0.337167229     0.921199321   0.000182250096 -8.13305369e-05   0.000182250096 -8.13305368e-05      0.346294369     0.917723807
12.66294             0.337562209     0.921040779   0.000182476075 -8.15304996e-05   0.000182476075 -8.15304996e-05      0.346691389     0.917559833
12.662968            0.337957406     0.920881943   0.000182702335 -8.17309447e-05   0.000182702335 -8.17309446e-05      0.347088626     0.917395558
12.662996             0.33835282     0.920722814   0.000182928876 -8.19318732e-05   0.000182928875 -8.19318731e-05       0.34748608     0.917230982
12.663024             0.33874845     0.920563389   0.000183155697 -8.21332864e-05   0.000183155697 -8.21332863e-05       0.34788375     0.917066104
12.663052            0.339144298      0.92040367   0.000183382799 -8.23351854e-05   0.000183382798 -8.23351854e-05      0.348281637     0.916900924
12.66308             0.339540363     0.920243654   0.000183610182 -8.25375716e-05   0.000183610182 -8.25375715e-05      0.348679742     0.916735442
12.663108            0.339936645     0.920083343   0.000183837846  -8.2740446e-05   0.000183837846 -8.27404459e-05      0.349078063     0.916569655
12.663136            0.340333144     0.919922735   0.000184065792 -8.29438099e-05   0.000184065792 -8.29438098e-05      0.349476601     0.916403565
12.663164            0.340729861     0.919761829   0.000184294019 -8.31476645e-05   0.000184294019 -8.31476644e-05      0.349875357     0.916237171
12.663192            0.341126796     0.919600626   0.000184522528  -8.3352011e-05   0.000184522528 -8.33520109e-05       0.35027433     0.916070472
12.66322             0.341523949     0.919439125    0.00018475132 -8.35568506e-05    0.00018475132 -8.35568506e-05      0.350673521     0.915903467
12.663248            0.341921319     0.919277325   0.000184980393 -8.37621846e-05   0.000184980393 -8.37621846e-05       0.35107293     0.915736156
12.663276            0.342318908     0.919115226   0.000185209749 -8.39680142e-05   0.000185209749 -8.39680141e-05      0.351472556     0.915568539
12.663304            0.342716714     0.918952826   0.000185439388 -8.41743405e-05   0.000185439388 -8.41743404e-05        0.3518724     0.915400615
12.663332            0.343114739     0.918790127   0.000185669309 -8.43811649e-05   0.000185669309 -8.43811648e-05      0.352272462     0.915232384
12.66336             0.343512982     0.918627127   0.000185899513 -8.45884885e-05   0.000185899513 -8.45884884e-05      0.352672742     0.915063844
12.663388            0.343911444     0.918463825   0.000186130001 -8.47963126e-05   0.000186130001 -8.47963125e-05      0.353073241     0.914894996
12.663416            0.344310124     0.918300222   0.000186360772 -8.50046384e-05   0.000186360771 -8.50046383e-05      0.353473958     0.914725838
12.663444            0.344709023     0.918136316   0.000186591826 -8.52134671e-05   0.000186591826  -8.5213467e-05      0.353874893     0.914556371
12.663472            0.345108141     0.917972107   0.000186823164 -8.54228001e-05   0.000186823164    -8.54228e-05      0.354276047     0.914386594
12.6635              0.345507478     0.917807595   0.000187054785 -8.56326385e-05   0.000187054785 -8.56326384e-05      0.354677419     0.914216506
