! TOUCHSTONE file generated by CST MICROWAVE STUDIO
! Date and time: Wed Jul 31 20:47:11 2024
! Project name: WaveGuide_BPF-Ver4.1_U-shape_Ku_T3_C4_CWA_2.cst
! Parameters = {cavity_h=16; cavity_l0=10; cavity_l1=15.1837; cavity_l2=16.8708; cavity_l3=17.0665; cavity_l4=17.2272; cavity_l5=17.091; cavity_l6=17.61; cavity_r=2.5; cavity_screw_l=0.5; cavity_screw_r=1.5; cavity_w=8; iris_h00=0; iris_h01=8.8132; iris_h112=0; iris_h12=5.5935; iris_h211=3.6509; iris_h23=5.194; iris_h310=3.9657; iris_h34=5.075; iris_h45=4.936; iris_h49=4.6305; iris_h56=4.8057; iris_h58=4.4464; iris_h67=6.5871; iris_rx=0.1; iris_screw_l=0.5; iris_screw_r=1.5; iris_shift00=0; iris_shift112=0; iris_shift211=3.5; iris_shift310=0; iris_shift49=0; iris_shift58=3.5; iris_shift67=3.5; iris_tx=4.5; iris_tz=4.5; iris_w00=0; iris_w112=0; iris_w211=4; iris_w310=3.9657; iris_w49=4.6305; iris_w58=4; iris_w67=4; mesh_cavity=5; mesh_iris=7; mesh_screw=7; order=12; reset_all=0; sigma=4.8e+07}
! Header version: 2018
! Port assignment regex: !\s*Touchstone port\s*([0-9]+)\s*=\s*(CST MWS port|CST DS port)\s*([0-9]+|Zmin|Zmax)\s*\(\"(.*)\"\)(\s*mode\s*([0-9]+))?.*
! Touchstone port assignment:
! Touchstone port 1 = CST MWS port 1 ("")
! Touchstone port 2 = CST MWS port 2 ("")
# GHz S RI R 50
12.66                0.256994061     0.948579615   0.000251773014 -8.81889523e-05   0.000251773014  -8.8188952e-05      0.255675433     0.949046997
12.660028            0.257359963     0.948468067   0.000252158361 -8.84423212e-05   0.000252158361 -8.84423209e-05      0.256039302     0.948936706
12.660056            0.257726068     0.948356294   0.000252544404 -8.86964214e-05   0.000252544404 -8.86964211e-05      0.256403413      0.94882618
12.660084            0.258092385      0.94824429   0.000252931144 -8.89512554e-05   0.000252931144 -8.89512552e-05      0.256767761     0.948715421
12.660112            0.258458926     0.948132054   0.000253318581  -8.9206826e-05   0.000253318581 -8.92068257e-05      0.257132336     0.948604431
12.66014             0.258825702     0.948019581   0.000253706718 -8.94631355e-05   0.000253706718 -8.94631353e-05      0.257497132      0.94849321
12.660168            0.259192712     0.947906872   0.000254095555 -8.97201865e-05   0.000254095555 -8.97201862e-05      0.257862147      0.94838176
12.660196             0.25955995     0.947793928   0.000254485094  -8.9977981e-05   0.000254485094 -8.99779807e-05      0.258227389     0.948270077
12.660224            0.259927415     0.947680748   0.000254875337 -9.02365213e-05   0.000254875337 -9.02365211e-05      0.258592856     0.948158163
12.660252             0.26029511     0.947567333   0.000255266285   -9.049581e-05   0.000255266285 -9.04958097e-05       0.25895855     0.948046015
12.66028             0.260663032     0.947453681   0.000255657939 -9.07558492e-05   0.000255657939  -9.0755849e-05       0.25932447     0.947933634
12.660308            0.261031183     0.947339792   0.000256050301 -9.10166415e-05   0.000256050301 -9.10166412e-05      0.259690617     0.947821019
12.660336            0.261399563     0.947225665   0.000256443371 -9.12781891e-05   0.000256443371 -9.12781889e-05      0.260056991      0.94770817
12.660364            0.261768172     0.947111301   0.000256837153 -9.15404946e-05   0.000256837153 -9.15404943e-05      0.260423591     0.947595086
12.660392            0.262137011     0.946996699   0.000257231646 -9.18035602e-05   0.000257231646 -9.18035599e-05      0.260790419     0.947481768
12.66042             0.262506079     0.946881858   0.000257626853 -9.20673884e-05   0.000257626853 -9.20673881e-05      0.261157475     0.947368214
12.660448            0.262875376     0.946766778   0.000258022774 -9.23319815e-05   0.000258022775 -9.23319813e-05      0.261524758     0.947254424
12.660476            0.263244904     0.946651458   0.000258419412 -9.25973422e-05   0.000258419412 -9.25973419e-05      0.261892269     0.947140397
12.660504            0.263614661     0.946535899   0.000258816768 -9.28634726e-05   0.000258816768 -9.28634724e-05      0.262260008     0.947026134
12.660532            0.263984649     0.946420099   0.000259214842 -9.31303754e-05   0.000259214842 -9.31303752e-05      0.262627975     0.946911633
12.66056             0.264354868     0.946304058   0.000259613637  -9.3398053e-05   0.000259613637 -9.33980527e-05      0.262996171     0.946796895
12.660588            0.264725317     0.946187775   0.000260013154 -9.36665078e-05   0.000260013154 -9.36665075e-05      0.263364596     0.946681919
12.660616            0.265095998     0.946071251   0.000260413395 -9.39357422e-05   0.000260413395  -9.3935742e-05      0.263733249     0.946566704
12.660644            0.265466909     0.945954485    0.00026081436 -9.42057589e-05    0.00026081436 -9.42057586e-05      0.264102132      0.94645125
12.660672            0.265838052     0.945837476   0.000261216051 -9.44765602e-05   0.000261216051 -9.44765599e-05      0.264471244     0.946335556
12.6607              0.266209426     0.945720223   0.000261618471 -9.47481486e-05   0.000261618471 -9.47481484e-05      0.264840586     0.946219623
12.660728            0.266581033     0.945602727   0.000262021619 -9.50205267e-05   0.000262021619 -9.50205265e-05      0.265210158     0.946103449
12.660756            0.266952871     0.945484987   0.000262425498  -9.5293697e-05   0.000262425498 -9.52936967e-05      0.265579959     0.945987034
12.660784            0.267324941     0.945367002   0.000262830109  -9.5567662e-05   0.000262830109 -9.55676617e-05      0.265949991     0.945870378
12.660812            0.267697245     0.945248773   0.000263235454 -9.58424242e-05   0.000263235454 -9.58424239e-05      0.266320253      0.94575348
12.66084              0.26806978     0.945130297   0.000263641534 -9.61179861e-05   0.000263641534 -9.61179858e-05      0.266690745      0.94563634
12.660868            0.268442549     0.945011576    0.00026404835 -9.63943504e-05    0.00026404835 -9.63943501e-05      0.267061469     0.945518958
12.660896            0.268815551     0.944892609   0.000264455904 -9.66715195e-05   0.000264455904 -9.66715192e-05      0.267432424     0.945401332
12.660924            0.269188786     0.944773394   0.000264864198 -9.69494961e-05   0.000264864198 -9.69494958e-05      0.267803609     0.945283463
12.660952            0.269562254     0.944653932   0.000265273232 -9.72282826e-05   0.000265273232 -9.72282824e-05      0.268175027     0.945165349
12.66098             0.269935957     0.944534223   0.000265683009 -9.75078818e-05   0.000265683009 -9.75078816e-05      0.268546676     0.945046991
12.661008            0.270309893     0.944414265    0.00026609353 -9.77882962e-05    0.00026609353 -9.77882959e-05      0.268918557     0.944928388
12.661036            0.270684063     0.944294058   0.000266504796 -9.80695284e-05   0.000266504796 -9.80695281e-05       0.26929067      0.94480954
12.661064            0.271058468     0.944173602   0.000266916809 -9.83515809e-05   0.000266916809 -9.83515807e-05      0.269663015     0.944690446
12.661092            0.271433108     0.944052896    0.00026732957 -9.86344565e-05    0.00026732957 -9.86344563e-05      0.270035593     0.944571106
12.66112             0.271807982      0.94393194   0.000267743081 -9.89181578e-05   0.000267743081 -9.89181575e-05      0.270408404     0.944451518
12.661148            0.272183091     0.943810734   0.000268157343 -9.92026874e-05   0.000268157343 -9.92026871e-05      0.270781447     0.944331684
12.661176            0.272558436     0.943689276   0.000268572358 -9.94880479e-05   0.000268572358 -9.94880476e-05      0.271154724     0.944211601
12.661204            0.272934016     0.943567567   0.000268988127  -9.9774242e-05   0.000268988127 -9.97742418e-05      0.271528234     0.944091271
12.661232            0.273309832     0.943445605   0.000269404653 -0.000100061272   0.000269404653 -0.000100061272      0.271901978     0.943970692
12.66126             0.273685884     0.943323391   0.000269821935 -0.000100349142   0.000269821935 -0.000100349142      0.272275955     0.943849863
12.661288            0.274062171     0.943200924   0.000270239976 -0.000100637853   0.000270239976 -0.000100637853      0.272650167     0.943728785
12.661316            0.274438695     0.943078204   0.000270658778 -0.000100927408   0.000270658778 -0.000100927408      0.273024613     0.943607457
12.661344            0.274815456     0.942955229   0.000271078341 -0.000101217811   0.000271078341  -0.00010121781      0.273399293     0.943485878
12.661372            0.275192454        0.942832   0.000271498668 -0.000101509063   0.000271498668 -0.000101509062      0.273774208     0.943364049
12.6614              0.275569688     0.942708516    0.00027191976 -0.000101801167    0.00027191976 -0.000101801167      0.274149358     0.943241967
12.661428             0.27594716     0.942584777   0.000272341618 -0.000102094127   0.000272341618 -0.000102094127      0.274524743     0.943119634
12.661456            0.276324869     0.942460781   0.000272764244 -0.000102387945   0.000272764244 -0.000102387945      0.274900363     0.942997048
12.661484            0.276702816     0.942336529   0.000273187639 -0.000102682624   0.000273187639 -0.000102682623      0.275276219     0.942874209
12.661512               0.277081      0.94221202   0.000273611806 -0.000102978166   0.000273611806 -0.000102978166      0.275652311     0.942751117
12.66154             0.277459423     0.942087254   0.000274036745 -0.000103274574   0.000274036745 -0.000103274574      0.276028638     0.942627771
12.661568            0.277838084      0.94196223   0.000274462458 -0.000103571852   0.000274462458 -0.000103571851      0.276405202     0.942504171
12.661596            0.278216984     0.941836947   0.000274888946 -0.000103870001   0.000274888946 -0.000103870001      0.276782002     0.942380315
12.661624            0.278596122     0.941711406   0.000275316212 -0.000104169025   0.000275316212 -0.000104169025      0.277159039     0.942256204
12.661652            0.278975499     0.941585605   0.000275744257 -0.000104468926   0.000275744257 -0.000104468926      0.277536312     0.942131838
12.66168             0.279355115     0.941459544   0.000276173081 -0.000104769708   0.000276173081 -0.000104769708      0.277913823     0.942007215
12.661708            0.279734971     0.941333222   0.000276602688 -0.000105071373   0.000276602688 -0.000105071372      0.278291571     0.941882335
12.661736            0.280115067      0.94120664   0.000277033078 -0.000105373923   0.000277033078 -0.000105373923      0.278669556     0.941757197
12.661764            0.280495402     0.941079797   0.000277464252 -0.000105677363   0.000277464252 -0.000105677363      0.279047779     0.941631802
12.661792            0.280875977     0.940952691   0.000277896214 -0.000105981694   0.000277896214 -0.000105981694       0.27942624     0.941506149
12.66182             0.281256793     0.940825323   0.000278328963  -0.00010628692   0.000278328963  -0.00010628692       0.27980494     0.941380237
12.661848            0.281637849     0.940697693   0.000278762502 -0.000106593044   0.000278762502 -0.000106593043      0.280183877     0.941254065
12.661876            0.282019145     0.940569799   0.000279196832 -0.000106900067   0.000279196832 -0.000106900067      0.280563053     0.941127634
12.661904            0.282400683      0.94044164   0.000279631955 -0.000107207994   0.000279631955 -0.000107207994      0.280942468     0.941000942
12.661932            0.282782462     0.940313218   0.000280067872 -0.000107516827   0.000280067872 -0.000107516827      0.281322122      0.94087399
12.66196             0.283164482      0.94018453   0.000280504585  -0.00010782657   0.000280504585 -0.000107826569      0.281702015     0.940746776
12.661988            0.283546744     0.940055578   0.000280942095 -0.000108137224   0.000280942095 -0.000108137224      0.282082147     0.940619301
12.662016            0.283929248     0.939926359   0.000281380405 -0.000108448793   0.000281380405 -0.000108448793       0.28246252     0.940491563
12.662044            0.284311993     0.939796873   0.000281819515  -0.00010876128   0.000281819515  -0.00010876128      0.282843132     0.940363563
12.662072            0.284694981     0.939667121   0.000282259428 -0.000109074688   0.000282259428 -0.000109074688      0.283223984     0.940235299
12.6621              0.285078212     0.939537101   0.000282700144  -0.00010938902   0.000282700144  -0.00010938902      0.283605076     0.940106771
12.662128            0.285461685     0.939406814   0.000283141666 -0.000109704279   0.000283141666 -0.000109704279      0.283986409     0.939977979
12.662156            0.285845401     0.939276257   0.000283583995 -0.000110020468   0.000283583995 -0.000110020468      0.284367983     0.939848922
12.662184             0.28622936     0.939145432   0.000284027132  -0.00011033759   0.000284027132  -0.00011033759      0.284749798       0.9397196
12.662212            0.286613563     0.939014337    0.00028447108 -0.000110655647    0.00028447108 -0.000110655647      0.285131854     0.939590012
12.66224             0.286998009     0.938882972    0.00028491584 -0.000110974644    0.00028491584 -0.000110974644      0.285514151     0.939460158
12.662268            0.287382699     0.938751336   0.000285361413 -0.000111294583   0.000285361413 -0.000111294582       0.28589669     0.939330036
12.662296            0.287767633     0.938619429   0.000285807801 -0.000111615466   0.000285807801 -0.000111615466      0.286279471     0.939199648
12.662324            0.288152811     0.938487251   0.000286255006 -0.000111937298   0.000286255006 -0.000111937298      0.286662494     0.939068991
12.662352            0.288538234       0.9383548   0.000286703029 -0.000112260081    0.00028670303 -0.000112260081       0.28704576     0.938938066
12.66238             0.288923902     0.938222077   0.000287151873 -0.000112583819   0.000287151873 -0.000112583818      0.287429267     0.938806872
12.662408            0.289309814     0.938089081   0.000287601538 -0.000112908513   0.000287601538 -0.000112908513      0.287813018     0.938675409
12.662436            0.289695972      0.93795581   0.000288052026 -0.000113234169   0.000288052026 -0.000113234168      0.288197011     0.938543676
12.662464            0.290082375     0.937822266   0.000288503339 -0.000113560787   0.000288503339 -0.000113560787      0.288581248     0.938411672
12.662492            0.290469024     0.937688446   0.000288955478 -0.000113888373   0.000288955478 -0.000113888373      0.288965728     0.938279397
12.66252             0.290855918     0.937554351   0.000289408446 -0.000114216929   0.000289408446 -0.000114216928      0.289350452     0.938146851
12.662548            0.291243058     0.937419981   0.000289862243 -0.000114546457   0.000289862243 -0.000114546457       0.28973542     0.938014033
12.662576            0.291630445     0.937285334   0.000290316872 -0.000114876962   0.000290316872 -0.000114876962      0.290120631     0.937880942
12.662604            0.292018079     0.937150409   0.000290772334 -0.000115208446   0.000290772334 -0.000115208446      0.290506087     0.937747578
12.662632            0.292405959     0.937015208    0.00029122863 -0.000115540913   0.000291228631 -0.000115540913      0.290891788      0.93761394
12.66266             0.292794085     0.936879728   0.000291685763 -0.000115874366   0.000291685764 -0.000115874366      0.291277733     0.937480028
12.662688             0.29318246      0.93674397   0.000292143735 -0.000116208808   0.000292143735 -0.000116208808      0.291663923     0.937345841
12.662716            0.293571081     0.936607933   0.000292602545 -0.000116544242   0.000292602545 -0.000116544242      0.292050358      0.93721138
12.662744             0.29395995     0.936471615   0.000293062197 -0.000116880671   0.000293062197 -0.000116880671      0.292437039     0.937076642
12.662772            0.294349067     0.936335018   0.000293522693   -0.0001172181   0.000293522693 -0.000117218099      0.292823966     0.936941628
12.6628              0.294738433      0.93619814   0.000293984032  -0.00011755653   0.000293984032 -0.000117556529      0.293211138     0.936806337
12.662828            0.295128046     0.936060981   0.000294446219 -0.000117895965   0.000294446219 -0.000117895965      0.293598556     0.936670769
12.662856            0.295517908      0.93592354   0.000294909253 -0.000118236409   0.000294909253 -0.000118236409      0.293986221     0.936534923
12.662884            0.295908019     0.935785816   0.000295373137 -0.000118577865   0.000295373137 -0.000118577865      0.294374132     0.936398799
12.662912            0.296298379     0.935647809   0.000295837873 -0.000118920336   0.000295837873 -0.000118920336       0.29476229     0.936262395
12.66294             0.296688987     0.935509519   0.000296303461 -0.000119263826   0.000296303461 -0.000119263826      0.295150695     0.936125712
12.662968            0.297079846     0.935370945   0.000296769904 -0.000119608337   0.000296769905 -0.000119608337      0.295539347     0.935988749
12.662996            0.297470954     0.935232086   0.000297237204 -0.000119953874   0.000297237204 -0.000119953874      0.295928247     0.935851505
12.663024            0.297862312     0.935092942   0.000297705362 -0.000120300439   0.000297705362 -0.000120300439      0.296317394      0.93571398
12.663052             0.29825392     0.934953512    0.00029817438 -0.000120648036    0.00029817438 -0.000120648036      0.296706789     0.935576174
12.66308             0.298645778     0.934813796    0.00029864426 -0.000120996668    0.00029864426 -0.000120996668      0.297096432     0.935438085
12.663108            0.299037888     0.934673793   0.000299115003 -0.000121346339   0.000299115003 -0.000121346339      0.297486324     0.935299713
12.663136            0.299430247     0.934533503   0.000299586611 -0.000121697052   0.000299586611 -0.000121697052      0.297876464     0.935161058
12.663164            0.299822858     0.934392925   0.000300059085 -0.000122048811   0.000300059085 -0.000122048811      0.298266853     0.935022119
12.663192             0.30021572     0.934252058   0.000300532428 -0.000122401618   0.000300532428 -0.000122401618      0.298657491     0.934882895
12.66322             0.300608834     0.934110902   0.000301006641 -0.000122755478   0.000301006641 -0.000122755478      0.299048378     0.934743387
12.663248            0.301002199     0.933969456   0.000301481726 -0.000123110394   0.000301481726 -0.000123110393      0.299439514     0.934603593
12.663276            0.301395817      0.93382772   0.000301957685 -0.000123466369   0.000301957685 -0.000123466368      0.299830901     0.934463512
12.663304            0.301789686     0.933685693   0.000302434519 -0.000123823406   0.000302434519 -0.000123823406      0.300222537     0.934323145
12.663332            0.302183808     0.933543375    0.00030291223  -0.00012418151    0.00030291223  -0.00012418151      0.300614423     0.934182491
12.66336             0.302578183     0.933400765   0.000303390819 -0.000124540684   0.000303390819 -0.000124540684       0.30100656     0.934041549
12.663388             0.30297281     0.933257862   0.000303870289 -0.000124900931   0.000303870289 -0.000124900931      0.301398947     0.933900318
12.663416            0.303367691     0.933114666   0.000304350642 -0.000125262255   0.000304350642 -0.000125262255      0.301791585     0.933758799
12.663444            0.303762825     0.932971176   0.000304831878 -0.000125624659   0.000304831878 -0.000125624659      0.302184474      0.93361699
12.663472            0.304158212     0.932827393   0.000305314001 -0.000125988147   0.000305314001 -0.000125988147      0.302577614     0.933474891
12.6635              0.304553853     0.932683314    0.00030579701 -0.000126352723    0.00030579701 -0.000126352723      0.302971006     0.933332501
