! TOUCHSTONE file generated by CST MICROWAVE STUDIO
! Date and time: Wed Jul 31 20:56:40 2024
! Project name: WaveGuide_BPF-Ver4.1_U-shape_Ku_T3_C4_CWA_2.cst
! Parameters = {cavity_h=16; cavity_l0=10; cavity_l1=15.2225; cavity_l2=16.8311; cavity_l3=17.1163; cavity_l4=17.2651; cavity_l5=17.1517; cavity_l6=17.639; cavity_r=2.5; cavity_screw_l=0.5; cavity_screw_r=1.5; cavity_w=8; iris_h00=0; iris_h01=8.798; iris_h112=0; iris_h12=5.602; iris_h211=3.6617; iris_h23=5.1875; iris_h310=3.9785; iris_h34=5.0698; iris_h45=4.9408; iris_h49=4.6281; iris_h56=4.7893; iris_h58=4.4371; iris_h67=6.5934; iris_rx=0.1; iris_screw_l=0.5; iris_screw_r=1.5; iris_shift00=0; iris_shift112=0; iris_shift211=3.5; iris_shift310=0; iris_shift49=0; iris_shift58=3.5; iris_shift67=3.5; iris_tx=4.5; iris_tz=4.5; iris_w00=0; iris_w112=0; iris_w211=4; iris_w310=3.9785; iris_w49=4.6281; iris_w58=4; iris_w67=4; mesh_cavity=5; mesh_iris=7; mesh_screw=7; order=12; reset_all=0; sigma=4.8e+07}
! Header version: 2018
! Port assignment regex: !\s*Touchstone port\s*([0-9]+)\s*=\s*(CST MWS port|CST DS port)\s*([0-9]+|Zmin|Zmax)\s*\(\"(.*)\"\)(\s*mode\s*([0-9]+))?.*
! Touchstone port assignment:
! Touchstone port 1 = CST MWS port 1 ("")
! Touchstone port 2 = CST MWS port 2 ("")
# GHz S RI R 50
12.66                0.332660327      0.92201202   0.000217664974 -9.69012656e-05   0.000217664974 -9.69012657e-05      0.341300195     0.918817867
12.660028            0.333073304     0.921847766   0.000217954723 -9.71548774e-05   0.000217954723 -9.71548774e-05      0.341713836     0.918648875
12.660056            0.333486534     0.921683187   0.000218244876 -9.74091529e-05   0.000218244876  -9.7409153e-05      0.342127716     0.918479557
12.660084            0.333900011     0.921518285   0.000218535435 -9.76640933e-05   0.000218535435 -9.76640934e-05      0.342541836     0.918309912
12.660112            0.334313729      0.92135306   0.000218826401 -9.79196996e-05   0.000218826401 -9.79196997e-05      0.342956193     0.918139941
12.66014             0.334727681     0.921187515   0.000219117775 -9.81759728e-05   0.000219117775 -9.81759728e-05      0.343370786     0.917969644
12.660168            0.335141868     0.921021649   0.000219409558 -9.84329147e-05   0.000219409558 -9.84329147e-05      0.343785613      0.91779902
12.660196            0.335556293      0.92085546    0.00021970175 -9.86905277e-05    0.00021970175 -9.86905278e-05      0.344200678     0.917628068
12.660224            0.335970958     0.920688948   0.000219994351 -9.89488137e-05   0.000219994351 -9.89488138e-05      0.344615979     0.917456787
12.660252            0.336385862     0.920522111   0.000220287361 -9.92077745e-05   0.000220287361 -9.92077746e-05      0.345031518     0.917285178
12.66028             0.336801005      0.92035495   0.000220580781 -9.94674121e-05   0.000220580781 -9.94674122e-05      0.345447294     0.917113239
12.660308            0.337216388     0.920187464   0.000220874612 -9.97277283e-05   0.000220874612 -9.97277283e-05      0.345863307      0.91694097
12.660336             0.33763201     0.920019651   0.000221168853 -9.99887249e-05   0.000221168853  -9.9988725e-05      0.346279557     0.916768369
12.660364            0.338047873     0.919851512   0.000221463506 -0.000100250404   0.000221463506 -0.000100250404      0.346696045     0.916595438
12.660392            0.338463975     0.919683046    0.00022175857 -0.000100512767    0.00022175857 -0.000100512767      0.347112771     0.916422174
12.66042             0.338880317     0.919514253   0.000222054047 -0.000100775816   0.000222054047 -0.000100775817      0.347529735     0.916248578
12.660448            0.339296899     0.919345131   0.000222349936 -0.000101039554   0.000222349936 -0.000101039554      0.347946936     0.916074649
12.660476            0.339713722      0.91917568   0.000222646238 -0.000101303981   0.000222646238 -0.000101303981      0.348364376     0.915900386
12.660504            0.340130784       0.9190059   0.000222942954   -0.0001015691   0.000222942954   -0.0001015691      0.348782054     0.915725788
12.660532            0.340548088      0.91883579   0.000223240084 -0.000101834913   0.000223240084 -0.000101834913       0.34919997     0.915550856
12.66056             0.340965632     0.918665349   0.000223537628 -0.000102101422   0.000223537628 -0.000102101422      0.349618125     0.915375587
12.660588            0.341383417     0.918494577   0.000223835587 -0.000102368628   0.000223835587 -0.000102368628      0.350036518     0.915199983
12.660616            0.341801443     0.918323474   0.000224133961 -0.000102636534   0.000224133961 -0.000102636534       0.35045515     0.915024042
12.660644             0.34221971     0.918152038   0.000224432751 -0.000102905142   0.000224432751 -0.000102905142      0.350874021     0.914847764
12.660672            0.342638218     0.917980269   0.000224731957 -0.000103174453   0.000224731957 -0.000103174453      0.351293131     0.914671147
12.6607              0.343056967     0.917808166    0.00022503158 -0.000103444469    0.00022503158 -0.000103444469      0.351712479     0.914494192
12.660728            0.343475958     0.917635729    0.00022533162 -0.000103715192    0.00022533162 -0.000103715193      0.352132067     0.914316898
12.660756            0.343895191     0.917462957   0.000225632077 -0.000103986625   0.000225632077 -0.000103986625      0.352551894     0.914139264
12.660784            0.344314665      0.91728985   0.000225932952  -0.00010425877   0.000225932952  -0.00010425877      0.352971961     0.913961289
12.660812            0.344734381     0.917116407   0.000226234245 -0.000104531627   0.000226234246 -0.000104531627      0.353392267     0.913782974
12.66084             0.345154339     0.916942627   0.000226535958   -0.0001048052   0.000226535958   -0.0001048052      0.353812813     0.913604317
12.660868            0.345574539      0.91676851   0.000226838089  -0.00010507949   0.000226838089  -0.00010507949      0.354233599     0.913425317
12.660896            0.345994981     0.916594056    0.00022714064 -0.000105354499    0.00022714064 -0.000105354499      0.354654624     0.913245975
12.660924            0.346415666     0.916419262   0.000227443611  -0.00010563023   0.000227443611  -0.00010563023       0.35507589     0.913066289
12.660952            0.346836593      0.91624413   0.000227747003 -0.000105906683   0.000227747003 -0.000105906683      0.355497395     0.912886259
12.66098             0.347257763     0.916068658   0.000228050816 -0.000106183862   0.000228050816 -0.000106183862      0.355919141     0.912705885
12.661008            0.347679175     0.915892846   0.000228355049 -0.000106461769    0.00022835505 -0.000106461769      0.356341128     0.912525165
12.661036            0.348100831     0.915716693   0.000228659705 -0.000106740404   0.000228659705 -0.000106740404      0.356763355     0.912344099
12.661064            0.348522729     0.915540198   0.000228964783 -0.000107019771   0.000228964783 -0.000107019771      0.357185822     0.912162686
12.661092             0.34894487     0.915363361   0.000229270284 -0.000107299871   0.000229270284 -0.000107299871       0.35760853     0.911980926
12.66112             0.349367255     0.915186182   0.000229576208 -0.000107580707   0.000229576208 -0.000107580707      0.358031479     0.911798819
12.661148            0.349789883     0.915008659   0.000229882555 -0.000107862279   0.000229882555  -0.00010786228      0.358454669     0.911616362
12.661176            0.350212755     0.914830792   0.000230189326 -0.000108144592   0.000230189326 -0.000108144592        0.3588781     0.911433557
12.661204             0.35063587      0.91465258   0.000230496521 -0.000108427646   0.000230496522 -0.000108427646      0.359301773     0.911250402
12.661232            0.351059229     0.914474023   0.000230804142 -0.000108711443   0.000230804142 -0.000108711444      0.359725686     0.911066897
12.66126             0.351482832      0.91429512   0.000231112187 -0.000108995987   0.000231112187 -0.000108995987      0.360149841     0.910883041
12.661288            0.351906679     0.914115871   0.000231420659 -0.000109281278   0.000231420659 -0.000109281278      0.360574238     0.910698833
12.661316             0.35233077     0.913936275   0.000231729556 -0.000109567319   0.000231729556 -0.000109567319      0.360998876     0.910514273
12.661344            0.352755105     0.913756331   0.000232038879 -0.000109854111    0.00023203888 -0.000109854111      0.361423756      0.91032936
12.661372            0.353179685     0.913576038    0.00023234863 -0.000110141658    0.00023234863 -0.000110141658      0.361848878     0.910144093
12.6614              0.353604509     0.913395397   0.000232658808 -0.000110429961   0.000232658808 -0.000110429961      0.362274242     0.909958472
12.661428            0.354029578     0.913214405   0.000232969414 -0.000110719022   0.000232969414 -0.000110719022      0.362699849     0.909772497
12.661456            0.354454891     0.913033064   0.000233280448 -0.000111008843   0.000233280448 -0.000111008844      0.363125697     0.909586166
12.661484             0.35488045     0.912851372    0.00023359191 -0.000111299427    0.00023359191 -0.000111299427      0.363551788     0.909399479
12.661512            0.355306253     0.912669328   0.000233903801 -0.000111590776   0.000233903802 -0.000111590776      0.363978121     0.909212435
12.66154             0.355732302     0.912486931   0.000234216122 -0.000111882891   0.000234216122 -0.000111882891      0.364404697     0.909025034
12.661568            0.356158595     0.912304182   0.000234528873 -0.000112175775   0.000234528873 -0.000112175775      0.364831515     0.908837274
12.661596            0.356585134      0.91212108   0.000234842054  -0.00011246943   0.000234842054  -0.00011246943      0.365258577     0.908649156
12.661624            0.357011919     0.911937623   0.000235155665 -0.000112763858   0.000235155666 -0.000112763858      0.365685881     0.908460679
12.661652            0.357438949     0.911753812   0.000235469708 -0.000113059061   0.000235469708 -0.000113059062      0.366113429     0.908271842
12.66168             0.357866225     0.911569645   0.000235784182 -0.000113355042   0.000235784182 -0.000113355042      0.366541219     0.908082644
12.661708            0.358293747     0.911385122   0.000236099088 -0.000113651803   0.000236099088 -0.000113651803      0.366969253     0.907893085
12.661736            0.358721515     0.911200242   0.000236414426 -0.000113949345   0.000236414427 -0.000113949345       0.36739753     0.907703164
12.661764            0.359149529     0.911015005   0.000236730198 -0.000114247671   0.000236730198 -0.000114247672      0.367826051      0.90751288
12.661792            0.359577789      0.91082941   0.000237046402 -0.000114546784   0.000237046402 -0.000114546784      0.368254815     0.907322234
12.66182             0.360006296     0.910643456   0.000237363039 -0.000114846685   0.000237363039 -0.000114846685      0.368683823     0.907131223
12.661848            0.360435049     0.910457143   0.000237680111 -0.000115147376   0.000237680111 -0.000115147376      0.369113075     0.906939848
12.661876            0.360864048      0.91027047   0.000237997617  -0.00011544886   0.000237997617  -0.00011544886      0.369542571     0.906748107
12.661904            0.361293295     0.910083436   0.000238315557 -0.000115751139   0.000238315557  -0.00011575114      0.369972311     0.906556001
12.661932            0.361722788     0.909896041   0.000238633933 -0.000116054216   0.000238633933 -0.000116054216      0.370402295     0.906363528
12.66196             0.362152528     0.909708284   0.000238952744 -0.000116358092   0.000238952744 -0.000116358092      0.370832523     0.906170687
12.661988            0.362582515     0.909520165   0.000239271992 -0.000116662769   0.000239271992 -0.000116662769      0.371262996     0.905977479
12.662016            0.363012749     0.909331682   0.000239591675 -0.000116968251   0.000239591675 -0.000116968251      0.371693713     0.905783903
12.662044            0.363443231     0.909142835   0.000239911796 -0.000117274538   0.000239911796 -0.000117274538      0.372124675     0.905589957
12.662072             0.36387396     0.908953623   0.000240232353 -0.000117581634   0.000240232353 -0.000117581634      0.372555881     0.905395641
12.6621              0.364304936     0.908764047   0.000240553348 -0.000117889541   0.000240553348 -0.000117889541      0.372987333     0.905200955
12.662128            0.364736161     0.908574104   0.000240874781  -0.00011819826   0.000240874781  -0.00011819826      0.373419029     0.905005898
12.662156            0.365167633     0.908383795   0.000241196652 -0.000118507795   0.000241196652 -0.000118507795       0.37385097     0.904810468
12.662184            0.365599352     0.908193118   0.000241518962 -0.000118818147   0.000241518962 -0.000118818147      0.374283157     0.904614666
12.662212             0.36603132     0.908002074   0.000241841711 -0.000119129319   0.000241841711 -0.000119129319      0.374715589     0.904418491
12.66224             0.366463536      0.90781066     0.0002421649 -0.000119441313     0.0002421649 -0.000119441314      0.375148266     0.904221942
12.662268            0.366896001     0.907618878   0.000242488528 -0.000119754132   0.000242488528 -0.000119754132      0.375581188     0.904025018
12.662296            0.367328713     0.907426726   0.000242812597 -0.000120067777   0.000242812597 -0.000120067777      0.376014356     0.903827719
12.662324            0.367761674     0.907234202   0.000243137106 -0.000120382251   0.000243137106 -0.000120382251       0.37644777     0.903630044
12.662352            0.368194884     0.907041308   0.000243462056 -0.000120697557   0.000243462057 -0.000120697557       0.37688143     0.903431992
12.66238             0.368628343     0.906848041   0.000243787448 -0.000121013696   0.000243787448 -0.000121013696      0.377315335     0.903233563
12.662408             0.36906205     0.906654402   0.000244113282 -0.000121330671   0.000244113282 -0.000121330671      0.377749487     0.903034756
12.662436            0.369496006      0.90646039   0.000244439558 -0.000121648484   0.000244439558 -0.000121648484      0.378183884      0.90283557
12.662464            0.369930211     0.906266003   0.000244766276 -0.000121967138   0.000244766276 -0.000121967139      0.378618528     0.902636004
12.662492            0.370364666     0.906071241   0.000245093437 -0.000122286636   0.000245093438 -0.000122286636      0.379053418     0.902436059
12.66252             0.370799369     0.905876105   0.000245421042 -0.000122606978   0.000245421042 -0.000122606978      0.379488555     0.902235733
12.662548            0.371234322     0.905680592   0.000245749091 -0.000122928168   0.000245749091 -0.000122928168      0.379923938     0.902035025
12.662576            0.371669525     0.905484702   0.000246077583 -0.000123250209   0.000246077583 -0.000123250209      0.380359567     0.901833935
12.662604            0.372104977     0.905288434    0.00024640652 -0.000123573101    0.00024640652 -0.000123573102      0.380795444     0.901632462
12.662632            0.372540679     0.905091789   0.000246735902 -0.000123896849   0.000246735902 -0.000123896849      0.381231567     0.901430606
12.66266             0.372976631     0.904894764   0.000247065729 -0.000124221454   0.000247065729 -0.000124221454      0.381667937     0.901228365
12.662688            0.373412832      0.90469736   0.000247396001 -0.000124546919   0.000247396001 -0.000124546919      0.382104554     0.901025739
12.662716            0.373849284     0.904499576    0.00024772672 -0.000124873246    0.00024772672 -0.000124873246      0.382541418     0.900822728
12.662744            0.374285986      0.90430141   0.000248057885 -0.000125200437   0.000248057885 -0.000125200437       0.38297853      0.90061933
12.662772            0.374722938     0.904102863   0.000248389496 -0.000125528496   0.000248389496 -0.000125528496      0.383415889     0.900415545
12.6628              0.375160141     0.903903934   0.000248721555 -0.000125857423   0.000248721555 -0.000125857423      0.383853495     0.900211372
12.662828            0.375597594     0.903704621    0.00024905406 -0.000126187223    0.00024905406 -0.000126187223      0.384291349     0.900006811
12.662856            0.376035298     0.903504925   0.000249387014 -0.000126517897   0.000249387014 -0.000126517897       0.38472945      0.89980186
12.662884            0.376473252     0.903304844   0.000249720416 -0.000126849447   0.000249720416 -0.000126849447      0.385167799      0.89959652
12.662912            0.376911458     0.903104378   0.000250054266 -0.000127181877   0.000250054266 -0.000127181877      0.385606396     0.899390789
12.66294             0.377349914     0.902903525   0.000250388565 -0.000127515188   0.000250388565 -0.000127515188      0.386045241     0.899184666
12.662968            0.377788621     0.902702287   0.000250723314 -0.000127849384   0.000250723314 -0.000127849384      0.386484334     0.898978151
12.662996             0.37822758      0.90250066   0.000251058512 -0.000128184466   0.000251058512 -0.000128184466      0.386923675     0.898771244
12.663024             0.37866679     0.902298646   0.000251394159 -0.000128520437    0.00025139416 -0.000128520437      0.387363264     0.898563943
12.663052            0.379106251     0.902096243   0.000251730258   -0.0001288573   0.000251730258   -0.0001288573      0.387803102     0.898356248
12.66308             0.379545964     0.901893451   0.000252066806 -0.000129195057   0.000252066806 -0.000129195057      0.388243188     0.898148157
12.663108            0.379985928     0.901690268   0.000252403806  -0.00012953371   0.000252403806  -0.00012953371      0.388683522     0.897939671
12.663136            0.380426144     0.901486694   0.000252741257 -0.000129873263   0.000252741257 -0.000129873263      0.389124105     0.897730789
12.663164            0.380866611     0.901282729   0.000253079159 -0.000130213717   0.000253079159 -0.000130213717      0.389564937     0.897521509
12.663192            0.381307331     0.901078371   0.000253417514 -0.000130555076   0.000253417514 -0.000130555076      0.390006017     0.897311832
12.66322             0.381748303      0.90087362   0.000253756321 -0.000130897341   0.000253756321 -0.000130897341      0.390447347     0.897101756
12.663248            0.382189527     0.900668475   0.000254095581 -0.000131240515   0.000254095581 -0.000131240515      0.390888925      0.89689128
12.663276            0.382631003     0.900462936   0.000254435293 -0.000131584602   0.000254435293 -0.000131584602      0.391330753     0.896680405
12.663304            0.383072731     0.900257001   0.000254775459 -0.000131929602   0.000254775459 -0.000131929603      0.391772829     0.896469128
12.663332            0.383514712      0.90005067   0.000255116079  -0.00013227552   0.000255116079  -0.00013227552      0.392215155      0.89625745
12.66336             0.383956945     0.899843943   0.000255457152 -0.000132622358   0.000255457153 -0.000132622358      0.392657731      0.89604537
12.663388            0.384399431     0.899636818   0.000255798681 -0.000132970117   0.000255798681 -0.000132970117      0.393100555     0.895832887
12.663416             0.38484217     0.899429294   0.000256140663 -0.000133318801   0.000256140663 -0.000133318801      0.393543629         0.89562
12.663444            0.385285161     0.899221372   0.000256483101 -0.000133668413   0.000256483101 -0.000133668413      0.393986953     0.895406708
12.663472            0.385728406      0.89901305   0.000256825994 -0.000134018954   0.000256825994 -0.000134018954      0.394430527     0.895193011
12.6635              0.386171903     0.898804328   0.000257169343 -0.000134370428   0.000257169343 -0.000134370428       0.39487435     0.894978908
