! TOUCHSTONE file generated by CST MICROWAVE STUDIO
! Date and time: Wed Jul 31 20:59:52 2024
! Project name: WaveGuide_BPF-Ver4.1_U-shape_Ku_T3_C4_CWA_2.cst
! Parameters = {cavity_h=16; cavity_l0=10; cavity_l1=15.2208; cavity_l2=16.8682; cavity_l3=17.1346; cavity_l4=17.3064; cavity_l5=17.1709; cavity_l6=17.5598; cavity_r=2.5; cavity_screw_l=0.5; cavity_screw_r=1.5; cavity_w=8; iris_h00=0; iris_h01=8.8227; iris_h112=0; iris_h12=5.6031; iris_h211=3.6574; iris_h23=5.2052; iris_h310=3.976; iris_h34=5.0849; iris_h45=4.9326; iris_h49=4.6273; iris_h56=4.8051; iris_h58=4.4386; iris_h67=6.5913; iris_rx=0.1; iris_screw_l=0.5; iris_screw_r=1.5; iris_shift00=0; iris_shift112=0; iris_shift211=3.5; iris_shift310=0; iris_shift49=0; iris_shift58=3.5; iris_shift67=3.5; iris_tx=4.5; iris_tz=4.5; iris_w00=0; iris_w112=0; iris_w211=4; iris_w310=3.976; iris_w49=4.6273; iris_w58=4; iris_w67=4; mesh_cavity=5; mesh_iris=7; mesh_screw=7; order=12; reset_all=0; sigma=4.8e+07}
! Header version: 2018
! Port assignment regex: !\s*Touchstone port\s*([0-9]+)\s*=\s*(CST MWS port|CST DS port)\s*([0-9]+|Zmin|Zmax)\s*\(\"(.*)\"\)(\s*mode\s*([0-9]+))?.*
! Touchstone port assignment:
! Touchstone port 1 = CST MWS port 1 ("")
! Touchstone port 2 = CST MWS port 2 ("")
# GHz S RI R 50
12.66                0.440561036     0.870886955    0.00034728589 -0.000209042151    0.00034728589 -0.000209042151      0.434151567     0.874365289
12.660028            0.441037751     0.870622374   0.000347776139 -0.000209614135   0.000347776139 -0.000209614135      0.434624622      0.87410736
12.660056            0.441514703     0.870357294    0.00034826708 -0.000210187718    0.00034826708 -0.000210187718       0.43509782      0.87384899
12.660084            0.441991908     0.870091707   0.000348758696 -0.000210762913   0.000348758696 -0.000210762913      0.435571219     0.873590149
12.660112            0.442469384     0.869825603   0.000349250973 -0.000211339737   0.000349250973 -0.000211339737      0.436044877      0.87333081
12.66014             0.442947147     0.869558973   0.000349743895 -0.000211918203   0.000349743895 -0.000211918203      0.436518851     0.873070944
12.660168            0.443425197     0.869291816   0.000350237461 -0.000212498318   0.000350237461 -0.000212498318       0.43699314      0.87281055
12.660196            0.443903523     0.869024136   0.000350731683 -0.000213080079   0.000350731683 -0.000213080079      0.437467708     0.872549644
12.660224            0.444382125     0.868755933   0.000351226561 -0.000213663491   0.000351226561 -0.000213663491      0.437942554     0.872288227
12.660252            0.444861003     0.868487205   0.000351722094 -0.000214248559   0.000351722094 -0.000214248559      0.438417677     0.872026296
12.66028             0.445340158      0.86821795   0.000352218283 -0.000214835288   0.000352218284 -0.000214835288      0.438893079     0.871763852
12.660308            0.445819589     0.867948169   0.000352715129 -0.000215423683   0.000352715129 -0.000215423683      0.439368759     0.871500892
12.660336            0.446299297      0.86767786   0.000353212631  -0.00021601375   0.000353212631  -0.00021601375      0.439844718     0.871237417
12.660364            0.446779281     0.867407022    0.00035371079 -0.000216605492    0.00035371079 -0.000216605492      0.440320955     0.870973424
12.660392            0.447259541     0.867135654   0.000354209605 -0.000217198916   0.000354209605 -0.000217198916       0.44079747     0.870708912
12.66042             0.447740078     0.866863754   0.000354709077 -0.000217794026   0.000354709077 -0.000217794026      0.441274264     0.870443882
12.660448            0.448220892     0.866591323   0.000355209206 -0.000218390828   0.000355209206 -0.000218390828      0.441751337     0.870178331
12.660476            0.448701983     0.866318358   0.000355709991 -0.000218989326   0.000355709992 -0.000218989326      0.442228689     0.869912259
12.660504             0.44918335     0.866044858   0.000356211434 -0.000219589525   0.000356211434 -0.000219589525      0.442706319     0.869645664
12.660532            0.449664995     0.865770823   0.000356713534 -0.000220191431   0.000356713535 -0.000220191431      0.443184229     0.869378546
12.66056             0.450146916     0.865496251   0.000357216292 -0.000220795049   0.000357216292 -0.000220795049      0.443662417     0.869110903
12.660588            0.450629114     0.865221142   0.000357719707 -0.000221400384   0.000357719707 -0.000221400384      0.444140885     0.868842734
12.660616             0.45111159     0.864945494   0.000358223779 -0.000222007442   0.000358223779 -0.000222007442      0.444619632     0.868574039
12.660644            0.451594342     0.864669306   0.000358728509 -0.000222616226   0.000358728509 -0.000222616226      0.445098658     0.868304816
12.660672            0.452077372     0.864392577   0.000359233897 -0.000223226743   0.000359233897 -0.000223226743      0.445577963     0.868035064
12.6607              0.452560679     0.864115306   0.000359739942 -0.000223838998   0.000359739942 -0.000223838998      0.446057548     0.867764782
12.660728            0.453044264     0.863837491   0.000360246646 -0.000224452996   0.000360246646 -0.000224452996      0.446537413     0.867493968
12.660756            0.453528126     0.863559133   0.000360754007 -0.000225068742   0.000360754007 -0.000225068742      0.447017557     0.867222623
12.660784            0.454012265     0.863280229   0.000361262026 -0.000225686242   0.000361262026 -0.000225686242      0.447497981     0.866950745
12.660812            0.454496682     0.863000778   0.000361770703 -0.000226305501   0.000361770703 -0.000226305501      0.447978684     0.866678332
12.66084             0.454981376      0.86272078   0.000362280038 -0.000226926524   0.000362280038 -0.000226926524      0.448459668     0.866405383
12.660868            0.455466349     0.862440233   0.000362790031 -0.000227549316   0.000362790031 -0.000227549316      0.448940931     0.866131899
12.660896            0.455951598     0.862159137   0.000363300682 -0.000228173883   0.000363300682 -0.000228173883      0.449422474     0.865857876
12.660924            0.456437126     0.861877489   0.000363811991  -0.00022880023   0.000363811991  -0.00022880023      0.449904298     0.865583315
12.660952            0.456922931     0.861595289   0.000364323959 -0.000229428363   0.000364323959 -0.000229428363      0.450386401     0.865308214
12.66098             0.457409014     0.861312536   0.000364836584 -0.000230058287   0.000364836584 -0.000230058287      0.450868785     0.865032572
12.661008            0.457895375     0.861029229   0.000365349868 -0.000230690007   0.000365349868 -0.000230690007      0.451351449     0.864756388
12.661036            0.458382014     0.860745366   0.000365863809 -0.000231323528    0.00036586381 -0.000231323529      0.451834393     0.864479661
12.661064            0.458868931     0.860460946   0.000366378409 -0.000231958857   0.000366378409 -0.000231958857      0.452317618      0.86420239
12.661092            0.459356126     0.860175969   0.000366893667 -0.000232595999   0.000366893667 -0.000232595999      0.452801123     0.863924573
12.66112             0.459843599     0.859890433   0.000367409583 -0.000233234959   0.000367409583 -0.000233234959      0.453284909      0.86364621
12.661148            0.460331351     0.859604336   0.000367926157 -0.000233875742   0.000367926157 -0.000233875742      0.453768975     0.863367299
12.661176             0.46081938     0.859317679   0.000368443389 -0.000234518354   0.000368443389 -0.000234518354      0.454253322     0.863087839
12.661204            0.461307688     0.859030459   0.000368961279 -0.000235162801   0.000368961279 -0.000235162801       0.45473795      0.86280783
12.661232            0.461796274     0.858742676   0.000369479826 -0.000235809088   0.000369479826 -0.000235809088      0.455222859     0.862527269
12.66126             0.462285138     0.858454328   0.000369999032 -0.000236457221   0.000369999032 -0.000236457221      0.455708049     0.862246156
12.661288            0.462774281     0.858165414   0.000370518895 -0.000237107205   0.000370518895 -0.000237107205      0.456193519      0.86196449
12.661316            0.463263702     0.857875933   0.000371039416 -0.000237759046   0.000371039416 -0.000237759046      0.456679271      0.86168227
12.661344            0.463753401     0.857585884   0.000371560594 -0.000238412749   0.000371560594  -0.00023841275      0.457165303     0.861399494
12.661372            0.464243379     0.857295266    0.00037208243 -0.000239068321    0.00037208243 -0.000239068321      0.457651617     0.861116161
12.6614              0.464733636     0.857004078   0.000372604923 -0.000239725766   0.000372604924 -0.000239725766      0.458138212      0.86083227
12.661428            0.465224171     0.856712317   0.000373128074 -0.000240385091   0.000373128074 -0.000240385091      0.458625089     0.860547821
12.661456            0.465714985     0.856419984   0.000373651882 -0.000241046301   0.000373651882 -0.000241046301      0.459112246     0.860262811
12.661484            0.466206077     0.856127077   0.000374176346 -0.000241709401   0.000374176346 -0.000241709401      0.459599685      0.85997724
12.661512            0.466697448     0.855833595   0.000374701468 -0.000242374398   0.000374701468 -0.000242374398      0.460087406     0.859691106
12.66154             0.467189098     0.855539536   0.000375227246 -0.000243041297   0.000375227246 -0.000243041297      0.460575408     0.859404409
12.661568            0.467681027       0.8552449   0.000375753681 -0.000243710104   0.000375753681 -0.000243710104      0.461063691     0.859117147
12.661596            0.468173234     0.854949685   0.000376280772 -0.000244380825   0.000376280772 -0.000244380825      0.461552256     0.858829319
12.661624             0.46866572      0.85465389    0.00037680852 -0.000245053465    0.00037680852 -0.000245053465      0.462041103     0.858540923
12.661652            0.469158485     0.854357514   0.000377336924 -0.000245728031   0.000377336924 -0.000245728031      0.462530231      0.85825196
12.66168             0.469651529     0.854060556   0.000377865983 -0.000246404528   0.000377865983 -0.000246404528      0.463019642     0.857962427
12.661708            0.470144852     0.853763014   0.000378395699 -0.000247082961   0.000378395699 -0.000247082961      0.463509334     0.857672323
12.661736            0.470638454     0.853464888    0.00037892607 -0.000247763338    0.00037892607 -0.000247763338      0.463999308     0.857381647
12.661764            0.471132335     0.853166175   0.000379457096 -0.000248445663   0.000379457096 -0.000248445663      0.464489563     0.857090399
12.661792            0.471626494     0.852866876   0.000379988777 -0.000249129943   0.000379988777 -0.000249129943      0.464980101     0.856798576
12.66182             0.472120933     0.852566988   0.000380521113 -0.000249816183   0.000380521114 -0.000249816183      0.465470921     0.856506177
12.661848            0.472615651      0.85226651   0.000381054104 -0.000250504389   0.000381054105 -0.000250504389      0.465962023     0.856213202
12.661876            0.473110648     0.851965442    0.00038158775 -0.000251194568    0.00038158775 -0.000251194568      0.466453407     0.855919649
12.661904            0.473605923     0.851663782   0.000382122049 -0.000251886725    0.00038212205 -0.000251886725      0.466945073     0.855625518
12.661932            0.474101478     0.851361528   0.000382657003 -0.000252580867   0.000382657003 -0.000252580867      0.467437021     0.855330805
12.66196             0.474597313      0.85105868    0.00038319261 -0.000253276998    0.00038319261 -0.000253276998      0.467929252     0.855035512
12.661988            0.475093426     0.850755237   0.000383728871 -0.000253975126   0.000383728871 -0.000253975126      0.468421765     0.854739636
12.662016            0.475589818     0.850451196   0.000384265784 -0.000254675256   0.000384265784 -0.000254675256       0.46891456     0.854443176
12.662044             0.47608649     0.850146557   0.000384803351 -0.000255377395   0.000384803351 -0.000255377395      0.469407637     0.854146131
12.662072            0.476583441     0.849841319    0.00038534157 -0.000256081548    0.00038534157 -0.000256081548      0.469900997     0.853848499
12.6621              0.477080671     0.849535481   0.000385880441 -0.000256787722   0.000385880441 -0.000256787722      0.470394639      0.85355028
12.662128             0.47757818      0.84922904   0.000386419964 -0.000257495922   0.000386419964 -0.000257495922      0.470888564     0.853251472
12.662156            0.478075969     0.848921996   0.000386960139 -0.000258206155   0.000386960139 -0.000258206155      0.471382771     0.852952075
12.662184            0.478574036     0.848614348   0.000387500965 -0.000258918427   0.000387500965 -0.000258918427      0.471877261     0.852652086
12.662212            0.479072383     0.848306094   0.000388042441 -0.000259632744   0.000388042441 -0.000259632744      0.472372034     0.852351505
12.66224              0.47957101     0.847997233   0.000388584569 -0.000260349112   0.000388584569 -0.000260349112      0.472867089      0.85205033
12.662268            0.480069915     0.847687765   0.000389127346 -0.000261067538   0.000389127346 -0.000261067538      0.473362426      0.85174856
12.662296              0.4805691     0.847377686   0.000389670773 -0.000261788027   0.000389670773 -0.000261788027      0.473858047     0.851446194
12.662324            0.481068564     0.847066997    0.00039021485 -0.000262510586    0.00039021485 -0.000262510586       0.47435395      0.85114323
12.662352            0.481568308     0.846755696   0.000390759575 -0.000263235222   0.000390759575 -0.000263235222      0.474850136     0.850839668
12.66238              0.48206833     0.846443782   0.000391304949  -0.00026396194    0.00039130495  -0.00026396194      0.475346604     0.850535506
12.662408            0.482568632     0.846131253   0.000391850972 -0.000264690746   0.000391850972 -0.000264690746      0.475843356     0.850230743
12.662436            0.483069214     0.845818109   0.000392397642 -0.000265421648   0.000392397642 -0.000265421648       0.47634039     0.849925377
12.662464            0.483570074     0.845504347   0.000392944959 -0.000266154651   0.000392944959 -0.000266154651      0.476837707     0.849619408
12.662492            0.484071214     0.845189968   0.000393492923 -0.000266889762   0.000393492924 -0.000266889762      0.477335307     0.849312834
12.66252             0.484572633     0.844874968   0.000394041534 -0.000267626987   0.000394041534 -0.000267626987      0.477833189     0.849005653
12.662548            0.485074332     0.844559347   0.000394590791 -0.000268366332   0.000394590791 -0.000268366333      0.478331355     0.848697865
12.662576             0.48557631     0.844243105   0.000395140693 -0.000269107805   0.000395140693 -0.000269107805      0.478829804     0.848389469
12.662604            0.486078567     0.843926238    0.00039569124 -0.000269851411    0.00039569124 -0.000269851411      0.479328535     0.848080462
12.662632            0.486581103     0.843608747   0.000396242431 -0.000270597156   0.000396242432 -0.000270597156       0.47982755     0.847770844
12.66266             0.487083919      0.84329063   0.000396794267 -0.000271345048   0.000396794267 -0.000271345048      0.480326847     0.847460613
12.662688            0.487587014     0.842971885   0.000397346746 -0.000272095093   0.000397346746 -0.000272095093      0.480826428     0.847149769
12.662716            0.488090388     0.842652512   0.000397899868 -0.000272847297   0.000397899868 -0.000272847297      0.481326291     0.846838309
12.662744            0.488594042     0.842332508   0.000398453632 -0.000273601667   0.000398453632 -0.000273601667      0.481826438     0.846526233
12.662772            0.489097974     0.842011873   0.000399008039 -0.000274358209   0.000399008039 -0.000274358209      0.482326867     0.846213539
12.6628              0.489602186     0.841690605   0.000399563086  -0.00027511693   0.000399563086  -0.00027511693       0.48282758     0.845900226
12.662828            0.490106677     0.841368704   0.000400118774 -0.000275877836   0.000400118774 -0.000275877837      0.483328576     0.845586292
12.662856            0.490611448     0.841046166   0.000400675103 -0.000276640935   0.000400675103 -0.000276640935      0.483829855     0.845271737
12.662884            0.491116497     0.840722992   0.000401232071 -0.000277406233   0.000401232071 -0.000277406233      0.484331416     0.844956559
12.662912            0.491621826     0.840399181   0.000401789677 -0.000278173736   0.000401789678 -0.000278173736      0.484833261     0.844640757
12.66294             0.492127434     0.840074729   0.000402347922 -0.000278943451   0.000402347923 -0.000278943451      0.485335389     0.844324329
12.662968             0.49263332     0.839749637   0.000402906805 -0.000279715384   0.000402906806 -0.000279715384      0.485837801     0.844007274
12.662996            0.493139486     0.839423903   0.000403466325 -0.000280489544   0.000403466325 -0.000280489544      0.486340495      0.84368959
12.663024            0.493645931     0.839097526   0.000404026482 -0.000281265935   0.000404026482 -0.000281265935      0.486843472     0.843371278
12.663052            0.494152655     0.838770503   0.000404587274 -0.000282044565   0.000404587274 -0.000282044566      0.487346733     0.843052334
12.66308             0.494659658     0.838442835   0.000405148701 -0.000282825442   0.000405148701 -0.000282825442      0.487850276     0.842732758
12.663108             0.49516694     0.838114519   0.000405710762  -0.00028360857   0.000405710762  -0.00028360857      0.488354103     0.842412548
12.663136            0.495674501     0.837785554   0.000406273457 -0.000284393958   0.000406273458 -0.000284393958      0.488858213     0.842091703
12.663164            0.496182341     0.837455939   0.000406836786 -0.000285181612   0.000406836786 -0.000285181612      0.489362606     0.841770223
12.663192             0.49669046     0.837125673   0.000407400746  -0.00028597154   0.000407400746  -0.00028597154      0.489867282     0.841448104
12.66322             0.497198858     0.836794753   0.000407965338 -0.000286763747   0.000407965338 -0.000286763747      0.490372241     0.841125347
12.663248            0.497707534     0.836463179    0.00040853056  -0.00028755824   0.000408530561  -0.00028755824      0.490877483     0.840801949
12.663276             0.49821649      0.83613095   0.000409096413 -0.000288355028   0.000409096413 -0.000288355028      0.491383009     0.840477909
12.663304            0.498725724     0.835798063   0.000409662895 -0.000289154116   0.000409662895 -0.000289154116      0.491888817     0.840153227
12.663332            0.499235236     0.835464518   0.000410230006 -0.000289955512   0.000410230006 -0.000289955512      0.492394908       0.8398279
12.66336             0.499745028     0.835130313   0.000410797744 -0.000290759222   0.000410797744 -0.000290759222      0.492901283     0.839501927
12.663388            0.500255098     0.834795447   0.000411366108 -0.000291565254   0.000411366109 -0.000291565254       0.49340794     0.839175307
12.663416            0.500765446     0.834459918   0.000411935099 -0.000292373614     0.0004119351 -0.000292373614      0.493914881     0.838848039
12.663444            0.501276074     0.834123725   0.000412504716  -0.00029318431   0.000412504716  -0.00029318431      0.494422104      0.83852012
12.663472            0.501786979     0.833786866   0.000413074956 -0.000293997349   0.000413074956 -0.000293997349      0.494929611     0.838191551
12.6635              0.502298163     0.833449341    0.00041364582 -0.000294812737    0.00041364582 -0.000294812737        0.4954374     0.837862328
