# Hz S DB R 50
! Planar, S50244, 24171007, 25.4.1/6
! Date: 30.10.2025 10:42:34
! Data: Format (Calibration Info)
! Freq	S11:dB/Ang(F2)	S21:dB/Ang(F2)	S12:dB/Ang(F2)	S22:dB/Ang(F2)
1.14840000000E+10	-4.66916776834E-01	6.48940336544E+01	-5.96681455140E+01	-3.06593238670E+01	-5.97619632437E+01	-2.93218242231E+01	-4.94939922344E-01	5.79433535026E+01
1.14842220000E+10	-4.67058783427E-01	6.44979887047E+01	-5.96642000627E+01	-3.08929206356E+01	-5.97506205861E+01	-2.97211681088E+01	-4.98265338399E-01	5.74429155052E+01
1.14844440000E+10	-4.68089455065E-01	6.40994109260E+01	-5.96518768274E+01	-3.13472210232E+01	-5.97407264441E+01	-3.00679867978E+01	-5.01547783337E-01	5.69372141485E+01
1.14846660000E+10	-4.69493791959E-01	6.36950426819E+01	-5.96620379644E+01	-3.16875606282E+01	-5.97403709382E+01	-3.03461960221E+01	-5.05023742041E-01	5.64231440542E+01
1.14848880000E+10	-4.71321270851E-01	6.32871124590E+01	-5.96628568397E+01	-3.20527646555E+01	-5.97430847571E+01	-3.07569916903E+01	-5.08717843172E-01	5.59051957591E+01
1.14851100000E+10	-4.73416389794E-01	6.28744397713E+01	-5.96690071254E+01	-3.23119186497E+01	-5.97511113834E+01	-3.10389026120E+01	-5.12251207307E-01	5.53814179031E+01
1.14853320000E+10	-4.76257480205E-01	6.24558807526E+01	-5.96865317077E+01	-3.26918600371E+01	-5.97578243663E+01	-3.14699078899E+01	-5.15656903000E-01	5.48472503539E+01
1.14855540000E+10	-4.78338423619E-01	6.20340288895E+01	-5.97084748413E+01	-3.30195049046E+01	-5.97815276885E+01	-3.17226871351E+01	-5.19170568516E-01	5.43091831385E+01
1.14857760000E+10	-4.80925569502E-01	6.16045425781E+01	-5.97401366105E+01	-3.32582045620E+01	-5.98066894159E+01	-3.20804368412E+01	-5.22553078561E-01	5.37623721602E+01
1.14859980000E+10	-4.83645295366E-01	6.11712332014E+01	-5.97663506389E+01	-3.36049372888E+01	-5.98339838154E+01	-3.23656902753E+01	-5.26490590846E-01	5.32051907667E+01
1.14862200000E+10	-4.86400845368E-01	6.07324693997E+01	-5.97997704971E+01	-3.38530432934E+01	-5.98755033400E+01	-3.26480968039E+01	-5.30743024047E-01	5.26442847060E+01
1.14864420000E+10	-4.89229540645E-01	6.02901065050E+01	-5.98512278230E+01	-3.42010483991E+01	-5.99217335501E+01	-3.28931411422E+01	-5.34618014261E-01	5.20748339324E+01
1.14866640000E+10	-4.92449375741E-01	5.98411413620E+01	-5.99026990668E+01	-3.44067507074E+01	-5.99684530879E+01	-3.32211463853E+01	-5.38456418873E-01	5.14964361075E+01
1.14868860000E+10	-4.95326450469E-01	5.93854709395E+01	-5.99753436388E+01	-3.47361114806E+01	-6.00355597601E+01	-3.35054590080E+01	-5.42921484114E-01	5.09141226783E+01
1.14871080000E+10	-4.98602989795E-01	5.89237288618E+01	-6.00456701312E+01	-3.50532626964E+01	-6.01110225145E+01	-3.38527063439E+01	-5.47402304025E-01	5.03187831280E+01
1.14873300000E+10	-5.02045072488E-01	5.84563301967E+01	-6.01276029432E+01	-3.51790882524E+01	-6.01869283446E+01	-3.39846188602E+01	-5.51884277239E-01	4.97208573632E+01
1.14875520000E+10	-5.05581383528E-01	5.79812866161E+01	-6.02184676725E+01	-3.55254723382E+01	-6.02910817653E+01	-3.42541823611E+01	-5.56630612154E-01	4.91089193392E+01
1.14877740000E+10	-5.09219444963E-01	5.75004567031E+01	-6.03343766333E+01	-3.56686359162E+01	-6.03884044734E+01	-3.44947429563E+01	-5.61551021098E-01	4.84875912797E+01
1.14879960000E+10	-5.12842472854E-01	5.70123077606E+01	-6.04563794020E+01	-3.58774196279E+01	-6.05087571340E+01	-3.46991392516E+01	-5.66839373607E-01	4.78623385690E+01
1.14882180000E+10	-5.16354686280E-01	5.65209015760E+01	-6.05893392470E+01	-3.60274071528E+01	-6.06409048393E+01	-3.48711803921E+01	-5.71357645561E-01	4.72199584546E+01
1.14884400000E+10	-5.20353199961E-01	5.60204901976E+01	-6.07336007018E+01	-3.62420214427E+01	-6.07833703591E+01	-3.50552893722E+01	-5.76473537135E-01	4.65741457995E+01
1.14886620000E+10	-5.24558582734E-01	5.55146271568E+01	-6.09053229013E+01	-3.63028538030E+01	-6.09405260832E+01	-3.51802301044E+01	-5.81511494097E-01	4.59171538213E+01
1.14888840000E+10	-5.28403707843E-01	5.49991644656E+01	-6.10828096077E+01	-3.63859602418E+01	-6.11312636881E+01	-3.52333877721E+01	-5.87171127342E-01	4.52497643710E+01
1.14891060000E+10	-5.32412311241E-01	5.44751199162E+01	-6.12792601618E+01	-3.64556698915E+01	-6.13386611803E+01	-3.52550933671E+01	-5.92796273157E-01	4.45766407918E+01
1.14893280000E+10	-5.36773473937E-01	5.39454865509E+01	-6.15206800859E+01	-3.63667299868E+01	-6.15594584533E+01	-3.52640095422E+01	-5.98560483421E-01	4.38906902304E+01
1.14895500000E+10	-5.41165284727E-01	5.34083502466E+01	-6.17530906896E+01	-3.63078535862E+01	-6.18095418025E+01	-3.51556215552E+01	-6.04690318154E-01	4.31877019468E+01
1.14897720000E+10	-5.46175623723E-01	5.28632681629E+01	-6.20305421624E+01	-3.60332112751E+01	-6.20800281691E+01	-3.49867124506E+01	-6.10213583024E-01	4.24801427117E+01
1.14899940000E+10	-5.50720524834E-01	5.23091449466E+01	-6.23420846180E+01	-3.57773317253E+01	-6.23821848397E+01	-3.46959291682E+01	-6.16564452741E-01	4.17610250072E+01
1.14902160000E+10	-5.55258026738E-01	5.17469667683E+01	-6.26882221192E+01	-3.53437461663E+01	-6.27207550886E+01	-3.42457520441E+01	-6.23332104784E-01	4.10285281487E+01
1.14904380000E+10	-5.60330261477E-01	5.11754843365E+01	-6.30658930845E+01	-3.47960903624E+01	-6.30982024285E+01	-3.37135736611E+01	-6.29490760962E-01	4.02857126852E+01
1.14906600000E+10	-5.65788694601E-01	5.05970936463E+01	-6.34879821457E+01	-3.39661486645E+01	-6.34999144812E+01	-3.29477202695E+01	-6.35963125171E-01	3.95310347970E+01
1.14908820000E+10	-5.71156155588E-01	5.00088583436E+01	-6.39484526109E+01	-3.29614070578E+01	-6.39729590287E+01	-3.19057388115E+01	-6.42448736143E-01	3.87610930149E+01
1.14911040000E+10	-5.76927147979E-01	4.94112987014E+01	-6.45063660021E+01	-3.18372066975E+01	-6.44938522074E+01	-3.06446669392E+01	-6.50009024881E-01	3.79791616912E+01
1.14913260000E+10	-5.82485583360E-01	4.88023807663E+01	-6.50505031182E+01	-3.00121740562E+01	-6.50915299891E+01	-2.90060538299E+01	-6.57438370920E-01	3.71861459002E+01
1.14915480000E+10	-5.87939024385E-01	4.81849769670E+01	-6.57442152194E+01	-2.78507531021E+01	-6.57317864327E+01	-2.66911061145E+01	-6.64667573750E-01	3.63736602590E+01
1.14917700000E+10	-5.93788900606E-01	4.75587647974E+01	-6.64570302169E+01	-2.49247702801E+01	-6.64787114233E+01	-2.40289146174E+01	-6.72750430452E-01	3.55481431803E+01
1.14919920000E+10	-6.00355237916E-01	4.69206728233E+01	-6.72412694096E+01	-2.11796299683E+01	-6.72770419566E+01	-2.02761478243E+01	-6.81020523357E-01	3.47101870838E+01
1.14922140000E+10	-6.06628659819E-01	4.62709973892E+01	-6.81379120205E+01	-1.61900079173E+01	-6.81363965492E+01	-1.50377016400E+01	-6.89393001596E-01	3.38555404131E+01
1.14924360000E+10	-6.13029571182E-01	4.56094507976E+01	-6.90074246682E+01	-9.27023907922E+00	-6.90485057868E+01	-8.22553314432E+00	-6.98514727913E-01	3.29901602902E+01
1.14926580000E+10	-6.20113955413E-01	4.49378559543E+01	-6.98921336870E+01	-3.57415340729E-01	-6.98990080966E+01	9.67648890407E-01	-7.07574343421E-01	3.21079241487E+01
1.14928800000E+10	-6.27567010749E-01	4.42535721983E+01	-7.05443749712E+01	1.13234354600E+01	-7.05155061894E+01	1.22590161443E+01	-7.16726755846E-01	3.12096444791E+01
1.14931020000E+10	-6.34683608348E-01	4.35601432904E+01	-7.07112099572E+01	2.50715196869E+01	-7.07127304087E+01	2.61424477672E+01	-7.25935329708E-01	3.02946678382E+01
1.14933240000E+10	-6.42496022969E-01	4.28511679224E+01	-7.03485194360E+01	3.95628122546E+01	-7.03266996720E+01	4.02086676186E+01	-7.35860432470E-01	2.93615791139E+01
1.14935460000E+10	-6.50359758229E-01	4.21309960691E+01	-6.94569762040E+01	5.24293300201E+01	-6.94420596529E+01	5.31669637977E+01	-7.46154324385E-01	2.84047784106E+01
1.14937680000E+10	-6.58424244322E-01	4.13966351317E+01	-6.82274434504E+01	6.26947944242E+01	-6.81779973457E+01	6.40343679299E+01	-7.56975771095E-01	2.74337160325E+01
1.14939900000E+10	-6.67151689962E-01	4.06460193651E+01	-6.68558484480E+01	7.10678323182E+01	-6.68199001710E+01	7.17981980284E+01	-7.67348445807E-01	2.64421336064E+01
1.14942120000E+10	-6.75859674005E-01	3.98785125411E+01	-6.54689768143E+01	7.69703967138E+01	-6.54117941977E+01	7.79176029738E+01	-7.79000503609E-01	2.54331638986E+01
1.14944340000E+10	-6.85406901029E-01	3.90981745752E+01	-6.41098068714E+01	8.14140938143E+01	-6.40898492142E+01	8.21568837128E+01	-7.90476698730E-01	2.44038751991E+01
1.14946560000E+10	-6.94859543543E-01	3.83031483139E+01	-6.28575122048E+01	8.47666174223E+01	-6.28157972820E+01	8.56044752475E+01	-8.03444043020E-01	2.33543931440E+01
1.14948780000E+10	-7.04978682226E-01	3.74926204715E+01	-6.16670194868E+01	8.71262943390E+01	-6.16254096692E+01	8.79549452682E+01	-8.16119166598E-01	2.22827944504E+01
1.14951000000E+10	-7.15079123185E-01	3.66634672443E+01	-6.05735124059E+01	8.89839054161E+01	-6.05343061808E+01	8.98310074002E+01	-8.29517858827E-01	2.11823633413E+01
1.14953220000E+10	-7.25836382224E-01	3.58190032328E+01	-5.95209429507E+01	9.03627449052E+01	-5.94788232688E+01	9.10781297894E+01	-8.42741913661E-01	2.00627529430E+01
1.14955440000E+10	-7.37012024485E-01	3.49558403173E+01	-5.85432702939E+01	9.13446118132E+01	-5.84954607771E+01	9.20801711093E+01	-8.57092103543E-01	1.89214626691E+01
1.14957660000E+10	-7.49005140339E-01	3.40753408804E+01	-5.76149180835E+01	9.19696643155E+01	-5.75739945783E+01	9.27446643999E+01	-8.71979254060E-01	1.77523756754E+01
1.14959880000E+10	-7.61243364477E-01	3.31750751681E+01	-5.67390001600E+01	9.24106376025E+01	-5.66861917904E+01	9.32039150597E+01	-8.87104345163E-01	1.65548351068E+01
1.14962100000E+10	-7.74425643602E-01	3.22526770911E+01	-5.59097755579E+01	9.27215325416E+01	-5.58691606601E+01	9.34958956834E+01	-9.03198506149E-01	1.53343391069E+01
1.14964320000E+10	-7.87786165085E-01	3.13099064209E+01	-5.51187535137E+01	9.28185512952E+01	-5.50661721362E+01	9.35583346283E+01	-9.20489904461E-01	1.40824531121E+01
1.14966540000E+10	-8.01646509826E-01	3.03468557463E+01	-5.43807142846E+01	9.28476853124E+01	-5.43188719470E+01	9.35600714565E+01	-9.38345936352E-01	1.28049212598E+01
1.14968760000E+10	-8.16304533786E-01	2.93576060736E+01	-5.36624951941E+01	9.27422524143E+01	-5.36088123596E+01	9.34457583360E+01	-9.56228487834E-01	1.14955588450E+01
1.14970980000E+10	-8.31692291998E-01	2.83464310104E+01	-5.29910453529E+01	9.25881963546E+01	-5.29251222620E+01	9.32740439136E+01	-9.75811354347E-01	1.01540855941E+01
1.14973200000E+10	-8.47663724204E-01	2.73118555951E+01	-5.23434267576E+01	9.23663156261E+01	-5.22718635899E+01	9.31008838411E+01	-9.96235592759E-01	8.77985443844E+00
1.14975420000E+10	-8.64921537790E-01	2.62509580204E+01	-5.17299520567E+01	9.21069283926E+01	-5.16580185062E+01	9.27574670664E+01	-1.01714172561E+00	7.37447239670E+00
1.14977640000E+10	-8.82627727641E-01	2.51593933038E+01	-5.11372661541E+01	9.18052236597E+01	-5.10661221283E+01	9.24735092717E+01	-1.03936134056E+00	5.92896741672E+00
1.14979860000E+10	-9.01631324087E-01	2.40363808367E+01	-5.05862040616E+01	9.15458367202E+01	-5.05064811415E+01	9.21305989381E+01	-1.06300286664E+00	4.44998318544E+00
1.14982080000E+10	-9.21416102230E-01	2.28889005023E+01	-5.00585424484E+01	9.12370197824E+01	-4.99733517544E+01	9.18154800447E+01	-1.08718455596E+00	2.93047324597E+00
1.14984300000E+10	-9.42295024762E-01	2.17081913282E+01	-4.95651673684E+01	9.09286957071E+01	-4.94809463794E+01	9.15080361059E+01	-1.11258236631E+00	1.36643195569E+00
1.14986520000E+10	-9.64736224144E-01	2.04953528541E+01	-4.91008757673E+01	9.06970150749E+01	-4.90082459652E+01	9.12499770583E+01	-1.14001156291E+00	-2.36730874332E-01
1.14988740000E+10	-9.88626660620E-01	1.92455251037E+01	-4.86692314289E+01	9.05394707780E+01	-4.85680551964E+01	9.10297863893E+01	-1.16847325607E+00	-1.88291328558E+00
1.14990960000E+10	-1.01333584164E+00	1.79581224552E+01	-4.82643621702E+01	9.04519154427E+01	-4.81655536153E+01	9.08992635538E+01	-1.19793683344E+00	-3.57785564614E+00
1.14993180000E+10	-1.03952650843E+00	1.66338582718E+01	-4.79009999072E+01	9.04778541439E+01	-4.77959879804E+01	9.08796347495E+01	-1.22958289417E+00	-5.32051155716E+00
1.14995400000E+10	-1.06745620463E+00	1.52661301569E+01	-4.75688892594E+01	9.06488582647E+01	-4.74640672789E+01	9.10363371361E+01	-1.26337065459E+00	-7.11263797480E+00
1.14997620000E+10	-1.09760227932E+00	1.38539649350E+01	-4.72738243563E+01	9.10320211912E+01	-4.71659358259E+01	9.13602500431E+01	-1.29853472919E+00	-8.96249222362E+00
1.14999840000E+10	-1.12946244256E+00	1.23932700834E+01	-4.70204809937E+01	9.16949773562E+01	-4.69080282516E+01	9.19797397204E+01	-1.33609900842E+00	-1.08654007443E+01
1.15002060000E+10	-1.16333143469E+00	1.08885215579E+01	-4.68057531190E+01	9.27026516395E+01	-4.66941179727E+01	9.29410505155E+01	-1.37608711027E+00	-1.28263914096E+01
1.15004280000E+10	-1.20040827286E+00	9.32755592996E+00	-4.66302096854E+01	9.41959032107E+01	-4.65156374936E+01	9.43671089773E+01	-1.41916878834E+00	-1.48565353869E+01
1.15006500000E+10	-1.23974644917E+00	7.71418468702E+00	-4.64874672596E+01	9.62663819652E+01	-4.63709834911E+01	9.64045992770E+01	-1.46410330566E+00	-1.69474089643E+01
1.15008720000E+10	-1.28219690057E+00	6.03613679160E+00	-4.63602214805E+01	9.91428960321E+01	-4.62478961959E+01	9.92279430134E+01	-1.51243647717E+00	-1.91132960073E+01
1.15010940000E+10	-1.32722160375E+00	4.29677306249E+00	-4.62369753698E+01	1.03010127849E+02	-4.61200233792E+01	1.03032350055E+02	-1.56452289753E+00	-2.13459181647E+01
1.15013160000E+10	-1.37710279645E+00	2.48873434534E+00	-4.60650223666E+01	1.08039324622E+02	-4.59485044623E+01	1.08021500700E+02	-1.62083754805E+00	-2.36650563031E+01
1.15015380000E+10	-1.43089741580E+00	6.05471871592E-01	-4.57820773419E+01	1.14397476893E+02	-4.56640185584E+01	1.14281317675E+02	-1.68032308441E+00	-2.60669999812E+01
1.15017600000E+10	-1.48942587466E+00	-1.35448357964E+00	-4.52936826702E+01	1.21938763783E+02	-4.51789408566E+01	1.21790874925E+02	-1.74509713050E+00	-2.85565944691E+01
1.15019820000E+10	-1.55384607702E+00	-3.40250692287E+00	-4.45150234333E+01	1.30243593278E+02	-4.44012412700E+01	1.30035331076E+02	-1.81515790007E+00	-3.11447670521E+01
1.15022040000E+10	-1.62376430554E+00	-5.54142295618E+00	-4.34008524947E+01	1.38578630860E+02	-4.32900038956E+01	1.38322724418E+02	-1.89095858973E+00	-3.38369552834E+01
1.15024260000E+10	-1.70123949049E+00	-7.78139806352E+00	-4.19704913752E+01	1.46109285990E+02	-4.18628928164E+01	1.45784986849E+02	-1.97376127719E+00	-3.66328239852E+01
1.15026480000E+10	-1.78673223292E+00	-1.01358818810E+01	-4.03012656438E+01	1.52277408194E+02	-4.01978976853E+01	1.51905251420E+02	-2.06344354130E+00	-3.95434270385E+01
1.15028700000E+10	-1.88178380563E+00	-1.26070226766E+01	-3.84847742954E+01	1.56853938494E+02	-3.83847979904E+01	1.56431500228E+02	-2.16220206978E+00	-4.25859696451E+01
1.15030920000E+10	-1.98876963352E+00	-1.52051535055E+01	-3.65946181514E+01	1.59893608615E+02	-3.64982607144E+01	1.59415605467E+02	-2.27098277330E+00	-4.57620038129E+01
1.15033140000E+10	-2.10874586143E+00	-1.79446917623E+01	-3.46825484316E+01	1.61544665680E+02	-3.45899734735E+01	1.61017637799E+02	-2.39150749204E+00	-4.90847144161E+01
1.15035360000E+10	-2.24386129415E+00	-2.08399534612E+01	-3.27785945744E+01	1.62019592727E+02	-3.26913805263E+01	1.61441044834E+02	-2.52479708364E+00	-5.25616680665E+01
1.15037580000E+10	-2.39722482219E+00	-2.39114924564E+01	-3.08978223857E+01	1.61466797706E+02	-3.08177430252E+01	1.60846212790E+02	-2.67479573655E+00	-5.62084987792E+01
1.15039800000E+10	-2.57336537453E+00	-2.71605030797E+01	-2.90495697397E+01	1.60037480243E+02	-2.89750209584E+01	1.59365045402E+02	-2.84274941214E+00	-6.00313038315E+01
1.15042020000E+10	-2.77703882744E+00	-3.06105937969E+01	-2.72351961884E+01	1.57818136067E+02	-2.71688562889E+01	1.57094820111E+02	-3.03372421265E+00	-6.40522630412E+01
1.15044240000E+10	-3.01411570082E+00	-3.42765994124E+01	-2.54555117429E+01	1.54869814447E+02	-2.53988305192E+01	1.54100408948E+02	-3.25072404682E+00	-6.82772837114E+01
1.15046460000E+10	-3.29188714745E+00	-3.81752244116E+01	-2.37317653509E+01	1.51194225782E+02	-2.36575027198E+01	1.50368989355E+02	-3.50081083633E+00	-7.27144987603E+01
1.15048680000E+10	-3.62023865163E+00	-4.23185044038E+01	-2.20328700891E+01	1.46920690489E+02	-2.19654211974E+01	1.46039585362E+02	-3.78974201106E+00	-7.73758433741E+01
1.15050900000E+10	-4.01059995720E+00	-4.67108045923E+01	-2.03685629317E+01	1.41959532401E+02	-2.03152244366E+01	1.41069743303E+02	-4.12622676513E+00	-8.22596189416E+01
1.15053120000E+10	-4.47806815184E+00	-5.13419828177E+01	-1.87597820789E+01	1.36370869041E+02	-1.87178768762E+01	1.35468153150E+02	-4.52051408985E+00	-8.73575922262E+01
1.15055340000E+10	-5.03993283000E+00	-5.61848238582E+01	-1.72065533608E+01	1.30119705703E+02	-1.71769522539E+01	1.29219437672E+02	-4.98262492226E+00	-9.26328517015E+01
1.15057560000E+10	-5.71769882273E+00	-6.11795324911E+01	-1.57214938743E+01	1.23239721084E+02	-1.57051508936E+01	1.22344315660E+02	-5.52677491404E+00	-9.80443240365E+01
1.15059780000E+10	-6.53583160580E+00	-6.62213027824E+01	-1.43178072002E+01	1.15751908535E+02	-1.43112364202E+01	1.14875731248E+02	-6.16357549660E+00	-1.03501180594E+02
1.15062000000E+10	-7.51883007679E+00	-7.11381041376E+01	-1.30068597678E+01	1.07708174891E+02	-1.30106048205E+01	1.06871832378E+02	-6.90427400541E+00	-1.08875049795E+02
1.15064220000E+10	-8.69200679527E+00	-7.56699813980E+01	-1.18019161925E+01	9.91852640609E+01	-1.18155430077E+01	9.83945874797E+01	-7.75238705492E+00	-1.14018109711E+02
1.15066440000E+10	-1.00746973063E+01	-7.94376091846E+01	-1.07181454372E+01	9.03038097729E+01	-1.07342880673E+01	8.95614338729E+01	-8.70523480513E+00	-1.18721097354E+02
1.15068660000E+10	-1.16714469145E+01	-8.19248848944E+01	-9.75445057087E+00	8.11957102205E+01	-9.77546997360E+00	8.05044293556E+01	-9.74454164539E+00	-1.22791265978E+02
1.15070880000E+10	-1.34547372062E+01	-8.24397410614E+01	-8.91478159230E+00	7.20009297968E+01	-8.93808392161E+00	7.13526083354E+01	-1.08393335013E+01	-1.26059824904E+02
1.15073100000E+10	-1.53379354470E+01	-8.01710421778E+01	-8.19171406013E+00	6.28626875864E+01	-8.21625680148E+00	6.22358061222E+01	-1.19464396649E+01	-1.28467672524E+02
1.15075320000E+10	-1.71296343098E+01	-7.44768541428E+01	-7.57479693536E+00	5.38674382089E+01	-7.60052068166E+00	5.32701148344E+01	-1.30193921603E+01	-1.30080119450E+02
1.15077540000E+10	-1.85400068733E+01	-6.56685908154E+01	-7.04924032463E+00	4.51193367582E+01	-7.07767030649E+00	4.45389956251E+01	-1.40161609185E+01	-1.31147042184E+02
1.15079760000E+10	-1.93403393051E+01	-5.56166835115E+01	-6.60248433609E+00	3.66418809335E+01	-6.63299516299E+00	3.60902338054E+01	-1.49226044470E+01	-1.31988376113E+02
1.15081980000E+10	-1.95948996616E+01	-4.67415526011E+01	-6.21978724213E+00	2.84785839288E+01	-6.25280914512E+00	2.79376271087E+01	-1.57490740619E+01	-1.32956316925E+02
1.15084200000E+10	-1.95648985044E+01	-4.02511509919E+01	-5.88961967616E+00	2.06208701092E+01	-5.92578543097E+00	2.00946561772E+01	-1.65278804160E+01	-1.34317108330E+02
1.15086420000E+10	-1.94889811399E+01	-3.59563392666E+01	-5.60103712362E+00	1.30617333087E+01	-5.64050115681E+00	1.25607180224E+01	-1.72974773510E+01	-1.36178794095E+02
1.15088640000E+10	-1.94901641468E+01	-3.31640291646E+01	-5.34733392332E+00	5.78309827032E+00	-5.38919521345E+00	5.30462960587E+00	-1.81083927607E+01	-1.38595482679E+02
1.15090860000E+10	-1.96160074960E+01	-3.11942665044E+01	-5.12207656620E+00	-1.24427155140E+00	-5.16663663322E+00	-1.68832996803E+00	-1.89917565847E+01	-1.41482563265E+02
1.15093080000E+10	-1.98662475267E+01	-2.94930275230E+01	-4.92025951327E+00	-8.03483247914E+00	-4.96643417512E+00	-8.43843569413E+00	-1.99897551140E+01	-1.44819341268E+02
1.15095300000E+10	-2.02256338396E+01	-2.76304677817E+01	-4.73945900159E+00	-1.45983968609E+01	-4.78580939545E+00	-1.49705848384E+01	-2.11355622842E+01	-1.48462191263E+02
1.15097520000E+10	-2.06621184041E+01	-2.53135536593E+01	-4.57570460099E+00	-2.09768006550E+01	-4.62074913682E+00	-2.13107654649E+01	-2.24754695957E+01	-1.52327173433E+02
1.15099740000E+10	-2.11361829603E+01	-2.23148011091E+01	-4.42727263057E+00	-2.71685933327E+01	-4.47088756671E+00	-2.74643980490E+01	-2.40669067988E+01	-1.56253833517E+02
