# Hz S DB R 50
! Planar, S50244, 24171007, 25.4.1/6
! Date: 30.10.2025 10:43:31
! Data: Format (Calibration Info)
! Freq	S11:dB/Ang(F2)	S21:dB/Ang(F2)	S12:dB/Ang(F2)	S22:dB/Ang(F2)
1.14840000000E+10	-4.69648078391E-01	6.46883805457E+01	-5.83847895620E+01	-3.10684587993E+01	-5.84605615113E+01	-2.97915825162E+01	-5.15318158499E-01	5.76729591047E+01
1.14842220000E+10	-4.69958127249E-01	6.42938956737E+01	-5.83651323426E+01	-3.14257280248E+01	-5.84420800881E+01	-3.00932824452E+01	-5.19402613600E-01	5.71279053232E+01
1.14844440000E+10	-4.71071614277E-01	6.38948132680E+01	-5.83501042507E+01	-3.17110643310E+01	-5.84354906318E+01	-3.05664627116E+01	-5.23604405727E-01	5.65725184590E+01
1.14846660000E+10	-4.72399145737E-01	6.34905773713E+01	-5.83387945547E+01	-3.21253441698E+01	-5.84089980557E+01	-3.08661804493E+01	-5.27804520968E-01	5.60090623395E+01
1.14848880000E+10	-4.74251981547E-01	6.30830068856E+01	-5.83286489021E+01	-3.25034589539E+01	-5.83917011489E+01	-3.12665025312E+01	-5.32602467161E-01	5.54397489425E+01
1.14851100000E+10	-4.76074462621E-01	6.26706947800E+01	-5.83296413114E+01	-3.28869650428E+01	-5.83991813194E+01	-3.15568234052E+01	-5.37565884435E-01	5.48632018954E+01
1.14853320000E+10	-4.78741740670E-01	6.22535065903E+01	-5.83398065207E+01	-3.32356153118E+01	-5.83982863027E+01	-3.19054197542E+01	-5.42359543395E-01	5.42748805228E+01
1.14855540000E+10	-4.80976731562E-01	6.18330215385E+01	-5.83319853619E+01	-3.35535429380E+01	-5.84150776255E+01	-3.23119172753E+01	-5.47158665762E-01	5.36754110406E+01
1.14857760000E+10	-4.83631880496E-01	6.14028140806E+01	-5.83542077513E+01	-3.39192393831E+01	-5.84163018071E+01	-3.27050217071E+01	-5.51949337771E-01	5.30704257671E+01
1.14859980000E+10	-4.86447598781E-01	6.09733075130E+01	-5.83692619360E+01	-3.42918218123E+01	-5.84312170715E+01	-3.29766372914E+01	-5.57027377974E-01	5.24555869784E+01
1.14862200000E+10	-4.89200233741E-01	6.05346954063E+01	-5.83984778813E+01	-3.46329656528E+01	-5.84572920253E+01	-3.34065175317E+01	-5.62739933397E-01	5.18263084657E+01
1.14864420000E+10	-4.92362677451E-01	6.00905330023E+01	-5.84381012130E+01	-3.48962705777E+01	-5.84965382448E+01	-3.36931497101E+01	-5.68061158529E-01	5.11884436484E+01
1.14866640000E+10	-4.95576056510E-01	5.96413214388E+01	-5.84841862173E+01	-3.52718427655E+01	-5.85382820439E+01	-3.40353985299E+01	-5.73782195027E-01	5.05391056623E+01
1.14868860000E+10	-4.98663522002E-01	5.91885956695E+01	-5.85434135093E+01	-3.56174551907E+01	-5.85935264876E+01	-3.43638056818E+01	-5.80092961991E-01	4.98815557939E+01
1.14871080000E+10	-5.02031974498E-01	5.87277084718E+01	-5.85971260978E+01	-3.58996413231E+01	-5.86475589654E+01	-3.46915822336E+01	-5.85810802885E-01	4.92115252277E+01
1.14873300000E+10	-5.05298853502E-01	5.82606588166E+01	-5.86766348219E+01	-3.61616528627E+01	-5.87236724756E+01	-3.49767716063E+01	-5.92179619280E-01	4.85349883129E+01
1.14875520000E+10	-5.08470430048E-01	5.77870790705E+01	-5.87560708490E+01	-3.64804696437E+01	-5.87917976602E+01	-3.53302683127E+01	-5.98806678331E-01	4.78384606771E+01
1.14877740000E+10	-5.12013956132E-01	5.73092317375E+01	-5.88536269458E+01	-3.67573086479E+01	-5.88847765496E+01	-3.55162308959E+01	-6.05500123817E-01	4.71317130819E+01
1.14879960000E+10	-5.15522169083E-01	5.68205633899E+01	-5.89541086665E+01	-3.70432610688E+01	-5.89870172476E+01	-3.57936987550E+01	-6.12517570091E-01	4.64177895213E+01
1.14882180000E+10	-5.19217609846E-01	5.63286299051E+01	-5.90785850337E+01	-3.72163338537E+01	-5.91116568280E+01	-3.59911690404E+01	-6.19633934240E-01	4.56837981750E+01
1.14884400000E+10	-5.23133404996E-01	5.58278893872E+01	-5.92158357123E+01	-3.73902723112E+01	-5.92435231579E+01	-3.62804916552E+01	-6.26817776400E-01	4.49414504348E+01
1.14886620000E+10	-5.27449936190E-01	5.53235018648E+01	-5.93659639971E+01	-3.76034526090E+01	-5.93820526820E+01	-3.63794512935E+01	-6.34718031626E-01	4.41811294951E+01
1.14888840000E+10	-5.31486328933E-01	5.48062757451E+01	-5.95354319620E+01	-3.77029030045E+01	-5.95568575807E+01	-3.65500029992E+01	-6.42325612478E-01	4.34050319123E+01
1.14891060000E+10	-5.35475040788E-01	5.42844268381E+01	-5.97189247699E+01	-3.78609071075E+01	-5.97526182875E+01	-3.66387986455E+01	-6.50521165784E-01	4.26205356074E+01
1.14893280000E+10	-5.39543435061E-01	5.37560454732E+01	-5.99325531046E+01	-3.78253601734E+01	-5.99529362453E+01	-3.66239922024E+01	-6.58790547730E-01	4.18212521782E+01
1.14895500000E+10	-5.43848181568E-01	5.32209423170E+01	-6.01799251362E+01	-3.77821254213E+01	-6.01878520553E+01	-3.65604605995E+01	-6.67400265847E-01	4.10029875778E+01
1.14897720000E+10	-5.48673732467E-01	5.26744982893E+01	-6.04351778043E+01	-3.76538406898E+01	-6.04459562219E+01	-3.63781800487E+01	-6.76182611011E-01	4.01666142696E+01
1.14899940000E+10	-5.53205148531E-01	5.21240791231E+01	-6.07207639177E+01	-3.74250280654E+01	-6.07442070314E+01	-3.61648566856E+01	-6.85303544581E-01	3.93157525090E+01
1.14902160000E+10	-5.57882693749E-01	5.15643414369E+01	-6.10529246794E+01	-3.70351519854E+01	-6.10607936672E+01	-3.58302971357E+01	-6.95511939245E-01	3.84499660084E+01
1.14904380000E+10	-5.62832460149E-01	5.09937587792E+01	-6.14224378999E+01	-3.64580942398E+01	-6.14158386400E+01	-3.54856988803E+01	-7.05466945389E-01	3.75639139190E+01
1.14906600000E+10	-5.68321518558E-01	5.04145307932E+01	-6.18296655030E+01	-3.57810509024E+01	-6.18376564264E+01	-3.46812798547E+01	-7.15553409310E-01	3.66589309975E+01
1.14908820000E+10	-5.73481285109E-01	4.98283121865E+01	-6.22981451337E+01	-3.49207800714E+01	-6.22904097022E+01	-3.38211726354E+01	-7.26298783648E-01	3.57352202921E+01
1.14911040000E+10	-5.79137101584E-01	4.92327518786E+01	-6.28196167304E+01	-3.36667708520E+01	-6.28023752158E+01	-3.25310919661E+01	-7.37324210456E-01	3.47905977278E+01
1.14913260000E+10	-5.84540500727E-01	4.86284185493E+01	-6.33818034756E+01	-3.20972010606E+01	-6.33592008703E+01	-3.09443718306E+01	-7.48751329396E-01	3.38285890980E+01
1.14915480000E+10	-5.90051249570E-01	4.80115063341E+01	-6.40372199283E+01	-2.98430437350E+01	-6.40184450084E+01	-2.87023637878E+01	-7.60877842231E-01	3.28390450699E+01
1.14917700000E+10	-5.95813049970E-01	4.73876997764E+01	-6.47399480032E+01	-2.69939192867E+01	-6.47221024366E+01	-2.59013088240E+01	-7.73103303383E-01	3.18308735120E+01
1.14919920000E+10	-6.02408063185E-01	4.67491711183E+01	-6.55114011767E+01	-2.30672860216E+01	-6.55210429492E+01	-2.19553905394E+01	-7.86563491743E-01	3.07985980815E+01
1.14922140000E+10	-6.08799767271E-01	4.61002158449E+01	-6.64052499601E+01	-1.79393743361E+01	-6.63465992928E+01	-1.69047857734E+01	-7.99933482532E-01	2.97434798999E+01
1.14924360000E+10	-6.15453903585E-01	4.54401142325E+01	-6.72947929295E+01	-1.10123793391E+01	-6.72477101679E+01	-9.95574888999E+00	-8.14099097789E-01	2.86621674051E+01
1.14926580000E+10	-6.22320385793E-01	4.47719010489E+01	-6.80818931267E+01	-1.31072520848E+00	-6.80590080793E+01	-8.49394667155E-01	-8.28633190909E-01	2.75580315596E+01
1.14928800000E+10	-6.29615360742E-01	4.40905269635E+01	-6.86802581992E+01	1.01294501795E+01	-6.86273816158E+01	1.09142170216E+01	-8.43587094431E-01	2.64306728796E+01
1.14931020000E+10	-6.36547187807E-01	4.33984699992E+01	-6.87830760182E+01	2.38922870014E+01	-6.87432653783E+01	2.46764834191E+01	-8.59567081983E-01	2.52720876567E+01
1.14933240000E+10	-6.44777194834E-01	4.26917475527E+01	-6.83438309835E+01	3.79891183884E+01	-6.82733778414E+01	3.86815978661E+01	-8.76094017808E-01	2.40865175995E+01
1.14935460000E+10	-6.52396439881E-01	4.19729630064E+01	-6.73702501468E+01	5.05278385238E+01	-6.72909107796E+01	5.13083822713E+01	-8.93497385776E-01	2.28679194708E+01
1.14937680000E+10	-6.60611253017E-01	4.12389527010E+01	-6.60487465710E+01	6.07410545841E+01	-6.60313678845E+01	6.12278339912E+01	-9.11553880716E-01	2.16194752196E+01
1.14939900000E+10	-6.69187984111E-01	4.04885620962E+01	-6.46243496555E+01	6.81526883760E+01	-6.46322382515E+01	6.89148423823E+01	-9.30105715622E-01	2.03410362246E+01
1.14942120000E+10	-6.78262236094E-01	3.97238967929E+01	-6.32361197002E+01	7.39470359416E+01	-6.32136058459E+01	7.45879535378E+01	-9.49779120832E-01	1.90290391021E+01
1.14944340000E+10	-6.87336132771E-01	3.89475828939E+01	-6.19082335410E+01	7.80110398353E+01	-6.18658902642E+01	7.86386400287E+01	-9.70149190893E-01	1.76804000224E+01
1.14946560000E+10	-6.96816341940E-01	3.81556607854E+01	-6.06204321888E+01	8.10155050745E+01	-6.05794329725E+01	8.15719993096E+01	-9.92089377229E-01	1.62973642563E+01
1.14948780000E+10	-7.06581894137E-01	3.73492997878E+01	-5.94207029722E+01	8.31584805507E+01	-5.93728522023E+01	8.37056201127E+01	-1.01458527525E+00	1.48759032064E+01
1.14951000000E+10	-7.16602996927E-01	3.65244905517E+01	-5.83040293463E+01	8.47150882492E+01	-5.82547673098E+01	8.53576313259E+01	-1.03814854064E+00	1.34114584614E+01
1.14953220000E+10	-7.27431462606E-01	3.56829496853E+01	-5.72580244808E+01	8.58740403407E+01	-5.71911478480E+01	8.63636399608E+01	-1.06251490635E+00	1.19058900728E+01
1.14955440000E+10	-7.38853612715E-01	3.48235621753E+01	-5.62624720637E+01	8.65541484426E+01	-5.61902828272E+01	8.71014292518E+01	-1.08842793825E+00	1.03626208827E+01
1.14957660000E+10	-7.50731369150E-01	3.39460431378E+01	-5.53237264608E+01	8.70461115242E+01	-5.52416251443E+01	8.75708851968E+01	-1.11615462427E+00	8.77211528089E+00
1.14959880000E+10	-7.62626607256E-01	3.30482791119E+01	-5.44370604751E+01	8.72987507864E+01	-5.43488460451E+01	8.77418798571E+01	-1.14458299309E+00	7.13048290257E+00
1.14962100000E+10	-7.75790512838E-01	3.21263790393E+01	-5.35884234559E+01	8.73256316083E+01	-5.35050450717E+01	8.77762545976E+01	-1.17448454230E+00	5.44479180665E+00
1.14964320000E+10	-7.88891151512E-01	3.11866422228E+01	-5.27851079706E+01	8.71822402567E+01	-5.26847792566E+01	8.76186265861E+01	-1.20635846918E+00	3.70324256937E+00
1.14966540000E+10	-8.02821266108E-01	3.02262686615E+01	-5.20090092821E+01	8.69609002065E+01	-5.19213054547E+01	8.73497783067E+01	-1.23982921374E+00	1.91009394749E+00
1.14968760000E+10	-8.17314738045E-01	2.92425676261E+01	-5.12828190926E+01	8.66102085606E+01	-5.11878450985E+01	8.69762022532E+01	-1.27408765463E+00	6.13832932264E-02
1.14970980000E+10	-8.32686843156E-01	2.82361992201E+01	-5.05826646528E+01	8.62017115816E+01	-5.04863211410E+01	8.65026677454E+01	-1.31118063804E+00	-1.84323183882E+00
1.14973200000E+10	-8.48660024784E-01	2.72060024571E+01	-4.99064744089E+01	8.57115100890E+01	-4.98167849586E+01	8.59398658895E+01	-1.35007330738E+00	-3.81310734555E+00
1.14975420000E+10	-8.65224050565E-01	2.61445635387E+01	-4.92762366121E+01	8.51680194988E+01	-4.91774330624E+01	8.53627290988E+01	-1.39066459815E+00	-5.84525947988E+00
1.14977640000E+10	-8.83379601466E-01	2.50588033239E+01	-4.86682752862E+01	8.45611924553E+01	-4.85671945558E+01	8.46873183505E+01	-1.43363848311E+00	-7.94696637555E+00
1.14979860000E+10	-9.02305257544E-01	2.39436806516E+01	-4.80950854548E+01	8.39475904772E+01	-4.79928359018E+01	8.40167241414E+01	-1.47928553248E+00	-1.01205449720E+01
1.14982080000E+10	-9.21732007953E-01	2.28013525304E+01	-4.75538132497E+01	8.32878209494E+01	-4.74463859044E+01	8.33045983267E+01	-1.52601823570E+00	-1.23670471002E+01
1.14984300000E+10	-9.42295615026E-01	2.16231082132E+01	-4.70388090177E+01	8.26580508033E+01	-4.69309601229E+01	8.26119727997E+01	-1.57671324315E+00	-1.46962733846E+01
1.14986520000E+10	-9.64611314143E-01	2.04168784948E+01	-4.65530825073E+01	8.20228543771E+01	-4.64435631462E+01	8.19240633199E+01	-1.62985237991E+00	-1.71027605012E+01
1.14988740000E+10	-9.88097355879E-01	1.91742863753E+01	-4.61040397432E+01	8.14303155866E+01	-4.59920305378E+01	8.12879747109E+01	-1.68584123594E+00	-1.95972554406E+01
1.14990960000E+10	-1.01217402594E+00	1.78901587441E+01	-4.56867273040E+01	8.09261665453E+01	-4.55725674283E+01	8.06936254730E+01	-1.74448198327E+00	-2.21819814296E+01
1.14993180000E+10	-1.03859683303E+00	1.65736867840E+01	-4.53038296148E+01	8.04879038121E+01	-4.51888590459E+01	8.01901429247E+01	-1.80669960461E+00	-2.48633401102E+01
1.14995400000E+10	-1.06601962474E+00	1.52124235387E+01	-4.49574147453E+01	8.01864028515E+01	-4.48436228601E+01	7.98333640878E+01	-1.87243015661E+00	-2.76432216591E+01
1.14997620000E+10	-1.09574272989E+00	1.38068795156E+01	-4.46515279257E+01	8.00801093613E+01	-4.45390943665E+01	7.96299191931E+01	-1.94192277041E+00	-3.05267689738E+01
1.14999840000E+10	-1.12722981794E+00	1.23564024029E+01	-4.43880358487E+01	8.02025899028E+01	-4.42739699582E+01	7.96822252094E+01	-2.01492449377E+00	-3.35223430232E+01
1.15002060000E+10	-1.16091814557E+00	1.08577807648E+01	-4.41645850192E+01	8.06673780552E+01	-4.40567253665E+01	8.00546625371E+01	-2.09203717133E+00	-3.66301821604E+01
1.15004280000E+10	-1.19720631699E+00	9.30615576224E+00	-4.39832718901E+01	8.15389608191E+01	-4.38793478656E+01	8.08612191835E+01	-2.17393204294E+00	-3.98636388110E+01
1.15006500000E+10	-1.23608242243E+00	7.69872717330E+00	-4.38376538884E+01	8.29813642496E+01	-4.37378100768E+01	8.21989898038E+01	-2.25941362756E+00	-4.32184374434E+01
1.15008720000E+10	-1.27808404666E+00	6.02964021725E+00	-4.37227050809E+01	8.51425755787E+01	-4.36269377924E+01	8.42853937828E+01	-2.34915722773E+00	-4.67085547897E+01
1.15010940000E+10	-1.32288660531E+00	4.29937702351E+00	-4.36120076932E+01	8.82357476685E+01	-4.35252246989E+01	8.72740519119E+01	-2.44443338631E+00	-5.03301336961E+01
1.15013160000E+10	-1.37266719350E+00	2.50180256566E+00	-4.34715137312E+01	9.24629536536E+01	-4.33912687453E+01	9.14168728884E+01	-2.54460391853E+00	-5.41003298829E+01
1.15015380000E+10	-1.42543163152E+00	6.30540526033E-01	-4.32357081581E+01	9.79931316190E+01	-4.31677093826E+01	9.68275124086E+01	-2.64871810258E+00	-5.80227722198E+01
1.15017600000E+10	-1.48317716519E+00	-1.31817930965E+00	-4.28195135004E+01	1.04729131945E+02	-4.27646113573E+01	1.03485720318E+02	-2.75849969739E+00	-6.20956254733E+01
1.15019820000E+10	-1.54650896591E+00	-3.35158834116E+00	-4.21374925140E+01	1.12355672900E+02	-4.20949384385E+01	1.11010903378E+02	-2.87411704917E+00	-6.63354952870E+01
1.15022040000E+10	-1.61540759258E+00	-5.47780008007E+00	-4.11233892421E+01	1.20136666417E+02	-4.10985633888E+01	1.18746264338E+02	-2.99368582249E+00	-7.07451041460E+01
1.15024260000E+10	-1.69143605604E+00	-7.70322290389E+00	-3.97901233517E+01	1.27267529363E+02	-3.97836712417E+01	1.25805752321E+02	-3.11900456697E+00	-7.53282443694E+01
1.15026480000E+10	-1.77569530067E+00	-1.00397441193E+01	-3.82075646338E+01	1.33072370793E+02	-3.82204997942E+01	1.31592832822E+02	-3.24934890029E+00	-8.00880141335E+01
1.15028700000E+10	-1.86902655005E+00	-1.24908632925E+01	-3.64694561541E+01	1.37312244999E+02	-3.64998914877E+01	1.35785284064E+02	-3.38498966222E+00	-8.50340013284E+01
1.15030920000E+10	-1.97371110098E+00	-1.50667722106E+01	-3.46539972753E+01	1.39978810514E+02	-3.47043012829E+01	1.38434209197E+02	-3.52602509825E+00	-9.01708344881E+01
1.15033140000E+10	-2.09091525758E+00	-1.77848296611E+01	-3.28175132335E+01	1.41232085323E+02	-3.28878011726E+01	1.39675422730E+02	-3.67282155894E+00	-9.54932579552E+01
1.15035360000E+10	-2.22260136757E+00	-2.06560331736E+01	-3.09949487038E+01	1.41279229489E+02	-3.10864651301E+01	1.39724615184E+02	-3.82487273870E+00	-1.01015103081E+02
1.15037580000E+10	-2.37259239865E+00	-2.36909890275E+01	-2.92047448867E+01	1.40290463786E+02	-2.93181534795E+01	1.38756838232E+02	-3.98328807982E+00	-1.06727189533E+02
1.15039800000E+10	-2.54337362649E+00	-2.69064123524E+01	-2.74561126661E+01	1.38423462886E+02	-2.75910228437E+01	1.36921876237E+02	-4.14790231316E+00	-1.12632208092E+02
1.15042020000E+10	-2.73965203027E+00	-3.03185456508E+01	-2.57534758739E+01	1.35788944990E+02	-2.59098690934E+01	1.34343565499E+02	-4.32016824132E+00	-1.18731234999E+02
1.15044240000E+10	-2.96708387932E+00	-3.39465238529E+01	-2.40993778240E+01	1.32467705652E+02	-2.42675816382E+01	1.31039507759E+02	-4.50124617438E+00	-1.25010479187E+02
1.15046460000E+10	-3.23119414432E+00	-3.78079667327E+01	-2.25117964889E+01	1.28492486681E+02	-2.26790844599E+01	1.27191751837E+02	-4.69239798045E+00	-1.31460674035E+02
1.15048680000E+10	-3.54097096779E+00	-4.19160981175E+01	-2.09597654423E+01	1.23971186868E+02	-2.11399309065E+01	1.22790572793E+02	-4.89651684206E+00	-1.38070839401E+02
1.15050900000E+10	-3.90608539167E+00	-4.62860017181E+01	-1.94545106382E+01	1.18904272784E+02	-1.96525441023E+01	1.17854793884E+02	-5.11668628380E+00	-1.44819021846E+02
1.15053120000E+10	-4.33831663518E+00	-5.09200546872E+01	-1.80095993892E+01	1.13323605295E+02	-1.82155858979E+01	1.12403953658E+02	-5.35623012047E+00	-1.51678957738E+02
1.15055340000E+10	-4.85374242359E+00	-5.58293782636E+01	-1.66226505965E+01	1.07227714268E+02	-1.68354566754E+01	1.06467355197E+02	-5.62063507796E+00	-1.58607362047E+02
1.15057560000E+10	-5.47006088836E+00	-6.09936670684E+01	-1.52994876946E+01	1.00665937539E+02	-1.55165063423E+01	1.00057707631E+02	-5.91412272885E+00	-1.65563135588E+02
1.15059780000E+10	-6.21086331639E+00	-6.63843742896E+01	-1.40511125883E+01	9.36470953227E+01	-1.42644575531E+01	9.31845679716E+01	-6.24115078953E+00	-1.72469055726E+02
1.15062000000E+10	-7.10314618168E+00	-7.19513393657E+01	-1.28816998869E+01	8.62276681137E+01	-1.30864763665E+01	8.58897728743E+01	-6.60640987614E+00	-1.79252701398E+02
1.15064220000E+10	-8.18114827296E+00	-7.75928556013E+01	-1.17966305661E+01	7.84397576604E+01	-1.19917765805E+01	7.82266480627E+01	-7.01007638201E+00	1.74187411718E+02
1.15066440000E+10	-9.48956209604E+00	-8.31596341473E+01	-1.08048466856E+01	7.03917035686E+01	-1.09863552329E+01	7.02567696647E+01	-7.45181569655E+00	1.67962572423E+02
1.15068660000E+10	-1.10877063353E+01	-8.84314709476E+01	-9.90865805901E+00	6.21271688448E+01	-1.00766705906E+01	6.20526982425E+01	-7.92110200899E+00	1.62187415429E+02
1.15070880000E+10	-1.30614204025E+01	-9.30079256203E+01	-9.10935088626E+00	5.37619996207E+01	-9.26559702802E+00	5.37099057666E+01	-8.40792125115E+00	1.56961266360E+02
1.15073100000E+10	-1.55469345134E+01	-9.61448102302E+01	-8.40682202032E+00	4.53675275229E+01	-8.55158208026E+00	4.53195454913E+01	-8.88821326234E+00	1.52339270949E+02
1.15075320000E+10	-1.87751119205E+01	-9.60532099274E+01	-7.79389776890E+00	3.70316473318E+01	-7.93162560148E+00	3.69818436259E+01	-9.34523402420E+00	1.48329497216E+02
1.15077540000E+10	-2.30712525230E+01	-8.73582621874E+01	-7.26420156092E+00	2.88348842973E+01	-7.39867737425E+00	2.87652751852E+01	-9.75435159905E+00	1.44874666938E+02
1.15079760000E+10	-2.73143642905E+01	-5.37800571291E+01	-6.81006294504E+00	2.08238005632E+01	-6.94259814130E+00	2.07475294355E+01	-1.01015215481E+01	1.41854256862E+02
1.15081980000E+10	-2.56264862824E+01	-9.80013306506E+00	-6.42004471302E+00	1.30500633376E+01	-6.55383290760E+00	1.29664563469E+01	-1.03790072026E+01	1.39125549216E+02
1.15084200000E+10	-2.20216672943E+01	5.54428179880E+00	-6.08569392635E+00	5.52822546157E+00	-6.22100563052E+00	5.44348408246E+00	-1.05919591522E+01	1.36536595336E+02
1.15086420000E+10	-1.94643090512E+01	8.57892009122E+00	-5.79623939119E+00	-1.73059525225E+00	-5.93478559702E+00	-1.80031062331E+00	-1.07516420330E+01	1.33971388953E+02
1.15088640000E+10	-1.77210566558E+01	7.51647111917E+00	-5.54373853753E+00	-8.73163687005E+00	-5.68503347400E+00	-8.76459063375E+00	-1.08723551568E+01	1.31349432039E+02
1.15090860000E+10	-1.65108687492E+01	4.80017168452E+00	-5.32229511840E+00	-1.54721720478E+01	-5.46526788586E+00	-1.54775298959E+01	-1.09705901926E+01	1.28640926528E+02
1.15093080000E+10	-1.56681268180E+01	1.32503283097E+00	-5.12551647121E+00	-2.19909374544E+01	-5.26841196356E+00	-2.19470675506E+01	-1.10586974741E+01	1.25829310206E+02
1.15095300000E+10	-1.50921604036E+01	-2.52970324173E+00	-4.94751648198E+00	-2.82864733678E+01	-5.08985072979E+00	-2.81959285686E+01	-1.11493556815E+01	1.22955761653E+02
1.15097520000E+10	-1.47220475803E+01	-6.59146896251E+00	-4.78617864557E+00	-3.43859673460E+01	-4.92622355457E+00	-3.42419087605E+01	-1.12527283510E+01	1.20032102688E+02
1.15099740000E+10	-1.45182116381E+01	-1.07598800625E+01	-4.63782229948E+00	-4.03018689504E+01	-4.77405167053E+00	-4.01082748154E+01	-1.13759901228E+01	1.17106735974E+02
