# Hz S DB R 50
! Planar, S50244, 24171007, 25.4.1/6
! Date: 30.10.2025 10:53:10
! Data: Format (Calibration Info)
! Freq	S11:dB/Ang(F2)	S21:dB/Ang(F2)	S12:dB/Ang(F2)	S22:dB/Ang(F2)
1.14840000000E+10	-4.83949384758E-01	6.39823525137E+01	-6.24001003385E+01	-2.67222602375E+01	-6.24805958395E+01	-2.55437018506E+01	-4.66893348681E-01	6.13407566706E+01
1.14842220000E+10	-4.84330559550E-01	6.35933753896E+01	-6.24674443492E+01	-2.67707182293E+01	-6.25642040045E+01	-2.56655582185E+01	-4.69505202436E-01	6.08780186058E+01
1.14844440000E+10	-4.85266470499E-01	6.32001286705E+01	-6.25560729509E+01	-2.70748528442E+01	-6.26508683841E+01	-2.58904752031E+01	-4.72478588074E-01	6.04061632150E+01
1.14846660000E+10	-4.86722567640E-01	6.28040772015E+01	-6.26551519687E+01	-2.70760837574E+01	-6.27294319729E+01	-2.59405325214E+01	-4.75224550006E-01	5.99276196601E+01
1.14848880000E+10	-4.88538824086E-01	6.24018200350E+01	-6.27578948945E+01	-2.72287519707E+01	-6.28540096650E+01	-2.60320324806E+01	-4.78789378926E-01	5.94472376770E+01
1.14851100000E+10	-4.90074456803E-01	6.19969637109E+01	-6.28947296169E+01	-2.74127243849E+01	-6.29780415303E+01	-2.61706814630E+01	-4.82170701375E-01	5.89586521605E+01
1.14853320000E+10	-4.92941661903E-01	6.15853443244E+01	-6.30165259973E+01	-2.74236285420E+01	-6.31004524170E+01	-2.62931497255E+01	-4.85407223721E-01	5.84661563503E+01
1.14855540000E+10	-4.95072768755E-01	6.11709708612E+01	-6.31675066740E+01	-2.72939080644E+01	-6.32379564196E+01	-2.62469929539E+01	-4.88383434855E-01	5.79647676404E+01
1.14857760000E+10	-4.97699180566E-01	6.07491852192E+01	-6.33467760051E+01	-2.73397736878E+01	-6.34216193388E+01	-2.62711752313E+01	-4.91703724167E-01	5.74580616683E+01
1.14859980000E+10	-5.00106396811E-01	6.03256983057E+01	-6.35429264528E+01	-2.73405900911E+01	-6.36141080463E+01	-2.60890700813E+01	-4.95214304038E-01	5.69415558627E+01
1.14862200000E+10	-5.02849314074E-01	5.98956425291E+01	-6.37350831035E+01	-2.72787735918E+01	-6.38113405020E+01	-2.59748391977E+01	-4.99089189301E-01	5.64211940902E+01
1.14864420000E+10	-5.05670759722E-01	5.94600645220E+01	-6.39892378766E+01	-2.69339777567E+01	-6.40285309059E+01	-2.57928255786E+01	-5.02712526995E-01	5.58909761609E+01
1.14866640000E+10	-5.08824304849E-01	5.90158491853E+01	-6.42205316802E+01	-2.67134655807E+01	-6.42790714791E+01	-2.54656005792E+01	-5.06159899620E-01	5.53506454826E+01
1.14868860000E+10	-5.12082684039E-01	5.85695797607E+01	-6.44828900490E+01	-2.63827239075E+01	-6.45513536891E+01	-2.50432141657E+01	-5.10756981384E-01	5.48080577222E+01
1.14871080000E+10	-5.15219711514E-01	5.81161608825E+01	-6.48158191013E+01	-2.58479565367E+01	-6.48678729017E+01	-2.47508324832E+01	-5.14916448908E-01	5.42535505661E+01
1.14873300000E+10	-5.18475591206E-01	5.76568068676E+01	-6.51561768462E+01	-2.53071228637E+01	-6.51933405468E+01	-2.41665451779E+01	-5.18942598070E-01	5.36946367459E+01
1.14875520000E+10	-5.21901306153E-01	5.71929044266E+01	-6.55023117349E+01	-2.44516918852E+01	-6.55739390698E+01	-2.35209644220E+01	-5.23591113872E-01	5.31217310595E+01
1.14877740000E+10	-5.25294407622E-01	5.67236630050E+01	-6.59241636549E+01	-2.35566864947E+01	-6.60002088999E+01	-2.24442142137E+01	-5.28446179438E-01	5.25413043170E+01
1.14879960000E+10	-5.28704425688E-01	5.62444075878E+01	-6.64026762649E+01	-2.21967516273E+01	-6.64581626265E+01	-2.10896402945E+01	-5.33344030022E-01	5.19596903711E+01
1.14882180000E+10	-5.32358739740E-01	5.57627632082E+01	-6.69340494404E+01	-2.06212488692E+01	-6.69782000073E+01	-1.94628273060E+01	-5.37617232190E-01	5.13596198322E+01
1.14884400000E+10	-5.36420008611E-01	5.52724286507E+01	-6.75159419781E+01	-1.86468517867E+01	-6.75619231017E+01	-1.75285670527E+01	-5.42498341830E-01	5.07531930342E+01
1.14886620000E+10	-5.40703563371E-01	5.47756391914E+01	-6.81213356923E+01	-1.60549499569E+01	-6.81858825685E+01	-1.50192958227E+01	-5.47652508646E-01	5.01408850467E+01
1.14888840000E+10	-5.44457553442E-01	5.42686167672E+01	-6.88683882308E+01	-1.27949781326E+01	-6.88823084526E+01	-1.16440214629E+01	-5.53643878890E-01	4.95151644794E+01
1.14891060000E+10	-5.48708877506E-01	5.37555391252E+01	-6.96257270284E+01	-8.27471268799E+00	-6.96732083830E+01	-7.43426338219E+00	-5.59085159749E-01	4.88802308609E+01
1.14893280000E+10	-5.52959010593E-01	5.32385349046E+01	-7.04492685141E+01	-2.49801250385E+00	-7.04887623443E+01	-1.70508252072E+00	-5.64640104356E-01	4.82348295708E+01
1.14895500000E+10	-5.57246849308E-01	5.27153922043E+01	-7.12830236633E+01	5.01344605604E+00	-7.12915608208E+01	5.80172245532E+00	-5.70418721968E-01	4.75768090086E+01
1.14897720000E+10	-5.61770167284E-01	5.21795283547E+01	-7.19366612372E+01	1.46910170063E+01	-7.19565846972E+01	1.51779041272E+01	-5.76070562368E-01	4.69125974610E+01
1.14899940000E+10	-5.66528214564E-01	5.16382336610E+01	-7.23576292347E+01	2.63127450029E+01	-7.24462297417E+01	2.67055051321E+01	-5.82172842942E-01	4.62322004537E+01
1.14902160000E+10	-5.71324528598E-01	5.10890130667E+01	-7.23912946743E+01	3.94818882319E+01	-7.24496586117E+01	4.03434941025E+01	-5.88700350481E-01	4.55413798355E+01
1.14904380000E+10	-5.76178772754E-01	5.05314059393E+01	-7.18635237677E+01	5.31900411288E+01	-7.19358290445E+01	5.31625893465E+01	-5.95045830509E-01	4.48388506975E+01
1.14906600000E+10	-5.81260387503E-01	4.99662129448E+01	-7.08610405947E+01	6.50058967146E+01	-7.09739107505E+01	6.55995743426E+01	-6.01681926094E-01	4.41235062468E+01
1.14908820000E+10	-5.86569804849E-01	4.93916132472E+01	-6.96350704160E+01	7.46575645247E+01	-6.97290565013E+01	7.55921227601E+01	-6.08677178921E-01	4.33938507548E+01
1.14911040000E+10	-5.92048868202E-01	4.88082969266E+01	-6.82851988094E+01	8.19940648270E+01	-6.83819387029E+01	8.28125317732E+01	-6.16301676238E-01	4.26512007455E+01
1.14913260000E+10	-5.97559108593E-01	4.82136633072E+01	-6.69506304911E+01	8.76501937051E+01	-6.70439134142E+01	8.85691868739E+01	-6.23864386156E-01	4.18977344422E+01
1.14915480000E+10	-6.02772834287E-01	4.76117771069E+01	-6.56273009089E+01	9.20001628938E+01	-6.57113210329E+01	9.29162178161E+01	-6.31340084268E-01	4.11228593389E+01
1.14917700000E+10	-6.08464712073E-01	4.69982760996E+01	-6.43952533907E+01	9.49957526307E+01	-6.44730171630E+01	9.61202009379E+01	-6.39558090144E-01	4.03362410448E+01
1.14919920000E+10	-6.14650096502E-01	4.63738094935E+01	-6.32041005243E+01	9.77278443327E+01	-6.32892172726E+01	9.85587282338E+01	-6.47815880106E-01	3.95359048304E+01
1.14922140000E+10	-6.20971262569E-01	4.57411045637E+01	-6.20951201137E+01	9.94492353541E+01	-6.21781009441E+01	1.00519773745E+02	-6.56811232829E-01	3.87166129586E+01
1.14924360000E+10	-6.27240371651E-01	4.50966942418E+01	-6.10391106128E+01	1.00909065318E+02	-6.11146521152E+01	1.01946727687E+02	-6.65580544959E-01	3.78813479416E+01
1.14926580000E+10	-6.34050227558E-01	4.44446999347E+01	-6.00543663655E+01	1.01951833482E+02	-6.01029040476E+01	1.02953702394E+02	-6.75359443943E-01	3.70316188234E+01
1.14928800000E+10	-6.41059337889E-01	4.37793306678E+01	-5.90889664996E+01	1.02738259165E+02	-5.91373497872E+01	1.03753842359E+02	-6.85019489739E-01	3.61646737224E+01
1.14931020000E+10	-6.48192597468E-01	4.31029622403E+01	-5.81630972827E+01	1.03239769650E+02	-5.82129196661E+01	1.04372046603E+02	-6.95372473445E-01	3.52757127300E+01
1.14933240000E+10	-6.56019422351E-01	4.24118306234E+01	-5.72869160785E+01	1.03631183605E+02	-5.73323864152E+01	1.04682452325E+02	-7.05807102462E-01	3.43713044372E+01
1.14935460000E+10	-6.63492451762E-01	4.17092805885E+01	-5.64544977840E+01	1.03858936623E+02	-5.64790349528E+01	1.04801433740E+02	-7.17231729263E-01	3.34449164165E+01
1.14937680000E+10	-6.71163148248E-01	4.09967640021E+01	-5.56431143760E+01	1.03907998426E+02	-5.56705654745E+01	1.04901496180E+02	-7.29388041156E-01	3.24941834632E+01
1.14939900000E+10	-6.79359779889E-01	4.02661547053E+01	-5.48591610482E+01	1.03822035938E+02	-5.48780055043E+01	1.04822805567E+02	-7.41233120462E-01	3.15282899091E+01
1.14942120000E+10	-6.87865428053E-01	3.95202243347E+01	-5.41030766555E+01	1.03660557415E+02	-5.41042072957E+01	1.04651764574E+02	-7.53946917852E-01	3.05390542521E+01
1.14944340000E+10	-6.96781226781E-01	3.87636780825E+01	-5.33558314577E+01	1.03437765333E+02	-5.33626508338E+01	1.04408408629E+02	-7.67075726726E-01	2.95254688720E+01
1.14946560000E+10	-7.05547189225E-01	3.79936281360E+01	-5.26332103537E+01	1.03129933083E+02	-5.26428205880E+01	1.04116772688E+02	-7.81621746669E-01	2.84872007728E+01
1.14948780000E+10	-7.15262404152E-01	3.72059734701E+01	-5.19362558007E+01	1.02754472120E+02	-5.19402247200E+01	1.03684069255E+02	-7.96400886190E-01	2.74226174563E+01
1.14951000000E+10	-7.25093756944E-01	3.64029767524E+01	-5.12479530499E+01	1.02281761646E+02	-5.12533751667E+01	1.03262298862E+02	-8.11952651306E-01	2.63290314703E+01
1.14953220000E+10	-7.35164107841E-01	3.55827223988E+01	-5.05802364290E+01	1.01779911309E+02	-5.05809871597E+01	1.02722474425E+02	-8.28598843142E-01	2.52089434887E+01
1.14955440000E+10	-7.46317304023E-01	3.47434981838E+01	-4.99277625284E+01	1.01234591931E+02	-4.99261735454E+01	1.02157320750E+02	-8.45388325913E-01	2.40635054844E+01
1.14957660000E+10	-7.57672515155E-01	3.38924473256E+01	-4.92927942271E+01	1.00627342887E+02	-4.92870113507E+01	1.01529312053E+02	-8.63870765079E-01	2.28845524772E+01
1.14959880000E+10	-7.69337273845E-01	3.30212188926E+01	-4.86649847004E+01	9.99855794551E+01	-4.86580744631E+01	1.00860083649E+02	-8.82610345478E-01	2.16721940163E+01
1.14962100000E+10	-7.82044847453E-01	3.21277410953E+01	-4.80558959974E+01	9.92989449721E+01	-4.80443282059E+01	1.00129946855E+02	-9.02671416972E-01	2.04270911178E+01
1.14964320000E+10	-7.94435551336E-01	3.12140141418E+01	-4.74592675732E+01	9.85589369682E+01	-4.74398385244E+01	9.94110008983E+01	-9.24461030775E-01	1.91428845523E+01
1.14966540000E+10	-8.07785021648E-01	3.02847244417E+01	-4.68729237911E+01	9.77969718464E+01	-4.68470671454E+01	9.86084792578E+01	-9.46893909657E-01	1.78272373163E+01
1.14968760000E+10	-8.21598150442E-01	2.93303847291E+01	-4.62968250826E+01	9.69770461711E+01	-4.62665860509E+01	9.77828436942E+01	-9.70759072752E-01	1.64709950944E+01
1.14970980000E+10	-8.36149399438E-01	2.83540722089E+01	-4.57295269372E+01	9.61480869680E+01	-4.56970184172E+01	9.69291612949E+01	-9.96553753515E-01	1.50731994897E+01
1.14973200000E+10	-8.51112496495E-01	2.73549686929E+01	-4.51731204338E+01	9.52923756992E+01	-4.51392995459E+01	9.60275931999E+01	-1.02325246288E+00	1.36309392886E+01
1.14975420000E+10	-8.66967796513E-01	2.63276975514E+01	-4.46315768377E+01	9.43923756754E+01	-4.45907387809E+01	9.50949709954E+01	-1.05240610045E+00	1.21435209088E+01
1.14977640000E+10	-8.83495562288E-01	2.52788482447E+01	-4.40948572014E+01	9.34801447493E+01	-4.40547868786E+01	9.41607249094E+01	-1.08352234816E+00	1.06063781058E+01
1.14979860000E+10	-9.01425086539E-01	2.42006512122E+01	-4.35766775301E+01	9.25310269899E+01	-4.35295519887E+01	9.31790245483E+01	-1.11682158479E+00	9.01691599325E+00
1.14982080000E+10	-9.19898468375E-01	2.30952662157E+01	-4.30672051671E+01	9.15593067632E+01	-4.30165839469E+01	9.21873660110E+01	-1.15191049094E+00	7.36886237078E+00
1.14984300000E+10	-9.39515302768E-01	2.19602273383E+01	-4.25698827368E+01	9.05700880600E+01	-4.25153392683E+01	9.11534510401E+01	-1.18973621216E+00	5.66571456075E+00
1.14986520000E+10	-9.60030719733E-01	2.07952949616E+01	-4.20875561673E+01	8.95773023013E+01	-4.20266027191E+01	9.01152907254E+01	-1.23005799285E+00	3.90230002763E+00
1.14988740000E+10	-9.82173872669E-01	1.95976524741E+01	-4.16175963791E+01	8.85501721377E+01	-4.15524632340E+01	8.90607644003E+01	-1.27336933773E+00	2.06857864499E+00
1.14990960000E+10	-1.00481473174E+00	1.83607781321E+01	-4.11597874336E+01	8.75459376587E+01	-4.10927064186E+01	8.80132251807E+01	-1.32026531809E+00	1.66115098515E-01
1.14993180000E+10	-1.02889363084E+00	1.70938049464E+01	-4.07185731609E+01	8.65289926127E+01	-4.06488971085E+01	8.69613347341E+01	-1.37087370774E+00	-1.81799076536E+00
1.14995400000E+10	-1.05414623946E+00	1.57885752615E+01	-4.02952644527E+01	8.55277197542E+01	-4.02215171000E+01	8.59132036944E+01	-1.42552661675E+00	-3.87663572205E+00
1.14997620000E+10	-1.08159339609E+00	1.44451377722E+01	-3.98895268064E+01	8.45475514857E+01	-3.98154803956E+01	8.48741969190E+01	-1.48455870288E+00	-6.02659335182E+00
1.14999840000E+10	-1.11063564257E+00	1.30537369812E+01	-3.95063964030E+01	8.36189850047E+01	-3.94290859832E+01	8.38916172328E+01	-1.54911086758E+00	-8.27017458003E+00
1.15002060000E+10	-1.14175202742E+00	1.16189633098E+01	-3.91456349966E+01	8.27199311374E+01	-3.90643349023E+01	8.29543742576E+01	-1.61962614826E+00	-1.06115401004E+01
1.15004280000E+10	-1.17519552534E+00	1.01350567525E+01	-3.88106748574E+01	8.19235131726E+01	-3.87271946233E+01	8.20992190924E+01	-1.69643398794E+00	-1.30684874466E+01
1.15006500000E+10	-1.21042563379E+00	8.60358456695E+00	-3.85021387308E+01	8.12334843711E+01	-3.84168353269E+01	8.13507421536E+01	-1.78024739436E+00	-1.56414605614E+01
1.15008720000E+10	-1.24852020839E+00	7.01252473441E+00	-3.82251382630E+01	8.07076782904E+01	-3.81380735752E+01	8.07605600021E+01	-1.87180701579E+00	-1.83437621291E+01
1.15010940000E+10	-1.28890061115E+00	5.36440527753E+00	-3.79794338872E+01	8.04035161743E+01	-3.78944986267E+01	8.03907664979E+01	-1.97324713966E+00	-2.11815711985E+01
1.15013160000E+10	-1.33314855402E+00	3.65741096585E+00	-3.77715730172E+01	8.03975079280E+01	-3.76872780841E+01	8.02950058157E+01	-2.08489726780E+00	-2.41742442763E+01
1.15015380000E+10	-1.38058555327E+00	1.88180858893E+00	-3.75997052772E+01	8.07866591831E+01	-3.75159474127E+01	8.06129378443E+01	-2.20852215240E+00	-2.73330827371E+01
1.15017600000E+10	-1.43176953297E+00	3.82884506832E-02	-3.74598395113E+01	8.16991949943E+01	-3.73775616808E+01	8.14367853933E+01	-2.34509007948E+00	-3.06684708312E+01
1.15019820000E+10	-1.48802272412E+00	-1.88419409434E+00	-3.73435713393E+01	8.33125674622E+01	-3.72656416595E+01	8.29693369916E+01	-2.49668563535E+00	-3.42072704760E+01
1.15022040000E+10	-1.54865698354E+00	-3.88835243129E+00	-3.72327955890E+01	8.58376102809E+01	-3.71591029358E+01	8.54053697017E+01	-2.66498101277E+00	-3.79617310076E+01
1.15024260000E+10	-1.61522943311E+00	-5.98038946523E+00	-3.70860235796E+01	8.95002977983E+01	-3.70175771927E+01	8.89818627465E+01	-2.85333735341E+00	-4.19559053370E+01
1.15026480000E+10	-1.68820784887E+00	-8.17147098989E+00	-3.68379106125E+01	9.44546918853E+01	-3.67802903857E+01	9.38426281849E+01	-3.06429905924E+00	-4.62151585407E+01
1.15028700000E+10	-1.76859865264E+00	-1.04657479569E+01	-3.63962650194E+01	1.00685826020E+02	-3.63497731512E+01	9.99720478487E+01	-3.30072804335E+00	-5.07755833415E+01
1.15030920000E+10	-1.85784309534E+00	-1.28717852030E+01	-3.56609523388E+01	1.07753180167E+02	-3.56289993922E+01	1.06963094939E+02	-3.56684691856E+00	-5.56620980577E+01
1.15033140000E+10	-1.95719465817E+00	-1.54033869222E+01	-3.45697542323E+01	1.14884047436E+02	-3.45530882291E+01	1.14015921638E+02	-3.86631694478E+00	-6.09139206954E+01
1.15035360000E+10	-2.06826144034E+00	-1.80678014026E+01	-3.31376347565E+01	1.21131065188E+02	-3.31404893473E+01	1.20211708176E+02	-4.20415613230E+00	-6.65735088014E+01
1.15037580000E+10	-2.19320407564E+00	-2.08771522222E+01	-3.14493921587E+01	1.25792158549E+02	-3.14728665731E+01	1.24829741599E+02	-4.58522455685E+00	-7.26918670902E+01
1.15039800000E+10	-2.33424474388E+00	-2.38470126941E+01	-2.96105031425E+01	1.28606871520E+02	-2.96560539098E+01	1.27621124702E+02	-5.01473646688E+00	-7.93301171483E+01
1.15042020000E+10	-2.49477454259E+00	-2.69825729268E+01	-2.77111287617E+01	1.29610218570E+02	-2.77803208978E+01	1.28622501281E+02	-5.49912393839E+00	-8.65574586882E+01
1.15044240000E+10	-2.67858968915E+00	-3.03059775587E+01	-2.58129355483E+01	1.28996055815E+02	-2.59074460034E+01	1.28026412352E+02	-6.04232666121E+00	-9.44494927812E+01
1.15046460000E+10	-2.89027889407E+00	-3.38284247776E+01	-2.39786610653E+01	1.26955902591E+02	-2.40707646778E+01	1.26009134382E+02	-6.64764412678E+00	-1.03102597149E+02
1.15048680000E+10	-3.13511734403E+00	-3.75580226329E+01	-2.21810423370E+01	1.23765630641E+02	-2.22989374931E+01	1.22887337247E+02	-7.31547067279E+00	-1.12627140914E+02
1.15050900000E+10	-3.41899008332E+00	-4.15125271892E+01	-2.04672232944E+01	1.19523059285E+02	-2.06042101438E+01	1.18780020746E+02	-8.03872007335E+00	-1.23134392327E+02
1.15053120000E+10	-3.74884745381E+00	-4.56867684719E+01	-1.88356502205E+01	1.14425795015E+02	-1.89964422427E+01	1.13831684778E+02	-8.80325523068E+00	-1.34750299856E+02
1.15055340000E+10	-4.13366706288E+00	-5.00957916351E+01	-1.73079416905E+01	1.08581709903E+02	-1.74764500728E+01	1.08163553917E+02	-9.58156647808E+00	-1.47542141073E+02
1.15057560000E+10	-4.58160476147E+00	-5.47299503755E+01	-1.58745301944E+01	1.02117199117E+02	-1.60529723799E+01	1.01874154514E+02	-1.03285772294E+01	-1.61540621537E+02
1.15059780000E+10	-5.10370540130E+00	-5.95952953255E+01	-1.45484321827E+01	9.51053053342E+01	-1.47270920870E+01	9.50671165975E+01	-1.09894350380E+01	-1.76568195735E+02
1.15062000000E+10	-5.71074874346E+00	-6.46790907817E+01	-1.33286629614E+01	8.76730451300E+01	-1.35005088967E+01	8.78343582626E+01	-1.15092624049E+01	1.67738294137E+02
1.15064220000E+10	-6.41512171326E+00	-6.99755420172E+01	-1.22149537208E+01	7.99219360409E+01	-1.23756590071E+01	8.02587236203E+01	-1.18544566262E+01	1.51977981254E+02
1.15066440000E+10	-7.23148342288E+00	-7.54796043451E+01	-1.12084027305E+01	7.19565135764E+01	-1.13510129943E+01	7.24323183626E+01	-1.20302360146E+01	1.36782243882E+02
1.15068660000E+10	-8.17881250439E+00	-8.12019083766E+01	-1.03044646394E+01	6.38503859360E+01	-1.04267564874E+01	6.44330893698E+01	-1.20759767475E+01	1.22705598764E+02
1.15070880000E+10	-9.27952505761E+00	-8.71566406560E+01	-9.49761867256E+00	5.56844475272E+01	-9.59808596777E+00	5.63398909381E+01	-1.20469809701E+01	1.10059250269E+02
1.15073100000E+10	-1.05650497260E+01	-9.33987197332E+01	-8.78311831298E+00	4.75383070038E+01	-8.86141968149E+00	4.82081074337E+01	-1.19884234390E+01	9.89815607080E+01
1.15075320000E+10	-1.20823226485E+01	-1.00018038695E+02	-8.15226620222E+00	3.94475629374E+01	-8.21107360685E+00	4.01172427030E+01	-1.19313236135E+01	8.94426968473E+01
1.15077540000E+10	-1.39004884887E+01	-1.07242186963E+02	-7.59923306016E+00	3.14817679100E+01	-7.64217364919E+00	3.21144057919E+01	-1.18911096622E+01	8.13566375428E+01
1.15079760000E+10	-1.61314875304E+01	-1.15491779104E+02	-7.11617673383E+00	2.36585219306E+01	-7.14706196736E+00	2.42477516081E+01	-1.18636790756E+01	7.45823300787E+01
1.15081980000E+10	-1.89778919625E+01	-1.25869693892E+02	-6.69584303660E+00	1.60262537538E+01	-6.71748724989E+00	1.65507847427E+01	-1.18424592788E+01	6.89694107813E+01
1.15084200000E+10	-2.27877873480E+01	-1.41617934234E+02	-6.33228819704E+00	8.58222212976E+00	-6.34727864309E+00	9.05562746995E+00	-1.18116176957E+01	6.43134545332E+01
1.15086420000E+10	-2.76700145900E+01	-1.74726251507E+02	-6.01683579155E+00	1.35308151625E+00	-6.02862378244E+00	1.77573696712E+00	-1.17614593783E+01	6.04214724605E+01
1.15088640000E+10	-2.85021722406E+01	1.22428275516E+02	-5.74349208914E+00	-5.65080750930E+00	-5.75461014306E+00	-5.27579308532E+00	-1.16842275508E+01	5.71104598936E+01
1.15090860000E+10	-2.42738711871E+01	8.54345203445E+01	-5.50737020983E+00	-1.24404768500E+01	-5.51826869688E+00	-1.20969988513E+01	-1.15796345963E+01	5.41795840649E+01
1.15093080000E+10	-2.09399996847E+01	6.87421338757E+01	-5.30191915521E+00	-1.90126802319E+01	-5.31486296500E+00	-1.86852674398E+01	-1.14469972607E+01	5.14800605855E+01
1.15095300000E+10	-1.86128497939E+01	5.83579158648E+01	-5.12404940457E+00	-2.53585225915E+01	-5.13716107246E+00	-2.50536518552E+01	-1.12965968513E+01	4.89083464523E+01
1.15097520000E+10	-1.69227188972E+01	5.04440995896E+01	-4.96739318979E+00	-3.15128815271E+01	-4.98117757680E+00	-3.12062130283E+01	-1.11382514468E+01	4.63532642711E+01
1.15099740000E+10	-1.56500938888E+01	4.37568012303E+01	-4.82959531488E+00	-3.74582611740E+01	-4.84367489182E+00	-3.71493212147E+01	-1.09778794226E+01	4.37737539455E+01
