! Created with skrf 1.8.0 (http://scikit-rf.org).
# Hz S RI R 50.0 
!freq ReS11 ImS11 ReS21 ImS21 ReS12 ImS12 ReS22 ImS22
11484000000.0 0.37149403783 0.87441262076 0.00089151604649 -0.00043157079234 0.00089271310936 -0.00040656742352 0.39937641977 0.84851033824
11484370000.0 0.38176998055 0.86972931196 0.00088800088233 -0.0004385950722 0.00088693321536 -0.00041561088354 0.4102476558 0.84260550056
11484740000.0 0.39215216958 0.86471505262 0.00088350185443 -0.00044526482366 0.00088272301544 -0.000422145831 0.42131000716 0.83642286254
11485110000.0 0.40264022038 0.85946070078 0.00087556541588 -0.0004505064041 0.00087710599588 -0.00042765281392 0.43241365369 0.82991425998
11485480000.0 0.41324203736 0.85396029909 0.00086621805765 -0.00045483478818 0.00086827587409 -0.00043187295908 0.44370626303 0.82317909459
11485850000.0 0.42401706961 0.84812845421 0.00085744526215 -0.00045889678693 0.00085819865424 -0.00043505578692 0.45517912115 0.81619346267
11486220000.0 0.43489112089 0.8420795827 0.00084427272854 -0.00046146345761 0.00084761909773 -0.00043731569512 0.46675812824 0.80879508736
11486590000.0 0.4458630721 0.83568281913 0.00083026745552 -0.00045983190774 0.00083293640834 -0.00043771167443 0.47850410076 0.80109098309
11486960000.0 0.45700021065 0.82901980477 0.00081475907915 -0.00045739531966 0.00081766027366 -0.00043613556334 0.49032554412 0.79302789661
11487330000.0 0.46833846809 0.82198652317 0.00079608461483 -0.00045327692652 0.00080096187733 -0.00043284144252 0.50227743742 0.78457905835
11487700000.0 0.4797271075 0.81468308875 0.00077695930875 -0.00044441922257 0.00077921869131 -0.00042512983001 0.51437349672 0.77565684982
11488070000.0 0.49130299355 0.80700011047 0.00075209966163 -0.0004341948961 0.00075640686564 -0.00041374256325 0.52655856216 0.76637010452
11488440000.0 0.50302862061 0.79894984205 0.00072730669694 -0.0004189420205 0.00073128759853 -0.00040020347072 0.53894932175 0.75663983244
11488810000.0 0.51483321362 0.79052773107 0.00069980554171 -0.00040127613765 0.00070385085372 -0.00038395996484 0.55141442833 0.7464604454
11489180000.0 0.52682732521 0.7817103411 0.00066856188838 -0.00037783524273 0.0006734880768 -0.00036159311446 0.56396923857 0.7358109977
11489550000.0 0.5389192275 0.77249689021 0.00063484417146 -0.00035003850771 0.00063864823522 -0.00033545113389 0.57661597835 0.72460610801
11489920000.0 0.55114996679 0.76280295778 0.00059850181666 -0.00031517047076 0.00060129662472 -0.00030166994225 0.589361296 0.71288579891
11490290000.0 0.56349860229 0.75262301363 0.00055890369378 -0.00027709928222 0.00056276670725 -0.00026148736488 0.60220343081 0.70057970712
11490660000.0 0.57591842685 0.74196240353 0.00051596325247 -0.00022857710115 0.00051813906498 -0.00021593947486 0.61514490247 0.68773212307
11491030000.0 0.58847258357 0.73078836862 0.00047161514247 -0.0001718972679 0.00047224233822 -0.00016229545489 0.62811864556 0.6742181542
11491400000.0 0.60115891198 0.71909050798 0.00042126877259 -0.0001084174908 0.00042253190656 -9.890492952e-05 0.64115719812 0.66004255606
11491770000.0 0.61394174128 0.70683124217 0.00037184886974 -3.300832023e-05 0.00036942174746 -2.4768311791e-05 0.65426107765 0.64515201723
11492140000.0 0.62681850785 0.69394593781 0.00031739081817 5.1988868816e-05 0.00031558543201 5.8494810495e-05 0.66736225025 0.62949342264
11492510000.0 0.63974437033 0.68042383447 0.00025964952904 0.00014885681178 0.00025718533351 0.00015470417493 0.68047152076 0.61306076673
11492880000.0 0.6527089728 0.66619177462 0.00020246076507 0.00026078333291 0.00019611025163 0.00026348305197 0.6934828771 0.59588455347
11493250000.0 0.66573938777 0.65129530201 0.00014399752558 0.00038676228616 0.00013363879006 0.00038829622953 0.706457397 0.5778034402
11493620000.0 0.67879694531 0.63562472847 8.1835902965e-05 0.00052939945876 7.1160487328e-05 0.00052969533972 0.7193426555 0.55880409205
11493990000.0 0.691869038 0.61914070062 1.9208088976e-05 0.00068843281428 5.3666204798e-06 0.00068699094673 0.73214188871 0.53880410926
11494360000.0 0.7049195163 0.60175314564 -3.9473178128e-05 0.00086826298714 -5.9706509114e-05 0.00086621351987 0.74469580847 0.51787294924
11494730000.0 0.71785890533 0.58351347567 -9.9464316314e-05 0.0010676494083 -0.00012391980005 0.0010658028362 0.75702073114 0.49580054522
11495100000.0 0.73077684086 0.56435655465 -0.00015736905498 0.0012908105063 -0.00018435274547 0.0012912908536 0.76910387265 0.47259358288
11495470000.0 0.74351589505 0.5441252778 -0.00020774619679 0.0015399376169 -0.00024302127082 0.0015374864348 0.78083585563 0.44819853861
11495840000.0 0.75612898051 0.52279904834 -0.00025528162605 0.0018143584871 -0.00029476141059 0.0018121499974 0.79220023758 0.4225633516
11496210000.0 0.76842411024 0.50036393179 -0.00029499258791 0.002115008243 -0.00033914147528 0.0021164554435 0.80295808606 0.39556728897
11496580000.0 0.78051436372 0.47670144184 -0.00032406319419 0.0024435902747 -0.00037431463185 0.0024478342105 0.81306101256 0.36714731918
11496950000.0 0.79223491014 0.45179793108 -0.00033760398144 0.0028044826914 -0.00039371981994 0.0028126425217 0.82254162985 0.33734882842
11497320000.0 0.80349798797 0.42549227523 -0.00033588948111 0.0031950551072 -0.00040133627585 0.0032071762336 0.83110015044 0.30588661533
11497690000.0 0.81424782491 0.39768917517 -0.00031625966826 0.0036157236309 -0.00038805993618 0.0036347818005 0.83869876612 0.27288440896
11498060000.0 0.82433134197 0.36834322761 -0.00027603071735 0.0040641889899 -0.00035441909625 0.0040921722991 0.84509135097 0.23816498404
11498430000.0 0.83360552177 0.3373624821 -0.00021271590455 0.0045452760376 -0.00029577237883 0.0045762149032 0.85017354942 0.20157646288
11498800000.0 0.84188660234 0.30466213237 -0.00012296015101 0.0050435658862 -0.00021041566806 0.0050879304252 0.8536513941 0.16324287617
11499170000.0 0.84911617012 0.27005103583 -9.4759316035e-06 0.0055609913414 -9.8856447105e-05 0.0056150124041 0.8552609142 0.12295710081
11499540000.0 0.85502499623 0.23354399895 0.00013006335356 0.0060889938125 3.8832165583e-05 0.0061557803283 0.85482781864 0.080832989503
11499910000.0 0.85932169212 0.19501951354 0.00028805252185 0.0066172947401 0.0001950725835 0.0066965858243 0.85181945469 0.036722862514
11500280000.0 0.86171951852 0.15432513021 0.00045550913226 0.0071304116894 0.00036396872169 0.0072229249622 0.84593544653 -0.0093432104454
11500650000.0 0.86187160655 0.11141111931 0.0006108348804 0.0076156539969 0.00052241176583 0.0077208428005 0.83673256614 -0.05732433264
11501020000.0 0.85937931057 0.066179758269 0.00072298939199 0.0080527625356 0.00063940290301 0.0081695673971 0.82367884354 -0.10713037536
11501390000.0 0.85372583815 0.018672413063 0.00074360431342 0.0084235839631 0.00066815335218 0.0085491934674 0.80615188737 -0.15856766975
11501760000.0 0.84438019395 -0.031177821148 0.00059932385271 0.0087137968445 0.00053272077336 0.008844450297 0.78361096794 -0.21135266633
11502130000.0 0.83061679341 -0.083271016602 0.00018875323242 0.0089151583637 0.00012722253902 0.0090484977845 0.75522594061 -0.26516856965
11502500000.0 0.81166419153 -0.13737303809 -0.00063676447962 0.0090502679031 -0.00069993053591 0.0091849429572 0.72019825162 -0.31932985451
11502870000.0 0.78653046921 -0.19323441363 -0.0020869617214 0.0091791426354 -0.0021557002954 0.0093112233459 0.67772974852 -0.37314515593
11503240000.0 0.75418831753 -0.25021276389 -0.0044307147091 0.0094411324726 -0.0045180333199 0.0095782994286 0.62680861905 -0.42534669245
11503610000.0 0.71337358724 -0.30748550506 -0.0080096861561 0.010113537382 -0.0081345978809 0.010266477762 0.5666081714 -0.47462492945
11503980000.0 0.6627270924 -0.36367267896 -0.013228055244 0.011689456835 -0.013400279764 0.011887922756 0.49640924004 -0.51880951404
11504350000.0 0.60090710377 -0.4168715512 -0.020482162511 0.015000945341 -0.020705898143 0.015293366065 0.41574430177 -0.55542451829
11504720000.0 0.52664777434 -0.46424433878 -0.030021130519 0.021362436934 -0.030267788682 0.021819620308 0.32474966918 -0.58102208822
11505090000.0 0.43944428603 -0.50187976583 -0.041647391672 0.032719864768 -0.041833446806 0.033422882457 0.22473258858 -0.59160886972
11505460000.0 0.33990075418 -0.52461786228 -0.054009899012 0.051655235136 -0.05413149924 0.052793691648 0.11860587381 -0.58278890836
11505830000.0 0.23096374471 -0.52650441149 -0.064428521188 0.081017711279 -0.064092453346 0.082515599542 0.011727826538 -0.55032842459
11506200000.0 0.11901571565 -0.50178356807 -0.067239926679 0.12290499731 -0.06616960279 0.12450555686 -0.087718536148 -0.49188474668
11506570000.0 0.014490421417 -0.44730338647 -0.054284346056 0.17625611245 -0.052411141371 0.17756593417 -0.16945795419 -0.40912280577
11506940000.0 -0.069884142164 -0.36578607963 -0.017018771065 0.23457430638 -0.014519127091 0.23507175567 -0.22367919703 -0.30941121093
11507310000.0 -0.12341826336 -0.26745312225 0.049281191464 0.28531017301 0.051994219518 0.28474001613 -0.24540439156 -0.20529857559
11507680000.0 -0.14266859567 -0.16728323808 0.14122027819 0.31343276933 0.14346492476 0.31187222586 -0.23717818381 -0.11031421335
11508050000.0 -0.13304074719 -0.079162571234 0.24666692028 0.3078080331 0.2480222793 0.30567422972 -0.20826971651 -0.033670461136
11508420000.0 -0.10528646906 -0.010482890154 0.34982677062 0.26590926034 0.35032491961 0.26355646787 -0.16931997077 0.02244360081
11508790000.0 -0.069792925766 0.038308597293 0.43740074054 0.19292302653 0.43698757826 0.19077065356 -0.1283729728 0.060848189871
11509160000.0 -0.033599423472 0.070727935971 0.50118816026 0.098137411686 0.50006002228 0.096469380456 -0.089289533263 0.086010263107
11509530000.0 -5.4912397771e-06 0.09105716459 0.53811933693 -0.0087337501212 0.53655413028 -0.0096765480501 -0.053347882257 0.10165116753
11509900000.0 0.029867715013 0.10277857629 0.54862458001 -0.11929949572 0.54701723932 -0.11941051791 -0.020499795398 0.10991076025
11510270000.0 0.056029956005 0.10824415613 0.53505591642 -0.22700291445 0.53380742466 -0.22644386569 0.0094229205635 0.11193320603
11510640000.0 0.078662549653 0.10889632998 0.50079022233 -0.32726172036 0.50016376314 -0.32636558179 0.036057238348 0.10838770288
11511010000.0 0.097836394121 0.10565333667 0.44949036187 -0.41707273156 0.44947911463 -0.41613170356 0.058995008799 0.099756652022
11511380000.0 0.11352309053 0.099347890843 0.38456355064 -0.4944608814 0.38517933921 -0.49378517207 0.077452674673 0.086862746035
11511750000.0 0.12564592641 0.090597480896 0.3092759969 -0.55827391275 0.31021706279 -0.55819028922 0.090797044429 0.070744957321
11512120000.0 0.1341776219 0.080241251697 0.22643783618 -0.60808964197 0.2274333385 -0.60868520304 0.098646164998 0.052595257359
11512490000.0 0.13911730197 0.068953863034 0.13865622662 -0.64390068596 0.13935661615 -0.64515711216 0.10095369571 0.033764678243
11512860000.0 0.14064640951 0.05755448037 0.048265394114 -0.66595474978 0.048336769863 -0.66764400325 0.097911915944 0.015587756442
11513230000.0 0.13908029103 0.046689633354 -0.042940331568 -0.67472070786 -0.043564226208 -0.67649272378 0.090129314687 -0.00081137082798
11513600000.0 0.13484820341 0.036964464388 -0.13296361093 -0.67075248257 -0.13453710077 -0.67232579247 0.078400521722 -0.014439656656
11513970000.0 0.12846976124 0.028816631827 -0.22047571601 -0.65483637881 -0.22270664882 -0.65592729315 0.063660636753 -0.024615504738
11514340000.0 0.12052923511 0.022558427802 -0.3040490186 -0.62788086521 -0.3068258766 -0.62817008563 0.047101675591 -0.030805859872
11514710000.0 0.11168099003 0.018366453772 -0.38241229281 -0.59080546559 -0.38543305268 -0.59011859433 0.029744896071 -0.033071681102
11515080000.0 0.10252426786 0.016215224206 -0.45461572 -0.54462188444 -0.45746892322 -0.54295267118 0.012620699293 -0.031445989978
11515450000.0 0.093541547971 0.015949701067 -0.51979541464 -0.49046204112 -0.52210885903 -0.48788169058 -0.0033051184465 -0.02636756031
11515820000.0 0.085215408033 0.017315994327 -0.57721484593 -0.42935156486 -0.57883768896 -0.42608939414 -0.017318448524 -0.018357768724
11516190000.0 0.077953242117 0.019973971334 -0.62630495355 -0.36255964622 -0.62702434289 -0.35879063024 -0.028955060025 -0.0081770734287
11516560000.0 0.071929510686 0.023517174854 -0.66692678726 -0.2912080431 -0.6665863817 -0.28726965757 -0.037692822252 0.0036289198286
11516930000.0 0.067245636128 0.0275110336 -0.69864672894 -0.21636255866 -0.69728934188 -0.21268149804 -0.043633930582 0.016076487544
11517300000.0 0.063929998648 0.031559838424 -0.72142708899 -0.13929954486 -0.71913692489 -0.13598990506 -0.046685309167 0.028519128361
11517670000.0 0.061868452546 0.035283209104 -0.7353401247 -0.060822040891 -0.73226100776 -0.058206311485 -0.047065035947 0.040436567009
11518040000.0 0.060835990741 0.038431588832 -0.74039159672 0.017869597547 -0.73685615485 0.019716059034 -0.045126229062 0.051126511778
11518410000.0 0.060617568837 0.040712971223 -0.73700907173 0.096013498894 -0.73322175759 0.096929267721 -0.041299722418 0.060259655044
11518780000.0 0.060882148954 0.042028478034 -0.72542376338 0.17279295282 -0.72166626036 0.17281165852 -0.035966629625 0.067461558414
11519150000.0 0.06137971334 0.042303367973 -0.70595091995 0.24734018857 -0.70245628291 0.24650132852 -0.029783429381 0.07257671496
11519520000.0 0.061827629381 0.041527742785 -0.67901882508 0.31888887167 -0.67595830914 0.31747805417 -0.023097378417 0.075537225423
11519890000.0 0.061934141988 0.03979991243 -0.64510453895 0.38689188364 -0.64268218595 0.38498354956 -0.016512123681 0.076404668755
11520260000.0 0.061429487205 0.03726471006 -0.60466627028 0.45067681106 -0.60281852779 0.44856846917 -0.010408220103 0.075311454343
11520630000.0 0.060201159851 0.034125687305 -0.5581814755 0.50976527778 -0.55695604558 0.50768158928 -0.0051839774891 0.072496832613
11521000000.0 0.058082922833 0.030608309158 -0.50623961179 0.56354480095 -0.50557342632 0.56170006648 -0.0011679888447 0.068240428453
11521370000.0 0.05498928386 0.026940528723 -0.44950042668 0.61170237269 -0.44923854311 0.61017052701 0.001367421334 0.062882559327
11521740000.0 0.050964304757 0.023387176924 -0.38838450611 0.65392341932 -0.38849782475 0.65269631592 0.0023202307969 0.056837185347
11522110000.0 0.046054976987 0.020154911836 -0.32373455384 0.68964387885 -0.32387009478 0.68891284057 0.0015958776246 0.050430647001
11522480000.0 0.040330055077 0.017480189921 -0.25610849102 0.71880662415 -0.25613488647 0.71844539095 -0.00078882410955 0.044097534351
11522850000.0 0.03396003868 0.015567786474 -0.18613300727 0.74109262925 -0.18596603431 0.74103477372 -0.0047345568598 0.038226220792
11523220000.0 0.027123153019 0.014510649944 -0.1145898786 0.7563533459 -0.11406119602 0.75658460155 -0.010087169167 0.033050216487
11523590000.0 0.02004132184 0.014465560888 -0.042152332056 0.76455612975 -0.041128220606 0.76483624453 -0.016558336431 0.028956996983
11523960000.0 0.012932012794 0.015482271728 0.030584422654 0.76586983407 0.032058458133 0.76584560452 -0.023883347589 0.026122853764
11524330000.0 0.0059877866178 0.017532703433 0.10270863539 0.76006600567 0.10465198907 0.7597509807 -0.031796787198 0.024641754642
11524700000.0 -0.00049562327584 0.020603041867 0.17375672112 0.747472689 0.17607558265 0.74661860298 -0.039908746648 0.024652330552
11525070000.0 -0.0063272125932 0.024564836903 0.24322472034 0.72815913164 0.24556630986 0.72673253586 -0.047898144907 0.026153243214
11525440000.0 -0.011300286842 0.029310474827 0.31028996186 0.70253269691 0.31260641437 0.70037264059 -0.055486274362 0.028944147362
11525810000.0 -0.015250052331 0.034635335923 0.3744363252 0.67076808173 0.3765799949 0.66790517948 -0.062286713472 0.033037288516
11526180000.0 -0.018063788455 0.04033414265 0.43509001794 0.63325889752 0.43690648873 0.62973702101 -0.068176120533 0.038151719599
11526550000.0 -0.019693607147 0.046171277318 0.49187869978 0.59027248735 0.49311223766 0.58620165187 -0.072822098557 0.044074259208
11526920000.0 -0.020066228556 0.051909775728 0.5444040749 0.54234826969 0.54488354233 0.53793354901 -0.076223759148 0.050511777688
11527290000.0 -0.019235107833 0.057282823047 0.59215527802 0.48992311481 0.59182580088 0.48532032618 -0.078233362048 0.057209944082
11527660000.0 -0.017298108603 0.062034444312 0.63483844201 0.433398807 0.63361199295 0.42874415498 -0.078975871374 0.063888403401
11528030000.0 -0.014399000129 0.06600926044 0.67209680893 0.37327763659 0.67002368795 0.36878333204 -0.07833828604 0.070202516682
11528400000.0 -0.010671106954 0.068941066752 0.70368629972 0.31008232403 0.70085453972 0.30588252755 -0.076448409521 0.075992711018
11528770000.0 -0.0063533431243 0.070744962702 0.72942953571 0.24415330664 0.72580891565 0.24058264109 -0.073513317097 0.080989045093
11529140000.0 -0.0016593135692 0.071259971199 0.74901423068 0.17618413824 0.74480195135 0.17337370208 -0.069659803375 0.084902288143
11529510000.0 0.0030843287751 0.070489366803 0.7623507859 0.10659614763 0.75778247219 0.10459907036 -0.065206182552 0.087687322417
11529880000.0 0.0076902617924 0.068358554016 0.76926749012 0.036154996198 0.76455457527 0.034861822319 -0.060337266783 0.089191947588
11530250000.0 0.011859147212 0.065000839028 0.76974761153 -0.034823110902 0.76497201182 -0.035217164554 -0.055345679722 0.089434523237
11530620000.0 0.015328595069 0.060464619898 0.76359252331 -0.10564839716 0.75900582033 -0.10524679392 -0.050447065336 0.088381144647
11530990000.0 0.017904136477 0.054940908924 0.75100053047 -0.17577121196 0.74674987566 -0.17467139846 -0.045946836025 0.086095871447
11531360000.0 0.019388534245 0.048643361252 0.73187951435 -0.24453995503 0.72801947193 -0.24294007322 -0.042093351929 0.082659243188
11531730000.0 0.019584899552 0.041755523312 0.70637654362 -0.31139355053 0.70305387874 -0.30938222071 -0.039125649119 0.078312098435
11532100000.0 0.018464623328 0.034560337813 0.67468947464 -0.37573740256 0.67190449552 -0.37354379605 -0.037141232038 0.073136793518
11532470000.0 0.015960106091 0.027350051773 0.63701420798 -0.43693617095 0.63481540432 -0.43455111425 -0.03632569837 0.067504635635
11532840000.0 0.012090752816 0.02038717382 0.59366556754 -0.49438260148 0.59204553746 -0.49194626172 -0.036754305045 0.061575189102
11533210000.0 0.0069125060093 0.013964680256 0.54499305605 -0.54757876391 0.54381926414 -0.54535365059 -0.038444879454 0.05568335647
11533580000.0 0.00056600121523 0.0083532504941 0.49153294452 -0.59595554349 0.49063254036 -0.59398661549 -0.041437029852 0.050017738545
11533950000.0 -0.0067715539926 0.0037407694127 0.43365264556 -0.63907675242 0.43293715883 -0.6373757292 -0.045542165578 0.044926667884
11534320000.0 -0.01490162109 0.00031745797802 0.37192897201 -0.67646473902 0.3711405558 -0.67518648878 -0.050654410364 0.04061856021
11534690000.0 -0.023562279729 -0.0017198221794 0.30694315582 -0.70797457228 0.30602855981 -0.70686060789 -0.056611158752 0.037293922082
11535060000.0 -0.032466661479 -0.0023431664601 0.23921623387 -0.73311326818 0.23819573182 -0.73207975973 -0.063153576941 0.03510424439
11535430000.0 -0.041365701926 -0.0014999602017 0.16970731434 -0.75164246823 0.16833581612 -0.75066913024 -0.070040388422 0.034182065421
11535800000.0 -0.049927000038 0.00079801776644 0.098743140219 -0.76359981242 0.097177302871 -0.7624802555 -0.076998051563 0.03458219056
11536170000.0 -0.057892796331 0.0044600910296 0.027084934884 -0.76885407913 0.02528938162 -0.76749564568 -0.083734809817 0.036293722581
11536540000.0 -0.065016914982 0.0093968817483 -0.044604820209 -0.76744207486 -0.0465024741 -0.76564596523 -0.090016090981 0.039204453766
11536910000.0 -0.071037212583 0.0153805614 -0.11578110522 -0.75936727134 -0.11767936056 -0.75708991233 -0.09554393753 0.043279465607
11537280000.0 -0.075810784853 0.022219358718 -0.1857709498 -0.74475559405 -0.18746915456 -0.74196416775 -0.10009097081 0.048275898129
11537650000.0 -0.079101167525 0.029653255717 -0.25384724927 -0.72392216156 -0.25534433176 -0.72052920578 -0.10352630134 0.054026935548
11538020000.0 -0.080867984606 0.037392438619 -0.31965271074 -0.69694995486 -0.32077455265 -0.6930036403 -0.10565893061 0.060267560775
