! Created with skrf 1.8.0 (http://scikit-rf.org).
# Hz S RI R 50.0 
!freq ReS11 ImS11 ReS21 ImS21 ReS12 ImS12 ReS22 ImS22
11484000000.0 0.36681924697 0.87342342307 0.00082406290583 -0.00037597945751 0.00081874847086 -0.00035151476023 0.35381846928 0.88241282787
11484370000.0 0.37631416733 0.86914521051 0.00082449599325 -0.00038402265689 0.00081880794216 -0.00035939594248 0.36367704367 0.87787193311
11484740000.0 0.38589591244 0.86464163758 0.000822692083 -0.00039245600084 0.0008179093105 -0.000368697405 0.37373205745 0.87314783129
11485110000.0 0.3955951497 0.85986602789 0.00082118893554 -0.00039980588169 0.0008156982152 -0.00037416957145 0.38387262029 0.86823508367
11485480000.0 0.40537048902 0.85485004197 0.00081607724721 -0.00040578564626 0.00081173911989 -0.00038238885447 0.39415789775 0.86315935539
11485850000.0 0.41529267334 0.84962339163 0.00081191551224 -0.0004113281207 0.00080776012388 -0.00038724374108 0.40456829919 0.8578707921
11486220000.0 0.42529313556 0.84414599823 0.00080494744234 -0.00041432300764 0.00080021537112 -0.0003906367805 0.41512492569 0.85224161719
11486590000.0 0.4354241839 0.83837336364 0.00079700414062 -0.00041935997284 0.00079418648729 -0.00039444659125 0.42584969792 0.84642973946
11486960000.0 0.44566917083 0.83235930903 0.0007882534766 -0.00042132785893 0.0007843295846 -0.00039697047653 0.43662832102 0.84030602483
11487330000.0 0.45609116909 0.8260612029 0.00077633718258 -0.00042157604094 0.00077373590479 -0.00039827639369 0.44750990376 0.83391801457
11487700000.0 0.46657853194 0.81945974719 0.00076352696996 -0.00042084400521 0.00076128960971 -0.00039785777874 0.4586180742 0.82721296507
11488070000.0 0.47724794662 0.81256616444 0.00074920537164 -0.0004161582196 0.00074765752518 -0.00039419310416 0.46978467671 0.82022982525
11488440000.0 0.48802318743 0.80535129964 0.00073227843322 -0.00041083482001 0.00073065679646 -0.00038886525478 0.48120415056 0.81288250303
11488810000.0 0.4989195904 0.79782106317 0.00071357145523 -0.00040276531875 0.00071279630977 -0.00038203879483 0.49270534353 0.80516941725
11489180000.0 0.50993100549 0.78998690118 0.00069226216312 -0.00039252414598 0.00069076052045 -0.00037100575095 0.50431253037 0.79714028518
11489550000.0 0.52108712496 0.78180288197 0.000669960233 -0.00037703204738 0.00066824722571 -0.00035848598798 0.51604111818 0.7887252656
11489920000.0 0.53234197755 0.77320989742 0.00064224921726 -0.00036004901436 0.00064338439782 -0.0003409767619 0.52794735356 0.77996615374
11490290000.0 0.54373604878 0.7642332568 0.00061347965611 -0.00033916214442 0.00061282627909 -0.00032114616735 0.53994734156 0.77068965655
11490660000.0 0.555222342 0.75481391498 0.00058248838748 -0.00031222432082 0.00058179608926 -0.00029574807915 0.55211078313 0.76102577577
11491030000.0 0.56680501346 0.74497880998 0.00055070602172 -0.00027987908289 0.00054801133197 -0.00026508280595 0.56442483983 0.75090647522
11491400000.0 0.57854454326 0.73471348238 0.00051350688935 -0.00024358461935 0.00051178738018 -0.00023045833666 0.57683095461 0.74031223602
11491770000.0 0.59040498451 0.72403302994 0.00047290203751 -0.00019979002983 0.00047196347056 -0.0001877679212 0.58940421465 0.72917513079
11492140000.0 0.60232079697 0.71274041279 0.00042995251898 -0.00014869035941 0.00042824027615 -0.00013736805198 0.60200552181 0.71744785517
11492510000.0 0.61430203757 0.70093528299 0.00038566157937 -9.1438182362e-05 0.000383252777 -8.167009468e-05 0.61471251138 0.70522221846
11492880000.0 0.6263555685 0.68855636002 0.00033752417443 -2.2457276352e-05 0.00033241430346 -1.4732564666e-05 0.62743944564 0.69237337595
11493250000.0 0.63850687141 0.6756377041 0.00028565206123 5.478743653e-05 0.00028180400686 5.9966165516e-05 0.64039997143 0.67889958961
11493620000.0 0.65074542775 0.66208639247 0.0002330425796 0.00014197999487 0.00022733529078 0.00014512075577 0.6533278531 0.66470838409
11493990000.0 0.6630103959 0.64782220029 0.00017528805236 0.00024199814399 0.0001705740461 0.00024375660963 0.66629316447 0.6498492642
11494360000.0 0.67531643783 0.63285287932 0.00011697019288 0.00035298329654 0.000109484769 0.00035296211279 0.67934235253 0.63428372365
11494730000.0 0.68759638251 0.61717122597 5.6735070416e-05 0.00047949947418 4.9304028178e-05 0.00047846912922 0.69238829191 0.61788064432
11495100000.0 0.6998794362 0.60074120339 -2.5086440209e-06 0.0006194982071 -1.4386970096e-05 0.00061883530359 0.70541688548 0.6005671494
11495470000.0 0.71216788802 0.58347328878 -6.5184003601e-05 0.00077875379004 -7.8300572451e-05 0.00077272650004 0.71848829276 0.5824360635
11495840000.0 0.72434468893 0.56527485625 -0.00012651653471 0.00095290337796 -0.00014262971203 0.00094815881366 0.73134917624 0.56332090794
11496210000.0 0.7363735863 0.5461495791 -0.00018649050564 0.0011474214698 -0.00020543792094 0.0011410712933 0.74412607284 0.54319215027
11496580000.0 0.74831198145 0.52606657937 -0.00024292907082 0.0013620615487 -0.00026865075356 0.0013536383054 0.75672390267 0.52197131439
11496950000.0 0.76008845213 0.50496137523 -0.00029656585434 0.0015977900768 -0.00032740294181 0.0015897647182 0.76913448558 0.49962880862
11497320000.0 0.77155869036 0.48275486939 -0.00034766997396 0.0018560955045 -0.00037909438563 0.0018461205386 0.78125087259 0.47604603779
11497690000.0 0.78273860672 0.45934262679 -0.0003915955197 0.0021366284325 -0.00042923163127 0.0021272664067 0.79301192729 0.45122250866
11498060000.0 0.79356774587 0.43462314589 -0.00042574549346 0.0024401017272 -0.00047268041366 0.002431728202 0.80433805232 0.42489126688
11498430000.0 0.80395302932 0.40862726387 -0.0004520259948 0.0027666971212 -0.00050531480237 0.002759764316 0.81513597821 0.39712866273
11498800000.0 0.8137325283 0.38125488096 -0.00047215140887 0.0031118788493 -0.00052858882866 0.0031082865509 0.82534776196 0.36785142428
11499170000.0 0.82289435611 0.35233231515 -0.00047914847045 0.0034768984622 -0.00054162951703 0.0034751227533 0.83478245455 0.33693666236
11499540000.0 0.83126944327 0.32181472655 -0.00047520210131 0.0038571152169 -0.0005446579809 0.0038599571791 0.84328796437 0.30420772938
11499910000.0 0.83870694187 0.28962451679 -0.00046453635055 0.0042434183032 -0.00053724509904 0.0042540116857 0.85067084672 0.26965586735
11500280000.0 0.8449939268 0.25567999662 -0.0004470001417 0.004633821731 -0.0005256361547 0.004648129271 0.85666461951 0.23309252659
11500650000.0 0.84994735953 0.2198344803 -0.0004336825019 0.0050141712454 -0.00051475578809 0.0050358533255 0.86107542452 0.19450195269
11501020000.0 0.85331990492 0.18201021454 -0.00043395793518 0.0053721885598 -0.00052072963646 0.0053979709739 0.86361009851 0.15367263157
11501390000.0 0.8547709562 0.14213746485 -0.00047799324621 0.0056894547582 -0.00056183815051 0.0057209901768 0.86381997446 0.1105472727
11501760000.0 0.85404299589 0.10009373516 -0.00059252185305 0.0059436581475 -0.00067473330766 0.0059820702471 0.86139039509 0.065107938184
11502130000.0 0.8506304074 0.055868896643 -0.00082827972702 0.0061172766583 -0.00091067948993 0.006159370689 0.85568069364 0.017195514753
11502500000.0 0.8441080562 0.0093610474438 -0.0012660151659 0.0061868108809 -0.0013466945831 0.0062298569294 0.84624700151 -0.032997535474
11502870000.0 0.83386593014 -0.039361695801 -0.002015128675 0.0061345908133 -0.0020986630884 0.0061758931742 0.83224601814 -0.085525347221
11503240000.0 0.81912764286 -0.090213551949 -0.0032422187047 0.0059615743048 -0.0033318567482 0.005997944471 0.81272387929 -0.14023176137
11503610000.0 0.79920565246 -0.14300852528 -0.0051786141937 0.0057100518456 -0.0052828802077 0.0057362355575 0.78672785356 -0.19670561978
11503980000.0 0.77298979928 -0.19733660026 -0.0081408351306 0.0054869450163 -0.0082739504901 0.0055058367377 0.75303989171 -0.25431232457
11504350000.0 0.73938729072 -0.25261913828 -0.012563831949 0.0055359739764 -0.01274477567 0.0055539538254 0.71020612004 -0.31200624198
11504720000.0 0.69705929665 -0.30776569446 -0.018983865029 0.0063390440403 -0.019242536941 0.0063756354712 0.65684082078 -0.36822425112
11505090000.0 0.64456265123 -0.36127998548 -0.028028528794 0.0087610171594 -0.028387405804 0.008872323041 0.59114130025 -0.4206158236
11505460000.0 0.58053353029 -0.4106834524 -0.040264638278 0.01430026928 -0.040722677202 0.014567676426 0.5120508743 -0.46554697078
11505830000.0 0.50400227237 -0.45245671209 -0.055854882439 0.025356119961 -0.056388162174 0.025988869857 0.41922335925 -0.49805448704
11506200000.0 0.41511261081 -0.48164859659 -0.073639082017 0.045367831954 -0.074229004086 0.046485269625 0.31429270332 -0.51165640812
11506570000.0 0.31643164383 -0.49224597769 -0.090530909065 0.078658825706 -0.090757845519 0.080304826494 0.20257023114 -0.49912304182
11506940000.0 0.21425224487 -0.478376028 -0.099214968809 0.1285738409 -0.098646159962 0.13055854628 0.094573101429 -0.45488268841
11507310000.0 0.11917824631 -0.43752664711 -0.088349172888 0.19415931836 -0.086819885402 0.19596795598 0.0054610607395 -0.37953088424
11507680000.0 0.043545379308 -0.37415623279 -0.046283005095 0.26598809483 -0.044023366726 0.26699496093 -0.050218812508 -0.28381424115
11508050000.0 -0.0050257619178 -0.30024146579 0.031690067143 0.32631478449 0.033924181125 0.3262560304 -0.066833151491 -0.1869527263
11508420000.0 -0.028092753586 -0.22953029624 0.13741345463 0.35655374827 0.13930804416 0.35583568277 -0.052270298414 -0.10731540935
11508790000.0 -0.034404651535 -0.17030459316 0.25378083898 0.34691363443 0.25527301835 0.34595519797 -0.02252927899 -0.053032284478
11509160000.0 -0.033138713779 -0.12314016022 0.36304818206 0.29881538984 0.36437571205 0.29768104303 0.0083017814335 -0.021143835853
11509530000.0 -0.029475828561 -0.084544908939 0.45313639733 0.22064536731 0.45432440029 0.21921361818 0.033082256536 -0.0035627298117
11509900000.0 -0.024576904749 -0.050938762612 0.51801828272 0.12244260415 0.51889999092 0.12071864281 0.050818638377 0.0069189017701
11510270000.0 -0.017717455014 -0.020426826254 0.55602025268 0.013642632269 0.55651810669 0.011610203848 0.063635559469 0.014637953068
11510640000.0 -0.0078130900769 0.0071306953327 0.56809481991 -0.098311694035 0.56813963643 -0.10040464323 0.07396495381 0.021242513583
11511010000.0 0.0054454750432 0.030811805148 0.5566664785 -0.20758378898 0.55624756514 -0.2096301378 0.083603029431 0.02651869749
11511380000.0 0.021512826992 0.049585283209 0.52470083065 -0.3098185134 0.52399764683 -0.31167989487 0.093052675808 0.029746344537
11511750000.0 0.039188940739 0.062660232755 0.47566517539 -0.4019758563 0.47465163156 -0.4036174758 0.10209458054 0.030193953201
11512120000.0 0.056953709215 0.069887716257 0.41268652383 -0.48207994628 0.41150761117 -0.48357126176 0.10999377461 0.027625649587
11512490000.0 0.073327009739 0.071587356213 0.33904870484 -0.54899842998 0.33769627857 -0.55044096017 0.11582413639 0.022168950513
11512860000.0 0.087008292632 0.068635470143 0.25753721179 -0.60213475054 0.25599838597 -0.60355184855 0.11879855421 0.014460711001
11513230000.0 0.097146033163 0.062132563549 0.17072872312 -0.64147107406 0.16887072302 -0.64278856563 0.11842784318 0.0053784207899
11513600000.0 0.10319130706 0.053393841487 0.080929751601 -0.66709156523 0.078449258481 -0.66834147907 0.11449031382 -0.003970812387
11513970000.0 0.10506278691 0.043684396541 -0.010188725905 -0.67958087835 -0.013150372763 -0.68057247 0.10710925694 -0.012602898181
11514340000.0 0.10298141861 0.034163781715 -0.10071693001 -0.67941155028 -0.10416596922 -0.67984137779 0.096670997639 -0.019635602585
11514710000.0 0.097477569963 0.0258860456 -0.18916902808 -0.66725093945 -0.19306492734 -0.66696484799 0.083958044845 -0.024215095769
11515080000.0 0.089290726175 0.019626479569 -0.27419560099 -0.64392428147 -0.27829489434 -0.64269916867 0.069695584114 -0.025904832625
11515450000.0 0.079180854668 0.015866884542 -0.35453040365 -0.61022476546 -0.35854631231 -0.60795021924 0.054853871606 -0.024434225667
11515820000.0 0.068096774528 0.014907975265 -0.42900900582 -0.56710080594 -0.43281558787 -0.56375722863 0.040282455919 -0.019838633481
11516190000.0 0.056932571655 0.01673659304 -0.49678523167 -0.51557149874 -0.50002873781 -0.51124246868 0.026918742706 -0.012352605558
11516560000.0 0.046434983099 0.021131443541 -0.55721741111 -0.45675482682 -0.55950983885 -0.4516084915 0.015364296277 -0.0023406793596
11516930000.0 0.037282351993 0.027756905099 -0.60942275285 -0.39176085733 -0.6107228338 -0.38617430957 0.0061479274769 0.009484819987
11517300000.0 0.029970614433 0.03598899515 -0.65311204688 -0.32182567726 -0.65326950412 -0.3160199167 -0.00026696201044 0.022510078559
11517670000.0 0.024852217322 0.045320354353 -0.68806608291 -0.24804625048 -0.68691710327 -0.24235385188 -0.0038751049022 0.035987841005
11518040000.0 0.022027776383 0.055096055126 -0.71387534907 -0.17170056578 -0.7117159151 -0.16631303474 -0.0045408120655 0.049269729867
11518410000.0 0.021541307098 0.064701416992 -0.73083581674 -0.0937822035 -0.72780509407 -0.08889773468 -0.0025865288422 0.06167459315
11518780000.0 0.023154663907 0.073584118136 -0.73904616504 -0.015281146533 -0.7352934909 -0.011242831521 0.0017376850754 0.072652233142
11519150000.0 0.026623864502 0.081285457299 -0.73871248555 0.062929608222 -0.73447767308 0.066046963574 0.007960649648 0.081765508599
11519520000.0 0.031617857509 0.087406118147 -0.73011439485 0.13987173876 -0.72565456128 0.1420886369 0.015624457371 0.088707620533
11519890000.0 0.037687633285 0.09171673216 -0.71367097026 0.21480897539 -0.70919810805 0.21605044354 0.024208582567 0.093265603106
11520260000.0 0.044345799974 0.094059641821 -0.68982629327 0.28692751436 -0.68547236285 0.28753446602 0.033157118225 0.095368173034
11520630000.0 0.051165413251 0.094412782906 -0.6589440912 0.35584482826 -0.65487587029 0.35589086073 0.042003263496 0.095134259478
11521000000.0 0.05770586751 0.092829543885 -0.62152597678 0.42074022875 -0.6178466787 0.42039098116 0.050188752111 0.092592846685
11521370000.0 0.063590356206 0.089475371838 -0.57806930056 0.48129636844 -0.57477419284 0.48073208214 0.05734190244 0.08804516004
11521740000.0 0.068439033355 0.084538423437 -0.52912529975 0.53707563897 -0.5262092601 0.53629146031 0.063071547762 0.081831675011
11522110000.0 0.072067312369 0.078334600831 -0.47520117617 0.58743493394 -0.47255287416 0.58661989773 0.067126721115 0.074279586128
11522480000.0 0.074177967607 0.071156114998 -0.41674634005 0.63213333825 -0.41433227765 0.63147350278 0.069261203754 0.065748856288
11522850000.0 0.07469133238 0.063380338777 -0.35439178147 0.67076018584 -0.35215140906 0.67021105954 0.069465373049 0.056748306425
11523220000.0 0.073525090456 0.055327879715 -0.28878700585 0.70312370645 -0.28642274875 0.70274007451 0.067641084212 0.047636295806
11523590000.0 0.070712702299 0.047379206033 -0.22052057209 0.72892847421 -0.21793800251 0.7286057837 0.06388171837 0.038924806068
11523960000.0 0.066350679181 0.039896549174 -0.15016101588 0.74801788465 -0.14727499655 0.74761119866 0.058352946311 0.030901899895
11524330000.0 0.06053540955 0.033097055115 -0.07846898587 0.76010562066 -0.075245360898 0.75956735525 0.051266870181 0.024024811127
11524700000.0 0.053537359264 0.027329828391 -0.0061052671776 0.76526517118 -0.0024809969041 0.76436469537 0.042955300962 0.018434684673
11525070000.0 0.045572211339 0.022765932034 0.066476217371 0.76334522469 0.070381772896 0.76204722924 0.033695362545 0.014537419126
11525440000.0 0.036959824315 0.019583237075 0.13836104621 0.75459341437 0.14243445307 0.75261764335 0.023904664913 0.012214029359
11525810000.0 0.028005989 0.01785671428 0.20887641824 0.73895737986 0.21312703257 0.73626952107 0.013962810912 0.011723808129
11526180000.0 0.018985334796 0.017615626499 0.27746118584 0.71667011786 0.28165039681 0.71322230449 0.0042264053514 0.012952144598
11526550000.0 0.010241487732 0.018856472681 0.34352583554 0.68804754273 0.34744127291 0.68371688755 -0.0049184036852 0.015787801001
11526920000.0 0.0020961647026 0.021389213838 0.40648455184 0.65327716673 0.4099202773 0.64818651211 -0.013139226814 0.020096987663
11527290000.0 -0.0052183328946 0.025121054285 0.46570083684 0.61282700361 0.46849710648 0.60708605032 -0.020218140388 0.025574566174
11527660000.0 -0.01150530091 0.029816583441 0.52076549309 0.56708029511 0.52285306998 0.5607985072 -0.02597422677 0.032007636364
11528030000.0 -0.016609255966 0.035222160391 0.57123310741 0.51648391475 0.57238141469 0.50979063385 -0.030209443342 0.03900073982
11528400000.0 -0.020394079859 0.041083650645 0.61660545856 0.46149440832 0.61680426809 0.45450900909 -0.032882840057 0.046331600344
11528770000.0 -0.022820482106 0.047109587737 0.6566761735 0.40253173828 0.65580020866 0.39564588634 -0.033961045555 0.053589114739
11529140000.0 -0.023870403624 0.053027893098 0.69112050854 0.34020260208 0.68912478312 0.33364976737 -0.033568599285 0.060455299143
11529510000.0 -0.023689955568 0.058563666077 0.71963504147 0.27508913815 0.71669818027 0.26893826438 -0.031752114851 0.066732572268
11529880000.0 -0.022315154403 0.06344496369 0.74196693826 0.20769465137 0.73828066576 0.202114527 -0.028712189582 0.072031537565
11530250000.0 -0.019953425771 0.067538239753 0.75805197611 0.13856377208 0.75367592636 0.1337495328 -0.024714199498 0.076243984018
11530620000.0 -0.016845231384 0.070592351173 0.76768950495 0.068260044389 0.76287036464 0.064253549733 -0.019986742104 0.079185615999
11530990000.0 -0.013158719566 0.072579142675 0.77087985064 -0.0026617839704 0.76570800789 -0.0058292738028 -0.01476890962 0.08077208648
11531360000.0 -0.0091712168658 0.073367567769 0.76757296793 -0.073688870145 0.76226784622 -0.076041878693 -0.0094498648094 0.080915685844
11531730000.0 -0.0051372953269 0.072936747783 0.75775655424 -0.14410406176 0.75243256835 -0.1456713148 -0.0042537670536 0.079650124631
11532100000.0 -0.0012651433093 0.071338637155 0.74145502426 -0.21344228061 0.73630786969 -0.21435516943 0.00052607497608 0.077059502432
11532470000.0 0.0022208320512 0.068654207289 0.71883957853 -0.28103401428 0.71393579331 -0.28134745133 0.0046623056949 0.073293521409
11532840000.0 0.0050709513183 0.064983134034 0.69000145303 -0.34630891508 0.6853845358 -0.34623506263 0.0079265642588 0.068451279933
11533210000.0 0.0071462778672 0.060496044349 0.65521608862 -0.40883571368 0.65091002236 -0.4084922988 0.01006529622 0.062846299523
11533580000.0 0.0083128393799 0.055379356263 0.61470375402 -0.46791644367 0.61067801498 -0.46740872921 0.010987727905 0.05667029684
11533950000.0 0.0084636465738 0.049853170116 0.56877330013 -0.52302360707 0.56500725229 -0.52246886653 0.010626815722 0.05018941476
11534320000.0 0.0075325178904 0.044106364622 0.51774279404 -0.57372916955 0.5141310212 -0.57308562188 0.0089517634685 0.043762816682
11534690000.0 0.0055295516925 0.038393746778 0.46214327806 -0.61956351267 0.45857569693 -0.61889203275 0.0060171765394 0.03756764804
11535060000.0 0.002518172796 0.032901686433 0.40246312456 -0.65989266302 0.39881006853 -0.65921790994 0.0018627316578 0.031990206459
11535430000.0 -0.0014963537355 0.02785250151 0.33929364274 -0.69443123884 0.33540185713 -0.69376046447 -0.003360666423 0.027189163947
11535800000.0 -0.0063170335792 0.023401329082 0.27298696897 -0.72295051728 0.26888119898 -0.72205542823 -0.0093543559127 0.023404317002
11536170000.0 -0.011835406984 0.019753281295 0.20427085127 -0.7451760676 0.19994146521 -0.74390637071 -0.015943454984 0.020789917653
11536540000.0 -0.017874900813 0.016979982586 0.13373926931 -0.76076517719 0.12929784346 -0.75903006179 -0.022895329575 0.019432050048
11536910000.0 -0.024222917457 0.015192219211 0.062137077745 -0.76964266714 0.057598116483 -0.76739748987 -0.02985256917 0.019417685704
11537280000.0 -0.03068298756 0.014417169829 -0.0099319231243 -0.77176704415 -0.014460101621 -0.76893943526 -0.036595659427 0.020686320018
11537650000.0 -0.036996672941 0.01465145065 -0.081763401464 -0.76721861023 -0.086343181538 -0.7636278824 -0.042760303949 0.023192557748
11538020000.0 -0.0430205186 0.015857551075 -0.15275158744 -0.75590562743 -0.1571973685 -0.75162687551 -0.048127544029 0.026770991325
