! Created with skrf 1.8.0 (http://scikit-rf.org).
# Hz S RI R 50.0 
!freq ReS11 ImS11 ReS21 ImS21 ReS12 ImS12 ReS22 ImS22
11484000000.0 0.36801233597 0.87171126752 0.00084976608598 -0.00038767240825 0.0008428130362 -0.00036708885538 0.3524390348 0.88278332114
11484370000.0 0.37754651533 0.86733534557 0.00085063298054 -0.00039860162297 0.0008443220319 -0.00037632234806 0.36231328164 0.87826740324
11484740000.0 0.38714749985 0.86270285236 0.0008494782972 -0.00040639291505 0.00084341461743 -0.00038485976906 0.372325129 0.87356160474
11485110000.0 0.39690417631 0.8578720094 0.00084912551197 -0.000415420176 0.00084253715789 -0.00039370419457 0.3824575756 0.86867173062
11485480000.0 0.40673668448 0.85278575814 0.00084587708674 -0.00042463735712 0.00084048480925 -0.00040098219344 0.39272259874 0.86363545852
11485850000.0 0.41673280735 0.84745834654 0.00084258579594 -0.00042924938536 0.00083713623307 -0.00040852173069 0.40312873015 0.85833516081
11486220000.0 0.42680536242 0.84186561848 0.00083562316467 -0.00043555188655 0.00083152952473 -0.00041487917576 0.41369978299 0.85275742786
11486590000.0 0.43695094488 0.83606239417 0.00082880399256 -0.00044058559533 0.0008259632739 -0.00041969112813 0.42442858206 0.84695104115
11486960000.0 0.44727547075 0.82993658256 0.00082078761036 -0.00044408408923 0.00081755033804 -0.00042346650888 0.43520413541 0.84080943646
11487330000.0 0.45774585709 0.82350815178 0.00081199690614 -0.00044553616815 0.00080832406262 -0.00042626265368 0.44610493117 0.8344459489
11487700000.0 0.46828514056 0.81681971518 0.00080035578496 -0.00044683319258 0.00079593267088 -0.00042625367548 0.45723040184 0.82773408684
11488070000.0 0.47900381377 0.80980988202 0.00078743378351 -0.00044784241562 0.00078366153081 -0.0004254296435 0.46842687858 0.8207515079
11488440000.0 0.48979572391 0.80249335452 0.00077003807444 -0.00044437065997 0.00076920134614 -0.00042420373312 0.47986527811 0.81342517302
11488810000.0 0.50073121499 0.79482705411 0.00075326451428 -0.00043838049726 0.00075246845003 -0.00041733283252 0.49133584021 0.80573372134
11489180000.0 0.51185546031 0.78681643353 0.00073403636151 -0.00042915387373 0.00073290539765 -0.00041168454371 0.5029721525 0.79774135534
11489550000.0 0.52305233701 0.77849744607 0.00071147876414 -0.0004190159006 0.00071101850417 -0.00040266316595 0.51476418416 0.78936059248
11489920000.0 0.5343673694 0.76969206243 0.00068696584444 -0.00040391333359 0.00068687198166 -0.0003884080954 0.52664943409 0.78057859122
11490290000.0 0.54582694975 0.76055693773 0.00065987029664 -0.00038642751626 0.00066063027696 -0.00037084308323 0.53865129648 0.77139467066
11490660000.0 0.55734851479 0.75096295794 0.0006319159546 -0.0003634391949 0.00063286265901 -0.00034920732602 0.55077686625 0.76177646962
11491030000.0 0.56901586805 0.74093232648 0.0006001801408 -0.00033691681898 0.00059983413269 -0.00032321867769 0.56304422067 0.75170012732
11491400000.0 0.58077813196 0.73046893031 0.00056500305885 -0.00030475036102 0.00056577205358 -0.00029060166239 0.57543655874 0.74112417928
11491770000.0 0.59264328666 0.71954165663 0.00052867870746 -0.0002665212018 0.0005278326537 -0.00025437790508 0.58798820681 0.73003104725
11492140000.0 0.60462909983 0.70802591056 0.00048751314006 -0.00022185640735 0.00048880972398 -0.00021182496454 0.60063000697 0.7183705866
11492510000.0 0.61670986106 0.69595880819 0.0004441701673 -0.00016960937103 0.00044447254242 -0.00016168067489 0.61340217864 0.70615439971
11492880000.0 0.62879468534 0.6833443652 0.0003994661741 -0.00010897563422 0.00039811368242 -0.00010211196193 0.62616711849 0.69332233007
11493250000.0 0.64095550159 0.67015191089 0.00035067717506 -4.1464459146e-05 0.00034760718567 -3.3501557947e-05 0.63907050458 0.67990707675
11493620000.0 0.65320104471 0.65631487338 0.00030135387352 3.7643245961e-05 0.00029763868456 4.3923786348e-05 0.65204009609 0.66574567463
11493990000.0 0.66549802747 0.64178983036 0.00024747846131 0.0001281345292 0.00024345861507 0.00013095182389 0.66510324359 0.65090227856
11494360000.0 0.67781239808 0.62649687778 0.0001934458556 0.00022915456585 0.00018626676416 0.00023056427097 0.67811630617 0.63535255484
11494730000.0 0.69008845571 0.61048986036 0.00013736226359 0.00034279096969 0.00012733138791 0.00034205041637 0.69118704833 0.61892999135
11495100000.0 0.70234991255 0.5938502128 7.6583671419e-05 0.00046853984314 6.7609701934e-05 0.00046785337709 0.70426328888 0.60171490079
11495470000.0 0.71457599562 0.57620105162 1.736319776e-05 0.00060949193539 5.0571142819e-06 0.00060935355997 0.71725337101 0.58356603771
11495840000.0 0.72667501665 0.55762662206 -4.2445800095e-05 0.00076705724743 -5.5746983873e-05 0.00076522867502 0.73016044154 0.56447129163
11496210000.0 0.73867260343 0.53812238041 -9.9324471612e-05 0.00094221820094 -0.00011701177439 0.0009374900194 0.7429672197 0.54435802337
11496580000.0 0.75055697582 0.51757903341 -0.00015481890647 0.0011333504372 -0.00017739167874 0.0011286016117 0.75560150986 0.52318973534
11496950000.0 0.76214900125 0.49602450998 -0.00021099057777 0.0013430522314 -0.00023520584403 0.0013366611317 0.76803886042 0.50084278794
11497320000.0 0.77351572308 0.47332621559 -0.00025934017524 0.0015727072619 -0.0002893486858 0.0015650704231 0.78015991916 0.47733160291
11497690000.0 0.78452765958 0.44941354347 -0.00030500263656 0.0018196217278 -0.00033875161631 0.0018116739621 0.79197669234 0.45254141879
11498060000.0 0.79513174824 0.42417721193 -0.00034556803644 0.0020830504175 -0.00038449007521 0.0020765037922 0.80335114702 0.42634115152
11498430000.0 0.80525777143 0.39762156969 -0.00037943381726 0.0023636943749 -0.00042426234017 0.0023576545093 0.81423065299 0.39859942794
11498800000.0 0.81473785003 0.36963966886 -0.00040639402311 0.0026596032293 -0.00045746807881 0.0026536924032 0.82446154575 0.36937817528
11499170000.0 0.8236056586 0.34013524962 -0.0004273958145 0.0029618587108 -0.00048286186539 0.0029601939213 0.83397788433 0.33852037764
11499540000.0 0.8315458028 0.30904595761 -0.00044721931757 0.0032711413474 -0.00050585650423 0.0032731190364 0.84250063084 0.30585040338
11499910000.0 0.83844507195 0.27620824676 -0.00046698852052 0.0035768155338 -0.00053024536956 0.003582893265 0.84990880477 0.27129927228
11500280000.0 0.8441715815 0.2416130049 -0.00049229825464 0.0038714707685 -0.00055930678973 0.0038821908317 0.85595453395 0.23475778112
11500650000.0 0.84848145451 0.20511471358 -0.00053672687868 0.0041417823178 -0.00060969374667 0.0041557888284 0.8604282419 0.19614208992
11501020000.0 0.85107747688 0.1665973133 -0.00062128426507 0.0043717490914 -0.00069492584883 0.0043905256545 0.86302815776 0.15532071426
11501390000.0 0.85166062256 0.12605758498 -0.00077284221913 0.0045406013922 -0.00084704154195 0.0045618917099 0.86333100338 0.11219031368
11501760000.0 0.84989589223 0.083417937688 -0.0010362893108 0.0046296787375 -0.0011119154221 0.0046562521796 0.86085231974 0.066730148905
11502130000.0 0.84529495168 0.038606391683 -0.0014787909873 0.0046135829191 -0.0015504402391 0.0046372846334 0.85521950099 0.01876458225
11502500000.0 0.83740314961 -0.0084601475072 -0.0021939769017 0.0044743418549 -0.0022657414572 0.0044952620954 0.84566985935 -0.0315169761
11502870000.0 0.82559793321 -0.057673359513 -0.0033185242391 0.0042001568808 -0.0033949403628 0.0042123455693 0.8315272671 -0.08415422695
11503240000.0 0.80912354644 -0.10879743477 -0.0050506186323 0.0038056507268 -0.0051372182581 0.0038044533823 0.81178956104 -0.13896597092
11503610000.0 0.78718449938 -0.16168471232 -0.0076665619674 0.0033522226315 -0.0077774262739 0.0033359707559 0.78547290629 -0.19553930007
11503980000.0 0.75871883877 -0.21586326915 -0.011543510442 0.0029986189591 -0.011693772462 0.0029664920493 0.75123811485 -0.25316576537
11504350000.0 0.72252375341 -0.27053500101 -0.01717243334 0.0030726938681 -0.017391448411 0.0030356571955 0.707618309 -0.31082495663
11504720000.0 0.67729041279 -0.32467409578 -0.025164339896 0.0041973390589 -0.025483964417 0.0041830095517 0.65305038949 -0.36669867512
11505090000.0 0.62167341011 -0.37619099576 -0.036192651281 0.0074766318565 -0.036639228715 0.0075563408822 0.58589822654 -0.41818011317
11505460000.0 0.55446259001 -0.42247695037 -0.050772488305 0.014778783005 -0.051343679433 0.015054628368 0.5049628124 -0.46130972771
11505830000.0 0.47505718429 -0.45953543302 -0.068606523102 0.029007398561 -0.069427632101 0.029724123713 0.41023151533 -0.49045971425
11506200000.0 0.38441398978 -0.48206010286 -0.088306961424 0.054260496522 -0.089027625062 0.055529257355 0.30431495973 -0.49856339531
11506570000.0 0.28653460374 -0.48391436297 -0.10487035114 0.095034689196 -0.10509564547 0.096829677227 0.19420153314 -0.47823593831
11506940000.0 0.1896384434 -0.46043298014 -0.10898472027 0.15376111984 -0.10830632107 0.15579107546 0.092728689573 -0.42522558721
11507310000.0 0.10558331232 -0.41207195948 -0.087765196452 0.22642473696 -0.08618634479 0.22808765983 0.016460147773 -0.34369389185
11507680000.0 0.045257403854 -0.34742839782 -0.030894840012 0.29921829754 -0.028874568206 0.29996772958 -0.021999549945 -0.24918036317
11508050000.0 0.011492629017 -0.28074977682 0.061171200212 0.35186141256 0.062973549015 0.35187055215 -0.022851087221 -0.16317264355
11508420000.0 -0.0024279217422 -0.22368735324 0.17490947787 0.36829195936 0.1764019513 0.36802440394 0.0002856563209 -0.10104019399
11508790000.0 -0.0070984503641 -0.17973567491 0.29144830759 0.34400040388 0.29287472579 0.34370654698 0.029903874656 -0.065294246049
11509160000.0 -0.010170914355 -0.14566000397 0.39523104077 0.28443505152 0.39682281895 0.2839635154 0.053980082675 -0.048848527954
11509530000.0 -0.014154226086 -0.11649612169 0.47728786305 0.19926640998 0.47900284696 0.19822361951 0.068497068768 -0.042226473066
11509900000.0 -0.018175626641 -0.088743176004 0.53399179773 0.097862712355 0.53556193898 0.096246883129 0.074662052878 -0.038566454013
11510270000.0 -0.020302038671 -0.06122766251 0.56489574652 -0.0115417757 0.56603126628 -0.013690876823 0.075764714575 -0.034254823919
11510640000.0 -0.018866590749 -0.03447671373 0.57126638183 -0.12253228409 0.57180514868 -0.12505341214 0.074818455601 -0.028412240863
11511010000.0 -0.013326646128 -0.010034608898 0.55539286845 -0.23017428508 0.55519890862 -0.23270082706 0.073884626112 -0.02160062873
11511380000.0 -0.0041504077161 0.010722359302 0.51994051874 -0.33050736427 0.51919844964 -0.33285384842 0.073721443269 -0.014984824678
11511750000.0 0.0074858629502 0.02667357715 0.46806404966 -0.42064169872 0.46682206429 -0.42268167569 0.074310934427 -0.0094916736337
11512120000.0 0.020022832532 0.037416877621 0.40266642387 -0.49873577583 0.4011068373 -0.50050117369 0.075064481853 -0.0056667842281
11512490000.0 0.031939872077 0.043120693475 0.32697812395 -0.56355482716 0.32511675091 -0.56503369086 0.075234505052 -0.0036996294644
11512860000.0 0.041912719879 0.044496010031 0.2436519405 -0.6144476645 0.24156567461 -0.61566115469 0.074154772761 -0.0032224420364
11513230000.0 0.04900287932 0.042602185616 0.15524808832 -0.65137525642 0.15286012555 -0.65231704888 0.071365866597 -0.0036259837671
11513600000.0 0.05265713746 0.038630966254 0.064155497161 -0.67441413995 0.061457651415 -0.67504714451 0.06662946206 -0.0041701913716
11513970000.0 0.052755308819 0.03379547628 -0.027798171744 -0.68407333735 -0.030766206353 -0.68426082052 0.060092630184 -0.0041814917816
11514340000.0 0.049515195779 0.029211228541 -0.11868018598 -0.68092198793 -0.12195060592 -0.68056391352 0.052058832003 -0.0029283174627
11514710000.0 0.043448307409 0.025876111911 -0.20698121712 -0.66587233708 -0.2103576211 -0.66479622652 0.043074097088 3.3829058267e-05
11515080000.0 0.035248530104 0.024472257029 -0.29134804054 -0.63960230404 -0.29468359868 -0.6377714888 0.033811979365 0.0050152993059
11515450000.0 0.025705087759 0.025435999827 -0.37045530552 -0.60319447034 -0.37355781879 -0.60053596947 0.02497334633 0.01202205112
11515820000.0 0.015709758557 0.028961157738 -0.4433289449 -0.55757615951 -0.44611402522 -0.55416074199 0.017182287088 0.020980075483
11516190000.0 0.0060756756565 0.0350089715 -0.50910979564 -0.5040029325 -0.51121897305 -0.49993391164 0.011080097222 0.031512099838
11516560000.0 -0.0024887753346 0.043302482428 -0.56717696696 -0.44365836983 -0.56852031665 -0.43908572151 0.007122755702 0.043226719089
11516930000.0 -0.0093875535228 0.053399429246 -0.61686846625 -0.37761172791 -0.6173380302 -0.37289826184 0.0054730962237 0.055403313441
11517300000.0 -0.014210005359 0.064781748074 -0.65805185615 -0.30720116616 -0.6575669878 -0.30244853574 0.006371235567 0.067521019804
11517670000.0 -0.016672503723 0.07682788967 -0.69047701172 -0.23333381159 -0.68916546871 -0.22875176467 0.0097721566248 0.078955655029
11518040000.0 -0.01674443027 0.088942861762 -0.71401407849 -0.15731191184 -0.71191504258 -0.15314720183 0.015448516212 0.089150032405
11518410000.0 -0.014437454748 0.10053854635 -0.72887811425 -0.080086527103 -0.72615509189 -0.076561385276 0.023012305548 0.097604019305
11518780000.0 -0.010031250872 0.11110508674 -0.73524349704 -0.0026040224027 -0.7321938772 0.00027207490234 0.032211732777 0.10389265077
11519150000.0 -0.0038072162675 0.12022428078 -0.73339323758 0.074340071787 -0.73012628514 0.076517061482 0.04240542974 0.10777500803
11519520000.0 0.0038558672676 0.12754324044 -0.72356001417 0.14988570021 -0.72027044923 0.15144084639 0.053122134314 0.10903292879
11519890000.0 0.01258424085 0.13285710744 -0.70625367963 0.22333093314 -0.70311161444 0.22431005687 0.063833561769 0.10769936142
11520260000.0 0.021825544352 0.13603375957 -0.68178081654 0.29399837808 -0.67880234244 0.29464430072 0.074001600162 0.10381195575
11520630000.0 0.031199220402 0.13706465889 -0.65057085167 0.3614315424 -0.64785771287 0.36187204164 0.083142907849 0.097536500344
11521000000.0 0.040244842617 0.13604556107 -0.61300031504 0.42508589328 -0.61056898966 0.42531011465 0.090789945938 0.08916701912
11521370000.0 0.048579221773 0.13312468954 -0.56971828068 0.48440288439 -0.56743940511 0.48473846886 0.096569100685 0.078963442744
11521740000.0 0.055905021584 0.12849888822 -0.52099662056 0.539086783 -0.51885116985 0.53936651364 0.10022885907 0.067497004124
11522110000.0 0.061942421681 0.12248041263 -0.46732406876 0.58849338614 -0.46520023661 0.58902664167 0.10147959549 0.05503799963
11522480000.0 0.066472462664 0.11538093916 -0.40929889141 0.63230950767 -0.40704120033 0.63314129099 0.10028622901 0.042230033484
11522850000.0 0.069365831146 0.1075296208 -0.34739826944 0.6703289852 -0.34490558978 0.67129084662 0.096559781006 0.029512773498
11523220000.0 0.070543212778 0.099304353085 -0.28215665824 0.70219580798 -0.27930319233 0.70320278949 0.090421245617 0.017277276568
11523590000.0 0.070060760308 0.091026925 -0.21426522593 0.7275362736 -0.2108969806 0.72845430619 0.082077581766 0.0061603124743
11523960000.0 0.067964473204 0.083052491541 -0.14439536613 0.74620120564 -0.14042784935 0.74681708432 0.071680139878 -0.0035786554789
11524330000.0 0.064409911007 0.075663660767 -0.07307768847 0.75793990307 -0.068498520193 0.7582139357 0.05968216358 -0.011442458882
11524700000.0 0.059586855934 0.069169632962 -0.0010583364584 0.76277442247 0.0040955000108 0.76242634436 0.046395653569 -0.017292807963
11525070000.0 0.053736281565 0.063753604944 0.071208333271 0.76069879111 0.076684614475 0.75948836737 0.032314203387 -0.020814782973
11525440000.0 0.047132250648 0.05958112481 0.14274810579 0.75163392301 0.14849398765 0.74946209177 0.017916861308 -0.022031141362
11525810000.0 0.040092075312 0.056779154985 0.21297143561 0.73575229016 0.2187834307 0.73249172247 0.0036233060704 -0.020851950556
11526180000.0 0.032916996289 0.055331768193 0.28121989109 0.71320426685 0.28680221711 0.70884464936 -0.010095790229 -0.017394331273
11526550000.0 0.025929891991 0.055255496522 0.34706776765 0.68431146157 0.35212337148 0.67886570329 -0.022744384744 -0.011830020253
11526920000.0 0.019391786335 0.056416680812 0.40966719706 0.64930113994 0.41399319461 0.64291498291 -0.034038406266 -0.004505888611
11527290000.0 0.013584434002 0.058672072837 0.46851558107 0.60863155309 0.47189396647 0.60146893554 -0.043648121132 0.0043772078401
11527660000.0 0.0086998740086 0.061794255327 0.52320843656 0.56263688463 0.52547000799 0.55486031847 -0.05140988421 0.014371407102
11528030000.0 0.0048847081875 0.065584721398 0.57325957194 0.51182497359 0.57423557412 0.50366244959 -0.057109902865 0.025108805938
11528400000.0 0.0022689077133 0.06976421182 0.61816318456 0.45670563248 0.61782888033 0.44839665894 -0.06070380892 0.03621299196
11528770000.0 0.00086170281679 0.074059061094 0.65776516434 0.39773037401 0.65605760793 0.3895399619 -0.062129351312 0.047248825471
11529140000.0 0.00070237022437 0.078174322626 0.69166458492 0.33538628063 0.6886220018 0.32769882137 -0.061604830228 0.057779981173
11529510000.0 0.0016291246175 0.081880050137 0.71965790379 0.27022922758 0.71554047653 0.26323549218 -0.059206997428 0.067580697788
11529880000.0 0.0036216508076 0.084930287985 0.74153922575 0.20299202433 0.73650195848 0.19670406479 -0.055154933728 0.076211144491
11530250000.0 0.0064045759375 0.087159064736 0.7571751189 0.13400287558 0.75132874671 0.12875885818 -0.049737834724 0.083470437977
11530620000.0 0.0098384246672 0.088372577536 0.76636801595 0.063848280919 0.76000516737 0.059731542346 -0.043244853665 0.089186225674
11530990000.0 0.013698971133 0.088466070285 0.76918871746 -0.006722991116 0.76252795266 -0.0099077807113 -0.036007298658 0.093227812975
11531360000.0 0.017710084841 0.087442025148 0.76546145598 -0.077370661484 0.75877704175 -0.07953154237 -0.028409566371 0.095436735873
11531730000.0 0.021619569509 0.085214957631 0.75537711119 -0.14744405195 0.74875726677 -0.14861102584 -0.020740471032 0.095895729025
11532100000.0 0.025252133645 0.081879098595 0.73883615373 -0.2164520471 0.73250408116 -0.2168170942 -0.013356721668 0.094606672105
11532470000.0 0.02834115521 0.077512793223 0.71601374789 -0.28375011414 0.7100699907 -0.28330673804 -0.0065820069183 0.091779036269
11532840000.0 0.03069141202 0.072232342319 0.68702780335 -0.34865697908 0.6815507067 -0.34787272883 -0.00064084896265 0.087534545978
11533210000.0 0.03213511635 0.066219544265 0.65209166259 -0.41077644938 0.64718949174 -0.40972422632 0.0041317454708 0.082064225199
11533580000.0 0.032555020635 0.059665326688 0.61148961282 -0.46965809893 0.60710840064 -0.46822790772 0.0075581472382 0.075688652776
11533950000.0 0.031850939987 0.052789977275 0.5654963409 -0.52444722964 0.56159932063 -0.52292968534 0.0096029290703 0.068702629322
11534320000.0 0.030004483429 0.045807226748 0.5145299561 -0.5748464478 0.51091488519 -0.57327397735 0.010077862235 0.061432790412
11534690000.0 0.02700142369 0.038955168005 0.45894839735 -0.6203682815 0.4554931965 -0.61886585064 0.0090609693405 0.054171358356
11535060000.0 0.022910883695 0.032483527904 0.39922707277 -0.66045673189 0.39588438944 -0.65905154379 0.0065935479971 0.04729244168
11535430000.0 0.017764648587 0.026530833333 0.33608077654 -0.6947901298 0.33256279083 -0.69350234977 0.0027830764652 0.041065507528
11535800000.0 0.011774389922 0.021335207756 0.26978202348 -0.72304223222 0.2661886076 -0.72169892208 -0.0021447876217 0.035728203801
11536170000.0 0.0050516793566 0.017036336378 0.20107741419 -0.7450022096 0.19728023312 -0.74342430602 -0.0079114158332 0.03151512989
11536540000.0 -0.0022251890784 0.013781629459 0.13056332261 -0.76040315077 0.12669195495 -0.75846742772 -0.014349090741 0.028576609941
11536910000.0 -0.0098072663272 0.011613400834 0.058933287698 -0.76907759683 0.054937993297 -0.76672464837 -0.021108924384 0.027020400643
11537280000.0 -0.017521009637 0.010592834024 -0.013109671461 -0.77089368956 -0.017189000258 -0.76808398345 -0.027829463027 0.026885096929
11537650000.0 -0.025071359128 0.010722271096 -0.085006918527 -0.76608759856 -0.088938792808 -0.76258168034 -0.034279774328 0.028069285872
11538020000.0 -0.032300057559 0.011928523795 -0.1560165369 -0.75452028932 -0.15980891607 -0.75030788893 -0.040079616389 0.030527908965
