! Created with skrf 1.8.0 (http://scikit-rf.org).
# Hz S RI R 50.0 
!freq ReS11 ImS11 ReS21 ImS21 ReS12 ImS12 ReS22 ImS22
11484000000.0 0.36756945195 0.87208994799 0.00085042238475 -0.00038854540105 0.00084397194334 -0.00036649777242 0.35261847026 0.88279177816
11484370000.0 0.37711263497 0.86776114655 0.00084959358961 -0.00039713589759 0.00084393459652 -0.00037570021112 0.36249229106 0.87825923939
11484740000.0 0.38674117577 0.86313500793 0.00085023766574 -0.00040674116446 0.00084420189032 -0.00038510028043 0.37251543588 0.87357432211
11485110000.0 0.39647502346 0.85834426446 0.00084843804435 -0.00041484030548 0.00084275091571 -0.00039332100409 0.38261425092 0.86866341015
11485480000.0 0.40630037594 0.85323850751 0.00084594113708 -0.0004218419486 0.00084119871581 -0.00040002572305 0.39289967054 0.86361602828
11485850000.0 0.41627951362 0.84789727694 0.00084152353331 -0.00042917282393 0.00083686443342 -0.00040761987465 0.40328162713 0.85831449558
11486220000.0 0.42638707905 0.8423384845 0.00083642354707 -0.00043500788777 0.00083164437787 -0.00041315253182 0.41383220953 0.85271802095
11486590000.0 0.4365670706 0.83649371122 0.00082886169788 -0.00043938844206 0.00082546064063 -0.00041874992506 0.42455036066 0.84699056019
11486960000.0 0.44687701561 0.8303674563 0.00082173200812 -0.00044375611396 0.00081755315143 -0.00042224886118 0.43534546294 0.84083011998
11487330000.0 0.45735338467 0.82397981177 0.0008104324741 -0.00044499374242 0.00080808605272 -0.00042509618284 0.4462499339 0.83443744086
11487700000.0 0.46789313724 0.81729315244 0.00079850933898 -0.00044570075232 0.00079642206844 -0.00042569457762 0.45731447307 0.82772143939
11488070000.0 0.47860897143 0.81030001012 0.00078476657751 -0.00044648082767 0.00078381198603 -0.00042458890488 0.46847318249 0.8207513276
11488440000.0 0.48943954284 0.80294571396 0.00077042603731 -0.00044185919229 0.0007682422108 -0.00042247011919 0.47986366391 0.81344414055
11488810000.0 0.50037746436 0.79528196266 0.00075166563414 -0.00043828826924 0.00075154793888 -0.00041857979773 0.4913902848 0.80573611497
11489180000.0 0.51147171383 0.78729318178 0.00073391591669 -0.00042839519447 0.00073267892656 -0.00041088742649 0.50299726382 0.79773263667
11489550000.0 0.5226805623 0.77895611872 0.0007108748039 -0.00041783029157 0.00071098436548 -0.00040047419296 0.5147783505 0.78932215696
11489920000.0 0.53401264857 0.77019127295 0.00068643494871 -0.00040226587855 0.00068611148658 -0.00038532924032 0.52667607024 0.78052716817
11490290000.0 0.54549557465 0.76105932262 0.00065884001837 -0.00038563153678 0.00065890841971 -0.00036923228954 0.53870460655 0.77130334219
11490660000.0 0.55702504044 0.7514935212 0.00062996888569 -0.0003625234918 0.00062979549795 -0.00034754024294 0.55084937509 0.76167973993
11491030000.0 0.56864706093 0.74147967999 0.00059769857331 -0.00033549892792 0.00059772529702 -0.00032087548868 0.56313898904 0.7515803675
11491400000.0 0.58045404993 0.73101344007 0.00056279920346 -0.00030198072717 0.00056441807635 -0.00028976580299 0.57552610986 0.741056297
11491770000.0 0.59233796627 0.72010341289 0.00052498445429 -0.000263843592 0.00052596392142 -0.00024998126981 0.58806353284 0.72995522937
11492140000.0 0.60432793772 0.70859287083 0.00048548996195 -0.00021714402399 0.00048536169128 -0.00020850044428 0.60075052736 0.71830866508
11492510000.0 0.61640461307 0.69655609106 0.00044270081 -0.00016606111145 0.00044001674691 -0.00015624806428 0.61348202535 0.70604349257
11492880000.0 0.62850013664 0.68396893837 0.00039645408793 -0.00010571723959 0.00039595054831 -9.5995231823e-05 0.62628087286 0.69329023976
11493250000.0 0.64067733877 0.67080827457 0.00034929361295 -3.5444714936e-05 0.0003468773026 -2.9017779929e-05 0.63924691205 0.67987248993
11493620000.0 0.6529204737 0.65697178659 0.00029694978301 4.4227741282e-05 0.00029456817811 4.8485034463e-05 0.65220749789 0.66574655782
11493990000.0 0.66524732518 0.64245884663 0.00024387185767 0.00013439964974 0.00023844054354 0.00013765601529 0.66524056124 0.65091132635
11494360000.0 0.67756418191 0.62720422838 0.0001891052546 0.0002354258016 0.00018257283729 0.00023831690831 0.67825541992 0.63534625858
11494730000.0 0.68984511093 0.61118908704 0.00013166956343 0.00035209619806 0.00012378197186 0.00035142138156 0.69134143888 0.61893856839
11495100000.0 0.70211799969 0.59443727129 7.4338623445e-05 0.00047909904466 6.3960129321e-05 0.00047811320112 0.70439832757 0.6017340716
11495470000.0 0.71436087997 0.5767901965 1.590043575e-05 0.00062312363382 1.5248694611e-06 0.00062022529003 0.71737989807 0.58361290613
11495840000.0 0.72649901637 0.55826131635 -4.2271515685e-05 0.00078373760735 -5.9393402005e-05 0.00077800725098 0.73028057063 0.56452316763
11496210000.0 0.73849574387 0.53874854843 -0.00010100372777 0.00095895855166 -0.00012093923867 0.00095429122263 0.74312104094 0.54448999463
11496580000.0 0.7503917101 0.51821041896 -0.00015659632209 0.0011533457286 -0.00018046156552 0.0011477504249 0.75578312076 0.52330651177
11496950000.0 0.76202994963 0.4966865387 -0.00021040965198 0.0013665227343 -0.00023923846791 0.0013593894651 0.76819704292 0.50102082956
11497320000.0 0.77343000362 0.47398169623 -0.00026195845694 0.0015984355074 -0.00029289839817 0.0015901189534 0.7803668574 0.47751188503
11497690000.0 0.78447824705 0.45010878047 -0.0003079316824 0.0018489394246 -0.00034377614719 0.0018417680728 0.79213861725 0.45269568839
11498060000.0 0.79511865595 0.42488212481 -0.000349362313 0.0021183492019 -0.00038870439812 0.0021113072974 0.80351793606 0.42649388074
11498430000.0 0.80526086348 0.39837134889 -0.00038221883977 0.0024068267701 -0.00042663140354 0.0023982585206 0.81436600117 0.39883613023
11498800000.0 0.81476339693 0.37044228143 -0.0004099731088 0.0027063238509 -0.00045753838401 0.0027025338112 0.82460471599 0.36960072479
11499170000.0 0.82362095144 0.34092828968 -0.00042890175477 0.0030205713313 -0.00048268769167 0.003019274122 0.83407459116 0.33877511042
11499540000.0 0.83164576977 0.30986199407 -0.00044457514518 0.0033420269588 -0.00050254280352 0.0033440577221 0.84260348204 0.30612029093
11499910000.0 0.83863479413 0.27703807733 -0.00045687675037 0.0036634192307 -0.0005205594983 0.0036682689192 0.85006373602 0.27165338912
11500280000.0 0.84437779319 0.24245764289 -0.00047497340738 0.0039748278175 -0.00054186355565 0.0039848138219 0.85609858516 0.23518196452
11500650000.0 0.84869723121 0.20600826248 -0.00050916626567 0.004265747849 -0.0005792687156 0.0042793434268 0.86061907377 0.19662534114
11501020000.0 0.85135437686 0.16755486161 -0.00057708939005 0.0045197465341 -0.00065019699102 0.0045384521335 0.86327792481 0.15590052415
11501390000.0 0.85198331262 0.12705643375 -0.00070571116728 0.0047174245539 -0.00077931893086 0.0047403812339 0.86356989158 0.11287305927
11501760000.0 0.85029881173 0.084427999599 -0.00093825374271 0.0048401033402 -0.0010130031178 0.0048653659007 0.86123429844 0.067509932036
11502130000.0 0.84580114808 0.039663176471 -0.0013355423185 0.0048630519436 -0.0014085792069 0.0048900213839 0.85570499286 0.019685140708
11502500000.0 0.83804035958 -0.0073271780649 -0.0019879456378 0.0047686690411 -0.0020632256271 0.0047917821435 0.84636346612 -0.030491896073
11502870000.0 0.82633858257 -0.056479171418 -0.0030293499642 0.0045441144925 -0.0031076165236 0.0045600215039 0.83241602851 -0.083017451649
11503240000.0 0.81000491575 -0.10759467117 -0.0046421943343 0.0041992957236 -0.0047317318418 0.0042047803776 0.81297633564 -0.13771849465
11503610000.0 0.78823954774 -0.16044058949 -0.0070944534398 0.0037952391422 -0.0072047502596 0.003784765339 0.78696788258 -0.1941788264
11503980000.0 0.75998822734 -0.21460844456 -0.010739646933 0.0034738737234 -0.010890335287 0.0034509622003 0.75321539922 -0.25176317449
11504350000.0 0.72413890283 -0.26930234925 -0.016055281943 0.0035406397011 -0.016270791131 0.003512579257 0.71018136387 -0.30939448048
11504720000.0 0.67930309809 -0.3234685181 -0.023628806549 0.0045722988354 -0.023940209788 0.0045705311822 0.65640908416 -0.36538496842
11505090000.0 0.62415285564 -0.37526235733 -0.034108464805 0.0076082737819 -0.034546379157 0.0076923695205 0.59023808995 -0.41727026441
11505460000.0 0.55747188077 -0.42202600085 -0.048027352675 0.014401212556 -0.048590764518 0.014664551732 0.5104025317 -0.46118688983
11505830000.0 0.47860075799 -0.459858174 -0.06519461981 0.027678461816 -0.065992437207 0.02836037494 0.41680281729 -0.49181658066
11506200000.0 0.38829197977 -0.48363380271 -0.084429673716 0.051336445073 -0.085125037134 0.052562039165 0.31170308111 -0.50232395918
11506570000.0 0.29020442038 -0.48727548586 -0.10120011882 0.089797397402 -0.1014495444 0.09162218427 0.20143581927 -0.48535847093
11506940000.0 0.19197683967 -0.46581811676 -0.10691679713 0.14588653874 -0.10625614327 0.14797020909 0.097927331435 -0.4361606294
11507310000.0 0.10524136525 -0.41887231984 -0.08914514355 0.21659129371 -0.087450622775 0.21836877328 0.017257909285 -0.35754503353
11507680000.0 0.041347936159 -0.35394492566 -0.036988666771 0.28941286079 -0.034700638458 0.29035470662 -0.027173903719 -0.26337792366
11508050000.0 0.0045416122452 -0.28486815523 0.05084211006 0.34486628656 0.05304222137 0.34490077524 -0.033400244468 -0.17447743353
11508420000.0 -0.010633874657 -0.22422765104 0.16241928824 0.36585175323 0.16432294618 0.36542157455 -0.013344715675 -0.10736562203
11508790000.0 -0.014648154621 -0.17683997314 0.27922106313 0.34614920034 0.2809428217 0.34557247441 0.015908384783 -0.066496631818
11509160000.0 -0.015821938521 -0.14036308662 0.38490141596 0.29013559072 0.3866663263 0.28930904973 0.041483005409 -0.046000651554
11509530000.0 -0.017516744045 -0.10994338505 0.46957935548 0.20714048063 0.47131585244 0.20578484783 0.058249501034 -0.036732301681
11509900000.0 -0.019389752865 -0.081901889285 0.52902232331 0.10684585135 0.53042899371 0.10493223287 0.066769812714 -0.031549307409
11510270000.0 -0.019677282196 -0.054679065327 0.56234989347 -0.0023035137019 0.56323405123 -0.0046815403809 0.070071489749 -0.026461413204
11510640000.0 -0.016811990667 -0.028604010541 0.5708067939 -0.11356115383 0.57100499532 -0.11618263385 0.070988689706 -0.020354805768
11511010000.0 -0.010196761016 -0.0049620150174 0.55663387825 -0.22171281875 0.55608717729 -0.22436730934 0.071669154098 -0.013613326397
11511380000.0 -0.00026427989454 0.014908033258 0.52255727368 -0.32287187386 0.52145887311 -0.32524356253 0.072899656545 -0.0072103154051
11511750000.0 0.011886089375 0.029957131182 0.47175503346 -0.41393330763 0.47022250834 -0.41603215354 0.07468007117 -0.0020510516916
11512120000.0 0.024774974382 0.039809854327 0.40724547195 -0.492965059 0.40544648828 -0.4946800485 0.07646211486 0.0012542983366
11512490000.0 0.036890641776 0.04467138593 0.33220904377 -0.55880186163 0.33011859445 -0.56020115751 0.077540230628 0.0027206622007
11512860000.0 0.046935639716 0.045246319835 0.24936734153 -0.61072076739 0.24706729345 -0.6118459141 0.077258005744 0.0026093761319
11513230000.0 0.053970290949 0.042557884769 0.16127111347 -0.64860568455 0.15873581641 -0.64943960709 0.075106199264 0.0015288894215
11513600000.0 0.057480141757 0.037858073639 0.070348151327 -0.67258475134 0.067456061133 -0.67319295494 0.070919133159 0.00023610797531
11513970000.0 0.057316841391 0.032333504738 -0.021598323404 -0.68318546988 -0.024739863087 -0.68342047929 0.064785012726 -0.0004778519113
11514340000.0 0.053744841462 0.027131292414 -0.11258179158 -0.68095876022 -0.11597790783 -0.68063897356 0.057025688977 6.7523492703e-06
11514710000.0 0.047245556345 0.023231898827 -0.20108269552 -0.66661472568 -0.20467777326 -0.66563706745 0.048193482436 0.0021913499727
11515080000.0 0.038558547026 0.021323060564 -0.28578397341 -0.64112100278 -0.28928420346 -0.63938024534 0.039013471236 0.006440198718
11515450000.0 0.028488177595 0.021881951296 -0.36537440464 -0.60533562026 -0.36857436517 -0.60279097953 0.030086743094 0.012777614884
11515820000.0 0.017891854731 0.025111048268 -0.43876655583 -0.56038777717 -0.44153120402 -0.55709393411 0.022175144261 0.021129517875
11516190000.0 0.0076276655344 0.030941093341 -0.50503597954 -0.50732156841 -0.50721056362 -0.50334071923 0.015847199602 0.031054701356
11516560000.0 -0.0015918829775 0.039106484266 -0.56368228689 -0.44733658092 -0.56502362086 -0.44291538312 0.011573542855 0.042277408874
11516930000.0 -0.0091492298481 0.04922090031 -0.61396705451 -0.38164544846 -0.61449100812 -0.37694072938 0.0096304460616 0.054010226425
11517300000.0 -0.014579738787 0.060682340357 -0.65567248822 -0.31149891466 -0.65530662636 -0.3066251324 0.010196716331 0.065781594147
11517670000.0 -0.017633611496 0.072907528109 -0.68867140817 -0.23779361918 -0.68737104107 -0.23310881127 0.013238790018 0.076950109057
11518040000.0 -0.018230651016 0.08528722422 -0.71271754014 -0.16183802818 -0.71072608226 -0.15760277859 0.018582816651 0.086912984327
11518410000.0 -0.016397371829 0.097191778917 -0.72823001512 -0.084663339675 -0.72551869851 -0.08087633983 0.025831218209 0.095209333534
11518780000.0 -0.012416757338 0.10816671519 -0.73505678194 -0.0071361536153 -0.73199562416 -0.0039642547744 0.034703368513 0.10139701753
11519150000.0 -0.0065387890446 0.11770930634 -0.73365925043 0.069873859552 -0.73035407209 0.072405197086 0.044576946141 0.10516982058
11519520000.0 0.00087422927037 0.12547070869 -0.72433394789 0.14553855989 -0.72093996952 0.14750254094 0.055038059733 0.10642590913
11519890000.0 0.0093779469225 0.13127726172 -0.70743141266 0.21916820481 -0.70412535503 0.22056069823 0.065473489434 0.10506189971
11520260000.0 0.018480258304 0.13493054282 -0.68337736839 0.29013900615 -0.68020230402 0.29111256496 0.0753756035 0.10117291545
11520630000.0 0.027784536788 0.13645414458 -0.652505178 0.35780349919 -0.64954330923 0.35859090081 0.084341862291 0.094879048596
11521000000.0 0.036828361531 0.13589289786 -0.61525614973 0.421673132 -0.61256776508 0.42232422284 0.091782461201 0.086530111588
11521370000.0 0.04521860015 0.13339816615 -0.57217530027 0.48123561861 -0.56967244189 0.48200326647 0.097423737577 0.076376373636
11521740000.0 0.052657875938 0.12921973075 -0.52369226862 0.53620223437 -0.52126924382 0.53698206789 0.10086925458 0.064923818792
11522110000.0 0.058843180433 0.12360197836 -0.47026582633 0.585940517 -0.46781580819 0.58689522132 0.10198720239 0.052494376993
11522480000.0 0.063563595134 0.1168550101 -0.41240633363 0.63017286811 -0.40987139504 0.63122697277 0.10060010718 0.039672515995
11522850000.0 0.066695295294 0.109310616 -0.35065948989 0.66841054114 -0.3478415431 0.66963160555 0.09671375961 0.026928624227
11523220000.0 0.068154226416 0.10136090896 -0.28561723733 0.70058399519 -0.28234036199 0.70185884737 0.090454838912 0.014736039315
11523590000.0 0.067943154691 0.093339800416 -0.21786378475 0.7262623165 -0.21401151103 0.7274395242 0.081884755967 0.0036182036208
11523960000.0 0.066151170029 0.085568922213 -0.14798754689 0.74526485048 -0.14357096089 0.74610251379 0.071358525567 -0.0061022645965
11524330000.0 0.062892370941 0.078358398062 -0.07677066182 0.75740314672 -0.071736699242 0.75780229845 0.059158050169 -0.014008211804
11524700000.0 0.058386420242 0.071957726015 -0.0048093435291 0.76264034331 0.00083648048824 0.76231116528 0.045707599149 -0.01980204334
11525070000.0 0.052845186483 0.066615286416 0.067494778175 0.76084363963 0.073368023651 0.7596448648 0.031462928526 -0.023275939935
11525440000.0 0.046548004244 0.062506833748 0.13908318631 0.75222195206 0.14516124294 0.74992414734 0.0168061919 -0.024486178768
11525810000.0 0.03983038384 0.059697493012 0.20940867487 0.73663992903 0.21554246294 0.73326693862 0.0023551926394 -0.023198063159
11526180000.0 0.032953045691 0.058220178593 0.27785421765 0.71444434247 0.2837530658 0.70987068989 -0.011574748059 -0.019725793669
11526550000.0 0.026236862632 0.058098666223 0.34375172865 0.68588968331 0.34912571416 0.68015499892 -0.024439607919 -0.014050415014
11526920000.0 0.01995798833 0.059177592233 0.40654256023 0.65119073266 0.41108171694 0.64447275301 -0.035948548729 -0.0065870755495
11527290000.0 0.014405160605 0.061329240648 0.46558793365 0.61076651623 0.46916797308 0.60321576758 -0.045743911998 0.002416094508
11527660000.0 0.0097412910538 0.064351332964 0.52044673544 0.56508555143 0.52289633482 0.55682159912 -0.053718894433 0.012561573068
11528030000.0 0.0061209080721 0.068017285447 0.57073153773 0.51453080426 0.57179587372 0.505850664 -0.059592853129 0.023531178537
11528400000.0 0.0037167404683 0.072044077631 0.6159096987 0.45967798976 0.61568862759 0.45077217623 -0.063311431873 0.034816914212
11528770000.0 0.002483484726 0.076186051423 0.65578711902 0.40086042216 0.65411460041 0.39207819817 -0.064944571015 0.046101354538
11529140000.0 0.0024941624101 0.080157796541 0.69006929261 0.33868131204 0.68694177889 0.33039396837 -0.064505556937 0.056897136984
11529510000.0 0.0035568389947 0.083685585721 0.71837203537 0.27367479491 0.71411330527 0.26607285718 -0.062213937863 0.066939244246
11529880000.0 0.0056849596867 0.086551501257 0.74054451402 0.20650347366 0.73528453198 0.19967447374 -0.058271034819 0.075870125605
11530250000.0 0.0086086860231 0.088589882596 0.75646999008 0.13760760476 0.75038872761 0.13178275925 -0.052896030265 0.083464379941
11530620000.0 0.012156917577 0.089601104468 0.76596457927 0.067575803131 0.75936918168 0.062847156571 -0.04641527257 0.089487064158
11530990000.0 0.01609460735 0.089518361967 0.76909827837 -0.0030523983846 0.76217525505 -0.0066732678376 -0.039152676468 0.09379495164
11531360000.0 0.020182821373 0.088260539349 0.76580049151 -0.073705032448 0.75874989421 -0.076274678794 -0.031504405586 0.096346221251
11531730000.0 0.02416114398 0.08581991697 0.75598235648 -0.14388285993 0.74900043154 -0.14536792056 -0.023772352046 0.09711571818
11532100000.0 0.027832739087 0.082246470859 0.73976981385 -0.21295569028 0.73306540318 -0.21356955442 -0.016267913101 0.09612704568
11532470000.0 0.030944297117 0.077635962376 0.71730875377 -0.28034435428 0.71097354675 -0.28009448785 -0.0093658709608 0.09356357606
11532840000.0 0.033300466043 0.072104859929 0.68868167381 -0.3454160813 0.68278912225 -0.34449774389 -0.0032768574584 0.089535895893
11533210000.0 0.03473284568 0.06581707954 0.65403014387 -0.40766598771 0.64877477508 -0.40648712362 0.001659684218 0.084346004358
11533580000.0 0.035091708812 0.059013240311 0.61374850922 -0.46659587506 0.60900822202 -0.46510448843 0.0053847488022 0.078182825283
11533950000.0 0.034314350172 0.051884309728 0.56804393662 -0.52164461812 0.56376692185 -0.52003791553 0.0076082971301 0.071396232102
11534320000.0 0.03236677113 0.044643640822 0.51729762338 -0.57229656071 0.51334233423 -0.57067303907 0.0083662649165 0.064257955254
11534690000.0 0.029251694695 0.037560711169 0.46191356104 -0.61813388058 0.45817086167 -0.61648205205 0.0076447284437 0.057187766554
11535060000.0 0.024989817384 0.03084354048 0.40235163276 -0.65857323064 0.39878967524 -0.65690818039 0.0054359103238 0.050384393733
11535430000.0 0.019693085066 0.024668196701 0.33929964527 -0.69321596657 0.33567671964 -0.69166667366 0.0019272584926 0.044218744892
11535800000.0 0.013476792494 0.019276042372 0.27314521272 -0.72182777321 0.26944423381 -0.72018847223 -0.0027164530034 0.038921296958
11536170000.0 0.0065042082741 0.014786446845 0.20457388476 -0.74409466741 0.20065511096 -0.74230120401 -0.0082083458219 0.03472793305
11536540000.0 -0.0010173231372 0.011353348627 0.13415195975 -0.75987426946 0.13015270929 -0.75764415334 -0.01435678061 0.031752888509
11536910000.0 -0.008888609113 0.0090595033333 0.062521491394 -0.76882741743 0.058497914344 -0.76622896276 -0.020887564986 0.030153345053
11537280000.0 -0.016878102588 0.0079376755282 -0.009548129984 -0.77103581536 -0.013646958687 -0.76796040029 -0.027357138953 0.029934949428
11537650000.0 -0.024753918556 0.0079859147908 -0.081384025963 -0.7665785105 -0.085478365519 -0.762791325 -0.033545012278 0.03106446362
11538020000.0 -0.032302107587 0.0091499306591 -0.15244172704 -0.75533274269 -0.15638461536 -0.75085145238 -0.039118526965 0.033416667747
