! Created with skrf 1.8.0 (http://scikit-rf.org).
# Hz S RI R 50.0 
!freq ReS11 ImS11 ReS21 ImS21 ReS12 ImS12 ReS22 ImS22
11484000000.0 0.36720100688 0.87226865844 0.00084733507699 -0.00039066880017 0.00084165556833 -0.0003658178426 0.35273353378 0.88273127342
11484370000.0 0.37675334507 0.86793789462 0.00084885762479 -0.00039771861338 0.00084143327878 -0.00037444656632 0.36260199225 0.87820099466
11484740000.0 0.38637178155 0.86332329899 0.00084933101905 -0.00040702361851 0.00084115717875 -0.00038301159412 0.37264461051 0.87348567775
11485110000.0 0.39612096516 0.85852269771 0.00084598850971 -0.00041452770721 0.00084094221587 -0.00039102173258 0.38272817589 0.86861427991
11485480000.0 0.40596457999 0.85347448483 0.00084322544568 -0.00042285698137 0.00083738490706 -0.00039850859555 0.39299584103 0.86354294686
11485850000.0 0.41592705478 0.84814843199 0.00083850015211 -0.00042835307249 0.00083354641958 -0.00040610606437 0.40340642545 0.85825949137
11486220000.0 0.42603190453 0.84257831376 0.00083302678075 -0.00043554287049 0.00082863142869 -0.00041121705549 0.41396327244 0.85267183184
11486590000.0 0.43620330536 0.83674236245 0.00082583749931 -0.00043929274561 0.00082158117884 -0.00041632843105 0.4246783715 0.8468737536
11486960000.0 0.44653233817 0.83060768611 0.00081795981888 -0.00044242703682 0.00081422026848 -0.00041919515327 0.43545622754 0.84075316016
11487330000.0 0.45699173331 0.82421347219 0.00080741606282 -0.0004456974224 0.00080498781487 -0.00042199543942 0.44636401436 0.83435619375
11487700000.0 0.46755391772 0.81752982573 0.00079587195717 -0.00044460594312 0.00079251036605 -0.00042297131364 0.45746051939 0.82764969235
11488070000.0 0.47828105423 0.81054343201 0.00078223314214 -0.00044323386275 0.00077951151049 -0.0004223628163 0.4686504793 0.8206119323
11488440000.0 0.48910070023 0.80322964534 0.00076656273396 -0.00044053987055 0.00076454365173 -0.00041872898996 0.48003868898 0.81336819551
11488810000.0 0.50006682284 0.79557635156 0.00074925981541 -0.00043413405263 0.00074660737394 -0.0004139075736 0.49154318709 0.80566039346
11489180000.0 0.51115841881 0.78758177021 0.00072902196696 -0.00042698766741 0.00072859776898 -0.00040604778751 0.50317578358 0.79764993755
11489550000.0 0.52236598331 0.77924202742 0.00070616851633 -0.00041480365383 0.00070626049941 -0.00039408937225 0.51492856834 0.78925480697
11489920000.0 0.53367625909 0.77048207176 0.00068205109441 -0.00039954011811 0.00068112736102 -0.00038185595603 0.52683731601 0.78045483268
11490290000.0 0.54516598037 0.76138181106 0.00065502569902 -0.00038042519256 0.0006535837192 -0.00036185150909 0.53881714952 0.77121055149
11490660000.0 0.55671500006 0.75179186359 0.0006250994115 -0.00035692576477 0.00062420986506 -0.00034165168575 0.55098801353 0.76156466016
11491030000.0 0.56837572102 0.74177770711 0.0005939146265 -0.0003290695696 0.00059233081541 -0.00031374520824 0.5632639135 0.75147128038
11491400000.0 0.58015661269 0.73132951282 0.000560051405 -0.00029651971238 0.00055813595641 -0.00028208157137 0.57569080744 0.74090622451
11491770000.0 0.59203163026 0.72044542421 0.00052120332297 -0.00025634881024 0.0005198604493 -0.000243790457 0.5882441242 0.72976482986
11492140000.0 0.60402496078 0.70897327549 0.00047818130293 -0.00021026260726 0.00047949687282 -0.00019879184518 0.60088329669 0.71809089648
11492510000.0 0.61612330007 0.69694461913 0.00043674308783 -0.00015703149737 0.00043415814082 -0.0001465407422 0.61366255156 0.70586380754
11492880000.0 0.62820221095 0.68433904287 0.00039103743778 -9.4067101244e-05 0.00038786102842 -8.6128088708e-05 0.62644612785 0.69308150948
11493250000.0 0.64040367475 0.67114612026 0.00034123192608 -2.4530901275e-05 0.00033805740694 -1.7260891788e-05 0.63937742156 0.67962596039
11493620000.0 0.65268158985 0.65731247638 0.00029019498418 5.690473532e-05 0.00028528415835 6.102051345e-05 0.65233057681 0.66543301387
11493990000.0 0.66498051902 0.64277210003 0.0002364003436 0.0001472654136 0.0002307521916 0.00015042794479 0.66532556651 0.65055331225
11494360000.0 0.67727697436 0.62753897888 0.00017987891155 0.00025049329517 0.00017442551222 0.00025266898967 0.67835856942 0.63501234018
11494730000.0 0.68961000385 0.61156259657 0.00012269475632 0.00036713940214 0.00011433067515 0.00036674748488 0.69140630197 0.6185607543
11495100000.0 0.70189258095 0.59481489873 6.3783158952e-05 0.00049633333198 5.3313355906e-05 0.0004979495013 0.70448562788 0.60127439503
11495470000.0 0.71414289111 0.5771644249 3.8621137745e-06 0.000642244688 -9.832416556e-06 0.00063973853408 0.71751455441 0.5831196298
11495840000.0 0.72625580379 0.55860956512 -5.5209788073e-05 0.00080369023674 -7.0941421349e-05 0.00080001621165 0.73042207925 0.56400476773
11496210000.0 0.73825056345 0.53912242756 -0.00011399523571 0.00098179637899 -0.00013257436678 0.00097710027729 0.74322470675 0.54384116599
11496580000.0 0.75010877906 0.51861796932 -0.00017080645284 0.001176553284 -0.00019280384564 0.0011726760773 0.75585990826 0.52262800691
11496950000.0 0.76175437323 0.49705408453 -0.0002261660644 0.0013933049355 -0.00025077481437 0.0013879049515 0.76823227336 0.50023283407
11497320000.0 0.7731430868 0.47438565984 -0.0002756314298 0.0016280302838 -0.00030448967118 0.0016195042043 0.78040942556 0.47660554637
11497690000.0 0.78420050617 0.45048682675 -0.00032122292735 0.0018825876552 -0.00035537855137 0.0018714724951 0.79221544718 0.45173452247
11498060000.0 0.79487320136 0.42524885349 -0.00036205866268 0.002154158295 -0.00039909218652 0.002142999743 0.80357438677 0.42541349629
11498430000.0 0.80501937262 0.39872807229 -0.0003956195008 0.0024414159956 -0.00043827466793 0.0024344873541 0.81438504679 0.39761654703
11498800000.0 0.81449711222 0.37079892595 -0.00042284228621 0.0027441363636 -0.0004709627465 0.0027400948506 0.82458425532 0.36829628403
11499170000.0 0.82335856537 0.34128239944 -0.00044409336661 0.0030569275882 -0.00049647156466 0.0030557527619 0.83400515468 0.33727602623
11499540000.0 0.83137619402 0.31017772509 -0.00045758350443 0.0033787942175 -0.00051572708775 0.0033791636727 0.84250609728 0.30445979997
11499910000.0 0.83835886703 0.27735743921 -0.00047314336253 0.003696808127 -0.00053615349518 0.0037017643799 0.84985106861 0.26974275911
11500280000.0 0.84411950253 0.24275848333 -0.0004947775607 0.0040061945 -0.00056171757608 0.0040159872221 0.85583918003 0.23304583023
11500650000.0 0.84843677151 0.20625354858 -0.00053294541098 0.0042946792827 -0.00060353867242 0.0043073204238 0.86022076087 0.19430389549
11501020000.0 0.85110146846 0.16777412665 -0.00060920106185 0.004540897503 -0.0006819235783 0.0045607315493 0.86267697993 0.15326876368
11501390000.0 0.85174011965 0.12724051527 -0.000752331091 0.0047318401994 -0.00082502141162 0.0047542293582 0.86275227055 0.10995236571
11501760000.0 0.85005480302 0.084564385337 -0.0010043194784 0.0048422779027 -0.001075944003 0.0048672265558 0.86007032376 0.064235078146
11502130000.0 0.84554299373 0.039754021356 -0.0014294936977 0.0048520143691 -0.0015015794405 0.0048760526178 0.8541082465 0.016003776591
11502500000.0 0.83774713292 -0.0072553261356 -0.0021259921987 0.0047402455356 -0.0021984103298 0.0047599160881 0.84419424169 -0.034563229294
11502870000.0 0.82603305767 -0.056446009765 -0.0032310497182 0.0044961310493 -0.0033086214835 0.0045093420278 0.82956667163 -0.087510967655
11503240000.0 0.80970181739 -0.10755709948 -0.0049401837851 0.0041347587097 -0.0050290655478 0.0041399407912 0.80924262889 -0.14254088888
11503610000.0 0.78789878085 -0.1604778614 -0.007531120226 0.0037239383369 -0.0076419869484 0.003715567292 0.78210453177 -0.19932550275
11503980000.0 0.75958681841 -0.21464300111 -0.01137795967 0.003424965923 -0.011529022962 0.003403091304 0.7469167461 -0.25711579331
11504350000.0 0.72361972144 -0.26937857903 -0.016971684314 0.0035693577076 -0.017190274863 0.0035470007823 0.70209075892 -0.31475634669
11504720000.0 0.6786662299 -0.32351424158 -0.024918129488 0.0047859919552 -0.025234120496 0.0048001445524 0.64607766956 -0.37039582084
11505090000.0 0.62337700836 -0.37518901147 -0.035876843906 0.0082009322705 -0.036310558617 0.0083131870205 0.577254144 -0.42127175695
11505460000.0 0.55655700823 -0.42171996302 -0.050333177814 0.015692447389 -0.050876283255 0.016014435204 0.49441660852 -0.46318559484
11505830000.0 0.47762588239 -0.4591848517 -0.067947104585 0.030180247722 -0.068695285514 0.030958602345 0.39782234589 -0.4903586907
11506200000.0 0.38749534773 -0.48238425555 -0.087219445374 0.055714345522 -0.087813930033 0.057013763451 0.29042423231 -0.49554661555
11506570000.0 0.29008501737 -0.4853774261 -0.1030564403 0.096671319097 -0.10310793709 0.09849091333 0.17979152359 -0.47148780064
11506940000.0 0.19326477483 -0.46355791399 -0.10611531209 0.15529202322 -0.10525812843 0.15720710142 0.07915681284 -0.41423000177
11507310000.0 0.10844845369 -0.4173318237 -0.083742209733 0.22717160455 -0.082007898417 0.22863089111 0.0053113917033 -0.32893756812
11507680000.0 0.046055244514 -0.35473552898 -0.026075595984 0.29847562259 -0.024035174438 0.29898987434 -0.029526892786 -0.23180335213
11508050000.0 0.0089914419323 -0.28908796659 0.065931043042 0.34934442762 0.067672876755 0.34913301609 -0.026454290097 -0.14469085553
11508420000.0 -0.0087440053065 -0.23133257374 0.17883407393 0.3642473907 0.18019905885 0.36384580534 0.0003100318046 -0.082509659182
11508790000.0 -0.016652546212 -0.18495770486 0.29414493878 0.33898789646 0.29546632291 0.33865716258 0.033049882145 -0.047447297239
11509160000.0 -0.021683522562 -0.14732855469 0.39661308226 0.27896489737 0.39821985012 0.27851929278 0.059773771853 -0.032011861009
11509530000.0 -0.026119363012 -0.11421926615 0.4775213727 0.19361422032 0.47927308547 0.19270079497 0.076541809189 -0.026716131073
11509900000.0 -0.029243605691 -0.082765488652 0.53313346425 0.092296805664 0.53486027155 0.090735259843 0.08464473916 -0.024551476234
11510270000.0 -0.029389857696 -0.052195761115 0.5630116466 -0.016872625399 0.56433292333 -0.019042107335 0.087414349999 -0.021870562594
11510640000.0 -0.025296968038 -0.02325117035 0.56847321496 -0.12743892365 0.56917548657 -0.13003536874 0.087771789668 -0.017746949876
11511010000.0 -0.016770312553 0.0025204984545 0.55180800245 -0.23452095475 0.55170169887 -0.23725189902 0.087890674251 -0.012794908252
11511380000.0 -0.0045321955917 0.023720689028 0.51569262284 -0.33412398255 0.5149602714 -0.33674031519 0.088488944337 -0.0080293167091
11511750000.0 0.0099747924444 0.039349314425 0.46331782497 -0.42347123564 0.46193714403 -0.42588746245 0.08953609886 -0.0043939744883
11512120000.0 0.025124486596 0.049158058302 0.39759190792 -0.50071272362 0.39583987265 -0.50280162756 0.09053254541 -0.0024379988382
11512490000.0 0.039222152874 0.053486195788 0.32171037366 -0.56471235587 0.31965563724 -0.56642459178 0.09071773106 -0.0021968933587
11512860000.0 0.050961418072 0.05314286784 0.23840176425 -0.61481422133 0.23596536472 -0.61626793877 0.089452438518 -0.003309028566
11513230000.0 0.059381618989 0.049312515075 0.15015159225 -0.65096135299 0.1474443923 -0.6521206785 0.086257109277 -0.0052443925919
11513600000.0 0.063923502886 0.043285755419 0.059316921762 -0.6733221178 0.056122545112 -0.67418812589 0.081072326436 -0.0072222694458
11513970000.0 0.06451006651 0.036381306557 -0.032422060927 -0.68244688932 -0.035880120124 -0.68281394149 0.073943284057 -0.008481103368
11514340000.0 0.061375196587 0.029765654829 -0.12303082345 -0.67891571975 -0.12675161325 -0.6786246469 0.065241235544 -0.0083773223591
11514710000.0 0.055065881738 0.024470452849 -0.2109484689 -0.6634574421 -0.21488815263 -0.66238083488 0.05554811908 -0.0064647382903
11515080000.0 0.046338438788 0.021239334893 -0.29496548181 -0.63688041864 -0.29886050774 -0.63496628351 0.045547555489 -0.0024016983517
11515450000.0 0.036013567164 0.020539582741 -0.37384417143 -0.60015345904 -0.37739878901 -0.59745746825 0.035918498246 0.0037529290006
11515820000.0 0.025020973563 0.022601346379 -0.44645544686 -0.55435178247 -0.44960511144 -0.5508819393 0.027293101832 0.011976591063
11516190000.0 0.014204896642 0.027389188583 -0.51187365491 -0.50055959051 -0.5144617846 -0.49637280297 0.020363989467 0.021797298045
11516560000.0 0.0043464974972 0.034640273444 -0.56973269092 -0.43992392097 -0.57139727316 -0.43524094685 0.015530300551 0.032885714939
11516930000.0 -0.0039642297658 0.043931321461 -0.61911579351 -0.37367634731 -0.6199566817 -0.36879930403 0.013044944189 0.044550153809
11517300000.0 -0.010251533645 0.054694032157 -0.65997202856 -0.30296079311 -0.65989504342 -0.29798062546 0.01309792794 0.056159007908
11517670000.0 -0.014215865695 0.066352879959 -0.6921301652 -0.22879455593 -0.69111113018 -0.22404152772 0.015616225635 0.067154857316
11518040000.0 -0.01578023676 0.078326817987 -0.71523258185 -0.15253196802 -0.71348773498 -0.14813374269 0.020386074931 0.076987636682
11518410000.0 -0.01494946759 0.0899419641 -0.72975461253 -0.075115929964 -0.72731565797 -0.071266329296 0.027087326646 0.085135255092
11518780000.0 -0.011986738213 0.10073613854 -0.73564504513 0.0026158462591 -0.73280282451 0.005836399036 0.035345295722 0.09112897826
11519150000.0 -0.0071114861616 0.11023913424 -0.73333602217 0.079707921216 -0.73017315382 0.082297513539 0.044639139352 0.094754417959
11519520000.0 -0.00070429593951 0.11810595815 -0.72298926504 0.15526005581 -0.71971113897 0.15736967045 0.054396771861 0.095837952497
11519890000.0 0.0068175739931 0.1240907065 -0.70505349178 0.22880609343 -0.70191441262 0.23036600157 0.064124858198 0.09438409799
11520260000.0 0.014956486029 0.12806474031 -0.67995731031 0.29957440726 -0.67692746942 0.30073662656 0.073283991985 0.090409811322
11520630000.0 0.023345454403 0.13003773889 -0.64814343437 0.3669824342 -0.64521900209 0.36799063575 0.081402928808 0.084123199329
11521000000.0 0.031537599045 0.13002257419 -0.60991419269 0.43046506304 -0.607223414 0.43127565798 0.087968019083 0.075810794685
11521370000.0 0.039142652871 0.12821704316 -0.56594937391 0.48954290005 -0.56331156841 0.49038038992 0.092733991953 0.065810315228
11521740000.0 0.045852213029 0.12479023692 -0.51657111194 0.54384478468 -0.51399645775 0.54479172285 0.095288996082 0.054583221147
11522110000.0 0.051431561611 0.12000714761 -0.46228619658 0.59282754777 -0.45966093342 0.59398041242 0.095505159012 0.042467588369
11522480000.0 0.055654663438 0.11419247823 -0.40372010685 0.63624340297 -0.40082861039 0.63752268 0.0931909115 0.030108863403
11522850000.0 0.058382586941 0.10768328012 -0.34130452322 0.67365615242 -0.33803303195 0.67501237593 0.088459063359 0.017899952686
11523220000.0 0.059574608126 0.10079442785 -0.27565434321 0.70480952865 -0.27191570217 0.70615801172 0.081341543624 0.0063676742185
11523590000.0 0.059249298201 0.09386641944 -0.20738247463 0.72949142553 -0.20308021818 0.73062727494 0.072059078741 -0.0040197601884
11523960000.0 0.057498033462 0.087198906472 -0.13722023612 0.74743309012 -0.13225528894 0.74808354622 0.060804765765 -0.012872974125
11524330000.0 0.054399219308 0.08111884803 -0.065764689029 0.75835854819 -0.060238270876 0.75855060321 0.048003931427 -0.01982769545
11524700000.0 0.050194801212 0.075843695068 0.0062719342777 0.76237613013 0.012422272884 0.76180330895 0.034100527956 -0.024649671953
11525070000.0 0.045146338024 0.07156064608 0.078497814093 0.75937777925 0.084912483739 0.75788498001 0.019434534108 -0.027102226175
11525440000.0 0.039468678647 0.068473868688 0.14996074314 0.74960686721 0.15645289151 0.74691013074 0.0045998820918 -0.027234322748
11525810000.0 0.033494716119 0.066598266885 0.21997343747 0.73291175193 0.22645980394 0.72908731034 -0.010040826392 -0.024892250834
11526180000.0 0.027499189267 0.065957559486 0.28793380573 0.70961475328 0.29413356228 0.70456484898 -0.023952760789 -0.020348223386
11526550000.0 0.021760077612 0.066538937525 0.35325893401 0.6800270924 0.35884253609 0.67381142063 -0.036667756756 -0.013675037713
11526920000.0 0.016593393491 0.068190984419 0.41538491854 0.64441590642 0.42008764801 0.63716883038 -0.047980067496 -0.0052038128804
11527290000.0 0.01221520664 0.070780130171 0.47374003542 0.60317915491 0.4772963169 0.59507970636 -0.057513146792 0.0047482799247
11527660000.0 0.0087819574349 0.074067221863 0.52778793628 0.55669699748 0.53003155288 0.5479769548 -0.065069941414 0.015776556045
11528030000.0 0.0064118688802 0.0778268626 0.57721986473 0.50544269753 0.57805682017 0.49637751971 -0.070534526224 0.027497054298
11528400000.0 0.0052559885045 0.081801088612 0.62141809066 0.44997978059 0.62090125992 0.44081749571 -0.073803750395 0.039517912653
11528770000.0 0.0052647096744 0.085701908313 0.66034217094 0.39070286658 0.65830158227 0.38174537166 -0.074891958262 0.051440721156
11529140000.0 0.0064825012963 0.089281691387 0.69357784015 0.32821271465 0.69009238442 0.31977543959 -0.07393811613 0.062838673731
11529510000.0 0.0087055581238 0.092262584571 0.72088927879 0.26296409618 0.71616299345 0.2552611802 -0.071097109788 0.073378496534
11529880000.0 0.011891012539 0.09442123046 0.7419918486 0.19563475235 0.73632558335 0.18882957481 -0.066556236086 0.082764768439
11530250000.0 0.015779135831 0.09562934965 0.75701924757 0.12665266713 0.75044712519 0.12097128537 -0.06069504894 0.090707830676
11530620000.0 0.02017476169 0.095701377803 0.76549936861 0.056581273665 0.75845011234 0.052098946908 -0.053661549729 0.097126064009
11530990000.0 0.024837069064 0.094567900084 0.7676539896 -0.013959537554 0.76027782014 -0.017263501296 -0.045920056821 0.10175265863
11531360000.0 0.02950861741 0.092202603714 0.76334951646 -0.084403331376 0.75589270435 -0.086617365945 -0.037749203386 0.10458169368
11531730000.0 0.033920634348 0.088576212837 0.75267028491 -0.15429734359 0.74526500526 -0.15539783342 -0.029534064424 0.10558378044
11532100000.0 0.037867933823 0.083774075704 0.73557640501 -0.22301713169 0.72848036399 -0.22323351721 -0.021541512666 0.10485943657
11532470000.0 0.041092129509 0.07791394342 0.71222028006 -0.29002861687 0.70550879844 -0.28933964251 -0.014125338325 0.10256010277
11532840000.0 0.043415339391 0.071120031063 0.68274911621 -0.3545633183 0.67661257797 -0.35332471462 -0.0075720362667 0.098790353786
11533210000.0 0.04466278161 0.063637958724 0.64729900464 -0.41634932978 0.64182750856 -0.41468778625 -0.0021244144308 0.093794113781
11533580000.0 0.044700689206 0.055638717816 0.60622538529 -0.47477763618 0.60136110734 -0.47274469228 0.0020422312961 0.0878832936
11533950000.0 0.043460107749 0.047355677421 0.55976833109 -0.52915256691 0.55551784807 -0.52690791305 0.0047785767419 0.081334572471
11534320000.0 0.040900410523 0.039062010597 0.50835095881 -0.57908480328 0.50449970936 -0.57676518739 0.0060921469237 0.0744120169
11534690000.0 0.037039346859 0.030991807565 0.45237058491 -0.62404254219 0.44878060596 -0.62182635555 0.0059145019882 0.0675530839
11535060000.0 0.031930777318 0.023385510255 0.39236069646 -0.66355207861 0.38893182553 -0.66147514916 0.0042840401811 0.060970421143
11535430000.0 0.025686827905 0.016463216511 0.32883141804 -0.69721716587 0.32547686317 -0.69527312147 0.0014382127106 0.054956440235
11535800000.0 0.018438371244 0.010435838926 0.26230053691 -0.72490525842 0.25891351579 -0.72287628138 -0.0025541255695 0.049806399756
11536170000.0 0.010403166035 0.0054601633149 0.19337246427 -0.74621017419 0.18991365494 -0.74401813765 -0.007339028387 0.045733448627
11536540000.0 0.0017488963264 0.0016683880816 0.12275746361 -0.76086846205 0.11929059912 -0.75842964355 -0.01277447436 0.042839166656
11536910000.0 -0.007268190233 -0.00085427723495 0.051080117545 -0.76878417327 0.047531266049 -0.76603185485 -0.018487960209 0.041273187854
11537280000.0 -0.016401080574 -0.0020631461819 -0.020991661277 -0.76993538869 -0.024532821604 -0.76678033868 -0.024176127167 0.041040239742
11537650000.0 -0.025413499359 -0.0019650863107 -0.0927078741 -0.76432166838 -0.096292814644 -0.76066322023 -0.029532126203 0.042041881445
11538020000.0 -0.034069419881 -0.00062815755983 -0.16358470296 -0.75203618418 -0.16700637415 -0.74781030649 -0.034286657072 0.04424854434
