! Created with skrf 1.8.0 (http://scikit-rf.org).
# Hz S RI R 50.0 
!freq ReS11 ImS11 ReS21 ImS21 ReS12 ImS12 ReS22 ImS22
11484000000.0 0.36670442283 0.87247971201 0.00084402126026 -0.00038715259195 0.00083883860388 -0.00036446562556 0.352568075 0.88279894302
11484370000.0 0.37625832929 0.86817826178 0.00084354343607 -0.00039647709875 0.00083863094418 -0.00037171968147 0.36241952087 0.87826220377
11484740000.0 0.38588333603 0.86353969012 0.00084435350825 -0.00040577776183 0.00083930071461 -0.00038001525636 0.37243163539 0.87357052116
11485110000.0 0.39562201457 0.85875149078 0.00084237499715 -0.00041367607944 0.00083605742894 -0.0003890613003 0.38259527996 0.86863561424
11485480000.0 0.40547879306 0.85368472927 0.00083769619379 -0.00042017380328 0.00083348858581 -0.00039517007661 0.39287905749 0.86357425296
11485850000.0 0.41549032742 0.84834843667 0.00083469314346 -0.0004272074719 0.00082977481098 -0.00040192326972 0.40330222694 0.85828084518
11486220000.0 0.42557019591 0.84280444682 0.00082763817455 -0.00043212302855 0.00082366357279 -0.00040687657264 0.41386312744 0.8526901559
11486590000.0 0.435764522 0.836968856 0.00081977375593 -0.00043824316364 0.00081716852242 -0.00041123185382 0.42456659742 0.8468624828
11486960000.0 0.44608031643 0.83087253595 0.00081280067476 -0.00044128167349 0.0008104240216 -0.00041570072447 0.43544148917 0.84075230575
11487330000.0 0.45654547736 0.82448452319 0.0008023166294 -0.00044262256123 0.00080001221579 -0.00041674354569 0.44633382347 0.83438038651
11487700000.0 0.46711837076 0.81779592753 0.00078910533358 -0.00044310620983 0.00078804822748 -0.00041827025787 0.45746788136 0.82760639521
11488070000.0 0.47783474046 0.81080369839 0.00077605845236 -0.00043981427102 0.00077387342969 -0.00041740484925 0.4687020859 0.82061704577
11488440000.0 0.48868908084 0.80353120862 0.00075882701634 -0.00043634627487 0.00075779101604 -0.00041385305918 0.48011686265 0.81328357511
11488810000.0 0.49965891997 0.79588336103 0.00074260414604 -0.00043043873931 0.00073948690285 -0.0004078379711 0.49162828474 0.80558620948
11489180000.0 0.5107744216 0.78786555703 0.00072254032195 -0.00042135517472 0.00072022156126 -0.00039870392301 0.50325284646 0.79760860035
11489550000.0 0.52198831597 0.77958641407 0.000699198002 -0.00040848490311 0.00069806094656 -0.00038809120602 0.51503884159 0.78920485082
11489920000.0 0.5333070234 0.77083553746 0.00067345128124 -0.00039342034038 0.00067254475755 -0.00037320830171 0.52695493813 0.78039705349
11490290000.0 0.54477743016 0.76171837837 0.00064867446782 -0.00037349239725 0.00064594315871 -0.00035386795377 0.53899094046 0.77116555645
11490660000.0 0.55635967926 0.75216000733 0.00061583574065 -0.00034943185928 0.00061628430997 -0.00033107753247 0.55115917241 0.76155108139
11491030000.0 0.56805445716 0.74214441019 0.00058265941496 -0.00031978591465 0.0005828242318 -0.00030103212354 0.56346442771 0.7514060222
11491400000.0 0.57984346598 0.73167703918 0.0005481972423 -0.00028508408068 0.0005457997184 -0.00027014092425 0.57587789115 0.74078630916
11491770000.0 0.59172400159 0.72079941216 0.00050863765044 -0.00024414519175 0.00050907959751 -0.00023000125786 0.58849881937 0.72965018119
11492140000.0 0.6037090448 0.7093119862 0.000468913786 -0.00019804536177 0.00046654467452 -0.00018612471477 0.60112266744 0.71792659382
11492510000.0 0.61576231492 0.6972777306 0.00042516804383 -0.00014217158705 0.00042222119899 -0.00013037315147 0.61385750712 0.70568611011
11492880000.0 0.62790285319 0.68469683091 0.00037874216178 -7.8004423475e-05 0.00037559238594 -6.9355641256e-05 0.62668683424 0.69285164765
11493250000.0 0.64011629812 0.67153996962 0.0003275534496 -7.3641145325e-06 0.00032427805623 1.3157008561e-06 0.63960529535 0.67933442288
11493620000.0 0.65240495951 0.6577462874 0.00027563561599 7.5312625986e-05 0.00027071557068 8.180730022e-05 0.65259534878 0.66514430263
11493990000.0 0.66469278628 0.64321517202 0.00022068527757 0.00017024402858 0.00021603062989 0.00017492700111 0.66563499375 0.65025323228
11494360000.0 0.67702704012 0.62791237777 0.00016524075698 0.00027598070246 0.00015885916837 0.00027708035819 0.67870889156 0.63462818729
11494730000.0 0.68933586461 0.61192310337 0.00010476558346 0.000393921348 9.8604851511e-05 0.00039488316834 0.69174801047 0.61815316978
11495100000.0 0.70166103247 0.59516490666 4.6335323121e-05 0.00052733068859 3.7354765476e-05 0.00052365668578 0.7048811531 0.6007756085
11495470000.0 0.71393078337 0.5774916665 -1.2595415295e-05 0.00067473721906 -2.604729018e-05 0.00067184485236 0.71790525752 0.58253714249
11495840000.0 0.72606976803 0.55898355647 -7.3845730449e-05 0.00083837732499 -8.8744355344e-05 0.00083359302218 0.7308253626 0.56333055223
11496210000.0 0.73812557319 0.53937752864 -0.00013219922364 0.0010204920958 -0.00015092899618 0.0010131741799 0.74365079681 0.54310275627
11496580000.0 0.7500428555 0.51883258476 -0.00018805311537 0.0012188363094 -0.00021009961192 0.0012125016268 0.75629644599 0.52178824605
11496950000.0 0.76173373174 0.49727162751 -0.0002433018016 0.001436001627 -0.00027063584079 0.0014279729574 0.76872214846 0.49929897266
11497320000.0 0.77311819493 0.47457651888 -0.00029297681567 0.0016710479126 -0.00032432027436 0.0016639567282 0.78088496169 0.4755505516
11497690000.0 0.78418809955 0.45066835132 -0.00033896870087 0.0019289266854 -0.00037570736767 0.0019195000614 0.79269186614 0.45050808706
11498060000.0 0.79487644312 0.42544942959 -0.00037910874047 0.00220145833 -0.00042204781373 0.0021951875364 0.80398388143 0.42403698809
11498430000.0 0.80503258613 0.39887985913 -0.00041369949937 0.0024937175813 -0.0004590495079 0.0024868551624 0.81482618235 0.39606908372
11498800000.0 0.81455922443 0.37091625992 -0.00044252656427 0.0027975807249 -0.00049304422117 0.0027923557947 0.82496591646 0.36651823701
11499170000.0 0.82343467318 0.34141181551 -0.0004649555297 0.0031148946827 -0.00051981105771 0.0031116167423 0.83435155404 0.33526504153
11499540000.0 0.83142342739 0.31029389435 -0.00048257684677 0.0034334112843 -0.00054144246643 0.0034350218686 0.84278334977 0.30219178958
11499910000.0 0.83840620643 0.27748307181 -0.0005014691 0.003752059145 -0.00056494970212 0.0037573671531 0.85001591804 0.26717256474
11500280000.0 0.84415043022 0.24283818729 -0.00052778258838 0.0040566509882 -0.00059586295715 0.0040653604372 0.85583238064 0.23012377431
11500650000.0 0.84850343425 0.20631771748 -0.00057659614182 0.004335263914 -0.00064583497603 0.0043510636494 0.8599516355 0.19093400185
11501020000.0 0.85114377121 0.16778561261 -0.00066498608331 0.0045709479098 -0.00073813395611 0.0045914737131 0.86211155661 0.14946384012
11501390000.0 0.85178818749 0.12720508825 -0.00082754097987 0.0047439066287 -0.00090317492076 0.0047676845199 0.86178399383 0.10557313361
11501760000.0 0.85006335261 0.084498799493 -0.0011121661592 0.0048340610981 -0.0011856074245 0.0048585133744 0.85863861134 0.059327619792
11502130000.0 0.84549246898 0.03963092655 -0.0015874305453 0.0048168178221 -0.0016606496675 0.0048407716472 0.85201726101 0.010532552461
11502500000.0 0.83766068161 -0.0074377248953 -0.0023558582942 0.0046708497381 -0.0024340784474 0.0046893953343 0.84124293131 -0.040719790515
11502870000.0 0.82590641789 -0.056684032741 -0.0035737365211 0.0043927540149 -0.0036561079751 0.0044036384971 0.82551287659 -0.09436559181
11503240000.0 0.80948248771 -0.1078794559 -0.005448438678 0.004001762773 -0.0055424745207 0.0039973930529 0.80371840381 -0.1501204805
11503610000.0 0.78757842679 -0.16080253195 -0.0082789847639 0.0035739503303 -0.0083989908835 0.0035549101676 0.77470158289 -0.20752008444
11503980000.0 0.75910977746 -0.21500001582 -0.012466781882 0.0033019498899 -0.012633289208 0.003271776151 0.73710423086 -0.26573330588
11504350000.0 0.72295949635 -0.26969317481 -0.018541934919 0.0035720022908 -0.018783595492 0.0035437793095 0.68921875073 -0.32344837422
11504720000.0 0.67781251786 -0.32373694708 -0.027142318652 0.0050993648136 -0.027485110289 0.0051191247438 0.62939208115 -0.3784667184
11505090000.0 0.62228423335 -0.37523215539 -0.038930252623 0.0091646297603 -0.03938732142 0.0093041196235 0.55601367803 -0.42759952605
11505460000.0 0.55518959184 -0.42134205634 -0.054312522095 0.017888895438 -0.05485685124 0.018254294087 0.46806042647 -0.46599149263
11505830000.0 0.47611647639 -0.45813117208 -0.072717266208 0.03445803642 -0.073400845929 0.035338168231 0.36641457826 -0.48712925873
11506200000.0 0.38627282978 -0.48028835075 -0.091986232806 0.0632512405 -0.09239927813 0.06464425491 0.25536231556 -0.48311113991
11506570000.0 0.28999293299 -0.48213627386 -0.10595686189 0.10843165028 -0.10574970315 0.1101972783 0.14463058044 -0.44679865528
11506940000.0 0.19553572455 -0.45985909336 -0.10419790692 0.17106209018 -0.10310139692 0.17269635476 0.049851854267 -0.3764150783
11507310000.0 0.11387433586 -0.41502791765 -0.074006450568 0.24441012848 -0.072273957179 0.24534506001 -0.011570764324 -0.28096997585
11507680000.0 0.053678322683 -0.35635529388 -0.0076282206434 0.31234307734 -0.0060003250231 0.31241597704 -0.030339316977 -0.18067231151
11508050000.0 0.015797379682 -0.2960651646 0.090449838817 0.35527916996 0.091464756927 0.35503229304 -0.012578408812 -0.097827725792
11508420000.0 -0.0061424454205 -0.24256012557 0.20465563938 0.36051765058 0.20533909528 0.36059275401 0.023861095205 -0.044511861131
11508790000.0 -0.020097809481 -0.19742915741 0.31715058847 0.32687658873 0.31800968363 0.3273214069 0.061106680726 -0.018835680243
11509160000.0 -0.030860749466 -0.15785254105 0.41446182549 0.26100924398 0.41588979828 0.26142999062 0.088918805521 -0.011338217507
11509530000.0 -0.039283182329 -0.1205623525 0.48943398544 0.17236283898 0.49139371764 0.17218742924 0.10520919221 -0.012010824845
11509900000.0 -0.044163690021 -0.083985387433 0.53936154495 0.069713156465 0.54144572091 0.068691268233 0.11232189028 -0.014281080304
11510270000.0 -0.043994964276 -0.048374154457 0.5641032184 -0.039426338335 0.56587718049 -0.041237861072 0.11406298211 -0.015071983415
11510640000.0 -0.038019064023 -0.015181921226 0.5650185425 -0.14890337938 0.566204929 -0.15140869866 0.11347840008 -0.01389637421
11511010000.0 -0.026575943096 0.013747239622 0.54446379587 -0.25423916214 0.54490063073 -0.25704581512 0.11265006244 -0.011590080802
11511380000.0 -0.010920268028 0.036925501886 0.50517516459 -0.35164156304 0.50491516735 -0.35447048468 0.11228348893 -0.0092246412521
11511750000.0 0.0071347977841 0.053453128432 0.45024770352 -0.43841693355 0.44934334101 -0.44116613747 0.1122402478 -0.0078168669483
11512120000.0 0.025631422257 0.063217700678 0.3826907529 -0.51287782054 0.38128639531 -0.51542191597 0.11196591913 -0.007862927533
11512490000.0 0.042734673832 0.066748323452 0.30560662424 -0.57398092363 0.30369352463 -0.57631935253 0.11075544861 -0.0094222795668
11512860000.0 0.057036246001 0.065076942424 0.22152370735 -0.62136570868 0.2192022777 -0.62333906306 0.10803370203 -0.012083774272
11513230000.0 0.067494719941 0.05952596462 0.13293092889 -0.65494213094 0.13020430122 -0.65652734223 0.10334358938 -0.015259873903
11513600000.0 0.073639219762 0.051561896872 0.042135062774 -0.67490715328 0.038871763075 -0.67608401185 0.096628775114 -0.018252128864
11513970000.0 0.075323560581 0.042589919788 -0.049228393341 -0.68176421815 -0.052793028561 -0.68236128217 0.088044937753 -0.020335109195
11514340000.0 0.072912639911 0.033882194195 -0.13927105502 -0.67620476829 -0.14312124118 -0.67603568282 0.07790683411 -0.020839597364
11514710000.0 0.066892392946 0.026505303184 -0.22643807293 -0.65876475419 -0.23043875601 -0.65783535942 0.066953682483 -0.019367900011
11515080000.0 0.058162633304 0.021270866643 -0.3095681352 -0.63053451444 -0.31344544063 -0.62870619589 0.055704617955 -0.015683117423
11515450000.0 0.047516355621 0.018668568939 -0.38732777853 -0.59230052206 -0.39097760697 -0.58958614488 0.04499464555 -0.0097446465981
11515820000.0 0.03596209073 0.018980642409 -0.45881972778 -0.54511620726 -0.46200274216 -0.54161602028 0.035374191085 -0.0017743202418
11516190000.0 0.024374076694 0.022148022913 -0.52307896623 -0.49011380512 -0.52565936169 -0.48592435631 0.027493997746 0.0078688527041
11516560000.0 0.013525453178 0.027943772096 -0.57968608736 -0.4284280543 -0.58132621227 -0.42376566884 0.021835535527 0.018750654355
11516930000.0 0.0040716919454 0.035997505461 -0.62783398421 -0.3612541635 -0.6286188433 -0.35634881972 0.018544279984 0.030211138308
11517300000.0 -0.0034684165014 0.045701110476 -0.66734739385 -0.2898191874 -0.66715858569 -0.28479016721 0.017782672977 0.041575222503
11517670000.0 -0.008784803601 0.056503874628 -0.69805038999 -0.21505321927 -0.69696775229 -0.21019481183 0.019508767804 0.052376243937
11518040000.0 -0.011802403478 0.067778952048 -0.7197663977 -0.13827699817 -0.71793540637 -0.13370048774 0.023496057212 0.061872592309
11518410000.0 -0.012461764481 0.078912617924 -0.7328167185 -0.060399903774 -0.73032474908 -0.056325024081 0.029371432171 0.069693108508
11518780000.0 -0.011043123029 0.089394061118 -0.73720193479 0.017640330441 -0.73432505615 0.021039009078 0.036684214477 0.075380595961
11519150000.0 -0.007720574009 0.09881669691 -0.73325134524 0.094895828498 -0.73020879495 0.09769526539 0.045004018446 0.078743526841
11519520000.0 -0.0028608903259 0.10676375985 -0.72136662262 0.17056834622 -0.71815788384 0.17283138781 0.053728243988 0.079578011565
11519890000.0 0.0031396583951 0.11304085554 -0.70191558954 0.24393912555 -0.69875707176 0.24575353165 0.062319974162 0.077912856221
11520260000.0 0.009804200646 0.11747810093 -0.67524882632 0.31439158126 -0.67218870467 0.31595014778 0.070307065074 0.073823689383
11520630000.0 0.016783483605 0.12009315452 -0.64180201184 0.3813867663 -0.63891451521 0.3827473553 0.077153828064 0.067511332884
11521000000.0 0.023620017337 0.1209129179 -0.6020436973 0.44422632295 -0.59929674371 0.44554557747 0.082405197286 0.05926270952
11521370000.0 0.030004619775 0.12008875246 -0.55660961466 0.50256793277 -0.55384543061 0.50393471307 0.085733888402 0.049440324727
11521740000.0 0.035600198189 0.1178033259 -0.50577436855 0.55599702394 -0.5030037212 0.55738967536 0.086862805755 0.038505124159
11522110000.0 0.040197363238 0.11432634418 -0.4501808921 0.6039622783 -0.44722437959 0.60548270957 0.085647834119 0.026923430469
11522480000.0 0.043603457355 0.10996089716 -0.3903683938 0.64611681112 -0.38708341637 0.64775119189 0.08194521289 0.015182035454
11522850000.0 0.045721306121 0.10496726506 -0.32688047322 0.68212698422 -0.32316874518 0.68379426012 0.075817057528 0.0038326853734
11523220000.0 0.046486023316 0.099711680832 -0.26025588659 0.71180950466 -0.25599508789 0.71338010686 0.067394685241 -0.006725066456
11523590000.0 0.045921471679 0.094466068681 -0.19128556465 0.73480816183 -0.18629998385 0.73608318181 0.056914065279 -0.015963498909
11523960000.0 0.044165440878 0.08955245458 -0.1204749432 0.75103688635 -0.11493524886 0.75167464346 0.044569773701 -0.023540356766
11524330000.0 0.041316020443 0.085194067893 -0.048608485294 0.7601885678 -0.04241072968 0.76015535803 0.030860932251 -0.029074824174
11524700000.0 0.03757629936 0.081653879728 0.023588098485 0.76245679771 0.030363880483 0.76140747817 0.016152770041 -0.032364491344
11525070000.0 0.033201898717 0.079033001223 0.095799152338 0.75764788648 0.10269735771 0.75551122192 0.00092268363395 -0.033249556842
11525440000.0 0.028465721725 0.077501870258 0.16697790564 0.7460113788 0.17395324082 0.74261788857 -0.014338302551 -0.031718783498
11525810000.0 0.023635026863 0.077089155101 0.23661108443 0.72756754469 0.24334524269 0.72285812621 -0.029161177044 -0.027748756242
11526180000.0 0.018979795384 0.077749269475 0.30395614003 0.70257337409 0.31015731291 0.69661889529 -0.043102722033 -0.02155469291
11526550000.0 0.014754287119 0.079452700849 0.36848651606 0.6713760127 0.37397114644 0.66417527798 -0.055704272714 -0.01332810359
11526920000.0 0.011249089679 0.082009875588 0.42965884484 0.63426311523 0.43402457938 0.62604670903 -0.066697422938 -0.0033295100195
11527290000.0 0.008654197979 0.085286744466 0.48690082941 0.59166987665 0.49000011769 0.58262627798 -0.075785806231 0.0080214783174
11527660000.0 0.0070742321893 0.089031276036 0.53965051125 0.54398149898 0.54143287873 0.53434361926 -0.082782335146 0.02038144714
11528030000.0 0.0066358282518 0.092969106053 0.58775796105 0.49167450877 0.58792683073 0.48178043593 -0.087606880695 0.033323814329
11528400000.0 0.0074115533161 0.096867855883 0.63056556048 0.43528528228 0.62924174785 0.42544046331 -0.090118057829 0.046453199344
11528770000.0 0.0093506088825 0.10043336098 0.66803762733 0.37518819318 0.66509381627 0.36576086478 -0.090446095694 0.059371142858
11529140000.0 0.012404842251 0.10345053159 0.69974375537 0.31211268626 0.69535196032 0.30331389491 -0.08870320435 0.07162274626
11529510000.0 0.016384161053 0.10562106756 0.72540795832 0.24648591529 0.71983579781 0.23851937194 -0.085046451714 0.082981914035
11529880000.0 0.021193149063 0.10673083123 0.74501958721 0.17886486841 0.73845132955 0.17189530204 -0.079744329879 0.093045996966
11530250000.0 0.026574907599 0.10672664677 0.75838454062 0.1096708943 0.75097952761 0.10401156792 -0.073025201739 0.10164002071
11530620000.0 0.03229335592 0.10537394471 0.7653683102 0.039566947332 0.75741803414 0.035272810008 -0.065198698701 0.10859303195
11530990000.0 0.038098544202 0.10267619392 0.76602824713 -0.03079126088 0.75780423226 -0.033832064016 -0.056696900472 0.11373544859
11531360000.0 0.043686625219 0.09860449577 0.76021918111 -0.10107600962 0.75200745858 -0.10283754671 -0.04774521771 0.11700078954
11531730000.0 0.04881204579 0.093174201063 0.7480045591 -0.17062763586 0.73998038634 -0.17117022156 -0.038783513666 0.1184953779
11532100000.0 0.053223896939 0.08650849791 0.7295058835 -0.23892522618 0.72184154505 -0.23839778098 -0.030067842482 0.11816011728
11532470000.0 0.056671383903 0.078751302387 0.70471974139 -0.3053276934 0.69764493233 -0.30392814551 -0.021944230759 0.1162459162
11532840000.0 0.058968432737 0.070041462079 0.67388806317 -0.36920815958 0.66743572029 -0.36713815633 -0.014640872702 0.11286787769
11533210000.0 0.059970425832 0.060655006248 0.63717521342 -0.43025923731 0.63146926216 -0.42770140649 -0.0084877094432 0.10828694702
11533580000.0 0.05951991086 0.050800162376 0.5948890143 -0.48769259225 0.58986532813 -0.4847510462 -0.0035181881627 0.10274955564
11533950000.0 0.057577468838 0.040754807451 0.54725831489 -0.54104187536 0.54297235757 -0.53793028128 -5.2613718538e-07 0.096545935655
11534320000.0 0.054091159236 0.030799881587 0.49478868699 -0.58983095548 0.49104337772 -0.5866668233 0.0021107946548 0.090037913349
11534690000.0 0.049124920208 0.021226368695 0.43784932779 -0.6336714925 0.43446567252 -0.63050677518 0.0028070961311 0.083498718595
11535060000.0 0.042748154454 0.012255260269 0.37692214796 -0.67185084188 0.3738611556 -0.66883117754 0.002115530702 0.077223507701
11535430000.0 0.035069154489 0.0041497614703 0.31259505943 -0.70416340594 0.30972616794 -0.70128642359 0.00019314861121 0.071544444215
11535800000.0 0.026292493768 -0.0028694615164 0.24540263398 -0.7303646651 0.24265512507 -0.72751531942 -0.0027461987482 0.066646786594
11536170000.0 0.016600601501 -0.0086328689244 0.17594511927 -0.75012438511 0.17327650611 -0.74714036317 -0.0064595056997 0.062772116145
11536540000.0 0.0062373799352 -0.013004007978 0.10500928439 -0.76319029421 0.10239866201 -0.76001592769 -0.010775447452 0.060003431183
11536910000.0 -0.0045208385972 -0.015917047973 0.033064006668 -0.76940349467 0.03045683285 -0.76612040996 -0.015256458265 0.058503912817
11537280000.0 -0.015425427513 -0.017285988699 -0.039076180855 -0.76886946919 -0.041613808018 -0.76527911439 -0.019697748934 0.05819833666
11537650000.0 -0.026180840476 -0.017147850309 -0.11071278828 -0.76157350796 -0.11321390813 -0.7576078859 -0.023791369784 0.059063384561
11538020000.0 -0.036549502331 -0.015553946682 -0.18118900091 -0.74760166132 -0.18357570326 -0.74319732565 -0.027229440026 0.060989531899
