! Created with skrf 1.8.0 (http://scikit-rf.org).
# Hz S RI R 50.0 
!freq ReS11 ImS11 ReS21 ImS21 ReS12 ImS12 ReS22 ImS22
11484000000.0 0.36629312436 0.87264602389 0.00085875556567 -0.00039590035656 0.00085279264912 -0.00037204451311 0.35222425278 0.88297409219
11484370000.0 0.37588636909 0.86832490812 0.00085889085639 -0.00040529993422 0.00085303965412 -0.00037931306165 0.36202941897 0.87846493897
11484740000.0 0.38550238456 0.86371448518 0.00085906695328 -0.00041434892099 0.00085386656248 -0.0003897845014 0.37207824706 0.87374656093
11485110000.0 0.39524309656 0.85891441024 0.00085825642661 -0.00042389442459 0.00085372472 -0.00039871682555 0.3821974711 0.86887561419
11485480000.0 0.40512504467 0.85384028039 0.00085411681083 -0.00043140387952 0.00085078902979 -0.00040645075092 0.392444401 0.86381181418
11485850000.0 0.41512723072 0.84853774529 0.00085271620176 -0.00043811787956 0.00084807200379 -0.00041356798073 0.40285906453 0.85855350336
11486220000.0 0.42524611359 0.84298397875 0.00084778215584 -0.00044615890428 0.0008423142731 -0.00042109594745 0.41343235113 0.85295618102
11486590000.0 0.43546071565 0.83714947053 0.00084176720467 -0.00045156291121 0.00083784065109 -0.00042552741011 0.42409786974 0.84716236153
11486960000.0 0.4457682305 0.83108562544 0.00083423783261 -0.00045454605732 0.00083107226993 -0.00043126569317 0.43490911545 0.84108221844
11487330000.0 0.45623401849 0.82467666391 0.0008248211373 -0.00045799052959 0.00082251513774 -0.00043355386799 0.44579692128 0.83474185122
11487700000.0 0.46681306358 0.81801659123 0.00081314104515 -0.00046083976412 0.00081172608587 -0.00043581538221 0.45690206763 0.82803115986
11488070000.0 0.47756140945 0.81099876947 0.00080264052946 -0.00045990484128 0.00079868330253 -0.00043649645833 0.46806794722 0.82110418366
11488440000.0 0.48838582595 0.80369083678 0.0007852443638 -0.00045828507025 0.00078510581399 -0.00043658524294 0.47947994902 0.81378839624
11488810000.0 0.49933378022 0.79604895644 0.00077013163424 -0.00045412503582 0.00076833365868 -0.00043035697999 0.49093569441 0.80611826673
11489180000.0 0.5104711842 0.78804773682 0.00075169526215 -0.00044737164862 0.00075003204645 -0.00042498476413 0.50252453949 0.79813956791
11489550000.0 0.5216951227 0.77974538835 0.00072938955179 -0.00043657058933 0.00072943195191 -0.00041520954871 0.51427702045 0.7897748167
11489920000.0 0.53306508862 0.7710299768 0.00070692256958 -0.00042376007184 0.00070609916619 -0.00040462777432 0.52617698192 0.78104473246
11490290000.0 0.54453458074 0.76193131202 0.00068095612389 -0.00040787944498 0.00068109806619 -0.00038766066985 0.53812366851 0.77188466363
11490660000.0 0.55611305396 0.75233568712 0.00065203698694 -0.00038601846022 0.0006518258387 -0.0003675127254 0.55026752901 0.76228312483
11491030000.0 0.56776111094 0.74232976247 0.00062061293509 -0.00036293607471 0.00062162117091 -0.00034287171807 0.56252453365 0.75224333234
11491400000.0 0.57957619198 0.73188611833 0.00058834353504 -0.00032983037215 0.00058861502123 -0.00031427699117 0.57491802605 0.7417048373
11491770000.0 0.59147782371 0.72098564482 0.00055087807935 -0.00029473773777 0.00055116234079 -0.00027937316872 0.58744807641 0.7306555065
11492140000.0 0.60348986457 0.70943863325 0.00051216074576 -0.00025013881242 0.00051161163365 -0.00023702633744 0.60004499885 0.71905161479
11492510000.0 0.61557601701 0.69743245597 0.00047116117515 -0.00020074634232 0.00046982345174 -0.00018924018603 0.61272535777 0.70687038685
11492880000.0 0.62766032423 0.68484290114 0.00042634547704 -0.00014366226732 0.00042527345694 -0.00013154011642 0.62548030336 0.69413947863
11493250000.0 0.63987180191 0.67168094095 0.00038007319302 -7.7688067368e-05 0.00037590580614 -6.8817129137e-05 0.63841988504 0.68075957689
11493620000.0 0.65215115082 0.65785938603 0.00032806461196 -1.6538782664e-06 0.00032498735252 6.5399153214e-06 0.6513403379 0.66660984473
11493990000.0 0.66447869288 0.64333598822 0.00027764037252 8.4279666008e-05 0.00027221160961 8.9403576094e-05 0.66436498042 0.65187272686
11494360000.0 0.67685074609 0.62808147149 0.0002205165306 0.00018030466441 0.00021541932332 0.000185665107 0.6773705586 0.63636073936
11494730000.0 0.6891708429 0.61206178901 0.00016524004456 0.00028863187073 0.00015823670794 0.00029142582242 0.69042548561 0.62001158978
11495100000.0 0.70146957493 0.5952996109 0.00010651370288 0.00041215269049 9.9413074735e-05 0.00041423644351 0.70346404972 0.60284781304
11495470000.0 0.71372195728 0.57763973141 4.8887406679e-05 0.0005493796189 3.9126287467e-05 0.00054855256519 0.71646604672 0.58483492809
11495840000.0 0.72588228778 0.55908963685 -9.2861566133e-06 0.00070103275495 -2.2277828962e-05 0.00069728710388 0.72936388567 0.5658470408
11496210000.0 0.73793255233 0.5395618535 -6.749346949e-05 0.00086851283073 -8.3403123281e-05 0.00086439224668 0.74222641016 0.54591133046
11496580000.0 0.74981206164 0.51902766695 -0.00012449505143 0.001051337828 -0.00014288116197 0.0010476444501 0.75488362297 0.52488241196
11496950000.0 0.76150863204 0.49745785896 -0.00017844370076 0.0012517089167 -0.00020153319866 0.0012480021717 0.76729551059 0.50271199109
11497320000.0 0.77293039496 0.47475598486 -0.00023123666477 0.0014715246287 -0.00025737937592 0.001465827386 0.77943969052 0.47927826424
11497690000.0 0.78399543512 0.45084923722 -0.00027759413658 0.0017062858238 -0.00030981342314 0.0017007382525 0.79123679945 0.45462436704
11498060000.0 0.79460926637 0.42559677939 -0.00032045668101 0.0019577601792 -0.00035594990984 0.0019526258264 0.8025897217 0.42858769997
11498430000.0 0.8047754733 0.39904371715 -0.00035747193653 0.0022245239053 -0.0003982384856 0.0022208546126 0.81348188008 0.4010555956
11498800000.0 0.81433958353 0.37104850323 -0.00038887416664 0.0025030623765 -0.00043857682856 0.0025003707996 0.82369865252 0.37197897676
11499170000.0 0.82324374576 0.34149491029 -0.00041953107624 0.0027928708118 -0.00046993542012 0.0027908889296 0.83321056422 0.34126029284
11499540000.0 0.83124798712 0.31036533305 -0.00044510109249 0.0030824540893 -0.00050323954713 0.0030842724203 0.84178951878 0.30878919486
11499910000.0 0.83822822648 0.27751757318 -0.00047664978694 0.0033675651581 -0.00053819678497 0.0033730396457 0.8492838499 0.2744746679
11500280000.0 0.84400891185 0.24285897104 -0.00051893026861 0.0036377328874 -0.00058294685721 0.0036457833923 0.85544857468 0.23818529257
11500650000.0 0.84833889137 0.20633382515 -0.00058657841678 0.0038821114808 -0.0006495887379 0.0038932584759 0.86002241512 0.19985564383
11501020000.0 0.85097154025 0.16777580052 -0.00069605862619 0.0040804709981 -0.00076124976642 0.0040952974966 0.86276855969 0.15931770648
11501390000.0 0.85157897842 0.12716183347 -0.00088274962274 0.0042164745815 -0.00095091952289 0.004234913252 0.86312986787 0.11640445224
11501760000.0 0.84983704748 0.084427697643 -0.0011909876651 0.0042677278726 -0.001257552741 0.0042863961274 0.86085280475 0.071241580248
11502130000.0 0.84527677364 0.039544269093 -0.0016906312669 0.0042112317415 -0.0017569707758 0.004228956333 0.8553809176 0.023556687346
11502500000.0 0.8374150672 -0.0075354980486 -0.0024805500872 0.004028077402 -0.0025491465787 0.0040400983035 0.84608220056 -0.026473159543
11502870000.0 0.82562546795 -0.056821635727 -0.0037064457729 0.0037083662281 -0.0037807438021 0.0037101980067 0.83220157474 -0.078897892748
11503240000.0 0.80911732925 -0.10802136805 -0.0055762542648 0.0032703886817 -0.0056634647178 0.0032564609111 0.81267933152 -0.13347529658
11503610000.0 0.78710617367 -0.16099476951 -0.0083724346851 0.0027860858428 -0.0084854620429 0.0027545925184 0.78652107874 -0.18981653202
11503980000.0 0.7585571976 -0.2152384219 -0.012490153711 0.0024264599738 -0.012648850409 0.0023788611181 0.75240940434 -0.24729788893
11504350000.0 0.72231694778 -0.2699497598 -0.018437735793 0.0025454442987 -0.018669089843 0.0024921989246 0.70884509702 -0.30468532755
11504720000.0 0.67701494934 -0.32398425191 -0.026850497015 0.00380617292 -0.027188610871 0.0037857569673 0.65410092104 -0.36028835065
11505090000.0 0.62126107929 -0.37544093988 -0.038402438427 0.0074004143117 -0.038870010984 0.007475501513 0.58654890258 -0.41122326786
11505460000.0 0.55397454375 -0.42149657207 -0.053582159169 0.015315656783 -0.054172894882 0.015598286095 0.50500548516 -0.45332753254
11505830000.0 0.47460224742 -0.45814275545 -0.071983312981 0.030607190955 -0.072817098563 0.031364355208 0.40960911987 -0.48073649081
11506200000.0 0.38430675159 -0.48000821737 -0.091883596423 0.057596094384 -0.092572329126 0.058882847324 0.30338755586 -0.48597348459
11506570000.0 0.28749841308 -0.48120097162 -0.10774153061 0.10063387505 -0.10792417814 0.10246539224 0.19424315848 -0.46153015123
11506940000.0 0.19261157834 -0.45756552762 -0.10958417261 0.16171393705 -0.10887507433 0.16368404783 0.096114264838 -0.40384517334
11507310000.0 0.11127356347 -0.41057915954 -0.08435867807 0.23545506901 -0.082789300453 0.23698150878 0.026042221331 -0.31879361076
11507680000.0 0.053033798009 -0.34950407353 -0.022738888573 0.30664677622 -0.020969145326 0.30737176314 -0.0042653844746 -0.2239174378
11508050000.0 0.018997090146 -0.28800696919 0.072599280732 0.35507872997 0.074042974426 0.35524403259 0.0025223922647 -0.14121393723
11508420000.0 0.0016700119263 -0.2357722762 0.18677870159 0.36625087582 0.1879800312 0.36640401215 0.030909014589 -0.084767407097
11508790000.0 -0.0086640271329 -0.19447435679 0.30124741794 0.3375686507 0.30263643976 0.33790228194 0.063101291137 -0.0551574645
11509160000.0 -0.018071123507 -0.16025161856 0.40167835135 0.27542569936 0.40356175099 0.27558702688 0.087947855275 -0.044181559
11509530000.0 -0.027677566565 -0.12842178367 0.48024573931 0.18928985291 0.48255804355 0.18885851077 0.10238754382 -0.042166396062
11509900000.0 -0.035896003449 -0.096317616343 0.53392808829 0.088200989107 0.53633418686 0.086899990793 0.10806331633 -0.042460165606
11510270000.0 -0.040430601798 -0.063479079228 0.56248836052 -0.020212948691 0.56456924192 -0.022396023081 0.10849984924 -0.041748853998
11510640000.0 -0.039682830223 -0.031133670426 0.56708123044 -0.12981855765 0.56861040177 -0.13267184394 0.10665561277 -0.039254685901
11511010000.0 -0.033309382089 -0.0012570145771 0.55002425842 -0.23591685428 0.5507501158 -0.23921611716 0.10461018539 -0.0356535814
11511380000.0 -0.02197481055 0.024347306023 0.51380728784 -0.3347187331 0.51381736991 -0.33810285055 0.10308502172 -0.032010590716
11511750000.0 -0.007166127523 0.044356850593 0.46155373139 -0.42340754227 0.46067649091 -0.4267453468 0.10204714045 -0.029381758505
11512120000.0 0.0093315997735 0.058237295848 0.39611143996 -0.50011346898 0.39462186841 -0.50327519597 0.10094157299 -0.028183984432
11512490000.0 0.025697979764 0.066057066728 0.32059436047 -0.56377687609 0.318415922 -0.56662330239 0.099026554546 -0.02856105051
11512860000.0 0.040353328795 0.068525195914 0.2377271658 -0.61356212282 0.23490173411 -0.61616960375 0.095729146787 -0.030100889282
11513230000.0 0.052164803636 0.066735167601 0.14985880573 -0.64964479001 0.14651838872 -0.65173819359 0.090527495805 -0.03229852311
11513600000.0 0.060399773827 0.061940796177 0.059403936445 -0.67204461458 0.055433627919 -0.67360017148 0.083350006245 -0.034400729799
11513970000.0 0.064780101554 0.055461849348 -0.031996425479 -0.68131875715 -0.036256225585 -0.68213179932 0.074253285034 -0.035625177463
11514340000.0 0.065369168623 0.048495696236 -0.12219428944 -0.67793539827 -0.12693876367 -0.67785780503 0.063705456369 -0.035375360073
11514710000.0 0.06259430897 0.042151352961 -0.20995884874 -0.66269074033 -0.21482375558 -0.6616358572 0.052199038258 -0.033234450665
11515080000.0 0.057067893036 0.037214658807 -0.29386014579 -0.63645425291 -0.29865538724 -0.63434748736 0.040453001383 -0.02884323642
11515450000.0 0.04952282268 0.03426227457 -0.37268269191 -0.60002646302 -0.37704760032 -0.59694002525 0.029159550112 -0.022210910639
11515820000.0 0.04079522318 0.033644786838 -0.44539553367 -0.55454454644 -0.44916972212 -0.55047785345 0.01897782738 -0.013471215315
11516190000.0 0.031705382567 0.035431804751 -0.51103953364 -0.50102053981 -0.51403399386 -0.49620485156 0.010473137175 -0.0030173970935
11516560000.0 0.02298121539 0.039491522109 -0.56913999393 -0.44067692953 -0.5711464567 -0.43525821462 0.004169809788 0.0087902612086
11516930000.0 0.015218376242 0.045482597108 -0.61891699041 -0.37458767069 -0.61984676961 -0.36885610767 0.00030424783359 0.021174445372
11517300000.0 0.0089209305777 0.052970337857 -0.66011889782 -0.30399148111 -0.6599778098 -0.29815577525 -0.00098528882861 0.033628365517
11517670000.0 0.0044099723492 0.061430223909 -0.69264075269 -0.22981551673 -0.69142676749 -0.22421880318 0.00023319917687 0.04551917595
11518040000.0 0.001780603874 0.070374025479 -0.71613633394 -0.15341722528 -0.71406740335 -0.14824669012 0.0038384085655 0.056220475546
11518410000.0 0.0011085828862 0.079239526679 -0.73099837559 -0.075769922012 -0.72814436525 -0.071057888219 0.009438584541 0.065324690254
11518780000.0 0.0022008838087 0.0875540606 -0.73719831152 0.002366534326 -0.73380619185 0.00631073629 0.016631550373 0.072298077486
11519150000.0 0.0048221353682 0.09493707637 -0.73498802108 0.079965982782 -0.73129150052 0.083127858168 0.024920261687 0.076965486159
11519520000.0 0.0087186862203 0.10105871593 -0.72467552561 0.15615145319 -0.72086814096 0.15864957327 0.03370623001 0.079133823281
11519890000.0 0.013539427385 0.10570578062 -0.70670508419 0.23026791223 -0.70294826763 0.23213677678 0.042559321826 0.078693921075
11520260000.0 0.018826171508 0.1087516595 -0.68142060716 0.30148828447 -0.6778026549 0.3029484516 0.050911052482 0.075811937516
11520630000.0 0.024285801597 0.1102252073 -0.64919785188 0.36938801597 -0.6457758677 0.37057664091 0.058185895731 0.070662827079
11521000000.0 0.029502123935 0.11014262483 -0.61051696741 0.43334575831 -0.60729909805 0.4343442404 0.064009640098 0.063460677204
11521370000.0 0.034161249306 0.1086650125 -0.5659589081 0.49276589679 -0.5628595086 0.49371984348 0.067944862742 0.054625151148
11521740000.0 0.037987465642 0.10600588981 -0.5159222224 0.5472808148 -0.51289830954 0.54830220001 0.069804395811 0.044563910643
11522110000.0 0.040827960502 0.10238694356 -0.46096261658 0.59635834182 -0.45781839573 0.59757217122 0.069290731949 0.033760750319
11522480000.0 0.042497316771 0.098112321768 -0.40155414271 0.63986598384 -0.39828594297 0.64099131294 0.066333794005 0.022686016321
11522850000.0 0.042924935618 0.093485359678 -0.33840977999 0.67706699461 -0.3347808804 0.67826039855 0.060962708367 0.011860044633
11523220000.0 0.042071125356 0.088801227553 -0.27210212826 0.70783883181 -0.26797319307 0.70899568812 0.053281386447 0.0017634388295
11523590000.0 0.040012097737 0.084333656547 -0.20321640603 0.73192648385 -0.19845941726 0.73289123255 0.043464868902 -0.0071090254906
11523960000.0 0.036901820588 0.080415444493 -0.13244669974 0.749236128 -0.12706201985 0.74967354737 0.031816978913 -0.014379935575
11524330000.0 0.032839711534 0.07722243036 -0.060520777249 0.75948143922 -0.054534254063 0.75929548427 0.018765198936 -0.01967286036
11524700000.0 0.028097086753 0.074951780472 0.01191368668 0.76267830829 0.01839604768 0.76162396331 0.0046288289187 -0.02280174473
11525070000.0 0.022898358888 0.073768586584 0.084296707323 0.75880972074 0.090971819837 0.75676901767 -0.010082004922 -0.02352824159
11525440000.0 0.017536708187 0.073752950423 0.15574253279 0.74808104583 0.16249709176 0.74479869953 -0.024853456553 -0.021871110046
11525810000.0 0.012316624191 0.074918801178 0.22564271823 0.73051797373 0.23222145917 0.72595735188 -0.03924939254 -0.017812908862
11526180000.0 0.0074923057804 0.077185262018 0.29327910924 0.70642850988 0.29942001761 0.70052207943 -0.052844613992 -0.011523354991
11526550000.0 0.0033129863509 0.080496007252 0.35814567202 0.67600354049 0.36359892839 0.6689298368 -0.065116517577 -0.0031166124937
11526920000.0 8.5668447259e-05 0.084652748646 0.41967036493 0.6396181529 0.42414557277 0.63157940916 -0.075816214063 0.006958918167
11527290000.0 -0.002033888723 0.089441206999 0.47734243384 0.59779829578 0.4805839491 0.58892419056 -0.084640615351 0.018490302789
11527660000.0 -0.0029054669214 0.094605018267 0.53059736601 0.55088484087 0.53254494378 0.54135267996 -0.091425483136 0.031056007942
11528030000.0 -0.0024577312805 0.099888793479 0.57919931084 0.49935749956 0.57961659577 0.48945208885 -0.096004900088 0.044210988929
11528400000.0 -0.00063354516817 0.10497368254 0.62257963387 0.44373750739 0.62152197167 0.43378251647 -0.098314167787 0.057598267276
11528770000.0 0.0025079643009 0.1095880738 0.6606936194 0.38439433965 0.65800387617 0.37476050391 -0.098440898247 0.070817492315
11529140000.0 0.0068895296516 0.11345528278 0.69309696604 0.32197991161 0.68891466157 0.31296588421 -0.096443427744 0.083435790527
11529510000.0 0.01232094099 0.11630136125 0.71964366345 0.25682460846 0.71419995579 0.24871786441 -0.092534477665 0.095116917582
11529880000.0 0.018679839305 0.11791790987 0.74011226968 0.18973813425 0.73360844615 0.18273156113 -0.086921618408 0.10559215793
11530250000.0 0.025658894976 0.11816545231 0.75451212813 0.12113376242 0.74705973758 0.1153600766 -0.079880652035 0.11464748581
11530620000.0 0.032988010637 0.11686834692 0.7625024393 0.051469267462 0.75448200593 0.04703748229 -0.07171389729 0.12202361416
11530990000.0 0.040414977528 0.11398436108 0.76419587674 -0.018523487159 0.75584600561 -0.021685365341 -0.062717678049 0.12762090786
11531360000.0 0.047584585637 0.10948870111 0.75954255241 -0.088528643391 0.75116681779 -0.090380106672 -0.053315445133 0.13137238808
11531730000.0 0.054228544982 0.10343924559 0.74854945625 -0.15797463287 0.74027864242 -0.15850335526 -0.043758811579 0.13326336633
11532100000.0 0.060071194155 0.095935691061 0.73125884126 -0.22621934541 0.72336664859 -0.22569470988 -0.034454658848 0.1334053293
11532470000.0 0.064851832432 0.087130775528 0.70779692652 -0.29271302654 0.7003930784 -0.29121063548 -0.025614793321 0.13187575315
11532840000.0 0.068341136146 0.077213735522 0.67818453904 -0.35690251084 0.67151520888 -0.35462908634 -0.017648126875 0.12886381197
11533210000.0 0.070310954088 0.066420958274 0.64274500112 -0.41832905679 0.63680880921 -0.41548289749 -0.010650716789 0.12452841228
11533580000.0 0.07064491124 0.055057425786 0.60164893516 -0.47633515226 0.59644606755 -0.47308151155 -0.0048732260227 0.11923707965
11533950000.0 0.069243138975 0.043371311759 0.55519347463 -0.53034945862 0.55078644225 -0.52684107861 -0.00042962155356 0.11323852595
11534320000.0 0.066090067914 0.031714807357 0.50376571165 -0.58000474111 0.49998253873 -0.57636125318 0.0025573847513 0.10678431708
11534690000.0 0.061185313087 0.020371079105 0.44771397362 -0.62468919642 0.44454119241 -0.62114512774 0.0041322184435 0.1002693763
11535060000.0 0.054613336211 0.0096385020737 0.3876320977 -0.66394804479 0.38489248531 -0.66049057314 0.0043501209145 0.093938809912
11535430000.0 0.046463883414 -0.00022497280168 0.32408436699 -0.697314279 0.3216129948 -0.69404948639 0.0033318589622 0.08803937855
11535800000.0 0.036954818315 -0.0088981811703 0.25746279807 -0.72467891159 0.25528314759 -0.72149921224 0.0012303244436 0.082946984007
11536170000.0 0.026311682473 -0.016225282815 0.18850872319 -0.74560907342 0.18640918302 -0.74247881868 -0.0016864088589 0.078751350951
11536540000.0 0.014753538624 -0.021951351236 0.1178746318 -0.75993269588 0.11587171238 -0.75676699568 -0.0052081775875 0.075600549058
11536910000.0 0.0026075762471 -0.026049814391 0.046203633628 -0.76739528981 0.044254477299 -0.76420121166 -0.009018320352 0.073666476966
11537280000.0 -0.0098432430537 -0.028412480888 -0.025843951031 -0.76811303029 -0.027787188792 -0.76474978081 -0.01283018036 0.072960175332
11537650000.0 -0.022297326628 -0.028993681118 -0.097541482059 -0.76203573951 -0.099332167251 -0.75846944094 -0.016357215109 0.07335575816
11538020000.0 -0.03445537315 -0.027891538409 -0.16821529129 -0.74926167373 -0.16994420437 -0.74533966833 -0.019264258836 0.074807835712
