! Created with skrf 1.8.0 (http://scikit-rf.org).
# Hz S RI R 50.0 
!freq ReS11 ImS11 ReS21 ImS21 ReS12 ImS12 ReS22 ImS22
11484000000.0 0.36478153856 0.87338354924 0.00084710298764 -0.00038446358165 0.00085018572206 -0.00037298380628 0.36381688587 0.87822222938
11484370000.0 0.37431707054 0.86907156135 0.00085036045932 -0.00039388338479 0.00085046856335 -0.00038495864305 0.37378106768 0.8734865985
11484740000.0 0.38396754417 0.86448405461 0.00084873426842 -0.00040292931529 0.00085049135915 -0.00039434641706 0.38390051341 0.86857773587
11485110000.0 0.39375607655 0.85966752332 0.00084852936921 -0.00041311438314 0.00084978400815 -0.00040119955175 0.39407101612 0.86350635804
11485480000.0 0.40364598783 0.85459756416 0.00084571056748 -0.00042141582302 0.00084801098225 -0.00041033107338 0.40439045927 0.85827618929
11485850000.0 0.41364879691 0.84930995582 0.00084318031357 -0.00042726673164 0.00084340083779 -0.00041842282979 0.41488612468 0.85274853483
11486220000.0 0.42377231942 0.84376712057 0.00083802241198 -0.00043372322433 0.00084036378283 -0.00042412030605 0.42548305375 0.84698772971
11486590000.0 0.43403194398 0.83791964856 0.00083079273501 -0.00043937518751 0.00083494706992 -0.00043015179116 0.43622572691 0.84096595878
11486960000.0 0.44441366279 0.83180722094 0.00082414500374 -0.00044518158964 0.0008269242527 -0.00043507753917 0.44706109077 0.83463588852
11487330000.0 0.45496378102 0.82539502287 0.00081475288062 -0.00044668169579 0.00081709498999 -0.00043917127784 0.45802267958 0.82804165271
11487700000.0 0.46556280033 0.81869625865 0.00080373104506 -0.00044797038754 0.00080708445163 -0.00043969530598 0.46913254396 0.8210896837
11488070000.0 0.47631091019 0.81171659656 0.00079147713858 -0.00044794603661 0.00079450135568 -0.0004399532903 0.48035683398 0.8138759514
11488440000.0 0.48717224732 0.80441606586 0.00077452191728 -0.00044692415337 0.00077981704605 -0.00043731060751 0.49178577582 0.80635651256
11488810000.0 0.49816225761 0.79678511163 0.00075972855544 -0.00044186888419 0.00076285204151 -0.00043495612996 0.50329072419 0.79841927287
11489180000.0 0.50929742099 0.78883122819 0.00073960396171 -0.00043598469182 0.00074518359183 -0.00042831569848 0.51492968648 0.79022630945
11489550000.0 0.52054289612 0.78050725348 0.00071925420193 -0.00042499832543 0.00072403178835 -0.00041809403468 0.52670623674 0.78157607124
11489920000.0 0.53191422779 0.77176360871 0.00069652830041 -0.00041195817165 0.00070209634891 -0.00040535232888 0.53855950269 0.77260334526
11490290000.0 0.54341937745 0.76269380221 0.00067012956748 -0.00039582200428 0.0006746045772 -0.00039150318318 0.55054591572 0.76310462215
11490660000.0 0.55500815838 0.75313274487 0.00064168457931 -0.00037738023129 0.00064635603655 -0.00036984569198 0.56267639228 0.75324451973
11491030000.0 0.56672263155 0.74310816727 0.00061183729204 -0.00035222776311 0.00061796086412 -0.00034567255487 0.57490570539 0.74293912294
11491400000.0 0.57854724585 0.73269476988 0.00057741365486 -0.00032094066281 0.00058216973337 -0.00031623160893 0.58726403275 0.73208586699
11491770000.0 0.5904906646 0.7218322361 0.00054230905038 -0.00028641820735 0.00054754086104 -0.00028045170525 0.59971705585 0.72072050308
11492140000.0 0.60252296116 0.71032158631 0.0005029005924 -0.00024360857683 0.00050741181516 -0.00023955344298 0.61227982709 0.70883165127
11492510000.0 0.61467875629 0.6983346215 0.00046289528161 -0.00019475329408 0.00046558376664 -0.00019024381177 0.6248760122 0.6963217572
11492880000.0 0.62680025055 0.68571878536 0.0004187676427 -0.00013859040408 0.00042065617007 -0.00013572621712 0.63757069388 0.68326433614
11493250000.0 0.63905748928 0.67253772941 0.00037071310139 -7.3828120349e-05 0.00037302204213 -6.9221225802e-05 0.65032478778 0.66957827752
11493620000.0 0.65138484864 0.65873287765 0.00032267553834 3.5386652046e-07 0.00032361523999 3.9629162157e-06 0.66314323123 0.65518617334
11493990000.0 0.66371426988 0.64423035516 0.00026961500596 8.4342730224e-05 0.00027104146952 8.7188751899e-05 0.67600830162 0.64010868217
11494360000.0 0.67613099569 0.62894078091 0.00021600811767 0.00017990417609 0.0002159029284 0.00018202550613 0.68886322567 0.62435228212
11494730000.0 0.68846545913 0.61298170445 0.00016129641889 0.00028627588189 0.00015947434627 0.00028955140405 0.70166524264 0.60773099925
11495100000.0 0.70083337232 0.59622230499 0.00010312158593 0.0004069753603 0.00010090427627 0.00041001382845 0.71451749627 0.59029587547
11495470000.0 0.7131169341 0.57858681962 4.5770946827e-05 0.00054069491392 4.3174566795e-05 0.00054437636616 0.72724779522 0.57200598016
11495840000.0 0.72531383622 0.56005707056 -1.163662441e-05 0.00068827875258 -1.7462477304e-05 0.00069270108454 0.73989540773 0.55274047982
11496210000.0 0.73737877041 0.54053273889 -7.0221904933e-05 0.00085168155907 -7.5625989998e-05 0.00085763934786 0.75239381838 0.53251926525
11496580000.0 0.74929559704 0.52002196015 -0.00012569443605 0.001030306521 -0.00013367818979 0.0010386286524 0.76471103917 0.51120848183
11496950000.0 0.76104960794 0.49844398987 -0.00018155519103 0.0012267699829 -0.00019076664012 0.001236969004 0.77675917407 0.48883588134
11497320000.0 0.7724956181 0.47575503688 -0.00023531238108 0.0014405155048 -0.00024562022919 0.0014528592744 0.78854952942 0.46522385819
11497690000.0 0.78359747104 0.45184384022 -0.00028272541573 0.0016688558369 -0.00029549414043 0.0016862350642 0.79997232979 0.44044235976
11498060000.0 0.79427404166 0.4265813359 -0.00032696787451 0.0019133429823 -0.00034023525508 0.0019353344902 0.81092946504 0.41424797752
11498430000.0 0.80450065806 0.40000362007 -0.00036892262679 0.0021712253278 -0.00038018916691 0.0021977404492 0.82137347972 0.3866291959
11498800000.0 0.81408162937 0.37204054576 -0.00040404889164 0.0024436781552 -0.00041580512114 0.0024754604562 0.83110803093 0.35756946654
11499170000.0 0.82298601535 0.34250547238 -0.00043756277572 0.0027248144796 -0.00044858121669 0.0027593613273 0.84015313146 0.32688766493
11499540000.0 0.83104225204 0.3113511515 -0.00046810720956 0.0030068845705 -0.00047719410344 0.0030468888079 0.84826549293 0.29451139417
11499910000.0 0.83809923327 0.27847353866 -0.00050265182713 0.0032847130686 -0.00051179302672 0.0033301756479 0.85525993 0.2603876315
11500280000.0 0.84388200137 0.24380265467 -0.00054722824843 0.0035458269176 -0.00055524539905 0.0035972028296 0.86092925135 0.2243556761
11500650000.0 0.84829453119 0.20723646444 -0.00061646856348 0.0037821452654 -0.00062249808014 0.003838588155 0.86499279383 0.18630997757
11501020000.0 0.85100123487 0.16866462118 -0.00072864195801 0.0039745110976 -0.00073271456826 0.0040350941837 0.86728214143 0.14623008733
11501390000.0 0.85163422871 0.12805619527 -0.00091372682281 0.0041013396807 -0.00091824306788 0.0041693817219 0.867279997 0.10396465004
11501760000.0 0.84998237052 0.085314580799 -0.0012157464304 0.0041463740195 -0.0012221301993 0.0042185543061 0.86468069705 0.059476237388
11502130000.0 0.84548047576 0.040403036798 -0.0017017858499 0.0040838756396 -0.0017158340329 0.0041581508336 0.85896011874 0.012649858594
11502500000.0 0.8376687147 -0.0067668398051 -0.0024690155384 0.0038900824998 -0.0024963412704 0.0039692753437 0.84953783058 -0.036328321377
11502870000.0 0.82592542761 -0.056078028033 -0.003654630419 0.0035575182113 -0.0037078818112 0.0036427510094 0.83578925569 -0.087551798794
11503240000.0 0.80947098299 -0.10738041591 -0.0054598809832 0.0030942581828 -0.0055540751956 0.0031934212724 0.81668541492 -0.14083153554
11503610000.0 0.78753372809 -0.1604121595 -0.0081627781183 0.0025617005243 -0.0083188114336 0.0026911744903 0.79123284333 -0.19580481983
11503980000.0 0.759038744 -0.21470200913 -0.012143006295 0.0021075734308 -0.012391187032 0.0022978081041 0.75833957004 -0.25183094243
11504350000.0 0.72280489501 -0.26947318198 -0.017914607985 0.002056249282 -0.018282312733 0.0023638441121 0.71642969051 -0.30789061313
11504720000.0 0.67751292478 -0.32360471437 -0.026111629307 0.0030257758101 -0.026619939101 0.0035424883349 0.66406379716 -0.36232592945
11505090000.0 0.62176130494 -0.37512975962 -0.03744057674 0.0061240461487 -0.038081028642 0.007002551908 0.59949829256 -0.41270887469
11505460000.0 0.55441066593 -0.4212886865 -0.052487048912 0.013260123949 -0.053164474485 0.014703679139 0.52152848664 -0.45514065921
11505830000.0 0.47493164925 -0.45802417813 -0.071027756328 0.02744011698 -0.071688380188 0.029765358595 0.43007062483 -0.48409107552
11506200000.0 0.38450035394 -0.47987367926 -0.091638869461 0.052898704284 -0.091688895859 0.056323898711 0.32751563415 -0.49255368773
11506570000.0 0.28743246153 -0.48087779647 -0.10917104109 0.09446400825 -0.10788116199 0.098788501656 0.22081402604 -0.47294377093
11506940000.0 0.19244808779 -0.45672669187 -0.11377527617 0.154622345 -0.11047574479 0.15925974588 0.12294654989 -0.42097415229
11507310000.0 0.11157506278 -0.40896586205 -0.092084841416 0.22900371458 -0.086609331826 0.2327555978 0.050682518368 -0.34105296354
11507680000.0 0.054702473272 -0.34745181116 -0.033687462277 0.30262027147 -0.026677844955 0.30459716716 0.016558304176 -0.2493890136
11508050000.0 0.022581490823 -0.286648944 0.059847732374 0.35459759548 0.067453046062 0.35466614576 0.019475539869 -0.16778347803
11508420000.0 0.0066245947347 -0.23660428568 0.17373229206 0.36960051798 0.18152176505 0.36790559286 0.044928329048 -0.11104084393
11508790000.0 -0.003840069155 -0.19821681967 0.28926062352 0.34426585626 0.29686339196 0.34099147866 0.075299428673 -0.080702831866
11509160000.0 -0.015008051672 -0.16666945619 0.39138167862 0.28489235617 0.39864853567 0.27986221432 0.099098010568 -0.069081992411
11509530000.0 -0.027629477391 -0.13645175243 0.47196344684 0.20111175847 0.47859120194 0.19411663717 0.11287654026 -0.066679380174
11509900000.0 -0.039367074409 -0.10443416079 0.52805733251 0.1018513847 0.53350719765 0.092949518423 0.11812270406 -0.066825122671
11510270000.0 -0.047209563297 -0.070216038817 0.55935647794 -0.0052783842833 0.56300793006 -0.015793412373 0.11817301313 -0.066113964649
11510640000.0 -0.049005345899 -0.035305469903 0.56687255988 -0.11418182645 0.56839994352 -0.12583008831 0.11596782542 -0.063771312216
11511010000.0 -0.044029360972 -0.0021092419003 0.55278959034 -0.2202983709 0.55187798545 -0.232461552 0.11346907727 -0.060416782429
11511380000.0 -0.03287414328 0.027100731508 0.51939829002 -0.31960876264 0.51613894019 -0.33176949768 0.1114710859 -0.057049949868
11511750000.0 -0.017022663946 0.050535649369 0.4696766736 -0.40927697612 0.46416588399 -0.42099110521 0.10992531767 -0.054664614073
11512120000.0 0.001524702911 0.067301911863 0.40655823924 -0.48741162317 0.39891944627 -0.49828762327 0.10830095112 -0.053727623508
11512490000.0 0.02065600016 0.077220560829 0.33300377169 -0.55272307956 0.32339509759 -0.56243761456 0.10584155848 -0.054346809211
11512860000.0 0.038551085107 0.080886564257 0.25168980686 -0.60455896806 0.24038793477 -0.6127795818 0.10195756158 -0.0561154304
11513230000.0 0.053743815203 0.079328659453 0.16508639943 -0.64279005556 0.15234629705 -0.64916493262 0.096192621321 -0.058529508822
11513600000.0 0.065217067139 0.073841777577 0.075508576252 -0.66745817492 0.061502227135 -0.67183273635 0.08841620465 -0.060825693435
11513970000.0 0.072510045233 0.065891696319 -0.015231506604 -0.67905715421 -0.030041451938 -0.68113028344 0.078806825787 -0.062201706857
11514340000.0 0.075496577545 0.056799590643 -0.10536340336 -0.6780962974 -0.12058174846 -0.67768097149 0.067630005465 -0.062121377559
11514710000.0 0.074482687883 0.047818602605 -0.19325584965 -0.66522362359 -0.20843168729 -0.66231582915 0.055559995822 -0.060046344765
11515080000.0 0.070037741254 0.039957278978 -0.27763633419 -0.6412800952 -0.29226028548 -0.6358959296 0.043223024779 -0.055783843695
11515450000.0 0.062812059866 0.033956265348 -0.3573077207 -0.60705769879 -0.37090750633 -0.59940332458 0.031295806539 -0.049197710298
11515820000.0 0.053714473182 0.030350242407 -0.43111717713 -0.56360361677 -0.44343338978 -0.55384313333 0.020501789582 -0.040499601475
11516190000.0 0.043572462824 0.029364975931 -0.49807896164 -0.51186710415 -0.50877850899 -0.50039676821 0.011408320187 -0.030052954888
11516560000.0 0.033243710694 0.030962858619 -0.55772411428 -0.45306871902 -0.56654784502 -0.44023431128 0.0044914615184 -0.018234343481
11516930000.0 0.023418500775 0.034977954417 -0.60931420291 -0.38820815003 -0.61610322198 -0.37449368953 4.0063342748e-05 -0.0057327402595
11517300000.0 0.014740832257 0.041008990679 -0.65241946497 -0.31849640595 -0.65717489871 -0.30426371516 -0.0018280070137 0.0068108955212
11517670000.0 0.007649487057 0.048577624343 -0.68685004045 -0.24492112809 -0.68964348825 -0.23052602662 -0.0010679591985 0.01887285477
11518040000.0 0.0023981655046 0.057174536009 -0.71227565773 -0.16882431631 -0.71329621235 -0.15460774931 0.0020482234293 0.029775308042
11518410000.0 -0.00086518881796 0.066240687699 -0.72889686285 -0.091298766055 -0.72839248505 -0.077307515439 0.0071776325826 0.039015398341
11518780000.0 -0.0022611873156 0.07526468301 -0.73684786811 -0.013070918758 -0.73498336746 0.00033661162835 0.014006704327 0.04621846999
11519150000.0 -0.001837267924 0.083786464477 -0.73626787118 0.064788836928 -0.73329065218 0.077606926318 0.021936197963 0.051010493893
11519520000.0 0.00012723100586 0.091427321995 -0.72748348377 0.14142562214 -0.7235201589 0.15370704508 0.030439248296 0.053321658571
11519890000.0 0.0033680863536 0.097910570556 -0.71089397722 0.21602535825 -0.70610656666 0.22775416201 0.038961735244 0.052985324265
11520260000.0 0.0075031076375 0.10302550288 -0.68683686223 0.28786592934 -0.68125249222 0.29929437162 0.047014726787 0.050188927665
11520630000.0 0.012196018324 0.106686399 -0.65586010515 0.35645769052 -0.64939862512 0.36757312005 0.054028773418 0.045047258455
11521000000.0 0.017097158284 0.10887694423 -0.61824125859 0.42115480788 -0.61099954865 0.43190495267 0.059530518133 0.037884818975
11521370000.0 0.021867460922 0.10965827584 -0.57467858862 0.4813632854 -0.56646630915 0.49187051858 0.063184323361 0.029047605996
11521740000.0 0.026207933281 0.10913100483 -0.52556939487 0.53684500278 -0.51632900159 0.54689535183 0.064657653276 0.018994747954
11522110000.0 0.029915251054 0.10750585945 -0.47140921516 0.58685475529 -0.46108579597 0.59644038811 0.063792381004 0.0081445533038
11522480000.0 0.032789963752 0.10503054859 -0.41286831541 0.63124907702 -0.40127749168 0.64014878158 0.060461784689 -0.0028838081643
11522850000.0 0.034679142757 0.10190443526 -0.35044725371 0.66955863897 -0.33756743294 0.67745616879 0.054679133833 -0.013674619729
11523220000.0 0.03551337347 0.098431706128 -0.28473965072 0.70148460065 -0.27062253693 0.70823960611 0.046576120894 -0.023724437562
11523590000.0 0.035329878132 0.094864155493 -0.21649692479 0.72678334109 -0.20115581627 0.73210251933 0.036325396799 -0.032507954098
11523960000.0 0.03420147552 0.091448713046 -0.14626421693 0.74539844068 -0.12981919263 0.74887854416 0.02429244681 -0.03964711401
11524330000.0 0.032181776435 0.088418397398 -0.074837436798 0.75686450805 -0.057422268047 0.7584792736 0.010813334643 -0.044853546693
11524700000.0 0.029411049533 0.085961375578 -0.0026945422053 0.76155379009 0.015304641828 0.76085192741 -0.0037023766857 -0.047804537604
11525070000.0 0.02608970656 0.084240736012 0.069547314201 0.75916717203 0.0876583683 0.75609693361 -0.018747612824 -0.048335973425
11525440000.0 0.02240357891 0.083402140406 0.14112570565 0.75003789998 0.15886813376 0.74437344295 -0.033878531792 -0.046544000534
11525810000.0 0.018771155272 0.083459453679 0.21114074278 0.73394348473 0.22835812875 0.72590147835 -0.048596434738 -0.042299933435
11526180000.0 0.015199071304 0.084436572555 0.2792637067 0.71133415451 0.29533602603 0.70088204653 -0.06250521017 -0.035874633332
11526550000.0 0.012087265008 0.086260733466 0.34470580743 0.68239646442 0.35933307358 0.66980816558 -0.075120743318 -0.027376965063
11526920000.0 0.009659709938 0.088802981233 0.40699038874 0.64743307785 0.41980223585 0.63310061483 -0.086110000593 -0.017131720325
11527290000.0 0.0080388620035 0.091875960411 0.46555355302 0.60688020105 0.47630220334 0.59105042856 -0.095278521561 -0.0054845319291
11527660000.0 0.0073475114123 0.095298473695 0.5199152878 0.56106264754 0.52842132128 0.54410401827 -0.10237724597 0.0071672163847
11528030000.0 0.0077079052773 0.098857727188 0.5696515175 0.51056201217 0.57580425794 0.49287698932 -0.10726249142 0.02047585645
11528400000.0 0.009184218153 0.10228849129 0.61441975482 0.45574621305 0.61815945811 0.43778235596 -0.1099366252 0.033993766017
11528770000.0 0.011724495723 0.10533905046 0.65387163412 0.39709471664 0.65521058698 0.37928088305 -0.11040989071 0.047351819842
11529140000.0 0.015266611386 0.10773113451 0.68763533702 0.33519118363 0.68678727992 0.31788626995 -0.10877420281 0.060106257028
11529510000.0 0.019622636027 0.10928750636 0.71558198006 0.27051911135 0.71278166967 0.25396156274 -0.10522325133 0.072008723195
11529880000.0 0.024730466493 0.10980126042 0.73745033318 0.20363465848 0.73300123455 0.1880813711 -0.099927595033 0.082625360698
11530250000.0 0.030323628782 0.10919442584 0.7532144262 0.13502365263 0.74721993267 0.12072838408 -0.093197000096 0.091854694238
11530620000.0 0.036157356446 0.1072505029 0.76253313754 0.065369135686 0.75542418702 0.052290325544 -0.085302500795 0.099412193475
11530990000.0 0.041994703613 0.10398168147 0.76557228175 -0.0048985158344 0.75750439931 -0.016748135868 -0.076628329564 0.10522241803
11531360000.0 0.047573037935 0.099375670912 0.76216997008 -0.075280943205 0.75339645183 -0.085840801331 -0.067478321015 0.10917641231
11531730000.0 0.052747913035 0.093211418149 0.75231065932 -0.14549719577 0.74307187288 -0.15444784655 -0.058258947621 0.11126128581
11532100000.0 0.057000366951 0.086055311198 0.73607594098 -0.2143390712 0.7265428737 -0.2222263144 -0.049211686391 0.11159481139
11532470000.0 0.060236386196 0.077944948132 0.7135699515 -0.28133603842 0.70381041479 -0.28830225989 -0.040632896644 0.11024198934
11532840000.0 0.062310709948 0.068883371834 0.68489303438 -0.34625761933 0.67515325115 -0.35229379158 -0.032934022572 0.10734591245
11533210000.0 0.063044317387 0.060105332236 0.65051111328 -0.4073104069 0.64057178737 -0.41371072987 -0.026200352173 0.10319890396
11533580000.0 0.063022138931 0.050291423277 0.61093539429 -0.4658509833 0.60016260536 -0.47186312514 -0.020737871252 0.097997266959
11533950000.0 0.060222715767 0.038687566865 0.56421934638 -0.52227374796 0.55428396175 -0.52608862212 -0.016708127668 0.092240362399
11534320000.0 0.053946923769 0.026301140591 0.51040356327 -0.57550409183 0.50327629796 -0.57582224937 -0.014011977778 0.086212286481
11534690000.0 0.047059535945 0.016358716433 0.45323563077 -0.6218853551 0.44764400929 -0.62082144972 -0.012716933551 0.079996451377
11535060000.0 0.038190523289 0.0074506217305 0.39136152359 -0.66268295743 0.38788174435 -0.66035108946 -0.01272323429 0.073994146356
11535430000.0 0.029897669995 0.00021086781646 0.32794286628 -0.69661433168 0.32445543562 -0.69413228642 -0.013997943002 0.068325599745
11535800000.0 0.020687440679 -0.005766400896 0.26139233525 -0.72433712966 0.2579062384 -0.72176719372 -0.016371275346 0.063439692085
11536170000.0 0.01079444371 -0.010416409645 0.19244508222 -0.74565248648 0.18898564565 -0.74287484851 -0.019564416641 0.059492373684
11536540000.0 0.00041441359926 -0.013633067587 0.12174439499 -0.76027559862 0.11836460065 -0.75722681813 -0.023303178193 0.056605811461
11536910000.0 -0.010153545429 -0.015342117436 0.050009678973 -0.76802414035 0.046675786311 -0.76484584588 -0.027392540835 0.054920492382
11537280000.0 -0.020557470936 -0.015712962989 -0.021996252543 -0.76903318757 -0.025355090411 -0.76553804448 -0.031467819958 0.054442268817
11537650000.0 -0.030631563311 -0.014706951263 -0.093746156008 -0.76334268971 -0.096996284308 -0.75938837516 -0.03522191325 0.055121940011
11538020000.0 -0.040170806941 -0.012420555594 -0.16451593905 -0.75091263057 -0.16764352735 -0.74651149522 -0.038369430717 0.056815869969
