#  HZ   S   RI   R     50.00 
! Rohde & Schwarz ZVA50 2Ports - Version 3.70 - 1145.1110k50 SN: 100192
! Date: 2025-10-23 16:02:25
! Measurements: S11 S21 S12 S22 
! 
 1.260000000000000E10   -9.526478052139282E-1  -1.927700936794281E-1  -5.885584869247396E-6   2.823105387506075E-5  -5.681833499693312E-6   2.838971522578504E-5  -9.480079412460327E-1  -2.246321439743042E-1  
 1.260050000000000E10   -9.531881809234619E-1  -1.897505521774292E-1  -5.040994437877089E-6   2.928107824118342E-5  -5.141343535797205E-6   2.850811324606184E-5  -9.486715793609619E-1  -2.215203940868378E-1  
 1.260100000000000E10   -9.537254571914673E-1  -1.867163032293320E-1  -5.676632099493872E-6   2.946671884274110E-5  -5.038056769990362E-6   2.873145785997622E-5  -9.493589401245117E-1  -2.183863073587418E-1  
 1.260150000000000E10   -9.542611241340637E-1  -1.836595535278320E-1  -4.815387910639402E-6   3.014347930729855E-5  -4.643821284844307E-6   3.021323391294573E-5  -9.500226378440857E-1  -2.152731716632843E-1  
 1.260200000000000E10   -9.548243880271912E-1  -1.805606782436371E-1  -5.395610060077161E-6   3.028345054190140E-5  -4.324084329709876E-6   3.067947181989439E-5  -9.506375193595886E-1  -2.121067941188812E-1  
 1.260250000000000E10   -9.553071260452271E-1  -1.774952113628388E-1  -4.878897925664205E-6   3.047047539439518E-5  -4.538383564067772E-6   3.126564479316585E-5  -9.513003826141357E-1  -2.089777886867523E-1  
 1.260300000000000E10   -9.558299779891968E-1  -1.744349002838135E-1  -5.547919499804266E-6   3.203445157851093E-5  -4.763132892549038E-6   3.199094135197811E-5  -9.519054293632507E-1  -2.057870328426361E-1  
 1.260350000000000E10   -9.563530087471008E-1  -1.713021099567413E-1  -5.998809683660511E-6   3.222722079954110E-5  -4.516461103776237E-6   3.220011785742827E-5  -9.525387287139893E-1  -2.025636732578278E-1  
 1.260400000000000E10   -9.568543434143066E-1  -1.681548058986664E-1  -5.516831151908264E-6   3.141338675050065E-5  -5.488426722877193E-6   3.267496504122391E-5  -9.531890153884888E-1  -1.993272006511688E-1  
 1.260450000000000E10   -9.573252797126770E-1  -1.649588346481323E-1  -4.924745553580578E-6   3.210158683941700E-5  -4.595352038450074E-6   3.234274481656030E-5  -9.537845849990845E-1  -1.960651427507401E-1  
 1.260500000000000E10   -9.578148126602173E-1  -1.618047952651978E-1  -5.022502136853291E-6   3.305795326014049E-5  -4.157261628279230E-6   3.338211899972521E-5  -9.543746113777161E-1  -1.928288042545319E-1  
 1.260550000000000E10   -9.582889080047607E-1  -1.586367189884186E-1  -5.666474862664472E-6   3.414083039388061E-5  -3.751173835553345E-6   3.437561463215388E-5  -9.549977183341980E-1  -1.894988566637039E-1  
 1.260600000000000E10   -9.587709903717041E-1  -1.553705632686615E-1  -4.951163646182977E-6   3.347872916492634E-5  -4.518329205893679E-6   3.486804780550301E-5  -9.555521607398987E-1  -1.862279325723648E-1  
 1.260650000000000E10   -9.600766301155090E-1  -1.527053415775299E-1  -4.788974820257863E-6   3.562062192941085E-5  -3.344863216625527E-6   3.492502946755849E-5  -9.567695856094360E-1  -1.832014322280884E-1  
 1.260700000000000E10   -9.605000615119934E-1  -1.494532376527786E-1  -5.688500095857307E-6   3.525554348016158E-5  -3.400869900360704E-6   3.593291330616921E-5  -9.573330879211426E-1  -1.798360645771027E-1  
 1.260750000000000E10   -9.609470367431641E-1  -1.462169289588928E-1  -4.761433046951424E-6   3.639228452811949E-5  -3.038404884136980E-6   3.681236557895318E-5  -9.578707814216614E-1  -1.764823794364929E-1  
 1.260800000000000E10   -9.613578319549561E-1  -1.428795754909515E-1  -4.666267159336712E-6   3.706825373228639E-5  -2.567644514783751E-6   3.697995634865947E-5  -9.584571719169617E-1  -1.730653643608093E-1  
 1.260850000000000E10   -9.617787003517151E-1  -1.395587027072907E-1  -4.807862296729581E-6   3.827173350146040E-5  -2.704832922972855E-6   3.807136454270221E-5  -9.589662551879883E-1  -1.696676611900330E-1  
 1.260900000000000E10   -9.621998071670532E-1  -1.362554728984833E-1  -3.867389750666916E-6   3.894421388395131E-5  -2.549990767874988E-6   3.836202085949481E-5  -9.595211744308472E-1  -1.662048697471619E-1  
 1.260950000000000E10   -9.625778794288635E-1  -1.328943371772766E-1  -4.768130111187929E-6   3.977150845457800E-5  -2.740874606388388E-6   3.979751636506990E-5  -9.600384235382080E-1  -1.627112030982971E-1  
 1.261000000000000E10   -9.630025625228882E-1  -1.295493841171265E-1  -4.999170869268710E-6   4.000245826318860E-5  -2.259720986330649E-6   3.994227154180408E-5  -9.605507850646973E-1  -1.592168807983398E-1  
 1.261050000000000E10   -9.633951783180237E-1  -1.261095702648163E-1  -4.045360128657194E-6   4.123836333747022E-5  -2.553156036810833E-6   4.149955566390418E-5  -9.610857367515564E-1  -1.557050645351410E-1  
 1.261100000000000E10   -9.637451767921448E-1  -1.226957961916924E-1  -4.299346983316355E-6   4.181209442322142E-5  -2.005894657486351E-6   4.122100654058158E-5  -9.615502953529358E-1  -1.521590501070023E-1  
 1.261150000000000E10   -9.641094803810120E-1  -1.192673593759537E-1  -3.604592166084331E-6   4.198087844997644E-5  -2.144201289411285E-6   4.306976916268468E-5  -9.620711207389832E-1  -1.485858112573624E-1  
 1.261200000000000E10   -9.644778966903687E-1  -1.158164441585541E-1  -3.655460204754490E-6   4.301860826672055E-5  -2.438323690512334E-6   4.347655703895725E-5  -9.625239372253418E-1  -1.449497640132904E-1  
 1.261250000000000E10   -9.648204445838928E-1  -1.123390048742294E-1  -2.797679371724371E-6   4.452263601706363E-5  -2.047700718321721E-6   4.471222564461641E-5  -9.630182385444641E-1  -1.413528174161911E-1  
 1.261300000000000E10   -9.651786088943481E-1  -1.088556647300720E-1  -2.691749841687852E-6   4.433106732903980E-5  -2.063641204586020E-6   4.433753929333761E-5  -9.634648561477661E-1  -1.376954615116119E-1  
 1.261350000000000E10   -9.654688835144043E-1  -1.052284687757492E-1  -2.512199216653244E-6   4.593225821736269E-5  -1.411016683050548E-6   4.537844870355912E-5  -9.638929367065430E-1  -1.340530812740326E-1  
 1.261400000000000E10   -9.658134579658508E-1  -1.017105430364609E-1  -1.540176754133427E-6   4.672426439356059E-5  -2.005471060329001E-6   4.696712858276442E-5  -9.643356800079346E-1  -1.303034126758575E-1  
 1.261450000000000E10   -9.660321474075317E-1  -9.813804924488068E-2  -1.427502411388559E-6   4.739168434753083E-5  -1.971169695025310E-6   4.797021756530739E-5  -9.647628664970398E-1  -1.265664696693420E-1  
 1.261500000000000E10   -9.663559198379517E-1  -9.459874778985977E-2  -2.240104322481784E-6   4.814164276467636E-5  -2.285320988448802E-6   4.942713712807745E-5  -9.651194810867310E-1  -1.228305995464325E-1  
 1.261550000000000E10   -9.666528701782227E-1  -9.097765386104584E-2  -2.149031615772401E-6   4.979947334504686E-5  -2.266669980599545E-6   4.896743121207692E-5  -9.655337333679199E-1  -1.190532967448235E-1  
 1.261600000000000E10   -9.668903350830078E-1  -8.737634122371674E-2  -1.355608674202813E-6   4.999334123567678E-5  -1.458447513869032E-6   5.099247937323526E-5  -9.658935070037842E-1  -1.152674108743668E-1  
 1.261650000000000E10   -9.671723246574402E-1  -8.371146023273468E-2  -1.337532921752427E-6   5.166492337593809E-5  -1.352635990770068E-6   5.153395250090398E-5  -9.662902951240540E-1  -1.114533841609955E-1  
 1.261700000000000E10   -9.674065113067627E-1  -8.000486344099045E-2  -8.470392458548304E-7   5.186395719647408E-5  -1.836090632423293E-6   5.207638969295658E-5  -9.666454195976257E-1  -1.075941398739815E-1  
 1.261750000000000E10   -9.676750302314758E-1  -7.630477845668793E-2  -6.909672265464906E-7   5.371151564759202E-5  -1.620013335923431E-6   5.389856232795864E-5  -9.669932723045349E-1  -1.037109792232513E-1  
 1.261800000000000E10   -9.678728580474854E-1  -7.255574315786362E-2   2.593355930002872E-7   5.448435331345536E-5  -1.690865701675648E-6   5.484870052896440E-5  -9.673389792442322E-1  -9.977182000875473E-2  
 1.261850000000000E10   -9.680573940277100E-1  -6.877705454826355E-2   5.231227078184020E-7   5.581727600656450E-5  -2.532620328565827E-6   5.599837095360272E-5  -9.676618576049805E-1  -9.585559368133545E-2  
 1.261900000000000E10   -9.682295918464661E-1  -6.502781808376312E-2   7.204394023574423E-7   5.555402458412573E-5  -1.708172931103036E-6   5.661488830810413E-5  -9.679720401763916E-1  -9.187825024127960E-2  
 1.261950000000000E10   -9.684197306632996E-1  -6.118450313806534E-2   8.473311936540995E-7   5.716444866266102E-5  -1.715703547233716E-6   5.787228292319924E-5  -9.682274460792542E-1  -8.785372227430344E-2  
 1.262000000000000E10   -9.685980677604675E-1  -5.732939764857292E-2   1.194775904878043E-6   5.888950181542896E-5  -2.475050678185653E-6   5.868968946742825E-5  -9.685182571411133E-1  -8.381386101245880E-2  
 1.262050000000000E10   -9.687312841415405E-1  -5.347909405827522E-2   1.308206265093759E-6   6.019442298565991E-5  -1.201095074065961E-6   5.963197691016831E-5  -9.687519073486328E-1  -7.973001897335053E-2  
 1.262100000000000E10   -9.688647389411926E-1  -4.960137605667114E-2   1.937200522661442E-6   6.116134318290278E-5  -2.237401076854440E-6   6.037024650140666E-5  -9.690532088279724E-1  -7.563351094722748E-2  
 1.262150000000000E10   -9.689800143241882E-1  -4.568776115775108E-2   1.658537257753778E-6   6.183073855936527E-5  -1.975787654373562E-6   6.204309465829283E-5  -9.692457318305969E-1  -7.153197377920151E-2  
 1.262200000000000E10   -9.690817594528198E-1  -4.172244295477867E-2   2.314327502972446E-6   6.340069376165047E-5  -1.742517270031385E-6   6.271622260101140E-5  -9.694510698318481E-1  -6.733546406030655E-2  
 1.262250000000000E10   -9.691593647003174E-1  -3.774580359458923E-2   2.419387328700395E-6   6.579810724360868E-5  -1.572933797433507E-6   6.385528104146943E-5  -9.696464538574219E-1  -6.316725909709930E-2  
 1.262300000000000E10   -9.692337512969971E-1  -3.374412655830383E-2   1.893291937449249E-6   6.556254811584950E-5  -1.153498033090727E-6   6.532262341352180E-5  -9.698672890663147E-1  -5.893240123987198E-2  
 1.262350000000000E10   -9.692825675010681E-1  -2.971023321151733E-2   2.521393525967142E-6   6.714517803629860E-5  -1.239609446201939E-6   6.684543041046709E-5  -9.699855446815491E-1  -5.469243228435516E-2  
 1.262400000000000E10   -9.693445563316345E-1  -2.564851939678192E-2   1.243818587681744E-6   6.883848254801706E-5  -7.384642231045291E-7   6.789313192712143E-5  -9.701673984527588E-1  -5.040970444679260E-2  
 1.262450000000000E10   -9.693453311920166E-1  -2.155893296003342E-2   2.845875314960722E-6   6.970053800614551E-5  -8.396073098992929E-7   6.988426321186125E-5  -9.702683091163635E-1  -4.606780037283897E-2  
 1.262500000000000E10   -9.693521857261658E-1  -1.741784811019898E-2   2.470709205226740E-6   7.183107663877308E-5  -1.068057372322073E-6   7.123265822883695E-5  -9.703595042228699E-1  -4.173464328050613E-2  
 1.262550000000000E10   -9.693412780761719E-1  -1.327056437730789E-2   2.362667146371678E-6   7.291746442206204E-5   1.062044248101302E-7   7.226785965031013E-5  -9.704578518867493E-1  -3.734148293733597E-2  
 1.262600000000000E10   -9.693227410316467E-1  -9.139403700828552E-3   2.494130512786796E-6   7.448719406966120E-5   3.170898708049208E-7   7.335776172112674E-5  -9.705404639244080E-1  -3.289930149912834E-2  
 1.262650000000000E10   -9.692552089691162E-1  -4.895955324172974E-3   2.791737188090337E-6   7.515913603128865E-5   3.909308361471631E-7   7.524172542616725E-5  -9.705532789230347E-1  -2.840832993388176E-2  
 1.262700000000000E10   -9.691708683967590E-1  -6.617680191993713E-4   3.381198894203408E-6   7.694851956330240E-5   9.580276127962861E-7   7.668549369554967E-5  -9.705823659896851E-1  -2.392965927720070E-2  
 1.262750000000000E10   -9.690788388252258E-1   3.602445125579834E-3   3.356562501721783E-6   7.889910193625838E-5   1.463203716411954E-6   7.721027941443026E-5  -9.705701470375061E-1  -1.937184110283852E-2  
 1.262800000000000E10   -9.689851999282837E-1   7.916517555713654E-3   3.600530817493564E-6   8.111835632007569E-5   2.639551439642673E-6   7.983880641404539E-5  -9.705508351325989E-1  -1.484060287475586E-2  
 1.262850000000000E10   -9.688509702682495E-1   1.225061714649200E-2   4.136555617151316E-6   8.127262844936922E-5   2.737270278885262E-6   8.135792450048029E-5  -9.705407619476318E-1  -1.021784171462059E-2  
 1.262900000000000E10   -9.687101840972900E-1   1.666029542684555E-2   4.291054665372940E-6   8.287817763630301E-5   3.309180556243518E-6   8.274892024928704E-5  -9.704791307449341E-1  -5.568750202655792E-3  
 1.262950000000000E10   -9.685081243515015E-1   2.105829864740372E-2   4.636964604287641E-6   8.471842738799751E-5   4.665982942242408E-6   8.387233538087457E-5  -9.703763723373413E-1  -8.798278868198395E-4  
 1.263000000000000E10   -9.683231711387634E-1   2.549014240503311E-2   4.309848009143025E-6   8.591678488301113E-5   5.009985670767492E-6   8.579475979786366E-5  -9.702773690223694E-1   3.809574991464615E-3  
 1.263050000000000E10   -9.680681824684143E-1   2.994726970791817E-2   5.188330760574900E-6   8.743788930587471E-5   5.570897428697208E-6   8.847044227877632E-5  -9.701176881790161E-1   8.619826287031174E-3  
 1.263100000000000E10   -9.678813219070435E-1   3.445622324943543E-2   5.962981504126219E-6   9.036740084411576E-5   7.869717592257075E-6   9.022341691888869E-5  -9.699600934982300E-1   1.340845599770546E-2  
 1.263150000000000E10   -9.675883054733276E-1   3.900722786784172E-2   5.993490503897192E-6   9.149355173576623E-5   8.082409294729587E-6   9.139783651335165E-5  -9.697436094284058E-1   1.824096217751503E-2  
 1.263200000000000E10   -9.673026800155640E-1   4.356209561228752E-2   7.645401638001204E-6   9.291731112170965E-5   8.705290383659303E-6   9.415155363967642E-5  -9.695582389831543E-1   2.313044667243958E-2  
 1.263250000000000E10   -9.669626951217651E-1   4.817678779363632E-2   7.903372534201480E-6   9.529255476081744E-5   9.718380169942975E-6   9.596134623279795E-5  -9.693169593811035E-1   2.804697304964066E-2  
 1.263300000000000E10   -9.666576981544495E-1   5.283083021640778E-2   8.755404451221693E-6   9.731603495310992E-5   1.041116956912447E-5   9.866349137155339E-5  -9.690442085266113E-1   3.303247317671776E-2  
 1.263350000000000E10   -9.663023948669434E-1   5.754199251532555E-2   8.909635653253645E-6   9.851111099123955E-5   1.208534558827523E-5   1.004848236334510E-4  -9.687185883522034E-1   3.802760317921639E-2  
 1.263400000000000E10   -9.658817648887634E-1   6.225510314106941E-2   9.060175216291100E-6   1.013087021419779E-4   1.384239112667274E-5   1.031423380482011E-4  -9.684190750122070E-1   4.309443756937981E-2  
 1.263450000000000E10   -9.654308557510376E-1   6.701723486185074E-2   1.044009422912495E-5   1.041531359078363E-4   1.463921034883242E-5   1.050713253789581E-4  -9.680395126342773E-1   4.820215329527855E-2  
 1.263500000000000E10   -9.650259613990784E-1   7.180678844451904E-2   1.188827718578978E-5   1.062446535797790E-4   1.483904452470597E-5   1.077254710253328E-4  -9.676775336265564E-1   5.332058668136597E-2  
 1.263550000000000E10   -9.645370244979858E-1   7.666699588298798E-2   1.268348751182202E-5   1.077714041457512E-4   1.634165710129309E-5   1.107328498619609E-4  -9.672394990921021E-1   5.854196101427078E-2  
 1.263600000000000E10   -9.640582203865051E-1   8.156009018421173E-2   1.384255665470846E-5   1.102554524550214E-4   1.770908056641929E-5   1.128027215600014E-4  -9.667735695838928E-1   6.376298516988754E-2  
 1.263650000000000E10   -9.635428190231323E-1   8.647072315216065E-2   1.376877116854303E-5   1.142663168138824E-4   1.889794839371461E-5   1.149846793850884E-4  -9.662899374961853E-1   6.904456764459610E-2  
 1.263700000000000E10   -9.629690051078796E-1   9.142234176397324E-2   1.565552156534977E-5   1.161358304671012E-4   2.046059489657637E-5   1.178519596578553E-4  -9.657590389251709E-1   7.438775151968002E-2  
 1.263750000000000E10   -9.623646140098572E-1   9.642006456851959E-2   1.713201891107019E-5   1.196335142594762E-4   2.057807978417259E-5   1.202119165100157E-4  -9.652001857757568E-1   7.976765930652618E-2  
 1.263800000000000E10   -9.617055654525757E-1   1.014806032180786E-1   1.786934808478691E-5   1.218783509102650E-4   2.256373227282893E-5   1.233665680047125E-4  -9.645944833755493E-1   8.518601953983307E-2  
 1.263850000000000E10   -9.610666632652283E-1   1.065987125039101E-1   2.026068068516906E-5   1.249092747457326E-4   2.441896140226163E-5   1.258092379430309E-4  -9.639405012130737E-1   9.065379947423935E-2  
 1.263900000000000E10   -9.603830575942993E-1   1.117167770862579E-1   2.208930345659610E-5   1.280900032725185E-4   2.531717836973257E-5   1.296333502978087E-4  -9.632852077484131E-1   9.617256373167038E-2  
 1.263950000000000E10   -9.596487879753113E-1   1.168830767273903E-1   2.332240364921745E-5   1.309435319853947E-4   2.664918065420352E-5   1.308494247496128E-4  -9.625590443611145E-1   1.017533466219902E-1  
 1.264000000000000E10   -9.589297771453857E-1   1.220793724060059E-1   2.494848740752786E-5   1.346633362118155E-4   2.785258766380139E-5   1.348369842162356E-4  -9.618501663208008E-1   1.073634102940559E-1  
 1.264050000000000E10   -9.580749273300171E-1   1.273428499698639E-1   2.673680683074053E-5   1.364618219668046E-4   2.889081406465266E-5   1.372229016851634E-4  -9.610735774040222E-1   1.130413487553597E-1  
 1.264100000000000E10   -9.572406411170960E-1   1.326770484447479E-1   2.894159479183145E-5   1.407125091645867E-4   3.045590347028337E-5   1.398964814143255E-4  -9.602378010749817E-1   1.187736243009567E-1  
 1.264150000000000E10   -9.563531875610352E-1   1.380080878734589E-1   3.060028757317923E-5   1.433241704944521E-4   3.185248351655901E-5   1.430022530257702E-4  -9.593330621719360E-1   1.245384886860848E-1  
 1.264200000000000E10   -9.554090499877930E-1   1.434119492769241E-1   3.139805266982876E-5   1.469157286919653E-4   3.339561226312071E-5   1.455587334930897E-4  -9.584030508995056E-1   1.303744167089462E-1  
 1.264250000000000E10   -9.544881582260132E-1   1.488614529371262E-1   3.388777258805931E-5   1.504387910244986E-4   3.438437852310017E-5   1.490394643042237E-4  -9.574479460716248E-1   1.362501382827759E-1  
 1.264300000000000E10   -9.534836411476135E-1   1.543499976396561E-1   3.545187792042270E-5   1.534757611807436E-4   3.539824319886975E-5   1.521935919299722E-4  -9.564137458801270E-1   1.422149240970612E-1  
 1.264350000000000E10   -9.524462819099426E-1   1.599104255437851E-1   3.879685391439125E-5   1.572201435919851E-4   3.725231727003120E-5   1.560683449497446E-4  -9.553652405738831E-1   1.481958180665970E-1  
 1.264400000000000E10   -9.513772130012512E-1   1.654883921146393E-1   4.107185668544844E-5   1.610637991689146E-4   3.905395715264604E-5   1.592688204254955E-4  -9.542543292045593E-1   1.542755663394928E-1  
 1.264450000000000E10   -9.502520561218262E-1   1.711251139640808E-1   4.287269621272571E-5   1.646129530854523E-4   4.027296017738991E-5   1.630738552194089E-4  -9.530734419822693E-1   1.603800952434540E-1  
 1.264500000000000E10   -9.490666985511780E-1   1.768265962600708E-1   4.535940388450399E-5   1.681850699242204E-4   4.175668800598942E-5   1.675032399361953E-4  -9.518494606018066E-1   1.665437817573547E-1  
 1.264550000000000E10   -9.478693008422852E-1   1.825629174709320E-1   4.719315984402783E-5   1.715981052257121E-4   4.371973045635968E-5   1.706555631244555E-4  -9.506092667579651E-1   1.727889031171799E-1  
 1.264600000000000E10   -9.466163516044617E-1   1.883728504180908E-1   4.997305950382724E-5   1.766369532560930E-4   4.611250551533885E-5   1.751217059791088E-4  -9.492700099945068E-1   1.790494322776794E-1  
 1.264650000000000E10   -9.452711939811707E-1   1.941975355148315E-1   5.253918789094314E-5   1.800761383492500E-4   4.713580710813403E-5   1.788823865354061E-4  -9.478465914726257E-1   1.854117810726166E-1  
