#  HZ   S   RI   R     50.00 
! Rohde & Schwarz ZVA50 2Ports - Version 3.70 - 1145.1110k50 SN: 100192
! Date: 2025-10-23 16:22:35
! Measurements: S11 S21 S12 S22 
! 
 1.260000000000000E10   -9.406026601791382E-1  -2.556065320968628E-1  -4.881223503616639E-6   2.357267658226192E-5  -4.537127097137272E-6   2.316770041943528E-5  -9.523376226425171E-1  -2.067382037639618E-1  
 1.260050000000000E10   -9.412001967430115E-1  -2.530530393123627E-1  -4.496367182582617E-6   2.421621320536360E-5  -5.056612735643284E-6   2.394730472587980E-5  -9.529561996459961E-1  -2.034672796726227E-1  
 1.260100000000000E10   -9.418531656265259E-1  -2.504599094390869E-1  -5.252260052657221E-6   2.447918814141303E-5  -4.350737071945332E-6   2.340050559723750E-5  -9.535861611366272E-1  -2.001677155494690E-1  
 1.260150000000000E10   -9.425051212310791E-1  -2.478596419095993E-1  -4.933166565024294E-6   2.533959013817366E-5  -4.424722646945156E-6   2.419062730041333E-5  -9.542081356048584E-1  -1.968815475702286E-1  
 1.260200000000000E10   -9.431279301643372E-1  -2.452827543020248E-1  -4.701332727563568E-6   2.509153819119092E-5  -4.683423412643606E-6   2.478432361385785E-5  -9.547632932662964E-1  -1.935351788997650E-1  
 1.260250000000000E10   -9.437232613563538E-1  -2.427047193050385E-1  -5.203311047807802E-6   2.490193946869113E-5  -4.109239853278268E-6   2.536350984883029E-5  -9.554021954536438E-1  -1.901946812868118E-1  
 1.260300000000000E10   -9.443569779396057E-1  -2.401621341705322E-1  -5.339079507393763E-6   2.596735976112541E-5  -4.389335117593873E-6   2.531915197323542E-5  -9.559673666954041E-1  -1.868223696947098E-1  
 1.260350000000000E10   -9.449855089187622E-1  -2.375494539737701E-1  -4.227568751957733E-6   2.623046566441190E-5  -4.515370619628811E-6   2.577174927864689E-5  -9.565494656562805E-1  -1.834315061569214E-1  
 1.260400000000000E10   -9.456059932708740E-1  -2.349125146865845E-1  -4.902989530819468E-6   2.700048571568914E-5  -4.309642008593073E-6   2.659902929735836E-5  -9.571568369865418E-1  -1.800087392330170E-1  
 1.260450000000000E10   -9.462259411811829E-1  -2.322736233472824E-1  -4.425044153322233E-6   2.710280205064919E-5  -4.023311248602113E-6   2.677260818018112E-5  -9.577162861824036E-1  -1.765798330307007E-1  
 1.260500000000000E10   -9.468104243278503E-1  -2.296044677495956E-1  -4.643148713512346E-6   2.741175012488384E-5  -4.006147264590254E-6   2.716890230658464E-5  -9.582452178001404E-1  -1.731531322002411E-1  
 1.260550000000000E10   -9.474028348922730E-1  -2.270046025514603E-1  -5.592018169409130E-6   2.807186319842003E-5  -4.085606633452699E-6   2.762366784736514E-5  -9.588060379028320E-1  -1.696296632289887E-1  
 1.260600000000000E10   -9.479913711547852E-1  -2.242764234542847E-1  -5.111059181217570E-6   2.846815004886594E-5  -4.104907020519022E-6   2.799616777338088E-5  -9.593387246131897E-1  -1.661525666713715E-1  
 1.260650000000000E10   -9.493646621704102E-1  -2.222144901752472E-1  -5.138459528097883E-6   2.823445902322419E-5  -3.853800990327727E-6   2.859413143596612E-5  -9.605239629745483E-1  -1.629439592361450E-1  
 1.260700000000000E10   -9.499306678771973E-1  -2.195453941822052E-1  -5.258507371763699E-6   2.937619319709484E-5  -3.408784778002882E-6   2.986114668601658E-5  -9.610020518302918E-1  -1.593636125326157E-1  
 1.260750000000000E10   -9.505274295806885E-1  -2.168409824371338E-1  -4.357552370493067E-6   2.948059955087956E-5  -3.907360223820433E-6   2.987233347084839E-5  -9.614788293838501E-1  -1.558030843734741E-1  
 1.260800000000000E10   -9.510514140129089E-1  -2.141181230545044E-1  -4.997534233552869E-6   3.043511060241144E-5  -3.385598802196910E-6   2.991574729094282E-5  -9.620013236999512E-1  -1.521846801042557E-1  
 1.260850000000000E10   -9.516475200653076E-1  -2.113519608974457E-1  -3.847220796160400E-6   3.038645081687719E-5  -3.382290287845535E-6   3.052787360502407E-5  -9.624592661857605E-1  -1.485882997512817E-1  
 1.260900000000000E10   -9.521865248680115E-1  -2.086130380630493E-1  -4.975833689968567E-6   3.164340159855783E-5  -2.930911477960763E-6   3.145217851852067E-5  -9.629334211349487E-1  -1.449151188135147E-1  
 1.260950000000000E10   -9.527324438095093E-1  -2.058525383472443E-1  -3.772583568206755E-6   3.194711462128907E-5  -3.718447715073125E-6   3.235954864067026E-5  -9.633808732032776E-1  -1.412432938814163E-1  
 1.261000000000000E10   -9.532987475395203E-1  -2.030881047248840E-1  -3.963831659348216E-6   3.178407132509165E-5  -3.466634325377527E-6   3.306998769403435E-5  -9.638273119926453E-1  -1.374942362308502E-1  
 1.261050000000000E10   -9.538526535034180E-1  -2.002754211425781E-1  -4.155125679972116E-6   3.300381285953336E-5  -3.046346364499186E-6   3.316506627015770E-5  -9.643090963363648E-1  -1.337988376617432E-1  
 1.261100000000000E10   -9.543446302413940E-1  -1.974799931049347E-1  -3.565204679034650E-6   3.316271613584831E-5  -2.951130454675877E-6   3.435679536778480E-5  -9.647092223167419E-1  -1.300429105758667E-1  
 1.261150000000000E10   -9.548466205596924E-1  -1.946196109056473E-1  -3.627415026130620E-6   3.367572571733035E-5  -2.127477955582435E-6   3.467389615252614E-5  -9.651442170143127E-1  -1.262491196393967E-1  
 1.261200000000000E10   -9.553945660591126E-1  -1.917952448129654E-1  -3.357979949214496E-6   3.410867793718353E-5  -1.750432602420915E-6   3.551386907929555E-5  -9.655331969261169E-1  -1.223866939544678E-1  
 1.261250000000000E10   -9.559181928634644E-1  -1.889711320400238E-1  -2.945851065305760E-6   3.550600013113581E-5  -1.920963768498041E-6   3.606755126384087E-5  -9.659425020217896E-1  -1.185505539178848E-1  
 1.261300000000000E10   -9.564563632011414E-1  -1.861127018928528E-1  -2.890418272727402E-6   3.611134525272064E-5  -3.249687779316446E-6   3.678569191833958E-5  -9.663196802139282E-1  -1.146913841366768E-1  
 1.261350000000000E10   -9.569367766380310E-1  -1.831729114055634E-1  -2.784863681881689E-6   3.628902049968019E-5  -1.929737209138693E-6   3.698782529681921E-5  -9.666420817375183E-1  -1.107886806130409E-1  
 1.261400000000000E10   -9.574219584465027E-1  -1.803123354911804E-1  -2.629182063174085E-6   3.844226739602163E-5  -2.299073003086960E-6   3.868105704896152E-5  -9.670186638832092E-1  -1.068591699004173E-1  
 1.261450000000000E10   -9.578652381896973E-1  -1.774007380008698E-1  -2.650215719768312E-6   3.800792910624296E-5  -1.440141204511747E-6   3.933145490009338E-5  -9.673663973808289E-1  -1.028636321425438E-1  
 1.261500000000000E10   -9.583888649940491E-1  -1.745062768459320E-1  -2.142238827218534E-6   3.969511089962907E-5  -2.706235136429314E-6   3.920661401934922E-5  -9.676506519317627E-1  -9.890457987785339E-2  
 1.261550000000000E10   -9.589041471481323E-1  -1.715984344482422E-1  -1.413962309015915E-6   3.955359352403320E-5  -1.996608261833899E-6   4.020740379928611E-5  -9.679622054100037E-1  -9.488417953252792E-2  
 1.261600000000000E10   -9.593514204025269E-1  -1.686406731605530E-1  -2.597549382699071E-6   4.082548184669577E-5  -2.843080665115849E-6   4.109828296350315E-5  -9.682661294937134E-1  -9.085306525230408E-2  
 1.261650000000000E10   -9.598429799079895E-1  -1.656871140003204E-1  -1.261972556676483E-6   4.124863698962145E-5  -1.765853539836826E-6   4.149907181272283E-5  -9.685631394386292E-1  -8.676634728908539E-2  
 1.261700000000000E10   -9.602980613708496E-1  -1.626554727554321E-1  -1.227647771884222E-6   4.254392115399241E-5  -2.198423999288934E-6   4.209633698337711E-5  -9.688006639480591E-1  -8.269366621971130E-2  
 1.261750000000000E10   -9.607535004615784E-1  -1.596638262271881E-1  -1.221217189595336E-6   4.314634497859515E-5  -2.846240931830835E-6   4.370175520307384E-5  -9.690610766410828E-1  -7.854366302490234E-2  
 1.261800000000000E10   -9.612022638320923E-1  -1.566496938467026E-1  -1.014966528600780E-6   4.531441300059669E-5  -3.170556738041341E-6   4.411850386532024E-5  -9.692707061767578E-1  -7.436252385377884E-2  
 1.261850000000000E10   -9.616348147392273E-1  -1.535876989364624E-1  -1.477890236856183E-6   4.530512887868099E-5  -2.736377609835472E-6   4.447755418368615E-5  -9.695119857788086E-1  -7.016567885875702E-2  
 1.261900000000000E10   -9.620501399040222E-1  -1.505662053823471E-1  -9.465547918807715E-7   4.618445746018551E-5  -3.467933765932685E-6   4.465565507416613E-5  -9.697004556655884E-1  -6.591939926147461E-2  
 1.261950000000000E10   -9.624860882759094E-1  -1.474806517362595E-1  -7.399285095743835E-8   4.744735269923694E-5  -3.507756446197163E-6   4.610262112691999E-5  -9.698770642280579E-1  -6.166619062423706E-2  
 1.262000000000000E10   -9.629187583923340E-1  -1.443810760974884E-1   3.777840902330354E-7   4.834448918700218E-5  -4.075419383298140E-6   4.746029662783258E-5  -9.700590372085571E-1  -5.734736844897270E-2  
 1.262050000000000E10   -9.633153080940247E-1  -1.413031220436096E-1  -1.648809302423615E-7   4.922081643599086E-5  -3.705227982209181E-6   4.791308310814202E-5  -9.701656699180603E-1  -5.302370712161064E-2  
 1.262100000000000E10   -9.637211561203003E-1  -1.381812989711762E-1   4.724756763607729E-7   4.987043575965799E-5  -4.045914010930574E-6   4.839780740439892E-5  -9.703460931777954E-1  -4.865121096372604E-2  
 1.262150000000000E10   -9.641137719154358E-1  -1.350620537996292E-1   8.324082045874093E-7   5.169053474674001E-5  -4.145469574723393E-6   4.940677536069416E-5  -9.704075455665588E-1  -4.428189247846603E-2  
 1.262200000000000E10   -9.644969105720520E-1  -1.318878084421158E-1  -7.505996109102853E-7   5.199122824706137E-5  -4.041759439132875E-6   4.917558544548228E-5  -9.704811573028565E-1  -3.982302546501160E-2  
 1.262250000000000E10   -9.648694396018982E-1  -1.287181824445725E-1  -3.808377186942380E-7   5.297207826515660E-5  -4.404444553074427E-6   4.970954250893556E-5  -9.705464243888855E-1  -3.533388674259186E-2  
 1.262300000000000E10   -9.652713537216187E-1  -1.255204379558563E-1  -3.815321178990416E-7   5.373308158596046E-5  -4.470944077183958E-6   5.082238931208849E-5  -9.706304669380188E-1  -3.086584806442261E-2  
 1.262350000000000E10   -9.656265377998352E-1  -1.223076954483986E-1  -1.104150214814581E-6   5.419203807832673E-5  -3.462818085608888E-6   5.129067358211614E-5  -9.706296920776367E-1  -2.628122270107269E-2  
 1.262400000000000E10   -9.659502506256104E-1  -1.190864145755768E-1  -1.629517555556959E-6   5.561549187405035E-5  -3.632404741438222E-6   5.270626206765883E-5  -9.706549644470215E-1  -2.171822637319565E-2  
 1.262450000000000E10   -9.663116335868835E-1  -1.158014163374901E-1  -1.119923126680078E-6   5.515585507964715E-5  -3.100032472502790E-6   5.355462781153619E-5  -9.706059694290161E-1  -1.708286255598068E-2  
 1.262500000000000E10   -9.666572213172913E-1  -1.125361472368240E-1  -1.095412244467298E-6   5.598707139142789E-5  -1.520926616649376E-6   5.487389717018232E-5  -9.705615639686585E-1  -1.245274394750595E-2  
 1.262550000000000E10   -9.669893980026245E-1  -1.092452332377434E-1  -5.717893145629205E-7   5.706739102606662E-5  -1.088180397346150E-6   5.609759682556614E-5  -9.704782962799072E-1  -7.749535143375397E-3  
 1.262600000000000E10   -9.672828316688538E-1  -1.059606224298477E-1   3.224727151973639E-7   5.671003964380361E-5  -8.093156793620437E-7   5.727807729272172E-5  -9.704027175903320E-1  -3.003470599651337E-3  
 1.262650000000000E10   -9.675897955894470E-1  -1.026068478822708E-1   5.734746082453057E-7   5.780810533906333E-5  -3.419404492888134E-7   5.856428469996899E-5  -9.702814221382141E-1   1.786150038242340E-3  
 1.262700000000000E10   -9.678404331207275E-1  -9.925893694162369E-2   1.056180735758971E-6   5.889018939342350E-5  -2.106894498865586E-7   6.040097650839016E-5  -9.701308012008667E-1   6.575837731361389E-3  
 1.262750000000000E10   -9.681425094604492E-1  -9.590800106525421E-2  -1.500893631600775E-8   5.920263356529176E-5   7.362723408732563E-7   6.228516576811671E-5  -9.699416160583496E-1   1.144838333129883E-2  
 1.262800000000000E10   -9.684371352195740E-1  -9.249950200319290E-2   1.292511569772614E-6   6.118726741988212E-5   2.877150109270588E-7   6.369462789734826E-5  -9.697833657264710E-1   1.631366461515427E-2  
 1.262850000000000E10   -9.687300920486450E-1  -8.910267055034638E-2   5.501237865246367E-7   6.140382174635306E-5   1.947660166479182E-7   6.500664312625304E-5  -9.695728421211243E-1   2.127861231565476E-2  
 1.262900000000000E10   -9.689804315567017E-1  -8.563843369483948E-2   1.893132775876438E-6   6.364329601638019E-5   1.012067059491528E-6   6.664158718194813E-5  -9.692985415458679E-1   2.621381729841232E-2  
 1.262950000000000E10   -9.691793918609619E-1  -8.220148086547852E-2   1.768985839589732E-6   6.600042252102867E-5   1.205193257192150E-6   6.839819252490997E-5  -9.690125584602356E-1   3.124053776264191E-2  
 1.263000000000000E10   -9.694211483001709E-1  -7.872117310762405E-2   2.094670435326407E-6   6.697834760416299E-5   1.413353857060429E-6   6.885445327498019E-5  -9.687212705612183E-1   3.630980104207993E-2  
 1.263050000000000E10   -9.696264863014221E-1  -7.521390914916992E-2   1.517310465715127E-6   6.912515527801588E-5   1.767493813531473E-6   7.053544686641544E-5  -9.683556556701660E-1   4.144038259983063E-2  
 1.263100000000000E10   -9.698660373687744E-1  -7.170876860618591E-2   1.318093836744083E-6   6.938226579222828E-5   2.375074473093264E-6   7.194315548986197E-5  -9.679774045944214E-1   4.656538367271423E-2  
 1.263150000000000E10   -9.700701236724854E-1  -6.813026219606400E-2   1.663292550801998E-6   7.234355143737048E-5   3.215482593077468E-6   7.381939940387383E-5  -9.675561189651489E-1   5.177684873342514E-2  
 1.263200000000000E10   -9.702221751213074E-1  -6.460821628570557E-2   1.295265974476934E-6   7.377062138402835E-5   4.072440333402483E-6   7.428174285450950E-5  -9.671209454536438E-1   5.702519416809082E-2  
 1.263250000000000E10   -9.703868031501770E-1  -6.097823008894920E-2   1.876651822385611E-6   7.496115722460672E-5   4.622894721251214E-6   7.612125773448497E-5  -9.666972160339356E-1   6.229883804917336E-2  
 1.263300000000000E10   -9.705700278282166E-1  -5.737119540572166E-2   1.969479853869416E-6   7.622779230587184E-5   5.516663350135787E-6   7.745426410110667E-5  -9.661664366722107E-1   6.763274222612381E-2  
 1.263350000000000E10   -9.707138538360596E-1  -5.371909961104393E-2   1.587603037478402E-6   7.788058428559452E-5   6.917834070918616E-6   7.864482904551551E-5  -9.656392931938171E-1   7.299306243658066E-2  
 1.263400000000000E10   -9.708592295646668E-1  -5.007439479231834E-2   2.072536062769359E-6   7.993842882569879E-5   8.481946679239627E-6   7.970614387886599E-5  -9.650744795799255E-1   7.841788232326508E-2  
 1.263450000000000E10   -9.709541201591492E-1  -4.637199640274048E-2   2.520083626222913E-6   8.182337478501722E-5   8.982449799077585E-6   8.135350071825087E-5  -9.644378423690796E-1   8.390030264854431E-2  
 1.263500000000000E10   -9.710897207260132E-1  -4.268023371696472E-2   4.054817964060931E-6   8.350732241524383E-5   1.059723945218138E-5   8.184702892322093E-5  -9.638026952743530E-1   8.942547440528870E-2  
 1.263550000000000E10   -9.711575508117676E-1  -3.890902921557427E-2   6.151026354928035E-6   8.573384548071772E-5   1.131595035985811E-5   8.364127279492095E-5  -9.631195664405823E-1   9.502121061086655E-2  
 1.263600000000000E10   -9.712837934494019E-1  -3.513790294528008E-2   6.412701623048633E-6   8.724026702111587E-5   1.188370788440807E-5   8.476430230075494E-5  -9.623625278472900E-1   1.006380915641785E-1  
 1.263650000000000E10   -9.713106155395508E-1  -3.137825056910515E-2   7.365179044427350E-6   8.800171781331301E-5   1.270060511160409E-5   8.670148963574320E-5  -9.616101980209351E-1   1.063000708818436E-1  
 1.263700000000000E10   -9.713954329490662E-1  -2.756980806589127E-2   9.369477993459441E-6   9.071147360373288E-5   1.247886029887013E-5   8.854166662786156E-5  -9.608012437820435E-1   1.120163351297379E-1  
 1.263750000000000E10   -9.713954925537109E-1  -2.371475473046303E-2   1.110953598981723E-5   9.158019383903593E-5   1.366105152555974E-5   9.063944162335247E-5  -9.599490165710449E-1   1.178200095891953E-1  
 1.263800000000000E10   -9.714203476905823E-1  -1.985154114663601E-2   1.141152642958332E-5   9.318740194430575E-5   1.348340992990416E-5   9.250707080354914E-5  -9.590372443199158E-1   1.236396804451942E-1  
 1.263850000000000E10   -9.714096784591675E-1  -1.594359427690506E-2   1.287635313929059E-5   9.533230331726372E-5   1.386943131365115E-5   9.597183088771999E-5  -9.580512046813965E-1   1.295541971921921E-1  
 1.263900000000000E10   -9.714256525039673E-1  -1.200271584093571E-2   1.433671332051745E-5   9.691146260593087E-5   1.431776126992190E-5   9.832480282057077E-5  -9.570872187614441E-1   1.354652792215347E-1  
 1.263950000000000E10   -9.714286327362061E-1  -8.084883913397789E-3   1.573890767758712E-5   9.919401054503396E-5   1.582851291459519E-5   1.013129585771821E-4  -9.560036063194275E-1   1.414519846439362E-1  
 1.264000000000000E10   -9.713760614395142E-1  -4.124874714761972E-3   1.573526060383301E-5   1.008220642688684E-4   1.653482649999205E-5   1.036541143548675E-4  -9.549368619918823E-1   1.474939733743668E-1  
 1.264050000000000E10   -9.712860584259033E-1  -8.597038686275482E-5   1.724394678603858E-5   1.032247382681817E-4   1.687767689872999E-5   1.057549015968107E-4  -9.538031220436096E-1   1.535913497209549E-1  
 1.264100000000000E10   -9.712078571319580E-1   3.950709477066994E-3   1.824148966989014E-5   1.064735697582364E-4   1.785158201528247E-5   1.085127441911027E-4  -9.525997638702393E-1   1.597388982772827E-1  
 1.264150000000000E10   -9.710612297058106E-1   7.983430288732052E-3   1.895853893074673E-5   1.092321617761627E-4   1.882393007690553E-5   1.104862458305433E-4  -9.513127207756043E-1   1.659728586673737E-1  
 1.264200000000000E10   -9.709312915802002E-1   1.209223363548517E-2   1.930777216330171E-5   1.121101231547073E-4   1.941789196280297E-5   1.137341896537691E-4  -9.500031471252441E-1   1.722421944141388E-1  
 1.264250000000000E10   -9.708285927772522E-1   1.617047190666199E-2   1.961820089491084E-5   1.144336420111358E-4   1.988832627830561E-5   1.160281317424960E-4  -9.486474394798279E-1   1.785755753517151E-1  
 1.264300000000000E10   -9.706802368164063E-1   2.032845839858055E-2   2.170740299334284E-5   1.174651115434244E-4   2.053881325991824E-5   1.185602450277656E-4  -9.472275972366333E-1   1.849791109561920E-1  
 1.264350000000000E10   -9.705170392990112E-1   2.452113106846809E-2   2.291975033585914E-5   1.211205089930445E-4   2.210451566497795E-5   1.202631101477891E-4  -9.457725286483765E-1   1.914362907409668E-1  
 1.264400000000000E10   -9.703889489173889E-1   2.870531566441059E-2   2.456457150401548E-5   1.238195545738563E-4   2.377389500907157E-5   1.227175089297816E-4  -9.441884160041809E-1   1.979610174894333E-1  
 1.264450000000000E10   -9.701421856880188E-1   3.295511752367020E-2   2.558351661718916E-5   1.271330111194402E-4   2.420835517114028E-5   1.252422225661576E-4  -9.425787329673767E-1   2.045251578092575E-1  
 1.264500000000000E10   -9.699132442474365E-1   3.724960237741470E-2   2.714663423830643E-5   1.294978574151173E-4   2.531283826101571E-5   1.272454246645793E-4  -9.408993124961853E-1   2.111939191818237E-1  
 1.264550000000000E10   -9.696481227874756E-1   4.156583920121193E-2   2.775831126200501E-5   1.329991064267233E-4   2.631310053402558E-5   1.297915005125105E-4  -9.391787648200989E-1   2.178801447153091E-1  
 1.264600000000000E10   -9.693862199783325E-1   4.591400921344757E-2   3.050259692827240E-5   1.353527914034203E-4   2.818854045472108E-5   1.322596071986482E-4  -9.373407363891602E-1   2.246314138174057E-1  
 1.264650000000000E10   -9.690949916839600E-1   5.026349425315857E-2   3.204447421012446E-5   1.383092749165371E-4   2.855220009223558E-5   1.347531360806897E-4  -9.354817867279053E-1   2.314657568931580E-1  
