#  HZ   S   RI   R     50.00 
! Rohde & Schwarz ZVA50 2Ports - Version 3.70 - 1145.1110k50 SN: 100192
! Date: 2025-10-23 16:20:44
! Measurements: S11 S21 S12 S22 
! 
 1.260000000000000E10   -9.383920431137085E-1  -2.634332776069641E-1  -4.925796929455828E-6   2.400425910309423E-5  -4.373532647150569E-6   2.362877421546727E-5  -9.534014463424683E-1  -2.056832462549210E-1  
 1.260050000000000E10   -9.390132427215576E-1  -2.609760761260986E-1  -5.395998869062169E-6   2.452582339174114E-5  -4.565032213577069E-6   2.443813900754321E-5  -9.540271162986755E-1  -2.024191915988922E-1  
 1.260100000000000E10   -9.396622776985169E-1  -2.584986686706543E-1  -5.540845450013876E-6   2.458366907376330E-5  -5.878797765035415E-6   2.512337960069999E-5  -9.546643495559692E-1  -1.990939676761627E-1  
 1.260150000000000E10   -9.403247237205505E-1  -2.559967041015625E-1  -4.660985723603517E-6   2.553787271608599E-5  -5.297861207509413E-6   2.466328260197770E-5  -9.553147554397583E-1  -1.957992613315582E-1  
 1.260200000000000E10   -9.409739375114441E-1  -2.534641623497009E-1  -4.973313480149955E-6   2.619681072246749E-5  -4.810913196706679E-6   2.517448774597142E-5  -9.558604359626770E-1  -1.924269199371338E-1  
 1.260250000000000E10   -9.415429234504700E-1  -2.509706914424896E-1  -5.948179023107514E-6   2.659458186826669E-5  -5.012858309783042E-6   2.544196104281582E-5  -9.564766883850098E-1  -1.890781819820404E-1  
 1.260300000000000E10   -9.421794414520264E-1  -2.484527826309204E-1  -5.553054506890476E-6   2.549891723901965E-5  -4.489445018407423E-6   2.601332926133182E-5  -9.570491909980774E-1  -1.857382655143738E-1  
 1.260350000000000E10   -9.428313374519348E-1  -2.459210455417633E-1  -4.387876288092230E-6   2.647884321049787E-5  -4.769461611431325E-6   2.534847044444177E-5  -9.576655626296997E-1  -1.822892129421234E-1  
 1.260400000000000E10   -9.434575438499451E-1  -2.433589845895767E-1  -4.852026904700324E-6   2.813260471157264E-5  -4.496100700634997E-6   2.730476626311429E-5  -9.582384824752808E-1  -1.788517534732819E-1  
 1.260450000000000E10   -9.440575838088989E-1  -2.407785505056381E-1  -5.551914000534453E-6   2.749645500443876E-5  -4.810124664800242E-6   2.681276600924321E-5  -9.588094949722290E-1  -1.754050850868225E-1  
 1.260500000000000E10   -9.446610808372498E-1  -2.382014989852905E-1  -4.830345460504759E-6   2.734072768362239E-5  -4.518338300840696E-6   2.783818854368292E-5  -9.593473672866821E-1  -1.719339638948441E-1  
 1.260550000000000E10   -9.452595114707947E-1  -2.356443107128143E-1  -6.051693162589800E-6   2.750827297859360E-5  -3.620178631535964E-6   2.856652099580970E-5  -9.599198102951050E-1  -1.684227883815765E-1  
 1.260600000000000E10   -9.458658695220947E-1  -2.330179214477539E-1  -6.193528861331288E-6   2.792744999169372E-5  -3.407248641451588E-6   2.873874291253742E-5  -9.604421854019165E-1  -1.648993343114853E-1  
 1.260650000000000E10   -9.472522139549255E-1  -2.310360372066498E-1  -5.550525202124845E-6   2.909750764956698E-5  -3.484707349343807E-6   2.900896834034938E-5  -9.616002440452576E-1  -1.616839915513992E-1  
 1.260700000000000E10   -9.478480815887451E-1  -2.284159958362579E-1  -5.661240720655769E-6   3.008257226611022E-5  -3.459025492702494E-6   3.002267294505145E-5  -9.621044993400574E-1  -1.580940335988998E-1  
 1.260750000000000E10   -9.484595656394959E-1  -2.257914841175079E-1  -5.059577688371064E-6   3.045305675186683E-5  -3.217176072212169E-6   3.027193815796636E-5  -9.626000523567200E-1  -1.545359343290329E-1  
 1.260800000000000E10   -9.490087628364563E-1  -2.231133878231049E-1  -4.883293058810523E-6   3.068292426178232E-5  -3.124525164821534E-6   3.073339030379430E-5  -9.631211757659912E-1  -1.509061157703400E-1  
 1.260850000000000E10   -9.495944380760193E-1  -2.204439640045166E-1  -5.290030458127148E-6   3.089906022069044E-5  -3.425977638471522E-6   3.175806341459975E-5  -9.635939598083496E-1  -1.472787410020828E-1  
 1.260900000000000E10   -9.501641988754273E-1  -2.177808284759522E-1  -4.702512342191767E-6   3.159665720886551E-5  -2.937442332040519E-6   3.201082290615886E-5  -9.640620350837708E-1  -1.435914188623428E-1  
 1.260950000000000E10   -9.507278203964233E-1  -2.150705903768539E-1  -4.497441295825411E-6   3.280149394413456E-5  -2.958870481961640E-6   3.183670196449384E-5  -9.645280241966248E-1  -1.398911029100418E-1  
 1.261000000000000E10   -9.512796401977539E-1  -2.123727947473526E-1  -5.497719939739909E-6   3.285819548182190E-5  -2.768511421891162E-6   3.338719398016110E-5  -9.649699330329895E-1  -1.361414045095444E-1  
 1.261050000000000E10   -9.518318772315979E-1  -2.096192836761475E-1  -4.149681444687303E-6   3.323417695355602E-5  -3.293468125775689E-6   3.412642763578333E-5  -9.654422998428345E-1  -1.324121057987213E-1  
 1.261100000000000E10   -9.523580074310303E-1  -2.068862915039063E-1  -3.663592224256718E-6   3.431646109675057E-5  -3.200415449100547E-6   3.515744174364954E-5  -9.658577442169190E-1  -1.286342889070511E-1  
 1.261150000000000E10   -9.528967738151550E-1  -2.041754722595215E-1  -3.909955012204591E-6   3.466905036475509E-5  -2.164919123970321E-6   3.626659236033447E-5  -9.662869572639465E-1  -1.248146221041679E-1  
 1.261200000000000E10   -9.534489512443543E-1  -2.013991773128510E-1  -3.954543899453711E-6   3.499547528917901E-5  -2.758168193395250E-6   3.636140536400490E-5  -9.666890501976013E-1  -1.209381595253944E-1  
 1.261250000000000E10   -9.539845585823059E-1  -1.986314505338669E-1  -3.940638180210954E-6   3.570987246348523E-5  -2.576247879915172E-6   3.746947186300531E-5  -9.670878052711487E-1  -1.170764788985252E-1  
 1.261300000000000E10   -9.545276761054993E-1  -1.958480924367905E-1  -3.472288881312124E-6   3.704868140630424E-5  -2.293906845807214E-6   3.706571078510024E-5  -9.674677848815918E-1  -1.131955161690712E-1  
 1.261350000000000E10   -9.550181031227112E-1  -1.929746270179749E-1  -3.316912170703290E-6   3.820690471911803E-5  -2.175973804696696E-6   3.865371763822623E-5  -9.678047299385071E-1  -1.092844605445862E-1  
 1.261400000000000E10   -9.555188417434692E-1  -1.901891231536865E-1  -3.942684088542592E-6   3.878412462654524E-5  -2.268727030241280E-6   3.763998756767251E-5  -9.681876301765442E-1  -1.053286716341972E-1  
 1.261450000000000E10   -9.560022950172424E-1  -1.873773038387299E-1  -2.623974069138058E-6   3.924403426935896E-5  -2.057515303022228E-6   3.976167863584124E-5  -9.685288667678833E-1  -1.013375744223595E-1  
 1.261500000000000E10   -9.565144181251526E-1  -1.845585405826569E-1  -1.854597257988644E-6   4.015334343421273E-5  -2.671464017112157E-6   4.080541839357466E-5  -9.688226580619812E-1  -9.733523428440094E-2  
 1.261550000000000E10   -9.570620656013489E-1  -1.816916167736054E-1  -1.410672211932251E-6   4.100844307686202E-5  -2.668073648237623E-6   4.096834891242907E-5  -9.691378474235535E-1  -9.330427646636963E-2  
 1.261600000000000E10   -9.575138688087463E-1  -1.788428127765656E-1  -1.951827243829030E-6   4.175736103206873E-5  -3.238169256292167E-6   4.197667294647545E-5  -9.694122672080994E-1  -8.922761678695679E-2  
 1.261650000000000E10   -9.580298662185669E-1  -1.759505718946457E-1  -1.090977548301453E-6   4.393565905047581E-5  -3.455523710726993E-6   4.305070979171433E-5  -9.697157740592957E-1  -8.514894545078278E-2  
 1.261700000000000E10   -9.585143923759460E-1  -1.730282008647919E-1  -1.031810370477615E-6   4.375007847556844E-5  -3.127442596451147E-6   4.303516470827162E-5  -9.699807167053223E-1  -8.103077858686447E-2  
 1.261750000000000E10   -9.589806199073792E-1  -1.700997352600098E-1  -5.230122042121366E-7   4.523144161794335E-5  -3.870970431307796E-6   4.316220656619407E-5  -9.702187180519104E-1  -7.687617093324661E-2  
 1.261800000000000E10   -9.594598412513733E-1  -1.671693921089172E-1  -8.725296538614202E-7   4.648886169889011E-5  -3.985655894211959E-6   4.487895057536662E-5  -9.704351425170898E-1  -7.267020642757416E-2  
 1.261850000000000E10   -9.599057435989380E-1  -1.642168462276459E-1  -1.294326466450002E-6   4.667586472351104E-5  -4.081492988916580E-6   4.525433905655518E-5  -9.706934094429016E-1  -6.844890862703323E-2  
 1.261900000000000E10   -9.603471755981445E-1  -1.612436622381210E-1  -1.159397015726427E-6   4.782274845638312E-5  -3.504618234728696E-6   4.536332926363684E-5  -9.708992242813110E-1  -6.419938802719116E-2  
 1.261950000000000E10   -9.608107209205627E-1  -1.582380682229996E-1  -1.989084466913482E-6   4.796374560100958E-5  -3.725717533598072E-6   4.654098665923812E-5  -9.710348248481751E-1  -5.989679694175720E-2  
 1.262000000000000E10   -9.612442255020142E-1  -1.552358418703079E-1  -8.295442057715263E-7   4.875220110989176E-5  -4.274187631381210E-6   4.767971404362470E-5  -9.712178707122803E-1  -5.556422099471092E-2  
 1.262050000000000E10   -9.616833329200745E-1  -1.522100269794464E-1  -1.730819349177182E-6   5.025613063480705E-5  -3.597320755943656E-6   4.765159974340349E-5  -9.713474512100220E-1  -5.123093724250794E-2  
 1.262100000000000E10   -9.621174335479736E-1  -1.491837203502655E-1  -3.985142029705457E-7   5.078952017356642E-5  -3.968066266679671E-6   4.878677282249555E-5  -9.715127944946289E-1  -4.681200534105301E-2  
 1.262150000000000E10   -9.625517725944519E-1  -1.461476236581802E-1  -6.691707312711515E-7   5.099865666124970E-5  -3.280785904280492E-6   4.987787178833969E-5  -9.715950489044190E-1  -4.240318387746811E-2  
 1.262200000000000E10   -9.629830718040466E-1  -1.430882960557938E-1  -1.310452262259787E-6   5.151013829163276E-5  -3.494103111734148E-6   5.081578638055362E-5  -9.716600775718689E-1  -3.791321069002152E-2  
 1.262250000000000E10   -9.633441567420960E-1  -1.400165855884552E-1  -7.148096301534679E-7   5.267997767077759E-5  -3.238989620513166E-6   5.133199010742828E-5  -9.717327356338501E-1  -3.342367708683014E-2  
 1.262300000000000E10   -9.637429714202881E-1  -1.368897557258606E-1  -3.879249561578035E-7   5.417648208094761E-5  -3.001808181579690E-6   5.309690823196434E-5  -9.718344807624817E-1  -2.889373153448105E-2  
 1.262350000000000E10   -9.641585350036621E-1  -1.337887048721314E-1  -2.210845195804723E-8   5.459037492983043E-5  -4.062870175403077E-6   5.321940261637792E-5  -9.718063473701477E-1  -2.431816607713699E-2  
 1.262400000000000E10   -9.645213484764099E-1  -1.306607872247696E-1   7.778608051012270E-7   5.510970731847920E-5  -3.240273372284719E-6   5.541583232115954E-5  -9.718358516693115E-1  -1.972566545009613E-2  
 1.262450000000000E10   -9.648700952529907E-1  -1.274598687887192E-1  -3.212353476556018E-7   5.676797809428535E-5  -2.533038241381291E-6   5.592901652562432E-5  -9.717937111854553E-1  -1.503692567348480E-2  
 1.262500000000000E10   -9.652730822563171E-1  -1.242671832442284E-1   1.392900230712257E-7   5.691068872692995E-5  -2.393107024545316E-6   5.741763743571937E-5  -9.717383980751038E-1  -1.038493961095810E-2  
 1.262550000000000E10   -9.656196236610413E-1  -1.210682764649391E-1   7.015073606453370E-7   5.795722245238721E-5  -2.430746462778188E-6   5.824287291034125E-5  -9.716636538505554E-1  -5.668409168720245E-3  
 1.262600000000000E10   -9.659590721130371E-1  -1.178756803274155E-1   2.844271875801496E-7   5.920998228248209E-5  -2.099860921589425E-6   6.019193097017705E-5  -9.715965986251831E-1  -8.931010961532593E-4  
 1.262650000000000E10   -9.662923812866211E-1  -1.146272420883179E-1  -1.290786713070702E-7   6.023539390298538E-5  -1.715372491162270E-6   6.148800457594916E-5  -9.714820981025696E-1   3.934644162654877E-3  
 1.262700000000000E10   -9.665957689285278E-1  -1.114109754562378E-1   1.336319201072911E-6   6.092402691137977E-5  -1.161264208349166E-6   6.296669016592205E-5  -9.713230729103088E-1   8.742868900299072E-3  
 1.262750000000000E10   -9.668660759925842E-1  -1.081092953681946E-1   9.368682185595390E-7   6.318889791145921E-5  -1.293126842938364E-6   6.377082172548398E-5  -9.711364507675171E-1   1.365361362695694E-2  
 1.262800000000000E10   -9.672282934188843E-1  -1.048137098550797E-1   6.331210897769779E-7   6.402703002095223E-5  -1.263428657694021E-6   6.601506902370602E-5  -9.709365367889404E-1   1.852347701787949E-2  
 1.262850000000000E10   -9.674984216690064E-1  -1.015175729990006E-1   6.756881703040563E-7   6.518187728943303E-5  -2.549531927797943E-7   6.632986332988367E-5  -9.707281589508057E-1   2.353520691394806E-2  
 1.262900000000000E10   -9.678239226341248E-1  -9.816077351570129E-2   4.987273314327467E-7   6.649233546340838E-5  -7.928065315354615E-9   6.777370435884222E-5  -9.704674482345581E-1   2.851751446723938E-2  
 1.262950000000000E10   -9.680690169334412E-1  -9.479490667581558E-2  -2.271967787237372E-7   6.859806308057159E-5  -2.623210093588568E-7   6.958816084079444E-5  -9.701750874519348E-1   3.358354419469833E-2  
 1.263000000000000E10   -9.683424234390259E-1  -9.143143147230148E-2   8.238330337917432E-7   6.924525223439559E-5   1.363112914987141E-6   7.027803076198325E-5  -9.699095487594605E-1   3.866915404796600E-2  
 1.263050000000000E10   -9.686068296432495E-1  -8.801603317260742E-2   4.893804543826263E-7   7.136204658308998E-5   1.782957951945718E-6   7.136722706491128E-5  -9.695286154747009E-1   4.381056129932404E-2  
 1.263100000000000E10   -9.688706398010254E-1  -8.461894094944000E-2  -1.388434611726552E-8   7.299907883862034E-5   3.119345819868613E-6   7.248632027767599E-5  -9.691677093505859E-1   4.896909743547440E-2  
 1.263150000000000E10   -9.690881967544556E-1  -8.116642385721207E-2  -1.747180249367375E-7   7.444089715136215E-5   3.051263320230646E-6   7.317282870644704E-5  -9.687409996986389E-1   5.420894175767899E-2  
 1.263200000000000E10   -9.693021774291992E-1  -7.771106809377670E-2   1.580742264195578E-6   7.573523180326447E-5   3.611834927141899E-6   7.507527334382758E-5  -9.683134555816650E-1   5.946656689047813E-2  
 1.263250000000000E10   -9.695113301277161E-1  -7.420415431261063E-2   1.532746409793617E-6   7.684720912948251E-5   5.413163307821378E-6   7.628482126165181E-5  -9.678351283073425E-1   6.478819251060486E-2  
 1.263300000000000E10   -9.697279930114746E-1  -7.069656252861023E-2   1.769578830135288E-6   7.888800610089675E-5   5.736074399464997E-6   7.831058610463515E-5  -9.673260450363159E-1   7.015088945627213E-2  
 1.263350000000000E10   -9.699346423149109E-1  -6.716647744178772E-2   3.143286448903382E-6   7.986693526618183E-5   7.085312972776592E-6   7.932863809401169E-5  -9.667723774909973E-1   7.556845992803574E-2  
 1.263400000000000E10   -9.701181650161743E-1  -6.362919509410858E-2   3.634354470705148E-6   8.162008452927694E-5   7.336686394410208E-6   8.145401079673320E-5  -9.662026166915894E-1   8.103069663047791E-2  
 1.263450000000000E10   -9.702731370925903E-1  -6.002297997474670E-2   4.677488959714538E-6   8.282865019282326E-5   8.571427315473557E-6   8.249712846009061E-5  -9.655755162239075E-1   8.654759079217911E-2  
 1.263500000000000E10   -9.704511165618897E-1  -5.643048137426376E-2   4.324162091506878E-6   8.446553692920134E-5   8.908315976441372E-6   8.483667625114322E-5  -9.649261832237244E-1   9.209172427654266E-2  
 1.263550000000000E10   -9.705479741096497E-1  -5.277267470955849E-2   5.204800800129306E-6   8.617576531833038E-5   9.945299098035321E-6   8.634733967483044E-5  -9.642391800880432E-1   9.771795570850372E-2  
 1.263600000000000E10   -9.707286953926086E-1  -4.912060499191284E-2   6.712266440445092E-6   8.775876631261781E-5   1.058074485627003E-5   8.959055412560701E-5  -9.635075330734253E-1   1.033577397465706E-1  
 1.263650000000000E10   -9.708507061004639E-1  -4.546881467103958E-2   8.124759915517643E-6   8.941072155721486E-5   1.149269701272715E-5   9.137806046055630E-5  -9.627255201339722E-1   1.090793013572693E-1  
 1.263700000000000E10   -9.709581136703491E-1  -4.178903251886368E-2   8.850823178363498E-6   9.108489757636562E-5   1.212331790156895E-5   9.333598427474499E-5  -9.619244337081909E-1   1.148514896631241E-1  
 1.263750000000000E10   -9.710276126861572E-1  -3.807018324732781E-2   9.564614629198331E-6   9.316410432802513E-5   1.246864121640101E-5   9.551729453960434E-5  -9.610840082168579E-1   1.206796467304230E-1  
 1.263800000000000E10   -9.710569977760315E-1  -3.430076688528061E-2   1.059195255947998E-5   9.601409692550078E-5   1.400402561557712E-5   9.821571438806132E-5  -9.601483345031738E-1   1.265303790569305E-1  
 1.263850000000000E10   -9.711152911186218E-1  -3.051370382308960E-2   1.135446473199409E-5   9.769964526640251E-5   1.352918661723379E-5   1.011134008876979E-4  -9.591656923294067E-1   1.324807107448578E-1  
 1.263900000000000E10   -9.712046980857849E-1  -2.669669687747955E-2   1.286633141717175E-5   1.007444516289979E-4   1.531434463686310E-5   1.027242251439020E-4  -9.581775069236755E-1   1.384266614913940E-1  
 1.263950000000000E10   -9.712245464324951E-1  -2.290612086653709E-2   1.422837522113696E-5   1.026726167765446E-4   1.588364830240607E-5   1.053710293490440E-4  -9.571031928062439E-1   1.444644331932068E-1  
 1.264000000000000E10   -9.712551236152649E-1  -1.904094032943249E-2   1.420177522959421E-5   1.057173431036063E-4   1.629413600312546E-5   1.074065294233151E-4  -9.560381770133972E-1   1.505313366651535E-1  
 1.264050000000000E10   -9.711952805519104E-1  -1.514896191656590E-2   1.584470555826556E-5   1.081437440006994E-4   1.785326458048075E-5   1.101735688280314E-4  -9.548846483230591E-1   1.566806137561798E-1  
 1.264100000000000E10   -9.711818099021912E-1  -1.125618349760771E-2   1.712091398076154E-5   1.110401790356264E-4   1.928836354636587E-5   1.123655747505836E-4  -9.536486268043518E-1   1.628701835870743E-1  
 1.264150000000000E10   -9.711281061172485E-1  -7.352489978075028E-3   1.833114947658032E-5   1.140721215051599E-4   1.891315150714945E-5   1.141305692726746E-4  -9.523860216140747E-1   1.691270470619202E-1  
 1.264200000000000E10   -9.710738062858582E-1  -3.356529399752617E-3   1.955339030246250E-5   1.173129276139662E-4   1.998542575165629E-5   1.170742179965600E-4  -9.510388970375061E-1   1.754576265811920E-1  
 1.264250000000000E10   -9.710668921470642E-1   6.142575293779373E-4   2.091714668495115E-5   1.195482400362380E-4   2.029542520176619E-5   1.190922848763876E-4  -9.496819972991943E-1   1.818544566631317E-1  
 1.264300000000000E10   -9.709707498550415E-1   4.641830921173096E-3   2.169427716580685E-5   1.230067864526063E-4   2.183706601499580E-5   1.206831730087288E-4  -9.482374191284180E-1   1.882792264223099E-1  
 1.264350000000000E10   -9.708725214004517E-1   8.682524785399437E-3   2.352114461245947E-5   1.263426238438115E-4   2.276960367453285E-5   1.227898465003818E-4  -9.467701315879822E-1   1.947759389877319E-1  
 1.264400000000000E10   -9.708003401756287E-1   1.278802379965782E-2   2.490141014277469E-5   1.288199273403734E-4   2.341814979445189E-5   1.261018915101886E-4  -9.451984167098999E-1   2.013326883316040E-1  
 1.264450000000000E10   -9.706134200096130E-1   1.689892634749413E-2   2.634163683978841E-5   1.314293622272089E-4   2.464486533426680E-5   1.285252947127447E-4  -9.435595273971558E-1   2.079506218433380E-1  
 1.264500000000000E10   -9.704365134239197E-1   2.106141485273838E-2   2.781675721053034E-5   1.342447067145258E-4   2.506523378542624E-5   1.310399093199521E-4  -9.418691396713257E-1   2.146562635898590E-1  
 1.264550000000000E10   -9.703011512756348E-1   2.524826116859913E-2   2.898155435104854E-5   1.372269616695121E-4   2.571283584984485E-5   1.329122314928100E-4  -9.401213526725769E-1   2.214216887950897E-1  
 1.264600000000000E10   -9.701482653617859E-1   2.944336272776127E-2   3.061843381146900E-5   1.403872010996565E-4   2.734350891842041E-5   1.364972413284704E-4  -9.382968544960022E-1   2.282200008630753E-1  
 1.264650000000000E10   -9.699078202247620E-1   3.368696570396423E-2   3.213131640222855E-5   1.430362026439980E-4   2.815996049321257E-5   1.390030520269647E-4  -9.363834261894226E-1   2.351177334785461E-1  
