#  HZ   S   RI   R     50.00 
! Rohde & Schwarz ZVA50 2Ports - Version 3.70 - 1145.1110k50 SN: 100192
! Date: 2025-10-23 16:27:27
! Measurements: S11 S21 S12 S22 
! 
 1.260000000000000E10   -9.464166164398193E-1  -2.314001172780991E-1  -1.511890104666236E-6   2.308536386408377E-5   1.923438048834214E-7   2.070322079816833E-5  -9.480973482131958E-1  -2.325295954942703E-1  
 1.260050000000000E10   -9.469381570816040E-1  -2.288441807031632E-1  -1.689738837740151E-6   1.922275259857997E-5   4.099880698049674E-6   2.215066888311412E-5  -9.489028453826904E-1  -2.295588105916977E-1  
 1.260100000000000E10   -9.475055932998657E-1  -2.264299988746643E-1   8.368504040845437E-7   3.208746056770906E-5  -7.102810741344001E-6   2.081640013784636E-5  -9.493273496627808E-1  -2.265098989009857E-1  
 1.260150000000000E10   -9.482989311218262E-1  -2.234441339969635E-1  -9.631596185499802E-6   2.811017839121632E-5  -7.647905476915184E-6   1.989430711546447E-5  -9.502341151237488E-1  -2.235201448202133E-1  
 1.260200000000000E10   -9.489868283271790E-1  -2.208181321620941E-1   3.368410261828103E-7   1.616577719687484E-5  -1.317545593337854E-5   1.931140650412999E-5  -9.507444500923157E-1  -2.204289585351944E-1  
 1.260250000000000E10   -9.492147564888001E-1  -2.186137139797211E-1  -5.846155545441434E-6   2.731099084485322E-5  -1.075582076737192E-5   2.271831544931047E-5  -9.514439702033997E-1  -2.173091769218445E-1  
 1.260300000000000E10   -9.500088095664978E-1  -2.153718471527100E-1  -4.279585482436232E-6   1.905989483930171E-5  -8.033839549170807E-6   1.842588426370639E-5  -9.520552754402161E-1  -2.140979170799255E-1  
 1.260350000000000E10   -9.507774710655212E-1  -2.125294208526611E-1   2.507747694835416E-6   2.232639417343307E-5  -5.640106792270672E-6   2.518667861295398E-5  -9.527600407600403E-1  -2.110039889812470E-1  
 1.260400000000000E10   -9.513915777206421E-1  -2.097867131233215E-1  -4.157300281804055E-6   2.647205656103324E-5  -2.201686811531545E-6   2.338895865250379E-5  -9.535255432128906E-1  -2.078981846570969E-1  
 1.260450000000000E10   -9.516893029212952E-1  -2.065397948026657E-1  -3.910533450834919E-6   2.303242763446178E-5  -1.273539737667306E-6   2.546388350310735E-5  -9.540076255798340E-1  -2.044928669929504E-1  
 1.260500000000000E10   -9.524472951889038E-1  -2.036359012126923E-1  -1.461600004404318E-5   3.017060043930542E-5  -7.559680852864403E-6   2.574520658527035E-5  -9.543585181236267E-1  -2.011698931455612E-1  
 1.260550000000000E10   -9.528846740722656E-1  -2.009739428758621E-1   2.917378424172057E-6   2.786793447739910E-5  -3.851369910989888E-6   1.285148027818650E-5  -9.552781581878662E-1  -1.980227380990982E-1  
 1.260600000000000E10   -9.534745216369629E-1  -1.980743706226349E-1  -8.676453035150189E-6   2.724227488215547E-5   4.021484528493602E-6   1.860754491644912E-5  -9.556912183761597E-1  -1.950176954269409E-1  
 1.260650000000000E10   -9.549082517623901E-1  -1.958875358104706E-1  -1.241732888956904E-6   3.019141513505019E-5  -7.261519385792781E-7   3.370891499798745E-5  -9.568038582801819E-1  -1.922094821929932E-1  
 1.260700000000000E10   -9.555175900459290E-1  -1.929826587438583E-1  -2.873609673770261E-6   2.656669130374212E-5  -1.134972717409255E-5   2.997856608999427E-5  -9.575223922729492E-1  -1.887219250202179E-1  
 1.260750000000000E10   -9.558911323547363E-1  -1.903581023216248E-1  -2.292295903316699E-6   2.852295438060537E-5  -1.092089587473311E-5   3.232267408748157E-5  -9.582821726799011E-1  -1.853983700275421E-1  
 1.260800000000000E10   -9.565356373786926E-1  -1.871483922004700E-1  -1.939891944857664E-6   2.854253216355573E-5  -1.988849362533074E-6   1.939683170348872E-5  -9.586609005928040E-1  -1.820246279239655E-1  
 1.260850000000000E10   -9.570193290710449E-1  -1.841491758823395E-1  -4.914232704322785E-6   3.541198384482414E-5   8.101362709567184E-7   2.506497366994154E-5  -9.594324827194214E-1  -1.789056658744812E-1  
 1.260900000000000E10   -9.575021862983704E-1  -1.811378151178360E-1  -7.539504622400273E-6   2.579386273282580E-5  -3.439412012085086E-6   2.877527731470764E-5  -9.600671529769898E-1  -1.756712347269058E-1  
 1.260950000000000E10   -9.580296874046326E-1  -1.782380044460297E-1  -1.603984674147796E-5   2.414056325505953E-5   3.959385139751248E-6   2.442096410959493E-5  -9.603542685508728E-1  -1.720938682556152E-1  
 1.261000000000000E10   -9.584401845932007E-1  -1.754376292228699E-1   1.042958501784597E-7   2.148063140339218E-5   1.928994606714696E-6   3.327492595417425E-5  -9.609537720680237E-1  -1.684428453445435E-1  
 1.261050000000000E10   -9.592708349227905E-1  -1.721084862947464E-1  -4.227670615364332E-6   2.106325155182276E-5   1.229213921760675E-5   3.742724220501259E-5  -9.613708257675171E-1  -1.653325706720352E-1  
 1.261100000000000E10   -9.595179557800293E-1  -1.691927760839462E-1   7.529756658186670E-6   4.225958036840893E-5  -5.958936526440084E-6   3.137679959763773E-5  -9.620057940483093E-1  -1.618746221065521E-1  
 1.261150000000000E10   -9.600301384925842E-1  -1.660177558660507E-1   4.924566383124329E-6   3.249304063501768E-5   1.814430561353220E-6   3.815277887042612E-5  -9.624800682067871E-1  -1.583112776279450E-1  
 1.261200000000000E10   -9.602994918823242E-1  -1.630749702453613E-1  -4.700202225649264E-6   4.860482658841647E-5  -9.226607744494686E-7   2.926368142652791E-5  -9.627584218978882E-1  -1.546615660190582E-1  
 1.261250000000000E10   -9.609287977218628E-1  -1.600334644317627E-1  -3.234539690311067E-6   3.031499181815889E-5  -2.985882701977971E-6   4.277981133782305E-5  -9.635941982269287E-1  -1.513372808694840E-1  
 1.261300000000000E10   -9.613149762153626E-1  -1.569216847419739E-1   1.103858267015312E-6   3.367244789842516E-5   2.793390194710810E-7   4.149254891672172E-5  -9.637395739555359E-1  -1.477711349725723E-1  
 1.261350000000000E10   -9.615072011947632E-1  -1.536630392074585E-1  -7.826793989806902E-6   3.778776590479538E-5   1.555645212647505E-6   2.960562960652169E-5  -9.647890329360962E-1  -1.443257778882980E-1  
 1.261400000000000E10   -9.623132348060608E-1  -1.505861729383469E-1   3.331064363010228E-6   3.826330066658557E-5   3.924494649254484E-7   3.136740269837901E-5  -9.650256037712097E-1  -1.404135525226593E-1  
 1.261450000000000E10   -9.626614451408386E-1  -1.475943326950073E-1  -1.184094617201481E-5   2.934826807177160E-5  -6.652389856753871E-7   4.498804992181249E-5  -9.655932784080505E-1  -1.367915272712708E-1  
 1.261500000000000E10   -9.632882475852966E-1  -1.443265825510025E-1   4.942782652506139E-6   1.882017568277661E-5   5.905044872633880E-6   3.785280205192976E-5  -9.658396244049072E-1  -1.334182322025299E-1  
 1.261550000000000E10   -9.632053375244141E-1  -1.413469761610031E-1  -3.783281044889009E-6   4.491068102652207E-5  -2.052280706266174E-6   3.253979593864642E-5  -9.664426445960999E-1  -1.296083629131317E-1  
 1.261600000000000E10   -9.638165831565857E-1  -1.380768865346909E-1  -8.435013114649337E-7   4.402882768772543E-5  -8.486433216603473E-6   3.797407771344297E-5  -9.665048122406006E-1  -1.257227361202240E-1  
 1.261650000000000E10   -9.644143581390381E-1  -1.348283886909485E-1  -5.053168024460319E-6   4.532782622845843E-5  -5.632371085084742E-6   4.531012746156193E-5  -9.670905470848084E-1  -1.222886517643929E-1  
 1.261700000000000E10   -9.647800326347351E-1  -1.314853578805924E-1  -1.538068318041042E-6   4.096510019735433E-5   2.082645551126916E-6   3.654060856206343E-5  -9.676324725151062E-1  -1.183687299489975E-1  
 1.261750000000000E10   -9.650273919105530E-1  -1.281946599483490E-1   2.340063019801164E-6   4.704167076852173E-5  -7.121486305550207E-6   4.568949589156546E-5  -9.680583477020264E-1  -1.144936978816986E-1  
 1.261800000000000E10   -9.653754234313965E-1  -1.247204914689064E-1  -1.717753548291512E-7   4.268371776561253E-5   7.912969522294588E-6   4.389879904920235E-5  -9.680508971214294E-1  -1.110254824161530E-1  
 1.261850000000000E10   -9.660134911537170E-1  -1.215201988816261E-1  -9.571135706210043E-7   4.996459756512195E-5  -5.017800049245125E-6   4.736137634608895E-5  -9.684564471244812E-1  -1.069200038909912E-1  
 1.261900000000000E10   -9.660626649856567E-1  -1.181948781013489E-1   1.706448529148474E-7   4.437097595655359E-5  -5.912008418818004E-6   4.168102896073833E-5  -9.690240025520325E-1  -1.029730141162872E-1  
 1.261950000000000E10   -9.666404724121094E-1  -1.147339716553688E-1  -1.673784709055326E-6   3.466929410933517E-5  -6.271503480093088E-6   3.906225902028382E-5  -9.691829681396484E-1  -9.936510771512985E-2  
 1.262000000000000E10   -9.666574001312256E-1  -1.116985604166985E-1  -5.672187398886308E-6   5.743797009927221E-5  -7.326616469072178E-7   4.273515150998719E-5  -9.696754217147827E-1  -9.515602886676788E-2  
 1.262050000000000E10   -9.671588540077210E-1  -1.090173125267029E-1   1.072348823072389E-7   4.994504706701264E-5   1.527419044577982E-6   4.216776505927555E-5  -9.698632359504700E-1  -9.141679108142853E-2  
 1.262100000000000E10   -9.678146243095398E-1  -1.050237491726875E-1  -1.217560111399507E-6   5.210436211200431E-5  -9.497332939645276E-6   4.504434036789462E-5  -9.699848294258118E-1  -8.719445765018463E-2  
 1.262150000000000E10   -9.680001139640808E-1  -1.013787537813187E-1   6.092670446378179E-6   3.748809103854001E-5  -3.779698090511374E-6   5.031321416026913E-5  -9.703859686851502E-1  -8.342415839433670E-2  
 1.262200000000000E10   -9.681338071823120E-1  -9.780959784984589E-2   8.697497833054513E-8   5.425984636531211E-5  -8.576984328101389E-6   4.653367432183586E-5  -9.707367420196533E-1  -7.943081855773926E-2  
 1.262250000000000E10   -9.685219526290894E-1  -9.450581669807434E-2   1.015067482512677E-5   5.090971899335273E-5   7.102618383214576E-6   4.525676922639832E-5  -9.709393978118897E-1  -7.535357773303986E-2  
 1.262300000000000E10   -9.686860442161560E-1  -9.084881842136383E-2   5.271002009976655E-6   4.921369691146538E-5   5.820365004183259E-6   6.239380309125409E-5  -9.710383415222168E-1  -7.113696634769440E-2  
 1.262350000000000E10   -9.690969586372376E-1  -8.730079233646393E-2  -2.061006171061308E-6   5.256466101855040E-5  -1.110535049519967E-5   5.577860065386631E-5  -9.713608026504517E-1  -6.712222099304199E-2  
 1.262400000000000E10   -9.690979123115540E-1  -8.399935066699982E-2  -1.950104433490196E-7   3.511302929837257E-5   3.683476279547904E-7   4.192701089777984E-5  -9.713989496231079E-1  -6.292079389095306E-2  
 1.262450000000000E10   -9.695259332656860E-1  -8.038756996393204E-2  -1.304631041421089E-6   5.375759428716265E-5  -3.587939090721193E-6   4.481102951103821E-5  -9.717394709587097E-1  -5.863136053085327E-2  
 1.262500000000000E10   -9.698022603988648E-1  -7.669816911220551E-2  -1.494646039645886E-5   5.721387060475536E-5  -5.406582204159349E-8   6.124799256213009E-5  -9.715952277183533E-1  -5.441693216562271E-2  
 1.262550000000000E10   -9.699537158012390E-1  -7.300315052270889E-2  -1.113145026465645E-5   4.686497049988248E-5  -7.069616458466044E-6   5.134839011589065E-5  -9.719949364662170E-1  -5.025207251310349E-2  
 1.262600000000000E10   -9.701718091964722E-1  -6.957366317510605E-2   1.192345007439144E-5   5.207500362303108E-5   2.517632310627960E-6   5.585600956692360E-5  -9.721659421920776E-1  -4.582318663597107E-2  
 1.262650000000000E10   -9.701654911041260E-1  -6.600035727024078E-2   5.925430741626769E-6   6.188642146298662E-5   9.212617442244664E-6   5.870388122275472E-5  -9.720156788825989E-1  -4.151114448904991E-2  
 1.262700000000000E10   -9.707528948783875E-1  -6.235600635409355E-2  -2.751949068624526E-6   5.737732499255799E-5   3.527556145854760E-6   5.013669579057023E-5  -9.722448587417603E-1  -3.732047230005264E-2  
 1.262750000000000E10   -9.705981016159058E-1  -5.864535272121429E-2  -1.269815129489871E-6   5.965224045212381E-5   9.190836863126606E-6   6.647600093856454E-5  -9.722600579261780E-1  -3.272448107600212E-2  
 1.262800000000000E10   -9.710515737533569E-1  -5.490050092339516E-2   3.873768037010450E-6   6.235578621271998E-5   3.472584921837552E-6   5.718110696761869E-5  -9.725273847579956E-1  -2.830798551440239E-2  
 1.262850000000000E10   -9.708757400512695E-1  -5.102090537548065E-2   5.135559604241280E-6   5.682322807842866E-5   1.498933215771103E-6   6.757974188076332E-5  -9.722968935966492E-1  -2.399045601487160E-2  
 1.262900000000000E10   -9.711434841156006E-1  -4.744832217693329E-2   1.115215127356350E-6   5.839380173711106E-5  -3.303410721855471E-6   5.752527431468479E-5  -9.724005460739136E-1  -1.952319592237473E-2  
 1.262950000000000E10   -9.713049530982971E-1  -4.380577802658081E-2   7.538380941696232E-6   5.790884824818932E-5  -5.001815679861466E-6   6.451937224483118E-5  -9.724501371383667E-1  -1.498294249176979E-2  
 1.263000000000000E10   -9.712506532669067E-1  -3.956332802772522E-2  -3.901609488821123E-6   6.501610187115148E-5  -4.532710136118112E-6   6.434155511669815E-5  -9.726837873458862E-1  -1.041265949606895E-2  
 1.263050000000000E10   -9.713823199272156E-1  -3.569640964269638E-2  -1.781857690730249E-6   5.810732181998901E-5   2.989273980347207E-6   6.660341023234651E-5  -9.721814990043640E-1  -5.759853869676590E-3  
 1.263100000000000E10   -9.715301990509033E-1  -3.207280486822128E-2  -2.985934770549648E-6   7.448287942679599E-5   9.770205906534102E-7   6.152418791316450E-5  -9.719920158386231E-1  -1.020241528749466E-3  
 1.263150000000000E10   -9.713891744613648E-1  -2.802448533475399E-2   4.771293333760696E-6   6.422765727620572E-5  -7.124094736354891E-7   5.615321424556896E-5  -9.721148014068604E-1   3.519982099533081E-3  
 1.263200000000000E10   -9.716920852661133E-1  -2.417725697159767E-2  -1.523696482763626E-6   7.929196726763621E-5  -2.868342562578619E-6   5.939528273302130E-5  -9.719266295433044E-1   8.163079619407654E-3  
 1.263250000000000E10   -9.716638326644898E-1  -2.026705443859100E-2  -1.508976993136457E-6   6.623510853387415E-5   7.525704859290272E-7   7.200176332844421E-5  -9.718002676963806E-1   1.305592432618141E-2  
 1.263300000000000E10   -9.714991450309753E-1  -1.635936275124550E-2   2.020099145738641E-6   7.835929864086211E-5   8.922989763959777E-6   7.475268648704514E-5  -9.716438651084900E-1   1.787041127681732E-2  
 1.263350000000000E10   -9.714829325675964E-1  -1.224248111248016E-2  -3.612260570662329E-6   6.241873052204028E-5   2.434062707834528E-6   7.297492993529886E-5  -9.714409112930298E-1   2.260603010654450E-2  
 1.263400000000000E10   -9.716045260429382E-1  -8.012846112251282E-3   1.162773878604639E-5   7.783898035995662E-5  -9.314173894381383E-7   7.286801701411605E-5  -9.713046550750732E-1   2.760147303342819E-2  
 1.263450000000000E10   -9.715545177459717E-1  -3.997102379798889E-3   8.414802323386539E-6   7.625301077496260E-5   4.207641723041888E-6   6.735331407980993E-5  -9.707562327384949E-1   3.257361799478531E-2  
 1.263500000000000E10   -9.712185263633728E-1   1.408755779266357E-4   7.475312486349139E-6   6.681834929622710E-5  -5.244494332146132E-7   8.201839227695018E-5  -9.706199169158936E-1   3.732632100582123E-2  
 1.263550000000000E10   -9.713593125343323E-1   4.192844033241272E-3   3.940672286262270E-6   8.382870146306232E-5   4.779784831043799E-6   8.460085518890992E-5  -9.705246090888977E-1   4.240373522043228E-2  
 1.263600000000000E10   -9.711754918098450E-1   8.462443947792053E-3   1.717057602945715E-5   6.525674689328298E-5   4.840563633479178E-6   7.349401130340993E-5  -9.697858095169067E-1   4.738077893853188E-2  
 1.263650000000000E10   -9.711927175521851E-1   1.253585331141949E-2   5.245341526460834E-6   8.856755448505282E-5   9.641394171922002E-6   7.541324885096401E-5  -9.696611762046814E-1   5.219571292400360E-2  
 1.263700000000000E10   -9.709361791610718E-1   1.695559173822403E-2   7.366264981101267E-6   8.880573295755312E-5   1.404572140017990E-5   8.284245268441737E-5  -9.693154096603394E-1   5.763981491327286E-2  
 1.263750000000000E10   -9.706448316574097E-1   2.100406587123871E-2   1.088588669517776E-5   7.884506339905784E-5   1.714744212222286E-5   8.038292435230687E-5  -9.686332345008850E-1   6.282109022140503E-2  
 1.263800000000000E10   -9.704458713531494E-1   2.530837617814541E-2   6.442356607294641E-6   8.468344458378851E-5   2.015821519307792E-5   8.565665484638885E-5  -9.683549404144287E-1   6.822401285171509E-2  
 1.263850000000000E10   -9.703317284584045E-1   2.914604172110558E-2   9.470223290009017E-7   9.393633081344888E-5   1.027454436552944E-5   9.918009163811803E-5  -9.676711559295654E-1   7.331005483865738E-2  
 1.263900000000000E10   -9.702119827270508E-1   3.395739942789078E-2   1.093102946470026E-5   8.544460433768109E-5   1.668892036832403E-5   9.090825915336609E-5  -9.672960042953491E-1   7.851520180702210E-2  
 1.263950000000000E10   -9.699307680130005E-1   3.828311711549759E-2   1.734721263346728E-5   9.768221207195893E-5   1.296828395425109E-5   9.405685705132783E-5  -9.666321277618408E-1   8.400218933820725E-2  
 1.264000000000000E10   -9.695121049880981E-1   4.294944182038307E-2   8.549051017325837E-6   8.899379463400692E-5   1.436191541870358E-5   1.004336809273809E-4  -9.661055803298950E-1   8.947321027517319E-2  
 1.264050000000000E10   -9.693738818168640E-1   4.735858738422394E-2   1.562321813253220E-5   9.424152085557580E-5   1.635065564187244E-5   9.810608753468841E-5  -9.655835628509522E-1   9.493174403905869E-2  
 1.264100000000000E10   -9.690246582031250E-1   5.190312489867210E-2   1.306739613937680E-5   9.318568481830880E-5   2.558855339884758E-5   9.970698738470674E-5  -9.648085832595825E-1   1.003519520163536E-1  
 1.264150000000000E10   -9.687274694442749E-1   5.623641610145569E-2   1.721848275337834E-5   9.639008203521371E-5   1.897362744784914E-5   1.037757901940495E-4  -9.639752507209778E-1   1.059813499450684E-1  
 1.264200000000000E10   -9.683165550231934E-1   6.061355024576187E-2   2.358075471420307E-5   1.008437247946858E-4   2.495685839676298E-5   1.052988591254689E-4  -9.633244872093201E-1   1.116875857114792E-1  
 1.264250000000000E10   -9.678808450698853E-1   6.528982520103455E-2   1.766410787240602E-5   1.113385005737655E-4   1.773789881553967E-5   1.111189776565880E-4  -9.623215198516846E-1   1.171661317348480E-1  
 1.264300000000000E10   -9.674230217933655E-1   6.998705863952637E-2   2.045975452347193E-5   1.126779970945790E-4   2.341930303373374E-5   1.085329349734820E-4  -9.616903066635132E-1   1.229237318038940E-1  
 1.264350000000000E10   -9.670158624649048E-1   7.446900755167007E-2   2.210448110417929E-5   1.147812654380687E-4   1.663154762354679E-5   1.107591015170328E-4  -9.606909751892090E-1   1.286365240812302E-1  
 1.264400000000000E10   -9.668191075325012E-1   7.911879569292069E-2   1.890579187602270E-5   1.145498245023191E-4   2.206505268986803E-5   1.203396823257208E-4  -9.594207406044006E-1   1.346908509731293E-1  
 1.264450000000000E10   -9.661683440208435E-1   8.409508317708969E-2   2.989849053847138E-5   1.127568102674559E-4   2.418070107523818E-5   1.116156781790778E-4  -9.587512612342835E-1   1.401457488536835E-1  
 1.264500000000000E10   -9.655007719993591E-1   8.882465958595276E-2   2.742967262747698E-5   1.070217404048890E-4   1.732716737024020E-5   1.194725118693896E-4  -9.576937556266785E-1   1.463017314672470E-1  
 1.264550000000000E10   -9.651722908020020E-1   9.354247152805328E-2   1.964322837011423E-5   1.154729179688729E-4   2.069469883281272E-5   1.202835046569817E-4  -9.565824866294861E-1   1.521630734205246E-1  
 1.264600000000000E10   -9.645258188247681E-1   9.844837337732315E-2   2.187385325669311E-5   1.203783540404402E-4   1.369803885609144E-5   1.308766804868355E-4  -9.552224874496460E-1   1.581456214189529E-1  
 1.264650000000000E10   -9.640582203865051E-1   1.034798398613930E-1   2.990306529682130E-5   1.200951446662657E-4   1.899918424896896E-5   1.223572762683034E-4  -9.542563557624817E-1   1.642806977033615E-1  
