#  HZ   S   RI   R     50.00 
! Rohde & Schwarz ZVA50 2Ports - Version 3.70 - 1145.1110k50 SN: 100192
! Date: 2025-10-23 16:11:44
! Measurements: S11 S21 S12 S22 
! 
 1.260000000000000E10   -9.519037604331970E-1  -1.972940266132355E-1  -4.627127964340616E-6   2.729626248765271E-5  -5.104217962070834E-6   2.874356141546741E-5  -9.483625888824463E-1  -2.245842814445496E-1  
 1.260050000000000E10   -9.524496793746948E-1  -1.943308413028717E-1  -5.251343736745184E-6   2.851963108696509E-5  -5.453628546092659E-6   2.909705108322669E-5  -9.490134716033936E-1  -2.214916944503784E-1  
 1.260100000000000E10   -9.530125856399536E-1  -1.913176476955414E-1  -5.764046818512725E-6   2.974777635245118E-5  -5.551597496378236E-6   2.993828456965275E-5  -9.496859312057495E-1  -2.183663696050644E-1  
 1.260150000000000E10   -9.535419344902039E-1  -1.883036643266678E-1  -5.654445430991473E-6   2.881446380342823E-5  -5.042425073042978E-6   2.989412314491347E-5  -9.503624439239502E-1  -2.152290642261505E-1  
 1.260200000000000E10   -9.540925621986389E-1  -1.852649152278900E-1  -5.971801783744013E-6   2.987937659781892E-5  -5.321184744389029E-6   2.999136631842703E-5  -9.509693980216980E-1  -2.121041268110275E-1  
 1.260250000000000E10   -9.545964002609253E-1  -1.822372376918793E-1  -5.257387783785816E-6   3.205205939593725E-5  -4.597333827405237E-6   3.039387047465425E-5  -9.516173601150513E-1  -2.089117020368576E-1  
 1.260300000000000E10   -9.551271796226502E-1  -1.792066544294357E-1  -5.433586011349689E-6   3.132576966891065E-5  -4.199599061394110E-6   3.067193392780609E-5  -9.522573351860046E-1  -2.057573646306992E-1  
 1.260350000000000E10   -9.556719660758972E-1  -1.761196553707123E-1  -5.372262421587948E-6   3.216560071450658E-5  -3.994830422016094E-6   3.174261655658484E-5  -9.529142379760742E-1  -2.025190293788910E-1  
 1.260400000000000E10   -9.562197327613831E-1  -1.730032861232758E-1  -4.843393071496394E-6   3.272797039244324E-5  -3.826016381935915E-6   3.179518171236850E-5  -9.535269737243652E-1  -1.992749571800232E-1  
 1.260450000000000E10   -9.566892385482788E-1  -1.698829531669617E-1  -4.949127287545707E-6   3.248322536819615E-5  -4.551797246676870E-6   3.276931602158584E-5  -9.541273117065430E-1  -1.960109770298004E-1  
 1.260500000000000E10   -9.571917653083801E-1  -1.667507588863373E-1  -4.530294063442852E-6   3.372065475559793E-5  -4.082568921148777E-6   3.343967546243221E-5  -9.547148346900940E-1  -1.927693337202072E-1  
 1.260550000000000E10   -9.576737880706787E-1  -1.636432856321335E-1  -5.009404048905708E-6   3.399868728592992E-5  -4.677462129620835E-6   3.339961767778732E-5  -9.553299546241760E-1  -1.894572377204895E-1  
 1.260600000000000E10   -9.581575393676758E-1  -1.604367196559906E-1  -4.751223514176672E-6   3.448643474257551E-5  -4.370425813249312E-6   3.426870534894988E-5  -9.558987617492676E-1  -1.861620396375656E-1  
 1.260650000000000E10   -9.594672322273254E-1  -1.577789485454559E-1  -4.625284873327473E-6   3.539248791639693E-5  -4.061233994434588E-6   3.504066262394190E-5  -9.571172595024109E-1  -1.831337511539459E-1  
 1.260700000000000E10   -9.599390625953674E-1  -1.545860320329666E-1  -5.249020887276856E-6   3.593959627323784E-5  -4.316775630286429E-6   3.564626240404323E-5  -9.576773643493652E-1  -1.797812134027481E-1  
 1.260750000000000E10   -9.604080319404602E-1  -1.513759344816208E-1  -4.948574314767029E-6   3.644277603598312E-5  -3.369273827047437E-6   3.696489511639811E-5  -9.582190513610840E-1  -1.763899028301239E-1  
 1.260800000000000E10   -9.608052968978882E-1  -1.480903923511505E-1  -5.043564669904299E-6   3.598618786782026E-5  -3.862434368784307E-6   3.685127012431622E-5  -9.588005542755127E-1  -1.729857921600342E-1  
 1.260850000000000E10   -9.612300395965576E-1  -1.448136717081070E-1  -4.162448021816090E-6   3.729878517333418E-5  -3.652062332548667E-6   3.665505209937692E-5  -9.593321681022644E-1  -1.695993244647980E-1  
 1.260900000000000E10   -9.616559147834778E-1  -1.415425539016724E-1  -5.048309958510799E-6   3.836205360130407E-5  -3.215727701899596E-6   3.857349656755105E-5  -9.598630070686340E-1  -1.661067605018616E-1  
 1.260950000000000E10   -9.620766043663025E-1  -1.382451057434082E-1  -4.000695753347827E-6   3.938224836019799E-5  -3.209342594345799E-6   3.928922160412185E-5  -9.603863358497620E-1  -1.626328229904175E-1  
 1.261000000000000E10   -9.625103473663330E-1  -1.349397748708725E-1  -3.717527761182282E-6   3.955077772843652E-5  -2.731177119130734E-6   4.006020753877237E-5  -9.608930945396423E-1  -1.591345071792603E-1  
 1.261050000000000E10   -9.629172682762146E-1  -1.315720677375794E-1  -4.997581982024713E-6   4.031259595649317E-5  -2.668757360879681E-6   4.094291580258869E-5  -9.614384770393372E-1  -1.556222736835480E-1  
 1.261100000000000E10   -9.632572531700134E-1  -1.281995475292206E-1  -3.635916300481767E-6   4.114239709451795E-5  -2.986264007631689E-6   4.180815813015215E-5  -9.619092345237732E-1  -1.520895063877106E-1  
 1.261150000000000E10   -9.636325836181641E-1  -1.248237788677216E-1  -3.084495801886078E-6   4.146786523051560E-5  -2.883630486394395E-6   4.143082696828060E-5  -9.624104499816895E-1  -1.485163271427155E-1  
 1.261200000000000E10   -9.640091061592102E-1  -1.214120313525200E-1  -2.969707111333264E-6   4.297873238101602E-5  -3.235337317164522E-6   4.361394167062827E-5  -9.628944993019104E-1  -1.448709964752197E-1  
 1.261250000000000E10   -9.643800854682922E-1  -1.179847270250320E-1  -2.950353291453212E-6   4.408541281009093E-5  -2.286384187755175E-6   4.400915713631548E-5  -9.633655548095703E-1  -1.412321478128433E-1  
 1.261300000000000E10   -9.647729396820068E-1  -1.145541071891785E-1  -2.587868038972374E-6   4.365356653579511E-5  -2.665061856532702E-6   4.472671571420506E-5  -9.638212323188782E-1  -1.376136094331741E-1  
 1.261350000000000E10   -9.650686979293823E-1  -1.110052391886711E-1  -3.400579771550838E-6   4.496064866543748E-5  -2.734802137638326E-6   4.505542165134102E-5  -9.642309546470642E-1  -1.339385211467743E-1  
 1.261400000000000E10   -9.653860330581665E-1  -1.075414642691612E-1  -2.210689672210719E-6   4.621780681191012E-5  -2.772923380689463E-6   4.595969585352577E-5  -9.646911025047302E-1  -1.302304565906525E-1  
 1.261450000000000E10   -9.656462073326111E-1  -1.040178015828133E-1  -2.833727194229141E-6   4.743530735140666E-5  -2.275124870720902E-6   4.689137495006435E-5  -9.651257395744324E-1  -1.264579445123673E-1  
 1.261500000000000E10   -9.660050272941589E-1  -1.005321443080902E-1  -3.148682708342676E-6   4.811153121409006E-5  -1.842556457631872E-6   4.877236278844066E-5  -9.654895663261414E-1  -1.227385625243187E-1  
 1.261550000000000E10   -9.663065671920776E-1  -9.697642177343369E-2  -1.938354898811667E-6   4.866996459895745E-5  -2.216326492998633E-6   4.944924876326695E-5  -9.658778309822083E-1  -1.189641058444977E-1  
 1.261600000000000E10   -9.665898680686951E-1  -9.340384602546692E-2  -1.215844349644613E-6   4.956201155437157E-5  -1.832120915423730E-6   4.950949005433358E-5  -9.662690162658691E-1  -1.151591241359711E-1  
 1.261650000000000E10   -9.668943285942078E-1  -8.978912234306335E-2  -2.603654820632073E-6   5.012719338992611E-5  -2.528575350879692E-6   5.047781087341718E-5  -9.666560888290405E-1  -1.113047674298286E-1  
 1.261700000000000E10   -9.671626687049866E-1  -8.616445958614349E-2  -9.703139767225366E-7   5.196474376134574E-5  -1.201664872496622E-6   5.147765477886424E-5  -9.670194387435913E-1  -1.074823290109634E-1  
 1.261750000000000E10   -9.674077033996582E-1  -8.251882344484329E-2  -1.644827989366604E-6   5.291683191899210E-5  -1.529116616438841E-6   5.270667679724284E-5  -9.673595428466797E-1  -1.035850346088409E-1  
 1.261800000000000E10   -9.676610231399536E-1  -7.882098853588104E-2  -5.034198693465442E-7   5.303814032231458E-5  -1.185236669698497E-6   5.358563066693023E-5  -9.677026271820068E-1  -9.966477006673813E-2  
 1.261850000000000E10   -9.678680896759033E-1  -7.511736452579498E-2  -7.667144927836489E-7   5.545176099985838E-5  -1.910494120238582E-6   5.552332368097268E-5  -9.680381417274475E-1  -9.569784253835678E-2  
 1.261900000000000E10   -9.680522680282593E-1  -7.139797508716583E-2   4.033154255012050E-8   5.509348920895718E-5  -1.529379915155005E-6   5.662336116074584E-5  -9.683333635330200E-1  -9.172586351633072E-2  
 1.261950000000000E10   -9.682658314704895E-1  -6.765660643577576E-2   4.980624908057507E-7   5.679549576598220E-5  -1.428822088200832E-6   5.734516162192449E-5  -9.686128497123718E-1  -8.771337568759918E-2  
 1.262000000000000E10   -9.684584736824036E-1  -6.384314596652985E-2   8.637634891783819E-7   5.863638943992555E-5  -2.247691099910298E-6   5.816704288008623E-5  -9.688943028450012E-1  -8.367843925952911E-2  
 1.262050000000000E10   -9.686458706855774E-1  -6.006543338298798E-2   9.530585884931497E-7   5.951967250439338E-5  -2.022693934122799E-6   5.933676584390923E-5  -9.691399931907654E-1  -7.962743192911148E-2  
 1.262100000000000E10   -9.688251614570618E-1  -5.623184517025948E-2   1.696097115200246E-6   6.081134779378772E-5  -2.201019469794119E-6   6.053276592865586E-5  -9.694343805313110E-1  -7.548993825912476E-2  
 1.262150000000000E10   -9.689621925354004E-1  -5.241974815726280E-2   1.684817107161507E-6   6.189707346493378E-5  -2.222029706899775E-6   6.185934034874663E-5  -9.696291685104370E-1  -7.139275223016739E-2  
 1.262200000000000E10   -9.690950512886047E-1  -4.853270575404167E-2   8.008823897398543E-7   6.317390943877399E-5  -2.323615717614302E-6   6.331208714982495E-5  -9.698192477226257E-1  -6.720371544361115E-2  
 1.262250000000000E10   -9.691901803016663E-1  -4.460500180721283E-2   1.672117377893301E-6   6.470485823228955E-5  -1.874435383797390E-6   6.402590952347964E-5  -9.700369834899902E-1  -6.303200125694275E-2  
 1.262300000000000E10   -9.692955613136292E-1  -4.067824035882950E-2   1.661984697420849E-6   6.583441427210346E-5  -2.552309069869807E-6   6.468452920671552E-5  -9.702742695808411E-1  -5.880708992481232E-2  
 1.262350000000000E10   -9.693886637687683E-1  -3.672667592763901E-2   1.206720298796427E-6   6.741678225807846E-5  -1.788701410987414E-6   6.570658297277987E-5  -9.703765511512756E-1  -5.452414602041245E-2  
 1.262400000000000E10   -9.694494605064392E-1  -3.271479904651642E-2   7.276448741322383E-7   6.884170579724014E-5  -1.730620624584844E-6   6.695836782455444E-5  -9.705508947372437E-1  -5.024734139442444E-2  
 1.262450000000000E10   -9.694951176643372E-1  -2.868239954113960E-2   1.524213530501584E-6   7.002754864515737E-5  -1.353506377199665E-6   6.703713734168559E-5  -9.706320166587830E-1  -4.589583352208138E-2  
 1.262500000000000E10   -9.695485830307007E-1  -2.461428940296173E-2   7.607850420754403E-7   7.150887540774420E-5  -5.120418791193515E-7   6.881509034428746E-5  -9.707837700843811E-1  -4.156409204006195E-2  
 1.262550000000000E10   -9.695774912834168E-1  -2.053309231996536E-2   9.824889275478199E-7   7.256177923409268E-5   5.671163307852112E-7   6.955327262403444E-5  -9.708355069160461E-1  -3.715882450342178E-2  
 1.262600000000000E10   -9.696089625358582E-1  -1.645490527153015E-2   1.663437160459580E-6   7.272314542206004E-5   1.058923771779519E-6   7.101865048753098E-5  -9.709492325782776E-1  -3.272954002022743E-2  
 1.262650000000000E10   -9.695533514022827E-1  -1.228773593902588E-2   2.267432137159631E-6   7.492255099350587E-5   1.542350673844339E-6   7.229416951304302E-5  -9.709637165069580E-1  -2.826251089572907E-2  
 1.262700000000000E10   -9.694908261299133E-1  -8.130043745040894E-3   2.404555289103882E-6   7.607545558130369E-5   3.312222816020949E-6   7.426403317367658E-5  -9.709597826004028E-1  -2.377139776945114E-2  
 1.262750000000000E10   -9.694479703903198E-1  -3.913253545761108E-3   3.635309894889360E-6   7.664660370210186E-5   2.443875473545631E-6   7.614334754180163E-5  -9.709523916244507E-1  -1.919294893741608E-2  
 1.262800000000000E10   -9.693798422813416E-1   3.133714199066162E-4   3.451956217759289E-6   7.797095895512030E-5   2.685837444005301E-6   7.838762394385412E-5  -9.709724783897400E-1  -1.467518880963326E-2  
 1.262850000000000E10   -9.692944884300232E-1   4.569642245769501E-3   4.342544798419112E-6   7.899956835899502E-5   4.100196292711189E-6   7.983148680068553E-5  -9.709200859069824E-1  -1.003948226571083E-2  
 1.262900000000000E10   -9.691943526268005E-1   8.900545537471771E-3   5.352218977350276E-6   8.085175795713440E-5   4.330876436142717E-6   8.212884858949110E-5  -9.708458781242371E-1  -5.405507981777191E-3  
 1.262950000000000E10   -9.690479040145874E-1   1.320918649435043E-2   4.749209892906947E-6   8.304738003062084E-5   4.600793090503430E-6   8.360646461369470E-5  -9.707517623901367E-1  -7.116347551345825E-4  
 1.263000000000000E10   -9.688884615898132E-1   1.755717396736145E-2   4.825685209652875E-6   8.438293298240751E-5   5.110989150125533E-6   8.534317021258175E-5  -9.706760048866272E-1   4.005372524261475E-3  
 1.263050000000000E10   -9.686842560768127E-1   2.196199446916580E-2   5.349877937987912E-6   8.641167369205505E-5   6.775933343305951E-6   8.711251575732604E-5  -9.705337882041931E-1   8.812751621007919E-3  
 1.263100000000000E10   -9.685394167900085E-1   2.637265250086784E-2   6.369497441482963E-6   8.783247176324949E-5   7.712964361417107E-6   8.969489863375202E-5  -9.703702330589294E-1   1.358563452959061E-2  
 1.263150000000000E10   -9.683189392089844E-1   3.085047751665115E-2   6.156483777886024E-6   8.912884368328378E-5   8.713279385119677E-6   9.123486233875155E-5  -9.701736569404602E-1   1.844020560383797E-2  
 1.263200000000000E10   -9.680730104446411E-1   3.530425578355789E-2   7.226475190691417E-6   9.002893057186157E-5   9.022620361065492E-6   9.390943159814924E-5  -9.699633121490479E-1   2.333813533186913E-2  
 1.263250000000000E10   -9.677501320838928E-1   3.986457735300064E-2   7.282780188688776E-6   9.307278378400952E-5   1.066919321601745E-5   9.684140241006389E-5  -9.697528481483460E-1   2.827329933643341E-2  
 1.263300000000000E10   -9.674929380416870E-1   4.444292932748795E-2   7.791008101776242E-6   9.503030014457181E-5   1.109846743929666E-5   9.918219438986853E-5  -9.694384932518005E-1   3.325149416923523E-2  
 1.263350000000000E10   -9.671761989593506E-1   4.906067997217178E-2   8.509288818459027E-6   9.705234697321430E-5   1.272909776162123E-5   1.014986555674113E-4  -9.691476821899414E-1   3.825270384550095E-2  
 1.263400000000000E10   -9.668503403663635E-1   5.371741950511932E-2   9.900519216898829E-6   9.953456174116582E-5   1.357169821858406E-5   1.037464535329491E-4  -9.688363075256348E-1   4.330303892493248E-2  
 1.263450000000000E10   -9.664750099182129E-1   5.838188529014587E-2   1.061768671206664E-5   1.027682956191711E-4   1.432713361282367E-5   1.055696629919112E-4  -9.684737324714661E-1   4.841734468936920E-2  
 1.263500000000000E10   -9.661089777946472E-1   6.309412419795990E-2   1.088349563360680E-5   1.052837178576738E-4   1.581953802087810E-5   1.084474642993882E-4  -9.681020975112915E-1   5.357500910758972E-2  
 1.263550000000000E10   -9.656508564949036E-1   6.786900758743286E-2   1.210506707138848E-5   1.090682271751575E-4   1.659727968217339E-5   1.107703137677163E-4  -9.676603674888611E-1   5.878344178199768E-2  
 1.263600000000000E10   -9.652580618858337E-1   7.269375026226044E-2   1.467049969505752E-5   1.112203099182807E-4   1.791913928173017E-5   1.122896210290492E-4  -9.672095179557800E-1   6.400575488805771E-2  
 1.263650000000000E10   -9.647800922393799E-1   7.748463749885559E-2   1.630537371966057E-5   1.138003353844397E-4   1.824148785090074E-5   1.148481605923735E-4  -9.667104482650757E-1   6.929365545511246E-2  
 1.263700000000000E10   -9.642682671546936E-1   8.234093338251114E-2   1.727721974020824E-5   1.172851480077952E-4   1.914038875838742E-5   1.166320507763885E-4  -9.661892056465149E-1   7.462137192487717E-2  
 1.263750000000000E10   -9.637475013732910E-1   8.725363761186600E-2   1.835980583564378E-5   1.206893211929128E-4   1.949014949786943E-5   1.187779780593701E-4  -9.656489491462708E-1   8.002533763647080E-2  
 1.263800000000000E10   -9.631879329681397E-1   9.220688045024872E-2   2.045539258688223E-5   1.227955071954057E-4   2.082792525470723E-5   1.204334694193676E-4  -9.650469422340393E-1   8.543536812067032E-2  
 1.263850000000000E10   -9.625465273857117E-1   9.720811247825623E-2   2.158045572286937E-5   1.254722592420876E-4   2.105105522787198E-5   1.229211047757417E-4  -9.643779397010803E-1   9.093070030212402E-2  
 1.263900000000000E10   -9.619494080543518E-1   1.022610440850258E-1   2.222202965640463E-5   1.274352543987334E-4   2.164522447856143E-5   1.259172131540254E-4  -9.637427330017090E-1   9.641338139772415E-2  
 1.263950000000000E10   -9.613321423530579E-1   1.073272898793221E-1   2.425605634925887E-5   1.308022183366120E-4   2.284183028677944E-5   1.281043951166794E-4  -9.629861116409302E-1   1.020189076662064E-1  
 1.264000000000000E10   -9.606332182884216E-1   1.124190762639046E-1   2.472571395628620E-5   1.333860855083913E-4   2.411315290373750E-5   1.306281046709046E-4  -9.622859954833984E-1   1.076179146766663E-1  
 1.264050000000000E10   -9.598771333694458E-1   1.176065951585770E-1   2.634189877426252E-5   1.364528579870239E-4   2.504782969481312E-5   1.342783216387034E-4  -9.614998698234558E-1   1.133259311318398E-1  
 1.264100000000000E10   -9.591305851936340E-1   1.227979585528374E-1   2.775640678009950E-5   1.387659867759794E-4   2.650856185937300E-5   1.369448727928102E-4  -9.606522917747498E-1   1.190525740385056E-1  
 1.264150000000000E10   -9.583197236061096E-1   1.280654817819595E-1   2.879237945307978E-5   1.425492955604568E-4   2.782575029414147E-5   1.401848276145756E-4  -9.597544670104981E-1   1.248175054788590E-1  
 1.264200000000000E10   -9.574534296989441E-1   1.333576291799545E-1   3.094652856816538E-5   1.451420102966949E-4   2.973403570649680E-5   1.434171863365918E-4  -9.588201045989990E-1   1.306653022766113E-1  
 1.264250000000000E10   -9.566071629524231E-1   1.387342959642410E-1   3.272113463026471E-5   1.485568791395053E-4   3.197196929249913E-5   1.460353087168187E-4  -9.578421711921692E-1   1.365528702735901E-1  
 1.264300000000000E10   -9.556891918182373E-1   1.441275775432587E-1   3.501866740407422E-5   1.515302574262023E-4   3.222779923817143E-5   1.504916435806081E-4  -9.568074345588684E-1   1.425073444843292E-1  
 1.264350000000000E10   -9.547458887100220E-1   1.495792716741562E-1   3.626394391176291E-5   1.552084722789004E-4   3.412792648305185E-5   1.531068264739588E-4  -9.557812809944153E-1   1.485268473625183E-1  
 1.264400000000000E10   -9.537440538406372E-1   1.550703942775726E-1   3.815295349340886E-5   1.582124823471531E-4   3.563944846973755E-5   1.571331667946652E-4  -9.546610116958618E-1   1.545851677656174E-1  
 1.264450000000000E10   -9.527211785316467E-1   1.606084406375885E-1   4.113728209631518E-5   1.616871595615521E-4   3.691439997055568E-5   1.599117385922000E-4  -9.534671306610107E-1   1.607142090797424E-1  
 1.264500000000000E10   -9.515831470489502E-1   1.662285774946213E-1   4.267382610123605E-5   1.642639399506152E-4   3.862946687149815E-5   1.643796131247655E-4  -9.522468447685242E-1   1.668985784053803E-1  
 1.264550000000000E10   -9.504789113998413E-1   1.718416959047318E-1   4.396989970700815E-5   1.689614873612300E-4   4.045206151204184E-5   1.682069851085544E-4  -9.510170221328735E-1   1.731350123882294E-1  
 1.264600000000000E10   -9.493024349212647E-1   1.775158941745758E-1   4.689574052463286E-5   1.729083742247894E-4   4.373828778625466E-5   1.728399656713009E-4  -9.496746063232422E-1   1.793988347053528E-1  
 1.264650000000000E10   -9.480949044227600E-1   1.832430064678192E-1   4.837215601583011E-5   1.758336002239958E-4   4.502135197981261E-5   1.775529235601425E-4  -9.482715725898743E-1   1.857791244983673E-1  
