#  HZ   S   RI   R     50.00 
! Rohde & Schwarz ZVA50 2Ports - Version 3.70 - 1145.1110k50 SN: 100192
! Date: 2025-10-23 16:24:25
! Measurements: S11 S21 S12 S22 
! 
 1.260000000000000E10   -9.484146237373352E-1  -2.196407169103622E-1  -4.298989097151207E-6   2.391540874668863E-5  -4.362053914519493E-6   2.330230199731886E-5  -9.472321867942810E-1  -2.312896698713303E-1  
 1.260050000000000E10   -9.489728808403015E-1  -2.167814224958420E-1  -5.113918632559944E-6   2.507022873032838E-5  -4.747742423205636E-6   2.271941229992081E-5  -9.478738903999329E-1  -2.282384335994721E-1  
 1.260100000000000E10   -9.495877623558044E-1  -2.139541059732437E-1  -4.199605882604374E-6   2.524744922993705E-5  -4.728263775177766E-6   2.321468855370767E-5  -9.485615491867065E-1  -2.251466214656830E-1  
 1.260150000000000E10   -9.501575827598572E-1  -2.110727429389954E-1  -4.726270162791479E-6   2.485643926775083E-5  -4.788925707543967E-6   2.397637581452727E-5  -9.492679834365845E-1  -2.220874279737473E-1  
 1.260200000000000E10   -9.507578611373901E-1  -2.082028985023499E-1  -4.561162313621026E-6   2.583304922154639E-5  -4.266948963049799E-6   2.429117921565194E-5  -9.498843550682068E-1  -2.189878821372986E-1  
 1.260250000000000E10   -9.513044357299805E-1  -2.053554654121399E-1  -4.755194368044613E-6   2.554807724663988E-5  -5.011594112147577E-6   2.489859252818860E-5  -9.505227208137512E-1  -2.158903181552887E-1  
 1.260300000000000E10   -9.519054293632507E-1  -2.024910449981690E-1  -3.627017576945946E-6   2.600691368570551E-5  -4.635416644305224E-6   2.530490746721625E-5  -9.511514306068420E-1  -2.127739191055298E-1  
 1.260350000000000E10   -9.524697661399841E-1  -1.995746195316315E-1  -4.169002750131767E-6   2.566069088061340E-5  -4.543314844340785E-6   2.476932604622562E-5  -9.517790079116821E-1  -2.095887362957001E-1  
 1.260400000000000E10   -9.530453681945801E-1  -1.966516375541687E-1  -4.569029897538712E-6   2.631764436955564E-5  -4.359155809652293E-6   2.565991781011690E-5  -9.524515271186829E-1  -2.064351141452789E-1  
 1.260450000000000E10   -9.535610675811768E-1  -1.936928331851959E-1  -3.882937562593725E-6   2.699428841879126E-5  -3.714537797350204E-6   2.562134432082530E-5  -9.530589580535889E-1  -2.032435238361359E-1  
 1.260500000000000E10   -9.541082382202148E-1  -1.907647848129273E-1  -4.317238563089632E-6   2.667425906111021E-5  -3.683420800371096E-6   2.636751924001146E-5  -9.536456465721130E-1  -2.000453025102615E-1  
 1.260550000000000E10   -9.546620249748230E-1  -1.878206729888916E-1  -4.514351530815475E-6   2.735942143772263E-5  -3.209674105164595E-6   2.658062840055209E-5  -9.542770981788635E-1  -1.967924833297730E-1  
 1.260600000000000E10   -9.551838636398315E-1  -1.848035752773285E-1  -4.120659468753729E-6   2.869619493139908E-5  -4.168526174908038E-6   2.686827428988181E-5  -9.548824429512024E-1  -1.935535818338394E-1  
 1.260650000000000E10   -9.565173983573914E-1  -1.823921203613281E-1  -4.570544660964515E-6   2.912828495027497E-5  -3.749337111003115E-6   2.765898898360319E-5  -9.561119675636292E-1  -1.906386017799377E-1  
 1.260700000000000E10   -9.570295214653015E-1  -1.793842613697052E-1  -3.461262167547829E-6   2.781394869089127E-5  -3.536953045113478E-6   2.828967626555823E-5  -9.566633701324463E-1  -1.873354464769363E-1  
 1.260750000000000E10   -9.575670957565308E-1  -1.763935238122940E-1  -3.750759333343012E-6   2.860879067156930E-5  -3.573150479496690E-6   2.910303192038555E-5  -9.572069644927979E-1  -1.840336769819260E-1  
 1.260800000000000E10   -9.580397605895996E-1  -1.733170300722122E-1  -4.473476110433694E-6   2.886049514927436E-5  -2.977461463160580E-6   3.010222826560494E-5  -9.577916264533997E-1  -1.806840300559998E-1  
 1.260850000000000E10   -9.585112929344177E-1  -1.702261865139008E-1  -3.744170044228667E-6   3.003408164659049E-5  -3.444117965045734E-6   3.031122105312534E-5  -9.583306312561035E-1  -1.773540228605270E-1  
 1.260900000000000E10   -9.590095877647400E-1  -1.671760529279709E-1  -3.857705451082438E-6   2.992565168824513E-5  -3.821980499196798E-6   3.057864523725584E-5  -9.588875174522400E-1  -1.739658713340759E-1  
 1.260950000000000E10   -9.594605565071106E-1  -1.640648990869522E-1  -3.835775714833289E-6   3.029266918019857E-5  -3.055408114960301E-6   3.148001633235253E-5  -9.594178795814514E-1  -1.705515086650848E-1  
 1.261000000000000E10   -9.599685072898865E-1  -1.610081046819687E-1  -4.131497462367406E-6   3.078294321312569E-5  -2.150591626559617E-6   3.280101373093203E-5  -9.599534273147583E-1  -1.671081185340881E-1  
 1.261050000000000E10   -9.604211449623108E-1  -1.578089892864227E-1  -4.192172582406784E-6   3.129747346974909E-5  -1.913840151246404E-6   3.351809209561907E-5  -9.605101943016052E-1  -1.636915653944016E-1  
 1.261100000000000E10   -9.608333706855774E-1  -1.546388119459152E-1  -3.832455604424467E-6   3.167871909681708E-5  -1.591922455190797E-6   3.418834967305884E-5  -9.609830379486084E-1  -1.602098345756531E-1  
 1.261150000000000E10   -9.612877368927002E-1  -1.514829397201538E-1  -3.992619895143434E-6   3.281511817476712E-5  -1.846412942541065E-6   3.411883153603412E-5  -9.615145921707153E-1  -1.567103862762451E-1  
 1.261200000000000E10   -9.617024064064026E-1  -1.482834666967392E-1  -3.417432253627339E-6   3.386079697520472E-5  -2.091924670821754E-6   3.484341868897900E-5  -9.620066881179810E-1  -1.531502902507782E-1  
 1.261250000000000E10   -9.621751308441162E-1  -1.450941562652588E-1  -3.894235760526499E-6   3.532220580382273E-5  -1.537905745863100E-6   3.542997728800401E-5  -9.625194668769836E-1  -1.496132761240006E-1  
 1.261300000000000E10   -9.626002907752991E-1  -1.418941617012024E-1  -3.437048235355178E-6   3.411988291190937E-5  -1.423936964783934E-6   3.622529402491637E-5  -9.629558920860291E-1  -1.460610777139664E-1  
 1.261350000000000E10   -9.630013704299927E-1  -1.385807394981384E-1  -2.633570147736464E-6   3.567904786905274E-5  -1.422250079485821E-6   3.708546501002275E-5  -9.634094238281250E-1  -1.424844712018967E-1  
 1.261400000000000E10   -9.633944630622864E-1  -1.353547871112824E-1  -2.037474359894986E-6   3.709946395247243E-5  -1.318203658229322E-6   3.817153992713429E-5  -9.638858437538147E-1  -1.388486027717590E-1  
 1.261450000000000E10   -9.637287259101868E-1  -1.320771723985672E-1  -2.242071559521719E-6   3.772144918912090E-5  -2.160237045245594E-6   3.812227078014985E-5  -9.643428325653076E-1  -1.351974159479141E-1  
 1.261500000000000E10   -9.641583561897278E-1  -1.288239061832428E-1  -9.379946277476847E-7   3.855580871459097E-5  -1.793695673768525E-6   3.905881385435350E-5  -9.647407531738281E-1  -1.315458118915558E-1  
 1.261550000000000E10   -9.645743370056152E-1  -1.255001127719879E-1  -1.538362994324416E-6   3.975340587203391E-5  -2.300168489455245E-6   3.996733357780613E-5  -9.651741385459900E-1  -1.278450936079025E-1  
 1.261600000000000E10   -9.649211168289185E-1  -1.221590116620064E-1  -5.457932275021449E-7   3.971916885348037E-5  -2.683410457393620E-6   4.058054400957190E-5  -9.655745029449463E-1  -1.241155862808228E-1  
 1.261650000000000E10   -9.652907848358154E-1  -1.187997013330460E-1  -5.652482286677696E-7   4.113503382541239E-5  -2.615399353089742E-6   4.098019780940376E-5  -9.659936428070068E-1  -1.204026788473129E-1  
 1.261700000000000E10   -9.656596183776856E-1  -1.154192015528679E-1  -3.125983312202152E-7   4.263513619662263E-5  -2.818471330101602E-6   4.226173768984154E-5  -9.663575291633606E-1  -1.166339069604874E-1  
 1.261750000000000E10   -9.659958481788635E-1  -1.119883134961128E-1  -4.746789272758178E-7   4.322721360949799E-5  -3.006549832207384E-6   4.288192212698050E-5  -9.667424559593201E-1  -1.128263846039772E-1  
 1.261800000000000E10   -9.663547277450562E-1  -1.085960268974304E-1  -2.353376657993067E-7   4.375720527605154E-5  -3.145674554616562E-6   4.270661884220317E-5  -9.670907855033875E-1  -1.089987158775330E-1  
 1.261850000000000E10   -9.666423797607422E-1  -1.051505431532860E-1  -1.801349753804971E-7   4.541613816400059E-5  -2.359763357162592E-6   4.377909499453381E-5  -9.674394726753235E-1  -1.051643192768097E-1  
 1.261900000000000E10   -9.669396281242371E-1  -1.017057076096535E-1  -3.696595740620978E-7   4.593574703903869E-5  -3.330132130940910E-6   4.454186637303792E-5  -9.677666425704956E-1  -1.012828946113586E-1  
 1.261950000000000E10   -9.672429561614990E-1  -9.819078445434570E-2  -6.690547706966754E-7   4.619057654053904E-5  -3.528771230776329E-6   4.431453271536157E-5  -9.680781364440918E-1  -9.737081080675125E-2  
 1.262000000000000E10   -9.675502777099609E-1  -9.465068578720093E-2  -7.224671207950451E-7   4.729004285763949E-5  -4.009868007415207E-6   4.531020022113808E-5  -9.683703184127808E-1  -9.339791536331177E-2  
 1.262050000000000E10   -9.678232669830322E-1  -9.116984903812408E-2   6.759273674106225E-8   4.815033753402531E-5  -3.942358944186708E-6   4.519301728578284E-5  -9.686789512634277E-1  -8.947945386171341E-2  
 1.262100000000000E10   -9.680913686752319E-1  -8.762364834547043E-2  -2.697934178286232E-7   4.915799217997119E-5  -3.876700247928966E-6   4.669713234761730E-5  -9.690182209014893E-1  -8.544622361660004E-2  
 1.262150000000000E10   -9.683325290679932E-1  -8.407049626111984E-2  -4.539492692856584E-7   4.954856558470056E-5  -4.237031134834979E-6   4.707444168161601E-5  -9.692157506942749E-1  -8.144980669021606E-2  
 1.262200000000000E10   -9.685772061347961E-1  -8.046718686819077E-2  -6.432082955143414E-8   5.092557694297284E-5  -3.769845534407068E-6   4.761081800097600E-5  -9.694476723670960E-1  -7.738592475652695E-2  
 1.262250000000000E10   -9.688163995742798E-1  -7.683707773685455E-2   2.529354787839111E-7   5.079832408227958E-5  -3.626634679676499E-6   4.911430369247682E-5  -9.696902036666870E-1  -7.328842580318451E-2  
 1.262300000000000E10   -9.690240621566773E-1  -7.316830009222031E-2  -1.467804850108223E-6   5.285795123199932E-5  -2.971492676806520E-6   4.901718057226390E-5  -9.699438214302063E-1  -6.917799264192581E-2  
 1.262350000000000E10   -9.692401289939880E-1  -6.952860951423645E-2  -1.072070972440997E-6   5.157492341822945E-5  -2.615490984680946E-6   4.987558713764884E-5  -9.700923562049866E-1  -6.501238048076630E-2  
 1.262400000000000E10   -9.694365859031677E-1  -6.584866344928742E-2   5.114407031214796E-8   5.333432636689395E-5  -2.639161948536639E-6   5.076144952909090E-5  -9.702966809272766E-1  -6.085954606533051E-2  
 1.262450000000000E10   -9.696217179298401E-1  -6.210118904709816E-2   2.685969775484409E-7   5.237600635155104E-5  -1.775432565409574E-6   5.222270556259900E-5  -9.704864025115967E-1  -5.662659183144569E-2  
 1.262500000000000E10   -9.698193669319153E-1  -5.835152417421341E-2   7.547214408987202E-8   5.427335418062285E-5  -1.370706513625919E-6   5.305328522808850E-5  -9.706227183341980E-1  -5.241819098591805E-2  
 1.262550000000000E10   -9.699900150299072E-1  -5.458636954426765E-2   1.104126567952335E-7   5.463523120852187E-5  -1.342701352768927E-6   5.427329597296193E-5  -9.707120060920715E-1  -4.813896864652634E-2  
 1.262600000000000E10   -9.700881838798523E-1  -5.083134770393372E-2   1.133389105234528E-6   5.526832319446839E-5  -4.171120053797495E-7   5.569990389631130E-5  -9.708587527275085E-1  -4.382215812802315E-2  
 1.262650000000000E10   -9.702042937278748E-1  -4.698194935917854E-2   7.722769623796921E-7   5.602476812782697E-5  -4.380167411000002E-7   5.711655103368685E-5  -9.709349274635315E-1  -3.945473581552506E-2  
 1.262700000000000E10   -9.703056812286377E-1  -4.315312206745148E-2   1.108001924876589E-6   5.830991722177714E-5  -4.253333827364259E-7   5.917477392358705E-5  -9.710184335708618E-1  -3.508842363953590E-2  
 1.262750000000000E10   -9.704130887985230E-1  -3.927553445100784E-2   8.148599590640515E-7   5.818120553158224E-5   2.172873792005703E-7   6.088853115215898E-5  -9.710580706596375E-1  -3.064947575330734E-2  
 1.262800000000000E10   -9.704616665840149E-1  -3.539068251848221E-2   1.136436367232818E-6   5.953051368123852E-5   1.075359250535257E-7   6.168203981360421E-5  -9.710857272148132E-1  -2.623856440186501E-2  
 1.262850000000000E10   -9.705526232719421E-1  -3.149148076772690E-2   2.122047135344474E-6   6.046163980499841E-5   9.653917913965415E-7   6.309658056125045E-5  -9.711091518402100E-1  -2.172292396426201E-2  
 1.262900000000000E10   -9.706175327301025E-1  -2.747608348727226E-2   9.522141226625536E-7   6.176432361826301E-5   1.077012257155730E-6   6.551315891556442E-5  -9.710681438446045E-1  -1.723630726337433E-2  
 1.262950000000000E10   -9.706376194953919E-1  -2.353890240192413E-2   1.299383256991860E-6   6.299896631389856E-5   1.664968749537366E-6   6.626276444876567E-5  -9.710613489151001E-1  -1.267864182591438E-2  
 1.263000000000000E10   -9.706583023071289E-1  -1.953307539224625E-2   1.825762410589960E-6   6.451686203945428E-5   2.855697857739870E-6   6.764951103832573E-5  -9.710228443145752E-1  -8.068546652793884E-3  
 1.263050000000000E10   -9.706361293792725E-1  -1.546725630760193E-2   1.607318608876085E-6   6.599417247343808E-5   3.832473794318503E-6   6.944068445591256E-5  -9.709100127220154E-1  -3.443934023380280E-3  
 1.263100000000000E10   -9.706694483757019E-1  -1.144515722990036E-2   1.586171038070461E-6   6.782556010875851E-5   4.180698851996567E-6   7.036609167698771E-5  -9.708173274993897E-1   1.210380345582962E-3  
 1.263150000000000E10   -9.706271290779114E-1  -7.328618317842484E-3   2.416065854049521E-6   7.005486259004101E-5   5.078139565739548E-6   7.148934673750773E-5  -9.706867337226868E-1   5.903206765651703E-3  
 1.263200000000000E10   -9.705579280853272E-1  -3.225956112146378E-3   2.442931418045191E-6   7.176645158324391E-5   5.006454557587858E-6   7.270965579664335E-5  -9.705545902252197E-1   1.064240559935570E-2  
 1.263250000000000E10   -9.704800248146057E-1   9.382925927639008E-4   3.106077201664448E-6   7.307605119422078E-5   5.692492777598091E-6   7.363426993833855E-5  -9.703918695449829E-1   1.544465124607086E-2  
 1.263300000000000E10   -9.704270362854004E-1   5.113746970891953E-3   3.863286110572517E-6   7.565868145320565E-5   6.877191481180489E-6   7.541762897744775E-5  -9.701576232910156E-1   2.026476338505745E-2  
 1.263350000000000E10   -9.703121781349182E-1   9.358763694763184E-3   3.620642019086517E-6   7.678393012611195E-5   7.567481134174159E-6   7.636411464773119E-5  -9.699250459671021E-1   2.509197220206261E-2  
 1.263400000000000E10   -9.701876044273377E-1   1.358798891305924E-2   4.340541636338458E-6   7.826458750059828E-5   7.856329830246978E-6   7.784370973240584E-5  -9.696874618530273E-1   2.998604997992516E-2  
 1.263450000000000E10   -9.700136780738831E-1   1.785271987318993E-2   5.418735781859141E-6   8.048187737585977E-5   8.784706551523414E-6   7.892327266745269E-5  -9.693884849548340E-1   3.496587648987770E-2  
 1.263500000000000E10   -9.698660969734192E-1   2.215414308011532E-2   6.261197086132597E-6   8.140541467582807E-5   9.670917279436253E-6   8.047027949942276E-5  -9.690717458724976E-1   3.994153439998627E-2  
 1.263550000000000E10   -9.696524739265442E-1   2.651964686810970E-2   7.640518560947385E-6   8.447129221167415E-5   1.032619638863253E-5   8.164168684743345E-5  -9.687469601631165E-1   4.498758167028427E-2  
 1.263600000000000E10   -9.694529175758362E-1   3.090772032737732E-2   7.945220204419456E-6   8.515591616742313E-5   1.106344916479429E-5   8.350390999112278E-5  -9.683733582496643E-1   5.004502460360527E-2  
 1.263650000000000E10   -9.692543148994446E-1   3.527126461267471E-2   9.329514796263538E-6   8.649800292914733E-5   1.085800977307372E-5   8.512180647812784E-5  -9.679695367813110E-1   5.516760051250458E-2  
 1.263700000000000E10   -9.690270423889160E-1   3.966362774372101E-2   1.002102089842083E-5   8.849374717101455E-5   1.130210057453951E-5   8.661708852741867E-5  -9.675416946411133E-1   6.031314283609390E-2  
 1.263750000000000E10   -9.687015414237976E-1   4.414317011833191E-2   1.076315493264701E-5   9.040132135851309E-5   1.170981067843968E-5   8.854445331962779E-5  -9.670764207839966E-1   6.553380936384201E-2  
 1.263800000000000E10   -9.683971405029297E-1   4.866092652082443E-2   1.115270879381569E-5   9.207729453919455E-5   1.176893147203373E-5   8.953500946518034E-5  -9.665875434875488E-1   7.075923681259155E-2  
 1.263850000000000E10   -9.680655002593994E-1   5.320584774017334E-2   1.155455265688943E-5   9.290738671552390E-5   1.309936124016531E-5   9.154537838185206E-5  -9.660354852676392E-1   7.609078288078308E-2  
 1.263900000000000E10   -9.677327275276184E-1   5.778887122869492E-2   1.304833585891174E-5   9.523913468001410E-5   1.429247731721262E-5   9.417152614332736E-5  -9.654828310012817E-1   8.140886574983597E-2  
 1.263950000000000E10   -9.673695564270020E-1   6.237838789820671E-2   1.412144320056541E-5   9.646064427215606E-5   1.454759240004933E-5   9.540120663587004E-5  -9.648560881614685E-1   8.679191023111343E-2  
 1.264000000000000E10   -9.669839143753052E-1   6.700975447893143E-2   1.499049176345579E-5   9.850484639173374E-5   1.532705937279388E-5   9.848000627243891E-5  -9.642544388771057E-1   9.219989925622940E-2  
 1.264050000000000E10   -9.665328264236450E-1   7.172013819217682E-2   1.651833190408070E-5   1.001815107883886E-4   1.665448507992551E-5   1.010904234135523E-4  -9.635854959487915E-1   9.769587218761444E-2  
 1.264100000000000E10   -9.660943746566773E-1   7.643935084342957E-2   1.719961801427417E-5   1.021163770928979E-4   1.805505235097371E-5   1.039168928400613E-4  -9.628591537475586E-1   1.032212227582932E-1  
 1.264150000000000E10   -9.656004309654236E-1   8.117076009511948E-2   1.844064900069498E-5   1.042940348270349E-4   1.839145807025489E-5   1.064361204043962E-4  -9.620961546897888E-1   1.087895333766937E-1  
 1.264200000000000E10   -9.650645852088928E-1   8.600202202796936E-2   1.951700141944457E-5   1.067283446900547E-4   1.945001349668019E-5   1.087273849407211E-4  -9.612762928009033E-1   1.144450679421425E-1  
 1.264250000000000E10   -9.645468592643738E-1   9.081062674522400E-2   2.137131195922848E-5   1.099639193853363E-4   2.032475276791956E-5   1.111925521399826E-4  -9.604567885398865E-1   1.201331987977028E-1  
 1.264300000000000E10   -9.639742374420166E-1   9.567366540431976E-2   2.137455157935619E-5   1.117447245633230E-4   2.062225757981651E-5   1.135283164330758E-4  -9.595525264739990E-1   1.258770674467087E-1  
 1.264350000000000E10   -9.633823633193970E-1   1.005504429340363E-1   2.318794940947555E-5   1.149400632129982E-4   2.128150481439661E-5   1.166931979241781E-4  -9.586583375930786E-1   1.316696107387543E-1  
 1.264400000000000E10   -9.627714753150940E-1   1.055011004209518E-1   2.420122837065719E-5   1.179321043309756E-4   2.324004162801430E-5   1.188789537991397E-4  -9.576928019523621E-1   1.374761611223221E-1  
 1.264450000000000E10   -9.621198177337647E-1   1.104689612984657E-1   2.558243613748346E-5   1.201563063659705E-4   2.416466850263532E-5   1.217402241309173E-4  -9.566545486450195E-1   1.433785408735275E-1  
 1.264500000000000E10   -9.613950252532959E-1   1.155316457152367E-1   2.691755253181327E-5   1.231673959409818E-4   2.482229683664627E-5   1.239767880178988E-4  -9.555740952491760E-1   1.492984443902969E-1  
 1.264550000000000E10   -9.607025980949402E-1   1.205808222293854E-1   2.938432407972869E-5   1.275077520404011E-4   2.522816066630185E-5   1.264939055545256E-4  -9.545193314552307E-1   1.553269177675247E-1  
 1.264600000000000E10   -9.599409103393555E-1   1.257039606571198E-1   3.001322147611063E-5   1.294635876547545E-4   2.725010926951654E-5   1.285344187635928E-4  -9.533376097679138E-1   1.613722294569016E-1  
 1.264650000000000E10   -9.591510295867920E-1   1.308798789978027E-1   3.144789297948591E-5   1.320384762948379E-4   2.815081825247034E-5   1.305914047406986E-4  -9.520803093910217E-1   1.674959212541580E-1  
