#  HZ   S   RI   R     50.00 
! Rohde & Schwarz ZVA50 2Ports - Version 3.70 - 1145.1110k50 SN: 100192
! Date: 2025-10-24 10:54:37
! Measurements: S11 S21 S12 S22 
! 
 1.269400000000000E10    4.560498893260956E-1   7.011873722076416E-1   3.304447745904326E-3  -1.736815203912556E-3   3.379206871613860E-3  -1.717398525215685E-3   2.439545989036560E-1   8.429583907127380E-1  
 1.269420000000000E10    4.711066782474518E-1   6.858022809028626E-1   3.262463724240661E-3  -1.773723866790533E-3   3.336703870445490E-3  -1.756184385158122E-3   2.610998749732971E-1   8.354511260986328E-1  
 1.269440000000000E10    4.859865009784699E-1   6.697483658790588E-1   3.215177217498422E-3  -1.805733656510711E-3   3.287981729954481E-3  -1.789672998711467E-3   2.783681452274323E-1   8.273363113403320E-1  
 1.269460000000000E10    5.006605982780457E-1   6.529871225357056E-1   3.160927211865783E-3  -1.833205227740109E-3   3.236887976527214E-3  -1.817673910409212E-3   2.957815527915955E-1   8.186296820640564E-1  
 1.269480000000000E10    5.151590704917908E-1   6.355572938919067E-1   3.103961469605565E-3  -1.854085130617023E-3   3.177483798936009E-3  -1.839636126533151E-3   3.133351504802704E-1   8.093373775482178E-1  
 1.269500000000000E10    5.293305516242981E-1   6.173903942108154E-1   3.040764946490526E-3  -1.866834238171578E-3   3.116780193522573E-3  -1.852908520959318E-3   3.309888839721680E-1   7.993244528770447E-1  
 1.269520000000000E10    5.432311892509460E-1   5.984438061714172E-1   2.975031966343522E-3  -1.873885747045279E-3   3.048100974410772E-3  -1.859460491687059E-3   3.487523496150971E-1   7.886151075363159E-1  
 1.269540000000000E10    5.567726492881775E-1   5.787367224693298E-1   2.901577157899737E-3  -1.869596308097243E-3   2.973852213472128E-3  -1.855564769357443E-3   3.666220903396606E-1   7.771798372268677E-1  
 1.269560000000000E10    5.699435472488403E-1   5.582562088966370E-1   2.825995674356818E-3  -1.857209252193570E-3   2.897774102166295E-3  -1.842446275986731E-3   3.845334053039551E-1   7.649616003036499E-1  
 1.269580000000000E10    5.826909542083740E-1   5.370007753372192E-1   2.743169199675322E-3  -1.835096394643188E-3   2.814247971400619E-3  -1.821946469135582E-3   4.025194942951202E-1   7.519106268882752E-1  
 1.269600000000000E10    5.949977040290833E-1   5.148980617523193E-1   2.657287055626512E-3  -1.800736063160002E-3   2.726790495216847E-3  -1.787853543646634E-3   4.204411506652832E-1   7.380695343017578E-1  
 1.269620000000000E10    6.067853569984436E-1   4.919886291027069E-1   2.566850278526545E-3  -1.754027325659990E-3   2.634311327710748E-3  -1.741434680297971E-3   4.383660256862640E-1   7.232490181922913E-1  
 1.269640000000000E10    6.179736852645874E-1   4.681749045848846E-1   2.474392764270306E-3  -1.697315601631999E-3   2.539995824918151E-3  -1.683911308646202E-3   4.562041163444519E-1   7.075666189193726E-1  
 1.269660000000000E10    6.285232901573181E-1   4.435367882251740E-1   2.377552678808570E-3  -1.622677897103131E-3   2.441133372485638E-3  -1.612029038369656E-3   4.739383459091187E-1   6.908309459686279E-1  
 1.269680000000000E10    6.383743882179260E-1   4.179939925670624E-1   2.277208724990487E-3  -1.538643729873002E-3   2.337329089641571E-3  -1.526113133877516E-3   4.915539026260376E-1   6.730524301528931E-1  
 1.269700000000000E10    6.474272608757019E-1   3.915823400020599E-1   2.174182794988155E-3  -1.440706080757082E-3   2.232537604868412E-3  -1.425962778739631E-3   5.089301466941834E-1   6.541525125503540E-1  
 1.269720000000000E10    6.556503772735596E-1   3.642878234386444E-1   2.067570807412267E-3  -1.324900775216520E-3   2.120547462254763E-3  -1.311280415393412E-3   5.260388255119324E-1   6.341198086738586E-1  
 1.269740000000000E10    6.629437804222107E-1   3.360378742218018E-1   1.957462169229984E-3  -1.197518547996879E-3   2.005574526265264E-3  -1.182734849862754E-3   5.428336262702942E-1   6.129040122032166E-1  
 1.269760000000000E10    6.691882014274597E-1   3.068485260009766E-1   1.842336379922926E-3  -1.053056796081364E-3   1.886077458038926E-3  -1.039156573824585E-3   5.591834187507629E-1   5.903638005256653E-1  
 1.269780000000000E10    6.744062304496765E-1   2.768217325210571E-1   1.720359083265066E-3  -8.968472247943282E-4   1.761913415975869E-3  -8.806831319816411E-4   5.750485658645630E-1   5.665298700332642E-1  
 1.269800000000000E10    6.783327460289002E-1   2.458767294883728E-1   1.591758569702506E-3  -7.259363192133606E-4   1.627666526474059E-3  -7.092705927789211E-4   5.902786254882813E-1   5.412880182266235E-1  
 1.269820000000000E10    6.809021234512329E-1   2.140170037746429E-1   1.451742136850953E-3  -5.407913122326136E-4   1.481247483752668E-3  -5.242612678557634E-4   6.047586798667908E-1   5.146148204803467E-1  
 1.269840000000000E10    6.819919347763062E-1   1.812740564346314E-1   1.294722780585289E-3  -3.453099052421749E-4   1.321492134593427E-3  -3.249866422265768E-4   6.183401346206665E-1   4.863861799240112E-1  
 1.269860000000000E10    6.815029978752136E-1   1.477131098508835E-1   1.115461112931371E-3  -1.358323497697711E-4   1.134659163653851E-3  -1.158708182629198E-4   6.308942437171936E-1   4.566060006618500E-1  
 1.269880000000000E10    6.792604923248291E-1   1.134218275547028E-1   9.034723625518382E-4   8.454991620965302E-5   9.154744911938906E-4   1.040755159920082E-4   6.422348022460938E-1   4.252248704433441E-1  
 1.269900000000000E10    6.751131415367127E-1   7.836052030324936E-2   6.471019587479532E-4   3.182632790412754E-4   6.534761050716043E-4   3.367038734722883E-4   6.521276831626892E-1   3.921697735786438E-1  
 1.269920000000000E10    6.688791513442993E-1   4.261976107954979E-2   3.301309188827872E-4   5.680150352418423E-4   3.276105271652341E-4   5.868390435352922E-4   6.603211164474487E-1   3.574202656745911E-1  
 1.269940000000000E10    6.604194641113281E-1   6.372183561325073E-3  -7.128545985324308E-5   8.408735739067197E-4  -8.332463767146692E-5   8.567573968321085E-4   6.666250228881836E-1   3.210074305534363E-1  
 1.269960000000000E10    6.494978070259094E-1  -3.034033626317978E-2  -5.825132247991860E-4   1.145056681707501E-3  -6.069570663385093E-4   1.158924773335457E-3   6.705914735794067E-1   2.829102873802185E-1  
 1.269980000000000E10    6.358893513679504E-1  -6.729107350111008E-2  -1.239745295606554E-3   1.501975464634597E-3  -1.278680632822216E-3   1.512532006017864E-3   6.720012426376343E-1   2.432181239128113E-1  
 1.270000000000000E10    6.194188594818115E-1  -1.043675541877747E-1  -2.087677363306284E-3   1.941612223163247E-3  -2.146045444533229E-3   1.946724951267242E-3   6.703383922576904E-1   2.019771635532379E-1  
 1.270020000000000E10    5.998566746711731E-1  -1.412734091281891E-1  -3.179048420861363E-3   2.511353231966496E-3  -3.258169628679752E-3   2.509872429072857E-3   6.651991009712219E-1   1.594489365816116E-1  
 1.270040000000000E10    5.769388675689697E-1  -1.777389943599701E-1  -4.570852965116501E-3   3.285495797172189E-3  -4.680029582232237E-3   3.273702226579189E-3   6.560788154602051E-1   1.158413141965866E-1  
 1.270060000000000E10    5.505154728889465E-1  -2.133915573358536E-1  -6.327334791421890E-3   4.367303568869829E-3  -6.477489136159420E-3   4.347218666225672E-3   6.424975991249085E-1   7.155089080333710E-2  
 1.270080000000000E10    5.203145742416382E-1  -2.477574050426483E-1  -8.515889756381512E-3   5.910930689424276E-3  -8.713824674487114E-3   5.882016848772764E-3   6.238610148429871E-1   2.714825980365276E-2  
 1.270100000000000E10    4.862060248851776E-1  -2.803347110748291E-1  -1.117303874343634E-2   8.131477050483227E-3  -1.143823284655809E-2   8.093687705695629E-3   5.996188521385193E-1  -1.667022705078125E-2  
 1.270120000000000E10    4.480515718460083E-1  -3.104312717914581E-1  -1.430828217417002E-2   1.132066361606121E-2  -1.465757749974728E-2   1.128405425697565E-2   5.692495107650757E-1  -5.889220535755158E-2  
 1.270140000000000E10    4.058749973773956E-1  -3.373586833477020E-1  -1.785060763359070E-2   1.585641503334045E-2  -1.836385019123554E-2   1.584598608314991E-2   5.324676036834717E-1  -9.825722128152847E-2  
 1.270160000000000E10    3.597890436649323E-1  -3.601717650890350E-1  -2.171845175325871E-2   2.217886224389076E-2  -2.224709838628769E-2   2.223593555390835E-2   4.891336858272553E-1  -1.332138329744339E-1  
 1.270180000000000E10    3.101396858692169E-1  -3.779431283473969E-1  -2.527004294097424E-2   3.088785521686077E-2  -2.594746463000774E-2   3.101859800517559E-2   4.396016299724579E-1  -1.619081199169159E-1  
 1.270200000000000E10    2.576133906841278E-1  -3.896393477916718E-1  -2.791427448391914E-2   4.249527305364609E-2  -2.874778769910336E-2   4.274023696780205E-2   3.848155736923218E-1  -1.823166310787201E-1  
 1.270220000000000E10    2.031804472208023E-1  -3.942846655845642E-1  -2.853816375136375E-2   5.741225555539131E-2  -2.954645268619061E-2   5.782649293541908E-2   3.265318274497986E-1  -1.924853920936585E-1  
 1.270240000000000E10    1.482610553503037E-1  -3.911015689373016E-1  -2.566120587289333E-2   7.569096982479096E-2  -2.683862298727036E-2   7.634902000427246E-2   2.674482166767120E-1  -1.908264458179474E-1  
 1.270260000000000E10    9.465313702821732E-2  -3.797048330307007E-1  -1.749303378164768E-2   9.677000343799591E-2  -1.881304383277893E-2   9.777778387069702E-2   2.111404538154602E-1  -1.767449080944061E-1  
 1.270280000000000E10    4.427257180213928E-2  -3.602999746799469E-1  -2.191196661442518E-3   1.192235276103020E-1  -3.591455984860659E-3   1.206727176904678E-1   1.615257412195206E-1  -1.510846018791199E-1  
 1.270300000000000E10   -9.160019690170884E-4  -3.338105082511902E-1   2.158209681510925E-2   1.406558603048325E-1   2.023165300488472E-2   1.426317989826202E-1   1.222344860434532E-1  -1.163984537124634E-1  
 1.270320000000000E10   -3.942180424928665E-2  -3.017961978912354E-1   5.421926826238632E-2   1.578999161720276E-1   5.306042730808258E-2   1.604729443788528E-1   9.563916921615601E-2  -7.672810554504395E-2  
 1.270340000000000E10   -7.041243463754654E-2  -2.662046551704407E-1   9.471306204795837E-2   1.675970256328583E-1   9.394593536853790E-2   1.707447618246079E-1   8.214619755744934E-2  -3.675374761223793E-2  
 1.270360000000000E10   -9.374777227640152E-2  -2.290052473545075E-1   1.406833529472351E-1   1.668604910373688E-1   1.404615193605423E-1   1.705489903688431E-1   8.009856939315796E-2  -8.223611512221396E-4  
 1.270380000000000E10   -1.098836958408356E-1  -1.918837279081345E-1   1.886879652738571E-1   1.539708077907562E-1   1.892347782850266E-1   1.580274403095245E-1   8.635606616735458E-2   2.815348282456398E-2  
 1.270400000000000E10   -1.196517720818520E-1  -1.560929864645004E-1   2.350229918956757E-1   1.285119950771332E-1   2.364396452903748E-1   1.327560693025589E-1   9.727404266595841E-2   4.899098351597786E-2  
 1.270420000000000E10   -1.239421293139458E-1  -1.225708052515984E-1   2.761571109294891E-1   9.141538292169571E-2   2.784944474697113E-1   9.568168222904205E-2   1.095429211854935E-1   6.211989000439644E-2  
 1.270440000000000E10   -1.236154288053513E-1  -9.189315140247345E-2   3.092704415321350E-1   4.454310983419418E-2   3.125433027744293E-1   4.863456636667252E-2   1.207911223173142E-1   6.896547973155975E-2  
 1.270460000000000E10   -1.194609999656677E-1  -6.448996812105179E-2   3.323510289192200E-1  -9.604156017303467E-3   3.365189731121063E-1  -5.921225063502789E-3   1.296876966953278E-1   7.132783532142639E-2  
 1.270480000000000E10   -1.123009547591209E-1  -4.069887474179268E-2   3.442563116550446E-1  -6.836424767971039E-2   3.492090702056885E-1  -6.527251005172730E-2   1.357541978359222E-1   7.097268849611282E-2  
 1.270500000000000E10   -1.029266566038132E-1  -2.077416516840458E-2   3.445764780044556E-1  -1.291289031505585E-1   3.502483963966370E-1  -1.267096847295761E-1   1.391427665948868E-1   6.932353973388672E-2  
 1.270520000000000E10   -9.218454360961914E-2  -4.829111509025097E-3   3.335452973842621E-1  -1.893738806247711E-1   3.397559523582459E-1  -1.878356188535690E-1   1.403421461582184E-1   6.732135266065598E-2  
 1.270540000000000E10   -8.097080141305924E-2   7.184194400906563E-3   3.118120729923248E-1  -2.470177710056305E-1   3.184686005115509E-1  -2.463901340961456E-1   1.399208307266235E-1   6.558908522129059E-2  
 1.270560000000000E10   -7.011254876852036E-2   1.549594383686781E-2   2.804463207721710E-1  -3.002302646636963E-1   2.873193025588989E-1  -3.005510270595551E-1   1.384476423263550E-1   6.441970169544220E-2  
 1.270580000000000E10   -6.039976701140404E-2   2.053412236273289E-2   2.407214790582657E-1  -3.474198281764984E-1   2.476253658533096E-1  -3.488177955150604E-1   1.363100856542587E-1   6.390289217233658E-2  
 1.270600000000000E10   -5.244092643260956E-2   2.288158982992172E-2   1.939309239387512E-1  -3.877141773700714E-1   2.007185816764832E-1  -3.901026844978333E-1   1.338900923728943E-1   6.400655210018158E-2  
 1.270620000000000E10   -4.673303291201592E-2   2.325480431318283E-2   1.415653526782990E-1  -4.201717376708984E-1   1.481444686651230E-1  -4.235351681709290E-1   1.313663870096207E-1   6.470835953950882E-2  
 1.270640000000000E10   -4.353542998433113E-2   2.241562679409981E-2   8.505199104547501E-2  -4.442587196826935E-1   9.122693538665772E-2  -4.485786557197571E-1   1.289037168025971E-1   6.593383848667145E-2  
 1.270660000000000E10   -4.291887581348419E-2   2.120752632617950E-2   2.578692883253098E-2  -4.597292542457581E-1   3.146626800298691E-2  -4.649058282375336E-1   1.266140192747116E-1   6.768661737442017E-2  
 1.270680000000000E10   -4.477410018444061E-2   2.036862820386887E-2  -3.481849282979965E-2  -4.665184319019318E-1  -2.981718257069588E-2  -4.724940955638886E-1   1.245707049965859E-1   6.993222981691361E-2  
 1.270700000000000E10   -4.874994233250618E-2   2.058375068008900E-2  -9.561426937580109E-2  -4.647062718868256E-1  -9.125796705484390E-2  -4.713864028453827E-1   1.228918880224228E-1   7.270192354917526E-2  
 1.270720000000000E10   -5.443004146218300E-2   2.245229668915272E-2  -1.553023159503937E-1  -4.546200037002564E-1  -1.517729461193085E-1  -4.618614315986633E-1   1.217051744461060E-1   7.602399587631226E-2  
 1.270740000000000E10   -6.124919280409813E-2   2.639142423868179E-2  -2.127570956945419E-1  -4.365980327129364E-1  -2.101718634366989E-1  -4.443238377571106E-1   1.211863011121750E-1   7.984822988510132E-2  
 1.270760000000000E10   -6.855344772338867E-2   3.266772627830505E-2  -2.670907676219940E-1  -4.111969769001007E-1  -2.654462754726410E-1  -4.192565679550171E-1   1.215107962489128E-1   8.416843414306641E-2  
 1.270780000000000E10   -7.568103075027466E-2   4.145909845829010E-2  -3.173566460609436E-1  -3.790280222892761E-1  -3.167123794555664E-1  -3.872936666011810E-1   1.228758469223976E-1   8.886338770389557E-2  
 1.270800000000000E10   -8.199852705001831E-2   5.267229676246643E-2  -3.627986907958984E-1  -3.408489823341370E-1  -3.631294965744019E-1  -3.491615355014801E-1   1.254693120718002E-1   9.382744878530502E-2  
 1.270820000000000E10   -8.684775233268738E-2   6.608758866786957E-2  -4.027200043201447E-1  -2.973718345165253E-1  -4.040176272392273E-1  -3.056466281414032E-1   1.294567734003067E-1   9.884003549814224E-2  
 1.270840000000000E10   -8.969123661518097E-2   8.145251125097275E-2  -4.365887045860291E-1  -2.495156377553940E-1  -4.388345181941986E-1  -2.576304674148560E-1   1.350007951259613E-1   1.035979762673378E-1  
 1.270860000000000E10   -9.008828550577164E-2   9.827665239572525E-2  -4.640159606933594E-1  -1.981625258922577E-1  -4.671921432018280E-1  -2.059848159551621E-1   1.421577036380768E-1   1.078669801354408E-1  
 1.270880000000000E10   -8.766491711139679E-2   1.160822659730911E-1  -4.846951663494110E-1  -1.442024409770966E-1  -4.887542426586151E-1  -1.516747921705246E-1   1.509579867124558E-1   1.112332567572594E-1  
 1.270900000000000E10   -8.223874121904373E-2   1.343010663986206E-1  -4.985063374042511E-1  -8.865685760974884E-2  -5.033646821975708E-1  -9.561195224523544E-2   1.613567173480988E-1   1.134163886308670E-1  
 1.270920000000000E10   -7.367850095033646E-2   1.523359566926956E-1  -5.054125785827637E-1  -3.234859555959702E-2  -5.110259652137756E-1  -3.870000317692757E-2   1.731777787208557E-1   1.140227019786835E-1  
 1.270940000000000E10   -6.201823800802231E-2   1.696052551269531E-1  -5.055477619171143E-1   2.378418855369091E-2  -5.118240714073181E-1   1.817363314330578E-2   1.862716972827911E-1   1.127386987209320E-1  
 1.270960000000000E10   -4.741209745407105E-2   1.855689436197281E-1  -4.991304874420166E-1   7.906688749790192E-2  -5.059649348258972E-1   7.405320554971695E-2   2.003090232610703E-1   1.092605143785477E-1  
 1.270980000000000E10   -3.005670756101608E-2   1.997387856245041E-1  -4.864909946918488E-1   1.324628889560700E-1  -4.937815666198731E-1   1.283236891031265E-1   2.149742543697357E-1   1.033192276954651E-1  
 1.271000000000000E10   -1.029563136398792E-2   2.116266489028931E-1  -4.679861664772034E-1   1.835430860519409E-1  -4.756855070590973E-1   1.801582872867584E-1   2.298592925071716E-1   9.478092193603516E-2  
 1.271020000000000E10    1.148784160614014E-2   2.209021747112274E-1  -4.441261291503906E-1   2.315625399351120E-1  -4.521248042583466E-1   2.290678322315216E-1   2.445553541183472E-1   8.352631330490112E-2  
 1.271040000000000E10    3.487449511885643E-2   2.272919863462448E-1  -4.154332876205444E-1   2.761005461215973E-1  -4.236029684543610E-1   2.744565606117249E-1   2.586092948913574E-1   6.947294622659683E-2  
 1.271060000000000E10    5.942075699567795E-2   2.305573523044586E-1  -3.824592828750610E-1   3.166677355766296E-1  -3.906846046447754E-1   3.158114850521088E-1   2.715348303318024E-1   5.275086313486099E-2  
 1.271080000000000E10    8.465127646923065E-2   2.306084334850311E-1  -3.457140326499939E-1   3.529456257820129E-1  -3.539551794528961E-1   3.529551625251770E-1   2.829246819019318E-1   3.340911492705345E-2  
 1.271100000000000E10    1.101153641939163E-1   2.274006009101868E-1  -3.058449327945709E-1   3.846547603607178E-1  -3.140142261981964E-1   3.855160474777222E-1   2.923744618892670E-1   1.171893626451492E-2  
 1.271120000000000E10    1.353588700294495E-1   2.209311872720718E-1  -2.634344995021820E-1   4.116205275058746E-1  -2.713759541511536E-1   4.133058190345764E-1   2.994458079338074E-1  -1.211686059832573E-2  
 1.271140000000000E10    1.599759012460709E-1   2.112917602062225E-1  -2.189819812774658E-1   4.337753355503082E-1  -2.266542017459869E-1   4.362393021583557E-1   3.038539886474609E-1  -3.776075318455696E-2  
 1.271160000000000E10    1.835518330335617E-1   1.986318826675415E-1  -1.730400770902634E-1   4.510322809219360E-1  -1.804192960262299E-1   4.541994929313660E-1   3.052753508090973E-1  -6.480763107538223E-2  
 1.271180000000000E10    2.057634890079498E-1   1.831283718347549E-1  -1.261618584394455E-1   4.633450508117676E-1  -1.331508755683899E-1   4.672422111034393E-1   3.034732639789581E-1  -9.288199990987778E-2  
 1.271200000000000E10    2.262839674949646E-1   1.649373769760132E-1  -7.878483831882477E-2   4.708721637725830E-1  -8.540930598974228E-2   4.753646254539490E-1   2.983458042144775E-1  -1.215017437934876E-1  
 1.271220000000000E10    2.448115646839142E-1   1.444004774093628E-1  -3.149173036217690E-2   4.735688269138336E-1  -3.757901489734650E-2   4.786654114723206E-1   2.897541224956513E-1  -1.502495408058167E-1  
 1.271240000000000E10    2.611488997936249E-1   1.216981410980225E-1   1.532126311212778E-2   4.716319143772125E-1   9.850585833191872E-3   4.772678613662720E-1   2.776683866977692E-1  -1.786181777715683E-1  
 1.271260000000000E10    2.750509381294251E-1   9.713067859411240E-2   6.130423769354820E-2   4.652262628078461E-1   5.644226446747780E-2   4.713215529918671E-1   2.621197104454041E-1  -2.061678916215897E-1  
