#  HZ   S   RI   R     50.00 
! Rohde & Schwarz ZVA50 2Ports - Version 3.70 - 1145.1110k50 SN: 100192
! Date: 2025-10-24 10:56:25
! Measurements: S11 S21 S12 S22 
! 
 1.269400000000000E10    5.682975649833679E-1   5.262928009033203E-1   3.036390990018845E-3  -1.716235652565956E-3   3.109022276476026E-3  -1.698192209005356E-3   3.564210236072540E-1   7.736483216285706E-1  
 1.269420000000000E10    5.812166929244995E-1   5.018193125724793E-1   2.952652983367443E-3  -1.653187442570925E-3   3.022180171683431E-3  -1.634333166293800E-3   3.753520250320435E-1   7.606890797615051E-1  
 1.269440000000000E10    5.934736728668213E-1   4.763584733009338E-1   2.867653267458081E-3  -1.571727218106389E-3   2.936178352683783E-3  -1.552513684146106E-3   3.942982852458954E-1   7.468157410621643E-1  
 1.269460000000000E10    6.049939990043640E-1   4.498703777790070E-1   2.782572992146015E-3  -1.470186398364604E-3   2.849145792424679E-3  -1.452090451493859E-3   4.132480025291443E-1   7.319894433021545E-1  
 1.269480000000000E10    6.157361268997192E-1   4.223522841930389E-1   2.698402851819992E-3  -1.346121076494455E-3   2.762860618531704E-3  -1.325760502368212E-3   4.321900308132172E-1   7.161919474601746E-1  
 1.269500000000000E10    6.255425214767456E-1   3.938208222389221E-1   2.620277460664511E-3  -1.196775119751692E-3   2.678988734260202E-3  -1.176273101009429E-3   4.510263204574585E-1   6.993167400360107E-1  
 1.269520000000000E10    6.343750953674316E-1   3.641750812530518E-1   2.545083640143275E-3  -1.024222467094660E-3   2.600206295028329E-3  -1.000470947474241E-3   4.697504043579102E-1   6.813164949417114E-1  
 1.269540000000000E10    6.420977115631104E-1   3.335174620151520E-1   2.478030044585466E-3  -8.220130112022162E-4   2.531207865104079E-3  -7.981210947036743E-4   4.882997870445252E-1   6.621455550193787E-1  
 1.269560000000000E10    6.486073136329651E-1   3.018293678760529E-1   2.422248711809516E-3  -5.921730771660805E-4   2.469504717737436E-3  -5.641082534566522E-4   5.065673589706421E-1   6.417520046234131E-1  
 1.269580000000000E10    6.538280248641968E-1   2.691311538219452E-1   2.379803219810128E-3  -3.325459547340870E-4   2.422214951366186E-3  -3.001727745868266E-4   5.245721936225891E-1   6.200684905052185E-1  
 1.269600000000000E10    6.576049327850342E-1   2.354119420051575E-1   2.354439813643694E-3  -4.113678005523980E-5   2.394662937149406E-3  -6.835849490016699E-6   5.421233177185059E-1   5.971004962921143E-1  
 1.269620000000000E10    6.598342657089233E-1   2.006908655166626E-1   2.351401373744011E-3   2.829713921528310E-4   2.386457752436400E-3   3.230161382816732E-4   5.591539144515991E-1   5.726889371871948E-1  
 1.269640000000000E10    6.602923870086670E-1   1.650583148002625E-1   2.374561503529549E-3   6.397324032150209E-4   2.403267193585634E-3   6.854489911347628E-4   5.756077170372009E-1   5.468806028366089E-1  
 1.269660000000000E10    6.589170098304749E-1   1.285417079925537E-1   2.426424529403448E-3   1.028087921440601E-3   2.449639374390245E-3   1.079702167771757E-3   5.913119912147522E-1   5.194993019104004E-1  
 1.269680000000000E10    6.555017232894898E-1   9.123438596725464E-2   2.512440318241715E-3   1.447621732950211E-3   2.530538477003574E-3   1.508058048784733E-3   6.061504483222961E-1   4.905665218830109E-1  
 1.269700000000000E10    6.498888731002808E-1   5.321180075407028E-2   2.637615194544196E-3   1.899178489111364E-3   2.652432769536972E-3   1.966923242434859E-3   6.199830770492554E-1   4.600397944450378E-1  
 1.269720000000000E10    6.419582962989807E-1   1.463352516293526E-2   2.805865136906505E-3   2.376370830461383E-3   2.816665684804320E-3   2.454847795888782E-3   6.326297521591187E-1   4.278881549835205E-1  
 1.269740000000000E10    6.314997673034668E-1  -2.444206178188324E-2   3.022265387699008E-3   2.879857318475843E-3   3.028330858796835E-3   2.966203959658742E-3   6.439024806022644E-1   3.940362930297852E-1  
 1.269760000000000E10    6.183099746704102E-1  -6.383262574672699E-2   3.289482323452830E-3   3.402145579457283E-3   3.290882334113121E-3   3.500950988382101E-3   6.535899043083191E-1   3.584902882575989E-1  
 1.269780000000000E10    6.022962927818298E-1  -1.033384576439858E-1   3.607717342674732E-3   3.941076342016459E-3   3.606533398851752E-3   4.050972405821085E-3   6.614406108856201E-1   3.212711811065674E-1  
 1.269800000000000E10    5.832246541976929E-1  -1.427114307880402E-1   3.978691063821316E-3   4.489192739129067E-3   3.974965307861567E-3   4.611556418240070E-3   6.672191619873047E-1   2.823850810527802E-1  
 1.269820000000000E10    5.609374046325684E-1  -1.817307770252228E-1   4.399988800287247E-3   5.041589960455895E-3   4.393874201923609E-3   5.179265979677439E-3   6.706382632255554E-1   2.418933808803558E-1  
 1.269840000000000E10    5.352390408515930E-1  -2.200774550437927E-1   4.865485709160566E-3   5.593195557594299E-3   4.857754334807396E-3   5.743112415075302E-3   6.713472604751587E-1   1.998452842235565E-1  
 1.269860000000000E10    5.060827732086182E-1  -2.574236094951630E-1   5.368181038647890E-3   6.138543132692576E-3   5.358367692679167E-3   6.305271293967962E-3   6.690467596054077E-1   1.563967019319534E-1  
 1.269880000000000E10    4.733149111270905E-1  -2.933320999145508E-1   5.892431829124689E-3   6.681497674435377E-3   5.884315818548203E-3   6.860048044472933E-3   6.633675694465637E-1   1.117030307650566E-1  
 1.269900000000000E10    4.368671178817749E-1  -3.274690210819244E-1   6.424997001886368E-3   7.219203282147646E-3   6.415369920432568E-3   7.411742582917213E-3   6.539382338523865E-1   6.604704260826111E-2  
 1.269920000000000E10    3.967134356498718E-1  -3.593238592147827E-1   6.940492894500494E-3   7.767749018967152E-3   6.928913760930300E-3   7.976004853844643E-3   6.403587460517883E-1   1.973121985793114E-2  
 1.269940000000000E10    3.529433012008667E-1  -3.883396387100220E-1   7.415031548589468E-3   8.347672410309315E-3   7.399338297545910E-3   8.567935787141323E-3   6.222454905509949E-1  -2.683924511075020E-2  
 1.269960000000000E10    3.055707812309265E-1  -4.139887094497681E-1   7.818670943379402E-3   8.992729708552361E-3   7.800293155014515E-3   9.226254187524319E-3   5.991785526275635E-1  -7.311767339706421E-2  
 1.269980000000000E10    2.547733187675476E-1  -4.356740117073059E-1   8.128661662340164E-3   9.758912026882172E-3   8.102549239993095E-3   1.000634487718344E-2   5.708682537078857E-1  -1.185300648212433E-1  
 1.270000000000000E10    2.009029537439346E-1  -4.527816176414490E-1   8.324058726429939E-3   1.072694174945355E-2   8.288184180855751E-3   1.098627038300037E-2   5.369520783424377E-1  -1.622342765331268E-1  
 1.270020000000000E10    1.443265974521637E-1  -4.646366238594055E-1   8.378771133720875E-3   1.205710694193840E-2   8.352391421794891E-3   1.227656006813049E-2   4.973176419734955E-1  -2.033367902040482E-1  
 1.270040000000000E10    8.558057993650436E-2  -4.706573784351349E-1   8.369392715394497E-3   1.377626787871122E-2   8.319707587361336E-3   1.401082985103130E-2   4.518591165542603E-1  -2.408379316329956E-1  
 1.270060000000000E10    2.535714581608772E-2  -4.702613055706024E-1   8.336967788636684E-3   1.609533838927746E-2   8.265133015811443E-3   1.635568588972092E-2   4.007404744625092E-1  -2.735515534877777E-1  
 1.270080000000000E10   -3.552766144275665E-2  -4.629251062870026E-1   8.421401493251324E-3   1.921121031045914E-2   8.317998610436916E-3   1.955016143620014E-2   3.443763852119446E-1  -3.001838028430939E-1  
 1.270100000000000E10   -9.608788043260574E-2  -4.481927454471588E-1   8.848777040839195E-3   2.329672873020172E-2   8.706908673048019E-3   2.369611524045467E-2   2.834588289260864E-1  -3.193836808204651E-1  
 1.270120000000000E10   -1.551690697669983E-1  -4.258359968662262E-1   9.945680387318134E-3   2.852865681052208E-2   9.757049381732941E-3   2.900345996022224E-2   2.190831452608109E-1  -3.298614621162415E-1  
 1.270140000000000E10   -2.114764004945755E-1  -3.957628905773163E-1   1.215947046875954E-2   3.500521183013916E-2   1.192490942776203E-2   3.558127209544182E-2   1.528055518865585E-1  -3.304369747638702E-1  
 1.270160000000000E10   -2.636391818523407E-1  -3.581640124320984E-1   1.607497781515122E-2   4.270058870315552E-2   1.579475216567516E-2   4.341628402471542E-2   8.653443306684494E-2  -3.202267289161682E-1  
 1.270180000000000E10   -3.102142810821533E-1  -3.135640025138855E-1   2.234308049082756E-2   5.140864849090576E-2   2.203725278377533E-2   5.228020995855331E-2   2.265139296650887E-2  -2.988138794898987E-1  
 1.270200000000000E10   -3.498204350471497E-1  -2.627866268157959E-1   3.168592974543572E-2   6.064433231949806E-2   3.137790039181709E-2   6.173434853553772E-2  -3.626183792948723E-2  -2.663521170616150E-1  
 1.270220000000000E10   -3.811258375644684E-1  -2.070796638727188E-1   4.476919397711754E-2   6.964238733053207E-2   4.448514804244041E-2   7.099145650863648E-2  -8.746889233589172E-2  -2.238135039806366E-1  
 1.270240000000000E10   -4.031241536140442E-1  -1.479863226413727E-1   6.205651536583901E-2   7.729554176330566E-2   6.187958270311356E-2   7.893215119838715E-2  -1.285020112991333E-1  -1.730187684297562E-1  
 1.270260000000000E10   -4.151735305786133E-1  -8.750063925981522E-2   8.367654681205750E-2   8.222991228103638E-2   8.369484543800354E-2   8.418314158916473E-2  -1.573057025671005E-1  -1.165513023734093E-1  
 1.270280000000000E10   -4.171146154403687E-1  -2.759681455790997E-2   1.093616709113121E-1   8.285968750715256E-2   1.096412241458893E-1   8.515162765979767E-2  -1.727004647254944E-1  -5.769503861665726E-2  
 1.270300000000000E10   -4.092989563941956E-1   2.954164892435074E-2   1.381957679986954E-1   7.765424251556397E-2   1.388766020536423E-1   8.024098724126816E-2  -1.745440810918808E-1   1.057051122188568E-6  
 1.270320000000000E10   -3.927474915981293E-1   8.192960172891617E-2   1.687557995319367E-1   6.528675556182861E-2   1.699488162994385E-1   6.811332702636719E-2  -1.638022959232330E-1   5.298098549246788E-2  
 1.270340000000000E10   -3.688910007476807E-1   1.279189437627792E-1   1.991184949874878E-1   4.487639665603638E-2   2.009355872869492E-1   4.782631248235703E-2  -1.425254046916962E-1   9.827075153589249E-2  
 1.270360000000000E10   -3.395522534847260E-1   1.662941873073578E-1   2.270659208297730E-1   1.611109264194965E-2   2.295661121606827E-1   1.908332481980324E-2  -1.135885044932365E-1   1.336491107940674E-1  
 1.270380000000000E10   -3.067909181118012E-1   1.964565217494965E-1   2.502977550029755E-1  -2.052991464734078E-2   2.535343766212463E-1  -1.772733591496944E-2  -8.028681576251984E-2   1.580043286085129E-1  
 1.270400000000000E10   -2.726727426052094E-1   2.183932065963745E-1   2.667063772678375E-1  -6.399444490671158E-2   2.706491053104401E-1  -6.152322515845299E-2  -4.594230651855469E-2   1.712774932384491E-1  
 1.270420000000000E10   -2.391577512025833E-1   2.324897050857544E-1   2.745314538478851E-1  -1.125783026218414E-1   2.791767716407776E-1  -1.105690896511078E-1  -1.360196247696877E-2   1.744383275508881E-1  
 1.270440000000000E10   -2.078056186437607E-1   2.397717386484146E-1   2.726041078567505E-1  -1.642048954963684E-1   2.778594791889191E-1  -1.628317385911942E-1   1.437736209481955E-2   1.691988706588745E-1  
 1.270460000000000E10   -1.798667907714844E-1   2.414000034332275E-1   2.603275775909424E-1  -2.165040075778961E-1   2.660473585128784E-1  -2.159315049648285E-1   3.631024062633514E-2   1.577174514532089E-1  
 1.270480000000000E10   -1.561518013477325E-1   2.388400137424469E-1   2.377481460571289E-1  -2.672020196914673E-1   2.437776625156403E-1  -2.675083577632904E-1   5.134126171469688E-2   1.423618048429489E-1  
 1.270500000000000E10   -1.370588988065720E-1   2.335374206304550E-1   2.054204195737839E-1  -3.140744566917419E-1   2.116360068321228E-1  -3.153137266635895E-1   5.934412404894829E-2   1.254654824733734E-1  
 1.270520000000000E10   -1.225589215755463E-1   2.268917411565781E-1   1.644672006368637E-1  -3.552442193031311E-1   1.706771999597549E-1  -3.574606478214264E-1   6.081237643957138E-2   1.090979799628258E-1  
 1.270540000000000E10   -1.123361438512802E-1   2.201497256755829E-1   1.162629351019859E-1  -3.891378939151764E-1   1.223565116524696E-1  -3.923344612121582E-1   5.672041699290276E-2   9.493540972471237E-2  
 1.270560000000000E10   -1.058165952563286E-1   2.143295854330063E-1   6.247842684388161E-2  -4.146491885185242E-1   6.830257177352905E-2  -4.187614917755127E-1   4.835121333599091E-2   8.423488587141037E-2  
 1.270580000000000E10   -1.022166758775711E-1   2.102421969175339E-1   4.935546778142452E-3  -4.310392737388611E-1   1.029153633862734E-2  -4.360188543796539E-1   3.708037361502647E-2   7.778215408325195E-2  
 1.270600000000000E10   -1.006951779127121E-1   2.083836495876312E-1  -5.460032075643539E-2  -4.380223751068115E-1  -4.986985772848129E-2  -4.437794983386993E-1   2.443625964224339E-2   7.593107223510742E-2  
 1.270620000000000E10   -1.003835573792458E-1   2.090222835540772E-1  -1.144448742270470E-1  -4.356411695480347E-1  -1.103940010070801E-1  -4.421092569828033E-1   1.176270190626383E-2   7.866377383470535E-2  
 1.270640000000000E10   -1.004203557968140E-1   2.121594399213791E-1  -1.729967445135117E-1  -4.242307543754578E-1  -1.697418093681335E-1  -4.313029944896698E-1   3.124106442555785E-4   8.559384942054749E-2  
 1.270660000000000E10   -1.000391691923142E-1   2.176686823368073E-1  -2.288960665464401E-1  -4.044523835182190E-1  -2.265025079250336E-1  -4.120153784751892E-1  -8.879212662577629E-3   9.615032374858856E-2  
 1.270680000000000E10   -9.864004701375961E-2   2.252645790576935E-1  -2.809136509895325E-1  -3.771193325519562E-1  -2.794989347457886E-1  -3.850238025188446E-1  -1.504175271838903E-2   1.095217093825340E-1  
 1.270700000000000E10   -9.568285197019577E-2   2.344603836536408E-1  -3.282105028629303E-1  -3.431155681610107E-1  -3.276940882205963E-1  -3.512788712978363E-1  -1.759377494454384E-2   1.248473823070526E-1  
 1.270720000000000E10   -9.080149978399277E-2   2.448139339685440E-1  -3.699491322040558E-1  -3.035233020782471E-1  -3.704777657985687E-1  -3.116866350173950E-1  -1.623683422803879E-2   1.412192583084106E-1  
 1.270740000000000E10   -8.379377424716950E-2   2.557892501354218E-1  -4.056799411773682E-1  -2.592780292034149E-1  -4.072051644325256E-1  -2.674045860767365E-1  -1.085075922310352E-2   1.576585769653320E-1  
 1.270760000000000E10   -7.454746961593628E-2   2.668684422969818E-1  -4.350985288619995E-1  -2.114189267158508E-1  -4.375364482402802E-1  -2.193899899721146E-1  -1.530257053673267E-3   1.733349263668060E-1  
 1.270780000000000E10   -6.308064609766007E-2   2.776070535182953E-1  -4.579974412918091E-1  -1.609683483839035E-1  -4.613437056541443E-1  -1.686624884605408E-1   1.146230939775705E-2   1.874123215675354E-1  
 1.270800000000000E10   -4.952069371938705E-2   2.875206470489502E-1  -4.743765592575073E-1  -1.088155284523964E-1  -4.785789847373962E-1  -1.160638332366943E-1   2.773313224315643E-2   1.992537528276444E-1  
 1.270820000000000E10   -3.404586389660835E-2   2.961956858634949E-1  -4.843003451824188E-1  -5.578774213790894E-2  -4.892824292182922E-1  -6.253609806299210E-2   4.680616781115532E-2   2.082637399435043E-1  
 1.270840000000000E10   -1.686910167336464E-2   3.033829927444458E-1  -4.879638552665710E-1  -2.676393836736679E-3  -4.936633110046387E-1  -8.858039043843746E-3   6.809739023447037E-2   2.139224857091904E-1  
 1.270860000000000E10    1.695799641311169E-3   3.087871968746185E-1  -4.856137037277222E-1   4.984336346387863E-2  -4.919304549694061E-1   4.432400315999985E-2   9.099120646715164E-2   2.159606218338013E-1  
 1.270880000000000E10    2.139449492096901E-2   3.122312426567078E-1  -4.775124192237854E-1   1.011464819312096E-1  -4.844084084033966E-1   9.636044502258301E-2   1.148581206798554E-1   2.140913903713226E-1  
 1.270900000000000E10    4.188399389386177E-2   3.136033415794373E-1  -4.640587568283081E-1   1.506673395633698E-1  -4.713745713233948E-1   1.466243416070938E-1   1.390371173620224E-1   2.082320600748062E-1  
 1.270920000000000E10    6.288990378379822E-2   3.127959072589874E-1  -4.454965293407440E-1   1.979438662528992E-1  -4.532233476638794E-1   1.946828216314316E-1   1.628777831792831E-1   1.983611881732941E-1  
 1.270940000000000E10    8.413107693195343E-2   3.098072111606598E-1  -4.222938418388367E-1   2.425527572631836E-1  -4.303091466426849E-1   2.401619404554367E-1   1.857648640871048E-1   1.845728754997253E-1  
 1.270960000000000E10    1.053017526865006E-1   3.046654760837555E-1  -3.948237597942352E-1   2.841208577156067E-1  -4.030298888683319E-1   2.824940681457520E-1   2.070891410112381E-1   1.670578271150589E-1  
 1.270980000000000E10    1.262074261903763E-1   2.974003553390503E-1  -3.634906709194183E-1   3.222796618938446E-1  -3.717804551124573E-1   3.215009272098541E-1   2.262826114892960E-1   1.460464745759964E-1  
 1.271000000000000E10    1.465732753276825E-1   2.880848646163940E-1  -3.286424279212952E-1   3.567849993705750E-1  -3.369567394256592E-1   3.568521440029144E-1   2.428871244192123E-1   1.219033896923065E-1  
 1.271020000000000E10    1.662056297063828E-1   2.768213152885437E-1  -2.907524108886719E-1   3.873482644557953E-1  -2.990248203277588E-1   3.882409632205963E-1   2.564494609832764E-1   9.504298120737076E-2  
 1.271040000000000E10    1.849402934312820E-1   2.637405395507813E-1  -2.502290606498718E-1   4.137818813323975E-1  -2.583238482475281E-1   4.154899120330811E-1   2.665658593177795E-1   6.584449857473373E-2  
 1.271060000000000E10    2.026177346706390E-1   2.489098608493805E-1  -2.075155675411224E-1   4.358991682529450E-1  -2.153749316930771E-1   4.383461475372315E-1   2.729361355304718E-1   3.490173071622849E-2  
 1.271080000000000E10    2.191030085086823E-1   2.325064688920975E-1  -1.629912108182907E-1   4.535320401191711E-1  -1.705592274665833E-1   4.567785561084747E-1   2.753345966339111E-1   2.682774327695370E-3  
 1.271100000000000E10    2.342929393053055E-1   2.146345674991608E-1  -1.171528771519661E-1   4.666087031364441E-1  -1.243403181433678E-1   4.705772399902344E-1   2.736434638500214E-1  -3.019081801176071E-2  
 1.271120000000000E10    2.480531185865402E-1   1.954042017459869E-1  -7.042267173528671E-2   4.750413596630096E-1  -7.714364677667618E-2   4.796772301197052E-1   2.677256166934967E-1  -6.319186836481094E-2  
 1.271140000000000E10    2.603174149990082E-1   1.749586760997772E-1  -2.323110029101372E-2   4.787962138652802E-1  -2.947818674147129E-2   4.840429425239563E-1   2.576472759246826E-1  -9.573242813348770E-2  
 1.271160000000000E10    2.709763050079346E-1   1.533992886543274E-1   2.398446388542652E-2   4.778563380241394E-1   1.823703944683075E-2   4.836605489253998E-1   2.434646785259247E-1  -1.272104531526566E-1  
 1.271180000000000E10    2.800000309944153E-1   1.308635920286179E-1   7.069948315620422E-2   4.722569286823273E-1   6.554731726646423E-2   4.786202907562256E-1   2.253537476062775E-1  -1.571070849895477E-1  
 1.271200000000000E10    2.872777581214905E-1   1.074177995324135E-1   1.165690496563911E-1   4.621535539627075E-1   1.119980514049530E-1   4.689554274082184E-1   2.036041170358658E-1  -1.849200725555420E-1  
 1.271220000000000E10    2.927678823471069E-1   8.325635641813278E-2   1.610305309295654E-1   4.475859999656677E-1   1.571527272462845E-1   4.547753632068634E-1   1.784951239824295E-1  -2.101426124572754E-1  
 1.271240000000000E10    2.963867187500000E-1   5.843397974967957E-2   2.037208825349808E-1   4.287793636322022E-1   2.006077319383621E-1   4.362608194351196E-1   1.504287570714951E-1  -2.323791980743408E-1  
 1.271260000000000E10    2.980402112007141E-1   3.310523927211762E-2   2.442757338285446E-1   4.059275090694428E-1   2.419582307338715E-1   4.136284887790680E-1   1.197890266776085E-1  -2.512878477573395E-1  
