#  HZ   S   RI   R     50.00 
! Rohde & Schwarz ZVA50 2Ports - Version 3.70 - 1145.1110k50 SN: 100192
! Date: 2025-10-24 10:52:42
! Measurements: S11 S21 S12 S22 
! 
 1.269400000000000E10    4.519013464450836E-1   7.081491947174072E-1   3.590207081288099E-3  -2.017182530835271E-3   3.671411890536547E-3  -1.999765401706100E-3   2.390660345554352E-1   8.460976481437683E-1  
 1.269420000000000E10    4.669697284698486E-1   6.932138204574585E-1   3.559210337698460E-3  -2.081601880490780E-3   3.640335518866777E-3  -2.063691616058350E-3   2.560069262981415E-1   8.389071226119995E-1  
 1.269440000000000E10    4.818567335605621E-1   6.776612401008606E-1   3.522634971886873E-3  -2.140397205948830E-3   3.604570403695107E-3  -2.124961698427796E-3   2.730574309825897E-1   8.312007784843445E-1  
 1.269460000000000E10    4.965554177761078E-1   6.614608168601990E-1   3.481286345049739E-3  -2.196869812905788E-3   3.564842976629734E-3  -2.181762130931020E-3   2.902926504611969E-1   8.229095339775085E-1  
 1.269480000000000E10    5.110563635826111E-1   6.445943713188171E-1   3.433564212173224E-3  -2.248912816867232E-3   3.519454272463918E-3  -2.233949257060885E-3   3.076333999633789E-1   8.140631318092346E-1  
 1.269500000000000E10    5.252977609634399E-1   6.270603537559509E-1   3.382774535566568E-3  -2.296625170856714E-3   3.467747010290623E-3  -2.283412264660001E-3   3.250527381896973E-1   8.045656681060791E-1  
 1.269520000000000E10    5.392730832099915E-1   6.087881922721863E-1   3.325148019939661E-3  -2.337376354262233E-3   3.409291384741664E-3  -2.325148554518819E-3   3.425929546356201E-1   7.944242954254150E-1  
 1.269540000000000E10    5.529365539550781E-1   5.898046493530273E-1   3.262812504544854E-3  -2.372045768424869E-3   3.347489982843399E-3  -2.362971194088459E-3   3.602454662322998E-1   7.836270332336426E-1  
 1.269560000000000E10    5.662538409233093E-1   5.701417922973633E-1   3.195442026481032E-3  -2.401153789833188E-3   3.279817989096046E-3  -2.391715301200748E-3   3.779235780239105E-1   7.721155285835266E-1  
 1.269580000000000E10    5.791889429092407E-1   5.497233271598816E-1   3.123714355751872E-3  -2.422911580651999E-3   3.207458183169365E-3  -2.412982983514667E-3   3.957007229328156E-1   7.598288059234619E-1  
 1.269600000000000E10    5.917234420776367E-1   5.285031199455261E-1   3.045361954718828E-3  -2.435910515487194E-3   3.128972137346864E-3  -2.426745370030403E-3   4.134282469749451E-1   7.468166947364807E-1  
 1.269620000000000E10    6.037986874580383E-1   5.065438151359558E-1   2.963463542982936E-3  -2.439999487251043E-3   3.045791061595082E-3  -2.432439243420959E-3   4.311981499195099E-1   7.329519391059876E-1  
 1.269640000000000E10    6.153610944747925E-1   4.837972819805145E-1   2.877258462831378E-3  -2.432654146105051E-3   2.957910299301148E-3  -2.426286228001118E-3   4.488877058029175E-1   7.182943820953369E-1  
 1.269660000000000E10    6.263673305511475E-1   4.602454602718353E-1   2.786085009574890E-3  -2.414509188383818E-3   2.866875845938921E-3  -2.408553613349795E-3   4.665198922157288E-1   7.026659846305847E-1  
 1.269680000000000E10    6.367361545562744E-1   4.358803629875183E-1   2.691429108381271E-3  -2.385365078225732E-3   2.769350074231625E-3  -2.380289137363434E-3   4.840495884418488E-1   6.861428618431091E-1  
 1.269700000000000E10    6.464111208915710E-1   4.107314944267273E-1   2.592725912109017E-3  -2.343637403100729E-3   2.669696696102619E-3  -2.339758677408099E-3   5.014261007308960E-1   6.686638593673706E-1  
 1.269720000000000E10    6.553880572319031E-1   3.847497701644898E-1   2.490726066753268E-3  -2.289380645379424E-3   2.564350375905633E-3  -2.285570604726672E-3   5.186054110527039E-1   6.501598358154297E-1  
 1.269740000000000E10    6.635417938232422E-1   3.579186499118805E-1   2.387037966400385E-3  -2.221617149189115E-3   2.457547001540661E-3  -2.217717701569200E-3   5.355180501937866E-1   6.306238174438477E-1  
 1.269760000000000E10    6.708474159240723E-1   3.302459418773651E-1   2.280403161421418E-3  -2.138013020157814E-3   2.347651170566678E-3  -2.134923823177815E-3   5.521536469459534E-1   6.099199056625366E-1  
 1.269780000000000E10    6.772605776786804E-1   3.017909526824951E-1   2.170950407162309E-3  -2.040973631665111E-3   2.236958127468824E-3  -2.037613652646542E-3   5.683712363243103E-1   5.881112813949585E-1  
 1.269800000000000E10    6.825768947601318E-1   2.724835574626923E-1   2.059319056570530E-3  -1.927880919538438E-3   2.120621269568801E-3  -1.924475422129035E-3   5.841753482818604E-1   5.651116967201233E-1  
 1.269820000000000E10    6.868096590042114E-1   2.423667907714844E-1   1.945133437402546E-3  -1.801857259124517E-3   2.001693937927485E-3  -1.795968157239258E-3   5.994078516960144E-1   5.408868193626404E-1  
 1.269840000000000E10    6.897943019866943E-1   2.114431411027908E-1   1.828373409807682E-3  -1.659794943407178E-3   1.879174960777164E-3  -1.651164260692895E-3   6.139981150627136E-1   5.153646469116211E-1  
 1.269860000000000E10    6.915063261985779E-1   1.797195374965668E-1   1.702602254226804E-3  -1.500994898378849E-3   1.752418698742986E-3  -1.492218347266316E-3   6.278311610221863E-1   4.885227978229523E-1  
 1.269880000000000E10    6.918063759803772E-1   1.473222523927689E-1   1.574526075273752E-3  -1.327603822574019E-3   1.617397647351027E-3  -1.319020986557007E-3   6.408553719520569E-1   4.602979421615601E-1  
 1.269900000000000E10    6.905631422996521E-1   1.141775920987129E-1   1.435019308701158E-3  -1.141019864007831E-3   1.474540098570287E-3  -1.131458906456828E-3   6.528342962265015E-1   4.307071864604950E-1  
 1.269920000000000E10    6.876766681671143E-1   8.034800738096237E-2   1.281475648283958E-3  -9.378941031172872E-4   1.316787791438401E-3  -9.285911801271141E-4   6.637025475502014E-1   3.996301591396332E-1  
 1.269940000000000E10    6.830745339393616E-1   4.597397148609161E-2   1.107817981392145E-3  -7.211547926999629E-4   1.135354861617088E-3  -7.093434687703848E-4   6.732739210128784E-1   3.671614527702332E-1  
 1.269960000000000E10    6.765507459640503E-1   1.103507727384567E-2   9.062318131327629E-4  -4.884703666903079E-4   9.271893650293350E-4  -4.764485929626972E-4   6.813423633575440E-1   3.331899642944336E-1  
 1.269980000000000E10    6.679641604423523E-1  -2.435326576232910E-2   6.644193199463189E-4  -2.379566140007228E-4   6.772447959519923E-4  -2.253373095300049E-4   6.877310872077942E-1   2.977843582630158E-1  
 1.270000000000000E10    6.572077274322510E-1  -6.008671969175339E-2   3.687169810291380E-4   3.535170253599063E-5   3.729555464815348E-4   4.681553764385171E-5   6.921660304069519E-1   2.608980536460877E-1  
 1.270020000000000E10    6.441062092781067E-1  -9.601483494043350E-2  -1.108772266888991E-6   3.376708773430437E-4  -6.292106263572350E-6   3.489023947622627E-4   6.944040656089783E-1   2.226735353469849E-1  
 1.270040000000000E10    6.284779906272888E-1  -1.320311129093170E-1  -4.659522674046457E-4   6.835692911408842E-4  -4.816640575882047E-4   6.932833930477500E-4   6.941799521446228E-1   1.830620616674423E-1  
 1.270060000000000E10    6.102389097213745E-1  -1.679130494594574E-1  -1.056088949553669E-3   1.090714358724654E-3  -1.087380573153496E-3   1.098322914913297E-3   6.911964416503906E-1   1.422610282897949E-1  
 1.270080000000000E10    5.891811847686768E-1  -2.034475207328796E-1  -1.805741456337273E-3   1.590264146216214E-3  -1.853560563176870E-3   1.593688502907753E-3   6.851111650466919E-1   1.004120260477066E-1  
 1.270100000000000E10    5.651157498359680E-1  -2.383612245321274E-1  -2.755756257101893E-3   2.227421849966049E-3  -2.826932584866881E-3   2.227463293820620E-3   6.755543947219849E-1   5.771915987133980E-2  
 1.270120000000000E10    5.379288196563721E-1  -2.723665237426758E-1  -3.950346261262894E-3   3.069284604862332E-3  -4.049988929182291E-3   3.062819130718708E-3   6.621308326721191E-1   1.449117809534073E-2  
 1.270140000000000E10    5.074837803840637E-1  -3.051241040229797E-1  -5.436865147203207E-3   4.205338191241026E-3  -5.570142995566130E-3   4.194132052361965E-3   6.445124149322510E-1  -2.886727452278137E-2  
 1.270160000000000E10    4.736339747905731E-1  -3.361963927745819E-1  -7.255083881318569E-3   5.767975002527237E-3  -7.433948572725058E-3   5.753244739025831E-3   6.222282648086548E-1  -7.187476754188538E-2  
 1.270180000000000E10    4.363376498222351E-1  -3.650934994220734E-1  -9.431255050003529E-3   7.934236899018288E-3  -9.666947647929192E-3   7.917615585029125E-3   5.949337482452393E-1  -1.138534247875214E-1  
 1.270200000000000E10    3.955416083335877E-1  -3.912972211837769E-1  -1.202010456472635E-2   1.087240967899561E-2  -1.233157142996788E-2   1.085740048438311E-2   5.621049404144287E-1  -1.541562080383301E-1  
 1.270220000000000E10    3.514059484004974E-1  -4.140687286853790E-1  -1.485513150691986E-2   1.501913368701935E-2  -1.531281322240830E-2   1.503481063991785E-2   5.239496231079102E-1  -1.914334893226624E-1  
 1.270240000000000E10    3.041279315948486E-1  -4.327314198017120E-1  -1.781552471220493E-2   2.069026976823807E-2  -1.839657872915268E-2   2.074961736798286E-2   4.802727103233337E-1  -2.246235758066177E-1  
 1.270260000000000E10    2.540945708751679E-1  -4.464515149593353E-1  -2.071912586688995E-2   2.829525433480740E-2  -2.130650170147419E-2   2.844709530472755E-2   4.313926398754120E-1  -2.523098289966583E-1  
 1.270280000000000E10    2.018928229808807E-1  -4.544464945793152E-1  -2.276230603456497E-2   3.835618123412132E-2  -2.349225804209709E-2   3.859930485486984E-2   3.780361115932465E-1  -2.729700207710266E-1  
 1.270300000000000E10    1.484853923320770E-1  -4.559474289417267E-1  -2.321727201342583E-2   5.121355876326561E-2  -2.408991381525993E-2   5.161033198237419E-2   3.214612305164337E-1  -2.850311696529388E-1  
 1.270320000000000E10    9.518210589885712E-2  -4.502758383750916E-1  -2.088111639022827E-2   6.705532968044281E-2  -2.190808393061161E-2   6.766305118799210E-2   2.637236714363098E-1  -2.871482372283936E-1  
 1.270340000000000E10    4.354331642389298E-2  -4.372759163379669E-1  -1.420563738793135E-2   8.561995625495911E-2  -1.537692733108997E-2   8.651914447546005E-2   2.074960768222809E-1  -2.785805761814117E-1  
 1.270360000000000E10   -4.565744660794735E-3  -4.171457290649414E-1  -1.499812933616340E-3   1.059402823448181E-1  -2.749497070908546E-3   1.072245687246323E-1   1.559964567422867E-1  -2.595340311527252E-1  
 1.270380000000000E10   -4.735267162322998E-2  -3.908926546573639E-1   1.881080679595470E-2   1.261657029390335E-1   1.757264323532581E-2   1.279267221689224E-1   1.125689223408699E-1  -2.316401153802872E-1  
 1.270400000000000E10   -8.334954828023911E-2  -3.601770699024200E-1   4.760863259434700E-2   1.435218602418900E-1   4.652103036642075E-2   1.458233147859573E-1   7.985465228557587E-2  -1.980211287736893E-1  
 1.270420000000000E10   -1.119138896465302E-1  -3.272914290428162E-1   8.457020670175552E-2   1.546544134616852E-1   8.378785848617554E-2   1.575220972299576E-1   5.896024778485298E-2  -1.628787368535996E-1  
 1.270440000000000E10   -1.333181113004684E-1  -2.945290207862854E-1   1.278750002384186E-1   1.563156694173813E-1   1.275798827409744E-1   1.597324162721634E-1   4.902470856904984E-2  -1.305896192789078E-1  
 1.270460000000000E10   -1.487472951412201E-1  -2.637758553028107E-1   1.742991358041763E-1   1.461585164070129E-1   1.747013479471207E-1   1.499913930892944E-1   4.730552434921265E-2  -1.046686023473740E-1  
 1.270480000000000E10   -1.599225848913193E-1  -2.361041456460953E-1   2.199270278215408E-1   1.232626289129257E-1   2.211543023586273E-1   1.273242980241776E-1   4.994460940361023E-2  -8.682553470134735E-2  
 1.270500000000000E10   -1.685662269592285E-1  -2.117461711168289E-1   2.608412206172943E-1   8.826074004173279E-2   2.629645764827728E-1   9.242022782564163E-2   5.303112044930458E-2  -7.686740159988403E-2  
 1.270520000000000E10   -1.761215180158615E-1  -1.902731209993362E-1   2.938076257705689E-1   4.313583672046661E-2   2.968664765357971E-1   4.711550474166870E-2   5.360266566276550E-2  -7.308421283960342E-2  
 1.270540000000000E10   -1.834805011749268E-1  -1.709156036376953E-1   3.166400194168091E-1  -9.505102410912514E-3   3.206053376197815E-1  -5.846160929650068E-3   4.990961030125618E-2  -7.301861792802811E-2  
 1.270560000000000E10   -1.910327225923538E-1  -1.528105139732361E-1   3.281842768192291E-1  -6.665926426649094E-2   3.329244852066040E-1  -6.355246901512146E-2   4.153329879045487E-2  -7.410105317831039E-2  
 1.270580000000000E10   -1.988629102706909E-1  -1.352867931127548E-1   3.281175196170807E-1  -1.255729347467423E-1   3.335512876510620E-1  -1.231479793787003E-1   2.893378399312496E-2  -7.421320676803589E-2  
 1.270600000000000E10   -2.068134695291519E-1  -1.178368777036667E-1   3.168375194072723E-1  -1.837314218282700E-1   3.227806389331818E-1  -1.821547597646713E-1   1.319675985723734E-2  -7.184221595525742E-2  
 1.270620000000000E10   -2.147015482187271E-1  -1.001257598400116E-1   2.951555252075195E-1  -2.389902919530869E-1   3.014956116676331E-1  -2.383169233798981E-1  -4.378835670650005E-3  -6.606555730104446E-2  
 1.270640000000000E10   -2.222654223442078E-1  -8.194611221551895E-2   2.641946375370026E-1  -2.895997762680054E-1   2.707486748695374E-1  -2.898981273174286E-1  -2.246734872460365E-2  -5.653043091297150E-2  
 1.270660000000000E10   -2.293411195278168E-1  -6.316328793764114E-2   2.252420037984848E-1  -3.342562019824982E-1   2.318756878376007E-1  -3.354892730712891E-1  -3.988960385322571E-2  -4.326840862631798E-2  
 1.270680000000000E10   -2.357673346996307E-1  -4.375203698873520E-2   1.797209084033966E-1  -3.718504607677460E-1   1.862942874431610E-1  -3.740938305854797E-1  -5.568558350205421E-2  -2.664693072438240E-2  
 1.270700000000000E10   -2.413547635078430E-1  -2.364432252943516E-2   1.290639340877533E-1  -4.016989767551422E-1   1.354827582836151E-1  -4.048675894737244E-1  -6.909696757793427E-2  -7.134232670068741E-3  
 1.270720000000000E10   -2.459571063518524E-1  -2.789598423987627E-3   7.477896660566330E-2  -4.233720302581787E-1   8.080255985260010E-2  -4.274356067180634E-1  -7.957307994365692E-2   1.465300098061562E-2  
 1.270740000000000E10   -2.493988573551178E-1   1.879274100065231E-2   1.827018894255161E-2  -4.366158843040466E-1   2.380178123712540E-2  -4.415395557880402E-1  -8.674498647451401E-2   3.807543963193893E-2  
 1.270760000000000E10   -2.514542043209076E-1   4.108938574790955E-2  -3.922113403677940E-2  -4.414949715137482E-1  -3.422756865620613E-2  -4.471721649169922E-1  -9.041631966829300E-2   6.254739314317703E-2  
 1.270780000000000E10   -2.519851326942444E-1   6.409964710474014E-2  -9.628204256296158E-2  -4.382074475288391E-1  -9.200878441333771E-2  -4.445821940898895E-1  -9.048246592283249E-2   8.744195848703384E-2  
 1.270800000000000E10   -2.507696151733398E-1   8.769627660512924E-2  -1.518613845109940E-1  -4.271970093250275E-1  -1.484029591083527E-1  -4.340978264808655E-1  -8.695640414953232E-2   1.122403740882874E-1  
 1.270820000000000E10   -2.475567013025284E-1   1.116999313235283E-1  -2.049813866615295E-1  -4.088729023933411E-1  -2.022959291934967E-1  -4.162632226943970E-1  -7.993515580892563E-2   1.364204585552216E-1  
 1.270840000000000E10   -2.421946078538895E-1   1.359890550374985E-1  -2.546878159046173E-1  -3.839209973812103E-1  -2.528686523437500E-1  -3.916763663291931E-1  -6.950926780700684E-2   1.594722121953964E-1  
 1.270860000000000E10   -2.345175892114639E-1   1.602787971496582E-1  -3.002166450023651E-1  -3.531060218811035E-1  -2.993611395359039E-1  -3.610207438468933E-1  -5.589377880096436E-2   1.810063123703003E-1  
 1.270880000000000E10   -2.243779450654984E-1   1.843008548021317E-1  -3.409941196441650E-1  -3.170844614505768E-1  -3.410999178886414E-1  -3.251155912876129E-1  -3.929208964109421E-2   2.005924135446549E-1  
 1.270900000000000E10   -2.117446810007095E-1   2.077190577983856E-1  -3.765631020069122E-1  -2.767435908317566E-1  -3.775623440742493E-1  -2.847363650798798E-1  -1.998417451977730E-2   2.178981453180313E-1  
 1.270920000000000E10   -1.965639144182205E-1   2.302301079034805E-1  -4.065290987491608E-1  -2.328293919563294E-1  -4.084705412387848E-1  -2.406668812036514E-1   1.725371461361647E-3   2.325625866651535E-1  
 1.270940000000000E10   -1.788992583751679E-1   2.514510154724121E-1  -4.306710660457611E-1  -1.862221658229828E-1  -4.335323572158814E-1  -1.937725543975830E-1   2.553032338619232E-2   2.443355321884155E-1  
 1.270960000000000E10   -1.588866412639618E-1   2.710898220539093E-1  -4.489760100841522E-1  -1.376248598098755E-1  -4.525925219058991E-1  -1.449034065008164E-1   5.103902891278267E-2   2.529160082340241E-1  
 1.270980000000000E10   -1.366566568613052E-1   2.888109982013702E-1  -4.612922668457031E-1  -8.791848272085190E-2  -4.656983613967896E-1  -9.471833705902100E-2   7.789055258035660E-2   2.581177353858948E-1  
 1.271000000000000E10   -1.124255061149597E-1   3.043055236339569E-1  -4.677729010581970E-1  -3.773074969649315E-2  -4.728959202766419E-1  -4.403453320264816E-2   1.056444942951202E-1   2.597956061363220E-1  
 1.271020000000000E10   -8.648417890071869E-2   3.173391222953796E-1  -4.685274958610535E-1   1.222746632993221E-2  -4.743387103080750E-1   6.517972797155380E-3   1.338663101196289E-1   2.578161358833313E-1  
 1.271040000000000E10   -5.910212174057961E-2   3.277032077312470E-1  -4.638558328151703E-1   6.134014204144478E-2  -4.701896905899048E-1   5.627030879259110E-2   1.621415168046951E-1   2.520941495895386E-1  
 1.271060000000000E10   -3.060119226574898E-2   3.352567851543427E-1  -4.539741575717926E-1   1.090470552444458E-1  -4.607373774051666E-1   1.047016307711601E-1   1.899557113647461E-1   2.426646649837494E-1  
 1.271080000000000E10   -1.306205987930298E-3   3.398589789867401E-1  -4.392014741897583E-1   1.548911333084106E-1  -4.463716745376587E-1   1.512897312641144E-1   2.169000059366226E-1   2.295593023300171E-1  
 1.271100000000000E10    2.842883020639420E-2   3.414901793003082E-1  -4.198942482471466E-1   1.983779668807983E-1  -4.274021685123444E-1   1.955406367778778E-1   2.424895167350769E-1   2.129104435443878E-1  
 1.271120000000000E10    5.827096104621887E-2   3.400608003139496E-1  -3.964416682720184E-1   2.391509562730789E-1  -4.041206240653992E-1   2.371400296688080E-1   2.662846446037293E-1   1.928352415561676E-1  
 1.271140000000000E10    8.791587501764298E-2   3.356522321701050E-1  -3.692263066768646E-1   2.769066989421845E-1  -3.770367801189423E-1   2.756612300872803E-1   2.878849506378174E-1   1.695793271064758E-1  
 1.271160000000000E10    1.170236840844154E-1   3.283066153526306E-1  -3.386065959930420E-1   3.113408982753754E-1  -3.464633226394653E-1   3.108740150928497E-1   3.068635463714600E-1   1.434179246425629E-1  
 1.271180000000000E10    1.452922075986862E-1   3.181383907794952E-1  -3.050110340118408E-1   3.421994745731354E-1  -3.128678202629089E-1   3.425148129463196E-1   3.228813707828522E-1   1.146212518215179E-1  
 1.271200000000000E10    1.724891364574432E-1   3.052330911159515E-1  -2.688387930393219E-1   3.693875074386597E-1  -2.766287326812744E-1   3.703927099704742E-1   3.356308937072754E-1   8.361578732728958E-2  
 1.271220000000000E10    1.982923150062561E-1   2.897860407829285E-1  -2.304947972297669E-1   3.926056623458862E-1  -2.381371408700943E-1   3.943521976470947E-1   3.448121249675751E-1   5.077816545963287E-2  
 1.271240000000000E10    2.225504368543625E-1   2.719537317752838E-1  -1.904257237911224E-1   4.118133783340454E-1  -1.978006213903427E-1   4.142853021621704E-1   3.502075672149658E-1   1.654778793454170E-2  
 1.271260000000000E10    2.449981868267059E-1   2.519179880619049E-1  -1.489830166101456E-1   4.269599616527557E-1  -1.560013741254807E-1   4.301277697086334E-1   3.516483604907990E-1  -1.862664148211479E-2  
