#  HZ   S   RI   R     50.00 
! Rohde & Schwarz ZVA50 2Ports - Version 3.70 - 1145.1110k50 SN: 100192
! Date: 2025-10-24 10:55:29
! Measurements: S11 S21 S12 S22 
! 
 1.269400000000000E10    4.835274219512940E-1   6.596566438674927E-1   2.525991760194302E-3  -9.052259847521782E-4   2.578649902716279E-3  -8.839080110192299E-4   2.611916661262512E-1   8.315514922142029E-1  
 1.269420000000000E10    4.985936880111694E-1   6.414537429809570E-1   2.457409165799618E-3  -8.545686723664403E-4   2.507979283109307E-3  -8.348663104698062E-4   2.789013087749481E-1   8.230050802230835E-1  
 1.269440000000000E10    5.133990645408630E-1   6.224222183227539E-1   2.384601160883904E-3  -7.922745426185429E-4   2.433495596051216E-3  -7.713244995102286E-4   2.967171370983124E-1   8.137556314468384E-1  
 1.269460000000000E10    5.278279185295105E-1   6.025176644325256E-1   2.308879746124148E-3  -7.149258744902909E-4   2.354922005906701E-3  -6.937404978089035E-4   3.146704137325287E-1   8.038117289543152E-1  
 1.269480000000000E10    5.419532060623169E-1   5.817217826843262E-1   2.231162507086992E-3  -6.214394234120846E-4   2.276054117828608E-3  -5.992406513541937E-4   3.327633142471314E-1   7.931802272796631E-1  
 1.269500000000000E10    5.555971860885620E-1   5.600226521492004E-1   2.151494612917304E-3  -5.100812995806336E-4   2.194579690694809E-3  -4.871627897955477E-4   3.509249687194824E-1   7.817394733428955E-1  
 1.269520000000000E10    5.687592029571533E-1   5.373271703720093E-1   2.071108436211944E-3  -3.788736939895898E-4   2.109469380229712E-3  -3.552903071977198E-4   3.691664934158325E-1   7.694414258003235E-1  
 1.269540000000000E10    5.813745260238648E-1   5.136985182762146E-1   1.991091528907418E-3  -2.269039978273213E-4   2.028219401836395E-3  -2.024745481321588E-4   3.875095546245575E-1   7.563491463661194E-1  
 1.269560000000000E10    5.933910012245178E-1   4.890506863594055E-1   1.914177089929581E-3  -5.338653863873333E-5   1.947619835846126E-3  -2.780526119749993E-5   4.058269858360291E-1   7.422986030578613E-1  
 1.269580000000000E10    6.046971678733826E-1   4.634282588958740E-1   1.841180259361863E-3   1.431952550774440E-4   1.868335297331214E-3   1.735322002787143E-4   4.241968393325806E-1   7.272674441337585E-1  
 1.269600000000000E10    6.152798533439636E-1   4.367136359214783E-1   1.772118615917862E-3   3.670779988169670E-4   1.797824050299823E-3   4.004372167401016E-4   4.424437582492828E-1   7.112913131713867E-1  
 1.269620000000000E10    6.250043511390686E-1   4.089760780334473E-1   1.711259596049786E-3   6.185282254591584E-4   1.731661963276565E-3   6.550665129907429E-4   4.606138169765472E-1   6.941678524017334E-1  
 1.269640000000000E10    6.336960792541504E-1   3.801129162311554E-1   1.659290865063667E-3   8.990718051791191E-4   1.675951294600964E-3   9.373754728585482E-4   4.786111116409302E-1   6.759862303733826E-1  
 1.269660000000000E10    6.413757801055908E-1   3.502100706100464E-1   1.622076495550573E-3   1.209075213409960E-3   1.632438041269779E-3   1.251742825843394E-3   4.964159727096558E-1   6.565274000167847E-1  
 1.269680000000000E10    6.478427648544312E-1   3.191500306129456E-1   1.596826943568885E-3   1.547728199511766E-3   1.602605800144374E-3   1.596560003235936E-3   5.139342546463013E-1   6.358428001403809E-1  
 1.269700000000000E10    6.530047655105591E-1   2.870547175407410E-1   1.591266831383109E-3   1.920255250297487E-3   1.590779400430620E-3   1.973566832020879E-3   5.310783982276917E-1   6.138212084770203E-1  
 1.269720000000000E10    6.566849350929260E-1   2.538684010505676E-1   1.605386729352176E-3   2.323969500139356E-3   1.597322756424546E-3   2.383964834734798E-3   5.477620959281921E-1   5.904370546340942E-1  
 1.269740000000000E10    6.587582826614380E-1   2.195928692817688E-1   1.643628464080393E-3   2.758098766207695E-3   1.630945480428636E-3   2.826208481565118E-3   5.638916492462158E-1   5.655498504638672E-1  
 1.269760000000000E10    6.590513586997986E-1   1.842456459999085E-1   1.707449089735746E-3   3.223788691684604E-3   1.690708100795746E-3   3.299607429653406E-3   5.793120861053467E-1   5.391286611557007E-1  
 1.269780000000000E10    6.574190258979797E-1   1.479890048503876E-1   1.799974939785898E-3   3.719296073541045E-3   1.776186632923782E-3   3.802735591307282E-3   5.938927531242371E-1   5.111268758773804E-1  
 1.269800000000000E10    6.535797715187073E-1   1.108044385910034E-1   1.922134659253061E-3   4.239752423018217E-3   1.892418367788196E-3   4.332914948463440E-3   6.074854731559753E-1   4.814337790012360E-1  
 1.269820000000000E10    6.473799943923950E-1   7.278445363044739E-2   2.072048373520374E-3   4.787649493664503E-3   2.038959879428148E-3   4.890458192676306E-3   6.198636889457703E-1   4.500173330307007E-1  
 1.269840000000000E10    6.385931372642517E-1   3.408468142151833E-2   2.247851109132171E-3   5.355750676244497E-3   2.210282254964113E-3   5.468957591801882E-3   6.308168172836304E-1   4.168070554733276E-1  
 1.269860000000000E10    6.269933581352234E-1  -5.181044340133667E-3   2.446602098643780E-3   5.943925585597754E-3   2.400428988039494E-3   6.068414542824030E-3   6.401177644729614E-1   3.818094730377197E-1  
 1.269880000000000E10    6.123406291007996E-1  -4.475537687540054E-2   2.658740151673555E-3   6.550338119268417E-3   2.605010289698839E-3   6.684745661914349E-3   6.474586725234985E-1   3.449543118476868E-1  
 1.269900000000000E10    5.943493247032166E-1  -8.447571098804474E-2   2.868019975721836E-3   7.172257173806429E-3   2.808342687785626E-3   7.318973541259766E-3   6.525378227233887E-1   3.062836229801178E-1  
 1.269920000000000E10    5.727652907371521E-1  -1.240255832672119E-1   3.058662638068199E-3   7.820240221917629E-3   2.995200455188751E-3   7.977289147675037E-3   6.549333333969116E-1   2.658038139343262E-1  
 1.269940000000000E10    5.474400520324707E-1  -1.629917025566101E-1   3.207781817764044E-3   8.499642834067345E-3   3.133766120299697E-3   8.668418973684311E-3   6.543374061584473E-1   2.236739397048950E-1  
 1.269960000000000E10    5.180433988571167E-1  -2.010291516780853E-1   3.280435688793659E-3   9.234104305505753E-3   3.196428297087550E-3   9.411918930709362E-3   6.501526236534119E-1   1.800053119659424E-1  
 1.269980000000000E10    4.843704104423523E-1  -2.375801503658295E-1   3.238913835957646E-3   1.006065588444471E-2   3.143661422654986E-3   1.024876534938812E-2   6.420139074325562E-1   1.350859701633453E-1  
 1.270000000000000E10    4.462795257568359E-1  -2.720441520214081E-1   3.041810821741819E-3   1.103455293923616E-2   2.932120347395539E-3   1.122919190675020E-2   6.292748451232910E-1   8.924340456724167E-2  
 1.270020000000000E10    4.036884903907776E-1  -3.036992847919464E-1   2.650748472660780E-3   1.224564202129841E-2   2.517007989808917E-3   1.245152018964291E-2   6.114034056663513E-1   4.302808642387390E-2  
 1.270040000000000E10    3.566262722015381E-1  -3.318455815315247E-1   2.027770271524787E-3   1.382192037999630E-2   1.863732235506177E-3   1.404040213674307E-2   5.878235101699829E-1  -2.931740134954453E-3  
 1.270060000000000E10    3.052576482295990E-1  -3.555530011653900E-1   1.167892711237073E-3   1.594195701181889E-2   9.495153790339828E-4   1.621451787650585E-2   5.580746531486511E-1  -4.771430045366287E-2  
 1.270080000000000E10    2.498934119939804E-1  -3.738613426685333E-1   1.139957457780838E-4   1.883890293538570E-2  -1.631151535548270E-4   1.913858018815517E-2   5.217069983482361E-1  -9.016504883766174E-2  
 1.270100000000000E10    1.910790354013443E-1  -3.857541084289551E-1  -1.097499276511371E-3   2.283982187509537E-2  -1.367958728224039E-3   2.313456870615482E-2   4.784821867942810E-1  -1.289379894733429E-1  
 1.270120000000000E10    1.296439319849014E-1  -3.902612924575806E-1  -2.071993891149759E-3   2.818774804472923E-2  -2.410817891359329E-3   2.854382432997227E-2   4.284850358963013E-1  -1.623561680316925E-1  
 1.270140000000000E10    6.672459840774536E-2  -3.864269852638245E-1  -2.459178213030100E-3   3.526608273386955E-2  -2.884457120671868E-3   3.569687157869339E-2   3.722951114177704E-1  -1.885507404804230E-1  
 1.270160000000000E10    3.768861992284656E-3  -3.734958767890930E-1  -1.616894965991378E-3   4.432298615574837E-2  -2.129025524482131E-3   4.487192258238792E-2   3.109611272811890E-1  -2.055879533290863E-1  
 1.270180000000000E10   -5.737548321485519E-2  -3.510400652885437E-1   1.311554340645671E-3   5.544118955731392E-2   7.082726224325597E-4   5.615653097629547E-2   2.463904470205307E-1  -2.116280645132065E-1  
 1.270200000000000E10   -1.146202534437180E-1  -3.190031051635742E-1   7.403701543807983E-3   6.840454041957855E-2   6.727444939315319E-3   6.933847814798355E-2   1.811492890119553E-1  -2.052752822637558E-1  
 1.270220000000000E10   -1.659370064735413E-1  -2.781344950199127E-1   1.781742647290230E-2   8.253388106822968E-2   1.709423214197159E-2   8.374596387147903E-2   1.185273602604866E-1  -1.859328150749207E-1  
 1.270240000000000E10   -2.092351168394089E-1  -2.296465337276459E-1   3.357190266251564E-2   9.657764434814453E-2   3.287751972675324E-2   9.812876582145691E-2   6.215055286884308E-2  -1.541148126125336E-1  
 1.270260000000000E10   -2.428477555513382E-1  -1.754326820373535E-1   5.532090738415718E-2   1.087535098195076E-1   5.472484976053238E-2   1.107114031910896E-1   1.555390842258930E-2  -1.116620525717735E-1  
 1.270280000000000E10   -2.656617462635040E-1  -1.178046390414238E-1   8.300475031137466E-2   1.169199123978615E-1   8.262274414300919E-2   1.193000525236130E-1  -1.847486384212971E-2  -6.169784069061279E-2  
 1.270300000000000E10   -2.772776484489441E-1  -5.937258899211884E-2   1.157296076416969E-1   1.188550665974617E-1   1.157121956348419E-1   1.216468140482903E-1  -3.842014446854591E-2  -8.185569196939468E-3  
 1.270320000000000E10   -2.781423330307007E-1  -2.688039559870958E-3   1.517356336116791E-1   1.126942113041878E-1   1.522015184164047E-1   1.158650517463684E-1  -4.426161572337151E-2   4.458710551261902E-2  
 1.270340000000000E10   -2.693136632442474E-1   4.999535530805588E-2   1.886231750249863E-1   9.728743135929108E-2   1.897351592779160E-1   1.007075384259224E-1  -3.744656592607498E-2   9.283687919378281E-2  
 1.270360000000000E10   -2.525120973587036E-1   9.696720540523529E-2   2.237745374441147E-1   7.232069224119186E-2   2.256011664867401E-1   7.588177174329758E-2  -2.052852697670460E-2   1.336132138967514E-1  
 1.270380000000000E10   -2.294988483190537E-1   1.370764970779419E-1   2.545779645442963E-1   3.838532418012619E-2   2.571990191936493E-1   4.187439754605293E-2   3.398503642529249E-3   1.651879549026489E-1  
 1.270400000000000E10   -2.021704465150833E-1   1.697339713573456E-1   2.788245677947998E-1  -3.241201397031546E-3   2.822200357913971E-1   4.090042784810066E-5   3.117548860609531E-2   1.869400888681412E-1  
 1.270420000000000E10   -1.723957806825638E-1   1.947111487388611E-1   2.948456108570099E-1  -5.075924098491669E-2   2.990221977233887E-1  -4.785438254475594E-2   5.993882194161415E-2   1.992468237876892E-1  
 1.270440000000000E10   -1.418037116527557E-1   2.122879475355148E-1   3.015983700752258E-1  -1.021460667252541E-1   3.064625859260559E-1  -9.976957738399506E-2   8.739563077688217E-2   2.031092345714569E-1  
 1.270460000000000E10   -1.119108870625496E-1   2.229779809713364E-1   2.985856533050537E-1  -1.552344113588333E-1   3.040363490581513E-1  -1.535612493753433E-1   1.117812618613243E-1   1.999281793832779E-1  
 1.270480000000000E10   -8.394588530063629E-2   2.275696396827698E-1   2.857818305492401E-1  -2.080901414155960E-1   2.916663587093353E-1  -2.072114795446396E-1   1.319214254617691E-1   1.912893056869507E-1  
 1.270500000000000E10   -5.893970653414726E-2   2.269746214151382E-1   2.635443210601807E-1  -2.588050067424774E-1   2.697866857051849E-1  -2.587803900241852E-1   1.471150815486908E-1   1.788366436958313E-1  
 1.270520000000000E10   -3.770050033926964E-2   2.223542630672455E-1   2.326103597879410E-1  -3.057762086391449E-1   2.390091717243195E-1  -3.066875338554382E-1   1.570915579795837E-1   1.641024202108383E-1  
 1.270540000000000E10   -2.068528532981873E-2   2.148468643426895E-1   1.938255876302719E-1  -3.475682139396668E-1   2.003117054700851E-1  -3.494394123554230E-1   1.619274765253067E-1   1.485697329044342E-1  
 1.270560000000000E10   -8.112242445349693E-3   2.056362181901932E-1   1.482990533113480E-1  -3.830216228961945E-1   1.546751111745834E-1  -3.858073055744171E-1   1.619562506675720E-1   1.335151344537735E-1  
 1.270580000000000E10    7.020123302936554E-5   1.959528923034668E-1   9.728501737117767E-2  -4.111280441284180E-1   1.034272313117981E-1  -4.148292243480682E-1   1.577042043209076E-1   1.200650557875633E-1  
 1.270600000000000E10    4.154343623667955E-3   1.868325471878052E-1   4.211284965276718E-2  -4.311574995517731E-1   4.778785258531570E-2  -4.357563555240631E-1   1.499717682600021E-1   1.091334745287895E-1  
 1.270620000000000E10    4.649246111512184E-3   1.792736798524857E-1  -1.581510528922081E-2  -4.426387250423431E-1  -1.066085230559111E-2  -4.480516314506531E-1   1.396316736936569E-1   1.014649122953415E-1  
 1.270640000000000E10    2.271691337227821E-3   1.740377098321915E-1  -7.507898658514023E-2  -4.452684521675110E-1  -7.060325890779495E-2  -4.514324665069580E-1   1.276953220367432E-1   9.748830646276474E-2  
 1.270660000000000E10   -2.090539783239365E-3   1.717281788587570E-1  -1.342393606901169E-1  -4.390733242034912E-1  -1.304944306612015E-1  -4.458656609058380E-1   1.152184605598450E-1   9.746570885181427E-2  
 1.270680000000000E10   -7.538993377238512E-3   1.726760864257813E-1  -1.918193101882935E-1  -4.242726564407349E-1  -1.889702230691910E-1  -4.316117763519287E-1   1.032403111457825E-1   1.013393551111221E-1  
 1.270700000000000E10   -1.307255495339632E-2   1.769516468048096E-1  -2.465737313032150E-1  -4.013504385948181E-1  -2.445594817399979E-1  -4.091209769248962E-1   9.276337921619415E-2   1.088690385222435E-1  
 1.270720000000000E10   -1.779291406273842E-2   1.844425648450851E-1  -2.972448766231537E-1  -3.710336387157440E-1  -2.962180972099304E-1  -3.790312111377716E-1   8.467561006546021E-2   1.196074187755585E-1  
 1.270740000000000E10   -2.085556089878082E-2   1.947738975286484E-1  -3.428098559379578E-1  -3.341659307479858E-1  -3.427636921405792E-1  -3.423050642013550E-1   7.972181588411331E-2   1.328221112489700E-1  
 1.270760000000000E10   -2.158587612211704E-2   2.074328660964966E-1  -3.824900984764099E-1  -2.917490303516388E-1  -3.834270834922791E-1  -2.998874485492706E-1   7.845187187194824E-2   1.477466225624085E-1  
 1.270780000000000E10   -1.943174749612808E-2   2.217934429645538E-1  -4.156746268272400E-1  -2.449168115854263E-1  -4.175882935523987E-1  -2.529205977916718E-1   8.119907230138779E-2   1.634606719017029E-1  
 1.270800000000000E10   -1.411637477576733E-2   2.371192574501038E-1  -4.419985115528107E-1  -1.948258578777313E-1  -4.448565542697907E-1  -2.025406360626221E-1   8.807504177093506E-2   1.790840178728104E-1  
 1.270820000000000E10   -5.449046846479178E-3   2.526100277900696E-1  -4.613128900527954E-1  -1.425055265426636E-1  -4.650084376335144E-1  -1.499139517545700E-1   9.901149570941925E-2   1.937056332826614E-1  
 1.270840000000000E10    6.556228734552860E-3   2.675818502902985E-1  -4.736000895500183E-1  -8.918175846338272E-2  -4.781140685081482E-1  -9.609198570251465E-2   1.137144267559052E-1   2.064390927553177E-1  
 1.270860000000000E10    2.168543078005314E-2   2.813784778118134E-1  -4.791486263275147E-1  -3.573898226022720E-2  -4.843671023845673E-1  -4.205007106065750E-2   1.317496746778488E-1   2.166178822517395E-1  
 1.270880000000000E10    3.965969383716583E-2   2.933935523033142E-1  -4.782370328903198E-1   1.693611405789852E-2  -4.841136634349823E-1   1.126739382743835E-2   1.525939702987671E-1   2.235665768384934E-1  
 1.270900000000000E10    6.006892397999764E-2   3.031695485115051E-1  -4.713279902935028E-1   6.811532378196716E-2  -4.777402281761169E-1   6.308426707983017E-2   1.755886077880859E-1   2.268496453762054E-1  
 1.270920000000000E10    8.247519284486771E-2   3.103246092796326E-1  -4.588825404644013E-1   1.170860677957535E-1  -4.657740294933319E-1   1.128312051296234E-1   2.000147700309753E-1   2.261391282081604E-1  
 1.270940000000000E10    1.064005494117737E-1   3.146194219589233E-1  -4.415072202682495E-1   1.634026765823364E-1  -4.487580657005310E-1   1.599861085414887E-1   2.251880466938019E-1   2.212287485599518E-1  
 1.270960000000000E10    1.313136219978333E-1   3.158665895462036E-1  -4.196769893169403E-1   2.067542970180512E-1  -4.272010922431946E-1   2.040280997753143E-1   2.503710687160492E-1   2.120700925588608E-1  
 1.270980000000000E10    1.568085253238678E-1   3.140019476413727E-1  -3.939669430255890E-1   2.466710060834885E-1  -4.016637504100800E-1   2.447813749313355E-1   2.748808264732361E-1   1.986885666847229E-1  
 1.271000000000000E10    1.823731213808060E-1   3.090349435806274E-1  -3.648683726787567E-1   2.831042408943176E-1  -3.726636469364166E-1   2.819786965847015E-1   2.980684041976929E-1   1.812918931245804E-1  
 1.271020000000000E10    2.075759917497635E-1   3.010611236095429E-1  -3.328787684440613E-1   3.157997727394104E-1  -3.407141268253326E-1   3.154808580875397E-1   3.193560540676117E-1   1.601391732692719E-1  
 1.271040000000000E10    2.320613265037537E-1   2.902368903160095E-1  -2.984570860862732E-1   3.447374701499939E-1  -3.062373101711273E-1   3.451809287071228E-1   3.381803035736084E-1   1.354565322399139E-1  
 1.271060000000000E10    2.555120587348938E-1   2.766753733158112E-1  -2.620543241500855E-1   3.698387145996094E-1  -2.696590125560761E-1   3.709924817085266E-1   3.540454506874085E-1   1.077827513217926E-1  
 1.271080000000000E10    2.776117622852325E-1   2.605910897254944E-1  -2.239897251129150E-1   3.910847604274750E-1  -2.314265370368958E-1   3.929578065872192E-1   3.665826618671417E-1   7.743696868419647E-2  
 1.271100000000000E10    2.981125712394714E-1   2.422444820404053E-1  -1.846490353345871E-1   4.084851741790772E-1  -1.918439120054245E-1   4.110620319843292E-1   3.754599094390869E-1   4.497576877474785E-2  
 1.271120000000000E10    3.168118000030518E-1   2.218268513679504E-1  -1.444155424833298E-1   4.220824241638184E-1  -1.512310802936554E-1   4.253204762935638E-1   3.803798854351044E-1   1.090434379875660E-2  
 1.271140000000000E10    3.335296809673309E-1   1.996305286884308E-1  -1.034974530339241E-1   4.319276213645935E-1  -1.099633574485779E-1   4.357442557811737E-1   3.811826705932617E-1  -2.426850050687790E-2  
 1.271160000000000E10    3.481387197971344E-1   1.758456379175186E-1  -6.217376887798309E-2   4.380033016204834E-1  -6.829015910625458E-2   4.423749744892120E-1   3.776992559432983E-1  -5.996166169643402E-2  
 1.271180000000000E10    3.605582714080811E-1   1.507804989814758E-1  -2.082693204283714E-2   4.403711855411530E-1  -2.649031765758991E-2   4.452979266643524E-1   3.698971867561340E-1  -9.560905396938324E-2  
 1.271200000000000E10    3.706791400909424E-1   1.245912015438080E-1   2.039927616715431E-2   4.391518831253052E-1   1.515632960945368E-2   4.445401430130005E-1   3.578529059886932E-1  -1.306816339492798E-1  
 1.271220000000000E10    3.784371614456177E-1   9.760021418333054E-2   6.112535297870636E-2   4.342907369136810E-1   5.638955906033516E-2   4.401344656944275E-1   3.415808379650116E-1  -1.646013855934143E-1  
 1.271240000000000E10    3.838421106338501E-1   6.996884196996689E-2   1.011186093091965E-1   4.259005188941956E-1   9.701860696077347E-2   4.321171641349793E-1   3.212654590606690E-1  -1.968218833208084E-1  
 1.271260000000000E10    3.868448734283447E-1   4.194521531462669E-2   1.401877701282501E-1   4.140845537185669E-1   1.366975158452988E-1   4.206048548221588E-1   2.971279025077820E-1  -2.268610149621964E-1  
