#  HZ   S   RI   R     50.00 
! Rohde & Schwarz ZVA50 2Ports - Version 3.70 - 1145.1110k50 SN: 100192
! Date: 2025-10-24 10:52:01
! Measurements: S11 S21 S12 S22 
! 
 1.269400000000000E10    4.517084062099457E-1   7.081080675125122E-1   3.596432274207473E-3  -2.026099944487214E-3   3.677490400150418E-3  -2.006606198847294E-3   2.414012551307678E-1   8.446785807609558E-1  
 1.269420000000000E10    4.667658507823944E-1   6.931747198104858E-1   3.564822953194380E-3  -2.088539069518447E-3   3.646538592875004E-3  -2.070340095087886E-3   2.583891153335571E-1   8.374091386795044E-1  
 1.269440000000000E10    4.816606342792511E-1   6.776256561279297E-1   3.527390770614147E-3  -2.147859428077936E-3   3.610262647271156E-3  -2.130422741174698E-3   2.754909694194794E-1   8.295919895172119E-1  
 1.269460000000000E10    4.963472783565521E-1   6.614253520965576E-1   3.485283348709345E-3  -2.204056829214096E-3   3.569025313481689E-3  -2.186513971537352E-3   2.927241623401642E-1   8.211891651153565E-1  
 1.269480000000000E10    5.108587145805359E-1   6.445846557617188E-1   3.438459709286690E-3  -2.254441380500794E-3   3.523536957800388E-3  -2.238960471004248E-3   3.100954294204712E-1   8.122460246086121E-1  
 1.269500000000000E10    5.250801444053650E-1   6.270275115966797E-1   3.386588301509619E-3  -2.300253603607416E-3   3.471830859780312E-3  -2.285635564476252E-3   3.275613188743591E-1   8.026391863822937E-1  
 1.269520000000000E10    5.390661954879761E-1   6.087623834609985E-1   3.328921739012003E-3  -2.341800136491656E-3   3.414316335693002E-3  -2.328001661226153E-3   3.451203107833862E-1   7.923842668533325E-1  
 1.269540000000000E10    5.527207255363464E-1   5.897857546806335E-1   3.266674699261785E-3  -2.376078395172954E-3   3.352375235408545E-3  -2.363878302276135E-3   3.627908229827881E-1   7.814611196517944E-1  
 1.269560000000000E10    5.660321116447449E-1   5.701079964637756E-1   3.198833670467138E-3  -2.401928417384625E-3   3.283372614532709E-3  -2.390843816101551E-3   3.804977238178253E-1   7.698054909706116E-1  
 1.269580000000000E10    5.789885520935059E-1   5.497223138809204E-1   3.126800293102861E-3  -2.420435426756740E-3   3.210914786905050E-3  -2.411235123872757E-3   3.982952237129211E-1   7.573922872543335E-1  
 1.269600000000000E10    5.915344953536987E-1   5.284998416900635E-1   3.050038358196616E-3  -2.430723980069161E-3   3.132150042802095E-3  -2.421571174636483E-3   4.160268604755402E-1   7.442510128021240E-1  
 1.269620000000000E10    6.036056280136108E-1   5.065469741821289E-1   2.968031913042069E-3  -2.431845292448998E-3   3.050651634112001E-3  -2.423904370516539E-3   4.337827563285828E-1   7.302288413047791E-1  
 1.269640000000000E10    6.151458621025085E-1   4.837882518768311E-1   2.882137428969145E-3  -2.421423327177763E-3   2.964526414871216E-3  -2.415131777524948E-3   4.514664411544800E-1   7.154293656349182E-1  
 1.269660000000000E10    6.261506080627441E-1   4.602459967136383E-1   2.792192623019218E-3  -2.400221303105354E-3   2.871974604204297E-3  -2.394589362666011E-3   4.691053032875061E-1   6.996623277664185E-1  
 1.269680000000000E10    6.365143060684204E-1   4.358726739883423E-1   2.698217518627644E-3  -2.367036184296012E-3   2.777571091428399E-3  -2.360642421990633E-3   4.866058230400085E-1   6.829783320426941E-1  
 1.269700000000000E10    6.462045907974243E-1   4.107084274291992E-1   2.601121552288532E-3  -2.320884494110942E-3   2.678234595805407E-3  -2.316229045391083E-3   5.039532184600830E-1   6.653106808662415E-1  
 1.269720000000000E10    6.551554203033447E-1   3.847339749336243E-1   2.502782503142953E-3  -2.260254928842187E-3   2.577051287516952E-3  -2.256240230053663E-3   5.211108922958374E-1   6.466453075408936E-1  
 1.269740000000000E10    6.633341312408447E-1   3.578813970088959E-1   2.401866484433413E-3  -2.186197089031339E-3   2.472162013873458E-3  -2.181108342483640E-3   5.379669666290283E-1   6.269258260726929E-1  
 1.269760000000000E10    6.706096529960632E-1   3.301950097084045E-1   2.298137871548533E-3  -2.097063465043902E-3   2.366830129176378E-3  -2.091034082695842E-3   5.545532107353210E-1   6.060732603073120E-1  
 1.269780000000000E10    6.770107746124268E-1   3.017260134220123E-1   2.193259308114648E-3  -1.992365112528205E-3   2.259013243019581E-3  -1.986147835850716E-3   5.707317590713501E-1   5.840940475463867E-1  
 1.269800000000000E10    6.823274493217468E-1   2.724200785160065E-1   2.089831745252013E-3  -1.871716813184321E-3   2.150372369214892E-3  -1.865012804046273E-3   5.864433646202087E-1   5.609222650527954E-1  
 1.269820000000000E10    6.865319013595581E-1   2.422872781753540E-1   1.983121968805790E-3  -1.734190154820681E-3   2.040716353803873E-3  -1.728422124870122E-3   6.015653014183044E-1   5.365315079689026E-1  
 1.269840000000000E10    6.894917488098145E-1   2.113545238971710E-1   1.874193432740867E-3  -1.580524723976851E-3   1.928100828081369E-3  -1.573002315126360E-3   6.160739660263062E-1   5.108269453048706E-1  
 1.269860000000000E10    6.911786794662476E-1   1.796219199895859E-1   1.763502368703485E-3  -1.413098885677755E-3   1.812997506931424E-3  -1.402957946993411E-3   6.298145055770874E-1   4.838156402111054E-1  
 1.269880000000000E10    6.914504170417786E-1   1.472005397081375E-1   1.648302888497710E-3  -1.227401313371956E-3   1.694628270342946E-3  -1.217799843288958E-3   6.427158117294312E-1   4.554370045661926E-1  
 1.269900000000000E10    6.901821494102478E-1   1.140418052673340E-1   1.528835156932473E-3  -1.027770806103945E-3   1.570445951074362E-3  -1.013675704598427E-3   6.545790433883667E-1   4.256881177425385E-1  
 1.269920000000000E10    6.872631907463074E-1   8.019173890352249E-2   1.397779909893870E-3  -8.121248101815581E-4   1.432460150681436E-3  -7.977169007062912E-4   6.652989983558655E-1   3.944820761680603E-1  
 1.269940000000000E10    6.826144456863403E-1   4.576792940497398E-2   1.252523390576243E-3  -5.813747411593795E-4   1.282583223655820E-3  -5.651471437886357E-4   6.747402548789978E-1   3.618802726268768E-1  
 1.269960000000000E10    6.760153770446777E-1   1.082411408424377E-2   1.083380542695522E-3  -3.344170108903199E-4   1.107270829379559E-3  -3.186907852068543E-4   6.826470494270325E-1   3.277807235717773E-1  
 1.269980000000000E10    6.673613190650940E-1  -2.459680289030075E-2   8.840232621878386E-4  -7.149470911826938E-5   9.001280996017158E-4  -5.205960769671947E-5   6.888917088508606E-1   2.922643125057221E-1  
 1.270000000000000E10    6.565093994140625E-1  -6.033639609813690E-2   6.387954344972968E-4   2.138580312021077E-4   6.463444442488253E-4   2.325105015188456E-4   6.931713223457336E-1   2.553294003009796E-1  
 1.270020000000000E10    6.432994604110718E-1  -9.631738811731339E-2   3.309822059236467E-4   5.249642999842763E-4   3.280176897533238E-4   5.447109579108656E-4   6.953039765357971E-1   2.170208096504211E-1  
 1.270040000000000E10    6.275656819343567E-1  -1.323211938142777E-1  -5.978767148917541E-5   8.749497355893254E-4  -7.411820115521550E-5   8.931473130360246E-4   6.949255466461182E-1   1.773621141910553E-1  
 1.270060000000000E10    6.091779470443726E-1  -1.682187616825104E-1  -5.621681921184063E-4   1.280386233702302E-3  -5.893349298276007E-4   1.295151305384934E-3   6.919053196907044E-1   1.365484893321991E-1  
 1.270080000000000E10    5.879269242286682E-1  -2.037613093852997E-1  -1.207600813359022E-3   1.765462569892407E-3  -1.248928369022906E-3   1.779399579390883E-3   6.858088970184326E-1   9.469456970691681E-2  
 1.270100000000000E10    5.636686682701111E-1  -2.386673390865326E-1  -2.033126074820757E-3   2.371741691604257E-3  -2.097900491207838E-3   2.382424194365740E-3   6.762828230857849E-1   5.199937894940376E-2  
 1.270120000000000E10    5.362352132797241E-1  -2.726401090621948E-1  -3.081343136727810E-3   3.155691782012582E-3  -3.171949647367001E-3   3.164261812344194E-3   6.629738211631775E-1   8.759990334510803E-3  
 1.270140000000000E10    5.055120587348938E-1  -3.053262829780579E-1  -4.398524295538664E-3   4.203598480671644E-3  -4.519428126513958E-3   4.207764752209187E-3   6.455985307693481E-1  -3.467260301113129E-2  
 1.270160000000000E10    4.713364839553833E-1  -3.362949192523956E-1  -6.025553680956364E-3   5.632057785987854E-3  -6.188042927533388E-3   5.630784668028355E-3   6.236562728881836E-1  -7.779273390769959E-2  
 1.270180000000000E10    4.336732029914856E-1  -3.650288283824921E-1  -7.992058992385864E-3   7.599711883813143E-3  -8.207863196730614E-3   7.599067874252796E-3   5.968552231788635E-1  -1.200082153081894E-1  
 1.270200000000000E10    3.925165534019470E-1  -3.909783065319061E-1  -1.030042860656977E-2   1.032643206417561E-2  -1.058740727603436E-2   1.032563298940659E-2   5.648804903030396E-1  -1.605630666017532E-1  
 1.270220000000000E10    3.479229807853699E-1  -4.134332239627838E-1  -1.290582027286291E-2   1.408519130200148E-2  -1.327747851610184E-2   1.409665402024984E-2   5.275278687477112E-1  -1.985606998205185E-1  
 1.270240000000000E10    3.001035749912262E-1  -4.316675364971161E-1  -1.577660441398621E-2   1.921677775681019E-2  -1.620503142476082E-2   1.929097622632980E-2   4.847397506237030E-1  -2.328427881002426E-1  
 1.270260000000000E10    2.494987249374390E-1  -4.448123276233673E-1  -1.846131309866905E-2   2.615104988217354E-2  -1.900614425539970E-2   2.628796175122261E-2   4.367372393608093E-1  -2.621931433677673E-1  
 1.270280000000000E10    1.966849118471146E-1  -4.520304501056671E-1  -2.057411335408688E-2   3.534111380577087E-2  -2.125425077974796E-2   3.556222841143608E-2   3.840556144714356E-1  -2.851440012454987E-1  
 1.270300000000000E10    1.426684409379959E-1  -4.524815082550049E-1  -2.136924304068089E-2   4.718408361077309E-2  -2.218844741582871E-2   4.754333570599556E-2   3.277281224727631E-1  -3.002487123012543E-1  
 1.270320000000000E10    8.876277506351471E-2  -4.454380571842194E-1  -1.977372728288174E-2   6.193739175796509E-2  -2.075068652629852E-2   6.248152256011963E-2   2.694144546985626E-1  -3.061289489269257E-1  
 1.270340000000000E10    3.663013875484467E-2  -4.305861592292786E-1  -1.434884034097195E-2   7.948744297027588E-2  -1.545909233391285E-2   8.030232042074204E-2   2.113339155912399E-1  -3.018354177474976E-1  
 1.270360000000000E10   -1.162987016141415E-2  -4.081170260906220E-1  -3.426062874495983E-3   9.913646429777145E-2  -4.650217480957508E-3   1.003064066171646E-1   1.563768833875656E-1  -2.871299088001251E-1  
 1.270380000000000E10   -5.399339273571968E-2  -3.789525330066681E-1   1.465340238064528E-2   1.193241402506828E-1   1.341290213167667E-2   1.209444105625153E-1   1.076393425464630E-1  -2.629658281803131E-1  
 1.270400000000000E10   -8.865672349929810E-2  -3.448902368545532E-1   4.106106609106064E-2   1.375514566898346E-1   3.992543742060661E-2   1.396986842155457E-1   6.792103499174118E-2  -2.316200733184815E-1  
 1.270420000000000E10   -1.146278232336044E-1  -3.085438609123230E-1   7.595419138669968E-2   1.505614072084427E-1   7.506716251373291E-2   1.532873511314392E-1   3.895707428455353E-2  -1.965462416410446E-1  
 1.270440000000000E10   -1.319696605205536E-1  -2.727304995059967E-1   1.179989352822304E-1   1.549097448587418E-1   1.175466105341911E-1   1.581992954015732E-1   2.082917280495167E-2  -1.618031859397888E-1  
 1.270460000000000E10   -1.419722139835358E-1  -2.399751991033554E-1   1.643038243055344E-1   1.477587521076202E-1   1.645092964172363E-1   1.515180915594101E-1   1.178935170173645E-2  -1.310002505779266E-1  
 1.270480000000000E10   -1.467995047569275E-1  -2.119605988264084E-1   2.109672427177429E-1   1.276455074548721E-1   2.119717150926590E-1   1.317026019096375E-1   8.759692311286926E-3  -1.064851284027100E-1  
 1.270500000000000E10   -1.488084644079208E-1  -1.892053484916687E-1   2.537793219089508E-1   9.469342976808548E-2   2.556844949722290E-1   9.891749173402786E-2   8.175226859748364E-3  -8.881750702857971E-2  
 1.270520000000000E10   -1.501951366662979E-1  -1.712865829467773E-1   2.890564203262329E-1   5.067963898181915E-2   2.919298708438873E-1   5.478611215949059E-2   7.020304445177317E-3  -7.702226191759110E-2  
 1.270540000000000E10   -1.524466425180435E-1  -1.571301519870758E-1   3.141681551933289E-1  -1.748854410834611E-3   3.179845511913300E-1   2.075894735753536E-3   3.322702366858721E-3  -6.912366300821304E-2  
 1.270560000000000E10   -1.563597768545151E-1  -1.454144716262817E-1   3.276163339614868E-1  -5.941799283027649E-2   3.322703540325165E-1  -5.612918734550476E-2  -3.656547749415040E-3  -6.289335340261459E-2  
 1.270580000000000E10   -1.622112393379211E-1  -1.349180936813355E-1   3.289482593536377E-1  -1.192727908492088E-1   3.343458771705627E-1  -1.166795194149017E-1  -1.373583450913429E-2  -5.634677410125732E-2  
 1.270600000000000E10   -1.698292940855026E-1  -1.246634945273399E-1   3.185216784477234E-1  -1.785141825675964E-1   3.244980573654175E-1  -1.767651438713074E-1  -2.605174295604229E-2  -4.803445562720299E-2  
 1.270620000000000E10   -1.789075136184692E-1  -1.139447391033173E-1   2.972227334976196E-1  -2.348662465810776E-1   3.036287724971771E-1  -2.340020239353180E-1  -3.949389606714249E-2  -3.707972913980484E-2  
 1.270640000000000E10   -1.889998316764832E-1  -1.022207364439964E-1   2.662732303142548E-1  -2.863771915435791E-1   2.729391157627106E-1  -2.865209877490997E-1  -5.287857353687286E-2  -2.316330373287201E-2  
 1.270660000000000E10   -1.997197419404984E-1  -8.914698660373688E-2   2.271215170621872E-1  -3.316991627216339E-1   2.339116185903549E-1  -3.328009545803070E-1  -6.514774262905121E-2  -6.320496555417776E-3  
 1.270680000000000E10   -2.106516361236572E-1  -7.456465810537338E-2   1.812893748283386E-1  -3.697302341461182E-1   1.880104094743729E-1  -3.718626201152802E-1  -7.546573132276535E-2   1.307443529367447E-2  
 1.270700000000000E10   -2.213935405015945E-1  -5.831895023584366E-2   1.303032636642456E-1  -3.997796773910523E-1   1.368831843137741E-1  -4.028603434562683E-1  -8.317723125219345E-2   3.452406451106072E-2  
 1.270720000000000E10   -2.315710484981537E-1  -4.031474143266678E-2   7.572748512029648E-2  -4.214507639408112E-1   8.189721405506134E-2  -4.254613816738129E-1  -8.786129951477051E-2   5.745398625731468E-2  
 1.270740000000000E10   -2.408329546451569E-1  -2.061454392969608E-2   1.900215260684490E-2  -4.345643520355225E-1   2.468277141451836E-2  -4.394562542438507E-1  -8.925278484821320E-2   8.122497797012329E-2  
 1.270760000000000E10   -2.487817108631134E-1   7.551719900220633E-4  -3.854984790086746E-2  -4.392152130603790E-1  -3.344041854143143E-2  -4.448898732662201E-1  -8.724117279052734E-2   1.052918657660484E-1  
 1.270780000000000E10   -2.551310658454895E-1   2.373679541051388E-2  -9.557075053453445E-2  -4.356670975685120E-1  -9.119495749473572E-2  -4.420349299907684E-1  -8.182876557111740E-2   1.290700733661652E-1  
 1.270800000000000E10   -2.595237195491791E-1   4.813054203987122E-2  -1.509893685579300E-1  -4.243507385253906E-1  -1.474411636590958E-1  -4.312836527824402E-1  -7.309623062610626E-2   1.520966887474060E-1  
 1.270820000000000E10   -2.616179883480072E-1   7.369413226842880E-2  -2.038176655769348E-1  -4.057846963405609E-1  -2.011210322380066E-1  -4.131734073162079E-1  -6.120232865214348E-2   1.739060282707214E-1  
 1.270840000000000E10   -2.612016201019287E-1   1.002013012766838E-1  -2.531403303146362E-1  -3.806430995464325E-1  -2.513289749622345E-1  -3.883764147758484E-1  -4.631117358803749E-2   1.940504312515259E-1  
 1.270860000000000E10   -2.580112516880035E-1   1.272844672203064E-1  -2.982582747936249E-1  -3.496572971343994E-1  -2.973787486553192E-1  -3.575800359249115E-1  -2.866262570023537E-2   2.122184783220291E-1  
 1.270880000000000E10   -2.518657445907593E-1   1.545836031436920E-1  -3.385457694530487E-1  -3.135749697685242E-1  -3.386059701442719E-1  -3.216053843498230E-1  -8.522615768015385E-3   2.280320227146149E-1  
 1.270900000000000E10   -2.427099943161011E-1   1.816827058792114E-1  -3.735736310482025E-1  -2.732580304145813E-1  -3.745290935039520E-1  -2.812429070472717E-1   1.382262632250786E-2   2.412377893924713E-1  
 1.270920000000000E10   -2.304535508155823E-1   2.081877440214157E-1  -4.029656052589417E-1  -2.294578403234482E-1  -4.048787057399750E-1  -2.372981756925583E-1   3.805454820394516E-2   2.515356838703156E-1  
 1.270940000000000E10   -2.151807546615601E-1   2.336402088403702E-1  -4.265359342098236E-1  -1.830627322196960E-1  -4.293715953826904E-1  -1.905697286128998E-1   6.384081393480301E-2   2.587409019470215E-1  
 1.270960000000000E10   -1.969967186450958E-1   2.576724886894226E-1  -4.442592263221741E-1  -1.347827315330505E-1  -4.478531479835510E-1  -1.420300751924515E-1   9.079579263925552E-2   2.626087665557861E-1  
 1.270980000000000E10   -1.760664284229279E-1   2.799033522605896E-1  -4.560306668281555E-1  -8.544581383466721E-2  -4.604031145572662E-1  -9.221429377794266E-2   1.185565814375877E-1   2.630084156990051E-1  
 1.271000000000000E10   -1.525916904211044E-1   2.999306023120880E-1  -4.619889557361603E-1  -3.574056923389435E-2  -4.670672714710236E-1  -4.202269762754440E-2   1.466870754957199E-1   2.598592340946198E-1  
 1.271020000000000E10   -1.269032061100006E-1   3.174949884414673E-1  -4.622882902622223E-1   1.365870796144009E-2  -4.680132865905762E-1   8.001485839486122E-3   1.747782677412033E-1   2.530754804611206E-1  
 1.271040000000000E10   -9.930504113435745E-2   3.323230743408203E-1  -4.571901559829712E-1   6.214872747659683E-2  -4.634391665458679E-1   5.710411816835403E-2   2.023956030607224E-1   2.426367849111557E-1  
 1.271060000000000E10   -7.009410113096237E-2   3.442194461822510E-1  -4.469476342201233E-1   1.091495752334595E-1  -4.536163806915283E-1   1.048212423920631E-1   2.290713340044022E-1   2.285957187414169E-1  
 1.271080000000000E10   -3.968207538127899E-2   3.530186414718628E-1  -4.318764507770538E-1   1.542073786258698E-1  -4.389533102512360E-1   1.506116539239883E-1   2.543959021568298E-1   2.110303342342377E-1  
 1.271100000000000E10   -8.426258340477943E-3   3.586525917053223E-1  -4.123567044734955E-1   1.968310773372650E-1  -4.197444617748261E-1   1.940346658229828E-1   2.779345512390137E-1   1.901386082172394E-1  
 1.271120000000000E10    2.332654595375061E-2   3.610426783561707E-1  -3.888138830661774E-1   2.366957664489746E-1  -3.963468074798584E-1   2.347057759761810E-1   2.992478013038635E-1   1.660764813423157E-1  
 1.271140000000000E10    5.520901083946228E-2   3.601851761341095E-1  -3.615556657314301E-1   2.735069096088409E-1  -3.692277967929840E-1   2.722827196121216E-1   3.179833292961121E-1   1.391085237264633E-1  
 1.271160000000000E10    8.688171952962875E-2   3.561446070671082E-1  -3.310168981552124E-1   3.069783747196198E-1  -3.387422263622284E-1   3.064646422863007E-1   3.337190747261047E-1   1.095430552959442E-1  
 1.271180000000000E10    1.179948896169663E-1   3.490010201931000E-1  -2.976290285587311E-1   3.368150889873505E-1  -3.053610324859619E-1   3.370667099952698E-1   3.461680114269257E-1   7.770510762929916E-2  
 1.271200000000000E10    1.482912749052048E-1   3.388269841670990E-1  -2.618153691291809E-1   3.629580140113831E-1  -2.694295346736908E-1   3.639185130596161E-1   3.550514578819275E-1   4.403676092624664E-2  
 1.271220000000000E10    1.774151027202606E-1   3.258030414581299E-1  -2.239394932985306E-1   3.851568698883057E-1  -2.313999980688095E-1   3.868187367916107E-1   3.601056933403015E-1   8.941506966948509E-3  
 1.271240000000000E10    2.051956355571747E-1   3.100688457489014E-1  -1.844623386859894E-1   4.033440947532654E-1  -1.916804611682892E-1   4.057238101959229E-1   3.611764609813690E-1  -2.712560072541237E-2  
 1.271260000000000E10    2.313453555107117E-1   2.918164730072022E-1  -1.437920480966568E-1   4.175114929676056E-1  -1.506714373826981E-1   4.205461144447327E-1   3.581028282642365E-1  -6.367406994104385E-2  
