#  HZ   S   RI   R     50.00 
! Rohde & Schwarz ZVA50 2Ports - Version 3.70 - 1145.1110k50 SN: 100192
! Date: 2025-10-24 10:56:55
! Measurements: S11 S21 S12 S22 
! 
 1.269400000000000E10    6.553540229797363E-1   3.851946592330933E-1   2.720711985602975E-3  -2.316243946552277E-3   2.794477390125394E-3  -2.313525881618261E-3   5.065661072731018E-1   6.729171872138977E-1  
 1.269420000000000E10    6.635437607765198E-1   3.588974177837372E-1   2.639972837641835E-3  -2.232038183137775E-3   2.713175257667899E-3  -2.227933378890157E-3   5.233297944068909E-1   6.556361913681030E-1  
 1.269440000000000E10    6.709346771240234E-1   3.318239748477936E-1   2.563365036621690E-3  -2.128322608768940E-3   2.634464995935559E-3  -2.121499739587307E-3   5.398257970809937E-1   6.374393105506897E-1  
 1.269460000000000E10    6.773915290832520E-1   3.039720654487610E-1   2.490967977792025E-3  -2.004370326176286E-3   2.559740329161286E-3  -1.998808700591326E-3   5.560912489891052E-1   6.182793378829956E-1  
 1.269480000000000E10    6.829219460487366E-1   2.753046751022339E-1   2.425476210191846E-3  -1.857780967839062E-3   2.491066697984934E-3  -1.851127366535366E-3   5.720619559288025E-1   5.981942415237427E-1  
 1.269500000000000E10    6.873897910118103E-1   2.459160238504410E-1   2.368156099691987E-3  -1.689648255705833E-3   2.431347733363509E-3  -1.680686604231596E-3   5.876203775405884E-1   5.770699977874756E-1  
 1.269520000000000E10    6.907122135162354E-1   2.157074809074402E-1   2.321370178833604E-3  -1.497600576840341E-3   2.380022546276450E-3  -1.485775224864483E-3   6.027890443801880E-1   5.548590421676636E-1  
 1.269540000000000E10    6.928383111953735E-1   1.848099827766419E-1   2.287769457325339E-3  -1.281190779991448E-3   2.343285828828812E-3  -1.266026636585593E-3   6.174801588058472E-1   5.315817594528198E-1  
 1.269560000000000E10    6.936698555946350E-1   1.532277166843414E-1   2.269466873258352E-3  -1.039101160131395E-3   2.321688691154122E-3  -1.020473893731833E-3   6.315704584121704E-1   5.071979761123657E-1  
 1.269580000000000E10    6.931239366531372E-1   1.209811270236969E-1   2.271560486406088E-3  -7.696517277508974E-4   2.320336643606424E-3  -7.473273435607553E-4   6.450617909431458E-1   4.816308319568634E-1  
 1.269600000000000E10    6.910612583160400E-1   8.805970847606659E-2   2.295867772772908E-3  -4.752231761813164E-4   2.340670209378004E-3  -4.473277076613158E-4   6.577916145324707E-1   4.549603462219238E-1  
 1.269620000000000E10    6.874544620513916E-1   5.455899238586426E-2   2.346058608964086E-3  -1.544701808597893E-4   2.386711072176695E-3  -1.224751758854836E-4   6.696648001670837E-1   4.270385503768921E-1  
 1.269640000000000E10    6.820475459098816E-1   2.054551243782044E-2   2.426088554784656E-3   1.931055157911032E-4   2.463442040607333E-3   2.307247050339356E-4   6.806238293647766E-1   3.979392051696777E-1  
 1.269660000000000E10    6.748717427253723E-1  -1.391240954399109E-2   2.540416317060590E-3   5.637622671201825E-4   2.574178623035550E-3   6.095871794968844E-4   6.904332637786865E-1   3.675923943519592E-1  
 1.269680000000000E10    6.657528877258301E-1  -4.874978959560394E-2   2.691942034289241E-3   9.574835421517491E-4   2.721881261095405E-3   1.011579064652324E-3   6.990802288055420E-1   3.359884321689606E-1  
 1.269700000000000E10    6.545462012290955E-1  -8.380138874053955E-2   2.883178880438209E-3   1.372109400108457E-3   2.910122275352478E-3   1.433657947927713E-3   7.063761949539185E-1   3.031244277954102E-1  
 1.269720000000000E10    6.411891579627991E-1  -1.190380454063416E-1   3.118874039500952E-3   1.803242601454258E-3   3.143224865198135E-3   1.875082729384303E-3   7.122148871421814E-1   2.690601348876953E-1  
 1.269740000000000E10    6.255273222923279E-1  -1.542568355798721E-1   3.400719491764903E-3   2.250990131869912E-3   3.423117566853762E-3   2.331459429115057E-3   7.163317203521729E-1   2.337426841259003E-1  
 1.269760000000000E10    6.073963642120361E-1  -1.894029229879379E-1   3.730163676664233E-3   2.706524217501283E-3   3.751928452402353E-3   2.799843903630972E-3   7.186236381530762E-1   1.972613334655762E-1  
 1.269780000000000E10    5.867769122123718E-1  -2.241995930671692E-1   4.109014756977558E-3   3.169878153130412E-3   4.126783926039934E-3   3.273589769378305E-3   7.188595533370972E-1   1.596605181694031E-1  
 1.269800000000000E10    5.634451508522034E-1  -2.584809362888336E-1   4.532331135123968E-3   3.633605549111962E-3   4.551482852548361E-3   3.750157542526722E-3   7.168335318565369E-1   1.209948882460594E-1  
 1.269820000000000E10    5.373459458351135E-1  -2.920205891132355E-1   4.999658092856407E-3   4.096033051609993E-3   5.018671043217182E-3   4.223683383315802E-3   7.122820615768433E-1   8.139915019273758E-2  
 1.269840000000000E10    5.083197355270386E-1  -3.245245218276978E-1   5.504513159394264E-3   4.550302401185036E-3   5.524164997041225E-3   4.691522568464279E-3   7.049846649169922E-1   4.099076241254807E-2  
 1.269860000000000E10    4.763728976249695E-1  -3.557592630386353E-1   6.037489511072636E-3   4.999842960387468E-3   6.056609563529491E-3   5.153757054358721E-3   6.947129368782044E-1  -4.649162292480469E-5  
 1.269880000000000E10    4.414263367652893E-1  -3.853580355644226E-1   6.587704177945852E-3   5.443364847451448E-3   6.604552734643221E-3   5.611171014606953E-3   6.811779737472534E-1  -4.151333868503571E-2  
 1.269900000000000E10    4.034125804901123E-1  -4.129762053489685E-1   7.136032450944185E-3   5.888456013053656E-3   7.154522463679314E-3   6.070862524211407E-3   6.640874743461609E-1  -8.312317728996277E-2  
 1.269920000000000E10    3.623411357402802E-1  -4.382170438766480E-1   7.666998077183962E-3   6.353480741381645E-3   7.684996351599693E-3   6.544888485223055E-3   6.431644558906555E-1  -1.245430558919907E-1  
 1.269940000000000E10    3.183099627494812E-1  -4.606305360794067E-1   8.157864212989807E-3   6.856856867671013E-3   8.177983574569225E-3   7.062176708132029E-3   6.182250380516052E-1  -1.654141992330551E-1  
 1.269960000000000E10    2.713656425476074E-1  -4.797574877738953E-1   8.590318262577057E-3   7.437134161591530E-3   8.607075549662113E-3   7.654102519154549E-3   5.889555215835571E-1  -2.051674425601959E-1  
 1.269980000000000E10    2.216633260250092E-1  -4.951038956642151E-1   8.946836926043034E-3   8.151603862643242E-3   8.955857716500759E-3   8.381347171962261E-3   5.551954507827759E-1  -2.432954013347626E-1  
 1.270000000000000E10    1.695350408554077E-1  -5.061678886413574E-1   9.215350262820721E-3   9.073992259800434E-3   9.216791950166225E-3   9.315975941717625E-3   5.167446732521057E-1  -2.791106104850769E-1  
 1.270020000000000E10    1.152426004409790E-1  -5.123456120491028E-1   9.406854398548603E-3   1.029863953590393E-2   9.395623579621315E-3   1.056099683046341E-2   4.736147522926331E-1  -3.118201196193695E-1  
 1.270040000000000E10    5.934433639049530E-2  -5.131265521049500E-1   9.556878358125687E-3   1.195251382887363E-2   9.521570056676865E-3   1.223589945584536E-2   4.258014857769013E-1  -3.405490815639496E-1  
 1.270060000000000E10    2.351155504584312E-3  -5.079931020736694E-1   9.740882553160191E-3   1.418345607817173E-2   9.685794822871685E-3   1.454116590321064E-2   3.735943436622620E-1  -3.643825650215149E-1  
 1.270080000000000E10   -5.498749762773514E-2  -4.964800775051117E-1   1.009934116154909E-2   1.716130599379540E-2   1.000302191823721E-2   1.756289042532444E-2   3.173887431621552E-1  -3.822225630283356E-1  
 1.270100000000000E10   -1.117430180311203E-1  -4.781402647495270E-1   1.079452782869339E-2   2.113440632820129E-2   1.070535648614168E-2   2.151785790920258E-2   2.578822970390320E-1  -3.929543197154999E-1  
 1.270120000000000E10   -1.669246405363083E-1  -4.526997506618500E-1   1.224388182163239E-2   2.609794773161411E-2   1.211461704224348E-2   2.656061388552189E-2   1.960482597351074E-1  -3.955543339252472E-1  
 1.270140000000000E10   -2.192907333374023E-1  -4.200654029846191E-1   1.483271829783917E-2   3.221816942095757E-2   1.467292755842209E-2   3.277816995978355E-2   1.333180814981461E-1  -3.890372216701508E-1  
 1.270160000000000E10   -2.675676941871643E-1  -3.803407549858093E-1   1.914505288004875E-2   3.946022316813469E-2   1.895273476839066E-2   4.015128314495087E-2   7.137853652238846E-2  -3.726656138896942E-1  
 1.270180000000000E10   -3.103145956993103E-1  -3.339461386203766E-1   2.583304978907108E-2   4.761062934994698E-2   2.562778443098068E-2   4.847082868218422E-2   1.237031072378159E-2  -3.460996448993683E-1  
 1.270200000000000E10   -3.461415469646454E-1  -2.817009687423706E-1   3.563594073057175E-2   5.618903785943985E-2   3.543721511960030E-2   5.725019052624703E-2  -4.131814092397690E-2  -3.095149993896484E-1  
 1.270220000000000E10   -3.736542165279388E-1  -2.247716933488846E-1   4.921232908964157E-2   6.437031924724579E-2   4.906420409679413E-2   6.569360196590424E-2  -8.716450631618500E-2  -2.638258039951325E-1  
 1.270240000000000E10   -3.918564915657044E-1  -1.647340059280396E-1   6.706671416759491E-2   7.101394981145859E-2   6.703595817089081E-2   7.260952144861221E-2  -1.228170543909073E-1  -2.107842266559601E-1  
 1.270260000000000E10   -4.000035524368286E-1  -1.036248877644539E-1   8.932169526815414E-2   7.458619028329849E-2   8.950488269329071E-2   7.649820297956467E-2  -1.463089734315872E-1  -1.529165506362915E-1  
 1.270280000000000E10   -3.979755043983460E-1  -4.352340102195740E-2   1.155853345990181E-1   7.341813296079636E-2   1.160623878240585E-1   7.564306259155273E-2  -1.565047353506088E-1  -9.349808841943741E-2  
 1.270300000000000E10   -3.862019777297974E-1   1.327459141612053E-2   1.447805315256119E-1   6.584586203098297E-2   1.456970125436783E-1   6.832309812307358E-2  -1.533951014280319E-1  -3.610024601221085E-2  
 1.270320000000000E10   -3.658789098262787E-1   6.473752856254578E-2   1.752307265996933E-1   5.048038065433502E-2   1.766792386770248E-1   5.316577106714249E-2  -1.381006240844727E-1   1.570971868932247E-2  
 1.270340000000000E10   -3.386206328868866E-1   1.092441156506538E-1   2.046661972999573E-1   2.654323913156986E-2   2.067654579877853E-1   2.929244562983513E-2  -1.129262223839760E-1   5.900885164737701E-2  
 1.270360000000000E10   -3.064493834972382E-1   1.457348763942719E-1   2.305774390697479E-1  -6.024010945111513E-3   2.333700507879257E-1  -3.320036688819528E-3  -8.098614960908890E-2   9.175979346036911E-2  
 1.270380000000000E10   -2.715252041816711E-1   1.738150119781494E-1   2.504791617393494E-1  -4.632861167192459E-2   2.540150582790375E-1  -4.390660673379898E-2  -4.577342420816422E-2   1.131691262125969E-1  
 1.270400000000000E10   -2.359090894460678E-1   1.937404721975327E-1   2.622703909873962E-1  -9.285213053226471E-2   2.664719521999359E-1  -9.086200594902039E-2  -1.063296943902969E-2   1.235986948013306E-1  
 1.270420000000000E10   -2.014208137989044E-1   2.061636447906494E-1   2.643843293190002E-1  -1.434456408023834E-1   2.692260146141052E-1  -1.420140713453293E-1   2.156149968504906E-2   1.243892237544060E-1  
 1.270440000000000E10   -1.693856418132782E-1   2.122093886137009E-1   2.559869885444641E-1  -1.957063376903534E-1   2.613647878170013E-1  -1.949533522129059E-1   4.873982444405556E-2   1.175336167216301E-1  
 1.270460000000000E10   -1.408017873764038E-1   2.131122350692749E-1   2.369991540908814E-1  -2.470287084579468E-1   2.427321821451187E-1  -2.471376955509186E-1   6.963067501783371E-2   1.053327694535255E-1  
 1.270480000000000E10   -1.162145212292671E-1   2.102206796407700E-1   2.078760266304016E-1  -2.951940000057221E-1   2.138247936964035E-1  -2.962083816528320E-1   8.376044034957886E-2   9.008426964282990E-2  
 1.270500000000000E10   -9.586479514837265E-2   2.048130631446838E-1   1.696568578481674E-1  -3.381215631961823E-1   1.756750196218491E-1  -3.400848209857941E-1   9.133104979991913E-2   7.392387837171555E-2  
 1.270520000000000E10   -7.964435964822769E-2   1.980183869600296E-1   1.237512007355690E-1  -3.741918802261353E-1   1.296514719724655E-1  -3.771173954010010E-1   9.299959242343903E-2   5.861669778823853E-2  
 1.270540000000000E10   -6.727245450019836E-2   1.908878833055496E-1   7.170433551073074E-2  -4.021785259246826E-1   7.736323773860931E-2  -4.060583114624023E-1   8.979177474975586E-2   4.552233219146729E-2  
 1.270560000000000E10   -5.829592049121857E-2   1.842224895954132E-1   1.525475084781647E-2  -4.213100373744965E-1   2.054368145763874E-2  -4.260365068912506E-1   8.291604369878769E-2   3.561147302389145E-2  
 1.270580000000000E10   -5.212519317865372E-2   1.786955744028091E-1  -4.379566386342049E-2  -4.310950636863709E-1  -3.909413143992424E-2  -4.366448819637299E-1   7.357361912727356E-2   2.945886366069317E-2  
 1.270600000000000E10   -4.812158644199371E-2   1.747799068689346E-1  -1.038222238421440E-1  -4.315091967582703E-1  -9.983800351619721E-2  -4.377563595771790E-1   6.304390728473663E-2   2.729312703013420E-2  
 1.270620000000000E10   -4.565025866031647E-2   1.727701276540756E-1  -1.632194966077805E-1  -4.227197170257568E-1  -1.599773168563843E-1  -4.295956790447235E-1   5.247905477881432E-2   2.908044680953026E-2  
 1.270640000000000E10   -4.400821775197983E-2   1.728021651506424E-1  -2.205478996038437E-1  -4.051612913608551E-1  -2.181939184665680E-1  -4.125483036041260E-1   4.290011525154114E-2   3.449125587940216E-2  
 1.270660000000000E10   -4.257073998451233E-2   1.748802810907364E-1  -2.745459079742432E-1  -3.795256316661835E-1  -2.730862200260162E-1  -3.872686028480530E-1   3.519405424594879E-2   4.306923598051071E-2  
 1.270680000000000E10   -4.076933860778809E-2   1.789092421531677E-1  -3.240672647953033E-1  -3.466405570507050E-1  -3.236366212368012E-1  -3.545974791049957E-1   3.005738742649555E-2   5.413836240768433E-2  
 1.270700000000000E10   -3.807049989700317E-2   1.845588982105255E-1  -3.682774901390076E-1  -3.072829842567444E-1  -3.687503635883331E-1  -3.154436945915222E-1   2.798152528703213E-2   6.685333698987961E-2  
 1.270720000000000E10   -3.410122916102409E-2   1.916224509477615E-1  -4.064314067363739E-1  -2.627189457416534E-1  -4.079180359840393E-1  -2.708051204681397E-1   2.936029061675072E-2   8.074659109115601E-2  
 1.270740000000000E10   -2.852569520473480E-2   1.996693611145020E-1  -4.380269050598145E-1  -2.138908505439758E-1  -4.404704570770264E-1  -2.218185514211655E-1   3.430405631661415E-2   9.479888528585434E-2  
 1.270760000000000E10   -2.110167965292931E-2   2.082892805337906E-1  -4.626919031143189E-1  -1.618099957704544E-1  -4.660907387733460E-1  -1.694733053445816E-1   4.281512275338173E-2   1.082648187875748E-1  
 1.270780000000000E10   -1.169315911829472E-2   2.170743942260742E-1  -4.803099334239960E-1  -1.076004430651665E-1  -4.846064448356628E-1  -1.148404255509377E-1   5.470126867294312E-2   1.203458085656166E-1  
 1.270800000000000E10   -2.904431894421578E-4   2.255831658840179E-1  -4.908774197101593E-1  -5.222034454345703E-2  -4.959833920001984E-1  -5.892138183116913E-2   6.964862346649170E-2   1.304386109113693E-1  
 1.270820000000000E10    1.305830851197243E-2   2.333520203828812E-1  -4.944685697555542E-1   3.381458111107349E-3  -5.003021955490112E-1  -2.717386931180954E-3   8.725691586732864E-2   1.378938704729080E-1  
 1.270840000000000E10    2.826719917356968E-2   2.400775849819183E-1  -4.913714826107025E-1   5.831761658191681E-2  -4.978334903717041E-1   5.291442573070526E-2   1.069670841097832E-1   1.422247439622879E-1  
 1.270860000000000E10    4.511351138353348E-2   2.453896999359131E-1  -4.819033145904541E-1   1.118311882019043E-1  -4.889061748981476E-1   1.071782931685448E-1   1.282187998294830E-1   1.431143432855606E-1  
 1.270880000000000E10    6.339043378829956E-2   2.489926367998123E-1  -4.664502143859863E-1   1.631836593151093E-1  -4.739146530628204E-1   1.593376398086548E-1   1.503665894269943E-1   1.402372121810913E-1  
 1.270900000000000E10    8.282536268234253E-2   2.506892979145050E-1  -4.455014467239380E-1   2.118491530418396E-1  -4.533519744873047E-1   2.087435126304627E-1   1.727901846170425E-1   1.335110217332840E-1  
 1.270920000000000E10    1.031230688095093E-1   2.502697110176086E-1  -4.195670485496521E-1   2.571593225002289E-1  -4.276675879955292E-1   2.549561560153961E-1   1.947932094335556E-1   1.228907629847527E-1  
 1.270940000000000E10    1.239938139915466E-1   2.476313114166260E-1  -3.892450630664825E-1   2.987688779830933E-1  -3.974804580211639E-1   2.974833846092224E-1   2.157607823610306E-1   1.084726601839066E-1  
 1.270960000000000E10    1.451095044612885E-1   2.426820099353790E-1  -3.549430966377258E-1   3.364280164241791E-1  -3.633051812648773E-1   3.359159827232361E-1   2.351031750440598E-1   9.044048935174942E-2  
 1.270980000000000E10    1.661936342716217E-1   2.354117035865784E-1  -3.173917531967163E-1   3.696795701980591E-1  -3.256882131099701E-1   3.700562119483948E-1   2.522020339965820E-1   6.907021999359131E-2  
 1.271000000000000E10    1.869361698627472E-1   2.258286923170090E-1  -2.770090699195862E-1   3.984815478324890E-1  -2.852270305156708E-1   3.996564745903015E-1   2.666302621364594E-1   4.471710324287415E-2  
 1.271020000000000E10    2.070458531379700E-1   2.139820158481598E-1  -2.344075143337250E-1   4.225832521915436E-1  -2.424235641956329E-1   4.245964586734772E-1   2.779429852962494E-1   1.784403622150421E-2  
 1.271040000000000E10    2.262774705886841E-1   1.999954879283905E-1  -1.901104003190994E-1   4.419874846935272E-1  -1.978214830160141E-1   4.447845518589020E-1   2.857320308685303E-1  -1.115667354315519E-2  
 1.271060000000000E10    2.443905919790268E-1   1.839043051004410E-1  -1.446041911840439E-1   4.566453397274017E-1  -1.519675552845001E-1   4.601181745529175E-1   2.897630929946899E-1  -4.166106879711151E-2  
 1.271080000000000E10    2.611718177795410E-1   1.659079790115356E-1  -9.833555668592453E-2   4.665662944316864E-1  -1.053172796964645E-1   4.707427918910980E-1   2.898116111755371E-1  -7.320066541433334E-2  
 1.271100000000000E10    2.764079868793488E-1   1.461462825536728E-1  -5.186147987842560E-2   4.717854559421539E-1  -5.836201459169388E-2   4.766266644001007E-1   2.858092784881592E-1  -1.051404997706413E-1  
 1.271120000000000E10    2.899359762668610E-1   1.247631683945656E-1  -5.571892950683832E-3   4.724694490432739E-1  -1.147381123155356E-2   4.778645336627960E-1   2.776633203029633E-1  -1.369602531194687E-1  
 1.271140000000000E10    3.016003966331482E-1   1.019736826419830E-1   4.018756374716759E-2   4.686824083328247E-1   3.483481332659721E-2   4.745860993862152E-1   2.654725015163422E-1  -1.681133657693863E-1  
 1.271160000000000E10    3.112345635890961E-1   7.793223112821579E-2   8.496108651161194E-2   4.605774283409119E-1   8.021733909845352E-2   4.669522345066071E-1   2.493168264627457E-1  -1.979903429746628E-1  
 1.271180000000000E10    3.187834918498993E-1   5.288174375891686E-2   1.284064054489136E-1   4.483425021171570E-1   1.242699250578880E-1   4.551464617252350E-1   2.294167876243591E-1  -2.261103540658951E-1  
 1.271200000000000E10    3.241123855113983E-1   2.695012278854847E-2   1.702424287796021E-1   4.322111308574677E-1   1.667388528585434E-1   4.393230974674225E-1   2.060485631227493E-1  -2.520038485527039E-1  
 1.271220000000000E10    3.271623551845551E-1   4.047006368637085E-4   2.100265920162201E-1   4.123395979404450E-1   2.071994245052338E-1   4.197259545326233E-1   1.795068830251694E-1  -2.752035260200501E-1  
 1.271240000000000E10    3.278631269931793E-1  -2.656489983201027E-2   2.475790679454804E-1   3.889655768871307E-1   2.454629093408585E-1   3.965640962123871E-1   1.501999944448471E-1  -2.953343391418457E-1  
 1.271260000000000E10    3.261834383010864E-1  -5.372408777475357E-2   2.825796902179718E-1   3.623972833156586E-1   2.812420129776001E-1   3.700897693634033E-1   1.184997856616974E-1  -3.120814859867096E-1  
