! Created with skrf 1.9.0 (http://scikit-rf.org).
! Parameters = {f0=3875.0; bw=45.0; Q=5400.0; N=12; FILTER_NAME=E40-CIMUXT1-CH5; f_start_mhz=3833.5; f_stop_mhz=3915.5; m_0_1=1.1036282777786255; m_1_1=-0.005830775946378708; m_1_2=0.9416355490684509; m_2_2=0.0006298502557910979; m_2_3=0.6573432087898254; m_2_10=4.087266916030785e-07; m_2_11=0.02140618860721588; m_3_3=0.001600451534613967; m_3_4=0.6032257676124573; m_3_9=-2.0642069102905225e-06; m_3_10=-0.029669009149074554; m_3_11=4.087266916030785e-07; m_4_4=0.0004982376121915877; m_4_5=0.5693318247795105; m_4_8=3.3184160201926716e-06; m_4_9=-0.11548186093568802; m_4_10=-2.0642069102905225e-06; m_5_5=-0.00023740569304209203; m_5_6=0.5725491046905518; m_5_7=-3.9310870647568663e-07; m_5_8=0.040450211614370346; m_5_9=3.3184160201926716e-06; m_6_6=0.0024381240364164114; m_6_7=0.648575484752655; m_6_8=-3.9310870647568663e-07; m_7_7=0.0024381522089242935; m_7_8=0.5725491642951965; m_8_8=-0.0002375615731580183; m_8_9=0.5693317651748657; m_9_9=0.0004982926184311509; m_9_10=0.6032257676124573; m_10_10=0.0016003036871552467; m_10_11=0.6573431491851807; m_11_11=0.0006301581161096692; m_11_12=0.9416354298591614; m_12_12=-0.005830898880958557; m_12_13=1.1036282777786255; a11=0; a22=0; b11=0; b22=0}
# Hz S RI R 50.0 
!freq ReS11 ImS11 ReS21 ImS21 ReS12 ImS12 ReS22 ImS22
3807500000.0 -0.6639090776443481 0.7433162331581116 -0.0004349875380285084 -0.0003771073534153402 -0.0004349874798208475 -0.0003771072661038488 -0.663908839225769 0.7433160543441772
3807567500.0 -0.6632102727890015 0.7439294457435608 -0.0004371283866930753 -0.0003782384155783802 -0.00043712829938158393 -0.0003782383573707193 -0.6632100343704224 0.7439292669296265
3807635000.0 -0.6625092029571533 0.7445432543754578 -0.0004392813134472817 -0.00037937250453978777 -0.00043928128434345126 -0.0003793724754359573 -0.6625090837478638 0.7445430755615234
3807702500.0 -0.6618061065673828 0.745157778263092 -0.0004414467257447541 -0.0003805097076110542 -0.00044144666753709316 -0.00038050964940339327 -0.6618058681488037 0.7451576590538025
3807770000.0 -0.6611006259918213 0.7457732558250427 -0.0004436250601429492 -0.0003816501994151622 -0.0004436250019352883 -0.00038165017031133175 -0.6611005067825317 0.7457730770111084
3807837500.0 -0.6603929996490479 0.7463894486427307 -0.0004458159382920712 -0.00038279377622529864 -0.00044581599649973214 -0.00038279377622529864 -0.6603928804397583 0.7463892102241516
3807905000.0 -0.659683346748352 0.7470062971115112 -0.0004480194766074419 -0.00038394052535295486 -0.0004480194766074419 -0.00038394052535295486 -0.6596829891204834 0.7470059990882874
3807972500.0 -0.6589711904525757 0.7476239204406738 -0.0004502359079197049 -0.00038509033038280904 -0.0004502359079197049 -0.00038509038859046996 -0.6589710712432861 0.7476236820220947
3808040000.0 -0.6582566499710083 0.7482420802116394 -0.0004524651449173689 -0.00038624333683401346 -0.0004524651449173689 -0.000386243307730183 -0.6582566499710083 0.7482420802116394
3808107500.0 -0.6575403213500977 0.7488613724708557 -0.00045470744953490794 -0.00038739945739507675 -0.0004547074786387384 -0.00038739945739507675 -0.657539963722229 0.7488610744476318
3808175000.0 -0.6568213701248169 0.7494811415672302 -0.00045696287997998297 -0.0003885587793774903 -0.0004569629963953048 -0.0003885588957928121 -0.6568212509155273 0.7494809627532959
3808242500.0 -0.6561003923416138 0.7501018047332764 -0.0004592315526679158 -0.00038972124457359314 -0.0004592315526679158 -0.0003897212736774236 -0.6561000347137451 0.7501015663146973
3808310000.0 -0.6553767919540405 0.7507229447364807 -0.00046151329297572374 -0.0003908867365680635 -0.00046151329297572374 -0.0003908867365680635 -0.6553767919540405 0.7507230043411255
3808377500.0 -0.6546510457992554 0.751345157623291 -0.00046380856656469405 -0.00039205545908771455 -0.0004638085956685245 -0.00039205545908771455 -0.6546510457992554 0.7513450980186462
3808445000.0 -0.6539232730865479 0.7519681453704834 -0.0004661174607463181 -0.00039322744123637676 -0.00046611743164248765 -0.0003932274121325463 -0.6539229154586792 0.7519679069519043
3808512500.0 -0.6531929969787598 0.7525918483734131 -0.0004684395098593086 -0.00039440227556042373 -0.0004684395680669695 -0.0003944023046642542 -0.6531927585601807 0.7525914907455444
3808580000.0 -0.6524604558944702 0.753216028213501 -0.0004707752086687833 -0.0003955803404096514 -0.00047077532508410513 -0.0003955804568249732 -0.6524600982666016 0.7532157897949219
3808647500.0 -0.6517252922058105 0.753840982913971 -0.00047312467359006405 -0.0003967615484725684 -0.00047312461538240314 -0.0003967614902649075 -0.6517250537872314 0.7538408637046814
3808715000.0 -0.6509881019592285 0.7544670701026917 -0.00047548816655762494 -0.00039794592885300517 -0.0004754881374537945 -0.00039794592885300517 -0.6509877443313599 0.754466712474823
3808782500.0 -0.6502482891082764 0.7550933361053467 -0.0004778652510140091 -0.00039913339423947036 -0.0004778652801178396 -0.0003991333651356399 -0.6502481698989868 0.7550933361053467
3808850000.0 -0.6495060920715332 0.7557206749916077 -0.00048025642172433436 -0.00040032388642430305 -0.00048025642172433436 -0.00040032388642430305 -0.6495060920715332 0.7557206153869629
3808917500.0 -0.6487618684768677 0.7563488483428955 -0.0004826617077924311 -0.00040151755092665553 -0.00048266176600009203 -0.00040151760913431644 -0.6487617492675781 0.7563486695289612
3808985000.0 -0.6480151414871216 0.7569776177406311 -0.0004850810510106385 -0.0004027143295388669 -0.00048508099280297756 -0.0004027142422273755 -0.648015022277832 0.7569774985313416
3809052500.0 -0.6472659111022949 0.7576070427894592 -0.0004875148297287524 -0.000403914280468598 -0.00048751471331343055 -0.0004039141349494457 -0.6472657918930054 0.757607102394104
3809120000.0 -0.6465144157409668 0.7582374811172485 -0.0004899629857391119 -0.00040511725819669664 -0.0004899629857391119 -0.0004051172873005271 -0.6465144157409668 0.7582374215126038
3809187500.0 -0.6457605361938477 0.7588686347007751 -0.000492425519041717 -0.0004063233209308237 -0.000492425577249378 -0.00040632335003465414 -0.6457604169845581 0.7588684558868408
3809255000.0 -0.6450040340423584 0.75950026512146 -0.0004949025460518897 -0.00040753246867097914 -0.0004949023714289069 -0.0004075322940479964 -0.6450040340423584 0.75950026512146
3809322500.0 -0.6442450284957886 0.7601326704025269 -0.0004973942413926125 -0.000408744701417163 -0.0004973942413926125 -0.00040874467231333256 -0.6442451477050781 0.7601328492164612
3809390000.0 -0.6434839963912964 0.7607661485671997 -0.0004999007214792073 -0.00040995993185788393 -0.0004999007214792073 -0.00040995999006554484 -0.6434838771820068 0.7607660293579102
3809457500.0 -0.6427202224731445 0.7614001035690308 -0.0005024219863116741 -0.00041117833461612463 -0.0005024219863116741 -0.00041117833461612463 -0.642720103263855 0.7613999843597412
3809525000.0 -0.6419540643692017 0.7620348930358887 -0.0005049583851359785 -0.0004123997932765633 -0.0005049584433436394 -0.0004123998514842242 -0.6419540643692017 0.7620348930358887
3809592500.0 -0.6411854028701782 0.7626704573631287 -0.0005075096269138157 -0.0004136243078391999 -0.0005075097433291376 -0.0004136243660468608 -0.6411852836608887 0.7626702785491943
3809660000.0 -0.6404142379760742 0.7633067965507507 -0.0005100762937217951 -0.00041485190740786493 -0.0005100761773064733 -0.0004148517909925431 -0.6404141187667847 0.7633066177368164
3809727500.0 -0.6396405696868896 0.7639436721801758 -0.0005126579781062901 -0.000416082504671067 -0.000512658036313951 -0.0004160825628787279 -0.6396404504776001 0.7639435529708862
3809795000.0 -0.638864278793335 0.7645812630653381 -0.0005152550293132663 -0.00041731615783646703 -0.0005152550875209272 -0.0004173161869402975 -0.638864278793335 0.7645812630653381
3809862500.0 -0.6380859613418579 0.7652199864387512 -0.0005178675637580454 -0.00041855283780023456 -0.0005178676801733673 -0.00041855289600789547 -0.6380857229232788 0.7652196884155273
3809930000.0 -0.6373045444488525 0.7658590078353882 -0.0005204958142712712 -0.00041979257366620004 -0.0005204958142712712 -0.00041979257366620004 -0.637304425239563 0.7658590078353882
3809997500.0 -0.6365208625793457 0.7664988040924072 -0.0005231393151916564 -0.0004210352199152112 -0.0005231393733993173 -0.00042103524901904166 -0.6365207433700562 0.766498863697052
3810065000.0 -0.6357345581054688 0.7671396732330322 -0.0005257988814264536 -0.00042228089296258986 -0.0005257988232187927 -0.0004222808638587594 -0.6357344388961792 0.7671394944190979
3810132500.0 -0.6349456310272217 0.7677809596061707 -0.000528474512975663 -0.0004235297383274883 -0.000528474454768002 -0.0004235296801198274 -0.6349455118179321 0.7677810192108154
3810200000.0 -0.6341540813446045 0.7684230804443359 -0.0005311659770086408 -0.0004247814940754324 -0.0005311660352163017 -0.0004247815813869238 -0.6341540813446045 0.7684230208396912
3810267500.0 -0.6333601474761963 0.7690659761428833 -0.0005338733899407089 -0.0004260361602064222 -0.0005338733899407089 -0.00042603613110259175 -0.6333600282669067 0.7690658569335938
3810335000.0 -0.6325634717941284 0.7697094678878784 -0.0005365969846025109 -0.0004272937949281186 -0.0005365970428101718 -0.0004272937949281186 -0.6325633525848389 0.7697094678878784
3810402500.0 -0.6317641735076904 0.7703538537025452 -0.0005393371102400124 -0.000428554427344352 -0.0005393371102400124 -0.000428554427344352 -0.6317641735076904 0.7703538537025452
3810470000.0 -0.6309623718261719 0.770999014377594 -0.0005420937668532133 -0.00042981814476661384 -0.0005420935922302306 -0.000429818028351292 -0.6309624910354614 0.7709989547729492
3810537500.0 -0.6301578283309937 0.7716447710990906 -0.0005448667798191309 -0.0004310846561565995 -0.0005448667798191309 -0.00043108468526043 -0.6301579475402832 0.7716447710990906
3810605000.0 -0.6293505430221558 0.7722911834716797 -0.0005476563237607479 -0.00043235401972196996 -0.0005476564983837306 -0.00043235416524112225 -0.6293507814407349 0.772291362285614
3810672500.0 -0.6285408735275269 0.7729384303092957 -0.0005504626897163689 -0.0004336264682933688 -0.000550462631508708 -0.00043362643918953836 -0.6285408735275269 0.7729384899139404
3810740000.0 -0.6277284622192383 0.7735865116119385 -0.0005532862269319594 -0.00043490194366313517 -0.0005532861687242985 -0.00043490188545547426 -0.6277285814285278 0.773586630821228
3810807500.0 -0.6269134283065796 0.7742354273796082 -0.000556126469746232 -0.0004361800674814731 -0.0005561262951232493 -0.00043617995106615126 -0.6269134283065796 0.7742352485656738
3810875000.0 -0.6260955333709717 0.7748846411705017 -0.0005589834763668478 -0.0004374609561637044 -0.0005589835927821696 -0.00043746104347519577 -0.6260956525802612 0.7748847603797913
3810942500.0 -0.6252748966217041 0.7755348086357117 -0.000561858294531703 -0.00043874504626728594 -0.0005618582363240421 -0.00043874498805962503 -0.6252750158309937 0.7755349278450012
3811010000.0 -0.624451756477356 0.7761858105659485 -0.0005647500511258841 -0.0004400317557156086 -0.0005647501675412059 -0.00044003184302709997 -0.624451756477356 0.7761856913566589
3811077500.0 -0.6236257553100586 0.7768374681472778 -0.0005676595610566437 -0.0004413214628584683 -0.0005676596774719656 -0.0004413215210661292 -0.6236257553100586 0.7768373489379883
3811145000.0 -0.6227971315383911 0.7774896621704102 -0.0005705863586626947 -0.0004426139348652214 -0.0005705863586626947 -0.0004426139348652214 -0.6227971315383911 0.7774897217750549
3811212500.0 -0.6219655275344849 0.7781426906585693 -0.0005735313170589507 -0.00044390943367034197 -0.0005735313752666116 -0.0004439094918780029 -0.6219655275344849 0.7781428098678589
3811280000.0 -0.6211315393447876 0.7787967324256897 -0.0005764940287917852 -0.00044520763913169503 -0.0005764939123764634 -0.0004452075809240341 -0.6211315393447876 0.7787966728210449
3811347500.0 -0.620294451713562 0.7794511318206787 -0.0005794741446152329 -0.0004465084639377892 -0.0005794741446152329 -0.00044650849304161966 -0.620294451713562 0.7794510126113892
3811415000.0 -0.6194547414779663 0.7801064252853394 -0.0005824725958518684 -0.00044781214091926813 -0.0005824725376442075 -0.00044781205360777676 -0.6194546222686768 0.7801063656806946
3811482500.0 -0.6186121702194214 0.7807623147964478 -0.0005854891496710479 -0.00044911852455697954 -0.0005854892078787088 -0.00044911855366081 -0.6186120510101318 0.780762255191803
3811550000.0 -0.6177666187286377 0.7814189195632935 -0.000588524155318737 -0.0004504277603700757 -0.000588524155318737 -0.00045042778947390616 -0.6177667379379272 0.7814189195632935
3811617500.0 -0.6169185638427734 0.7820764183998108 -0.0005915776127949357 -0.00045173970283940434 -0.0005915775545872748 -0.0004517397319432348 -0.6169185638427734 0.782076358795166
3811685000.0 -0.6160672903060913 0.7827341556549072 -0.0005946491146460176 -0.0004530541773419827 -0.0005946491728536785 -0.00045305423554964364 -0.6160674095153809 0.7827343940734863
3811752500.0 -0.6152133941650391 0.783393144607544 -0.0005977402324788272 -0.00045437176595441997 -0.0005977402324788272 -0.00045437176595441997 -0.6152135133743286 0.7833932042121887
3811820000.0 -0.6143566370010376 0.7840526700019836 -0.000600849452894181 -0.0004556916537694633 -0.0006008495111018419 -0.00045569168287329376 -0.6143567562103271 0.7840527296066284
3811887500.0 -0.6134968996047974 0.7847126722335815 -0.0006039778818376362 -0.00045701448107138276 -0.0006039779400452971 -0.0004570145101752132 -0.6134971380233765 0.7847129106521606
3811955000.0 -0.612634539604187 0.7853736877441406 -0.0006071251118555665 -0.0004583396075759083 -0.0006071252282708883 -0.00045833972399123013 -0.612634539604187 0.7853738069534302
3812022500.0 -0.6117689609527588 0.7860354781150818 -0.0006102918996475637 -0.0004596675862558186 -0.0006102918414399028 -0.00045966755715198815 -0.6117690801620483 0.7860354781150818
3812090000.0 -0.6109007596969604 0.7866978049278259 -0.0006134777213446796 -0.0004609981260728091 -0.0006134777795523405 -0.00046099821338430047 -0.6109006404876709 0.7866976261138916
3812157500.0 -0.6100293397903442 0.787360668182373 -0.0006166832754388452 -0.00046233137254603207 -0.0006166831008158624 -0.0004623312270268798 -0.6100293397903442 0.7873607873916626
3812225000.0 -0.6091554164886475 0.7880247831344604 -0.0006199082708917558 -0.00046366697642952204 -0.0006199082708917558 -0.0004636669473256916 -0.6091550588607788 0.7880244255065918
3812292500.0 -0.6082780361175537 0.7886889576911926 -0.000623153115157038 -0.0004650053451769054 -0.0006231529405340552 -0.0004650051996577531 -0.6082779169082642 0.7886888980865479
3812360000.0 -0.6073980331420898 0.789354145526886 -0.000626417575404048 -0.00046634601312689483 -0.000626417575404048 -0.0004663459840230644 -0.6073977947235107 0.7893540263175964
3812427500.0 -0.6065148115158081 0.7900198698043823 -0.000629702175501734 -0.00046768924221396446 -0.0006297022337093949 -0.0004676893004216254 -0.6065146923065186 0.7900198698043823
3812495000.0 -0.6056287288665771 0.7906864881515503 -0.0006330070900730789 -0.0004690350324381143 -0.0006330070900730789 -0.0004690350324381143 -0.6056286096572876 0.7906864881515503
3812562500.0 -0.6047393083572388 0.7913536429405212 -0.0006363321444950998 -0.0004703831800725311 -0.0006363321444950998 -0.0004703831800725311 -0.6047394275665283 0.7913537621498108
3812630000.0 -0.6038472652435303 0.7920216917991638 -0.0006396776298061013 -0.0004717337724287063 -0.0006396776298061013 -0.00047173374332487583 -0.6038472652435303 0.792021632194519
3812697500.0 -0.6029520034790039 0.7926902174949646 -0.0006430434877984226 -0.0004730867512989789 -0.0006430436042137444 -0.0004730867804028094 -0.6029520034790039 0.7926901578903198
3812765000.0 -0.6020538806915283 0.793359637260437 -0.0006464303587563336 -0.00047444214578717947 -0.0006464304169639945 -0.0004744421748910099 -0.6020537614822388 0.7933594584465027
3812832500.0 -0.6011525392532349 0.7940294742584229 -0.0006498377188108861 -0.0004757998394779861 -0.0006498376606032252 -0.0004757997812703252 -0.6011524200439453 0.7940294146537781
3812900000.0 -0.6002482175827026 0.7947003841400146 -0.0006532665574923158 -0.00047716000699438155 -0.0006532664992846549 -0.0004771599778905511 -0.6002480983734131 0.7947002053260803
3812967500.0 -0.5993407964706421 0.7953716516494751 -0.0006567161181010306 -0.00047852229909040034 -0.0006567160598933697 -0.0004785222699865699 -0.599340558052063 0.7953715324401855
3813035000.0 -0.5984301567077637 0.7960438132286072 -0.0006601872155442834 -0.0004798869777005166 -0.0006601870991289616 -0.0004798869485966861 -0.5984300374984741 0.7960435748100281
3813102500.0 -0.5975164175033569 0.7967164516448975 -0.0006636796169914305 -0.0004812539555132389 -0.0006636795005761087 -0.0004812538099940866 -0.5975161790847778 0.7967162728309631
3813170000.0 -0.5965995788574219 0.797389805316925 -0.0006671931478194892 -0.0004826228250749409 -0.0006671932642348111 -0.0004826229705940932 -0.5965994596481323 0.797389566898346
3813237500.0 -0.5956794023513794 0.7980638146400452 -0.0006707290303893387 -0.0004839941975660622 -0.0006707291468046606 -0.0004839942848775536 -0.5956794023513794 0.7980637550354004
3813305000.0 -0.5947563648223877 0.7987385988235474 -0.0006742867990396917 -0.0004853677819482982 -0.0006742867990396917 -0.00048536781105212867 -0.5947562456130981 0.7987385988235474
3813372500.0 -0.5938303470611572 0.7994141578674316 -0.0006778661627322435 -0.0004867432580795139 -0.0006778662209399045 -0.0004867433453910053 -0.5938299894332886 0.7994139790534973
3813440000.0 -0.5929005146026611 0.8000900149345398 -0.0006814677035436034 -0.00048812097520567477 -0.0006814676453359425 -0.00048812091699801385 -0.5929003953933716 0.8000898957252502
3813507500.0 -0.5919675827026367 0.80076664686203 -0.0006850918289273977 -0.000489500816911459 -0.0006850917707197368 -0.0004895007004961371 -0.5919677019119263 0.8007667660713196
3813575000.0 -0.5910317897796631 0.8014441132545471 -0.0006887385388836265 -0.0004908826085738838 -0.0006887384806759655 -0.0004908826667815447 -0.5910316705703735 0.8014442324638367
3813642500.0 -0.5900923013687134 0.8021223545074463 -0.0006924077169969678 -0.0004922663210891187 -0.0006924076587893069 -0.0004922662628814578 -0.5900923013687134 0.8021222352981567
3813710000.0 -0.5891499519348145 0.8028011322021484 -0.0006960995378904045 -0.0004936520126648247 -0.0006960994796827435 -0.0004936519544571638 -0.5891498327255249 0.8028008937835693
3813777500.0 -0.5882042646408081 0.8034805655479431 -0.0006998145836405456 -0.0004950398579239845 -0.0006998144672252238 -0.0004950397997163236 -0.5882041454315186 0.803480327129364
3813845000.0 -0.5872550010681152 0.8041604161262512 -0.0007035529124550521 -0.0004964295658282936 -0.0007035527378320694 -0.0004964295076206326 -0.5872551202774048 0.804160475730896
3813912500.0 -0.5863027572631836 0.8048412799835205 -0.0007073140004649758 -0.0004978209035471082 -0.0007073140004649758 -0.0004978209617547691 -0.5863027572631836 0.804841160774231
3813980000.0 -0.5853471755981445 0.8055224418640137 -0.0007110986043699086 -0.0004992142785340548 -0.0007110986625775695 -0.0004992142785340548 -0.585347056388855 0.8055224418640137
3814047500.0 -0.5843881368637085 0.8062043786048889 -0.0007149071898311377 -0.0005006095743738115 -0.0007149070734158158 -0.0005006094579584897 -0.5843881368637085 0.8062045574188232
3814115000.0 -0.5834258794784546 0.8068872690200806 -0.0007187394658103585 -0.0005020064418204129 -0.0007187394076026976 -0.000502006383612752 -0.5834258794784546 0.8068872690200806
3814182500.0 -0.5824602842330933 0.8075705170631409 -0.0007225952576845884 -0.0005034049390815198 -0.0007225954323075712 -0.0005034050554968417 -0.5824601650238037 0.8075703978538513
3814250000.0 -0.5814913511276245 0.8082543611526489 -0.0007264753803610802 -0.000504805357195437 -0.0007264753221534193 -0.000504805298987776 -0.5814911127090454 0.8082543015480042
