! Created with skrf (http://scikit-rf.org).
! Parameters = {f0=11540; bw=65; Q=6000; N=10; m_0_1=0.9823957681655884; m_1_1=9.999999747378752e-05; m_1_2=0.807895302772522; m_2_2=9.999999747378752e-05; m_2_3=0.5795771479606628; m_2_9=0.015303798951208591; m_3_3=9.999999747378752e-05; m_3_4=0.5379654765129089; m_3_8=-0.0577123761177063; m_4_4=9.999999747378752e-05; m_4_5=0.49884048104286194; m_4_7=-0.12463138997554779; m_5_5=9.999999747378752e-05; m_5_6=0.6854009628295898; m_6_6=9.999999747378752e-05; m_6_7=0.49884048104286194; m_7_7=9.999999747378752e-05; m_7_8=0.5379654765129089; m_8_8=9.999999747378752e-05; m_8_9=0.5795771479606628; m_9_9=9.999999747378752e-05; m_9_10=0.807895302772522; m_10_10=9.999999747378752e-05; m_10_11=0.9823957681655884; a11=0; a22=0; b11=0; b22=0}
# MHz S RI R 50.0 
!freq ReS11 ImS11 ReS21 ImS21 ReS12 ImS12 ReS22 ImS22
11484.0 -0.275245323952942 0.931358791724186 -0.00123164810741147 -0.000336865972799444 -0.00123164810741147 -0.000336865972799444 -0.275245323952942 0.931358791724186
11484.111 -0.272031472923829 0.932122399062429 -0.00123527321212862 -0.000334256508459995 -0.00123527321212862 -0.000334256508459995 -0.272031472923829 0.932122399062429
11484.222 -0.26879586444674 0.932878803861283 -0.00123880015159497 -0.000331603190512461 -0.00123880015159497 -0.000331603190512461 -0.26879586444674 0.932878803861283
11484.333 -0.265538304003693 0.933627827496026 -0.00124222511458834 -0.00032890642602535 -0.00124222511458834 -0.00032890642602535 -0.265538304003693 0.933627827496026
11484.444 -0.262258595052066 0.934369287584555 -0.0012455441891474 -0.000326166673804364 -0.0012455441891474 -0.000326166673804364 -0.262258595052066 0.934369287584555
11484.555 -0.25895653900544 0.93510299790035 -0.00124875336035464 -0.000323384446863697 -0.00124875336035464 -0.000323384446863697 -0.25895653900544 0.93510299790035
11484.666 -0.255631935214016 0.935828768283258 -0.00125184850808834 -0.000320560314993691 -0.00125184850808834 -0.000320560314993691 -0.255631935214016 0.935828768283258
11484.777 -0.252284580945392 0.936546404547836 -0.00125482540474359 -0.000317694907428824 -0.00125482540474359 -0.000317694907428824 -0.252284580945392 0.936546404547836
11484.888 -0.248914271365221 0.93725570838932 -0.00125767971292369 -0.000314788915619069 -0.00125767971292369 -0.000314788915619069 -0.248914271365221 0.93725570838932
11484.999 -0.245520799518038 0.937956477287055 -0.00126040698310241 -0.000311843096108418 -0.00126040698310241 -0.000311843096108418 -0.245520799518038 0.937956477287055
11485.11 -0.242103956308289 0.938648504405342 -0.00126300265125846 -0.000308858273524186 -0.00126300265125846 -0.000308858273524186 -0.242103956308289 0.938648504405342
11485.221 -0.238663530481171 0.939331578491674 -0.00126546203648345 -0.000305835343680502 -0.00126546203648345 -0.000305835343680502 -0.238663530481171 0.939331578491674
11485.332 -0.235199308603993 0.940005483772174 -0.00126778033856422 -0.000302775276800412 -0.00126778033856422 -0.000302775276800412 -0.235199308603993 0.940005483772174
11485.443 -0.231711075047254 0.940669999844288 -0.00126995263554164 -0.000299679120859771 -0.00126995263554164 -0.000299679120859771 -0.231711075047254 0.940669999844288
11485.554 -0.228198611966519 0.941324901566451 -0.00127197388124679 -0.000296548005057915 -0.00127197388124679 -0.000296548005057915 -0.228198611966519 0.941324901566451
11485.665 -0.224661699283782 0.9419699589449 -0.00127383890281719 -0.000293383143418015 -0.00127383890281719 -0.000293383143418015 -0.224661699283782 0.9419699589449
11485.776 -0.221100114669654 0.942604937017281 -0.00127554239819427 -0.000290185838522494 -0.00127554239819427 -0.000290185838522494 -0.221100114669654 0.942604937017281
11485.887 -0.217513633525588 0.943229595733112 -0.00127707893360477 -0.000286957485387076 -0.00127707893360477 -0.000286957485387076 -0.217513633525588 0.943229595733112
11485.998 -0.213902028966197 0.943843689830996 -0.00127844294102844 -0.000283699575477881 -0.00127844294102844 -0.000283699575477881 -0.213902028966197 0.943843689830996
11486.109 -0.210265071802383 0.944446968712364 -0.00127962871565435 -0.000280413700876649 -0.00127962871565435 -0.000280413700876649 -0.210265071802383 0.944446968712364
11486.22 -0.20660253052432 0.945039176311804 -0.00128063041332916 -0.00027710155859775 -0.00128063041332916 -0.00027710155859775 -0.20660253052432 0.945039176311804
11486.331 -0.202914171285124 0.945620050963742 -0.00128144204800002 -0.00027376495506235 -0.00128144204800002 -0.00027376495506235 -0.202914171285124 0.945620050963742
11486.442 -0.199199757884932 0.946189325265402 -0.00128205748915584 -0.000270405810734129 -0.00128205748915584 -0.000270405810734129 -0.199199757884932 0.946189325265402
11486.553 -0.195459051755286 0.94674672593596 -0.00128247045927045 -0.000267026164921212 -0.00128247045927045 -0.000267026164921212 -0.195459051755286 0.94674672593596
11486.664 -0.19169181194432 0.947291973671693 -0.00128267453125165 -0.000263628180749547 -0.00128267453125165 -0.000263628180749547 -0.19169181194432 0.947291973671693
11486.775 -0.18789779510215 0.947824782997095 -0.00128266312590054 -0.000260214150312056 -0.00128266312590054 -0.000260214150312056 -0.18789779510215 0.947824782997095
11486.886 -0.184076755467047 0.948344862111752 -0.00128242950938585 -0.000256786499998925 -0.00128242950938585 -0.000256786499998925 -0.184076755467047 0.948344862111752
11486.997 -0.180228444852451 0.948851912732832 -0.00128196679073816 -0.000253347796014066 -0.00128196679073816 -0.000253347796014066 -0.180228444852451 0.948851912732832
11487.108 -0.176352612634289 0.949345629933149 -0.00128126791936955 -0.000249900750082148 -0.00128126791936955 -0.000249900750082148 -0.176352612634289 0.949345629933149
11487.219 -0.172449005739347 0.94982570197453 -0.00128032568262466 -0.000246448225351869 -0.00128032568262466 -0.000246448225351869 -0.172449005739347 0.94982570197453
11487.33 -0.168517368634455 0.950291810136416 -0.00127913270336922 -0.000242993242500151 -0.00127913270336922 -0.000242993242500151 -0.168517368634455 0.950291810136416
11487.441 -0.164557443316299 0.950743628539526 -0.00127768143762305 -0.000239538986042048 -0.00127768143762305 -0.000239538986042048 -0.164557443316299 0.950743628539526
11487.552 -0.160568969302643 0.951180823964372 -0.00127596417224478 -0.000236088810851897 -0.00127596417224478 -0.000236088810851897 -0.160568969302643 0.951180823964372
11487.663 -0.156551683623976 0.951603055664555 -0.00127397302267598 -0.000232646248899675 -0.00127397302267598 -0.000232646248899675 -0.156551683623976 0.951603055664555
11487.774 -0.152505320816822 0.952009975174548 -0.00127169993075331 -0.00022921501620839 -0.00127169993075331 -0.00022921501620839 -0.152505320816822 0.952009975174548
11487.885 -0.148429612917838 0.952401226111888 -0.00126913666259749 -0.000225799020036317 -0.00126913666259749 -0.000225799020036317 -0.148429612917838 0.952401226111888
11487.996 -0.144324289459448 0.952776443973512 -0.0012662748065889 -0.000222402366289232 -0.0012662748065889 -0.000222402366289232 -0.144324289459448 0.952776443973512
11488.107 -0.140189077466412 0.953135255926122 -0.00126310577143981 -0.000219029367166432 -0.00126310577143981 -0.000219029367166432 -0.140189077466412 0.953135255926122
11488.218 -0.136023701454439 0.953477280590269 -0.00125962078437479 -0.000215684549045566 -0.00125962078437479 -0.000215684549045566 -0.136023701454439 0.953477280590269
11488.329 -0.131827883429704 0.953802127818066 -0.00125581088943045 -0.000212372660609188 -0.00125581088943045 -0.000212372660609188 -0.131827883429704 0.953802127818066
11488.44 -0.127601342890544 0.954109398464208 -0.00125166694588771 -0.000209098681217651 -0.00125166694588771 -0.000209098681217651 -0.127601342890544 0.954109398464208
11488.551 -0.123343796830397 0.954398684150156 -0.00124717962684927 -0.000205867829530815 -0.00124717962684927 -0.000205867829530815 -0.123343796830397 0.954398684150156
11488.662 -0.119054959743111 0.954669567021181 -0.00124233941797763 -0.000202685572382341 -0.00124233941797763 -0.000202685572382341 -0.119054959743111 0.954669567021181
11488.773 -0.114734543629918 0.954921619496072 -0.00123713661640796 -0.000199557633908391 -0.00123713661640796 -0.000199557633908391 -0.114734543629918 0.954921619496072
11488.884 -0.11038225800855 0.955154404009238 -0.00123156132985251 -0.000196490004933045 -0.00123156132985251 -0.000196490004933045 -0.11038225800855 0.955154404009238
11488.995 -0.105997809924841 0.955367472744938 -0.00122560347591415 -0.000193488952612003 -0.00122560347591415 -0.000193488952612003 -0.105997809924841 0.955367472744938
11489.106 -0.101580903966546 0.955560367363365 -0.00121925278162703 -0.00019056103033507 -0.00121925278162703 -0.00019056103033507 -0.101580903966546 0.955560367363365
11489.217 -0.0971312422796746 0.95573261871832 -0.00121249878324401 -0.000187713087887603 -0.00121249878324401 -0.000187713087887603 -0.0971312422796746 0.95573261871832
11489.328 -0.0926485245876782 0.95588374656615 -0.00120533082629211 -0.000184952281870268 -0.00120533082629211 -0.000184952281870268 -0.0926485245876782 0.95588374656615
11489.439 -0.0881324482137855 0.956013259265658 -0.00119773806591829 -0.000182286086375525 -0.00119773806591829 -0.000182286086375525 -0.0881324482137855 0.956013259265658
11489.55 -0.083582708105679 0.956120653468692 -0.00118970946754761 -0.000179722303917501 -0.00118970946754761 -0.000179722303917501 -0.083582708105679 0.956120653468692
11489.661 -0.0789989968645775 0.956205413801028 -0.00118123380788168 -0.00017726907661256 -0.00118123380788168 -0.00017726907661256 -0.0789989968645775 0.956205413801028
11489.772 -0.0743810047765658 0.956267012533253 -0.00117229967626014 -0.000174934897604033 -0.00117229967626014 -0.000174934897604033 -0.0743810047765658 0.956267012533253
11489.883 -0.0697284198486354 0.956304909241268 -0.00116289547641691 -0.000172728622725857 -0.00116289547641691 -0.000172728622725857 -0.0697284198486354 0.956304909241268
11489.994 -0.0650409278483433 0.956318550456035 -0.00115300942865909 -0.000170659482396199 -0.00115300942865909 -0.000170659482396199 -0.0650409278483433 0.956318550456035
11490.105 -0.0603182123474264 0.956307369302196 -0.00114262957249974 -0.000168737093731295 -0.00114262957249974 -0.000168737093731295 -0.0603182123474264 0.956307369302196
11490.216 -0.0555599547702561 0.956270785125152 -0.00113174376977951 -0.00016697147286793 -0.00113174376977951 -0.00016697147286793 -0.0555599547702561 0.956270785125152
11490.327 -0.0507658344466821 0.956208203106182 -0.00112033970831094 -0.000165373047480268 -0.00112033970831094 -0.000165373047480268 -0.0507658344466821 0.956208203106182
11490.438 -0.0459355286704883 0.95611901386518 -0.00110840490608477 -0.000163952669475015 -0.00110840490608477 -0.000163952669475015 -0.0459355286704883 0.95611901386518
11490.549 -0.0410687127623783 0.956002593050538 -0.00109592671607472 -0.000162721627845418 -0.00109592671607472 -0.000162721627845418 -0.0410687127623783 0.956002593050538
11490.66 -0.036165060139302 0.955858300915721 -0.00108289233168583 -0.000161691661662782 -0.00108289233168583 -0.000161691661662782 -0.036165060139302 0.955858300915721
11490.771 -0.0312242423896838 0.955685481882035 -0.00106928879288857 -0.000160874973180098 -0.00106928879288857 -0.000160874973180098 -0.0312242423896838 0.955685481882035
11490.882 -0.0262459293546953 0.955483464087069 -0.00105510299308459 -0.000160284241019225 -0.00105510299308459 -0.000160284241019225 -0.0262459293546953 0.955483464087069
11490.993 -0.0212297892169548 0.955251558918316 -0.00104032168675561 -0.000159932633409392 -0.00104032168675561 -0.000159932633409392 -0.0212297892169548 0.955251558918316
11491.104 -0.0161754885957439 0.954989060531352 -0.00102493149794336 -0.00015983382144008 -0.00102493149794336 -0.00015983382144008 -0.0161754885957439 0.954989060531352
11491.215 -0.0110826926506788 0.954695245352086 -0.0010089189296191 -0.000160001992287172 -0.0010089189296191 -0.000160001992287172 -0.0110826926506788 0.954695245352086
11491.326 -0.00595106519289512 0.954369371562399 -0.000992270373995594 -0.00016045186236574 -0.000992270373995594 -0.00016045186236574 -0.00595106519289512 0.954369371562399
11491.437 -0.000780268804939865 0.954010678568579 -0.000974972123843365 -0.000161198690357566 -0.000974972123843365 -0.000161198690357566 -0.000780268804939865 0.954010678568579
11491.548 0.00443003502946016 0.953618386451947 -0.000957010384876304 -0.000162258290054926 -0.000957010384876304 -0.000162258290054926 0.00443003502946016 0.953618386451947
11491.659 0.00968018578691021 0.953191695400891 -0.000938371289266815 -0.000163647042955984 -0.000938371289266815 -0.000163647042955984 0.00968018578691021 0.953191695400891
11491.77 0.0149705237545976 0.952729785123715 -0.000919040910365933 -0.000165381910539055 -0.000919040910365933 -0.000165381910539055 0.0149705237545976 0.952729785123715
11491.881 0.020301389870045 0.952231814241489 -0.000899005278695837 -0.000167480446135532 -0.000899005278695837 -0.000167480446135532 0.020301389870045 0.952231814241489
11491.992 0.0256731255490146 0.951696919660164 -0.000878250399292413 -0.000169960806311986 -0.000878250399292413 -0.000169960806311986 0.0256731255490146 0.951696919660164
11492.103 0.0310860725008761 0.95112421592116 -0.000856762270476451 -0.000172841761662322 -0.000856762270476451 -0.000172841761662322 0.0310860725008761 0.95112421592116
11492.214 0.0365405725310188 0.950512794529565 -0.000834526904134006 -0.000176142706900482 -0.000834526904134006 -0.000176142706900482 0.0365405725310188 0.950512794529565
11492.325 0.0420369673292313 0.949861723259083 -0.000811530347591987 -0.000179883670132325 -0.000811530347591987 -0.000179883670132325 0.0420369673292313 0.949861723259083
11492.436 0.047575598242767 0.949170045432898 -0.000787758707179213 -0.000184085321172298 -0.000787758707179213 -0.000184085321172298 0.047575598242767 0.949170045432898
11492.547 0.0531568060342882 0.948436779179352 -0.000763198173559794 -0.000188768978757818 -0.000763198173559794 -0.000188768978757818 0.0531568060342882 0.948436779179352
11492.658 0.058780930622262 0.947660916661655 -0.000737835048939582 -0.000193956616497233 -0.000737835048939582 -0.000193956616497233 0.058780930622262 0.947660916661655
11492.769 0.0644483108040872 0.946841423280405 -0.00071165577623767 -0.000199670867372721 -0.00071165577623767 -0.000199670867372721 0.0644483108040872 0.946841423280405
11492.88 0.070159283959776 0.945977236848009 -0.00068464697032789 -0.000205935026599462 -0.00068464697032789 -0.000205935026599462 0.070159283959776 0.945977236848009
11492.991 0.0759141857358199 0.94506726673376 -0.000656795451449702 -0.000212773052624332 -0.000656795451449702 -0.000212773052624332 0.0759141857358199 0.94506726673376
11493.102 0.0817133497072289 0.944110392978519 -0.000628088280896973 -0.000220209566024139 -0.000628088280896973 -0.000220209566024139 0.0817133497072289 0.944110392978519
11493.213 0.0875571070170182 0.943105465377699 -0.000598512799088895 -0.000228269846041456 -0.000598512799088895 -0.000228269846041456 0.0875571070170182 0.943105465377699
11493.324 0.0934457859911386 0.94205130253135 -0.000568056666134177 -0.000236979824468779 -0.000568056666134177 -0.000236979824468779 0.0934457859911386 0.94205130253135
11493.435 0.0993797117278599 0.940946690859966 -0.000536707904995303 -0.000246366076565299 -0.000536707904995303 -0.000246366076565299 0.0993797117278599 0.940946690859966
11493.546 0.105359205659216 0.939790383584736 -0.000504454947366176 -0.00025645580865793 -0.000504454947366176 -0.00025645580865793 0.105359205659216 0.939790383584736
11493.657 0.111384585083794 0.938581099670634 -0.00047128668236683 -0.000267276842047604 -0.00047128668236683 -0.000267276842047604 0.111384585083794 0.938581099670634
11493.768 0.117456162667751 0.937317522731068 -0.000437192508169324 -0.000278857592801733 -0.000437192508169324 -0.000278857592801733 0.117456162667751 0.937317522731068
11493.879 0.123574245913114 0.935998299892333 -0.000402162386654057 -0.000291227046977713 -0.000402162386654057 -0.000291227046977713 0.123574245913114 0.935998299892333
11493.99 0.129739136590366 0.934622040616393 -0.000366186901202142 -0.000304414730775761 -0.000366186901202142 -0.000304414730775761 0.129739136590366 0.934622040616393
11494.101 0.135951130133894 0.933187315480135 -0.000329257317714506 -0.000318450675075225 -0.000329257317714506 -0.000318450675075225 0.135951130133894 0.933187315480135
11494.212 0.142210514997056 0.931692654909467 -0.000291365648950625 -0.000333365373753794 -0.000291365648950625 -0.000333365373753794 0.142210514997056 0.931692654909467
11494.323 0.148517571964031 0.930136547866487 -0.000252504722267301 -0.000349189735133677 -0.000252504722267301 -0.000349189735133677 0.148517571964031 0.930136547866487
11494.434 0.15487257341744 0.928517440487372 -0.000212668250813983 -0.000365955025842638 -0.000212668250813983 -0.000365955025842638 0.15487257341744 0.928517440487372
11494.545 0.161275782556122 0.926833734669594 -0.000171850908253474 -0.000383692806300595 -0.000171850908253474 -0.000383692806300595 0.161275782556122 0.926833734669594
11494.656 0.167727452561576 0.925083786605966 -0.000130048407032722 -0.000402434856979987 -0.000130048407032722 -0.000402434856979987 0.167727452561576 0.925083786605966
11494.767 0.174227825709434 0.923265905263384 -8.72575802189238e-05 -0.000422213094504793 -8.72575802189238e-05 -0.000422213094504793 0.174227825709434 0.923265905263384
11494.878 0.180777132421836 0.92137835080409 -4.34764668917901e-05 -0.000443059476566012 -4.34764668917901e-05 -0.000443059476566012 0.180777132421836 0.92137835080409
11494.989 0.187375590256534 0.919419332947173 1.29559894829202e-06 -0.000465005894537867 1.29559894829202e-06 -0.000465005894537867 0.187375590256534 0.919419332947173
11495.1 0.194023402829077 0.917387009267686 4.70578960380397e-05 -0.000488084052579438 4.70578960380397e-05 -0.000488084052579438 0.194023402829077 0.917387009267686
11495.211 0.200720758663527 0.915279483430799 9.3808220195859e-05 -0.000512325331893948 9.3808220195859e-05 -0.000512325331893948 0.200720758663527 0.915279483430799
11495.322 0.207467829965899 0.913094803358605 0.00014154278551666 -0.000537760638693299 0.00014154278551666 -0.000537760638693299 0.207467829965899 0.913094803358605
11495.433 0.214264771316064 0.910830959326519 0.000190256122652095 -0.000564420234290702 0.000190256122652095 -0.000564420234290702 0.214264771316064 0.910830959326519
11495.544 0.221111718272 0.908485881986532 0.000239940974468713 -0.000592333545596185 0.000239940974468713 -0.000592333545596185 0.221111718272 0.908485881986532
11495.655 0.228008785880182 0.906057440314379 0.000290588189457277 -0.00062152895413522 0.000290588189457277 -0.00062152895413522 0.228008785880182 0.906057440314379
11495.766 0.234956067085668 0.903543439477515 0.000342186613359273 -0.000652033561542621 0.000342186613359273 -0.000652033561542621 0.234956067085668 0.903543439477515
11495.877 0.241953631035231 0.900941618620543 0.000394722979583983 -0.000683872929301851 0.000394722979583983 -0.000683872929301851 0.241953631035231 0.900941618620543
11495.988 0.24900152126512 0.898249648565075 0.000448181799101869 -0.0007170707902951 0.000448181799101869 -0.0007170707902951 0.24900152126512 0.898249648565075
11496.099 0.256099753766242 0.895465129420245 0.000502545250653245 -0.000751648729521131 0.000502545250653245 -0.000751648729521131 0.256099753766242 0.895465129420245
11496.21 0.26324831491701 0.89258558810069 0.000557793072258138 -0.000787625831094912 0.000557793072258138 -0.000787625831094912 0.26324831491701 0.89258558810069
11496.321 0.270447159275292 0.889608475747971 0.000613902455211797 -0.000825018288397053 0.000613902455211797 -0.000825018288397053 0.270447159275292 0.889608475747971
