! Created with skrf (http://scikit-rf.org).
! Parameters = {f0=28390; bw=500; Q=3500; N=8; m_0_1=1.024807333946228; m_1_1=-0.000847494404297322; m_1_2=0.8469452857971191; m_2_2=-0.0009200117201544344; m_2_3=0.595033586025238; m_3_3=-0.001072873012162745; m_3_4=0.5169047713279724; m_3_5=-0.029739277437329292; m_3_6=-0.18840281665325165; m_4_4=0.059638611972332; m_4_5=0.7175747752189636; m_5_5=-0.02293039672076702; m_5_6=0.5177595615386963; m_6_6=-0.001072873012162745; m_6_7=0.595033586025238; m_7_7=-0.0009200117201544344; m_7_8=0.8469452857971191; m_8_8=-0.000847494404297322; m_8_9=1.024807333946228}
# MHz S RI R 50.0 
!freq ReS11 ImS11 ReS21 ImS21 ReS12 ImS12 ReS22 ImS22
27500.0 -0.775755998385586 0.625851676082706 6.48836420313192e-05 7.60551629939393e-05 6.48836420313192e-05 7.60551629939393e-05 -0.775755998385586 0.625851676082706
27501.8 -0.774804200689646 0.627005867963898 6.58250264422678e-05 7.6915434618734e-05 6.58250264422678e-05 7.6915434618734e-05 -0.774804200689646 0.627005867963898
27503.6 -0.773846337397046 0.628163802494679 6.67819560445883e-05 7.77866470579666e-05 6.67819560445883e-05 7.77866470579666e-05 -0.773846337397046 0.628163802494679
27505.4 -0.772882356526788 0.629325493547099 6.77547185914876e-05 7.8668951185613e-05 6.77547185914876e-05 7.8668951185613e-05 -0.772882356526788 0.629325493547099
27507.2 -0.771912205535954 0.630490954996964 6.87436077318295e-05 7.95625000205275e-05 6.87436077318295e-05 7.95625000205275e-05 -0.771912205535954 0.630490954996964
27509.0 -0.770935831312341 0.63166020072226 6.9748923142392e-05 8.04674487547431e-05 6.9748923142392e-05 8.04674487547431e-05 -0.770935831312341 0.63166020072226
27510.8 -0.769953180167 0.632833244601497 7.07709706633213e-05 8.13839547819724e-05 7.07709706633213e-05 8.13839547819724e-05 -0.769953180167 0.632833244601497
27512.6 -0.768964197826663 0.634010100512021 7.18100624368932e-05 8.23121777263264e-05 7.18100624368932e-05 8.23121777263264e-05 -0.768964197826663 0.634010100512021
27514.4 -0.767968829426044 0.635190782328265 7.28665170496563e-05 8.3252279471233e-05 7.28665170496563e-05 8.3252279471233e-05 -0.767968829426044 0.635190782328265
27516.2 -0.766967019500023 0.636375303919958 7.39406596780606e-05 8.42044241885598e-05 7.39406596780606e-05 8.42044241885598e-05 -0.766967019500023 0.636375303919958
27518.0 -0.765958711975713 0.637563679150269 7.50328222376344e-05 8.51687783679093e-05 7.50328222376344e-05 8.51687783679093e-05 -0.765958711975713 0.637563679150269
27519.8 -0.764943850164405 0.638755921873899 7.61433435358324e-05 8.61455108461006e-05 7.61433435358324e-05 8.61455108461006e-05 -0.764943850164405 0.638755921873899
27521.6 -0.763922376753371 0.639952045935126 7.72725694286494e-05 8.71347928368281e-05 7.72725694286494e-05 8.71347928368281e-05 -0.763922376753371 0.639952045935126
27523.4 -0.762894233797571 0.641152065165771 7.84208529810561e-05 8.81367979604474e-05 7.84208529810561e-05 8.81367979604474e-05 -0.762894233797571 0.641152065165771
27525.2 -0.761859362711192 0.642355993383124 7.95885546314324e-05 8.91517022739425e-05 7.95885546314324e-05 8.91517022739425e-05 -0.761859362711192 0.642355993383124
27527.0 -0.760817704259091 0.643563844387798 8.07760423600282e-05 9.01796843009963e-05 8.07760423600282e-05 9.01796843009963e-05 -0.760817704259091 0.643563844387798
27528.8 -0.759769198548067 0.644775631961524 8.19836918616207e-05 9.12209250622047e-05 8.19836918616207e-05 9.12209250622047e-05 -0.759769198548067 0.644775631961524
27530.6 -0.758713785018033 0.645991369864878 8.32118867224277e-05 9.22756081053768e-05 8.32118867224277e-05 9.22756081053768e-05 -0.758713785018033 0.645991369864878
27532.4 -0.757651402433019 0.647211071834938 8.44610186014277e-05 9.33439195359365e-05 8.44610186014277e-05 9.33439195359365e-05 -0.757651402433019 0.647211071834938
27534.2 -0.756581988872048 0.648434751582884 8.57314874161896e-05 9.44260480473992e-05 8.57314874161896e-05 9.44260480473992e-05 -0.756581988872048 0.648434751582884
27536.0 -0.755505481719859 0.649662422791521 8.70237015333331e-05 9.55221849519072e-05 8.70237015333331e-05 9.55221849519072e-05 -0.755505481719859 0.649662422791521
27537.8 -0.75442181765749 0.650894099112725 8.8338077963739e-05 9.66325242108005e-05 8.8338077963739e-05 9.66325242108005e-05 -0.75442181765749 0.650894099112725
27539.6 -0.75333093265271 0.652129794164819 8.96750425626392e-05 9.77572624652076e-05 8.96750425626392e-05 9.77572624652076e-05 -0.75333093265271 0.652129794164819
27541.4 -0.752232761950286 0.65336952152988 9.10350302347352e-05 9.88965990666515e-05 9.10350302347352e-05 9.88965990666515e-05 -0.752232761950286 0.65336952152988
27543.2 -0.751127240062116 0.654613294750952 9.24184851444363e-05 0.000100050736107611 9.24184851444363e-05 0.000100050736107611 -0.751127240062116 0.654613294750952
27545.0 -0.750014300757186 0.655861127329193 9.38258609314109e-05 0.000101219878452065 9.38258609314109e-05 0.000101219878452065 -0.750014300757186 0.655861127329193
27546.8 -0.748893877051367 0.657113032720936 9.52576209315472e-05 0.000102404233765948 9.52576209315472e-05 0.000102404233765948 -0.748893877051367 0.657113032720936
27548.6 -0.747765901197057 0.658369024334661 9.67142384034961e-05 0.000103604012547529 9.67142384034961e-05 0.000103604012547529 -0.747765901197057 0.658369024334661
27550.4 -0.74663030467265 0.659629115527879 9.8196196760928e-05 0.000104819428157651 9.8196196760928e-05 0.000104819428157651 -0.74663030467265 0.659629115527879
27552.2 -0.745487018171829 0.660893319603937 9.97039898106852e-05 0.000106050696849846 9.97039898106852e-05 0.000106050696849846 -0.745487018171829 0.660893319603937
27554.0 -0.744335971592702 0.662161649808719 0.000101238121996953 0.000107298037800248 0.000101238121996953 0.000107298037800248 -0.744335971592702 0.662161649808719
27555.8 -0.743177094026735 0.66343411932726 0.000102799108651653 0.000108561673137311 0.000102799108651653 0.000108561673137311 -0.743177094026735 0.66343411932726
27557.6 -0.742010313747534 0.664710741280262 0.000104387476251188 0.000109841827971276 0.000104387476251188 0.000109841827971276 -0.742010313747534 0.664710741280262
27559.4 -0.740835558199421 0.665991528720502 0.000106003762679737 0.000111138730423349 0.000106003762679737 0.000111138730423349 -0.740835558199421 0.665991528720502
27561.2 -0.739652753985831 0.667276494629158 0.000107648517499289 0.000112452611654587 0.000107648517499289 0.000112452611654587 -0.739652753985831 0.667276494629158
27563.0 -0.738461826857522 0.668565651912005 0.000109322302226547 0.000113783705894395 0.000109322302226547 0.000113783705894395 -0.738461826857522 0.668565651912005
27564.8 -0.737262701700585 0.669859013395522 0.000111025690616962 0.000115132250468643 0.000111025690616962 0.000115132250468643 -0.737262701700585 0.669859013395522
27566.6 -0.736055302524256 0.67115659182288 0.000112759268956035 0.00011649848582734 0.000112759268956035 0.00011649848582734 -0.736055302524256 0.67115659182288
27568.4 -0.734839552448539 0.67245839984981 0.000114523636358098 0.000117882655571794 0.000114523636358098 0.000117882655571794 -0.734839552448539 0.67245839984981
27570.2 -0.733615373691595 0.673764450040378 0.000116319405072832 0.000119285006481281 0.000116319405072832 0.000119285006481281 -0.733615373691595 0.673764450040378
27572.0 -0.732382687556961 0.6750747548626 0.000118147200799624 0.000120705788539062 0.000118147200799624 0.000120705788539062 -0.732382687556961 0.6750747548626
27573.8 -0.731141414420519 0.676389326683975 0.000120007663010109 0.00012214525495781 0.000120007663010109 0.00012214525495781 -0.731141414420519 0.676389326683975
27575.6 -0.72989147371727 0.677708177766863 0.000121901445279019 0.000123603662204299 0.000121901445279019 0.000123603662204299 -0.72989147371727 0.677708177766863
27577.4 -0.728632783927882 0.679031320263742 0.000123829215623624 0.000125081270023348 0.000123829215623624 0.000125081270023348 -0.728632783927882 0.679031320263742
27579.2 -0.727365262565003 0.680358766212332 0.000125791656851983 0.000126578341460936 0.000125791656851983 0.000126578341460936 -0.727365262565003 0.680358766212332
27581.0 -0.726088826159357 0.681690527530578 0.000127789466920257 0.000128095142886423 0.000127789466920257 0.000128095142886423 -0.726088826159357 0.681690527530578
27582.8 -0.724803390245598 0.683026616011491 0.000129823359299321 0.000129631944013804 0.000129823359299321 0.000129631944013804 -0.724803390245598 0.683026616011491
27584.6 -0.723508869347926 0.684367043317848 0.000131894063350957 0.000131189017921946 0.000131894063350957 0.000131189017921946 -0.723508869347926 0.684367043317848
27586.4 -0.722205176965458 0.685711820976738 0.000134002324713869 0.000132766641073686 0.000134002324713869 0.000132766641073686 -0.722205176965458 0.685711820976738
27588.2 -0.720892225557355 0.68706096037395 0.00013614890569981 0.000134365093333755 0.00013614890569981 0.000134365093333755 -0.720892225557355 0.68706096037395
27590.0 -0.719569926527696 0.688414472748208 0.000138334585700085 0.00013598465798541 0.000138334585700085 0.00013598465798541 -0.719569926527696 0.688414472748208
27591.8 -0.718238190210075 0.689772369185258 0.000140560161602775 0.000137625621745716 0.000140560161602775 0.000137625621745716 -0.718238190210075 0.689772369185258
27593.6 -0.716896925851974 0.691134660611746 0.000142826448220865 0.000139288274779325 0.000142826448220865 0.000139288274779325 -0.716896925851974 0.691134660611746
27595.4 -0.715546041598828 0.692501357788971 0.000145134278731724 0.000140972910710741 0.000145134278731724 0.000140972910710741 -0.715546041598828 0.692501357788971
27597.2 -0.714185444477832 0.693872471306435 0.000147484505128152 0.000142679826634884 0.000147484505128152 0.000142679826634884 -0.714185444477832 0.693872471306435
27599.0 -0.712815040381478 0.695248011575215 0.000149877998681359 0.000144409323125889 0.000149877998681359 0.000144409323125889 -0.712815040381478 0.695248011575215
27600.8 -0.711434734050796 0.696627988821145 0.000152315650416192 0.00014616170424401 0.000152315650416192 0.00014616170424401 -0.711434734050796 0.696627988821145
27602.6 -0.710044429058305 0.698012413077819 0.00015479837159899 0.000147937277540529 0.00015479837159899 0.000147937277540529 -0.710044429058305 0.698012413077819
27604.4 -0.708644027790671 0.699401294179382 0.000157327094238385 0.000149736354060505 0.000157327094238385 0.000149736354060505 -0.708644027790671 0.699401294179382
27606.2 -0.707233431431061 0.700794641753127 0.000159902771599432 0.000151559248343278 0.000159902771599432 0.000151559248343278 -0.707233431431061 0.700794641753127
27608.0 -0.7058125399412 0.702192465211873 0.000162526378731423 0.000153406278420535 0.000162526378731423 0.000153406278420535 -0.7058125399412 0.702192465211873
27609.8 -0.704381252043096 0.703594773746139 0.000165198913009825 0.000155277765811855 0.000165198913009825 0.000155277765811855 -0.704381252043096 0.703594773746139
27611.6 -0.702939465200453 0.705001576316089 0.000167921394692669 0.000157174035517524 0.000167921394692669 0.000157174035517524 -0.702939465200453 0.705001576316089
27613.4 -0.701487075599768 0.70641288164325 0.000170694867491851 0.000159095416008486 0.000170694867491851 0.000159095416008486 -0.701487075599768 0.70641288164325
27615.2 -0.700023978131077 0.707828698201998 0.000173520399159753 0.000161042239213264 0.000173520399159753 0.000161042239213264 -0.700023978131077 0.707828698201998
27617.0 -0.69855006636837 0.709249034210806 0.000176399082091616 0.000163014840501672 0.000176399082091616 0.000163014840501672 -0.69855006636837 0.709249034210806
27618.8 -0.697065232549664 0.710673897623232 0.000179332033944109 0.000165013558665113 0.000179332033944109 0.000165013558665113 -0.697065232549664 0.710673897623232
27620.6 -0.6955693675567 0.712103296118677 0.000182320398270583 0.000167038735893317 0.000182320398270583 0.000167038735893317 -0.6955693675567 0.712103296118677
27622.4 -0.694062360894322 0.713537237092841 0.000185365345173404 0.000169090717747235 0.000185365345173404 0.000169090717747235 -0.694062360894322 0.713537237092841
27624.2 -0.692544100669439 0.714975727647947 0.000188468071973981 0.000171169853127979 0.000188468071973981 0.000171169853127979 -0.692544100669439 0.714975727647947
27626.0 -0.691014473569643 0.716418774582668 0.000191629803900875 0.000173276494241495 0.000191629803900875 0.000173276494241495 -0.691014473569643 0.716418774582668
27627.8 -0.689473364841428 0.717866384381778 0.000194851794796576 0.000175410996558792 0.000194851794796576 0.000175410996558792 -0.689473364841428 0.717866384381778
27629.6 -0.687920658268034 0.719318563205488 0.00019813532784342 0.00017757371877143 0.00019813532784342 0.00017757371877143 -0.687920658268034 0.719318563205488
27631.4 -0.686356236146878 0.720775316878498 0.000201481716309268 0.00017976502274207 0.000201481716309268 0.00017976502274207 -0.686356236146878 0.720775316878498
27633.2 -0.684779979266562 0.722236650878752 0.000204892304313498 0.000181985273449788 0.000204892304313498 0.000181985273449788 -0.684779979266562 0.722236650878752
27635.0 -0.683191766883522 0.723702570325816 0.000208368467613758 0.000184234838929818 0.000208368467613758 0.000184234838929818 -0.683191766883522 0.723702570325816
27636.8 -0.681591476698174 0.725173079968997 0.000211911614414336 0.00018651409020755 0.000211911614414336 0.00018651409020755 -0.681591476698174 0.725173079968997
27638.6 -0.679978984830695 0.726648184175063 0.000215523186196497 0.000188823401226339 0.000215523186196497 0.000188823401226339 -0.679978984830695 0.726648184175063
27640.4 -0.678354165796318 0.72812788691565 0.000219204658571598 0.000191163148768898 0.000219204658571598 0.000191163148768898 -0.678354165796318 0.72812788691565
27642.2 -0.676716892480204 0.72961219175428 0.000222957542157544 0.000193533712371868 0.000222957542157544 0.000193533712371868 -0.676716892480204 0.72961219175428
27644.0 -0.675067036111824 0.731101101833043 0.000226783383479326 0.000195935474233274 0.000226783383479326 0.000195935474233274 -0.675067036111824 0.731101101833043
27645.8 -0.673404466238905 0.732594619858852 0.000230683765894235 0.000198368819112412 0.000230683765894235 0.000198368819112412 -0.673404466238905 0.732594619858852
27647.6 -0.671729050700867 0.73409274808934 0.000234660310542569 0.000200834134221848 0.000234660310542569 0.000200834134221848 -0.671729050700867 0.73409274808934
27649.4 -0.670040655601773 0.735595488318343 0.000238714677324519 0.00020333180911109 0.000238714677324519 0.00020333180911109 -0.670040655601773 0.735595488318343
27651.2 -0.668339145282803 0.737102841860949 0.000242848565903937 0.000205862235541476 0.000242848565903937 0.000205862235541476 -0.668339145282803 0.737102841860949
27653.0 -0.666624382294185 0.738614809538134 0.000247063716739865 0.000208425807351875 0.000247063716739865 0.000208425807351875 -0.666624382294185 0.738614809538134
27654.8 -0.664896227366624 0.740131391660946 0.000251361912146543 0.0002110229203147 0.000251361912146543 0.0002110229203147 -0.664896227366624 0.740131391660946
27656.6 -0.663154539382185 0.741652588014246 0.000255744977382772 0.000213653971981755 0.000255744977382772 0.000213653971981755 -0.663154539382185 0.741652588014246
27658.4 -0.661399175344648 0.743178397839947 0.000260214781771395 0.000216319361519353 0.000260214781771395 0.000216319361519353 -0.661399175344648 0.743178397839947
27660.2 -0.659629990349291 0.744708819819799 0.000264773239849879 0.000219019489532238 0.000264773239849879 0.000219019489532238 -0.659629990349291 0.744708819819799
27662.0 -0.657846837552107 0.746243852057671 0.000269422312552832 0.000221754757875693 0.000269422312552832 0.000221754757875693 -0.657846837552107 0.746243852057671
27663.8 -0.656049568138457 0.74778349206129 0.000274164008427329 0.000224525569455215 0.000274164008427329 0.000224525569455215 -0.656049568138457 0.74778349206129
27665.6 -0.654238031291102 0.749327736723492 0.000279000384882123 0.000227332328013214 0.000279000384882123 0.000227332328013214 -0.654238031291102 0.749327736723492
27667.4 -0.652412074157664 0.75087658230288 0.000283933549471562 0.000230175437901982 0.000283933549471562 0.000230175437901982 -0.652412074157664 0.75087658230288
27669.2 -0.650571541817437 0.752430024403963 0.000288965661215374 0.000233055303842356 0.000288965661215374 0.000233055303842356 -0.650571541817437 0.752430024403963
27671.0 -0.648716277247593 0.753988057956669 0.00029409893195519 0.000235972330667238 0.00029409893195519 0.000235972330667238 -0.648716277247593 0.753988057956669
27672.8 -0.64684612128872 0.755550677195301 0.000299335627749029 0.000238926923049348 0.000299335627749029 0.000238926923049348 -0.64684612128872 0.755550677195301
27674.6 -0.644960912609715 0.757117875636847 0.000304678070304706 0.00024191948521232 0.000304678070304706 0.00024191948521232 -0.644960912609715 0.757117875636847
27676.4 -0.643060487672007 0.758689646058654 0.000310128638453334 0.000244950420624355 0.000310128638453334 0.000244950420624355 -0.643060487672007 0.758689646058654
27678.2 -0.641144680693076 0.760265980475463 0.000315689769664121 0.000248020131673603 0.000315689769664121 0.000248020131673603 -0.641144680693076 0.760265980475463
27680.0 -0.639213323609284 0.761846870115751 0.000321363961601563 0.000251129019324308 0.000321363961601563 0.000251129019324308 -0.639213323609284 0.761846870115751
27681.8 -0.63726624603798 0.763432305397375 0.00032715377372633 0.000254277482752818 0.00032715377372633 0.000254277482752818 -0.63726624603798 0.763432305397375
27683.6 -0.635303275238872 0.765022275902506 0.000333061828941044 0.000257465918962442 0.000333061828941044 0.000257465918962442 -0.635303275238872 0.765022275902506
27685.4 -0.633324236074655 0.766616770351804 0.000339090815282268 0.000260694722376117 0.000339090815282268 0.000260694722376117 -0.633324236074655 0.766616770351804
27687.2 -0.631328950970861 0.768215776577838 0.000345243487660049 0.000263964284405829 0.000345243487660049 0.000263964284405829 -0.631328950970861 0.768215776577838
27689.0 -0.62931723987494 0.769819281497709 0.000351522669646305 0.000267274992997587 0.000351522669646305 0.000267274992997587 -0.62931723987494 0.769819281497709
27690.8 -0.627288920214526 0.771427271084859 0.000357931255313573 0.000270627232150833 0.000357931255313573 0.000270627232150833 -0.627288920214526 0.771427271084859
27692.6 -0.625243806854891 0.773039730340039 0.000364472211125444 0.000274021381410977 0.000364472211125444 0.000274021381410977 -0.625243806854891 0.773039730340039
27694.4 -0.623181712055563 0.774656643261401 0.000371148577880223 0.000277457815333777 0.000371148577880223 0.000277457815333777 -0.623181712055563 0.774656643261401
27696.2 -0.621102445426106 0.776277992813687 0.000377963472709263 0.000280936902920153 0.000377963472709263 0.000280936902920153 -0.621102445426106 0.776277992813687
27698.0 -0.619005813880977 0.777903760896524 0.00038492009113173 0.000284459007020114 0.00038492009113173 0.000284459007020114 -0.619005813880977 0.777903760896524
27699.8 -0.616891621593547 0.779533928311719 0.000392021709167067 0.000288024483704114 0.000392021709167067 0.000288024483704114 -0.616891621593547 0.779533928311719
27701.6 -0.614759669949178 0.781168474729593 0.000399271685507103 0.00029163368160041 0.000399271685507103 0.00029163368160041 -0.614759669949178 0.781168474729593
27703.4 -0.612609757497358 0.782807378654298 0.000406673463749375 0.000295286941196736 0.000406673463749375 0.000295286941196736 -0.612609757497358 0.782807378654298
27705.2 -0.610441679902916 0.784450617388063 0.000414230574693301 0.000298984594104487 0.000414230574693301 0.000298984594104487 -0.610441679902916 0.784450617388063
27707.0 -0.608255229896228 0.786098166994366 0.000421946638701134 0.000302726962283702 0.000421946638701134 0.000302726962283702 -0.608255229896228 0.786098166994366
27708.8 -0.606050197222438 0.787750002259986 0.000429825368125451 0.000306514357226913 0.000429825368125451 0.000306514357226913 -0.606050197222438 0.787750002259986
