! Created with skrf (http://scikit-rf.org).
! Parameters = {f0=12725.5; bw=41.3; Q=6100; N=12; m_0_1=1.2518988847732544; m_1_1=-0.001992508303374052; m_1_2=1.0546101331710815; m_2_2=-0.0009656145703047514; m_2_3=0.6689338684082031; m_2_10=-4.322784297983162e-05; m_2_11=0.011188280768692493; m_3_3=-0.0033175204880535603; m_3_4=0.5944368243217468; m_3_9=2.1513353203772567e-05; m_3_10=-0.01491747610270977; m_3_11=-4.322784297983162e-05; m_4_4=-0.0010544589022174478; m_4_5=0.5071666836738586; m_4_8=-1.9994249669252895e-05; m_4_9=-0.052212465554475784; m_4_10=2.1513353203772567e-05; m_5_5=-8.32391160656698e-05; m_5_6=0.4228290319442749; m_5_7=-0.0009228019043803215; m_5_8=0.044755034148693085; m_5_9=-1.9994249669252895e-05; m_6_6=0.0010578084038570523; m_6_7=0.6713033318519592; m_6_8=-0.0009228019043803215; m_7_7=3.4393324312986806e-05; m_7_8=0.4230159521102905; m_8_8=-7.245562301250175e-05; m_8_9=0.5072492361068726; m_9_9=-0.000936487631406635; m_9_10=0.5945284962654114; m_10_10=-0.003396328305825591; m_10_11=0.6693190336227417; m_11_11=-0.001229652320034802; m_11_12=1.0542027950286865; m_12_12=-0.003068110905587673; m_12_13=1.2518991231918335}
# MHz S RI R 50.0 
!freq ReS11 ImS11 ReS21 ImS21 ReS12 ImS12 ReS22 ImS22
12695.0 0.722790353596637 0.495241533469413 -0.00231612274484228 0.00326463108554651 -0.00231612274484228 0.00326463108554651 0.722790353596637 0.495241533469413
12695.06 0.725800850754406 0.489266876930276 -0.00229783984224426 0.00327066975663916 -0.00229783984224426 0.00327066975663916 0.725800850754406 0.489266876930276
12695.12 0.728780737785877 0.483228378591486 -0.00227930667570246 0.00327599064715289 -0.00227930667570246 0.00327599064715289 0.728780737785877 0.483228378591486
12695.18 0.731728970032429 0.477125520180453 -0.00226053289756723 0.00328057143085837 -0.00226053289756723 0.00328057143085837 0.731728970032429 0.477125520180453
12695.24 0.734644476916687 0.470957785577168 -0.00224152881494731 0.00328438947787383 -0.00224152881494731 0.00328438947787383 0.734644476916687 0.470957785577168
12695.3 0.737526161319213 0.464724661204721 -0.00222230541096664 0.00328742186513767 -0.00222230541096664 0.00328742186513767 0.737526161319213 0.464724661204721
12695.36 0.740372898941265 0.458425636441491 -0.00220287436613214 0.00328964538800099 -0.00220287436613214 0.00328964538800099 0.740372898941265 0.458425636441491
12695.42 0.74318353765387 0.452060204055133 -0.00218324807975869 0.00329103657299719 -0.00218324807975869 0.00329103657299719 0.74318353765387 0.452060204055133
12695.48 0.745956896832591 0.445627860660464 -0.00216343969139796 0.00329157169184599 -0.00216343969139796 0.00329157169184599 0.745956896832591 0.445627860660464
12695.54 0.748691766678624 0.439128107200536 -0.00214346310220285 0.00329122677675113 -0.00214346310220285 0.00329122677675113 0.748691766678624 0.439128107200536
12695.6 0.751386907525182 0.432560449454152 -0.00212333299616466 0.00328997763705099 -0.00212333299616466 0.00328997763705099 0.751386907525182 0.432560449454152
12695.66 0.754041049129142 0.42592439857093 -0.00210306486114647 0.00328779987728359 -0.00210306486114647 0.00328779987728359 0.754041049129142 0.42592439857093
12695.72 0.756652889948989 0.419219471632378 -0.00208267500962022 0.0032846689167264 -0.00208267500962022 0.0032846689167264 0.756652889948989 0.419219471632378
12695.78 0.759221096407591 0.412445192243693 -0.00206218059902586 0.00328056001047278 -0.00206218059902586 0.00328056001047278 0.759221096407591 0.412445192243693
12695.84 0.761744302140373 0.40560109115613 -0.00204159965164721 0.00327544827210654 -0.00204159965164721 0.00327544827210654 0.761744302140373 0.40560109115613
12695.9 0.764221107228885 0.398686706921372 -0.00202095107389428 0.00326930869803564 -0.00202095107389428 0.00326930869803564 0.764221107228885 0.398686706921372
12695.96 0.766650077419697 0.391701586579494 -0.00200025467487236 0.00326211619354539 -0.00200025467487236 0.00326211619354539 0.766650077419697 0.391701586579494
12696.02 0.76902974332869 0.384645286381993 -0.00197953118410658 0.00325384560063007 -0.00197953118410658 0.00325384560063007 0.76902974332869 0.384645286381993
12696.08 0.771358599630476 0.377517372552436 -0.00195880226828256 0.00324447172766153 -0.00195880226828256 0.00324447172766153 0.771358599630476 0.377517372552436
12696.14 0.773635104233539 0.370317422085081 -0.00193809054684445 0.00323396938094906 -0.00193809054684445 0.00323396938094906 0.773635104233539 0.370317422085081
12696.2 0.775857677441044 0.363045023583702 -0.00191741960628425 0.00322231339824247 -0.00191741960628425 0.00322231339824247 0.775857677441044 0.363045023583702
12696.26 0.778024701097199 0.355699778143363 -0.00189681401294355 0.00320947868422916 -0.00189681401294355 0.00320947868422916 0.778024701097199 0.355699778143363
12696.32 0.780134517719755 0.348281300276098 -0.00187629932412852 0.00319544024806794 -0.00187629932412852 0.00319544024806794 0.780134517719755 0.348281300276098
12696.38 0.78218542961882 0.340789218882693 -0.00185590209732681 0.00318017324299864 -0.00185590209732681 0.00318017324299864 0.78218542961882 0.340789218882693
12696.44 0.784175698002173 0.333223178273211 -0.00183564989729925 0.00316365300806152 -0.00183564989729925 0.00316365300806152 0.784175698002173 0.333223178273211
12696.5 0.786103542067675 0.325582839237818 -0.00181557130079823 0.00314585511195016 -0.00181557130079823 0.00314585511195016 0.786103542067675 0.325582839237818
12696.56 0.787967138083043 0.317867880170731 -0.00179569589864923 0.00312675539901553 -0.00179569589864923 0.00312675539901553 0.787967138083043 0.317867880170731
12696.62 0.789764618453554 0.310077998249732 -0.00177605429491075 0.00310633003742775 -0.00177605429491075 0.00310633003742775 0.789764618453554 0.310077998249732
12696.68 0.791494070778309 0.302212910673605 -0.00175667810280643 0.00308455556949004 -0.00175667810280643 0.00308455556949004 0.791494070778309 0.302212910673605
12696.74 0.793153536895934 0.294272355959189 -0.00173759993709953 0.00306140896408334 -0.00173759993709953 0.00306140896408334 0.793153536895934 0.294272355959189
12696.8 0.794741011919957 0.286256095303199 -0.00171885340256453 0.00303686767121423 -0.00171885340256453 0.00303686767121423 0.794741011919957 0.286256095303199
12696.86 0.796254443265265 0.278163914009376 -0.00170047307817493 0.00301090967860864 -0.00170047307817493 0.00301090967860864 0.796254443265265 0.278163914009376
12696.92 0.797691729666578 0.26999562298381 -0.00168249449660615 0.00298351357027873 -0.00168249449660615 0.00298351357027873 0.797691729666578 0.26999562298381
12696.98 0.799050720189335 0.261751060305454 -0.00166495411863446 0.00295465858698271 -0.00166495411863446 0.00295465858698271 0.799050720189335 0.261751060305454
12697.04 0.80032921323538 0.253430092868692 -0.00164788930196175 0.00292432468843767 -0.00164788930196175 0.00292432468843767 0.80032921323538 0.253430092868692
12697.1 0.801524955543821 0.245032618106627 -0.00163133826399309 0.00289249261715598 -0.00163133826399309 0.00289249261715598 0.801524955543821 0.245032618106627
12697.16 0.80263564118895 0.236558565796538 -0.00161534003804683 0.00285914396371977 -0.00161534003804683 0.00285914396371977 0.80263564118895 0.236558565796538
12697.22 0.803658910576861 0.228007899951317 -0.00159993442245068 0.00282426123328005 -0.00159993442245068 0.00282426123328005 0.803658910576861 0.228007899951317
12697.28 0.80459234944271 0.219380620799434 -0.00158516192194199 0.00278782791302136 -0.00158516192194199 0.00278782791302136 0.80459234944271 0.219380620799434
12697.34 0.805433487850195 0.210676766861226 -0.00157106368076625 0.00274982854030989 -0.00157106368076625 0.00274982854030989 0.805433487850195 0.210676766861226
12697.4 0.806179799196133 0.201896417119484 -0.00155768140681522 0.00271024877115278 -0.00155768140681522 0.00271024877115278 0.806179799196133 0.201896417119484
12697.46 0.806828699221854 0.193039693295285 -0.00154505728613368 0.00266907544859549 -0.00154505728613368 0.00266907544859549 0.806828699221854 0.193039693295285
12697.52 0.807377545034574 0.184106762228588 -0.00153323388706781 0.00262629667057492 -0.00153323388706781 0.00262629667057492 0.807377545034574 0.184106762228588
12697.58 0.807823634141495 0.175097838368894 -0.00152225405330235 0.00258190185670213 -0.00152225405330235 0.00258190185670213 0.807823634141495 0.175097838368894
12697.64 0.808164203499625 0.166013186383619 -0.00151216078499949 0.00253588181338637 -0.00151216078499949 0.00253588181338637 0.808164203499625 0.166013186383619
12697.7 0.808396428585003 0.156853123885949 -0.00150299710720765 0.00248822879660264 -0.00150299710720765 0.00248822879660264 0.808396428585003 0.156853123885949
12697.76 0.808517422485007 0.147618024287258 -0.00149480592467807 0.00243893657152867 -0.00149480592467807 0.00243893657152867 0.808517422485007 0.147618024287258
12697.82 0.80852423501775 0.138308319782422 -0.00148762986219464 0.00238800046819577 -0.00148762986219464 0.00238800046819577 0.80852423501775 0.138308319782422
12697.88 0.808413851883145 0.128924504469423 -0.0014815110894816 0.00233541743215317 -0.0014815110894816 0.00233541743215317 0.808413851883145 0.128924504469423
12697.94 0.808183193850345 0.119467137611043 -0.00147649112972909 0.00228118606905788 -0.00147649112972909 0.00228118606905788 0.808183193850345 0.119467137611043
12698.0 0.807829115986883 0.109936847045254 -0.00147261065074476 0.00222530668196687 -0.00147261065074476 0.00222530668196687 0.807829115986883 0.109936847045254
12698.06 0.80734840693505 0.100334332745743 -0.001469909237712 0.00216778129993441 -0.001469909237712 0.00216778129993441 0.80734840693505 0.100334332745743
12698.12 0.806737788241875 0.0906603705459416 -0.00146842514651913 0.00210861369642976 -0.00146842514651913 0.00210861369642976 0.806737788241875 0.0906603705459416
12698.18 0.805993913749115 0.0809158160251848 -0.00146819503660076 0.00204780939583438 -0.00146819503660076 0.00204780939583438 0.805993913749115 0.0809158160251848
12698.24 0.805113369050532 0.0711016085675573 -0.00146925368222786 0.00198537566616069 -0.00146925368222786 0.00198537566616069 0.805113369050532 0.0711016085675573
12698.3 0.804092671024287 0.0612187755997231 -0.00147163366117758 0.00192132149590799 -0.00147163366117758 0.00192132149590799 0.804092671024287 0.0612187755997231
12698.36 0.802928267448741 0.0512684370132366 -0.00147536501972042 0.00185565755274674 -0.00147536501972042 0.00185565755274674 0.802928267448741 0.0512684370132366
12698.42 0.801616536710679 0.0412518097780471 -0.00148047491288007 0.00178839612149002 -0.00148047491288007 0.00178839612149002 0.801616536710679 0.0412518097780471
12698.48 0.800153787615919 0.0311702127559653 -0.00148698721894905 0.00171955101856765 -0.00148698721894905 0.00171955101856765 0.800153787615919 0.0311702127559653
12698.54 0.798536259312426 0.0210250717177438 -0.00149492212728977 0.00164913747990487 -0.00149492212728977 0.00164913747990487 0.798536259312426 0.0210250717177438
12698.6 0.796760121337593 0.0108179245738741 -0.00150429569850866 0.00157717201884912 -0.00150429569850866 0.00157717201884912 0.796760121337593 0.0108179245738741
12698.66 0.794821473801775 0.000550426825162829 -0.00151511939617323 0.0015036722504367 -0.00151511939617323 0.0015036722504367 0.794821473801775 0.000550426825162829
12698.72 0.79271634772101 -0.00977564276063979 -0.00152739958934585 0.00142865667794282 -0.00152739958934585 0.00142865667794282 0.79271634772101 -0.00977564276063979
12698.78 0.790440705513174 -0.0201583762379162 -0.00154113702533569 0.00135214443729648 -0.00154113702533569 0.00135214443729648 0.790440705513174 -0.0201583762379162
12698.84 0.787990441672799 -0.0305957303304965 -0.00155632627222986 0.00127415499453467 -0.00155632627222986 0.00127415499453467 0.787990441672799 -0.0305957303304965
12698.9 0.785361383640136 -0.0410855200330659 -0.00157295513096253 0.00119470779101526 -0.00157295513096253 0.00119470779101526 0.785361383640136 -0.0410855200330659
12698.96 0.782549292883026 -0.0516254119545998 -0.00159100401690235 0.00111382183070738 -0.00159100401690235 0.00111382183070738 0.782549292883026 -0.0516254119545998
12699.02 0.779549866209037 -0.0622129174024111 -0.00161044531122933 0.00103151520331078 -0.00161044531122933 0.00103151520331078 0.779549866209037 -0.0622129174024111
12699.08 0.776358737328813 -0.0728453851962793 -0.00163124268268503 0.000947804536504413 -0.00163124268268503 0.000947804536504413 0.776358737328813 -0.0728453851962793
12699.14 0.772971478691701 -0.0835199942080651 -0.0016533503806708 0.000862704370032014 -0.0016533503806708 0.000862704370032014 0.772971478691701 -0.0835199942080651
12699.2 0.769383603616155 -0.0942337456220938 -0.00167671250111598 0.000776226443752103 -0.00167671250111598 0.000776226443752103 0.769383603616155 -0.0942337456220938
12699.26 0.765590568741027 -0.104983454905944 -0.00170126222704185 0.000688378891217811 -0.00170126222704185 0.000688378891217811 0.765590568741027 -0.104983454905944
12699.32 0.761587776821662 -0.115765743493857 -0.0017269210463709 0.000599165329613253 -0.0017269210463709 0.000599165329613253 0.761587776821662 -0.115765743493857
12699.38 0.757370579901167 -0.126577030171275 -0.00175359795018816 0.000508583836319601 -0.00175359795018816 0.000508583836319601 0.757370579901167 -0.126577030171275
12699.44 0.752934282885657 -0.13741352216045 -0.00178118861547139 0.000416625801603372 -0.00178118861547139 0.000416625801603372 0.752934282885657 -0.13741352216045
12699.5 0.748274147555399 -0.148271205904238 -0.00180957457719967 0.000323274646232799 -0.00180957457719967 0.000323274646232799 0.748274147555399 -0.148271205904238
12699.56 0.743385397046386 -0.159145837544926 -0.00183862239577016 0.000228504392102933 -0.00183862239577016 0.000228504392102933 0.743385397046386 -0.159145837544926
12699.62 0.738263220838887 -0.170032933097095 -0.00186818282681609 0.000132278073196766 -0.00186818282681609 0.000132278073196766 0.738263220838887 -0.170032933097095
12699.68 0.732902780291338 -0.180927758315808 -0.00189809000183613 3.45459734476181e-05 -0.00189809000183613 3.45459734476181e-05 0.732902780291338 -0.180927758315808
12699.74 0.727299214760731 -0.19182531826215 -0.00192816062952584 -6.47563226752841e-05 -0.00192816062952584 -6.47563226752841e-05 0.727299214760731 -0.19182531826215
12699.8 0.721447648354574 -0.202720346567325 -0.00195819322936256 -0.000165710081748805 -0.00195819322936256 -0.000165710081748805 0.721447648354574 -0.202720346567325
12699.86 0.715343197358577 -0.213607294405651 -0.00198796741088659 -0.000268415790811357 -0.00198796741088659 -0.000268415790811357 0.715343197358577 -0.213607294405651
12699.92 0.708980978392463 -0.224480319178416 -0.0020172432141875 -0.000372995760849947 -0.0020172432141875 -0.000372995760849947 0.708980978392463 -0.224480319178416
12699.98 0.702356117345605 -0.235333272920675 -0.00204576052946414 -0.000479596981272769 -0.00204576052946414 -0.000479596981272769 0.702356117345605 -0.235333272920675
12700.04 0.695463759145678 -0.246159690447887 -0.00207323861613696 -0.000588394242830229 -0.00207323861613696 -0.000588394242830229 0.695463759145678 -0.246159690447887
12700.1 0.688299078423663 -0.256952777250857 -0.00209937574485241 -0.000699593546753271 -0.00209937574485241 -0.000699593546753271 0.688299078423663 -0.256952777250857
12700.16 0.680857291134406 -0.267705397163958 -0.00212384898895932 -0.000813435818282668 -0.00212384898895932 -0.000813435818282668 0.680857291134406 -0.267705397163958
12700.22 0.67313366719963 -0.278410059828144 -0.00214631419555712 -0.000930200942799402 -0.00214631419555712 -0.000930200942799402 0.67313366719963 -0.278410059828144
12700.28 0.665123544243638 -0.289058907975571 -0.0021664061701196 -0.00105021214266539 -0.0021664061701196 -0.00105021214266539 0.665123544243638 -0.289058907975571
12700.34 0.656822342493199 -0.299643704570901 -0.00218373911298928 -0.00117384071255047 -0.00218373911298928 -0.00117384071255047 0.656822342493199 -0.299643704570901
12700.4 0.648225580922441 -0.310155819842424 -0.00219790735071651 -0.00130151113025201 -0.00219790735071651 -0.00130151113025201 0.648225580922441 -0.310155819842424
12700.46 0.639328894719285 -0.320586218253219 -0.00220848641035941 -0.00143370655906824 -0.00220848641035941 -0.00143370655906824 0.639328894719285 -0.320586218253219
12700.52 0.630128054162452 -0.330925445457954 -0.00221503449041433 -0.00157097475613885 -0.00221503449041433 -0.00157097475613885 0.630128054162452 -0.330925445457954
12700.58 0.62061898499644 -0.341163615306065 -0.00221709438809937 -0.0017139343991947 -0.00221709438809937 -0.0017139343991947 0.62061898499644 -0.341163615306065
12700.64 0.610797790396724 -0.351290396958775 -0.00221419594922784 -0.00186328184146249 -0.00221419594922784 -0.00186328184146249 0.610797790396724 -0.351290396958775
12700.7 0.600660774625177 -0.361295002192766 -0.00220585911391462 -0.00201979830099568 -0.00220585911391462 -0.00201979830099568 0.600660774625177 -0.361295002192766
12700.76 0.590204468473306 -0.371166172980344 -0.00219159763885267 -0.00218435748652541 -0.00219159763885267 -0.00218435748652541 0.590204468473306 -0.371166172980344
12700.82 0.579425656601163 -0.380892169440428 -0.00217092358486471 -0.00235793365656932 -0.00217092358486471 -0.00235793365656932 0.579425656601163 -0.380892169440428
12700.88 0.56832140687638 -0.390460758274095 -0.00214335266685093 -0.00254161010224878 -0.00214335266685093 -0.00254161010224878 0.56832140687638 -0.390460758274095
12700.94 0.556889101827823 -0.399859201805633 -0.0021084105720955 -0.00273658803646476 -0.0021084105720955 -0.00273658803646476 0.556889101827823 -0.399859201805633
12701.0 0.545126472325203 -0.409074247771002 -0.0020656403620817 -0.00294419586299922 -0.0020656403620817 -0.00294419586299922 0.545126472325203 -0.409074247771002
12701.06 0.533031633602828 -0.4180921200083 -0.0020146110824476 -0.00316589878817051 -0.0020146110824476 -0.00316589878817051 0.533031633602828 -0.4180921200083
12701.12 0.520603123742285 -0.426898510227571 -0.00195492771534635 -0.00340330872498986 -0.00195492771534635 -0.00340330872498986 0.520603123742285 -0.426898510227571
12701.18 0.507839944732301 -0.435478571055176 -0.00188624261815774 -0.00365819442481703 -0.00188624261815774 -0.00365819442481703 0.507839944732301 -0.435478571055176
12701.24 0.494741606224102 -0.443816910570305 -0.00180826860203518 -0.00393249175419825 -0.00180826860203518 -0.00393249175419825 0.494741606224102 -0.443816910570305
12701.3 0.48130817209487 -0.451897588578534 -0.00172079381291198 -0.00422831401467946 -0.00172079381291198 -0.00422831401467946 0.48130817209487 -0.451897588578534
12701.36 0.467540309932363 -0.459704114891612 -0.00162369858611295 -0.00454796218039402 -0.00162369858611295 -0.00454796218039402 0.467540309932363 -0.459704114891612
12701.42 0.453439343540485 -0.467219449916734 -0.00151697445317672 -0.00489393490223614 -0.00151697445317672 -0.00489393490223614 0.453439343540485 -0.467219449916734
12701.48 0.439007308569906 -0.474426007883505 -0.00140074548566527 -0.00526893809745373 -0.00140074548566527 -0.00526893809745373 0.439007308569906 -0.474426007883505
12701.54 0.424247011353096 -0.481305663079983 -0.00127529216482023 -0.00567589391024992 -0.00127529216482023 -0.00567589391024992 0.424247011353096 -0.481305663079983
12701.6 0.409162091011053 -0.487839759504701 -0.00114107796757935 -0.00611794879129879 -0.00114107796757935 -0.00611794879129879 0.409162091011053 -0.487839759504701
12701.66 0.39375708488998 -0.494009124378103 -0.000998778857976126 -0.00659848040175331 -0.000998778857976126 -0.00659848040175331 0.39375708488998 -0.494009124378103
12701.72 0.378037497348517 -0.49979408600779 -0.000849315867194686 -0.00712110300101274 -0.000849315867194686 -0.00712110300101274 0.378037497348517 -0.49979408600779
12701.78 0.362009871890301 -0.505174496546383 -0.00069389093490231 -0.00768967092601921 -0.00069389093490231 -0.00768967092601921 0.362009871890301 -0.505174496546383
