# Hz S DB R 50
! Planar, S50244, 24171007, 25.4.1/6
! Date: 15.10.2025 10:23:33
! Data: Format (Calibration Info)
! Freq	S11:dB/Ang(F2)	S21:dB/Ang(F2)	S12:dB/Ang(F2)	S22:dB/Ang(F2)
1.13000000000E+10	-3.21975873559E-01	1.45180206910E+02	-8.80940845397E+01	4.98073860379E+01	-8.91338846295E+01	4.40034144804E+01	-3.15505265998E-01	1.42864652418E+02
1.13005000000E+10	-3.22217206971E-01	1.45090541370E+02	-8.80947977022E+01	5.58250719611E+01	-8.86483635689E+01	4.39696598320E+01	-3.15507395928E-01	1.42767067682E+02
1.13010000000E+10	-3.21279948035E-01	1.44994599909E+02	-8.66460272955E+01	6.02474833609E+01	-9.04735056817E+01	6.81957681728E+01	-3.12873681915E-01	1.42685107893E+02
1.13015000000E+10	-3.21930171549E-01	1.44915576984E+02	-9.06806837220E+01	7.14930303156E+01	-8.72545011562E+01	6.98448066986E+01	-3.13974913748E-01	1.42604270595E+02
1.13020000000E+10	-3.21150449730E-01	1.44803726733E+02	-8.64942922244E+01	5.80989825941E+01	-8.70435841198E+01	6.37147307409E+01	-3.14604185459E-01	1.42517172046E+02
1.13025000000E+10	-3.21166554225E-01	1.44708521394E+02	-8.89778790689E+01	5.16543423162E+01	-8.75338079113E+01	4.21846497019E+01	-3.14514696474E-01	1.42431919934E+02
1.13030000000E+10	-3.21805467721E-01	1.44629415952E+02	-8.81485839775E+01	3.01168695238E+01	-9.38675155823E+01	4.31012445104E+01	-3.11375698640E-01	1.42333943981E+02
1.13035000000E+10	-3.20515424540E-01	1.44522587836E+02	-8.86651918526E+01	3.69255530926E+01	-8.80507125610E+01	5.25426719286E+01	-3.11823270155E-01	1.42247156557E+02
1.13040000000E+10	-3.21684675506E-01	1.44423568351E+02	-8.84149015512E+01	3.95168077489E+01	-8.76332475740E+01	5.47434062892E+01	-3.13538812420E-01	1.42166492127E+02
1.13045000000E+10	-3.20254580028E-01	1.44326900604E+02	-8.91822671451E+01	3.05600068637E+01	-8.63338609502E+01	4.91134384395E+01	-3.12725753519E-01	1.42070228812E+02
1.13050000000E+10	-3.18738619318E-01	1.44247197489E+02	-8.70298353139E+01	4.41038815885E+01	-9.01140127553E+01	3.01145217225E+01	-3.18758651072E-01	1.41966686834E+02
1.13055000000E+10	-3.20407289046E-01	1.44151491239E+02	-9.47642145778E+01	5.40452681957E+01	-8.91215623665E+01	9.41017535520E+01	-3.11144499253E-01	1.41894473194E+02
1.13060000000E+10	-3.18556273740E-01	1.44053789715E+02	-8.88364815894E+01	5.10316153285E+01	-8.86319787047E+01	5.95469029579E+01	-3.10759016383E-01	1.41795388968E+02
1.13065000000E+10	-3.20749428785E-01	1.43960072179E+02	-8.65450023358E+01	4.10671682172E+01	-8.62794877598E+01	5.08782853634E+01	-3.12849996793E-01	1.41701792441E+02
1.13070000000E+10	-3.19035822721E-01	1.43875025407E+02	-8.91480545102E+01	5.09589681579E+01	-8.76104690864E+01	5.04134486602E+01	-3.11807391349E-01	1.41612664677E+02
1.13075000000E+10	-3.21468947234E-01	1.43778701521E+02	-9.03601600553E+01	5.96934656283E+01	-9.01681982394E+01	6.39830672617E+01	-3.12439669827E-01	1.41534641310E+02
1.13080000000E+10	-3.20449289982E-01	1.43697264609E+02	-8.94257741476E+01	4.71635687624E+01	-9.13185834825E+01	5.93681063435E+01	-3.09125858749E-01	1.41452287108E+02
1.13085000000E+10	-3.19685352226E-01	1.43578535425E+02	-8.66393453912E+01	6.79853382360E+01	-8.73247524340E+01	3.20087180097E+01	-3.14509793507E-01	1.41345943131E+02
1.13090000000E+10	-3.20488786233E-01	1.43483451227E+02	-8.81311921552E+01	4.56317122376E+01	-8.98908898856E+01	5.98947800778E+01	-3.11256566698E-01	1.41257362095E+02
1.13095000000E+10	-3.19880460769E-01	1.43389393077E+02	-8.78723676265E+01	3.14960503237E+01	-8.76292086647E+01	6.29717869583E+01	-3.11835870664E-01	1.41148423040E+02
1.13100000000E+10	-3.17612798786E-01	1.43284155093E+02	-8.65383638891E+01	4.74824493579E+01	-8.84493581370E+01	5.34219860434E+01	-3.08113321717E-01	1.41067275212E+02
1.13105000000E+10	-3.20272240304E-01	1.43189462591E+02	-9.11015083998E+01	4.64830076828E+01	-8.72615463424E+01	6.96059481369E+01	-3.11714032853E-01	1.40961045639E+02
1.13110000000E+10	-3.18834615415E-01	1.43089259559E+02	-8.67779583425E+01	5.42245967489E+01	-8.71202594542E+01	6.15301496310E+01	-3.11932824672E-01	1.40871984006E+02
1.13115000000E+10	-3.21080522326E-01	1.43004371531E+02	-8.84921668890E+01	5.80725032207E+01	-8.75884938275E+01	6.50700152393E+01	-3.10961924198E-01	1.40801023484E+02
1.13120000000E+10	-3.19086580541E-01	1.42909062546E+02	-8.91762650974E+01	5.98467584620E+01	-8.60651521944E+01	5.49935115259E+01	-3.13182256650E-01	1.40691629414E+02
1.13125000000E+10	-3.20371694221E-01	1.42836296287E+02	-8.81785980021E+01	4.36669655563E+01	-8.83070473924E+01	6.94539058858E+01	-3.09753729778E-01	1.40608550483E+02
1.13130000000E+10	-3.18308840073E-01	1.42719758650E+02	-8.83215436535E+01	5.23989000221E+01	-8.87606678060E+01	6.42703904783E+01	-3.11804159971E-01	1.40519616623E+02
1.13135000000E+10	-3.20356894112E-01	1.42616146773E+02	-8.82212192568E+01	4.77899417197E+01	-8.84319263143E+01	6.23889679627E+01	-3.07722812303E-01	1.40432407985E+02
1.13140000000E+10	-3.20311355748E-01	1.42513032494E+02	-8.93873035139E+01	3.73087257312E+01	-8.64608399861E+01	5.78872510407E+01	-3.11614635219E-01	1.40349001885E+02
1.13145000000E+10	-3.19320890782E-01	1.42419778632E+02	-9.00031295362E+01	4.99547437885E+01	-8.61503090530E+01	5.16684160966E+01	-3.10733496443E-01	1.40249118002E+02
1.13150000000E+10	-3.18866538409E-01	1.42320561685E+02	-8.67637847532E+01	4.45947626272E+01	-8.97065069739E+01	6.33459751782E+01	-3.07819095456E-01	1.40148569697E+02
1.13155000000E+10	-3.17919415839E-01	1.42226939560E+02	-8.61113588360E+01	5.14387347691E+01	-8.64385538814E+01	5.83795385789E+01	-3.10431656006E-01	1.40059083519E+02
1.13160000000E+10	-3.19348332419E-01	1.42131156204E+02	-8.74630720772E+01	5.28971228710E+01	-8.93659110503E+01	4.89878316059E+01	-3.11553455759E-01	1.39979079398E+02
1.13165000000E+10	-3.18630234457E-01	1.42037821189E+02	-9.14489496804E+01	5.21164996098E+01	-8.80925931164E+01	4.29099201307E+01	-3.13686554844E-01	1.39882152521E+02
1.13170000000E+10	-3.18484521431E-01	1.41933395465E+02	-8.81159253232E+01	3.54248667947E+01	-8.59305450371E+01	6.22827870773E+01	-3.09495867642E-01	1.39784460065E+02
1.13175000000E+10	-3.18605379937E-01	1.41828673139E+02	-8.51411109574E+01	4.46974668165E+01	-9.01810349168E+01	4.60507279261E+01	-3.12617665962E-01	1.39688077512E+02
1.13180000000E+10	-3.18517097826E-01	1.41730155662E+02	-8.87717097204E+01	5.28550192504E+01	-8.96641981562E+01	3.56070956833E+01	-3.12876402008E-01	1.39582033697E+02
1.13185000000E+10	-3.19895769425E-01	1.41639030941E+02	-8.70210138624E+01	5.07443321917E+01	-9.04368955411E+01	2.76860810305E+01	-3.12135536840E-01	1.39504648018E+02
1.13190000000E+10	-3.19005425091E-01	1.41534705612E+02	-8.50546641957E+01	3.30853279347E+01	-8.68759450360E+01	3.29577530089E+01	-3.07911141812E-01	1.39401924548E+02
1.13195000000E+10	-3.21087575248E-01	1.41437091339E+02	-8.82262442772E+01	4.18864374093E+01	-8.88994854334E+01	6.16560251069E+01	-3.09967760446E-01	1.39310489380E+02
1.13200000000E+10	-3.17853359901E-01	1.41351442872E+02	-9.03637622637E+01	6.16066112888E+01	-8.86649417991E+01	5.25576062553E+01	-3.11570217526E-01	1.39218965756E+02
1.13205000000E+10	-3.19201498876E-01	1.41245717160E+02	-8.74776090399E+01	5.00220199708E+01	-8.83684451735E+01	5.07928118140E+01	-3.10096089523E-01	1.39124440782E+02
1.13210000000E+10	-3.20196369007E-01	1.41137776141E+02	-8.86290676873E+01	3.38763967641E+01	-8.69457027790E+01	3.15825663503E+01	-3.10390421308E-01	1.39028982354E+02
1.13215000000E+10	-3.18426015210E-01	1.41054630826E+02	-8.95045800213E+01	3.81650198407E+01	-8.88223183123E+01	5.09140809618E+01	-3.11519751699E-01	1.38930914497E+02
1.13220000000E+10	-3.18362030141E-01	1.40945342180E+02	-8.87813323606E+01	5.10018178420E+01	-8.71802752644E+01	5.33839037183E+01	-3.08329434956E-01	1.38853840955E+02
1.13225000000E+10	-3.16321080328E-01	1.40840173807E+02	-8.97363072083E+01	4.91386744835E+01	-8.72183304692E+01	5.31068412844E+01	-3.11001370792E-01	1.38745588627E+02
1.13230000000E+10	-3.18160400239E-01	1.40751717930E+02	-8.70899603814E+01	3.30634506763E+01	-8.95552082885E+01	5.92779217079E+01	-3.09307272172E-01	1.38660054778E+02
1.13235000000E+10	-3.20188417326E-01	1.40643010108E+02	-8.62714061554E+01	4.46819121417E+01	-8.72913467945E+01	3.49414413727E+01	-3.09785796727E-01	1.38568862323E+02
1.13240000000E+10	-3.16212520019E-01	1.40536866431E+02	-8.73150379980E+01	5.27428031751E+01	-8.79649766703E+01	4.20623053812E+01	-3.10026892792E-01	1.38486247717E+02
1.13245000000E+10	-3.19065436456E-01	1.40447684555E+02	-8.76735275905E+01	4.54282080604E+01	-8.76511037396E+01	3.28961181085E+01	-3.09718972018E-01	1.38368172033E+02
1.13250000000E+10	-3.18741960269E-01	1.40355347269E+02	-8.95212232509E+01	5.18410908260E+01	-8.96415732632E+01	4.13909478577E+01	-3.10353174721E-01	1.38288059167E+02
1.13255000000E+10	-3.15765269748E-01	1.40241219080E+02	-8.73075449097E+01	4.49117328802E+01	-8.86319933488E+01	4.25632265665E+01	-3.09205510244E-01	1.38187740994E+02
1.13260000000E+10	-3.19377785591E-01	1.40130870111E+02	-8.81224768008E+01	5.17551569503E+01	-9.11462906856E+01	4.66942127391E+01	-3.07684747283E-01	1.38074431083E+02
1.13265000000E+10	-3.18317318391E-01	1.40029656734E+02	-8.71716453939E+01	5.37865149796E+01	-9.10037344924E+01	5.48107077881E+01	-3.09203864889E-01	1.37994850152E+02
1.13270000000E+10	-3.19026807648E-01	1.39928963142E+02	-8.71930022118E+01	2.88687826270E+01	-8.69935732929E+01	6.13863589302E+01	-3.09811931361E-01	1.37898073048E+02
1.13275000000E+10	-3.19923432973E-01	1.39840923271E+02	-8.76791999149E+01	3.66328804648E+01	-8.75461495314E+01	4.05609807149E+01	-3.09126769080E-01	1.37806399723E+02
1.13280000000E+10	-3.17795935914E-01	1.39728565915E+02	-9.03348257518E+01	4.61161209208E+01	-8.82215719978E+01	4.26310683769E+01	-3.08226462583E-01	1.37704624466E+02
1.13285000000E+10	-3.17410452491E-01	1.39617351489E+02	-8.68938030513E+01	5.44736019623E+01	-8.51667860295E+01	4.63827103423E+01	-3.08519990446E-01	1.37607467241E+02
1.13290000000E+10	-3.15981302582E-01	1.39526743629E+02	-8.74178453831E+01	5.25091807570E+01	-8.78274485600E+01	4.74585805984E+01	-3.09009218260E-01	1.37520986383E+02
1.13295000000E+10	-3.16750072284E-01	1.39419533067E+02	-8.66905331364E+01	4.92724212888E+01	-8.78342588329E+01	5.42502279034E+01	-3.10925501956E-01	1.37418406236E+02
1.13300000000E+10	-3.19105387734E-01	1.39306689073E+02	-8.91865018829E+01	5.27014433820E+01	-8.82071176490E+01	4.79275374648E+01	-3.09937631800E-01	1.37313602919E+02
1.13305000000E+10	-3.18481315661E-01	1.39226244572E+02	-8.74144433166E+01	4.95567103993E+01	-8.93732013061E+01	5.25252401445E+01	-3.08550445662E-01	1.37220099092E+02
1.13310000000E+10	-3.17368583968E-01	1.39114389503E+02	-8.91583811712E+01	5.62228341672E+01	-8.73483943428E+01	4.92783338071E+01	-3.09046147206E-01	1.37126250063E+02
1.13315000000E+10	-3.18596421342E-01	1.39022878141E+02	-8.84156872415E+01	5.49624587503E+01	-8.83934690314E+01	4.47923841856E+01	-3.10899750907E-01	1.37021634768E+02
1.13320000000E+10	-3.16013651094E-01	1.38917155229E+02	-8.76170886157E+01	4.34612643544E+01	-8.96852723377E+01	5.38018892722E+01	-3.11648680159E-01	1.36937877245E+02
1.13325000000E+10	-3.16396465776E-01	1.38796391293E+02	-8.66413711632E+01	5.43065433826E+01	-8.64127349147E+01	5.66349305764E+01	-3.11666576561E-01	1.36836539860E+02
1.13330000000E+10	-3.15193912650E-01	1.38696878399E+02	-8.81217689064E+01	4.45711804539E+01	-8.72085100934E+01	2.71659375920E+01	-3.09610049832E-01	1.36748265302E+02
1.13335000000E+10	-3.16143200996E-01	1.38606762059E+02	-8.75231600401E+01	5.75644175101E+01	-8.94586093108E+01	4.62646558629E+01	-3.09029417369E-01	1.36634331840E+02
1.13340000000E+10	-3.16413753770E-01	1.38502390645E+02	-8.68620828486E+01	4.87865724122E+01	-8.74989231166E+01	4.93040906487E+01	-3.12322106593E-01	1.36561113812E+02
1.13345000000E+10	-3.14899691378E-01	1.38377726019E+02	-8.78409134907E+01	5.83943175718E+01	-8.76921546093E+01	3.97920717252E+01	-3.10335424727E-01	1.36449091332E+02
1.13350000000E+10	-3.17529517848E-01	1.38262046729E+02	-8.67872164364E+01	5.13636631485E+01	-8.95545690993E+01	4.39018599561E+01	-3.09647142933E-01	1.36357866233E+02
1.13355000000E+10	-3.19104440341E-01	1.38158872848E+02	-8.52977229982E+01	5.02098803569E+01	-8.90171389768E+01	4.72832129771E+01	-3.11897631094E-01	1.36258782545E+02
1.13360000000E+10	-3.19371735140E-01	1.38054468048E+02	-8.56458041967E+01	4.19112861457E+01	-8.61302183198E+01	4.61622699184E+01	-3.10683629584E-01	1.36160150763E+02
1.13365000000E+10	-3.18721317049E-01	1.37981761693E+02	-9.06172420462E+01	4.40532471345E+01	-8.77182688968E+01	4.91463376618E+01	-3.09322108515E-01	1.36038957127E+02
1.13370000000E+10	-3.18823600577E-01	1.37863608966E+02	-8.61394116442E+01	4.05396277221E+01	-8.89458412458E+01	5.80655376882E+01	-3.07298211782E-01	1.35955862077E+02
1.13375000000E+10	-3.19469396903E-01	1.37760194757E+02	-8.90650425177E+01	5.20026800777E+01	-8.67920416141E+01	5.76763600741E+01	-3.08591682285E-01	1.35854871415E+02
1.13380000000E+10	-3.18928148311E-01	1.37656990545E+02	-8.81256388136E+01	6.01879213564E+01	-8.64813186935E+01	3.78446097767E+01	-3.10353412479E-01	1.35763119811E+02
1.13385000000E+10	-3.17114346630E-01	1.37555217324E+02	-9.08291043888E+01	5.79101430818E+01	-8.81735511264E+01	4.23114886939E+01	-3.09859463504E-01	1.35667870349E+02
1.13390000000E+10	-3.17833485481E-01	1.37442954181E+02	-8.83717647576E+01	5.21900871197E+01	-8.84486998004E+01	5.61977138298E+01	-3.10803230768E-01	1.35547432417E+02
1.13395000000E+10	-3.17518044150E-01	1.37333827084E+02	-8.61328686724E+01	5.21023945770E+01	-9.09300515288E+01	5.17007102433E+01	-3.10987458890E-01	1.35464789191E+02
1.13400000000E+10	-3.17975548011E-01	1.37219576027E+02	-8.77430863563E+01	5.48632360785E+01	-8.84036018819E+01	4.15894351683E+01	-3.09893250784E-01	1.35354490727E+02
1.13405000000E+10	-3.18359661540E-01	1.37117869840E+02	-8.80322586124E+01	4.72904586833E+01	-8.71541797427E+01	4.70495500016E+01	-3.13232837084E-01	1.35250562961E+02
1.13410000000E+10	-3.17912872548E-01	1.37015612758E+02	-8.75953736434E+01	3.86699199118E+01	-8.58093132726E+01	4.84412972734E+01	-3.12642013272E-01	1.35159200646E+02
1.13415000000E+10	-3.17663343332E-01	1.36904346496E+02	-8.61129274140E+01	4.58768985850E+01	-8.93036475066E+01	4.57675189847E+01	-3.11747475539E-01	1.35059163391E+02
1.13420000000E+10	-3.18524359244E-01	1.36795925996E+02	-8.86709580254E+01	4.38587066171E+01	-8.70297109270E+01	4.52903358277E+01	-3.09982124294E-01	1.34949081741E+02
1.13425000000E+10	-3.21290923366E-01	1.36689059780E+02	-8.79799831754E+01	3.91039506981E+01	-8.61142025586E+01	4.32280990828E+01	-3.10464256177E-01	1.34858368027E+02
1.13430000000E+10	-3.17668377443E-01	1.36565355780E+02	-8.61143344463E+01	3.95623282917E+01	-8.74677646392E+01	3.98396818257E+01	-3.10297445019E-01	1.34750183945E+02
1.13435000000E+10	-3.19457920839E-01	1.36467603328E+02	-8.92886441231E+01	3.63164161334E+01	-8.75609263617E+01	4.62774959409E+01	-3.09421187076E-01	1.34661705264E+02
1.13440000000E+10	-3.21068115431E-01	1.36366697109E+02	-8.80767509318E+01	3.22464066982E+01	-8.74194975117E+01	5.06822641699E+01	-3.12581384777E-01	1.34543122867E+02
1.13445000000E+10	-3.18789978830E-01	1.36254949333E+02	-8.64959054937E+01	4.73874710359E+01	-8.86965675985E+01	3.59773241424E+01	-3.12303299979E-01	1.34450459602E+02
1.13450000000E+10	-3.16648279229E-01	1.36141732505E+02	-8.77955986818E+01	5.13205992951E+01	-8.66029762486E+01	4.87672496705E+01	-3.11150695954E-01	1.34355765761E+02
1.13455000000E+10	-3.17037486449E-01	1.36025305399E+02	-8.66266091195E+01	5.06131516908E+01	-8.47586555861E+01	3.59612980745E+01	-3.10451980282E-01	1.34241485122E+02
1.13460000000E+10	-3.20074923812E-01	1.35930479943E+02	-8.56129887569E+01	4.60405806702E+01	-8.65569425680E+01	4.05186184986E+01	-3.10688492652E-01	1.34141263441E+02
1.13465000000E+10	-3.18015535706E-01	1.35807990562E+02	-8.66124271111E+01	4.86856388795E+01	-8.54494608455E+01	4.60028452043E+01	-3.13841863007E-01	1.34030900057E+02
1.13470000000E+10	-3.18399332564E-01	1.35681491669E+02	-8.74270113871E+01	3.46685620518E+01	-8.70430290970E+01	5.37265696208E+01	-3.12028808902E-01	1.33930782588E+02
1.13475000000E+10	-3.19677130684E-01	1.35599409201E+02	-8.64466702508E+01	4.61367803310E+01	-8.72767369563E+01	4.68021400534E+01	-3.12024197621E-01	1.33824233572E+02
1.13480000000E+10	-3.19124447629E-01	1.35494310870E+02	-8.97028575310E+01	4.17775174817E+01	-8.88810625844E+01	3.62666299359E+01	-3.12694043260E-01	1.33714195976E+02
1.13485000000E+10	-3.17385085268E-01	1.35371837983E+02	-8.71339391429E+01	4.43757487214E+01	-8.61779462760E+01	3.30046359922E+01	-3.11571327154E-01	1.33620436946E+02
1.13490000000E+10	-3.17066902973E-01	1.35259720003E+02	-8.57961779853E+01	5.33735073783E+01	-8.63393975693E+01	4.03642980433E+01	-3.12233284381E-01	1.33505421822E+02
1.13495000000E+10	-3.17736941808E-01	1.35141755019E+02	-8.70396139253E+01	4.62836694408E+01	-8.84063540357E+01	5.09448379809E+01	-3.13170672714E-01	1.33413332533E+02
1.13500000000E+10	-3.20320435751E-01	1.35043441668E+02	-8.68644162606E+01	3.79773102702E+01	-8.63519546835E+01	4.75461297003E+01	-3.13456713098E-01	1.33296447822E+02
1.13505000000E+10	-3.21052394895E-01	1.34932032225E+02	-8.75430592587E+01	4.89198504901E+01	-8.55061972088E+01	4.93912999562E+01	-3.13548737669E-01	1.33210379399E+02
1.13510000000E+10	-3.19916613701E-01	1.34818486880E+02	-8.52193003724E+01	3.22175493515E+01	-8.88028063617E+01	4.23226448999E+01	-3.12756962823E-01	1.33083065650E+02
1.13515000000E+10	-3.21124153099E-01	1.34691426106E+02	-8.57466857400E+01	2.69999277264E+01	-8.70243674140E+01	5.28293537444E+01	-3.14406895803E-01	1.32990282181E+02
1.13520000000E+10	-3.20006103684E-01	1.34587447710E+02	-8.65653870059E+01	5.14643982750E+01	-8.78218607301E+01	4.20760145414E+01	-3.13271278951E-01	1.32888759420E+02
1.13525000000E+10	-3.18466916741E-01	1.34479076859E+02	-8.70032453473E+01	4.19717265130E+01	-8.68065224410E+01	5.90218769114E+01	-3.13975829302E-01	1.32777000061E+02
1.13530000000E+10	-3.19976692665E-01	1.34368155608E+02	-8.78114284649E+01	4.79479421727E+01	-8.63793781916E+01	3.08341195895E+01	-3.10600779819E-01	1.32671563141E+02
1.13535000000E+10	-3.19712593754E-01	1.34249335762E+02	-8.64124465222E+01	5.18028034433E+01	-8.80020649803E+01	5.56248068787E+01	-3.13408744927E-01	1.32578253215E+02
1.13540000000E+10	-3.20093621533E-01	1.34129531381E+02	-8.43424271937E+01	4.13236343382E+01	-8.68249704360E+01	3.84893817946E+01	-3.15213223262E-01	1.32455326422E+02
1.13545000000E+10	-3.18523612617E-01	1.34019403880E+02	-8.82720288189E+01	4.53089808638E+01	-8.65495660168E+01	5.52531916252E+01	-3.15287393604E-01	1.32352191918E+02
1.13550000000E+10	-3.19314975385E-01	1.33912343898E+02	-8.72068147371E+01	3.81121921973E+01	-8.77772715285E+01	3.80545973303E+01	-3.13789082403E-01	1.32234841493E+02
1.13555000000E+10	-3.18758318298E-01	1.33782037257E+02	-8.49832494411E+01	4.87611047860E+01	-8.85479447733E+01	4.58673047982E+01	-3.11907115470E-01	1.32143801154E+02
1.13560000000E+10	-3.18652805989E-01	1.33676985650E+02	-8.66253087947E+01	3.87310724847E+01	-8.76917620383E+01	4.85267507275E+01	-3.15561253655E-01	1.32027349732E+02
1.13565000000E+10	-3.18059048252E-01	1.33566154173E+02	-8.84154107005E+01	6.55107392107E+01	-8.96261907495E+01	3.86924490087E+01	-3.13424866075E-01	1.31910124365E+02
1.13570000000E+10	-3.18773294892E-01	1.33442409149E+02	-8.55910549991E+01	5.58982459885E+01	-8.56947217092E+01	4.84170406063E+01	-3.16307332080E-01	1.31823045225E+02
1.13575000000E+10	-3.19563297015E-01	1.33333892184E+02	-8.65063931623E+01	4.57895881056E+01	-8.71866125844E+01	4.52567436511E+01	-3.14447648152E-01	1.31706538630E+02
1.13580000000E+10	-3.19737397148E-01	1.33217567037E+02	-8.57720322239E+01	4.31471747819E+01	-8.89840360976E+01	4.71497870382E+01	-3.12768744689E-01	1.31600913894E+02
1.13585000000E+10	-3.20561332790E-01	1.33097166593E+02	-8.76288614679E+01	3.72168599429E+01	-8.65491358132E+01	4.75847261043E+01	-3.13102110296E-01	1.31491701866E+02
1.13590000000E+10	-3.20076088291E-01	1.32987171345E+02	-8.58963203749E+01	4.85464008555E+01	-8.86763385429E+01	4.27479512416E+01	-3.12767525162E-01	1.31381521722E+02
