# Hz S DB R 50
! Planar, S50244, 24171007, 25.4.1/6
! Date: 15.10.2025 10:27:31
! Data: Format (Calibration Info)
! Freq	S11:dB/Ang(F2)	S21:dB/Ang(F2)	S12:dB/Ang(F2)	S22:dB/Ang(F2)
1.13000000000E+10	-3.22941805535E-01	1.45009259667E+02	-8.79991156244E+01	3.88262913532E+01	-8.95282039971E+01	6.97231920165E+01	-3.14648735732E-01	1.43250133483E+02
1.13005000000E+10	-3.22850858014E-01	1.44928022914E+02	-8.95281178207E+01	7.81977353252E+01	-9.04918667067E+01	5.92924885779E+01	-3.16023734184E-01	1.43152378880E+02
1.13010000000E+10	-3.23302366720E-01	1.44819498548E+02	-8.46750190218E+01	2.68108561242E+01	-8.83489125611E+01	6.42222824201E+01	-3.13411231357E-01	1.43066119839E+02
1.13015000000E+10	-3.23443766118E-01	1.44730398934E+02	-8.68359004351E+01	5.27603642013E+01	-8.87360084135E+01	5.53969366038E+01	-3.15124711796E-01	1.42986995498E+02
1.13020000000E+10	-3.22673971051E-01	1.44626079254E+02	-8.71432970971E+01	5.13243705329E+01	-8.60109317173E+01	4.27395271097E+01	-3.13177252512E-01	1.42895366953E+02
1.13025000000E+10	-3.20889353376E-01	1.44532277191E+02	-8.92055121923E+01	5.98600612260E+01	-8.77923829210E+01	5.31373967662E+01	-3.13740750453E-01	1.42825688947E+02
1.13030000000E+10	-3.20148575348E-01	1.44452056812E+02	-8.68187208019E+01	6.60305275881E+01	-8.67647950527E+01	5.30975475764E+01	-3.10439912597E-01	1.42721749391E+02
1.13035000000E+10	-3.22181598675E-01	1.44342455777E+02	-8.75633327825E+01	3.65160218640E+01	-8.89471301111E+01	3.89913009307E+01	-3.11947421683E-01	1.42633211873E+02
1.13040000000E+10	-3.23787542667E-01	1.44250215879E+02	-9.08159681838E+01	3.05805538421E+01	-8.69210846622E+01	5.84008614612E+01	-3.13767342225E-01	1.42560398388E+02
1.13045000000E+10	-3.19942251038E-01	1.44148409789E+02	-8.64435608252E+01	3.98294669263E+01	-8.64298202643E+01	4.63100415992E+01	-3.13317836995E-01	1.42480642175E+02
1.13050000000E+10	-3.20008445788E-01	1.44068284382E+02	-8.77325956442E+01	5.45229466886E+01	-8.63889120410E+01	5.73502181275E+01	-3.17234836667E-01	1.42363148300E+02
1.13055000000E+10	-3.21504193179E-01	1.43965453937E+02	-9.38582026738E+01	6.09731642038E+01	-8.80575024042E+01	5.31763655593E+01	-3.11465501731E-01	1.42291119637E+02
1.13060000000E+10	-3.19189195842E-01	1.43869088416E+02	-8.94487487456E+01	4.93638700974E+01	-9.09143230360E+01	3.60262671221E+01	-3.12041200846E-01	1.42205345039E+02
1.13065000000E+10	-3.22348535435E-01	1.43776133427E+02	-8.83237329057E+01	3.80270462110E+01	-8.93741153365E+01	6.05347391770E+01	-3.13014670187E-01	1.42120879034E+02
1.13070000000E+10	-3.20609809216E-01	1.43686856336E+02	-8.97272981108E+01	4.39039862103E+01	-8.96241886102E+01	5.98611929561E+01	-3.11188750199E-01	1.42029670244E+02
1.13075000000E+10	-3.21549261700E-01	1.43586181621E+02	-8.70683579904E+01	5.04732702874E+01	-8.67582426345E+01	4.09380134270E+01	-3.11892012603E-01	1.41941490161E+02
1.13080000000E+10	-3.21211378163E-01	1.43501150115E+02	-8.93190396047E+01	3.99917206803E+01	-8.51374245414E+01	5.72335415171E+01	-3.09062522103E-01	1.41854142564E+02
1.13085000000E+10	-3.20924177860E-01	1.43384535832E+02	-8.85784934310E+01	3.80960689620E+01	-8.87759143133E+01	5.66678003706E+01	-3.13597985245E-01	1.41767843415E+02
1.13090000000E+10	-3.21568766183E-01	1.43294500447E+02	-8.80286459929E+01	4.67507562530E+01	-8.84553798854E+01	5.38969821936E+01	-3.11865188368E-01	1.41665154236E+02
1.13095000000E+10	-3.20113949764E-01	1.43189562554E+02	-8.82100544964E+01	5.27787607371E+01	-9.04722512716E+01	4.00345138371E+01	-3.12388415760E-01	1.41578436250E+02
1.13100000000E+10	-3.18282373969E-01	1.43097892777E+02	-8.80074950840E+01	4.81633134637E+01	-8.96961149421E+01	4.76861189258E+01	-3.08670047612E-01	1.41493277151E+02
1.13105000000E+10	-3.21464509958E-01	1.43001170738E+02	-8.74331770555E+01	4.72125151894E+01	-8.63113272974E+01	5.30961466196E+01	-3.12112755620E-01	1.41386648007E+02
1.13110000000E+10	-3.20985251474E-01	1.42898151135E+02	-8.72565088899E+01	5.33209716860E+01	-8.84466903416E+01	4.47621182852E+01	-3.11850739616E-01	1.41298108808E+02
1.13115000000E+10	-3.21437971968E-01	1.42817948940E+02	-8.73183384711E+01	4.22801470117E+01	-8.86767669166E+01	6.29341378737E+01	-3.10430880008E-01	1.41228697188E+02
1.13120000000E+10	-3.22008571315E-01	1.42709454893E+02	-8.67625018046E+01	2.39557428985E+01	-8.77899979312E+01	7.24581587907E+01	-3.11801879752E-01	1.41126281294E+02
1.13125000000E+10	-3.19477224767E-01	1.42629585435E+02	-8.61688812310E+01	5.35154871169E+01	-8.97581373310E+01	3.76714880509E+01	-3.10062547823E-01	1.41037800805E+02
1.13130000000E+10	-3.20218099427E-01	1.42529861375E+02	-9.04730746113E+01	3.57725313793E+01	-8.75134330174E+01	5.37021424485E+01	-3.11863076574E-01	1.40947608095E+02
1.13135000000E+10	-3.19271993260E-01	1.42427598993E+02	-8.66108104232E+01	5.93898835294E+01	-8.91873389187E+01	3.31031279956E+01	-3.09108118648E-01	1.40867749986E+02
1.13140000000E+10	-3.20291337505E-01	1.42317034449E+02	-9.05275237169E+01	4.36070927497E+01	-8.62758835997E+01	4.49671759523E+01	-3.12243394970E-01	1.40784750324E+02
1.13145000000E+10	-3.20671326381E-01	1.42212213148E+02	-8.53839261183E+01	3.59798935789E+01	-8.82869214597E+01	4.81353713805E+01	-3.10743823405E-01	1.40689165266E+02
1.13150000000E+10	-3.20055472067E-01	1.42126627964E+02	-9.05721626659E+01	6.48709220204E+01	-9.02329231191E+01	6.26115101828E+01	-3.07232822655E-01	1.40592372962E+02
1.13155000000E+10	-3.19459045796E-01	1.42026527064E+02	-8.59633338311E+01	3.01039442316E+01	-8.89505836676E+01	4.16222884272E+01	-3.11537616701E-01	1.40500302675E+02
1.13160000000E+10	-3.18956851592E-01	1.41928951424E+02	-8.51978623416E+01	5.39120312303E+01	-8.63909276366E+01	5.47249807612E+01	-3.10639454475E-01	1.40425561155E+02
1.13165000000E+10	-3.19335455944E-01	1.41830468052E+02	-8.78587258059E+01	4.23233746298E+01	-8.85799554421E+01	4.83407506000E+01	-3.14130515561E-01	1.40331740534E+02
1.13170000000E+10	-3.19106811976E-01	1.41730152437E+02	-8.61853486518E+01	3.56521431599E+01	-8.90172907801E+01	3.71146037088E+01	-3.10650707136E-01	1.40237912472E+02
1.13175000000E+10	-3.20019113975E-01	1.41636079777E+02	-8.90476906791E+01	4.25026161167E+01	-8.78817828226E+01	5.65778210171E+01	-3.12746817089E-01	1.40142808168E+02
1.13180000000E+10	-3.18963295171E-01	1.41529655756E+02	-8.80494583136E+01	5.07954353685E+01	-8.56237054550E+01	4.53549005069E+01	-3.12815991881E-01	1.40036739469E+02
1.13185000000E+10	-3.19938766110E-01	1.41419898371E+02	-8.51854787361E+01	5.07749309610E+01	-8.59067036540E+01	4.33862828161E+01	-3.12441249736E-01	1.39960362720E+02
1.13190000000E+10	-3.17422427846E-01	1.41338730994E+02	-9.00343444455E+01	3.79455987223E+01	-8.63799803084E+01	3.83593636506E+01	-3.08091720289E-01	1.39855050281E+02
1.13195000000E+10	-3.20479005960E-01	1.41234240439E+02	-8.99039795455E+01	3.33139952267E+01	-8.75654408506E+01	5.65569728100E+01	-3.10087825426E-01	1.39772343727E+02
1.13200000000E+10	-3.18557852507E-01	1.41128149916E+02	-8.45401725218E+01	3.48428729335E+01	-8.81499538961E+01	5.14184152748E+01	-3.11643265271E-01	1.39683290851E+02
1.13205000000E+10	-3.18164585480E-01	1.41036577933E+02	-8.68042683490E+01	4.92775034321E+01	-8.93758908709E+01	3.16230175849E+01	-3.11237156397E-01	1.39591969030E+02
1.13210000000E+10	-3.17592079849E-01	1.40927851132E+02	-8.86918312056E+01	5.53073773880E+01	-8.73970497486E+01	2.62073692981E+01	-3.10606314291E-01	1.39496632254E+02
1.13215000000E+10	-3.17339595621E-01	1.40837198673E+02	-9.00644597833E+01	4.37475832180E+01	-8.80037497454E+01	5.40520280847E+01	-3.12765913753E-01	1.39404850124E+02
1.13220000000E+10	-3.18188267572E-01	1.40733111794E+02	-8.78827714497E+01	4.58823809737E+01	-8.93441359803E+01	5.48801175267E+01	-3.09365744320E-01	1.39331005092E+02
1.13225000000E+10	-3.15973103741E-01	1.40624285229E+02	-8.86131097951E+01	3.91104234395E+01	-8.67724365444E+01	6.25739191826E+01	-3.11479096747E-01	1.39223605703E+02
1.13230000000E+10	-3.17957753904E-01	1.40541861598E+02	-8.73146721145E+01	4.36851353643E+01	-8.65508381173E+01	4.31372588344E+01	-3.10209045585E-01	1.39140266676E+02
1.13235000000E+10	-3.19853403325E-01	1.40419568895E+02	-8.49413997165E+01	4.83571051050E+01	-8.80507374925E+01	4.52219719910E+01	-3.09586385058E-01	1.39054123820E+02
1.13240000000E+10	-3.16522220816E-01	1.40316902864E+02	-8.72181494193E+01	4.71616712192E+01	-8.67958694095E+01	3.97349018052E+01	-3.10850988105E-01	1.38974437898E+02
1.13245000000E+10	-3.20047078261E-01	1.40218638590E+02	-8.61479046159E+01	4.36167106129E+01	-8.60255694204E+01	3.92314007027E+01	-3.09869355244E-01	1.38853851617E+02
1.13250000000E+10	-3.19012175150E-01	1.40130125077E+02	-8.78177369635E+01	4.93162364549E+01	-8.79629044892E+01	5.29890383839E+01	-3.10657268537E-01	1.38777914960E+02
1.13255000000E+10	-3.18058906045E-01	1.40021192271E+02	-8.54093224787E+01	3.57992183009E+01	-8.67536555604E+01	3.68498781130E+01	-3.10141758570E-01	1.38677525886E+02
1.13260000000E+10	-3.20120900978E-01	1.39917511014E+02	-8.69272091914E+01	3.86301335612E+01	-8.63514708396E+01	3.17343802568E+01	-3.08140464965E-01	1.38564939706E+02
1.13265000000E+10	-3.18809658528E-01	1.39799618445E+02	-8.48566151357E+01	5.02916427749E+01	-8.77352121366E+01	5.22285616324E+01	-3.09634308881E-01	1.38490519123E+02
1.13270000000E+10	-3.18838110581E-01	1.39701435273E+02	-8.72458690557E+01	4.39064242396E+01	-8.74805009054E+01	3.89284183906E+01	-3.10010900420E-01	1.38394328619E+02
1.13275000000E+10	-3.19539619340E-01	1.39612360112E+02	-8.69173827758E+01	5.01227258020E+01	-8.65177491126E+01	4.61418664656E+01	-3.10211087854E-01	1.38308153547E+02
1.13280000000E+10	-3.18734226769E-01	1.39509655243E+02	-8.91347277718E+01	5.21146020914E+01	-8.89501638964E+01	3.39347838122E+01	-3.09018616785E-01	1.38205182919E+02
1.13285000000E+10	-3.17536291591E-01	1.39403196700E+02	-8.80716732723E+01	3.22758022573E+01	-8.61923578736E+01	4.23559375440E+01	-3.08757771083E-01	1.38110610792E+02
1.13290000000E+10	-3.16975547319E-01	1.39291820574E+02	-8.52846488382E+01	3.88643807669E+01	-8.77095035669E+01	3.77131027024E+01	-3.10120109938E-01	1.38027064068E+02
1.13295000000E+10	-3.18830995935E-01	1.39188340999E+02	-8.78877675012E+01	3.10542318837E+01	-8.48826320367E+01	5.00337989653E+01	-3.11369604126E-01	1.37923857457E+02
1.13300000000E+10	-3.20387406783E-01	1.39073629429E+02	-8.74311290752E+01	3.08717448252E+01	-8.90819417971E+01	5.24549105430E+01	-3.10285586749E-01	1.37825871324E+02
1.13305000000E+10	-3.18404377082E-01	1.38992539436E+02	-8.90042286858E+01	5.29452247575E+01	-8.53551391760E+01	4.36945344079E+01	-3.08596263109E-01	1.37729321508E+02
1.13310000000E+10	-3.19181157163E-01	1.38878099945E+02	-8.84833457294E+01	4.88231405461E+01	-8.73236079818E+01	4.42269877444E+01	-3.09754945358E-01	1.37645748614E+02
1.13315000000E+10	-3.19209837826E-01	1.38784572013E+02	-8.65241656065E+01	5.35456785800E+01	-8.62822453961E+01	4.76374974163E+01	-3.11025887910E-01	1.37542248315E+02
1.13320000000E+10	-3.17754333871E-01	1.38677619318E+02	-8.87748628574E+01	4.85948825242E+01	-8.64680515649E+01	4.47942852978E+01	-3.11158280070E-01	1.37459213213E+02
1.13325000000E+10	-3.19376651096E-01	1.38567235217E+02	-8.73201165958E+01	3.44119132575E+01	-8.76002873417E+01	4.20643094458E+01	-3.12083589216E-01	1.37360403423E+02
1.13330000000E+10	-3.17184896665E-01	1.38454639269E+02	-8.73700292675E+01	4.50984799206E+01	-8.93828302534E+01	4.65577373674E+01	-3.09670672726E-01	1.37275014732E+02
1.13335000000E+10	-3.19925382283E-01	1.38359438415E+02	-8.75323918938E+01	3.38141120836E+01	-8.84520818261E+01	4.14937657090E+01	-3.08711132937E-01	1.37157303280E+02
1.13340000000E+10	-3.18410831371E-01	1.38265035030E+02	-8.87801126236E+01	4.16061478141E+01	-8.67550823467E+01	5.07968821909E+01	-3.11645499927E-01	1.37089918015E+02
1.13345000000E+10	-3.16432182442E-01	1.38134634409E+02	-8.75164717688E+01	3.99445825655E+01	-8.98696499469E+01	4.54393205873E+01	-3.09646037900E-01	1.36978859806E+02
1.13350000000E+10	-3.18410211053E-01	1.38033555157E+02	-8.83413557752E+01	4.37780516790E+01	-8.72630205501E+01	3.43696255152E+01	-3.09602349059E-01	1.36891761701E+02
1.13355000000E+10	-3.20395082961E-01	1.37910591369E+02	-8.63733411072E+01	3.99545491455E+01	-8.75623537135E+01	5.00078052489E+01	-3.11541571167E-01	1.36797278063E+02
1.13360000000E+10	-3.18132936499E-01	1.37818635665E+02	-8.76544668527E+01	2.95774124898E+01	-8.62215996529E+01	3.46108456989E+01	-3.10997479058E-01	1.36700291218E+02
1.13365000000E+10	-3.19292618166E-01	1.37713675716E+02	-8.52698273503E+01	4.11689522045E+01	-8.62742244639E+01	4.26728729277E+01	-3.08143655760E-01	1.36583781462E+02
1.13370000000E+10	-3.18579665120E-01	1.37617167399E+02	-8.58816219703E+01	4.26503808131E+01	-8.77404593942E+01	3.69164512100E+01	-3.06586544910E-01	1.36502713630E+02
1.13375000000E+10	-3.21177407361E-01	1.37501545338E+02	-8.68247485941E+01	3.54284267202E+01	-8.66530836796E+01	3.66159444849E+01	-3.07735543207E-01	1.36407568397E+02
1.13380000000E+10	-3.20132515399E-01	1.37408362070E+02	-8.60326956587E+01	3.59392303353E+01	-8.67825132256E+01	5.23463820484E+01	-3.10539042007E-01	1.36317124294E+02
1.13385000000E+10	-3.19556805291E-01	1.37299618225E+02	-8.63606474833E+01	4.12739199134E+01	-8.58046686208E+01	3.97621278107E+01	-3.08834069788E-01	1.36226105016E+02
1.13390000000E+10	-3.17596484188E-01	1.37179985084E+02	-8.56589234110E+01	4.66013985736E+01	-8.61626571116E+01	4.70933286812E+01	-3.10109111751E-01	1.36110824777E+02
1.13395000000E+10	-3.19014871064E-01	1.37066680945E+02	-8.46584294627E+01	4.43413831901E+01	-8.59585615474E+01	3.90204182637E+01	-3.10243050113E-01	1.36026254543E+02
1.13400000000E+10	-3.21012794645E-01	1.36958820091E+02	-8.52706633812E+01	3.53807000047E+01	-8.76565588895E+01	4.23585798559E+01	-3.09358571299E-01	1.35923234492E+02
1.13405000000E+10	-3.18936274618E-01	1.36852538623E+02	-8.69384803449E+01	4.24852099240E+01	-8.52307926655E+01	4.28640459030E+01	-3.12643595252E-01	1.35826846106E+02
1.13410000000E+10	-3.19689952547E-01	1.36757191355E+02	-8.66947342621E+01	4.27928806693E+01	-8.50645243808E+01	3.70789306330E+01	-3.11972349477E-01	1.35730009555E+02
1.13415000000E+10	-3.19024922888E-01	1.36639785428E+02	-8.48047308946E+01	3.26136201940E+01	-8.88058024011E+01	2.32671482243E+01	-3.10672329103E-01	1.35632364233E+02
1.13420000000E+10	-3.17396487186E-01	1.36527871503E+02	-8.58042159178E+01	4.43941407575E+01	-8.45459227914E+01	3.69477150089E+01	-3.08891068293E-01	1.35525487340E+02
1.13425000000E+10	-3.20764663080E-01	1.36419062762E+02	-8.54145695623E+01	4.97758953021E+01	-8.85769278124E+01	3.54922111941E+01	-3.10039518297E-01	1.35438125012E+02
1.13430000000E+10	-3.17368390055E-01	1.36295209371E+02	-8.52478590019E+01	4.75950487461E+01	-8.68634968513E+01	4.57394596086E+01	-3.09413441879E-01	1.35339607382E+02
1.13435000000E+10	-3.18953934458E-01	1.36195785374E+02	-8.63407817912E+01	4.71669175320E+01	-8.61282323945E+01	4.29595809358E+01	-3.08309624189E-01	1.35248442831E+02
1.13440000000E+10	-3.19860997563E-01	1.36090409979E+02	-8.63078818275E+01	4.84818302057E+01	-8.51684708172E+01	5.16066404371E+01	-3.11375533262E-01	1.35146804306E+02
1.13445000000E+10	-3.18254185030E-01	1.35992382478E+02	-8.71638565551E+01	3.55614267079E+01	-8.70791584569E+01	3.70600209194E+01	-3.10539018751E-01	1.35049687329E+02
1.13450000000E+10	-3.16906014233E-01	1.35860926057E+02	-8.78886539224E+01	4.89089072963E+01	-8.64396185001E+01	3.89992546099E+01	-3.10078466687E-01	1.34961735950E+02
1.13455000000E+10	-3.17589959097E-01	1.35759528180E+02	-8.79800646666E+01	4.62482846779E+01	-8.55714668002E+01	5.60024937868E+01	-3.10405891728E-01	1.34854008607E+02
1.13460000000E+10	-3.20424498409E-01	1.35649934160E+02	-8.67541267959E+01	3.85745610013E+01	-8.68456479823E+01	5.34136801750E+01	-3.10687735174E-01	1.34755154298E+02
1.13465000000E+10	-3.18290057685E-01	1.35523369509E+02	-8.68773855356E+01	3.51317069437E+01	-8.51221618611E+01	4.08910926513E+01	-3.12972354124E-01	1.34637700174E+02
1.13470000000E+10	-3.19195548229E-01	1.35404369131E+02	-8.68088675139E+01	3.78994088198E+01	-8.62996492832E+01	3.07918242132E+01	-3.10053768940E-01	1.34545666896E+02
1.13475000000E+10	-3.20474442761E-01	1.35308323921E+02	-8.68972869435E+01	4.08576559927E+01	-8.69030069844E+01	4.91253009961E+01	-3.11061452271E-01	1.34447601733E+02
1.13480000000E+10	-3.19640429311E-01	1.35199343128E+02	-8.67954813153E+01	5.06989644821E+01	-8.73648694864E+01	4.60797057924E+01	-3.11227845616E-01	1.34347209963E+02
1.13485000000E+10	-3.19010532246E-01	1.35084544410E+02	-8.48027138970E+01	4.94632783091E+01	-8.67649228282E+01	4.63492317948E+01	-3.10672343709E-01	1.34256022165E+02
1.13490000000E+10	-3.18341257933E-01	1.34974068470E+02	-8.62047609857E+01	4.51460606620E+01	-8.59467479364E+01	3.45537976110E+01	-3.11104011900E-01	1.34136854694E+02
1.13495000000E+10	-3.18484544704E-01	1.34846745597E+02	-8.57395920058E+01	2.91598359267E+01	-8.71174482350E+01	3.82493174487E+01	-3.12832099372E-01	1.34049846982E+02
1.13500000000E+10	-3.22007846845E-01	1.34745430020E+02	-8.46074072407E+01	4.24148203138E+01	-8.73263887219E+01	5.82095296599E+01	-3.12501058037E-01	1.33942911998E+02
1.13505000000E+10	-3.20974673981E-01	1.34644218250E+02	-8.64097259430E+01	4.44302035614E+01	-8.55668284016E+01	4.04318860362E+01	-3.11734881637E-01	1.33846019052E+02
1.13510000000E+10	-3.20794162020E-01	1.34519057829E+02	-8.62262233126E+01	4.02901663541E+01	-8.62130468570E+01	3.56322503805E+01	-3.11690530731E-01	1.33732141728E+02
1.13515000000E+10	-3.20946483860E-01	1.34387217743E+02	-8.50558754170E+01	4.94663204836E+01	-8.68087479173E+01	4.16162878216E+01	-3.12948581477E-01	1.33626209107E+02
1.13520000000E+10	-3.20254406752E-01	1.34292206074E+02	-8.64985615797E+01	4.50246077245E+01	-8.67614210351E+01	3.21636705026E+01	-3.11701651519E-01	1.33536626306E+02
1.13525000000E+10	-3.17242193586E-01	1.34165614853E+02	-8.76835513177E+01	5.93052583085E+01	-8.48979444483E+01	3.32579243754E+01	-3.11853390416E-01	1.33433629324E+02
1.13530000000E+10	-3.22222651940E-01	1.34066031613E+02	-8.47916734466E+01	2.55242923986E+01	-8.67479861394E+01	3.80505466107E+01	-3.10147625193E-01	1.33337170753E+02
1.13535000000E+10	-3.20621739929E-01	1.33945341113E+02	-8.55182609936E+01	3.58988588160E+01	-8.70041924682E+01	2.52809657944E+01	-3.10910942787E-01	1.33243271459E+02
1.13540000000E+10	-3.21868804104E-01	1.33825082777E+02	-8.54488217568E+01	3.97594724553E+01	-9.05709035445E+01	3.48636689449E+01	-3.14103726436E-01	1.33117226886E+02
1.13545000000E+10	-3.20103061226E-01	1.33708628740E+02	-8.57700198210E+01	3.92078700215E+01	-8.47280536896E+01	3.05103606842E+01	-3.13133265231E-01	1.33023717751E+02
1.13550000000E+10	-3.20785217154E-01	1.33598497149E+02	-8.60711595616E+01	4.24337225190E+01	-8.65715310828E+01	3.06751073742E+01	-3.11584258326E-01	1.32910872690E+02
1.13555000000E+10	-3.19710521584E-01	1.33471587046E+02	-8.59599184391E+01	3.85927103569E+01	-8.65997416115E+01	4.82466463229E+01	-3.09798977540E-01	1.32831948707E+02
1.13560000000E+10	-3.20094709255E-01	1.33367377334E+02	-8.65531812530E+01	2.98114291363E+01	-8.74649798170E+01	3.13148528154E+01	-3.14108569452E-01	1.32714129519E+02
1.13565000000E+10	-3.20946327347E-01	1.33255192943E+02	-8.64803894315E+01	3.23503543237E+01	-8.60202900697E+01	3.56595899187E+01	-3.12900675261E-01	1.32600024565E+02
1.13570000000E+10	-3.20168189711E-01	1.33131206253E+02	-8.64485284069E+01	3.31991830474E+01	-8.57962856221E+01	3.46514747585E+01	-3.16024176184E-01	1.32512291745E+02
1.13575000000E+10	-3.21026055886E-01	1.33014554532E+02	-8.69514393984E+01	4.37794737716E+01	-8.63379986156E+01	4.54698617016E+01	-3.13580022745E-01	1.32411604961E+02
1.13580000000E+10	-3.20277461253E-01	1.32891159673E+02	-8.42603661996E+01	3.62925602399E+01	-8.69250664374E+01	3.08129369324E+01	-3.12242559735E-01	1.32294669488E+02
1.13585000000E+10	-3.21436255612E-01	1.32767643352E+02	-8.57987277440E+01	3.88407809767E+01	-8.60811336170E+01	3.54316406685E+01	-3.12467721123E-01	1.32194659321E+02
1.13590000000E+10	-3.20367167105E-01	1.32663285974E+02	-8.71422156681E+01	3.89918529332E+01	-8.70299584454E+01	4.01002525586E+01	-3.11378699426E-01	1.32086369578E+02
