# Hz S DB R 50
! Planar, S50244, 24171007, 25.4.1/6
! Date: 15.10.2025 10:28:26
! Data: Format (Calibration Info)
! Freq	S11:dB/Ang(F2)	S21:dB/Ang(F2)	S12:dB/Ang(F2)	S22:dB/Ang(F2)
1.13000000000E+10	-3.21139495080E-01	1.44698450969E+02	-8.58724239369E+01	6.24312451956E+01	-8.94763900017E+01	6.02686849761E+01	-3.14965663778E-01	1.43112812083E+02
1.13005000000E+10	-3.22924719079E-01	1.44604578479E+02	-8.86196373776E+01	5.15360256897E+01	-8.72546775968E+01	3.39000923804E+01	-3.16916418807E-01	1.43007584171E+02
1.13010000000E+10	-3.22515436551E-01	1.44511740037E+02	-8.75802446842E+01	5.50614876575E+01	-8.94108913856E+01	5.80875924255E+01	-3.14820351177E-01	1.42931893628E+02
1.13015000000E+10	-3.23322228757E-01	1.44412224065E+02	-8.66577974872E+01	4.86375466018E+01	-8.93879714925E+01	3.99228056461E+01	-3.15241849890E-01	1.42857468816E+02
1.13020000000E+10	-3.21720389418E-01	1.44315979779E+02	-8.80886215048E+01	5.03892988376E+01	-8.78085168559E+01	4.27396799872E+01	-3.14534455051E-01	1.42761693545E+02
1.13025000000E+10	-3.21733468135E-01	1.44220616145E+02	-9.07687417444E+01	4.44936904528E+01	-8.73042489132E+01	5.15967049467E+01	-3.14066168734E-01	1.42686381271E+02
1.13030000000E+10	-3.21283641574E-01	1.44124405660E+02	-8.73942361534E+01	3.85735832205E+01	-8.71998653609E+01	6.44142119402E+01	-3.09775509788E-01	1.42580193415E+02
1.13035000000E+10	-3.21026272414E-01	1.44014676865E+02	-8.61949058810E+01	5.05166333312E+01	-8.96347732890E+01	5.35841027514E+01	-3.13045529736E-01	1.42502878941E+02
1.13040000000E+10	-3.23040694807E-01	1.43923343415E+02	-8.57070589593E+01	4.16247131116E+01	-8.70085007724E+01	5.18758874896E+01	-3.14806990299E-01	1.42421325505E+02
1.13045000000E+10	-3.20353749557E-01	1.43823427253E+02	-8.67537698580E+01	3.59128611342E+01	-8.78220881610E+01	4.42281260324E+01	-3.13778947879E-01	1.42333630882E+02
1.13050000000E+10	-3.19982476110E-01	1.43740441831E+02	-8.76880793078E+01	4.52480368448E+01	-9.29965283137E+01	6.14904356366E+01	-3.17711923702E-01	1.42231109106E+02
1.13055000000E+10	-3.21723577127E-01	1.43639197833E+02	-9.33952360433E+01	5.63171782909E+01	-8.63731074362E+01	4.80250170542E+01	-3.12141492041E-01	1.42140466477E+02
1.13060000000E+10	-3.20107989284E-01	1.43535046016E+02	-9.03768614303E+01	3.75369941125E+01	-8.87798054699E+01	5.01360983778E+01	-3.12189199525E-01	1.42061621937E+02
1.13065000000E+10	-3.22123699504E-01	1.43446043830E+02	-8.73627853401E+01	3.45446030506E+01	-8.75696008436E+01	5.01756337509E+01	-3.13904744722E-01	1.41976084122E+02
1.13070000000E+10	-3.21053711523E-01	1.43353383891E+02	-8.86057835621E+01	4.14975474434E+01	-8.76552218397E+01	5.21104430817E+01	-3.13270656585E-01	1.41885416021E+02
1.13075000000E+10	-3.22000003183E-01	1.43254552319E+02	-8.70083847449E+01	4.04049755924E+01	-8.64999280507E+01	4.97292043150E+01	-3.11677782983E-01	1.41793161404E+02
1.13080000000E+10	-3.22161887631E-01	1.43170881392E+02	-8.80691150312E+01	4.63379735148E+01	-8.94777419578E+01	5.82675237267E+01	-3.10397186211E-01	1.41719547073E+02
1.13085000000E+10	-3.21159822756E-01	1.43060204611E+02	-9.00380967042E+01	3.92765092480E+01	-8.67992371381E+01	4.55634692810E+01	-3.14090774736E-01	1.41622152904E+02
1.13090000000E+10	-3.21315273046E-01	1.42957712163E+02	-8.83046800536E+01	5.81099509154E+01	-8.83685023801E+01	4.45393749910E+01	-3.13218460108E-01	1.41528540607E+02
1.13095000000E+10	-3.19054430661E-01	1.42852775943E+02	-8.51141881058E+01	5.57478144529E+01	-8.79015671039E+01	4.61648479765E+01	-3.13772110609E-01	1.41429259329E+02
1.13100000000E+10	-3.17411661556E-01	1.42760019343E+02	-8.57997212471E+01	4.47829298911E+01	-9.00864178086E+01	2.60572949327E+01	-3.10653731584E-01	1.41348802687E+02
1.13105000000E+10	-3.19917174270E-01	1.42656836504E+02	-8.67985195766E+01	4.42537674157E+01	-8.66392158678E+01	4.16142036239E+01	-3.12947345249E-01	1.41245334824E+02
1.13110000000E+10	-3.21469497493E-01	1.42552478953E+02	-8.85393512265E+01	3.93733111475E+01	-8.92161642014E+01	5.49017181318E+01	-3.11845511884E-01	1.41164203205E+02
1.13115000000E+10	-3.21124061451E-01	1.42476347950E+02	-9.25888919886E+01	6.37209885397E+01	-8.89235946967E+01	3.57643883993E+01	-3.11923355363E-01	1.41083995589E+02
1.13120000000E+10	-3.20144786563E-01	1.42356529582E+02	-8.62192811867E+01	4.38658045333E+01	-8.44063868033E+01	6.07985183868E+01	-3.13270793108E-01	1.40975923442E+02
1.13125000000E+10	-3.17304539778E-01	1.42273591663E+02	-8.60077669703E+01	5.45455885393E+01	-8.71199391582E+01	5.33206736893E+01	-3.09880268713E-01	1.40895839589E+02
1.13130000000E+10	-3.19213401919E-01	1.42166852393E+02	-8.83837450791E+01	4.02600478925E+01	-8.64792976827E+01	6.19793357517E+01	-3.12258083865E-01	1.40796723590E+02
1.13135000000E+10	-3.21049938359E-01	1.42062755923E+02	-8.57871105215E+01	5.71542593108E+01	-8.43276951831E+01	6.01929430660E+01	-3.07911601290E-01	1.40712081252E+02
1.13140000000E+10	-3.19110366309E-01	1.41952427772E+02	-8.62460993369E+01	5.60031570802E+01	-8.77657738759E+01	5.88956939957E+01	-3.12173901625E-01	1.40634174619E+02
1.13145000000E+10	-3.20238522983E-01	1.41871747588E+02	-9.16606916217E+01	4.01059156584E+01	-9.02449004087E+01	5.31570476176E+01	-3.11239401326E-01	1.40542090046E+02
1.13150000000E+10	-3.20515575543E-01	1.41773027970E+02	-9.11613133910E+01	3.73339045849E+01	-8.83231783177E+01	7.25578534402E+01	-3.09274274354E-01	1.40439813839E+02
1.13155000000E+10	-3.17952671879E-01	1.41665432933E+02	-8.60268151019E+01	4.31429599096E+01	-8.50633747978E+01	3.94809283147E+01	-3.11963664349E-01	1.40350638135E+02
1.13160000000E+10	-3.19498351308E-01	1.41568179698E+02	-9.02256576692E+01	5.73727034008E+01	-8.73704770766E+01	4.69341687289E+01	-3.11809328678E-01	1.40276146506E+02
1.13165000000E+10	-3.19241687436E-01	1.41456895766E+02	-8.65172680607E+01	6.18174341026E+01	-8.74605701552E+01	4.10123262555E+01	-3.14881866703E-01	1.40176865206E+02
1.13170000000E+10	-3.19364560883E-01	1.41357123142E+02	-8.76901502340E+01	4.61569710626E+01	-8.58621937309E+01	4.09214866903E+01	-3.11449424296E-01	1.40080508444E+02
1.13175000000E+10	-3.19494165847E-01	1.41256595127E+02	-8.86054651284E+01	4.96755561307E+01	-8.97877695547E+01	6.35422811215E+01	-3.14167056993E-01	1.39988336309E+02
1.13180000000E+10	-3.19034359992E-01	1.41145378540E+02	-8.86565172080E+01	5.23287268470E+01	-8.62650742446E+01	4.83983052700E+01	-3.14038414688E-01	1.39882851278E+02
1.13185000000E+10	-3.19355962113E-01	1.41052358508E+02	-8.80895140033E+01	4.86161968999E+01	-8.76946235172E+01	5.65029082923E+01	-3.12894467712E-01	1.39804433307E+02
1.13190000000E+10	-3.18936892323E-01	1.40956428389E+02	-8.70339650564E+01	5.38070827292E+01	-8.81195074892E+01	5.04778434583E+01	-3.08392766889E-01	1.39705319675E+02
1.13195000000E+10	-3.20464827849E-01	1.40856991458E+02	-8.95883277590E+01	4.99122531725E+01	-8.55983024857E+01	5.18834789188E+01	-3.10654847096E-01	1.39614123295E+02
1.13200000000E+10	-3.16164330987E-01	1.40744623427E+02	-8.70742083506E+01	6.69629971576E+01	-8.80285436673E+01	4.02943863040E+01	-3.12612497928E-01	1.39528871733E+02
1.13205000000E+10	-3.20994595906E-01	1.40648274329E+02	-8.82423086268E+01	2.71817723147E+01	-8.67474191688E+01	4.56233035100E+01	-3.12068683043E-01	1.39432170973E+02
1.13210000000E+10	-3.17931450999E-01	1.40536297022E+02	-8.75408719643E+01	5.04397585102E+01	-8.62477066523E+01	5.28104042467E+01	-3.11462974462E-01	1.39342877448E+02
1.13215000000E+10	-3.17579043863E-01	1.40437988676E+02	-8.63492316153E+01	3.63224186345E+01	-8.86764973084E+01	4.59453052888E+01	-3.13013516075E-01	1.39248717804E+02
1.13220000000E+10	-3.19903462670E-01	1.40343513094E+02	-8.84615274190E+01	4.29841234218E+01	-8.78724400398E+01	3.00479579318E+01	-3.10954957018E-01	1.39169406834E+02
1.13225000000E+10	-3.16273662603E-01	1.40231714415E+02	-8.73466546867E+01	4.42842421892E+01	-8.65655543704E+01	3.79470786454E+01	-3.13118285521E-01	1.39060848708E+02
1.13230000000E+10	-3.18349930437E-01	1.40135940613E+02	-8.59286799496E+01	4.80672413584E+01	-8.88028398406E+01	4.36278323485E+01	-3.11249353384E-01	1.38974883687E+02
1.13235000000E+10	-3.19670651568E-01	1.40025640067E+02	-8.58408099723E+01	4.95100403396E+01	-8.77495069305E+01	4.62560473421E+01	-3.10344967201E-01	1.38892609464E+02
1.13240000000E+10	-3.16162793606E-01	1.39932298933E+02	-9.05452210896E+01	5.72429599186E+01	-8.64035916450E+01	5.03090155330E+01	-3.11608465168E-01	1.38809280369E+02
1.13245000000E+10	-3.19732787869E-01	1.39812156293E+02	-8.46483320812E+01	5.83884967213E+01	-8.69427653759E+01	5.21174109613E+01	-3.11189261186E-01	1.38695622396E+02
1.13250000000E+10	-3.19452341734E-01	1.39730414002E+02	-8.69791976433E+01	4.66521564775E+01	-8.81755902517E+01	6.21730614783E+01	-3.11723483528E-01	1.38619440174E+02
1.13255000000E+10	-3.16914309596E-01	1.39617955942E+02	-8.65134112606E+01	3.64453102680E+01	-8.69034365710E+01	5.13814486193E+01	-3.10872364864E-01	1.38519014964E+02
1.13260000000E+10	-3.19755300015E-01	1.39503360514E+02	-8.69215545447E+01	4.20110399906E+01	-8.82743223511E+01	5.68266827233E+01	-3.09069712673E-01	1.38409244140E+02
1.13265000000E+10	-3.17861527734E-01	1.39394309764E+02	-8.77803122447E+01	5.01417635877E+01	-8.62239362089E+01	3.94737716109E+01	-3.10945345641E-01	1.38331138680E+02
1.13270000000E+10	-3.18756312306E-01	1.39285256910E+02	-8.53213415275E+01	4.70539725298E+01	-8.77740924311E+01	4.03875629612E+01	-3.11117336638E-01	1.38230212680E+02
1.13275000000E+10	-3.18750739380E-01	1.39193612144E+02	-8.68121445154E+01	5.28660119947E+01	-8.68876222750E+01	3.72102867095E+01	-3.10240488024E-01	1.38140873072E+02
1.13280000000E+10	-3.19969362155E-01	1.39079819290E+02	-8.72933313025E+01	3.14328542604E+01	-8.95105707460E+01	3.85806790189E+01	-3.09942489517E-01	1.38037503522E+02
1.13285000000E+10	-3.17061363323E-01	1.38961397205E+02	-8.63389834464E+01	4.73613677959E+01	-8.58441082061E+01	4.10132533080E+01	-3.10445325431E-01	1.37944877399E+02
1.13290000000E+10	-3.17208326137E-01	1.38876207408E+02	-8.87155587788E+01	5.02374442793E+01	-8.87333076733E+01	2.96711867552E+01	-3.10294589047E-01	1.37861570596E+02
1.13295000000E+10	-3.17799155059E-01	1.38767072394E+02	-8.80827780230E+01	3.27931391379E+01	-8.61012020589E+01	4.20685782800E+01	-3.12039272975E-01	1.37758358867E+02
1.13300000000E+10	-3.18477542971E-01	1.38651394734E+02	-8.78084638757E+01	5.00341359063E+01	-8.60411974198E+01	5.04975541007E+01	-3.11301793484E-01	1.37660611891E+02
1.13305000000E+10	-3.18361346177E-01	1.38557560127E+02	-8.81485395058E+01	5.02651741902E+01	-8.72093344931E+01	5.29462312366E+01	-3.08737706939E-01	1.37562038424E+02
1.13310000000E+10	-3.18780584019E-01	1.38449210952E+02	-8.65936307936E+01	5.08580148227E+01	-8.76851820826E+01	3.32639515876E+01	-3.10412922894E-01	1.37472783649E+02
1.13315000000E+10	-3.20985668959E-01	1.38344119647E+02	-8.63220116449E+01	2.87015685241E+01	-8.66316058254E+01	5.28924019631E+01	-3.12312824244E-01	1.37371099394E+02
1.13320000000E+10	-3.16448525075E-01	1.38246485199E+02	-8.90499411911E+01	4.19965095603E+01	-8.66627307743E+01	5.11859080832E+01	-3.13004680793E-01	1.37287780933E+02
1.13325000000E+10	-3.18903270302E-01	1.38132697582E+02	-8.76306567663E+01	4.07274900489E+01	-8.61794950213E+01	4.07938344289E+01	-3.13722978436E-01	1.37190739740E+02
1.13330000000E+10	-3.16059332891E-01	1.38017442315E+02	-8.73244275201E+01	4.43799401470E+01	-8.78949775143E+01	3.19896207209E+01	-3.11477577817E-01	1.37098609136E+02
1.13335000000E+10	-3.19503444078E-01	1.37923357445E+02	-8.65461211102E+01	2.78128712168E+01	-8.62817283791E+01	2.57164806112E+01	-3.10649178702E-01	1.36991693629E+02
1.13340000000E+10	-3.16532080571E-01	1.37815133430E+02	-8.60697029161E+01	3.32852066448E+01	-8.53957293614E+01	1.91874776022E+01	-3.12688546504E-01	1.36916234305E+02
1.13345000000E+10	-3.15504035181E-01	1.37694386148E+02	-8.79714421795E+01	4.70918347599E+01	-8.74122716712E+01	4.82565473697E+01	-3.10847798937E-01	1.36804165701E+02
1.13350000000E+10	-3.17550079490E-01	1.37568879442E+02	-8.65035276640E+01	4.74657123728E+01	-8.53625408418E+01	5.07705737541E+01	-3.11055263701E-01	1.36717878628E+02
1.13355000000E+10	-3.19437421769E-01	1.37459704942E+02	-8.49038985719E+01	4.16571124465E+01	-8.67986262614E+01	4.96971024419E+01	-3.12600295049E-01	1.36620846671E+02
1.13360000000E+10	-3.18809598673E-01	1.37366753118E+02	-8.60883442241E+01	2.91699131487E+01	-8.55632483361E+01	5.22679040715E+01	-3.12000669189E-01	1.36524707838E+02
1.13365000000E+10	-3.17928479471E-01	1.37261280660E+02	-8.57217551001E+01	4.62277824412E+01	-8.61174774004E+01	4.85671201929E+01	-3.09708735914E-01	1.36410144390E+02
1.13370000000E+10	-3.18655227798E-01	1.37156015251E+02	-8.60959855790E+01	4.16515834519E+01	-8.94732104557E+01	5.35171689819E+01	-3.08565837277E-01	1.36326618611E+02
1.13375000000E+10	-3.17299993345E-01	1.37040170338E+02	-8.72489770869E+01	5.57093526366E+01	-8.71763752175E+01	4.45746399553E+01	-3.09576408285E-01	1.36228549403E+02
1.13380000000E+10	-3.19420347772E-01	1.36930826491E+02	-8.47311356786E+01	4.38681593490E+01	-8.61655581680E+01	3.04449552714E+01	-3.11519289905E-01	1.36137153810E+02
1.13385000000E+10	-3.18013227759E-01	1.36827390198E+02	-8.65726089449E+01	4.71030959001E+01	-8.75351915101E+01	4.03432675309E+01	-3.10971572878E-01	1.36047969962E+02
1.13390000000E+10	-3.17996463803E-01	1.36716826726E+02	-8.68056289457E+01	4.40608236671E+01	-8.71842753590E+01	3.45834467577E+01	-3.10983605745E-01	1.35924255128E+02
1.13395000000E+10	-3.16948524425E-01	1.36603991062E+02	-8.48388725490E+01	5.50635197945E+01	-8.52166367850E+01	3.38978068341E+01	-3.10971483407E-01	1.35846179761E+02
1.13400000000E+10	-3.19047062229E-01	1.36488825630E+02	-8.93643103567E+01	5.00946850442E+01	-8.60343292242E+01	4.30044450853E+01	-3.10661464889E-01	1.35742462255E+02
1.13405000000E+10	-3.16537933187E-01	1.36373031298E+02	-8.67873733074E+01	5.06866068348E+01	-8.68699024835E+01	3.84089538912E+01	-3.13908473988E-01	1.35634943764E+02
1.13410000000E+10	-3.18633088636E-01	1.36281261396E+02	-8.85292228979E+01	3.96892025630E+01	-8.60680845179E+01	4.30650138137E+01	-3.13617787833E-01	1.35543976500E+02
1.13415000000E+10	-3.17519990186E-01	1.36163868700E+02	-8.74338371584E+01	3.92370361339E+01	-8.60695445680E+01	3.10517024059E+01	-3.11419459016E-01	1.35448319529E+02
1.13420000000E+10	-3.17558562888E-01	1.36044224333E+02	-8.82399137328E+01	3.12759709204E+01	-8.52970483706E+01	5.18144412926E+01	-3.11089730792E-01	1.35341225983E+02
1.13425000000E+10	-3.21838985281E-01	1.35936206131E+02	-8.68707961986E+01	2.21039870082E+01	-8.66342402488E+01	5.21734589141E+01	-3.12047299005E-01	1.35247928184E+02
1.13430000000E+10	-3.15965208852E-01	1.35806917907E+02	-8.68318814217E+01	5.78860809115E+01	-8.54973417996E+01	5.58398520742E+01	-3.11322512481E-01	1.35153643269E+02
1.13435000000E+10	-3.19383860237E-01	1.35701365420E+02	-8.81942216771E+01	3.30487936797E+01	-8.61462757164E+01	4.53534006175E+01	-3.10528966580E-01	1.35064462240E+02
1.13440000000E+10	-3.20278923133E-01	1.35593454521E+02	-8.64375088178E+01	4.85364248491E+01	-8.55428510855E+01	4.39750833489E+01	-3.11915102517E-01	1.34957831492E+02
1.13445000000E+10	-3.17985842933E-01	1.35488497493E+02	-8.71816028772E+01	2.57075978333E+01	-8.68308861918E+01	4.74787432154E+01	-3.11739568820E-01	1.34866971439E+02
1.13450000000E+10	-3.17305641152E-01	1.35361108463E+02	-8.62630925780E+01	3.57201802127E+01	-8.52605904373E+01	3.82538757783E+01	-3.11157682865E-01	1.34773252482E+02
1.13455000000E+10	-3.18534987300E-01	1.35258015338E+02	-8.62433557211E+01	3.43468078967E+01	-8.55854279582E+01	5.09890286477E+01	-3.10427588779E-01	1.34660826996E+02
1.13460000000E+10	-3.20985944640E-01	1.35144548940E+02	-8.65125560304E+01	3.00317536861E+01	-8.67138024909E+01	3.99783719345E+01	-3.10917581615E-01	1.34569114548E+02
1.13465000000E+10	-3.17768342848E-01	1.35017430903E+02	-8.80243921351E+01	4.83841972162E+01	-9.00655422112E+01	3.96626924795E+01	-3.14343247757E-01	1.34448234658E+02
1.13470000000E+10	-3.17313882384E-01	1.34889158362E+02	-8.48830831296E+01	4.79197647036E+01	-8.69314132250E+01	3.45957098887E+01	-3.12567701319E-01	1.34354528813E+02
1.13475000000E+10	-3.20638011578E-01	1.34795502096E+02	-8.56357464095E+01	4.41148577373E+01	-8.88138771430E+01	4.63017231625E+01	-3.12993521630E-01	1.34255700780E+02
1.13480000000E+10	-3.19110769895E-01	1.34687890093E+02	-8.78431986973E+01	4.07080173618E+01	-8.61936547596E+01	4.16907511033E+01	-3.13019008888E-01	1.34153294279E+02
1.13485000000E+10	-3.19069584652E-01	1.34564888866E+02	-8.54533355537E+01	3.41678625277E+01	-8.74956101775E+01	3.27581723863E+01	-3.12842760757E-01	1.34058602666E+02
1.13490000000E+10	-3.18441143239E-01	1.34450618047E+02	-8.44595735099E+01	4.98424962265E+01	-8.72354712413E+01	2.97820503243E+01	-3.12506995225E-01	1.33940996790E+02
1.13495000000E+10	-3.19318432075E-01	1.34328698742E+02	-8.51375614907E+01	2.72404547002E+01	-8.60705118386E+01	3.99783536713E+01	-3.14151724319E-01	1.33851212528E+02
1.13500000000E+10	-3.20500790938E-01	1.34219512270E+02	-8.52008386808E+01	4.20028801814E+01	-8.58167244974E+01	3.58249450424E+01	-3.13501750461E-01	1.33734370356E+02
1.13505000000E+10	-3.21436538492E-01	1.34113026978E+02	-8.58340793060E+01	3.87566522797E+01	-8.63839298173E+01	5.05850725504E+01	-3.13911732198E-01	1.33649686829E+02
1.13510000000E+10	-3.20770789940E-01	1.33992310628E+02	-8.50019152658E+01	4.67361504647E+01	-8.61883094696E+01	3.70474469839E+01	-3.13240031843E-01	1.33530807923E+02
1.13515000000E+10	-3.20836437472E-01	1.33857096114E+02	-8.46051683382E+01	3.19035380811E+01	-8.62989258433E+01	2.88734393834E+01	-3.15207674861E-01	1.33428193006E+02
1.13520000000E+10	-3.20285452784E-01	1.33757198055E+02	-8.58728797539E+01	3.61731838391E+01	-8.64173572117E+01	3.82516164379E+01	-3.12847662494E-01	1.33332083375E+02
1.13525000000E+10	-3.17675457760E-01	1.33631956571E+02	-8.67297914376E+01	4.17701170621E+01	-8.41611585912E+01	3.90260764578E+01	-3.13613141727E-01	1.33233047625E+02
1.13530000000E+10	-3.20249628873E-01	1.33520120517E+02	-8.64960299463E+01	3.54923840474E+01	-8.66289048954E+01	3.83849146488E+01	-3.11911974128E-01	1.33127350417E+02
1.13535000000E+10	-3.21538375615E-01	1.33402534796E+02	-8.60667219370E+01	3.00681749902E+01	-8.63527469751E+01	3.20034421301E+01	-3.13100033218E-01	1.33036564507E+02
1.13540000000E+10	-3.20391623397E-01	1.33275141201E+02	-8.48143518207E+01	4.04238863970E+01	-8.46770161441E+01	3.38983899605E+01	-3.15157549195E-01	1.32923404795E+02
1.13545000000E+10	-3.20158277645E-01	1.33162678710E+02	-8.50219090691E+01	2.90200286727E+01	-8.60465528400E+01	4.92391822217E+01	-3.16238522273E-01	1.32827922889E+02
1.13550000000E+10	-3.21193254232E-01	1.33045046170E+02	-8.71927681001E+01	3.60302174153E+01	-8.74419537396E+01	4.80252770386E+01	-3.14808371392E-01	1.32713817667E+02
1.13555000000E+10	-3.18666614097E-01	1.32915835480E+02	-8.56843835419E+01	4.47075545551E+01	-8.72688899908E+01	2.96492415688E+01	-3.13361333964E-01	1.32617314595E+02
1.13560000000E+10	-3.18927709483E-01	1.32795635644E+02	-8.61231207138E+01	4.25875823463E+01	-8.55831452798E+01	3.27192437508E+01	-3.16783806209E-01	1.32503552349E+02
1.13565000000E+10	-3.22277794024E-01	1.32684655563E+02	-8.45957048344E+01	4.15538512724E+01	-8.50970432383E+01	2.60156062311E+01	-3.13880639525E-01	1.32381418238E+02
1.13570000000E+10	-3.21311284710E-01	1.32558937995E+02	-8.53417263615E+01	3.52069082366E+01	-8.62247069272E+01	4.36331723751E+01	-3.16694414553E-01	1.32302988903E+02
1.13575000000E+10	-3.21863838049E-01	1.32443718024E+02	-8.58300953320E+01	3.39094087833E+01	-8.52238734719E+01	3.79218401781E+01	-3.14790166656E-01	1.32192090786E+02
1.13580000000E+10	-3.19701361259E-01	1.32309216972E+02	-8.67449887620E+01	3.72090251857E+01	-8.48291628624E+01	2.46239636952E+01	-3.13102543784E-01	1.32080907491E+02
1.13585000000E+10	-3.21348505340E-01	1.32189330518E+02	-8.75185485039E+01	4.16502683011E+01	-8.61625783510E+01	3.85827124859E+01	-3.14582539590E-01	1.31977928833E+02
1.13590000000E+10	-3.20975849841E-01	1.32074611726E+02	-8.53968569954E+01	3.39384635114E+01	-8.62786435010E+01	3.52855856806E+01	-3.13752968479E-01	1.31865074804E+02
