# Hz S DB R 50
! Planar, S50244, 24171007, 25.4.1/6
! Date: 15.10.2025 10:29:09
! Data: Format (Calibration Info)
! Freq	S11:dB/Ang(F2)	S21:dB/Ang(F2)	S12:dB/Ang(F2)	S22:dB/Ang(F2)
1.13000000000E+10	-3.22329078724E-01	1.44674274631E+02	-8.79414664378E+01	5.10441755887E+01	-8.71708868308E+01	5.33417153309E+01	-3.15821635748E-01	1.43111073326E+02
1.13005000000E+10	-3.23355148341E-01	1.44592107163E+02	-8.73069648641E+01	3.53711923274E+01	-8.60377997033E+01	4.16525465132E+01	-3.16532523610E-01	1.43003723956E+02
1.13010000000E+10	-3.22748142508E-01	1.44491095447E+02	-8.72685734014E+01	4.64118430105E+01	-8.72245022675E+01	5.64958653409E+01	-3.14155104225E-01	1.42928444056E+02
1.13015000000E+10	-3.23820778017E-01	1.44395958273E+02	-8.66447011320E+01	3.87577444711E+01	-8.81042140386E+01	5.61712177068E+01	-3.14345496489E-01	1.42856138706E+02
1.13020000000E+10	-3.22766489873E-01	1.44289797730E+02	-8.58866271852E+01	5.97732809023E+01	-8.79796294515E+01	4.61947007613E+01	-3.14152400708E-01	1.42756752848E+02
1.13025000000E+10	-3.22010657489E-01	1.44187821878E+02	-8.68390182408E+01	4.40723695256E+01	-8.72604764509E+01	3.65393221974E+01	-3.15199649520E-01	1.42683081571E+02
1.13030000000E+10	-3.22137522848E-01	1.44111087038E+02	-8.89520236422E+01	6.35665184783E+01	-9.02582982278E+01	5.25781271278E+01	-3.09815150097E-01	1.42581301457E+02
1.13035000000E+10	-3.20791976289E-01	1.43990133530E+02	-8.63500142484E+01	4.94736942502E+01	-8.61810062203E+01	4.68550610940E+01	-3.11940493742E-01	1.42490764234E+02
1.13040000000E+10	-3.21970764312E-01	1.43895856175E+02	-8.64679666631E+01	4.30861012103E+01	-8.93530221197E+01	5.33065935425E+01	-3.14354931597E-01	1.42427663645E+02
1.13045000000E+10	-3.21208377123E-01	1.43795540441E+02	-8.73744368788E+01	4.81846674461E+01	-8.98454757520E+01	6.64735333097E+01	-3.12905478177E-01	1.42337512802E+02
1.13050000000E+10	-3.20369834724E-01	1.43713503718E+02	-8.80502173418E+01	4.97439334259E+01	-8.49770041853E+01	3.58186332654E+01	-3.18053560398E-01	1.42214063092E+02
1.13055000000E+10	-3.20544132335E-01	1.43608672967E+02	-8.71979219339E+01	4.86678048467E+01	-8.92185197401E+01	5.42423366388E+01	-3.11284683944E-01	1.42149239044E+02
1.13060000000E+10	-3.20476516462E-01	1.43512857931E+02	-8.76063811532E+01	3.50581706062E+01	-8.75152941162E+01	5.72126451029E+01	-3.11325505032E-01	1.42055596576E+02
1.13065000000E+10	-3.21771537849E-01	1.43418198287E+02	-8.85204955710E+01	3.94880362435E+01	-8.83371265583E+01	6.56150792341E+01	-3.12091540734E-01	1.41970454168E+02
1.13070000000E+10	-3.20992121906E-01	1.43327292086E+02	-8.59386551930E+01	5.83971511529E+01	-9.09005333436E+01	6.01764322293E+01	-3.11717359838E-01	1.41881901572E+02
1.13075000000E+10	-3.22053891303E-01	1.43228777503E+02	-8.60458704245E+01	5.84746942369E+01	-8.69479265447E+01	4.48041807350E+01	-3.13200288108E-01	1.41790083895E+02
1.13080000000E+10	-3.20810281446E-01	1.43145258826E+02	-8.84830526033E+01	4.33623892607E+01	-8.64282886773E+01	4.20873144773E+01	-3.10689391655E-01	1.41710329879E+02
1.13085000000E+10	-3.20858827734E-01	1.43031199252E+02	-8.78248700751E+01	4.16681936409E+01	-8.99006543706E+01	3.30666330829E+01	-3.15341975144E-01	1.41618366929E+02
1.13090000000E+10	-3.21049968741E-01	1.42932858769E+02	-8.96028112199E+01	4.13013559435E+01	-9.09762369859E+01	5.19951711346E+01	-3.12173876123E-01	1.41524576696E+02
1.13095000000E+10	-3.21793761147E-01	1.42833232913E+02	-9.12181448068E+01	1.21586740416E+01	-8.78624336725E+01	5.07756805169E+01	-3.12740449431E-01	1.41424855912E+02
1.13100000000E+10	-3.17429176529E-01	1.42724907694E+02	-8.37797994882E+01	5.43353657290E+01	-8.75886167000E+01	6.10268464404E+01	-3.08419380976E-01	1.41344100832E+02
1.13105000000E+10	-3.21809847229E-01	1.42637022776E+02	-9.06082795053E+01	3.75438039225E+01	-8.53131107246E+01	2.45878742528E+01	-3.12974494591E-01	1.41237938342E+02
1.13110000000E+10	-3.20901970867E-01	1.42527990932E+02	-8.66614013293E+01	4.25974410245E+01	-8.84751366997E+01	5.02372095749E+01	-3.11720035167E-01	1.41157195368E+02
1.13115000000E+10	-3.21963106145E-01	1.42447720554E+02	-8.61367816806E+01	4.85316096228E+01	-8.74745482971E+01	5.25972879001E+01	-3.10519753002E-01	1.41074299776E+02
1.13120000000E+10	-3.21356179569E-01	1.42331760982E+02	-8.56063913780E+01	3.68877697682E+01	-8.80343126726E+01	4.57899042477E+01	-3.13698110277E-01	1.40976624566E+02
1.13125000000E+10	-3.20059970974E-01	1.42264143440E+02	-9.06271945429E+01	3.49097568545E+01	-8.60599238144E+01	3.64050493809E+01	-3.09800504388E-01	1.40891549306E+02
1.13130000000E+10	-3.19102285962E-01	1.42147822597E+02	-8.59610688229E+01	4.54849907559E+01	-8.81253379355E+01	3.67090986946E+01	-3.13558992055E-01	1.40800015194E+02
1.13135000000E+10	-3.21046613330E-01	1.42037348414E+02	-8.44327646347E+01	4.67434140741E+01	-8.94504215319E+01	3.74934959651E+01	-3.08478984015E-01	1.40721687649E+02
1.13140000000E+10	-3.20475946526E-01	1.41937474282E+02	-8.67792134772E+01	4.40780828180E+01	-8.89519002783E+01	5.91129240813E+01	-3.12165477801E-01	1.40636502452E+02
1.13145000000E+10	-3.19864958513E-01	1.41828363707E+02	-8.52882635649E+01	5.00717937139E+01	-8.47649945138E+01	4.19482779606E+01	-3.10887640347E-01	1.40532976089E+02
1.13150000000E+10	-3.20601911980E-01	1.41742186714E+02	-8.79183448364E+01	4.07400451901E+01	-8.97777225569E+01	4.46089570553E+01	-3.08697549541E-01	1.40439355182E+02
1.13155000000E+10	-3.18322050814E-01	1.41642039558E+02	-8.72184444438E+01	6.17314215757E+01	-8.77296481573E+01	5.19099433435E+01	-3.11591845692E-01	1.40346020735E+02
1.13160000000E+10	-3.18842847336E-01	1.41551128895E+02	-8.80910786473E+01	6.39497864256E+01	-8.61376531583E+01	4.55859721067E+01	-3.11895249295E-01	1.40269607506E+02
1.13165000000E+10	-3.21944965391E-01	1.41437395383E+02	-8.62908351731E+01	3.51588739066E+01	-8.64924068932E+01	4.54504200649E+01	-3.15184283292E-01	1.40176952723E+02
1.13170000000E+10	-3.20484546119E-01	1.41343963143E+02	-8.70782228683E+01	4.64953723705E+01	-8.93192964823E+01	5.02578157887E+01	-3.11009591904E-01	1.40081871464E+02
1.13175000000E+10	-3.19949545968E-01	1.41233756377E+02	-8.80125149488E+01	3.48720202017E+01	-8.67640230785E+01	4.78352741981E+01	-3.13338105240E-01	1.39977101699E+02
1.13180000000E+10	-3.19327534267E-01	1.41133629453E+02	-8.93579872550E+01	5.62137237606E+01	-9.00023002581E+01	5.23429045069E+01	-3.13374594181E-01	1.39879628134E+02
1.13185000000E+10	-3.21117614652E-01	1.41040857624E+02	-8.99094701267E+01	5.00282377877E+01	-8.91712437933E+01	4.29753791811E+01	-3.12235924234E-01	1.39800920053E+02
1.13190000000E+10	-3.19176989589E-01	1.40934229966E+02	-8.84901817660E+01	4.31429531136E+01	-8.99063241548E+01	2.86841984090E+01	-3.08253356502E-01	1.39703872915E+02
1.13195000000E+10	-3.20237663413E-01	1.40815814472E+02	-8.53943295112E+01	5.24104650472E+01	-8.53235253612E+01	4.32867534424E+01	-3.10222201515E-01	1.39612463452E+02
1.13200000000E+10	-3.18295797648E-01	1.40723159633E+02	-8.63651171523E+01	3.05495970980E+01	-8.95188920109E+01	4.13810991026E+01	-3.12194684199E-01	1.39526766987E+02
1.13205000000E+10	-3.19248437698E-01	1.40635813939E+02	-8.87634343417E+01	4.76186257031E+01	-8.56291489291E+01	4.75652930243E+01	-3.11247995977E-01	1.39425597003E+02
1.13210000000E+10	-3.19848401365E-01	1.40505585242E+02	-8.62501857292E+01	4.48496857225E+01	-8.66986886252E+01	5.46156348419E+01	-3.11246403099E-01	1.39338381746E+02
1.13215000000E+10	-3.19057724089E-01	1.40417053529E+02	-8.57724128893E+01	3.79766791724E+01	-8.54316499911E+01	4.14356891660E+01	-3.13243017230E-01	1.39238770346E+02
1.13220000000E+10	-3.18546417282E-01	1.40307193787E+02	-8.59955856754E+01	4.37485391104E+01	-8.71832178970E+01	5.20244323141E+01	-3.10272453120E-01	1.39171268279E+02
1.13225000000E+10	-3.16830041282E-01	1.40208433251E+02	-8.46346063886E+01	3.32219804914E+01	-8.64725863978E+01	5.54345573497E+01	-3.12898325262E-01	1.39061471099E+02
1.13230000000E+10	-3.18457351665E-01	1.40126857701E+02	-8.67045974948E+01	5.20325899108E+01	-8.94885840886E+01	4.82404483081E+01	-3.10065720311E-01	1.38974453063E+02
1.13235000000E+10	-3.20857409025E-01	1.40002680404E+02	-8.67345865724E+01	2.93639240614E+01	-8.65839226821E+01	5.74190700646E+01	-3.10318057977E-01	1.38885548238E+02
1.13240000000E+10	-3.16857423045E-01	1.39895997052E+02	-8.73763281000E+01	4.21018657951E+01	-8.81966074438E+01	3.68357805347E+01	-3.12104476235E-01	1.38806367848E+02
1.13245000000E+10	-3.21669083777E-01	1.39796223243E+02	-8.66582724776E+01	3.05659206491E+01	-8.52333375927E+01	4.40772369935E+01	-3.11566107011E-01	1.38688081555E+02
1.13250000000E+10	-3.19578163890E-01	1.39704749072E+02	-8.84709433925E+01	4.73688566510E+01	-8.65615613613E+01	4.12840466877E+01	-3.11561895682E-01	1.38608484069E+02
1.13255000000E+10	-3.16632887493E-01	1.39601921096E+02	-8.80375409680E+01	3.94908311227E+01	-8.61453210346E+01	5.07586851858E+01	-3.10345392528E-01	1.38508452883E+02
1.13260000000E+10	-3.20820616514E-01	1.39478291323E+02	-8.61318702702E+01	3.30293358072E+01	-8.92181520088E+01	3.95301199799E+01	-3.09261384825E-01	1.38400174751E+02
1.13265000000E+10	-3.19467368619E-01	1.39367231975E+02	-8.67049090245E+01	4.75952326321E+01	-8.77135767034E+01	4.93640897047E+01	-3.09980748277E-01	1.38326088148E+02
1.13270000000E+10	-3.19368418694E-01	1.39258023703E+02	-8.52439167585E+01	4.77128728577E+01	-8.73423230314E+01	4.04348880447E+01	-3.10951900343E-01	1.38226898589E+02
1.13275000000E+10	-3.19624388809E-01	1.39166434019E+02	-8.65453089110E+01	3.45550589566E+01	-8.53556450177E+01	3.72426102841E+01	-3.10801302452E-01	1.38132610711E+02
1.13280000000E+10	-3.18142384282E-01	1.39059004617E+02	-8.62385378437E+01	4.49150377450E+01	-8.71601329154E+01	4.33473376488E+01	-3.10145806221E-01	1.38032128094E+02
1.13285000000E+10	-3.16965245442E-01	1.38943527795E+02	-8.78465255184E+01	4.40459250530E+01	-8.73849573144E+01	4.83280055359E+01	-3.10180869951E-01	1.37940013005E+02
1.13290000000E+10	-3.18434087871E-01	1.38843931430E+02	-8.68470468939E+01	3.69877849436E+01	-8.61251879598E+01	4.04231970501E+01	-3.10703381064E-01	1.37857413328E+02
1.13295000000E+10	-3.18510961654E-01	1.38731631505E+02	-8.47634110061E+01	4.99199517064E+01	-8.80590477493E+01	4.43830496176E+01	-3.12047258286E-01	1.37750493469E+02
1.13300000000E+10	-3.19297658640E-01	1.38627085188E+02	-8.82817041250E+01	6.30891238058E+01	-8.55608845257E+01	3.73659203705E+01	-3.11042603480E-01	1.37649086924E+02
1.13305000000E+10	-3.20303039011E-01	1.38531308220E+02	-8.72123960820E+01	4.05439678092E+01	-8.70195793906E+01	5.86757993828E+01	-3.08663788248E-01	1.37555542906E+02
1.13310000000E+10	-3.20051306813E-01	1.38422727702E+02	-8.81564299052E+01	4.49488283492E+01	-8.72281066957E+01	3.83117634062E+01	-3.10299199749E-01	1.37467388327E+02
1.13315000000E+10	-3.19352573267E-01	1.38321674053E+02	-8.84211830389E+01	3.96820377868E+01	-8.72163176564E+01	4.22258832742E+01	-3.11951794683E-01	1.37358893868E+02
1.13320000000E+10	-3.16148286493E-01	1.38209360784E+02	-8.68485563053E+01	5.63297508963E+01	-8.70546892344E+01	4.80094651242E+01	-3.12662822975E-01	1.37278291596E+02
1.13325000000E+10	-3.17565659709E-01	1.38103332627E+02	-8.67427395925E+01	4.74893837992E+01	-8.52264154287E+01	5.38545601260E+01	-3.13011672081E-01	1.37185411455E+02
1.13330000000E+10	-3.17242082927E-01	1.37990176480E+02	-8.54827072381E+01	3.90132724566E+01	-8.74438274523E+01	6.06839225826E+01	-3.10659859021E-01	1.37096881353E+02
1.13335000000E+10	-3.18091201850E-01	1.37894281223E+02	-9.00364266130E+01	4.23524596473E+01	-8.95563617399E+01	4.44559138734E+01	-3.10456088453E-01	1.36985404342E+02
1.13340000000E+10	-3.16627928274E-01	1.37783191455E+02	-8.62782121521E+01	5.09459018416E+01	-8.77140365596E+01	5.40787990010E+01	-3.12723821656E-01	1.36917725607E+02
1.13345000000E+10	-3.15187709147E-01	1.37660659870E+02	-8.76486374712E+01	3.92344863607E+01	-8.70783865995E+01	3.49206565530E+01	-3.10815394432E-01	1.36802985194E+02
1.13350000000E+10	-3.18504330305E-01	1.37556474031E+02	-8.77187998668E+01	2.47078729287E+01	-8.90740710356E+01	4.35369966161E+01	-3.10260544959E-01	1.36712976469E+02
1.13355000000E+10	-3.18886826567E-01	1.37433881401E+02	-8.48551820737E+01	4.90823290746E+01	-8.81562414773E+01	4.70100381750E+01	-3.12054660101E-01	1.36615484146E+02
1.13360000000E+10	-3.18038749510E-01	1.37331277859E+02	-8.67797471876E+01	4.51754692484E+01	-8.93884925538E+01	5.22501752388E+01	-3.11595773694E-01	1.36518454119E+02
1.13365000000E+10	-3.18688555508E-01	1.37233672784E+02	-8.83142780307E+01	5.29740106821E+01	-8.63166201523E+01	4.75623447926E+01	-3.09140300756E-01	1.36402187635E+02
1.13370000000E+10	-3.19461335717E-01	1.37129123973E+02	-8.61191657259E+01	3.31019525742E+01	-8.76334996397E+01	5.45503743677E+01	-3.07676880518E-01	1.36321107065E+02
1.13375000000E+10	-3.19619383376E-01	1.37005525762E+02	-8.64097369184E+01	5.96608052671E+01	-8.68349368598E+01	3.18809934782E+01	-3.08863019854E-01	1.36221918056E+02
1.13380000000E+10	-3.18627834574E-01	1.36906839633E+02	-8.55339754948E+01	4.21558469513E+01	-8.76726887117E+01	4.28641536896E+01	-3.10828018853E-01	1.36135479517E+02
1.13385000000E+10	-3.17793160120E-01	1.36798835439E+02	-8.59392833044E+01	4.54512795603E+01	-8.75288747534E+01	2.49454268191E+01	-3.10467811137E-01	1.36039439428E+02
1.13390000000E+10	-3.19235795542E-01	1.36680818596E+02	-8.39544269337E+01	4.44681602745E+01	-8.71369542820E+01	4.14743558161E+01	-3.10909921288E-01	1.35920148958E+02
1.13395000000E+10	-3.18536971665E-01	1.36579041417E+02	-8.54437108005E+01	4.87160636737E+01	-8.78830631389E+01	4.26985544269E+01	-3.11314899510E-01	1.35841858273E+02
1.13400000000E+10	-3.18236350076E-01	1.36457910531E+02	-8.89356215039E+01	5.83592099839E+01	-8.58105532542E+01	4.04647827562E+01	-3.09807140174E-01	1.35733164683E+02
1.13405000000E+10	-3.18689462474E-01	1.36345563929E+02	-8.52329176920E+01	4.11448418563E+01	-8.76097679936E+01	4.55565755945E+01	-3.13160900318E-01	1.35633111005E+02
1.13410000000E+10	-3.18446652488E-01	1.36258768002E+02	-8.81995196740E+01	3.13473796855E+01	-8.58557562428E+01	4.89466675384E+01	-3.12599129032E-01	1.35542085220E+02
1.13415000000E+10	-3.16874532253E-01	1.36121683592E+02	-8.42955735330E+01	4.17965058447E+01	-8.46440476189E+01	4.30661799231E+01	-3.10805018058E-01	1.35447287171E+02
1.13420000000E+10	-3.18115276721E-01	1.36022777351E+02	-8.64022075361E+01	2.45497246606E+01	-8.75623338233E+01	3.82014602271E+01	-3.10111948286E-01	1.35334530491E+02
1.13425000000E+10	-3.22225233763E-01	1.35905957199E+02	-8.54154834230E+01	2.55853734619E+01	-8.46256125295E+01	4.71562523919E+01	-3.10505165416E-01	1.35246198026E+02
1.13430000000E+10	-3.17361080383E-01	1.35790667917E+02	-8.64718384319E+01	3.41505702513E+01	-8.73502767405E+01	4.29424048248E+01	-3.10687937877E-01	1.35140573528E+02
1.13435000000E+10	-3.19340376939E-01	1.35668685010E+02	-8.72958805691E+01	4.65404805075E+01	-8.60949969065E+01	3.33392512767E+01	-3.08974612185E-01	1.35056740774E+02
1.13440000000E+10	-3.20420531928E-01	1.35571567879E+02	-8.54839084834E+01	2.91272956830E+01	-8.87464935404E+01	3.66141206956E+01	-3.12259321036E-01	1.34944796397E+02
1.13445000000E+10	-3.17180793334E-01	1.35457801822E+02	-8.67697250634E+01	4.28673729544E+01	-8.73375025711E+01	4.90249785409E+01	-3.11816304396E-01	1.34855483397E+02
1.13450000000E+10	-3.16069372854E-01	1.35342930363E+02	-8.82882365335E+01	4.13082897181E+01	-8.69084178731E+01	3.57893576846E+01	-3.10196666906E-01	1.34755412975E+02
1.13455000000E+10	-3.18539067217E-01	1.35225265236E+02	-8.55165410021E+01	3.87199340860E+01	-8.72283487275E+01	4.01024584491E+01	-3.10223430716E-01	1.34649427826E+02
1.13460000000E+10	-3.20194031106E-01	1.35113689746E+02	-8.63233309019E+01	3.53291379057E+01	-8.56419715495E+01	3.80095130219E+01	-3.10069145017E-01	1.34554099776E+02
1.13465000000E+10	-3.16770403507E-01	1.34981005549E+02	-8.59880041004E+01	4.76802716264E+01	-8.59151641785E+01	4.21449398833E+01	-3.12713719176E-01	1.34439664496E+02
1.13470000000E+10	-3.17977728705E-01	1.34862623134E+02	-8.61301266238E+01	4.54124886769E+01	-8.73643320693E+01	3.25875281352E+01	-3.11911344749E-01	1.34343807292E+02
1.13475000000E+10	-3.19468247327E-01	1.34767710224E+02	-8.76621934080E+01	4.55996481692E+01	-8.50622070042E+01	3.61551446755E+01	-3.11815288556E-01	1.34247316359E+02
1.13480000000E+10	-3.19272336105E-01	1.34659365574E+02	-8.79541399745E+01	4.78634395704E+01	-8.59519187994E+01	3.53983615879E+01	-3.12166836549E-01	1.34144235112E+02
1.13485000000E+10	-3.18716399980E-01	1.34535603888E+02	-8.59395002851E+01	3.53952875290E+01	-8.48083251913E+01	4.51898337319E+01	-3.11239800814E-01	1.34055942172E+02
1.13490000000E+10	-3.17866447980E-01	1.34416494362E+02	-8.45307099950E+01	3.87254357960E+01	-8.52444681454E+01	4.39575485181E+01	-3.11588833896E-01	1.33936057612E+02
1.13495000000E+10	-3.17722260987E-01	1.34284885053E+02	-8.55767343203E+01	4.45686900438E+01	-8.60948685061E+01	3.41779545660E+01	-3.12997558801E-01	1.33851269101E+02
1.13500000000E+10	-3.20219401539E-01	1.34187977488E+02	-8.55908661248E+01	2.61074892125E+01	-8.95901778797E+01	4.31593692526E+01	-3.13343564582E-01	1.33731026439E+02
1.13505000000E+10	-3.20485233765E-01	1.34073229211E+02	-8.62518596261E+01	3.94448044015E+01	-8.67023461455E+01	3.29472772212E+01	-3.13072669761E-01	1.33636906067E+02
1.13510000000E+10	-3.19405026054E-01	1.33955263014E+02	-8.58750684357E+01	4.33853375628E+01	-8.57133691940E+01	4.60762068579E+01	-3.12873727635E-01	1.33524961249E+02
1.13515000000E+10	-3.21188957597E-01	1.33823795816E+02	-8.56401093341E+01	3.46696880897E+01	-8.43812575885E+01	4.24114299983E+01	-3.13132865195E-01	1.33422345433E+02
1.13520000000E+10	-3.19727683667E-01	1.33718119586E+02	-8.62754206815E+01	4.59342100647E+01	-8.67743342199E+01	3.76346484183E+01	-3.13109826851E-01	1.33324238889E+02
1.13525000000E+10	-3.19538809151E-01	1.33602475314E+02	-8.38886413038E+01	3.02850882025E+01	-8.52210468313E+01	3.54172661372E+01	-3.12701444434E-01	1.33216705431E+02
1.13530000000E+10	-3.19820149104E-01	1.33483699145E+02	-8.76153317483E+01	5.18333982281E+01	-8.82053216886E+01	4.04530493569E+01	-3.10945306768E-01	1.33121625414E+02
1.13535000000E+10	-3.21073787161E-01	1.33360812909E+02	-8.48123255617E+01	4.70328628798E+01	-8.53689725517E+01	3.80697948999E+01	-3.12671613346E-01	1.33036884341E+02
1.13540000000E+10	-3.21370332248E-01	1.33245258080E+02	-8.60224867826E+01	3.29726463890E+01	-8.59500764949E+01	3.29442372304E+01	-3.14407384624E-01	1.32905341794E+02
1.13545000000E+10	-3.19844276056E-01	1.33119889691E+02	-8.54832681526E+01	3.59310842524E+01	-8.69185265055E+01	4.56383864801E+01	-3.15524371339E-01	1.32811762924E+02
1.13550000000E+10	-3.20807648351E-01	1.33014097046E+02	-8.48076304185E+01	3.26597452264E+01	-8.49839321158E+01	4.50790264667E+01	-3.12689359364E-01	1.32698818713E+02
1.13555000000E+10	-3.20286808040E-01	1.32876580208E+02	-8.45658273124E+01	4.77364442227E+01	-8.60485430816E+01	2.92651953174E+01	-3.11086519132E-01	1.32609786409E+02
1.13560000000E+10	-3.19604640079E-01	1.32775430951E+02	-8.55168383195E+01	2.45947605273E+01	-8.46856860514E+01	3.56438256470E+01	-3.15578669807E-01	1.32495984330E+02
1.13565000000E+10	-3.21648248740E-01	1.32649746865E+02	-8.49955407423E+01	4.62872171800E+01	-8.60382969132E+01	3.80979227723E+01	-3.13768555501E-01	1.32381177723E+02
1.13570000000E+10	-3.19484095695E-01	1.32526238097E+02	-8.66654327249E+01	3.88541459469E+01	-8.59056222579E+01	4.82417411164E+01	-3.17152427314E-01	1.32293087159E+02
1.13575000000E+10	-3.21117084808E-01	1.32403954133E+02	-8.37440398670E+01	3.86552364806E+01	-8.48013696039E+01	3.42303429937E+01	-3.14299104467E-01	1.32186988082E+02
1.13580000000E+10	-3.19252821795E-01	1.32277096459E+02	-8.68343712050E+01	5.32787654230E+01	-8.34897705147E+01	4.26832094048E+01	-3.11009398487E-01	1.32086241582E+02
1.13585000000E+10	-3.23446341348E-01	1.32160156562E+02	-8.42317281143E+01	3.23630975136E+01	-8.56692063250E+01	3.87668094582E+01	-3.14488601924E-01	1.31975014738E+02
1.13590000000E+10	-3.20966578830E-01	1.32039280117E+02	-8.69992898479E+01	3.57042095637E+01	-8.40655490726E+01	3.90914993481E+01	-3.10888503942E-01	1.31865177625E+02
