# Hz S DB R 50
! Planar, S50244, 24171007, 25.4.1/6
! Date: 15.10.2025 10:29:29
! Data: Format (Calibration Info)
! Freq	S11:dB/Ang(F2)	S21:dB/Ang(F2)	S12:dB/Ang(F2)	S22:dB/Ang(F2)
1.13000000000E+10	-3.21503263989E-01	1.45007619861E+02	-8.68215313978E+01	4.24439211947E+01	-8.81720702300E+01	4.30172038592E+01	-3.13631827413E-01	1.43297323050E+02
1.13005000000E+10	-3.21553454403E-01	1.44920111879E+02	-8.62358046205E+01	4.56010782382E+01	-8.62516091302E+01	5.33727511317E+01	-3.14309554149E-01	1.43200076384E+02
1.13010000000E+10	-3.21164590903E-01	1.44820341274E+02	-8.93508837402E+01	6.97897007638E+01	-8.63409043961E+01	5.39630769151E+01	-3.11482803011E-01	1.43118795981E+02
1.13015000000E+10	-3.23557977900E-01	1.44726638175E+02	-8.68730074823E+01	4.24390120433E+01	-8.64125640044E+01	3.06941045005E+01	-3.14771168603E-01	1.43041035872E+02
1.13020000000E+10	-3.22059616287E-01	1.44631056347E+02	-8.80075265483E+01	5.40820767580E+01	-9.00644965007E+01	4.24440098088E+01	-3.13603880314E-01	1.42956260500E+02
1.13025000000E+10	-3.21404974691E-01	1.44532484687E+02	-8.80902830135E+01	5.58874629424E+01	-8.67419143348E+01	3.92311008627E+01	-3.14495783173E-01	1.42876117955E+02
1.13030000000E+10	-3.21322254438E-01	1.44449306119E+02	-8.85473895240E+01	5.35933321470E+01	-8.53046509451E+01	5.79162039012E+01	-3.10238000029E-01	1.42776515503E+02
1.13035000000E+10	-3.21442566647E-01	1.44332754435E+02	-8.79457842199E+01	4.86328958002E+01	-8.79304185409E+01	4.74685977764E+01	-3.11481308626E-01	1.42695573245E+02
1.13040000000E+10	-3.21447203991E-01	1.44242822836E+02	-8.62376728948E+01	4.78908429567E+01	-8.76674578547E+01	3.34168061611E+01	-3.15197897353E-01	1.42619200046E+02
1.13045000000E+10	-3.20382809319E-01	1.44150642854E+02	-9.19115202186E+01	4.81953079215E+01	-8.68496993196E+01	3.38893515998E+01	-3.12638307222E-01	1.42535174421E+02
1.13050000000E+10	-3.19576637351E-01	1.44060219911E+02	-8.98124112250E+01	4.76050383366E+01	-8.71939883138E+01	4.83308174203E+01	-3.17015391149E-01	1.42415487133E+02
1.13055000000E+10	-3.21107455735E-01	1.43953088360E+02	-8.50573494829E+01	3.92819949388E+01	-8.73737033070E+01	5.17257599653E+01	-3.11385885490E-01	1.42333412209E+02
1.13060000000E+10	-3.20032359851E-01	1.43861556127E+02	-8.73758428852E+01	3.38120989522E+01	-8.58051237780E+01	4.47603702082E+01	-3.10980090425E-01	1.42254011022E+02
1.13065000000E+10	-3.21007292353E-01	1.43777701277E+02	-8.77651642920E+01	5.59851832792E+01	-8.77436649083E+01	4.35643559863E+01	-3.13021012460E-01	1.42168455606E+02
1.13070000000E+10	-3.20921478619E-01	1.43685359970E+02	-9.09024016640E+01	3.90394235090E+01	-8.77925054200E+01	4.46237869461E+01	-3.11396504181E-01	1.42079769214E+02
1.13075000000E+10	-3.21816554477E-01	1.43585884971E+02	-8.84292556783E+01	5.24586248800E+01	-8.96700161237E+01	3.16849418321E+01	-3.11374149080E-01	1.41998682119E+02
1.13080000000E+10	-3.21974741278E-01	1.43491545729E+02	-8.87275946269E+01	4.71923381670E+01	-8.39321823235E+01	4.33894943717E+01	-3.10143471873E-01	1.41915449048E+02
1.13085000000E+10	-3.21261188992E-01	1.43386920513E+02	-8.75115433333E+01	3.99076498780E+01	-8.75523059874E+01	4.96223814445E+01	-3.13121781367E-01	1.41814653835E+02
1.13090000000E+10	-3.20900996701E-01	1.43289534316E+02	-8.49581928893E+01	4.83005872928E+01	-9.15233885035E+01	4.44817120637E+01	-3.12119796794E-01	1.41734598282E+02
1.13095000000E+10	-3.20034681750E-01	1.43193093172E+02	-8.76000341692E+01	4.33922616781E+01	-8.84942739881E+01	5.66665578204E+01	-3.11953435916E-01	1.41635724601E+02
1.13100000000E+10	-3.16870285399E-01	1.43099042070E+02	-8.70250313930E+01	5.75932202612E+01	-8.82982165439E+01	4.49811874991E+01	-3.08799610737E-01	1.41552134219E+02
1.13105000000E+10	-3.21011984004E-01	1.42986324630E+02	-8.53040331174E+01	4.36611389860E+01	-8.88346964900E+01	4.27752357070E+01	-3.12005381177E-01	1.41451381979E+02
1.13110000000E+10	-3.21684345303E-01	1.42897900587E+02	-8.87779555373E+01	4.92314058955E+01	-9.00561115301E+01	5.15251748659E+01	-3.12513283425E-01	1.41369831222E+02
1.13115000000E+10	-3.21034276988E-01	1.42813385959E+02	-8.97581774955E+01	4.67899360955E+01	-8.72664437667E+01	3.61261632270E+01	-3.11557253559E-01	1.41289301179E+02
1.13120000000E+10	-3.21524452148E-01	1.42710904131E+02	-8.89927028087E+01	3.05995085224E+01	-8.84349595849E+01	4.99191491640E+01	-3.12443327515E-01	1.41183350037E+02
1.13125000000E+10	-3.19241737777E-01	1.42628605029E+02	-8.75332824654E+01	5.98577820923E+01	-8.84048764679E+01	3.59429064549E+01	-3.10154105321E-01	1.41106897121E+02
1.13130000000E+10	-3.19840038739E-01	1.42518430712E+02	-8.77551958384E+01	4.21237216246E+01	-8.83408911615E+01	3.75493658096E+01	-3.13177335633E-01	1.41016161559E+02
1.13135000000E+10	-3.20649592576E-01	1.42423763273E+02	-8.70285474883E+01	4.55086228183E+01	-8.96437957810E+01	4.66016724494E+01	-3.06985051522E-01	1.40935770479E+02
1.13140000000E+10	-3.20092060236E-01	1.42322494701E+02	-8.88206555244E+01	4.89268158700E+01	-8.70745412109E+01	4.14911144042E+01	-3.11075886684E-01	1.40850119230E+02
1.13145000000E+10	-3.21428112390E-01	1.42215639276E+02	-8.78563474344E+01	3.50919477294E+01	-8.54672563074E+01	3.89543396605E+01	-3.10732514757E-01	1.40753927613E+02
1.13150000000E+10	-3.20998375608E-01	1.42115622397E+02	-8.85999527796E+01	3.07200223948E+01	-8.56300665251E+01	6.11812742287E+01	-3.07365275365E-01	1.40653206598E+02
1.13155000000E+10	-3.20842031402E-01	1.42022930124E+02	-8.64891304404E+01	2.66957132158E+01	-9.02626732190E+01	4.30621858800E+01	-3.11255035678E-01	1.40573123480E+02
1.13160000000E+10	-3.20041154319E-01	1.41924287526E+02	-8.59394144924E+01	4.02704492682E+01	-9.20913993540E+01	4.64982579166E+01	-3.10826417230E-01	1.40497948035E+02
1.13165000000E+10	-3.19397012470E-01	1.41821059811E+02	-8.72568047077E+01	4.74813487352E+01	-8.80708328999E+01	2.60981758011E+01	-3.13626989345E-01	1.40395110347E+02
1.13170000000E+10	-3.18891287352E-01	1.41733760764E+02	-8.80390170218E+01	5.35862709042E+01	-8.65445797826E+01	5.15235179237E+01	-3.09563716430E-01	1.40306929807E+02
1.13175000000E+10	-3.17582615221E-01	1.41619268294E+02	-8.61574873963E+01	6.38585858937E+01	-8.51365977684E+01	5.15290482560E+01	-3.12890106879E-01	1.40209777010E+02
1.13180000000E+10	-3.19025411845E-01	1.41522583257E+02	-8.71303009248E+01	5.63132032027E+01	-8.70280796568E+01	3.78916815210E+01	-3.13385620099E-01	1.40104287530E+02
1.13185000000E+10	-3.20059743485E-01	1.41416185322E+02	-8.78707984965E+01	2.95169674052E+01	-8.56135031109E+01	4.63108535188E+01	-3.11753928786E-01	1.40022737495E+02
1.13190000000E+10	-3.18397272916E-01	1.41318449940E+02	-8.73630331263E+01	4.56709420784E+01	-8.73568627861E+01	5.08588135835E+01	-3.06416244203E-01	1.39927990339E+02
1.13195000000E+10	-3.20618023609E-01	1.41219457714E+02	-8.57407906320E+01	4.58691397967E+01	-8.74837007243E+01	5.13359675744E+01	-3.09601166628E-01	1.39840393209E+02
1.13200000000E+10	-3.16210770330E-01	1.41124935049E+02	-8.72275450906E+01	5.71337933367E+01	-8.89732813980E+01	4.71333074661E+01	-3.11356404829E-01	1.39754694896E+02
1.13205000000E+10	-3.19617305725E-01	1.41028108334E+02	-8.87710177143E+01	3.26350382977E+01	-8.75894570313E+01	2.45107594714E+01	-3.10589169900E-01	1.39659495731E+02
1.13210000000E+10	-3.18679493399E-01	1.40912336968E+02	-8.70754902648E+01	5.54713615411E+01	-8.51281956446E+01	3.92583507854E+01	-3.10128962788E-01	1.39568039028E+02
1.13215000000E+10	-3.18088799076E-01	1.40815978783E+02	-8.72417590732E+01	4.51354703004E+01	-8.67471757190E+01	4.89841998918E+01	-3.11230216576E-01	1.39477104989E+02
1.13220000000E+10	-3.19063717666E-01	1.40715366645E+02	-8.63071810819E+01	3.83349202118E+01	-8.69463832639E+01	4.11570275171E+01	-3.09563776050E-01	1.39399295201E+02
1.13225000000E+10	-3.15978279387E-01	1.40606927826E+02	-8.76286983464E+01	5.09823101449E+01	-8.70055659451E+01	4.45938384075E+01	-3.11543562815E-01	1.39297003861E+02
1.13230000000E+10	-3.18649664116E-01	1.40526342533E+02	-8.61766655679E+01	3.88235418806E+01	-8.54325634966E+01	5.23338161467E+01	-3.09297567399E-01	1.39204590278E+02
1.13235000000E+10	-3.20205495305E-01	1.40410134333E+02	-8.91601515604E+01	4.53365252540E+01	-8.73347917667E+01	4.14874853823E+01	-3.09272955296E-01	1.39123626464E+02
1.13240000000E+10	-3.18500349121E-01	1.40305613877E+02	-8.69810218305E+01	3.88552609862E+01	-8.60785756901E+01	4.39719891807E+01	-3.09913931274E-01	1.39038058232E+02
1.13245000000E+10	-3.19334653373E-01	1.40202886424E+02	-8.64825252637E+01	3.40401002329E+01	-8.73575503144E+01	3.70571079505E+01	-3.09948836981E-01	1.38926840724E+02
1.13250000000E+10	-3.19924884377E-01	1.40123014297E+02	-8.61359296000E+01	3.74475733166E+01	-8.61463618525E+01	4.23596188608E+01	-3.10121122064E-01	1.38846665860E+02
1.13255000000E+10	-3.17312503184E-01	1.40010384869E+02	-8.59037188884E+01	4.23847978217E+01	-8.61991912851E+01	3.39304527440E+01	-3.09686388432E-01	1.38749706302E+02
1.13260000000E+10	-3.20445084511E-01	1.39904315903E+02	-8.65989121975E+01	2.78046701244E+01	-8.68126356651E+01	5.45546705970E+01	-3.07941689972E-01	1.38639960991E+02
1.13265000000E+10	-3.18144265058E-01	1.39791215015E+02	-8.68849779919E+01	3.81962478299E+01	-8.75974850693E+01	4.40882992710E+01	-3.09523450755E-01	1.38565968112E+02
1.13270000000E+10	-3.17138483354E-01	1.39693955204E+02	-8.65874771031E+01	4.85963617251E+01	-8.64703772537E+01	5.69662138599E+01	-3.09971213737E-01	1.38474063094E+02
1.13275000000E+10	-3.18638807379E-01	1.39595504756E+02	-8.81587484617E+01	4.60917887661E+01	-8.54283903701E+01	4.78244725742E+01	-3.09651092861E-01	1.38374873999E+02
1.13280000000E+10	-3.18281087469E-01	1.39491716292E+02	-8.91403325973E+01	3.90815096376E+01	-8.74550771268E+01	5.02665195332E+01	-3.09275281078E-01	1.38275812398E+02
1.13285000000E+10	-3.18251684336E-01	1.39385166480E+02	-8.76551387379E+01	3.56735641446E+01	-8.63618534633E+01	5.25028910651E+01	-3.08124326048E-01	1.38187485649E+02
1.13290000000E+10	-3.17417441829E-01	1.39287540882E+02	-8.75643823585E+01	3.48398809749E+01	-8.53205833639E+01	5.20085903401E+01	-3.08552177477E-01	1.38099955694E+02
1.13295000000E+10	-3.17778030386E-01	1.39168228033E+02	-8.70761901729E+01	2.87014870965E+01	-8.70627860670E+01	3.28677392073E+01	-3.10990357272E-01	1.37999138405E+02
1.13300000000E+10	-3.18833429530E-01	1.39053006628E+02	-8.56457086697E+01	4.71710717760E+01	-8.63001802617E+01	3.95412301788E+01	-3.09889651675E-01	1.37899181812E+02
1.13305000000E+10	-3.18372385699E-01	1.38972492703E+02	-8.63903698917E+01	4.07978820195E+01	-8.72220368657E+01	4.67730374757E+01	-3.07867544421E-01	1.37807889186E+02
1.13310000000E+10	-3.19203829673E-01	1.38863432818E+02	-8.65009504660E+01	4.47471834473E+01	-8.72489784319E+01	4.52055161389E+01	-3.09264496376E-01	1.37721970118E+02
1.13315000000E+10	-3.19605300523E-01	1.38763912560E+02	-8.62501085681E+01	3.87317552129E+01	-8.56415796487E+01	3.60182832782E+01	-3.10972125665E-01	1.37616581336E+02
1.13320000000E+10	-3.18675554346E-01	1.38667005614E+02	-8.65595438825E+01	1.88131347127E+01	-8.68653547218E+01	3.49128690205E+01	-3.11509905137E-01	1.37539540732E+02
1.13325000000E+10	-3.17238440151E-01	1.38546654428E+02	-8.48488223028E+01	4.59490517141E+01	-8.62685730405E+01	4.83831115872E+01	-3.11369369273E-01	1.37438838974E+02
1.13330000000E+10	-3.17309534846E-01	1.38436308343E+02	-8.55573659036E+01	2.72047558033E+01	-9.10574278773E+01	3.10509854193E+01	-3.09568545440E-01	1.37350976804E+02
1.13335000000E+10	-3.18595270322E-01	1.38341331180E+02	-8.76913316849E+01	4.50198036415E+01	-8.89755918966E+01	4.35991091091E+01	-3.08939431460E-01	1.37242854844E+02
1.13340000000E+10	-3.17173746608E-01	1.38248012169E+02	-8.69186300601E+01	4.88275509385E+01	-8.49371041191E+01	4.54539574993E+01	-3.11808483830E-01	1.37173915529E+02
1.13345000000E+10	-3.15218719168E-01	1.38118618762E+02	-8.72385878887E+01	5.19508663190E+01	-8.71792488823E+01	4.68084256908E+01	-3.09481329000E-01	1.37066216365E+02
1.13350000000E+10	-3.17336993802E-01	1.38009861486E+02	-8.73387439660E+01	4.27290870428E+01	-8.49320875824E+01	4.52178574853E+01	-3.09329845125E-01	1.36975891228E+02
1.13355000000E+10	-3.18825702439E-01	1.37904112995E+02	-8.71945554940E+01	4.30989542747E+01	-8.51810474934E+01	3.50492478393E+01	-3.11044918079E-01	1.36877471493E+02
1.13360000000E+10	-3.17170454439E-01	1.37800814694E+02	-8.58317614604E+01	4.58689018106E+01	-8.72614106330E+01	3.79305670159E+01	-3.10459889354E-01	1.36785599509E+02
1.13365000000E+10	-3.17015926723E-01	1.37708828090E+02	-8.88292982405E+01	3.73459554448E+01	-8.74383453747E+01	3.33586689459E+01	-3.07727382177E-01	1.36666918942E+02
1.13370000000E+10	-3.17693410035E-01	1.37608061588E+02	-8.79954780053E+01	5.16832432079E+01	-8.58710445742E+01	3.67072153779E+01	-3.06474844696E-01	1.36584470907E+02
1.13375000000E+10	-3.20358500840E-01	1.37480415251E+02	-8.57640640482E+01	4.05596420010E+01	-8.62126032483E+01	3.89743737011E+01	-3.07602811436E-01	1.36493721314E+02
1.13380000000E+10	-3.18786277457E-01	1.37391762273E+02	-8.85762073420E+01	3.73846257210E+01	-8.69926638923E+01	6.11146351436E+01	-3.10466514768E-01	1.36404581059E+02
1.13385000000E+10	-3.17462569115E-01	1.37282381116E+02	-8.68706695211E+01	5.12266537334E+01	-8.81476107559E+01	4.24002862210E+01	-3.09668902873E-01	1.36311364994E+02
1.13390000000E+10	-3.18035931563E-01	1.37166413942E+02	-8.68624729082E+01	4.20888479730E+01	-8.54562784337E+01	4.29978779383E+01	-3.10097827817E-01	1.36192177573E+02
1.13395000000E+10	-3.17591303888E-01	1.37070769758E+02	-8.62349292226E+01	3.65014770212E+01	-8.72978322033E+01	3.96375427681E+01	-3.10435644311E-01	1.36115586307E+02
1.13400000000E+10	-3.20098497353E-01	1.36946119645E+02	-8.55719816476E+01	3.23897083842E+01	-8.65181705110E+01	3.80999349783E+01	-3.09489173952E-01	1.36007512493E+02
1.13405000000E+10	-3.18706994837E-01	1.36839329521E+02	-8.59980230295E+01	3.61931369095E+01	-8.72202205466E+01	3.95376633394E+01	-3.12655960482E-01	1.35906978582E+02
1.13410000000E+10	-3.18407282590E-01	1.36738023272E+02	-8.56924826811E+01	4.09258254071E+01	-8.61575999065E+01	3.74750021891E+01	-3.12194495233E-01	1.35816493003E+02
1.13415000000E+10	-3.16826801700E-01	1.36618830772E+02	-8.61072940731E+01	4.57165968710E+01	-8.82331873790E+01	5.27254790021E+01	-3.10277409260E-01	1.35727360810E+02
1.13420000000E+10	-3.17695780075E-01	1.36521305069E+02	-8.81053482741E+01	3.95369068372E+01	-8.57563518425E+01	4.33035872743E+01	-3.08902654513E-01	1.35611419013E+02
1.13425000000E+10	-3.19940969660E-01	1.36406188987E+02	-8.61077883018E+01	3.76075061314E+01	-8.59719187888E+01	3.68096527229E+01	-3.09108311534E-01	1.35526201387E+02
1.13430000000E+10	-3.17141310441E-01	1.36277803414E+02	-8.43771498744E+01	4.24373711793E+01	-8.58567722593E+01	5.14625147384E+01	-3.08862376884E-01	1.35428044839E+02
1.13435000000E+10	-3.21156869212E-01	1.36176673990E+02	-8.51819221689E+01	2.35922876682E+01	-8.76646707722E+01	2.85204471715E+01	-3.08829677933E-01	1.35341114717E+02
1.13440000000E+10	-3.20721106683E-01	1.36071944126E+02	-8.46961312151E+01	3.45871487880E+01	-8.50686104758E+01	3.33700064249E+01	-3.10526423972E-01	1.35229686290E+02
1.13445000000E+10	-3.19047500878E-01	1.35970975592E+02	-8.39949040164E+01	2.82972176846E+01	-8.57174856860E+01	4.43253471104E+01	-3.10173868827E-01	1.35142261921E+02
1.13450000000E+10	-3.16618342202E-01	1.35848477892E+02	-8.49092762569E+01	4.48053922438E+01	-8.65726782173E+01	4.28320252941E+01	-3.09277246934E-01	1.35047609783E+02
1.13455000000E+10	-3.18549432239E-01	1.35748096133E+02	-8.68242936475E+01	4.24887037405E+01	-8.53296562795E+01	1.68121353721E+01	-3.09583202721E-01	1.34939564335E+02
1.13460000000E+10	-3.20321840209E-01	1.35637305106E+02	-8.52622048510E+01	4.43777738742E+01	-8.42128204116E+01	3.53554118827E+01	-3.09108496736E-01	1.34846449432E+02
1.13465000000E+10	-3.18772035344E-01	1.35506979634E+02	-8.43573502065E+01	3.96546121116E+01	-8.44639331566E+01	5.21542519771E+01	-3.12237067132E-01	1.34737446035E+02
1.13470000000E+10	-3.18356332593E-01	1.35389737930E+02	-8.64311900805E+01	3.45270720762E+01	-8.59767925547E+01	3.15919792806E+01	-3.10350400809E-01	1.34635332725E+02
1.13475000000E+10	-3.19970450196E-01	1.35295187567E+02	-8.70182518835E+01	3.51338047391E+01	-8.73649566965E+01	3.38212648182E+01	-3.10636055972E-01	1.34539270922E+02
1.13480000000E+10	-3.19513289152E-01	1.35188959393E+02	-8.49710150884E+01	2.77241269651E+01	-8.53723622240E+01	4.77902129152E+01	-3.11217707439E-01	1.34439756528E+02
1.13485000000E+10	-3.16669890132E-01	1.35071379984E+02	-8.88116167376E+01	4.65000414540E+01	-8.70925287673E+01	3.32687140895E+01	-3.10580273037E-01	1.34350555137E+02
1.13490000000E+10	-3.16700192950E-01	1.34962099974E+02	-8.69711368282E+01	4.71255146113E+01	-8.65522842695E+01	3.89549299310E+01	-3.10644256150E-01	1.34229915649E+02
1.13495000000E+10	-3.17977937722E-01	1.34835678240E+02	-8.47821936885E+01	2.79693454494E+01	-8.55937842499E+01	3.19061052596E+01	-3.11082479416E-01	1.34147641032E+02
1.13500000000E+10	-3.20898384734E-01	1.34736792257E+02	-8.60429997690E+01	2.19542549863E+01	-8.60316048025E+01	3.04162818275E+01	-3.11465141686E-01	1.34031452293E+02
1.13505000000E+10	-3.20493145537E-01	1.34625652530E+02	-8.61358402213E+01	3.18570174549E+01	-8.58604763204E+01	3.65468153279E+01	-3.11666446897E-01	1.33938556758E+02
1.13510000000E+10	-3.20376367985E-01	1.34513286466E+02	-8.55965261996E+01	2.57573892157E+01	-8.57014488798E+01	3.36378806739E+01	-3.11252617778E-01	1.33831162344E+02
1.13515000000E+10	-3.19640023359E-01	1.34381918645E+02	-8.68905507637E+01	3.82372013017E+01	-8.44889283718E+01	4.44964070039E+01	-3.11670747967E-01	1.33733240394E+02
1.13520000000E+10	-3.20384569060E-01	1.34283713244E+02	-8.44003114728E+01	3.08986676695E+01	-8.64169837094E+01	5.85425238319E+01	-3.11615958213E-01	1.33639853265E+02
1.13525000000E+10	-3.17804467280E-01	1.34157648447E+02	-8.52216981082E+01	4.03772722937E+01	-8.30380438046E+01	4.10705354482E+01	-3.10707529149E-01	1.33538521235E+02
1.13530000000E+10	-3.20291119082E-01	1.34049943459E+02	-8.58807363876E+01	3.93472405548E+01	-8.70974095956E+01	4.27726123963E+01	-3.09847862508E-01	1.33437449653E+02
1.13535000000E+10	-3.20751734045E-01	1.33938794148E+02	-8.58045202509E+01	3.40079244290E+01	-8.54087505310E+01	3.05715464590E+01	-3.11024897040E-01	1.33347069643E+02
1.13540000000E+10	-3.20477431593E-01	1.33810123487E+02	-8.59673911786E+01	4.08820974117E+01	-8.46065748356E+01	4.04152353653E+01	-3.13125114312E-01	1.33231876134E+02
1.13545000000E+10	-3.19298475296E-01	1.33701028913E+02	-8.71312279431E+01	2.53064939205E+01	-8.54225163891E+01	3.66961515816E+01	-3.13458505718E-01	1.33132355731E+02
1.13550000000E+10	-3.20453583873E-01	1.33585844249E+02	-8.39062179716E+01	3.72259994063E+01	-8.62729396023E+01	4.84055323739E+01	-3.12233703194E-01	1.33023002722E+02
1.13555000000E+10	-3.19633466804E-01	1.33462267202E+02	-8.55611328142E+01	2.34367563644E+01	-8.52469500557E+01	4.01566664055E+01	-3.09440696540E-01	1.32942129664E+02
1.13560000000E+10	-3.19843776381E-01	1.33350521269E+02	-8.63325475919E+01	3.22467135010E+01	-8.47770231863E+01	4.53202557274E+01	-3.15122542486E-01	1.32827923969E+02
1.13565000000E+10	-3.20959667715E-01	1.33234026502E+02	-8.49751610098E+01	3.50376140160E+01	-8.71969157734E+01	2.88703149871E+01	-3.11068231350E-01	1.32699789303E+02
1.13570000000E+10	-3.19370756175E-01	1.33116064019E+02	-8.57197122640E+01	4.39207437970E+01	-8.60357219377E+01	3.43012533282E+01	-3.15881906305E-01	1.32617339669E+02
1.13575000000E+10	-3.20433487632E-01	1.33003298782E+02	-8.67861190722E+01	3.24400496491E+01	-8.59822718119E+01	3.49692739460E+01	-3.13394602632E-01	1.32511080635E+02
1.13580000000E+10	-3.19998645684E-01	1.32870221019E+02	-8.49387616673E+01	4.25678709023E+01	-8.73253570561E+01	3.58159700822E+01	-3.11383538866E-01	1.32402692397E+02
1.13585000000E+10	-3.22193159412E-01	1.32751305019E+02	-8.44905815383E+01	3.87686642357E+01	-8.53356000354E+01	3.69201096400E+01	-3.13054584871E-01	1.32311417565E+02
1.13590000000E+10	-3.21678616245E-01	1.32638585672E+02	-8.49084443656E+01	4.63652995853E+01	-8.58631865999E+01	4.76750875332E+01	-3.12027252309E-01	1.32194022126E+02
