# Hz S DB R 50
! Planar, S50244, 24171007, 25.4.1/6
! Date: 15.10.2025 10:24:11
! Data: Format (Calibration Info)
! Freq	S11:dB/Ang(F2)	S21:dB/Ang(F2)	S12:dB/Ang(F2)	S22:dB/Ang(F2)
1.13000000000E+10	-3.22513585225E-01	1.44840511354E+02	-9.08328378616E+01	5.90959889858E+01	-8.79707748652E+01	6.64423564087E+01	-3.13633715477E-01	1.42976205719E+02
1.13005000000E+10	-3.22144849363E-01	1.44749494494E+02	-8.93907889911E+01	4.28908537077E+01	-8.66133972248E+01	3.53991269945E+01	-3.15962595720E-01	1.42874805964E+02
1.13010000000E+10	-3.23129779034E-01	1.44648916839E+02	-8.66188516079E+01	4.73072390479E+01	-8.81374712819E+01	5.09689945768E+01	-3.13198072082E-01	1.42789150459E+02
1.13015000000E+10	-3.23247433017E-01	1.44560066188E+02	-8.62450599593E+01	5.18059176770E+01	-8.95226908364E+01	5.99072179868E+01	-3.14248232715E-01	1.42707862044E+02
1.13020000000E+10	-3.21699048868E-01	1.44465935846E+02	-8.60428927389E+01	5.74263337849E+01	-8.82243371320E+01	3.57911001978E+01	-3.14488641898E-01	1.42615927952E+02
1.13025000000E+10	-3.22049026745E-01	1.44361165973E+02	-8.73096865362E+01	5.05753344942E+01	-8.67657303030E+01	5.15208740702E+01	-3.13653853192E-01	1.42545417453E+02
1.13030000000E+10	-3.20004295078E-01	1.44272637553E+02	-8.77397941649E+01	5.22794227573E+01	-8.75281133134E+01	5.28051457236E+01	-3.11115005128E-01	1.42443434649E+02
1.13035000000E+10	-3.21014523599E-01	1.44164732909E+02	-8.80279614949E+01	3.25564884153E+01	-8.61326315140E+01	5.46881142800E+01	-3.11285649564E-01	1.42350644345E+02
1.13040000000E+10	-3.21546863320E-01	1.44070759819E+02	-9.11715454228E+01	6.66243676129E+01	-9.27316281840E+01	6.82922039786E+01	-3.14020097255E-01	1.42283964733E+02
1.13045000000E+10	-3.20196639264E-01	1.43971489712E+02	-8.76730094863E+01	5.29999787982E+01	-9.18323030319E+01	2.86371626546E+01	-3.13278791827E-01	1.42199240125E+02
1.13050000000E+10	-3.20053520343E-01	1.43885914134E+02	-8.70828873799E+01	3.85854648754E+01	-8.59438375219E+01	6.30693393715E+01	-3.17563745544E-01	1.42074193267E+02
1.13055000000E+10	-3.21120732430E-01	1.43781041621E+02	-8.75863605289E+01	6.90004614712E+01	-8.81440541552E+01	4.59680444425E+01	-3.12358416479E-01	1.42001535133E+02
1.13060000000E+10	-3.18503905134E-01	1.43691343219E+02	-8.74216113541E+01	5.58727140571E+01	-8.77851182546E+01	5.84649297185E+01	-3.12009994185E-01	1.41915815073E+02
1.13065000000E+10	-3.23551443583E-01	1.43598568316E+02	-8.67968167617E+01	3.89438466726E+01	-9.04524116320E+01	3.44222942259E+01	-3.14188692490E-01	1.41831573799E+02
1.13070000000E+10	-3.21010111199E-01	1.43509807062E+02	-8.95062984166E+01	5.25532631771E+01	-8.69040778004E+01	3.88230234184E+01	-3.11684986357E-01	1.41733923993E+02
1.13075000000E+10	-3.23472209018E-01	1.43410137825E+02	-9.00655351602E+01	5.48717371299E+01	-9.00217519918E+01	5.04955013791E+01	-3.12011509167E-01	1.41646354463E+02
1.13080000000E+10	-3.22269539738E-01	1.43329285123E+02	-8.96114565172E+01	2.96589661107E+01	-8.71148817861E+01	4.24173995829E+01	-3.09065871181E-01	1.41560634725E+02
1.13085000000E+10	-3.20902972221E-01	1.43208303018E+02	-8.92903438280E+01	5.18850504309E+01	-8.42301667403E+01	5.13822144179E+01	-3.14921742889E-01	1.41460507795E+02
1.13090000000E+10	-3.21992311277E-01	1.43116594041E+02	-8.82723327852E+01	3.62930289647E+01	-8.71709090281E+01	4.87441271656E+01	-3.12111098086E-01	1.41370281658E+02
1.13095000000E+10	-3.19034329774E-01	1.43015437764E+02	-8.64342545248E+01	5.25047041037E+01	-8.68868890568E+01	4.20484338334E+01	-3.13551743127E-01	1.41270382458E+02
1.13100000000E+10	-3.18692384439E-01	1.42912273831E+02	-8.50820662929E+01	3.63178280153E+01	-8.74934863693E+01	6.21276604778E+01	-3.08101422731E-01	1.41186698819E+02
1.13105000000E+10	-3.20466751598E-01	1.42814852663E+02	-8.80915678307E+01	5.52252993988E+01	-8.71317423193E+01	5.56704943031E+01	-3.11771138236E-01	1.41085866827E+02
1.13110000000E+10	-3.20991090888E-01	1.42713292740E+02	-8.73372245103E+01	3.57868371063E+01	-8.69050252110E+01	3.54030155517E+01	-3.12104787021E-01	1.40998113794E+02
1.13115000000E+10	-3.21831345924E-01	1.42632427506E+02	-9.27420808223E+01	4.17025051225E+01	-8.75137170527E+01	3.80900598120E+01	-3.11687697765E-01	1.40918661955E+02
1.13120000000E+10	-3.20639943945E-01	1.42527691976E+02	-8.79903252527E+01	4.56891683477E+01	-8.86223920848E+01	3.73243822116E+01	-3.12968508373E-01	1.40822545315E+02
1.13125000000E+10	-3.19570430181E-01	1.42431392365E+02	-8.63584852825E+01	3.84375019999E+01	-8.72424359217E+01	3.74832473208E+01	-3.09251547535E-01	1.40733793907E+02
1.13130000000E+10	-3.19817834503E-01	1.42329198434E+02	-8.64537442742E+01	5.41360792583E+01	-8.73662804254E+01	3.38708328345E+01	-3.12146347443E-01	1.40641031998E+02
1.13135000000E+10	-3.21779707876E-01	1.42240103811E+02	-8.80881089232E+01	3.92438764667E+01	-8.68077348141E+01	4.16216561772E+01	-3.06644552298E-01	1.40556167147E+02
1.13140000000E+10	-3.20183018367E-01	1.42113656392E+02	-8.52736299139E+01	4.12703573471E+01	-8.87578603404E+01	6.46356963893E+01	-3.12747274091E-01	1.40467235978E+02
1.13145000000E+10	-3.19897167018E-01	1.42025641769E+02	-8.73564180396E+01	5.59177652685E+01	-8.90052722051E+01	5.66326598128E+01	-3.10686278317E-01	1.40371273363E+02
1.13150000000E+10	-3.21479276130E-01	1.41934018601E+02	-8.92865683889E+01	3.96228433080E+01	-8.76492837846E+01	4.76397324163E+01	-3.08242674037E-01	1.40269753792E+02
1.13155000000E+10	-3.19793848078E-01	1.41832329581E+02	-8.73386117244E+01	3.95219998225E+01	-8.74204332864E+01	4.77923018725E+01	-3.10846450874E-01	1.40184403668E+02
1.13160000000E+10	-3.18675891330E-01	1.41747036899E+02	-8.94933964233E+01	4.81232000271E+01	-8.85657636072E+01	4.99436200242E+01	-3.10736632582E-01	1.40106281905E+02
1.13165000000E+10	-3.22002821156E-01	1.41628160306E+02	-8.76362164771E+01	3.79060993431E+01	-8.63202914773E+01	4.53812868015E+01	-3.13684089847E-01	1.40009181489E+02
1.13170000000E+10	-3.17054502144E-01	1.41537609151E+02	-8.99904050381E+01	5.35566959431E+01	-8.65691086874E+01	4.14730303903E+01	-3.10577713062E-01	1.39911194520E+02
1.13175000000E+10	-3.20215080048E-01	1.41427528348E+02	-8.77805593044E+01	4.82990162810E+01	-8.76447538244E+01	4.78753890975E+01	-3.12935083626E-01	1.39817537685E+02
1.13180000000E+10	-3.19071583443E-01	1.41326049054E+02	-8.81910227869E+01	4.19507452392E+01	-8.85542782453E+01	4.46138156430E+01	-3.12707197036E-01	1.39708157888E+02
1.13185000000E+10	-3.20232463436E-01	1.41234252493E+02	-8.82009098049E+01	3.56407569987E+01	-8.60363536798E+01	4.44245359604E+01	-3.11228444182E-01	1.39629024230E+02
1.13190000000E+10	-3.18913256112E-01	1.41121968634E+02	-8.55993692886E+01	3.52745490354E+01	-8.84446873564E+01	2.42538261546E+01	-3.06953904998E-01	1.39531808545E+02
1.13195000000E+10	-3.19669788500E-01	1.41023716998E+02	-8.68574672628E+01	5.78996706596E+01	-8.68306643794E+01	5.10117928947E+01	-3.09720008919E-01	1.39434030896E+02
1.13200000000E+10	-3.18571593846E-01	1.40924210353E+02	-8.76746022736E+01	3.96249536084E+01	-8.61675889522E+01	5.16138745888E+01	-3.10607501702E-01	1.39344051666E+02
1.13205000000E+10	-3.19570450505E-01	1.40836384414E+02	-9.22528267366E+01	3.27239734434E+01	-9.02836835120E+01	3.15531664844E+01	-3.10114277451E-01	1.39255004818E+02
1.13210000000E+10	-3.18461190366E-01	1.40718518416E+02	-9.11445883759E+01	4.05386362176E+01	-8.63894038965E+01	4.50903560982E+01	-3.10049434498E-01	1.39158701999E+02
1.13215000000E+10	-3.18248562057E-01	1.40611140861E+02	-8.65359516890E+01	3.37822931430E+01	-8.67054012868E+01	6.25457819131E+01	-3.11526519603E-01	1.39066112969E+02
1.13220000000E+10	-3.19394562706E-01	1.40517647123E+02	-8.70899310242E+01	3.38157419290E+01	-8.63467111531E+01	6.65514651604E+01	-3.09165767379E-01	1.38989606900E+02
1.13225000000E+10	-3.15757195753E-01	1.40411171308E+02	-8.78247848058E+01	5.46708530692E+01	-9.13804175243E+01	4.94176067529E+01	-3.11263769676E-01	1.38879428549E+02
1.13230000000E+10	-3.17772190025E-01	1.40323597634E+02	-8.73195915676E+01	5.70253944622E+01	-8.83361558570E+01	4.92747137105E+01	-3.09811090754E-01	1.38790019569E+02
1.13235000000E+10	-3.20319650362E-01	1.40204852556E+02	-8.60739990293E+01	4.77909375651E+01	-8.63458557998E+01	3.94710842918E+01	-3.08994175940E-01	1.38705994852E+02
1.13240000000E+10	-3.15711300303E-01	1.40104487479E+02	-8.85905941102E+01	5.10230683251E+01	-8.95037167215E+01	5.12928367195E+01	-3.09556727650E-01	1.38623392490E+02
1.13245000000E+10	-3.19708133050E-01	1.40001200825E+02	-8.62301850318E+01	5.29233717792E+01	-8.51660530769E+01	4.21145191580E+01	-3.09146942576E-01	1.38506882496E+02
1.13250000000E+10	-3.19231719491E-01	1.39910869470E+02	-8.49577391978E+01	5.79275005907E+01	-8.69915678561E+01	3.72577167342E+01	-3.10262529467E-01	1.38427455923E+02
1.13255000000E+10	-3.17690126291E-01	1.39794291742E+02	-8.60923714103E+01	5.05031917049E+01	-8.73408657765E+01	3.85926412479E+01	-3.08496351881E-01	1.38325185154E+02
1.13260000000E+10	-3.19082975104E-01	1.39685870483E+02	-8.79247268399E+01	4.57544807210E+01	-8.77567807147E+01	6.24486735707E+01	-3.07273208665E-01	1.38216126004E+02
1.13265000000E+10	-3.18266763533E-01	1.39587267006E+02	-8.90840333824E+01	5.29717988350E+01	-8.92190275882E+01	3.25974112017E+01	-3.08550819922E-01	1.38139360095E+02
1.13270000000E+10	-3.18596377331E-01	1.39466148895E+02	-8.56283123325E+01	4.74059730895E+01	-8.58420516559E+01	3.66475762724E+01	-3.09952897351E-01	1.38039247957E+02
1.13275000000E+10	-3.20057489502E-01	1.39395233175E+02	-8.86254200332E+01	4.83511755491E+01	-8.74936945037E+01	3.20952485484E+01	-3.08713792184E-01	1.37947222631E+02
1.13280000000E+10	-3.18912517403E-01	1.39275483169E+02	-8.76797128194E+01	4.76897517277E+01	-8.77149468386E+01	5.50622534601E+01	-3.07546670474E-01	1.37845047462E+02
1.13285000000E+10	-3.17474978114E-01	1.39165088745E+02	-8.69554549564E+01	4.18692640381E+01	-8.99507414599E+01	4.73009193361E+01	-3.08240399422E-01	1.37752771905E+02
1.13290000000E+10	-3.17925908403E-01	1.39080107603E+02	-8.82099762534E+01	2.93849231844E+01	-8.67788365841E+01	4.46926613011E+01	-3.08275725927E-01	1.37664531593E+02
1.13295000000E+10	-3.18453248660E-01	1.38975066649E+02	-8.75573205694E+01	3.05628961780E+01	-8.74988350741E+01	2.65804839190E+01	-3.10187437315E-01	1.37563720515E+02
1.13300000000E+10	-3.17332208816E-01	1.38850965171E+02	-8.79012465634E+01	5.11637846220E+01	-8.79902757734E+01	3.92625380907E+01	-3.08939749997E-01	1.37461670446E+02
1.13305000000E+10	-3.19155511537E-01	1.38762204461E+02	-8.71492027961E+01	5.32255169623E+01	-8.70676868727E+01	5.12643671267E+01	-3.07134237003E-01	1.37363690240E+02
1.13310000000E+10	-3.17349240372E-01	1.38648648368E+02	-8.86542205651E+01	5.10202131701E+01	-8.91349038564E+01	5.57301401438E+01	-3.07820040554E-01	1.37276054960E+02
1.13315000000E+10	-3.19692870705E-01	1.38561698113E+02	-8.83101635015E+01	3.40658552815E+01	-8.60979593287E+01	4.44414391012E+01	-3.09679122593E-01	1.37167619467E+02
1.13320000000E+10	-3.17608960867E-01	1.38446134683E+02	-8.86537020130E+01	2.60569424951E+01	-8.89849670685E+01	2.85273452424E+01	-3.10421509962E-01	1.37086783216E+02
1.13325000000E+10	-3.17616553647E-01	1.38338786716E+02	-8.74321518290E+01	2.98949548246E+01	-8.69211643976E+01	4.15124598230E+01	-3.10948592939E-01	1.36985406630E+02
1.13330000000E+10	-3.16741379630E-01	1.38214038863E+02	-8.66015860060E+01	5.15643901481E+01	-8.74429990458E+01	4.60435909162E+01	-3.08903800538E-01	1.36898446343E+02
1.13335000000E+10	-3.18719543995E-01	1.38129460018E+02	-8.83228995648E+01	4.68147722975E+01	-8.79374922840E+01	4.69554328879E+01	-3.07685502665E-01	1.36784962054E+02
1.13340000000E+10	-3.17077410129E-01	1.38031697676E+02	-8.92330833872E+01	4.99291513515E+01	-8.85808080641E+01	4.74307445345E+01	-3.11171792831E-01	1.36718554447E+02
1.13345000000E+10	-3.14590273266E-01	1.37905224325E+02	-8.96563797200E+01	6.17694401879E+01	-8.84686502021E+01	4.74043161495E+01	-3.09217460857E-01	1.36599071368E+02
1.13350000000E+10	-3.18442103075E-01	1.37788698755E+02	-8.61745068105E+01	3.75922500893E+01	-8.74945680658E+01	5.48258299655E+01	-3.08776420545E-01	1.36516514963E+02
1.13355000000E+10	-3.19036022919E-01	1.37684153487E+02	-8.78743174991E+01	4.87596419284E+01	-8.72297483689E+01	5.20912385368E+01	-3.11014358448E-01	1.36413743517E+02
1.13360000000E+10	-3.18021972969E-01	1.37577879160E+02	-8.74049268687E+01	3.72463823453E+01	-8.80843714589E+01	4.22761937512E+01	-3.10295304191E-01	1.36314067664E+02
1.13365000000E+10	-3.18766831354E-01	1.37483796218E+02	-8.83167369578E+01	3.85578694504E+01	-8.71421805169E+01	4.82135071700E+01	-3.07544452071E-01	1.36195926164E+02
1.13370000000E+10	-3.18305799579E-01	1.37374336079E+02	-8.67464561424E+01	4.85394859102E+01	-8.85043471718E+01	4.46695236494E+01	-3.06342348037E-01	1.36115198048E+02
1.13375000000E+10	-3.19369688906E-01	1.37256611727E+02	-8.52182564200E+01	4.83237408519E+01	-8.76980434800E+01	4.13762980059E+01	-3.07516394057E-01	1.36016973871E+02
1.13380000000E+10	-3.20374393283E-01	1.37173374364E+02	-8.78525264515E+01	1.41242972197E+01	-8.57896208574E+01	3.40440306388E+01	-3.09037988296E-01	1.35922213082E+02
1.13385000000E+10	-3.18742674551E-01	1.37056917295E+02	-8.59387523740E+01	3.35732448927E+01	-8.61122703953E+01	5.42620814900E+01	-3.08495826672E-01	1.35835811786E+02
1.13390000000E+10	-3.18468957128E-01	1.36935646288E+02	-8.63395047642E+01	5.17317857396E+01	-8.62685279480E+01	2.87569059074E+01	-3.09418202554E-01	1.35712640525E+02
1.13395000000E+10	-3.18565924318E-01	1.36830431338E+02	-8.54808721609E+01	5.43548166529E+01	-8.91422551557E+01	4.36498666556E+01	-3.10590133197E-01	1.35630049558E+02
1.13400000000E+10	-3.20748465780E-01	1.36708417680E+02	-8.61005653516E+01	4.50629041316E+01	-8.91863235787E+01	3.66509636564E+01	-3.08883592348E-01	1.35520886475E+02
1.13405000000E+10	-3.19106829097E-01	1.36614989977E+02	-8.80941793675E+01	3.22351997292E+01	-8.89467306282E+01	5.97426964085E+01	-3.12326015736E-01	1.35422845263E+02
1.13410000000E+10	-3.19205456535E-01	1.36498844876E+02	-8.71078291868E+01	4.51328671498E+01	-8.90757099132E+01	3.91194318711E+01	-3.12072436272E-01	1.35321987446E+02
1.13415000000E+10	-3.18394370552E-01	1.36391788429E+02	-8.66991268653E+01	4.01799536289E+01	-8.70174922938E+01	5.48334041241E+01	-3.10437114235E-01	1.35235145682E+02
1.13420000000E+10	-3.18192342692E-01	1.36274575371E+02	-8.68781630037E+01	3.75441409904E+01	-8.60685903344E+01	5.71372005071E+01	-3.09618891389E-01	1.35123185458E+02
1.13425000000E+10	-3.21366719873E-01	1.36174017118E+02	-8.73755361838E+01	4.09837737284E+01	-8.93219233157E+01	4.73837372270E+01	-3.09731778735E-01	1.35028985591E+02
1.13430000000E+10	-3.17578857717E-01	1.36046073229E+02	-8.50065868458E+01	4.20708361389E+01	-8.70034879400E+01	5.43087149812E+01	-3.08815336681E-01	1.34930997378E+02
1.13435000000E+10	-3.21238280195E-01	1.35948168025E+02	-8.57323825797E+01	1.98528924155E+01	-8.67960733984E+01	3.62158606698E+01	-3.08556718625E-01	1.34837994117E+02
1.13440000000E+10	-3.19728901441E-01	1.35839548808E+02	-8.72313213618E+01	4.18634351510E+01	-8.84228216321E+01	5.36968380151E+01	-3.11533520925E-01	1.34728462020E+02
1.13445000000E+10	-3.18121388837E-01	1.35728195476E+02	-8.67070623862E+01	5.79398467494E+01	-8.62885413897E+01	2.99251133253E+01	-3.10894523105E-01	1.34632081674E+02
1.13450000000E+10	-3.16814345482E-01	1.35616006170E+02	-8.98094963883E+01	4.31617967503E+01	-8.74778230419E+01	5.17210581716E+01	-3.09726171305E-01	1.34531587284E+02
1.13455000000E+10	-3.18279317442E-01	1.35504200888E+02	-8.68898955955E+01	3.98405031092E+01	-8.68462584517E+01	3.11436612582E+01	-3.09833989208E-01	1.34419568513E+02
1.13460000000E+10	-3.20794137702E-01	1.35385119371E+02	-8.47285678258E+01	4.56999797632E+01	-8.63746419682E+01	4.14780630470E+01	-3.10407171483E-01	1.34326722646E+02
1.13465000000E+10	-3.18691980669E-01	1.35265572710E+02	-8.53736826250E+01	4.44562645547E+01	-8.67346954041E+01	4.60045624628E+01	-3.13339056135E-01	1.34203611048E+02
1.13470000000E+10	-3.18999151011E-01	1.35144709434E+02	-8.76971001105E+01	3.86540547680E+01	-8.63552524043E+01	3.43044423293E+01	-3.10353945977E-01	1.34107966806E+02
1.13475000000E+10	-3.19864780039E-01	1.35052356827E+02	-8.70124443861E+01	3.78696364824E+01	-8.58484330438E+01	4.99804336106E+01	-3.11191942514E-01	1.34009384541E+02
1.13480000000E+10	-3.19191046875E-01	1.34946956081E+02	-8.90204087884E+01	3.24593254341E+01	-8.59416085049E+01	4.14071535875E+01	-3.11994408126E-01	1.33907807190E+02
1.13485000000E+10	-3.18653402164E-01	1.34823535705E+02	-8.81347640866E+01	4.45193777443E+01	-8.54657795163E+01	3.63523897319E+01	-3.09898103269E-01	1.33816112741E+02
1.13490000000E+10	-3.18025165018E-01	1.34709880923E+02	-8.79682538487E+01	3.34237631516E+01	-8.61712426538E+01	4.37053665478E+01	-3.10736931466E-01	1.33699318723E+02
1.13495000000E+10	-3.18874966273E-01	1.34578980964E+02	-8.65233699343E+01	4.00755216177E+01	-8.64537683833E+01	4.13089726380E+01	-3.12690280736E-01	1.33604224156E+02
1.13500000000E+10	-3.21703992193E-01	1.34485605075E+02	-8.63767715402E+01	2.53210664878E+01	-8.50566888654E+01	3.85690719993E+01	-3.11690146615E-01	1.33484681608E+02
1.13505000000E+10	-3.20657328697E-01	1.34374331708E+02	-8.83951169045E+01	3.68052361898E+01	-8.65707993467E+01	3.74824217709E+01	-3.11894389497E-01	1.33395765664E+02
1.13510000000E+10	-3.20890789519E-01	1.34251849642E+02	-8.55633843319E+01	3.99742898811E+01	-8.79467276914E+01	5.08603718484E+01	-3.13268809953E-01	1.33280442094E+02
1.13515000000E+10	-3.20174369260E-01	1.34120447399E+02	-8.73006627660E+01	4.27542955547E+01	-8.52077845959E+01	4.36370737830E+01	-3.13048231976E-01	1.33174249163E+02
1.13520000000E+10	-3.20530287297E-01	1.34022694720E+02	-8.69855813398E+01	3.89578850148E+01	-8.89160682909E+01	4.30915851216E+01	-3.12166722371E-01	1.33074788239E+02
1.13525000000E+10	-3.18000392921E-01	1.33892191139E+02	-8.76001327029E+01	4.89174494125E+01	-8.55212862396E+01	5.03098551692E+01	-3.12025194068E-01	1.32966607986E+02
1.13530000000E+10	-3.20756394709E-01	1.33789378989E+02	-8.63354019660E+01	3.81559767340E+01	-8.64438782083E+01	4.28441480925E+01	-3.09430872221E-01	1.32876942616E+02
1.13535000000E+10	-3.20275679602E-01	1.33673381815E+02	-8.66206307627E+01	3.31902884817E+01	-8.72550583040E+01	3.68285157947E+01	-3.11916043329E-01	1.32773845230E+02
1.13540000000E+10	-3.21829955772E-01	1.33542259216E+02	-8.46471885767E+01	3.78599381217E+01	-8.60594348226E+01	4.59572127152E+01	-3.14479760064E-01	1.32654248705E+02
1.13545000000E+10	-3.20616225538E-01	1.33426378421E+02	-8.53894852505E+01	4.61804569083E+01	-8.75441480672E+01	4.93428401071E+01	-3.14587917732E-01	1.32562492920E+02
1.13550000000E+10	-3.21091100613E-01	1.33314570976E+02	-8.71741205861E+01	3.59570665650E+01	-8.66538000648E+01	5.15539393712E+01	-3.13090986007E-01	1.32443734316E+02
1.13555000000E+10	-3.20836236021E-01	1.33182877729E+02	-8.49132717111E+01	4.39397169085E+01	-8.55042666553E+01	4.09772030129E+01	-3.10729711355E-01	1.32354591956E+02
1.13560000000E+10	-3.20388854539E-01	1.33078657565E+02	-8.69909392484E+01	3.82695302595E+01	-8.79703449489E+01	3.55094171888E+01	-3.14781900002E-01	1.32232097161E+02
1.13565000000E+10	-3.21761465571E-01	1.32963984416E+02	-8.69671245959E+01	4.00538028347E+01	-8.62129190818E+01	3.30206108748E+01	-3.12558130012E-01	1.32113253163E+02
1.13570000000E+10	-3.18755951150E-01	1.32839392903E+02	-8.83846930846E+01	4.40056349697E+01	-8.64648679963E+01	4.08107106720E+01	-3.15367547773E-01	1.32022022945E+02
1.13575000000E+10	-3.22706462476E-01	1.32725648486E+02	-8.62173252390E+01	4.00919638216E+01	-8.68953543072E+01	3.15139538807E+01	-3.13353132503E-01	1.31911505296E+02
1.13580000000E+10	-3.20910295596E-01	1.32605520631E+02	-8.64712062714E+01	3.13870384045E+01	-8.51886374662E+01	4.91385051368E+01	-3.12029932493E-01	1.31800912132E+02
1.13585000000E+10	-3.20244485102E-01	1.32483068258E+02	-8.78180344112E+01	4.75662889465E+01	-8.61120355021E+01	5.24393874940E+01	-3.12528275615E-01	1.31701900462E+02
1.13590000000E+10	-3.20529001824E-01	1.32371639147E+02	-8.74630951969E+01	3.87648831323E+01	-8.60339922785E+01	4.14475445524E+01	-3.11819286792E-01	1.31583722807E+02
