# Hz S DB R 50
! Planar, S50244, 24171007, 25.4.1/6
! Date: 15.10.2025 10:24:34
! Data: Format (Calibration Info)
! Freq	S11:dB/Ang(F2)	S21:dB/Ang(F2)	S12:dB/Ang(F2)	S22:dB/Ang(F2)
1.13000000000E+10	-3.22662239133E-01	1.44838662496E+02	-8.77015961405E+01	5.55498240028E+01	-8.83374009893E+01	7.21870981698E+01	-3.13776533644E-01	1.42965399193E+02
1.13005000000E+10	-3.23417980295E-01	1.44744605794E+02	-9.04332947411E+01	3.83585313304E+01	-8.97796733115E+01	7.24338315554E+01	-3.14218497592E-01	1.42863362100E+02
1.13010000000E+10	-3.23104356945E-01	1.44645080435E+02	-8.74340130840E+01	4.82406185297E+01	-9.04514129054E+01	2.96055850355E+01	-3.14241486055E-01	1.42787519265E+02
1.13015000000E+10	-3.25048351455E-01	1.44564685971E+02	-8.97064546144E+01	5.28054179572E+01	-8.88098708175E+01	7.03064519800E+01	-3.12358619960E-01	1.42709514050E+02
1.13020000000E+10	-3.23614322498E-01	1.44453776421E+02	-8.77706378266E+01	4.44069948061E+01	-8.82404855344E+01	3.23495281079E+01	-3.13553270456E-01	1.42609897606E+02
1.13025000000E+10	-3.22562854994E-01	1.44355301382E+02	-8.81345590052E+01	4.70576217052E+01	-8.74728827849E+01	4.63887651079E+01	-3.14576735842E-01	1.42537621642E+02
1.13030000000E+10	-3.22697568853E-01	1.44268822244E+02	-8.66691513124E+01	3.81620474433E+01	-9.20413860042E+01	5.96826855769E+01	-3.09624988181E-01	1.42439705222E+02
1.13035000000E+10	-3.22202183786E-01	1.44163714530E+02	-8.74950199373E+01	3.86102499511E+01	-8.83871505891E+01	4.23180898503E+01	-3.12092827424E-01	1.42343470969E+02
1.13040000000E+10	-3.24460709592E-01	1.44064547897E+02	-9.09812449187E+01	4.06777736984E+01	-8.86773670990E+01	4.52848888439E+01	-3.12382402195E-01	1.42268971159E+02
1.13045000000E+10	-3.20906818151E-01	1.43963198125E+02	-8.85207936733E+01	4.20364238658E+01	-8.75716364593E+01	4.66410519352E+01	-3.12815206106E-01	1.42174247352E+02
1.13050000000E+10	-3.21556896806E-01	1.43884026442E+02	-9.10782436655E+01	5.36862121620E+01	-8.78599131872E+01	5.05138980764E+01	-3.17557391043E-01	1.42068324098E+02
1.13055000000E+10	-3.22897517130E-01	1.43776715836E+02	-9.20895129824E+01	4.83680907814E+01	-8.98925169104E+01	4.55585354980E+01	-3.10763952564E-01	1.41991563133E+02
1.13060000000E+10	-3.20798458660E-01	1.43688611953E+02	-8.63869015815E+01	5.54006188520E+01	-8.92550988351E+01	5.83528972930E+01	-3.10956275203E-01	1.41905361952E+02
1.13065000000E+10	-3.21573034744E-01	1.43591591588E+02	-8.68294980500E+01	5.04140529198E+01	-8.34179594837E+01	3.35928618127E+01	-3.14507379090E-01	1.41802577303E+02
1.13070000000E+10	-3.20272957530E-01	1.43502104776E+02	-9.04251403806E+01	6.88128166956E+01	-9.06261509261E+01	3.50973535126E+01	-3.11811942092E-01	1.41724825385E+02
1.13075000000E+10	-3.22062292806E-01	1.43400603157E+02	-8.69036177933E+01	7.11768722199E+01	-8.70227703022E+01	3.66186669052E+01	-3.11965047630E-01	1.41642041053E+02
1.13080000000E+10	-3.22756352088E-01	1.43317217998E+02	-8.78268391651E+01	3.98382158553E+01	-8.78022319139E+01	4.32262897507E+01	-3.09227153982E-01	1.41565608802E+02
1.13085000000E+10	-3.20979635572E-01	1.43198262035E+02	-8.61025641015E+01	5.68360944013E+01	-8.68296610772E+01	4.24497051918E+01	-3.14312466005E-01	1.41458637661E+02
1.13090000000E+10	-3.21821512725E-01	1.43116484474E+02	-9.34396669077E+01	4.04960092342E+01	-8.77215840052E+01	4.18934229146E+01	-3.11834025843E-01	1.41365659289E+02
1.13095000000E+10	-3.20462229809E-01	1.43011520195E+02	-8.84892355550E+01	7.69856103675E+01	-8.78902664492E+01	2.85063219211E+01	-3.13397066908E-01	1.41267689229E+02
1.13100000000E+10	-3.18184220999E-01	1.42913798472E+02	-9.11605597830E+01	6.43375017859E+01	-8.72056885800E+01	6.54138051898E+01	-3.09084193271E-01	1.41178703518E+02
1.13105000000E+10	-3.20728913540E-01	1.42810173528E+02	-8.93046553653E+01	6.69102780109E+01	-8.79784131440E+01	3.66310503272E+01	-3.12572220718E-01	1.41081171898E+02
1.13110000000E+10	-3.21578600355E-01	1.42713388666E+02	-8.56110331227E+01	4.66400301011E+01	-8.83695037087E+01	4.95161934227E+01	-3.12003426233E-01	1.40992686682E+02
1.13115000000E+10	-3.22230954732E-01	1.42623073483E+02	-8.64711187468E+01	5.22014441442E+01	-8.76442184543E+01	3.69442624136E+01	-3.11201098215E-01	1.40914423165E+02
1.13120000000E+10	-3.21964605244E-01	1.42524390620E+02	-8.95721490646E+01	4.59805757650E+01	-8.95016926428E+01	4.00107151352E+01	-3.12460888931E-01	1.40807431392E+02
1.13125000000E+10	-3.20755036832E-01	1.42436857477E+02	-8.80740413209E+01	4.78364711280E+01	-8.90199653408E+01	5.47454880824E+01	-3.09702910696E-01	1.40732615279E+02
1.13130000000E+10	-3.20092305902E-01	1.42326935644E+02	-8.84115216969E+01	5.40087067189E+01	-8.84910947103E+01	6.05799431608E+01	-3.12195989961E-01	1.40629140418E+02
1.13135000000E+10	-3.20239270253E-01	1.42232289400E+02	-8.98912246952E+01	7.26228313665E+01	-8.60137260558E+01	5.16241892803E+01	-3.07418276810E-01	1.40546651682E+02
1.13140000000E+10	-3.21222198911E-01	1.42116326267E+02	-8.71015824773E+01	4.46483070047E+01	-8.87719961364E+01	3.90925125483E+01	-3.11804196313E-01	1.40465674994E+02
1.13145000000E+10	-3.21491371644E-01	1.42016419818E+02	-8.69162093783E+01	4.34973886433E+01	-8.69016175888E+01	5.33351515461E+01	-3.11045550030E-01	1.40364755113E+02
1.13150000000E+10	-3.20964585226E-01	1.41921408975E+02	-8.74284614063E+01	4.50627526914E+01	-8.76745213825E+01	5.01233296966E+01	-3.07455096734E-01	1.40266084404E+02
1.13155000000E+10	-3.18669896689E-01	1.41831306584E+02	-8.70042613015E+01	5.57910322701E+01	-8.59743197809E+01	4.62581212181E+01	-3.11122673182E-01	1.40175928707E+02
1.13160000000E+10	-3.20133601133E-01	1.41736622812E+02	-9.09858906133E+01	3.78889002768E+01	-8.83983400419E+01	4.02305114179E+01	-3.10030985848E-01	1.40095046888E+02
1.13165000000E+10	-3.20650553038E-01	1.41627522163E+02	-8.66369678654E+01	4.43145197821E+01	-9.08437666872E+01	5.78613208725E+01	-3.13290988288E-01	1.40006651908E+02
1.13170000000E+10	-3.18932665023E-01	1.41528999844E+02	-8.73208559678E+01	4.55242132893E+01	-8.84625381581E+01	4.64198147927E+01	-3.10471835176E-01	1.39906588003E+02
1.13175000000E+10	-3.19607632778E-01	1.41431592116E+02	-8.83390605535E+01	6.63083137758E+01	-8.73408556410E+01	5.01037123624E+01	-3.12878653196E-01	1.39802700921E+02
1.13180000000E+10	-3.20046987500E-01	1.41327632890E+02	-8.80168758787E+01	3.50738317852E+01	-8.56994082383E+01	5.52015393342E+01	-3.12304470701E-01	1.39695972615E+02
1.13185000000E+10	-3.19756588482E-01	1.41221626970E+02	-8.67271684666E+01	4.33742415223E+01	-8.90846470646E+01	4.24274477067E+01	-3.11180666572E-01	1.39622904029E+02
1.13190000000E+10	-3.16967539400E-01	1.41122217059E+02	-8.63332379992E+01	5.09636749579E+01	-8.73950408184E+01	3.64788970819E+01	-3.07033625182E-01	1.39522624702E+02
1.13195000000E+10	-3.20089611126E-01	1.41022529099E+02	-8.81272511710E+01	6.34433607805E+01	-8.71420223586E+01	4.67671570953E+01	-3.09086948835E-01	1.39427924461E+02
1.13200000000E+10	-3.18296940021E-01	1.40935572692E+02	-8.89988347005E+01	4.66602970456E+01	-8.53395000271E+01	4.90772901849E+01	-3.10954288733E-01	1.39339472657E+02
1.13205000000E+10	-3.19262345243E-01	1.40827272779E+02	-8.80085266939E+01	6.02224809817E+01	-8.64485213225E+01	4.25525157356E+01	-3.09926807825E-01	1.39244257479E+02
1.13210000000E+10	-3.19162211025E-01	1.40708993716E+02	-8.66224547139E+01	5.69025752881E+01	-8.64463159057E+01	4.68083885784E+01	-3.09512062559E-01	1.39157487397E+02
1.13215000000E+10	-3.19314243266E-01	1.40618178046E+02	-8.76594805509E+01	3.57218079786E+01	-8.60089609070E+01	5.34706054077E+01	-3.10899771614E-01	1.39054639274E+02
1.13220000000E+10	-3.18756317734E-01	1.40518783778E+02	-8.89149322849E+01	6.06121496943E+01	-8.91824895631E+01	5.54252352643E+01	-3.08814704437E-01	1.38983167445E+02
1.13225000000E+10	-3.16437118808E-01	1.40404266298E+02	-8.72683441849E+01	5.08009196446E+01	-8.55702576119E+01	5.35223096756E+01	-3.10374362519E-01	1.38870540441E+02
1.13230000000E+10	-3.18658931370E-01	1.40317523182E+02	-8.47546617294E+01	6.45172289351E+01	-8.63526526543E+01	5.29100842214E+01	-3.08601812285E-01	1.38780582358E+02
1.13235000000E+10	-3.19326607916E-01	1.40208313131E+02	-8.62446904402E+01	4.72141046913E+01	-8.67089713982E+01	3.71089992366E+01	-3.09461667262E-01	1.38698761189E+02
1.13240000000E+10	-3.18646970472E-01	1.40104125224E+02	-8.71595882005E+01	2.91527119371E+01	-8.77120092455E+01	5.18166896091E+01	-3.09490302933E-01	1.38610182107E+02
1.13245000000E+10	-3.20573353796E-01	1.40008843584E+02	-8.65829617927E+01	3.63876497328E+01	-8.71892409933E+01	3.56375355287E+01	-3.09585684585E-01	1.38499833049E+02
1.13250000000E+10	-3.19695378343E-01	1.39911378928E+02	-8.57803116710E+01	4.71885525718E+01	-8.52081743979E+01	4.71968659013E+01	-3.10221550468E-01	1.38420673938E+02
1.13255000000E+10	-3.16857117634E-01	1.39806029374E+02	-8.69359104619E+01	4.86438011736E+01	-8.92918057822E+01	4.77525360053E+01	-3.08479655820E-01	1.38319295899E+02
1.13260000000E+10	-3.18498180460E-01	1.39687544871E+02	-8.53069290205E+01	5.39629900296E+01	-8.56967097949E+01	6.59045317698E+01	-3.07608760710E-01	1.38202488063E+02
1.13265000000E+10	-3.18587025402E-01	1.39590238934E+02	-8.81151319118E+01	3.91678866850E+01	-8.77384244158E+01	4.45250598306E+01	-3.08845610532E-01	1.38128194100E+02
1.13270000000E+10	-3.18345670455E-01	1.39480012827E+02	-8.76776163620E+01	4.25619208984E+01	-8.56492022536E+01	3.21721675194E+01	-3.09584110821E-01	1.38031319305E+02
1.13275000000E+10	-3.20781941973E-01	1.39389580756E+02	-8.50973639946E+01	4.21147852367E+01	-8.77302950591E+01	3.56299577745E+01	-3.09196127377E-01	1.37936591476E+02
1.13280000000E+10	-3.20748787966E-01	1.39281189174E+02	-8.64900890727E+01	3.56567468306E+01	-8.89464577754E+01	5.01639734840E+01	-3.08543603742E-01	1.37835789565E+02
1.13285000000E+10	-3.18278651099E-01	1.39168487283E+02	-8.67970967845E+01	3.57427912477E+01	-8.79327807447E+01	3.82664209003E+01	-3.08148914732E-01	1.37742653655E+02
1.13290000000E+10	-3.17108163755E-01	1.39063653306E+02	-8.44430474364E+01	5.61427878581E+01	-8.68267102096E+01	4.77703502110E+01	-3.08623507188E-01	1.37655358444E+02
1.13295000000E+10	-3.18496120884E-01	1.38961861616E+02	-8.69799563734E+01	4.68242123046E+01	-8.70281798242E+01	3.14343185098E+01	-3.10538415189E-01	1.37552351966E+02
1.13300000000E+10	-3.18271640438E-01	1.38853912528E+02	-8.91111871549E+01	4.94126443547E+01	-8.82232159859E+01	4.71560012078E+01	-3.09787558064E-01	1.37450849368E+02
1.13305000000E+10	-3.19693235577E-01	1.38766185306E+02	-8.61245066466E+01	4.86741307277E+01	-8.58147062493E+01	4.04573494587E+01	-3.07265024662E-01	1.37353736955E+02
1.13310000000E+10	-3.19130409131E-01	1.38651366564E+02	-8.92624316536E+01	3.34005221793E+01	-8.79219306874E+01	4.23235972055E+01	-3.08723786631E-01	1.37267296181E+02
1.13315000000E+10	-3.18750665823E-01	1.38562780341E+02	-8.95562293327E+01	6.05976939720E+01	-8.52588689840E+01	4.31922557372E+01	-3.10155001699E-01	1.37159662985E+02
1.13320000000E+10	-3.17303225108E-01	1.38431671205E+02	-8.77122995710E+01	4.89447530969E+01	-8.67454990671E+01	3.69865124157E+01	-3.10869905725E-01	1.37078937686E+02
1.13325000000E+10	-3.16888201932E-01	1.38332712562E+02	-8.68857276665E+01	5.48464226015E+01	-8.77328731123E+01	2.99398074714E+01	-3.11083774947E-01	1.36979259687E+02
1.13330000000E+10	-3.17422512424E-01	1.38218510319E+02	-8.66392809449E+01	4.31190381406E+01	-8.58965984810E+01	4.21801656270E+01	-3.08392913546E-01	1.36888415069E+02
1.13335000000E+10	-3.19689377975E-01	1.38122502950E+02	-8.61193227926E+01	3.24932171498E+01	-8.59491032644E+01	4.51163083792E+01	-3.08302441847E-01	1.36774586032E+02
1.13340000000E+10	-3.19723406167E-01	1.38027299268E+02	-8.80770581503E+01	3.78751072850E+01	-8.54923046792E+01	4.19772074188E+01	-3.10420502532E-01	1.36701423695E+02
1.13345000000E+10	-3.15222418566E-01	1.37890772367E+02	-8.81977284432E+01	4.79838117569E+01	-8.70559906847E+01	5.06073494703E+01	-3.08465687483E-01	1.36587913077E+02
1.13350000000E+10	-3.18158222922E-01	1.37785172008E+02	-8.68643639379E+01	3.55708411930E+01	-8.75724002872E+01	3.95057900257E+01	-3.07996171283E-01	1.36502046832E+02
1.13355000000E+10	-3.20047134169E-01	1.37686663059E+02	-8.73154077941E+01	2.37189717222E+01	-8.82776139758E+01	5.69480155244E+01	-3.09809738287E-01	1.36401323321E+02
1.13360000000E+10	-3.19246764916E-01	1.37566855025E+02	-8.52055516323E+01	4.65717383752E+01	-8.62670576174E+01	4.72117428297E+01	-3.09859099083E-01	1.36309675689E+02
1.13365000000E+10	-3.20413436583E-01	1.37483519585E+02	-8.84116895754E+01	2.68447088183E+01	-8.75814445902E+01	4.43880508581E+01	-3.06378640733E-01	1.36187860127E+02
1.13370000000E+10	-3.18996721351E-01	1.37374494152E+02	-8.79181750870E+01	4.91738248453E+01	-8.50591638276E+01	4.92201523311E+01	-3.04967818572E-01	1.36104220726E+02
1.13375000000E+10	-3.20093692070E-01	1.37261987953E+02	-8.75737854608E+01	4.97954584904E+01	-8.66575708638E+01	3.84347067594E+01	-3.06765891295E-01	1.36005611419E+02
1.13380000000E+10	-3.21480119851E-01	1.37152199344E+02	-8.69584657934E+01	2.83327926537E+01	-8.46770582586E+01	5.04281796773E+01	-3.08898950755E-01	1.35916581027E+02
1.13385000000E+10	-3.20504382470E-01	1.37049798718E+02	-8.65307303931E+01	3.84708070828E+01	-8.66976481631E+01	4.18639753136E+01	-3.08306393554E-01	1.35822583694E+02
1.13390000000E+10	-3.19569620244E-01	1.36941629082E+02	-8.68196730511E+01	3.67521300329E+01	-8.84621330596E+01	3.43973015441E+01	-3.09259442084E-01	1.35699899576E+02
1.13395000000E+10	-3.19339255731E-01	1.36830592280E+02	-8.65705389680E+01	4.07811775764E+01	-8.75806239324E+01	3.32096566007E+01	-3.09544040734E-01	1.35623316898E+02
1.13400000000E+10	-3.22877889175E-01	1.36712372598E+02	-8.56307462777E+01	3.66719194985E+01	-8.67327231162E+01	3.56260380815E+01	-3.08575075705E-01	1.35515932244E+02
1.13405000000E+10	-3.20430872115E-01	1.36593813221E+02	-8.48033827374E+01	3.76996643826E+01	-8.60110714591E+01	3.91323991289E+01	-3.11700009845E-01	1.35410014643E+02
1.13410000000E+10	-3.18949751396E-01	1.36499878989E+02	-8.68755817717E+01	3.68151780110E+01	-8.63206699196E+01	4.01371409365E+01	-3.11056091501E-01	1.35315205116E+02
1.13415000000E+10	-3.19506421904E-01	1.36382855659E+02	-8.54347977993E+01	3.78914204504E+01	-8.71162336114E+01	5.47633856618E+01	-3.10102490677E-01	1.35223067624E+02
1.13420000000E+10	-3.19377888805E-01	1.36274961673E+02	-8.64440395694E+01	3.06558915507E+01	-8.49869112312E+01	4.23540706292E+01	-3.09129173116E-01	1.35111751181E+02
1.13425000000E+10	-3.21364663481E-01	1.36171641979E+02	-8.59082262732E+01	3.44597242063E+01	-8.81008599980E+01	3.74889587466E+01	-3.09471056716E-01	1.35018202693E+02
1.13430000000E+10	-3.18109375624E-01	1.36045869259E+02	-8.65722397466E+01	3.98663447738E+01	-8.76121978994E+01	4.52246967474E+01	-3.09018356177E-01	1.34919066851E+02
1.13435000000E+10	-3.21293744173E-01	1.35935498487E+02	-8.51683207076E+01	2.38829162230E+01	-8.78316203996E+01	4.27400497576E+01	-3.08511339022E-01	1.34828424887E+02
1.13440000000E+10	-3.20878919482E-01	1.35830475537E+02	-8.54839770375E+01	5.26580556511E+01	-8.67032999347E+01	3.95289154318E+01	-3.10571263597E-01	1.34718796971E+02
1.13445000000E+10	-3.19738224632E-01	1.35732635272E+02	-8.60423351203E+01	3.87669124686E+01	-8.74941515177E+01	3.00286683297E+01	-3.10291489086E-01	1.34618923031E+02
1.13450000000E+10	-3.17217701198E-01	1.35598588371E+02	-8.63822387344E+01	4.58832572685E+01	-8.57774050125E+01	4.96494045883E+01	-3.09507060720E-01	1.34524323155E+02
1.13455000000E+10	-3.17490822863E-01	1.35500182835E+02	-8.75218849028E+01	4.48435329075E+01	-8.64473339546E+01	3.62193475157E+01	-3.08695167207E-01	1.34418443183E+02
1.13460000000E+10	-3.20769569274E-01	1.35385535825E+02	-8.52431747084E+01	4.54506870411E+01	-8.42280002449E+01	4.34607807108E+01	-3.08966048668E-01	1.34323605442E+02
1.13465000000E+10	-3.19208734685E-01	1.35268120143E+02	-8.64328563830E+01	3.89636463690E+01	-8.66686794333E+01	3.63763875483E+01	-3.12500657563E-01	1.34202106903E+02
1.13470000000E+10	-3.18981432632E-01	1.35138891011E+02	-8.69422331796E+01	3.30351717696E+01	-8.67576266397E+01	3.86813093769E+01	-3.09871951143E-01	1.34107443100E+02
1.13475000000E+10	-3.21532349854E-01	1.35042526532E+02	-8.74466612770E+01	3.42228002493E+01	-8.85484223049E+01	2.30806267841E+01	-3.11438079340E-01	1.34005138511E+02
1.13480000000E+10	-3.20260909478E-01	1.34932770733E+02	-8.88502623955E+01	3.94766362070E+01	-8.57446139425E+01	3.62327873019E+01	-3.11947244578E-01	1.33902865581E+02
1.13485000000E+10	-3.19294959143E-01	1.34815401508E+02	-8.72643517506E+01	4.37052981803E+01	-8.65467917379E+01	3.99668505041E+01	-3.10925503714E-01	1.33809231690E+02
1.13490000000E+10	-3.18861438144E-01	1.34703016564E+02	-8.62654008480E+01	4.98284269784E+01	-8.86712468020E+01	5.75563721740E+01	-3.11591546274E-01	1.33690693232E+02
1.13495000000E+10	-3.19131844590E-01	1.34570277774E+02	-8.73416799677E+01	3.26864446667E+01	-8.59111281273E+01	3.93219732661E+01	-3.11921094361E-01	1.33598652330E+02
1.13500000000E+10	-3.21363001230E-01	1.34473343789E+02	-8.56949272158E+01	3.63281201266E+01	-8.53590389509E+01	4.12293421270E+01	-3.11721521516E-01	1.33482676668E+02
1.13505000000E+10	-3.21797251008E-01	1.34358561492E+02	-8.64199350054E+01	4.94803792394E+01	-8.74775541023E+01	4.90162295399E+01	-3.12182010117E-01	1.33386724899E+02
1.13510000000E+10	-3.19699630221E-01	1.34249514279E+02	-8.73151247140E+01	3.63843980910E+01	-8.32957970377E+01	3.61279272648E+01	-3.10918593880E-01	1.33276801811E+02
1.13515000000E+10	-3.22159417023E-01	1.34108108673E+02	-8.50732453929E+01	4.40358502915E+01	-8.58808541903E+01	5.05435419048E+01	-3.13150019645E-01	1.33169066391E+02
1.13520000000E+10	-3.19539403092E-01	1.34017022799E+02	-8.80805764797E+01	4.24090762785E+01	-8.55666283052E+01	4.12468410666E+01	-3.11264471636E-01	1.33072104353E+02
1.13525000000E+10	-3.19907441079E-01	1.33891849935E+02	-8.54619205061E+01	4.15657962461E+01	-8.54410968050E+01	4.37098784798E+01	-3.11910832941E-01	1.32961602842E+02
1.13530000000E+10	-3.21057447858E-01	1.33786989369E+02	-8.73544605366E+01	4.26919714751E+01	-8.76198737961E+01	3.87082188087E+01	-3.09956632939E-01	1.32868036793E+02
1.13535000000E+10	-3.20946379018E-01	1.33655177385E+02	-8.68600027202E+01	4.64364093536E+01	-8.52364884434E+01	3.23193889952E+01	-3.11211068377E-01	1.32772261085E+02
1.13540000000E+10	-3.20996293396E-01	1.33538785060E+02	-8.65581242246E+01	4.17242053225E+01	-8.43727040784E+01	3.66236651088E+01	-3.14144089855E-01	1.32653922129E+02
1.13545000000E+10	-3.20839712847E-01	1.33420894028E+02	-8.57400873430E+01	4.55137382308E+01	-8.63433467952E+01	2.79618297660E+01	-3.13703427466E-01	1.32551150147E+02
1.13550000000E+10	-3.20623022140E-01	1.33308996824E+02	-8.65413870670E+01	4.15358247590E+01	-8.65857053157E+01	3.96570713081E+01	-3.11640756848E-01	1.32438473839E+02
1.13555000000E+10	-3.20689186932E-01	1.33193439207E+02	-8.50764332224E+01	4.56431126033E+01	-8.59156611733E+01	3.84221460784E+01	-3.10881619647E-01	1.32346928538E+02
1.13560000000E+10	-3.20628731835E-01	1.33068125857E+02	-8.68734295457E+01	3.86452475667E+01	-8.68471291989E+01	4.29078454035E+01	-3.15575292949E-01	1.32233632072E+02
1.13565000000E+10	-3.22101939417E-01	1.32951695046E+02	-8.59385170517E+01	4.97888850627E+01	-8.64026951218E+01	3.55573751784E+01	-3.11232108022E-01	1.32104911536E+02
1.13570000000E+10	-3.20326256198E-01	1.32832936657E+02	-8.74746116169E+01	1.91671819332E+01	-8.63953856195E+01	4.81761641373E+01	-3.15348038374E-01	1.32023899650E+02
1.13575000000E+10	-3.22488766626E-01	1.32716142207E+02	-8.62950659213E+01	3.41087601825E+01	-8.63290871821E+01	3.10835808770E+01	-3.12069651108E-01	1.31912454911E+02
1.13580000000E+10	-3.20855113035E-01	1.32594336015E+02	-8.54908462862E+01	4.04672302584E+01	-8.50812107778E+01	3.28567400151E+01	-3.11584761692E-01	1.31797925679E+02
1.13585000000E+10	-3.21975896093E-01	1.32478101943E+02	-8.69660562756E+01	4.72379224906E+01	-8.54304750416E+01	4.09287678197E+01	-3.13207605318E-01	1.31702317987E+02
1.13590000000E+10	-3.21747920607E-01	1.32351742808E+02	-8.48441768822E+01	4.87320614847E+01	-8.62641631096E+01	2.39411306107E+01	-3.10726961064E-01	1.31577716948E+02
