# Hz S DB R 50
! Planar, S50244, 24171007, 25.4.1/6
! Date: 15.10.2025 10:25:42
! Data: Format (Calibration Info)
! Freq	S11:dB/Ang(F2)	S21:dB/Ang(F2)	S12:dB/Ang(F2)	S22:dB/Ang(F2)
1.13000000000E+10	-3.22162483050E-01	1.44822994098E+02	-8.87193887883E+01	6.40011371421E+01	-8.57123171026E+01	5.18045308448E+01	-3.14911854430E-01	1.43089855424E+02
1.13005000000E+10	-3.24198479822E-01	1.44727929923E+02	-8.64567980818E+01	6.95975728224E+01	-9.02641489068E+01	3.48384541837E+01	-3.17379063710E-01	1.43002745883E+02
1.13010000000E+10	-3.23367217551E-01	1.44641125358E+02	-9.02061197555E+01	7.58945556484E+01	-8.79715196376E+01	6.69596411548E+01	-3.15040689985E-01	1.42927002968E+02
1.13015000000E+10	-3.24297899414E-01	1.44544315654E+02	-8.67940584140E+01	5.92741099619E+01	-8.91264816945E+01	5.81250169926E+01	-3.16306398501E-01	1.42846572741E+02
1.13020000000E+10	-3.23816981739E-01	1.44445397579E+02	-9.06386428654E+01	3.66314035442E+01	-9.23932864920E+01	4.85675127715E+01	-3.14648102979E-01	1.42763441621E+02
1.13025000000E+10	-3.22891034945E-01	1.44343766127E+02	-8.90025774297E+01	6.52998447166E+01	-8.87362161888E+01	6.48656894133E+01	-3.15691117956E-01	1.42682749047E+02
1.13030000000E+10	-3.21847138496E-01	1.44258126664E+02	-8.71504516725E+01	5.58851715527E+01	-8.65040789693E+01	5.64591020852E+01	-3.12263463352E-01	1.42575487745E+02
1.13035000000E+10	-3.22430340949E-01	1.44146237697E+02	-8.69722017265E+01	6.19195955842E+01	-8.77389046543E+01	6.01204431310E+01	-3.13514303076E-01	1.42492583008E+02
1.13040000000E+10	-3.22519935648E-01	1.44054252704E+02	-8.63653138276E+01	7.20179758088E+01	-9.05239326834E+01	7.69333093697E+01	-3.14601691241E-01	1.42412918875E+02
1.13045000000E+10	-3.20972419882E-01	1.43950442546E+02	-8.66614000089E+01	6.36366154705E+01	-8.89068168916E+01	6.96870105762E+01	-3.12440399586E-01	1.42325111357E+02
1.13050000000E+10	-3.21192602805E-01	1.43871616422E+02	-8.65443105390E+01	4.50040544464E+01	-8.96122204045E+01	5.26994706337E+01	-3.18616370786E-01	1.42214644722E+02
1.13055000000E+10	-3.21541635811E-01	1.43769753683E+02	-8.77589951409E+01	5.58633817162E+01	-8.68649205504E+01	6.21726433790E+01	-3.12031775900E-01	1.42135551310E+02
1.13060000000E+10	-3.20326054227E-01	1.43664953455E+02	-8.73591749074E+01	5.35318500213E+01	-8.59015829920E+01	5.64135092278E+01	-3.12937838728E-01	1.42043109469E+02
1.13065000000E+10	-3.23676885561E-01	1.43578388014E+02	-8.75385310687E+01	4.29112653498E+01	-8.83435511279E+01	4.00981013359E+01	-3.14902165276E-01	1.41959238294E+02
1.13070000000E+10	-3.20807150129E-01	1.43484112942E+02	-8.62984198484E+01	6.84958511345E+01	-8.77333010016E+01	5.29899550524E+01	-3.12334112789E-01	1.41874126920E+02
1.13075000000E+10	-3.23219616248E-01	1.43389956428E+02	-8.75410216914E+01	5.75780612161E+01	-8.58462481113E+01	5.86451847308E+01	-3.11984246671E-01	1.41788012670E+02
1.13080000000E+10	-3.21489214449E-01	1.43300318584E+02	-8.80546873916E+01	5.53313694498E+01	-8.65225563067E+01	5.76462888250E+01	-3.10422147562E-01	1.41707173359E+02
1.13085000000E+10	-3.21790747783E-01	1.43189231575E+02	-8.84788279527E+01	5.74087698822E+01	-9.13352364535E+01	6.37961441480E+01	-3.14748904452E-01	1.41611437975E+02
1.13090000000E+10	-3.20697333035E-01	1.43093630009E+02	-8.66318515950E+01	6.74175562638E+01	-8.80093591837E+01	6.37346525257E+01	-3.12355705658E-01	1.41518932830E+02
1.13095000000E+10	-3.21401133491E-01	1.42993509287E+02	-8.58191373355E+01	5.17008424814E+01	-8.53553323918E+01	5.91356073466E+01	-3.13247847871E-01	1.41418583014E+02
1.13100000000E+10	-3.19227880432E-01	1.42906957041E+02	-8.89996016059E+01	5.57329127970E+01	-8.79601400603E+01	4.29104000061E+01	-3.09679160833E-01	1.41336111453E+02
1.13105000000E+10	-3.22604565922E-01	1.42800137916E+02	-8.74328754029E+01	5.05519930918E+01	-8.67826359661E+01	6.65401103082E+01	-3.13150609263E-01	1.41233808210E+02
1.13110000000E+10	-3.22109316026E-01	1.42700949956E+02	-8.75792620529E+01	5.57078143120E+01	-8.71239112415E+01	5.58995304949E+01	-3.12418320231E-01	1.41147652942E+02
1.13115000000E+10	-3.21153045296E-01	1.42609397876E+02	-8.60538905859E+01	5.68315618636E+01	-9.18667417582E+01	3.55366122553E+01	-3.12392492380E-01	1.41075391530E+02
1.13120000000E+10	-3.20296836283E-01	1.42510844845E+02	-8.80199857522E+01	5.71991837177E+01	-8.91878873044E+01	7.82310173917E+01	-3.14129876157E-01	1.40970331595E+02
1.13125000000E+10	-3.22187328131E-01	1.42427970349E+02	-8.70170496584E+01	4.29153787467E+01	-8.59926593497E+01	5.96866670665E+01	-3.10990566576E-01	1.40887412427E+02
1.13130000000E+10	-3.20630188316E-01	1.42320107400E+02	-8.52096525117E+01	5.57639545335E+01	-8.90710931310E+01	4.86929437487E+01	-3.13917191839E-01	1.40795862422E+02
1.13135000000E+10	-3.21762944643E-01	1.42219713326E+02	-8.76740731041E+01	5.67514234711E+01	-8.96800330932E+01	6.87666608498E+01	-3.08638404058E-01	1.40713795795E+02
1.13140000000E+10	-3.20988101053E-01	1.42100217546E+02	-8.51873190854E+01	4.31360777045E+01	-8.73716362583E+01	4.53554303802E+01	-3.13985333760E-01	1.40627295006E+02
1.13145000000E+10	-3.21518125702E-01	1.42009675277E+02	-8.72621445320E+01	6.92977881616E+01	-8.69120088647E+01	6.81143904405E+01	-3.12397631759E-01	1.40531512141E+02
1.13150000000E+10	-3.21747071820E-01	1.41901341805E+02	-8.68444051797E+01	5.41989671279E+01	-8.78889618220E+01	6.19094847947E+01	-3.08864575110E-01	1.40429222025E+02
1.13155000000E+10	-3.19201686596E-01	1.41813311311E+02	-8.47378901073E+01	5.80437559343E+01	-9.03927423058E+01	5.07845753236E+01	-3.11526714479E-01	1.40338573034E+02
1.13160000000E+10	-3.20165082568E-01	1.41717360316E+02	-8.69674712093E+01	4.76074643290E+01	-9.12334368134E+01	6.56820469760E+01	-3.12384350620E-01	1.40265541889E+02
1.13165000000E+10	-3.20864328891E-01	1.41618381402E+02	-8.77260175012E+01	5.10111592153E+01	-8.63735118455E+01	6.31367537243E+01	-3.15077753871E-01	1.40169177119E+02
1.13170000000E+10	-3.18469775380E-01	1.41520352221E+02	-8.52856713010E+01	6.58064062353E+01	-9.01301682587E+01	4.91177002492E+01	-3.11967520207E-01	1.40074057199E+02
1.13175000000E+10	-3.19321460260E-01	1.41411426460E+02	-8.52563504760E+01	6.51459791477E+01	-8.72560764497E+01	5.47574024664E+01	-3.14306515284E-01	1.39972116770E+02
1.13180000000E+10	-3.21303065870E-01	1.41315005346E+02	-8.65696474576E+01	5.19117665971E+01	-8.82682719611E+01	6.56164853953E+01	-3.13142306299E-01	1.39869701795E+02
1.13185000000E+10	-3.18969613581E-01	1.41218013401E+02	-8.82829256940E+01	6.16018766156E+01	-8.58649596630E+01	5.20666720765E+01	-3.13278277741E-01	1.39789407928E+02
1.13190000000E+10	-3.19802190571E-01	1.41115758496E+02	-8.66824976285E+01	4.74550031626E+01	-8.72531445153E+01	5.69537567878E+01	-3.08953131094E-01	1.39692568339E+02
1.13195000000E+10	-3.20460785468E-01	1.41008169035E+02	-8.48034565766E+01	4.30583309352E+01	-8.59684958767E+01	6.97543607421E+01	-3.10252835819E-01	1.39604027552E+02
1.13200000000E+10	-3.18136358235E-01	1.40904826023E+02	-8.65375037715E+01	5.04441249403E+01	-8.54071544370E+01	6.28454788083E+01	-3.12674408526E-01	1.39510422733E+02
1.13205000000E+10	-3.19509824139E-01	1.40813594050E+02	-8.74130187239E+01	5.85450927010E+01	-8.93393385656E+01	4.87449559139E+01	-3.12869425774E-01	1.39428744005E+02
1.13210000000E+10	-3.19033849819E-01	1.40704249450E+02	-8.77982472147E+01	7.17785593130E+01	-8.47375821334E+01	5.90736866602E+01	-3.12039769233E-01	1.39326117915E+02
1.13215000000E+10	-3.17600623398E-01	1.40618538184E+02	-8.69744289611E+01	6.61057774483E+01	-8.78997878621E+01	6.23537759053E+01	-3.13457578743E-01	1.39235684377E+02
1.13220000000E+10	-3.19202245564E-01	1.40503223863E+02	-8.57378828840E+01	5.49271435819E+01	-8.76574671161E+01	5.10401267985E+01	-3.11450714746E-01	1.39158028092E+02
1.13225000000E+10	-3.17169073273E-01	1.40405533215E+02	-8.65055028798E+01	5.92469624995E+01	-8.75774638277E+01	6.51932811285E+01	-3.13441278882E-01	1.39047911890E+02
1.13230000000E+10	-3.18030353467E-01	1.40310375275E+02	-8.71527821480E+01	5.17411378071E+01	-8.83801204453E+01	5.23253578298E+01	-3.11200305157E-01	1.38964260336E+02
1.13235000000E+10	-3.18913174472E-01	1.40198601480E+02	-8.60846517976E+01	6.69180878547E+01	-8.57284419201E+01	5.74325984682E+01	-3.10816166719E-01	1.38874074043E+02
1.13240000000E+10	-3.16555004736E-01	1.40094917139E+02	-8.98393512588E+01	6.04125650641E+01	-8.66184585707E+01	5.95731668497E+01	-3.11558049456E-01	1.38793130538E+02
1.13245000000E+10	-3.19051992438E-01	1.40000501711E+02	-8.84209596748E+01	5.52593248202E+01	-8.58622548808E+01	5.13167079552E+01	-3.11520422997E-01	1.38675565495E+02
1.13250000000E+10	-3.18694069294E-01	1.39904051215E+02	-8.48173486546E+01	5.51199971470E+01	-8.70008478689E+01	6.57988962787E+01	-3.12187180507E-01	1.38595082314E+02
1.13255000000E+10	-3.16208859395E-01	1.39794988292E+02	-8.78320370545E+01	5.54718588791E+01	-8.51829005098E+01	5.62923061637E+01	-3.10959093091E-01	1.38496474077E+02
1.13260000000E+10	-3.19424394113E-01	1.39685627237E+02	-8.87813086510E+01	6.20167729820E+01	-8.69175755190E+01	4.32637368457E+01	-3.09729270526E-01	1.38383899917E+02
1.13265000000E+10	-3.18132003123E-01	1.39576976653E+02	-8.64887706045E+01	4.90931084117E+01	-8.73624335983E+01	4.90803463200E+01	-3.10406328974E-01	1.38307997019E+02
1.13270000000E+10	-3.17835993303E-01	1.39475808775E+02	-8.66946987267E+01	6.09473824724E+01	-8.50812521505E+01	5.73970014962E+01	-3.11346684753E-01	1.38208991497E+02
1.13275000000E+10	-3.18350260412E-01	1.39384268690E+02	-8.82227791734E+01	5.26439839240E+01	-8.82417558638E+01	7.02137283320E+01	-3.10811950958E-01	1.38120518295E+02
1.13280000000E+10	-3.19400195005E-01	1.39268320562E+02	-8.57606629914E+01	4.26620075184E+01	-8.65627781441E+01	6.45916992385E+01	-3.10158506143E-01	1.38018725489E+02
1.13285000000E+10	-3.16963909381E-01	1.39149459762E+02	-8.50734329173E+01	6.37530475150E+01	-8.65598138664E+01	5.39316041032E+01	-3.10499603692E-01	1.37930070607E+02
1.13290000000E+10	-3.17158045259E-01	1.39068233182E+02	-8.87916742154E+01	6.16486144994E+01	-8.63399743327E+01	6.57362544904E+01	-3.10366350182E-01	1.37840337593E+02
1.13295000000E+10	-3.17959012223E-01	1.38957583814E+02	-8.96253885241E+01	6.54442991625E+01	-8.65426770125E+01	6.28125768168E+01	-3.12342180407E-01	1.37739468907E+02
1.13300000000E+10	-3.19826486029E-01	1.38829113554E+02	-8.55473461373E+01	5.69468674181E+01	-8.72548077945E+01	4.94971626155E+01	-3.11269437930E-01	1.37635148550E+02
1.13305000000E+10	-3.19879017613E-01	1.38757561775E+02	-8.70198705459E+01	5.59378068219E+01	-8.50911497981E+01	5.40666670501E+01	-3.09109913133E-01	1.37541592829E+02
1.13310000000E+10	-3.18304761276E-01	1.38639158262E+02	-8.96737965422E+01	6.12589790604E+01	-8.99907222896E+01	3.64708990649E+01	-3.10810041989E-01	1.37455887599E+02
1.13315000000E+10	-3.19216609967E-01	1.38533665265E+02	-8.58355708129E+01	6.09762837966E+01	-8.54147137324E+01	5.24973560431E+01	-3.12672097129E-01	1.37347527525E+02
1.13320000000E+10	-3.17988649916E-01	1.38426533668E+02	-8.54842397400E+01	6.06188569257E+01	-8.65131120369E+01	4.36894014907E+01	-3.13153174264E-01	1.37266824643E+02
1.13325000000E+10	-3.17810537559E-01	1.38317530996E+02	-8.56368328230E+01	5.82111269632E+01	-8.73957438795E+01	5.48917089367E+01	-3.12820166177E-01	1.37165407686E+02
1.13330000000E+10	-3.16778321136E-01	1.38206639630E+02	-8.59204804164E+01	6.35824763517E+01	-8.56719517637E+01	5.22318680997E+01	-3.11680686290E-01	1.37077184107E+02
1.13335000000E+10	-3.18835572560E-01	1.38111724943E+02	-8.72284468945E+01	5.42297125919E+01	-8.55344612759E+01	4.12585412715E+01	-3.10235330621E-01	1.36968983363E+02
1.13340000000E+10	-3.18731696427E-01	1.38007079188E+02	-8.60282261672E+01	6.31798042865E+01	-8.49554485026E+01	5.21130905423E+01	-3.13252942710E-01	1.36898995267E+02
1.13345000000E+10	-3.16752916707E-01	1.37891884414E+02	-8.80319320426E+01	4.63856417529E+01	-8.52285951086E+01	5.14835268762E+01	-3.10938512792E-01	1.36784642765E+02
1.13350000000E+10	-3.17784040784E-01	1.37784860203E+02	-8.77625162952E+01	3.93056980211E+01	-8.55803543919E+01	4.65191788267E+01	-3.11259920191E-01	1.36695143953E+02
1.13355000000E+10	-3.19641148327E-01	1.37661050168E+02	-8.63104052002E+01	5.88896629219E+01	-8.56812118546E+01	4.71066427372E+01	-3.12834296196E-01	1.36598701491E+02
1.13360000000E+10	-3.18566541744E-01	1.37561901908E+02	-8.68118425781E+01	6.06081444392E+01	-8.65109325886E+01	5.94091773442E+01	-3.12206505878E-01	1.36505319011E+02
1.13365000000E+10	-3.20268182579E-01	1.37469692778E+02	-8.53443544994E+01	4.39802664231E+01	-8.55222132681E+01	5.62262316680E+01	-3.09576762263E-01	1.36383327111E+02
1.13370000000E+10	-3.17882238193E-01	1.37361364263E+02	-8.67127366427E+01	5.77298785685E+01	-8.46589003156E+01	4.81805887918E+01	-3.08111392488E-01	1.36303675624E+02
1.13375000000E+10	-3.20500758901E-01	1.37262298438E+02	-8.63357177664E+01	4.66295427690E+01	-8.63906208301E+01	6.03274067132E+01	-3.09597829699E-01	1.36208421216E+02
1.13380000000E+10	-3.19302456426E-01	1.37149227860E+02	-8.75101323966E+01	6.16200497924E+01	-8.67789227382E+01	6.70076538066E+01	-3.11959519606E-01	1.36114648598E+02
1.13385000000E+10	-3.18480596982E-01	1.37047232642E+02	-8.58125193547E+01	5.58418485309E+01	-8.52168238894E+01	6.26084563856E+01	-3.11137562988E-01	1.36027902288E+02
1.13390000000E+10	-3.19401376698E-01	1.36941489304E+02	-8.66019182383E+01	4.61455904703E+01	-8.63895705369E+01	5.90251463825E+01	-3.11322304780E-01	1.35903715134E+02
1.13395000000E+10	-3.19750471225E-01	1.36821613692E+02	-8.76820989565E+01	5.43995191778E+01	-8.62026874151E+01	5.74345907975E+01	-3.11818885539E-01	1.35825025482E+02
1.13400000000E+10	-3.20331619098E-01	1.36693710330E+02	-8.56369210842E+01	4.90891129134E+01	-8.69549709236E+01	5.37901499999E+01	-3.11017366054E-01	1.35714266054E+02
1.13405000000E+10	-3.20478782713E-01	1.36603678135E+02	-8.65094242064E+01	3.06540828033E+01	-8.54981422652E+01	5.62363265473E+01	-3.14091101770E-01	1.35616534014E+02
1.13410000000E+10	-3.19746438902E-01	1.36487193395E+02	-8.70561715864E+01	6.37102587864E+01	-8.57491457764E+01	5.12349066776E+01	-3.13888991193E-01	1.35519385556E+02
1.13415000000E+10	-3.18707283217E-01	1.36374850421E+02	-8.56595876084E+01	5.02728377686E+01	-8.83826680481E+01	6.28001513567E+01	-3.12414646665E-01	1.35428936143E+02
1.13420000000E+10	-3.16731238829E-01	1.36257918988E+02	-8.65494097548E+01	5.73214063313E+01	-8.82855515066E+01	4.82744085248E+01	-3.11530635494E-01	1.35317393076E+02
1.13425000000E+10	-3.21103614331E-01	1.36155474037E+02	-8.69619968857E+01	6.42721453440E+01	-8.58256121849E+01	5.57002896437E+01	-3.11649036584E-01	1.35228145387E+02
1.13430000000E+10	-3.14509102870E-01	1.36038463966E+02	-8.75311517862E+01	8.03499678055E+01	-8.53236509450E+01	5.04873566702E+01	-3.10800960888E-01	1.35125026824E+02
1.13435000000E+10	-3.19794819832E-01	1.35920556613E+02	-8.58150075862E+01	4.99069236080E+01	-8.68598882384E+01	5.32120440706E+01	-3.09924625613E-01	1.35035305244E+02
1.13440000000E+10	-3.20333542330E-01	1.35827532195E+02	-8.60750411433E+01	6.51984846360E+01	-8.60045745766E+01	4.68867730593E+01	-3.12148055418E-01	1.34931810438E+02
1.13445000000E+10	-3.17951563148E-01	1.35722096487E+02	-8.70290803055E+01	4.88795388933E+01	-8.55792055257E+01	5.97471225813E+01	-3.12003175542E-01	1.34839919494E+02
1.13450000000E+10	-3.17935408232E-01	1.35599471585E+02	-8.51001277033E+01	5.43391650920E+01	-8.61193637308E+01	5.84303952372E+01	-3.11364933609E-01	1.34740401565E+02
1.13455000000E+10	-3.17802929735E-01	1.35491342639E+02	-8.72966221363E+01	6.11799446424E+01	-8.62537058683E+01	5.49700427470E+01	-3.11261212843E-01	1.34638148160E+02
1.13460000000E+10	-3.19565488416E-01	1.35396176161E+02	-8.75494998638E+01	5.31523600061E+01	-8.41235469526E+01	5.40809997706E+01	-3.10478201140E-01	1.34541598279E+02
1.13465000000E+10	-3.18554033088E-01	1.35254230550E+02	-8.65295154415E+01	6.82618063146E+01	-8.66039703401E+01	6.98478789070E+01	-3.14151253548E-01	1.34424168671E+02
1.13470000000E+10	-3.18472063860E-01	1.35132155376E+02	-8.57363082173E+01	5.68914623242E+01	-8.60874555727E+01	4.97164792947E+01	-3.12163290956E-01	1.34328872520E+02
1.13475000000E+10	-3.20312073034E-01	1.35039487435E+02	-8.64683006380E+01	4.96080085641E+01	-8.50228884906E+01	5.87720654941E+01	-3.13156642719E-01	1.34234717570E+02
1.13480000000E+10	-3.19811181947E-01	1.34925460052E+02	-8.61867661544E+01	5.84920740953E+01	-8.68936758932E+01	5.25939814232E+01	-3.13198258986E-01	1.34125186850E+02
1.13485000000E+10	-3.19444268490E-01	1.34810588256E+02	-8.64340876149E+01	4.16041311631E+01	-8.56603410358E+01	6.23031412685E+01	-3.12176473708E-01	1.34038220778E+02
1.13490000000E+10	-3.18020986868E-01	1.34693374596E+02	-8.67828215062E+01	5.44554477367E+01	-8.71126979527E+01	5.68682554336E+01	-3.13148872816E-01	1.33914847034E+02
1.13495000000E+10	-3.18844312749E-01	1.34567856890E+02	-8.56447110891E+01	5.62515320651E+01	-8.66989237886E+01	5.81061936358E+01	-3.13905012865E-01	1.33826719155E+02
1.13500000000E+10	-3.22333344004E-01	1.34466857081E+02	-8.51139001608E+01	4.41110928713E+01	-8.48107938405E+01	4.12149485246E+01	-3.13485224173E-01	1.33714186783E+02
1.13505000000E+10	-3.21549379651E-01	1.34359695194E+02	-8.59004860271E+01	4.78797166415E+01	-8.57450827179E+01	5.37519855535E+01	-3.13142954355E-01	1.33617570638E+02
1.13510000000E+10	-3.20739323402E-01	1.34237549934E+02	-8.59099396528E+01	6.06498531370E+01	-8.52011734387E+01	3.73716654975E+01	-3.12966208957E-01	1.33500150652E+02
1.13515000000E+10	-3.21691864901E-01	1.34114433964E+02	-8.65088146609E+01	5.22435700692E+01	-8.49010091777E+01	6.12957044220E+01	-3.14181305949E-01	1.33403135572E+02
1.13520000000E+10	-3.20229892030E-01	1.34008321219E+02	-8.52254758551E+01	5.26602999180E+01	-8.65894759086E+01	5.32882958734E+01	-3.14067283393E-01	1.33303213889E+02
1.13525000000E+10	-3.18816852379E-01	1.33887296971E+02	-8.71963415643E+01	5.76685719972E+01	-8.57234318003E+01	5.03150963372E+01	-3.14340231975E-01	1.33195334540E+02
1.13530000000E+10	-3.21668807541E-01	1.33782461392E+02	-8.53287979681E+01	4.58442291981E+01	-8.55464526193E+01	5.46946147976E+01	-3.12588526789E-01	1.33102956823E+02
1.13535000000E+10	-3.20702752005E-01	1.33659692047E+02	-8.41872632868E+01	5.48324400572E+01	-8.75342081495E+01	4.99248765589E+01	-3.13023262503E-01	1.33009061949E+02
1.13540000000E+10	-3.20968753764E-01	1.33531242548E+02	-8.44926222072E+01	4.95220809241E+01	-8.47884531863E+01	4.28637837887E+01	-3.15172339247E-01	1.32894610426E+02
1.13545000000E+10	-3.21177529537E-01	1.33422753384E+02	-8.35440555917E+01	4.57421225127E+01	-8.41876917652E+01	6.08209553188E+01	-3.16126634729E-01	1.32793152629E+02
1.13550000000E+10	-3.20515095023E-01	1.33303769614E+02	-8.58555172553E+01	5.64726283191E+01	-8.51311668151E+01	5.83142010177E+01	-3.13470605637E-01	1.32683039295E+02
1.13555000000E+10	-3.21785207929E-01	1.33186942332E+02	-8.55686162710E+01	4.90140326103E+01	-8.42589204658E+01	4.79736900410E+01	-3.11502022870E-01	1.32589208358E+02
1.13560000000E+10	-3.19944276699E-01	1.33070888247E+02	-8.61682360898E+01	5.34014461934E+01	-8.42855636729E+01	5.76227287373E+01	-3.16020637184E-01	1.32477948287E+02
1.13565000000E+10	-3.22045292606E-01	1.32963254620E+02	-8.54944284838E+01	4.38461329931E+01	-8.58881487247E+01	4.84150172608E+01	-3.14427662967E-01	1.32348938162E+02
1.13570000000E+10	-3.21070769068E-01	1.32838304264E+02	-8.50833474282E+01	4.03298561247E+01	-8.46698849221E+01	5.43420883043E+01	-3.18003438612E-01	1.32267096576E+02
1.13575000000E+10	-3.21127702148E-01	1.32721362123E+02	-8.51483795819E+01	4.63799869202E+01	-8.65452250456E+01	4.99059239057E+01	-3.16124873813E-01	1.32164009470E+02
1.13580000000E+10	-3.20637214929E-01	1.32588161777E+02	-8.51925194538E+01	5.85498324877E+01	-8.56800762653E+01	4.38741251861E+01	-3.13962713734E-01	1.32051512497E+02
1.13585000000E+10	-3.22559852345E-01	1.32473468585E+02	-8.56866279324E+01	5.50736059911E+01	-8.61459425927E+01	5.30332771488E+01	-3.15796562782E-01	1.31949843873E+02
1.13590000000E+10	-3.20130340449E-01	1.32361338688E+02	-8.69782068158E+01	4.44407704370E+01	-8.56353839460E+01	4.12432159571E+01	-3.13124637319E-01	1.31830951894E+02
