# Hz S DB R 50
! Planar, S50244, 24171007, 25.4.1/6
! Date: 15.10.2025 10:26:12
! Data: Format (Calibration Info)
! Freq	S11:dB/Ang(F2)	S21:dB/Ang(F2)	S12:dB/Ang(F2)	S22:dB/Ang(F2)
1.13000000000E+10	-3.22706618382E-01	1.44925769620E+02	-8.66799484600E+01	2.83147700676E+01	-8.90989848037E+01	7.42469892016E+01	-3.15160512922E-01	1.43118689507E+02
1.13005000000E+10	-3.21854027679E-01	1.44836976776E+02	-8.68338214286E+01	6.42438967062E+01	-8.88875451374E+01	5.11074826850E+01	-3.16083711002E-01	1.43013880089E+02
1.13010000000E+10	-3.21393972555E-01	1.44738912016E+02	-8.86323317961E+01	6.04248470589E+01	-8.91050444200E+01	5.48870994970E+01	-3.14301854277E-01	1.42930868965E+02
1.13015000000E+10	-3.24198816820E-01	1.44650756126E+02	-8.76714561111E+01	2.26610632559E+01	-8.55047073726E+01	4.40908345898E+01	-3.15152037024E-01	1.42849373611E+02
1.13020000000E+10	-3.22728060750E-01	1.44546255313E+02	-8.67837222409E+01	4.65931810074E+01	-8.70404416486E+01	4.65163792418E+01	-3.14222060194E-01	1.42758125862E+02
1.13025000000E+10	-3.22347318750E-01	1.44442234483E+02	-8.60677457065E+01	4.28000616659E+01	-8.73653992934E+01	4.97259623668E+01	-3.15593256344E-01	1.42688895794E+02
1.13030000000E+10	-3.21126896083E-01	1.44367179146E+02	-9.00614805241E+01	5.83911276089E+01	-8.68063597857E+01	2.61365650803E+01	-3.13270616056E-01	1.42583965478E+02
1.13035000000E+10	-3.21653991590E-01	1.44256981244E+02	-8.74747201751E+01	4.41212875211E+01	-9.01768665045E+01	5.86198027496E+01	-3.13494552742E-01	1.42495068423E+02
1.13040000000E+10	-3.23252815483E-01	1.44168009715E+02	-9.32057566354E+01	7.43079348576E+01	-9.15596945175E+01	4.07892907402E+01	-3.16287223136E-01	1.42426178967E+02
1.13045000000E+10	-3.20997234473E-01	1.44053105892E+02	-8.55297234585E+01	3.94441068670E+01	-8.63876477221E+01	4.64473216346E+01	-3.12945067148E-01	1.42337938726E+02
1.13050000000E+10	-3.21688499432E-01	1.43979543646E+02	-8.71725764826E+01	3.46255332204E+01	-9.02244360544E+01	5.68114235672E+01	-3.17927147857E-01	1.42231350897E+02
1.13055000000E+10	-3.20940341532E-01	1.43871195277E+02	-8.70027200149E+01	6.94236101033E+01	-9.00116721309E+01	7.21179130057E+01	-3.13137364144E-01	1.42153985843E+02
1.13060000000E+10	-3.20945421736E-01	1.43779886467E+02	-8.78285439449E+01	5.70012566055E+01	-8.88820153785E+01	3.96045798409E+01	-3.13134633290E-01	1.42058369739E+02
1.13065000000E+10	-3.23806380362E-01	1.43693876110E+02	-9.35596375083E+01	3.55068735536E+01	-8.93972732147E+01	4.13093444274E+01	-3.14473429590E-01	1.41981270211E+02
1.13070000000E+10	-3.20507791953E-01	1.43592976652E+02	-8.64955836270E+01	5.35408029596E+01	-8.64625683951E+01	4.99196020497E+01	-3.13296595033E-01	1.41881668751E+02
1.13075000000E+10	-3.22413723724E-01	1.43494764317E+02	-8.63186793889E+01	5.65275978693E+01	-8.64386575378E+01	5.17417673524E+01	-3.13210854358E-01	1.41799221474E+02
1.13080000000E+10	-3.20862636665E-01	1.43408470155E+02	-8.71701926853E+01	5.57213630884E+01	-8.94398956645E+01	4.58380305981E+01	-3.11905665526E-01	1.41718983184E+02
1.13085000000E+10	-3.20957306706E-01	1.43301389136E+02	-8.72880033592E+01	6.03515110777E+01	-8.64633385795E+01	4.61662627076E+01	-3.16147422740E-01	1.41625908055E+02
1.13090000000E+10	-3.21037596633E-01	1.43198886114E+02	-8.74022857234E+01	4.94577358525E+01	-8.84970394136E+01	3.96900325340E+01	-3.14985669921E-01	1.41528088619E+02
1.13095000000E+10	-3.20347285221E-01	1.43107677372E+02	-8.66964035659E+01	4.31917400358E+01	-8.62936919496E+01	5.14615501028E+01	-3.14401436045E-01	1.41425688563E+02
1.13100000000E+10	-3.16993469420E-01	1.43000743889E+02	-8.42314544969E+01	5.81848301729E+01	-8.64146869740E+01	6.58108729624E+01	-3.10468802438E-01	1.41342780938E+02
1.13105000000E+10	-3.21191789017E-01	1.42913727354E+02	-8.84774692988E+01	5.18025356917E+01	-8.71792621611E+01	4.51153284187E+01	-3.15193521793E-01	1.41247316864E+02
1.13110000000E+10	-3.21503167716E-01	1.42811685640E+02	-9.05038696930E+01	5.53532582854E+01	-8.83698481188E+01	3.54054413606E+01	-3.14055970619E-01	1.41154086765E+02
1.13115000000E+10	-3.21229414331E-01	1.42722912838E+02	-8.86896372544E+01	4.89360653359E+01	-8.83275954646E+01	3.73744162944E+01	-3.13717582944E-01	1.41089864260E+02
1.13120000000E+10	-3.20384146622E-01	1.42617635345E+02	-8.76178410311E+01	5.69775566119E+01	-8.60189864686E+01	6.63224834016E+01	-3.14304637012E-01	1.40974877864E+02
1.13125000000E+10	-3.20751689443E-01	1.42543837039E+02	-8.95818817518E+01	6.68851475573E+01	-8.97014443223E+01	7.12618419445E+01	-3.11448323194E-01	1.40902899008E+02
1.13130000000E+10	-3.19444004637E-01	1.42429767491E+02	-8.86818568733E+01	5.57281229749E+01	-8.54724404797E+01	5.21759646538E+01	-3.14146627521E-01	1.40793648958E+02
1.13135000000E+10	-3.21850345096E-01	1.42329935592E+02	-8.95507970089E+01	5.42730561726E+01	-8.69087243368E+01	3.59829176951E+01	-3.10476764995E-01	1.40720491599E+02
1.13140000000E+10	-3.21823137083E-01	1.42222125638E+02	-8.79981891610E+01	4.07203610777E+01	-8.69888675955E+01	4.35038916124E+01	-3.14644864030E-01	1.40632960588E+02
1.13145000000E+10	-3.20684553620E-01	1.42121469569E+02	-8.99104473060E+01	4.34752286983E+01	-8.92534342050E+01	3.96683744493E+01	-3.14109801509E-01	1.40539417330E+02
1.13150000000E+10	-3.20431478598E-01	1.42030995303E+02	-8.80727896719E+01	4.81181000410E+01	-8.67420964533E+01	5.24702921033E+01	-3.10921131063E-01	1.40435316562E+02
1.13155000000E+10	-3.19338415902E-01	1.41941088564E+02	-9.00441685563E+01	4.63912020568E+01	-8.87446608877E+01	4.55768869462E+01	-3.14089128633E-01	1.40350995531E+02
1.13160000000E+10	-3.20604479654E-01	1.41832987198E+02	-8.62147360792E+01	5.00382714392E+01	-8.81559687316E+01	5.32775357603E+01	-3.13599712773E-01	1.40271147727E+02
1.13165000000E+10	-3.19827669334E-01	1.41738092248E+02	-8.81667100312E+01	3.71276089171E+01	-8.71946933179E+01	5.36906562759E+01	-3.16129411823E-01	1.40179578318E+02
1.13170000000E+10	-3.19342495417E-01	1.41638044277E+02	-8.72021802017E+01	3.63462430803E+01	-8.82470681770E+01	4.20634498585E+01	-3.13396335219E-01	1.40086124576E+02
1.13175000000E+10	-3.20726527912E-01	1.41535027488E+02	-8.80556841397E+01	4.66116514388E+01	-8.53980262030E+01	4.55427824412E+01	-3.15410033995E-01	1.39984388964E+02
1.13180000000E+10	-3.19343909158E-01	1.41423302098E+02	-8.72327645077E+01	3.37396306399E+01	-8.73515245071E+01	6.36134611791E+01	-3.15046009762E-01	1.39881815780E+02
1.13185000000E+10	-3.19810384605E-01	1.41332906900E+02	-8.97269225216E+01	4.85574621494E+01	-8.66643660779E+01	4.88104536549E+01	-3.13622650647E-01	1.39803110145E+02
1.13190000000E+10	-3.18091990685E-01	1.41218011678E+02	-8.52306829707E+01	5.46093518586E+01	-8.63712614151E+01	3.48861855145E+01	-3.09764158032E-01	1.39705256598E+02
1.13195000000E+10	-3.20778634307E-01	1.41133111578E+02	-8.84823561101E+01	3.64082024158E+01	-8.62199329147E+01	5.66434500779E+01	-3.12119643664E-01	1.39611489193E+02
1.13200000000E+10	-3.17896626330E-01	1.41032771630E+02	-8.92398754258E+01	4.62494001778E+01	-8.67095277729E+01	4.11162323637E+01	-3.13822369694E-01	1.39526074513E+02
1.13205000000E+10	-3.18795610477E-01	1.40933916449E+02	-8.69307432176E+01	3.69723039047E+01	-8.85008833867E+01	4.62235531230E+01	-3.13102768890E-01	1.39431014621E+02
1.13210000000E+10	-3.19543901954E-01	1.40824931194E+02	-8.72667202900E+01	3.93226746963E+01	-8.72798765725E+01	4.30672178024E+01	-3.12424605302E-01	1.39338036207E+02
1.13215000000E+10	-3.18078151115E-01	1.40732169747E+02	-8.81324371391E+01	4.95294020038E+01	-8.72715745364E+01	6.63665224086E+01	-3.13431295537E-01	1.39241189519E+02
1.13220000000E+10	-3.18825150318E-01	1.40620248474E+02	-8.66598482675E+01	5.58064866772E+01	-8.73599361127E+01	6.54523807393E+01	-3.11100164817E-01	1.39164640216E+02
1.13225000000E+10	-3.15637821717E-01	1.40534592968E+02	-8.87839510680E+01	4.48724166339E+01	-8.59269948398E+01	5.46318545178E+01	-3.13732191458E-01	1.39054898579E+02
1.13230000000E+10	-3.18860708330E-01	1.40437025102E+02	-8.75180566993E+01	4.94747066876E+01	-8.57402424917E+01	4.39493059618E+01	-3.12343674212E-01	1.38965871513E+02
1.13235000000E+10	-3.18495571070E-01	1.40324925945E+02	-8.85360907405E+01	4.91366274379E+01	-8.51500137363E+01	4.93807524983E+01	-3.11735607593E-01	1.38878615939E+02
1.13240000000E+10	-3.17696794511E-01	1.40214528086E+02	-8.64204764147E+01	5.03946675824E+01	-8.70566841608E+01	4.51408972877E+01	-3.13666711064E-01	1.38800857360E+02
1.13245000000E+10	-3.19309686292E-01	1.40111522063E+02	-8.69572957169E+01	4.17991318119E+01	-8.85829660713E+01	5.75915564387E+01	-3.12852613196E-01	1.38685618698E+02
1.13250000000E+10	-3.18105232281E-01	1.40032274023E+02	-8.77514728849E+01	6.45378770967E+01	-8.57588214049E+01	4.03866054421E+01	-3.13067099859E-01	1.38605958932E+02
1.13255000000E+10	-3.16579933356E-01	1.39920662302E+02	-8.75561768276E+01	3.71073955069E+01	-8.67540276229E+01	4.85844960552E+01	-3.12245058598E-01	1.38505298384E+02
1.13260000000E+10	-3.18291728979E-01	1.39803175004E+02	-8.60658487719E+01	5.01122101083E+01	-8.68413372918E+01	4.17336408874E+01	-3.11153786651E-01	1.38391729243E+02
1.13265000000E+10	-3.18163955249E-01	1.39690604044E+02	-8.59210354061E+01	4.89178501831E+01	-8.69532259929E+01	4.58772563383E+01	-3.12048528162E-01	1.38322219390E+02
1.13270000000E+10	-3.19011656713E-01	1.39604729085E+02	-8.74659495279E+01	3.87776471360E+01	-8.80607650364E+01	3.39267454515E+01	-3.13382257444E-01	1.38224757717E+02
1.13275000000E+10	-3.18460033463E-01	1.39509187414E+02	-8.65210328511E+01	5.21323561076E+01	-8.76976215995E+01	4.08518249663E+01	-3.12416637257E-01	1.38133201227E+02
1.13280000000E+10	-3.17680770992E-01	1.39386550670E+02	-8.63526269129E+01	5.46783297315E+01	-8.79003612187E+01	4.44181087258E+01	-3.11715073738E-01	1.38029322485E+02
1.13285000000E+10	-3.16867186532E-01	1.39285066038E+02	-8.81443199798E+01	5.88115920625E+01	-8.65130466295E+01	4.93497517012E+01	-3.11812545943E-01	1.37937855287E+02
1.13290000000E+10	-3.17631285262E-01	1.39180584845E+02	-8.67842197551E+01	4.59628802505E+01	-8.82108970966E+01	4.14417366706E+01	-3.12248816295E-01	1.37850356138E+02
1.13295000000E+10	-3.18187779961E-01	1.39071442835E+02	-8.76054854439E+01	5.65507205233E+01	-8.69485800265E+01	3.86691224229E+01	-3.13861007395E-01	1.37748558862E+02
1.13300000000E+10	-3.18522126477E-01	1.38970414634E+02	-8.88259562933E+01	3.70309954111E+01	-8.98233655756E+01	4.51506706447E+01	-3.12949226682E-01	1.37647963443E+02
1.13305000000E+10	-3.17713399683E-01	1.38876788630E+02	-8.78047258907E+01	6.49060878929E+01	-8.54440868621E+01	5.66852750352E+01	-3.10825831302E-01	1.37552667367E+02
1.13310000000E+10	-3.19527675440E-01	1.38766143008E+02	-8.81322235570E+01	3.24270078580E+01	-8.61703371864E+01	3.52256264024E+01	-3.12251401268E-01	1.37464249815E+02
1.13315000000E+10	-3.19828636090E-01	1.38673916543E+02	-8.61255200143E+01	4.38204738665E+01	-8.61783892556E+01	4.79232882295E+01	-3.13418588946E-01	1.37354774054E+02
1.13320000000E+10	-3.18130591431E-01	1.38558647494E+02	-8.68480342493E+01	4.39960170880E+01	-8.75849886625E+01	5.56294143944E+01	-3.14375142684E-01	1.37276132158E+02
1.13325000000E+10	-3.18118494093E-01	1.38453990415E+02	-8.65002931417E+01	5.00563734480E+01	-8.60509028492E+01	4.71893641130E+01	-3.14620398866E-01	1.37178376158E+02
1.13330000000E+10	-3.16353501475E-01	1.38343673891E+02	-8.68039050388E+01	4.95507226760E+01	-8.81073188829E+01	5.10749125366E+01	-3.11909420154E-01	1.37093685568E+02
1.13335000000E+10	-3.18253935856E-01	1.38247452958E+02	-9.03355793906E+01	5.83916105098E+01	-8.67356777122E+01	4.49877924397E+01	-3.11628313859E-01	1.36979374634E+02
1.13340000000E+10	-3.17424391552E-01	1.38147576752E+02	-8.54670979313E+01	4.86327399837E+01	-8.66290225749E+01	4.74596306606E+01	-3.14345267918E-01	1.36908535341E+02
1.13345000000E+10	-3.16659807663E-01	1.38018360927E+02	-8.46176115375E+01	3.92468304271E+01	-8.59343362384E+01	3.81299922752E+01	-3.12639527301E-01	1.36789851459E+02
1.13350000000E+10	-3.15768478369E-01	1.37904282261E+02	-8.70926104633E+01	5.50365195489E+01	-8.56256789430E+01	4.57254104192E+01	-3.11842223523E-01	1.36707347276E+02
1.13355000000E+10	-3.20300041615E-01	1.37801297414E+02	-8.83651793278E+01	5.26219680333E+01	-8.63365493025E+01	3.22185098001E+01	-3.13918401315E-01	1.36615982297E+02
1.13360000000E+10	-3.18296061525E-01	1.37698311220E+02	-8.62574229920E+01	4.23805105739E+01	-8.64128085263E+01	4.93627783637E+01	-3.13160376953E-01	1.36525265519E+02
1.13365000000E+10	-3.20091241645E-01	1.37604571923E+02	-8.59231312324E+01	3.58774676547E+01	-8.54702184066E+01	4.63733843366E+01	-3.11303581318E-01	1.36409328145E+02
1.13370000000E+10	-3.20118864174E-01	1.37503410418E+02	-8.60101883733E+01	3.88624089870E+01	-8.67431849742E+01	5.39037795178E+01	-3.09741401704E-01	1.36325786122E+02
1.13375000000E+10	-3.20576732531E-01	1.37386238727E+02	-8.82364332082E+01	3.03021801729E+01	-8.79881781867E+01	4.75264114608E+01	-3.11293523946E-01	1.36225331215E+02
1.13380000000E+10	-3.19635481532E-01	1.37288127226E+02	-8.78472561445E+01	5.31165603004E+01	-8.81510427411E+01	4.14439377030E+01	-3.13408826518E-01	1.36131998790E+02
1.13385000000E+10	-3.20173884535E-01	1.37174955875E+02	-8.57174107541E+01	3.41040128543E+01	-8.52131414533E+01	3.39037448181E+01	-3.12115512717E-01	1.36044433511E+02
1.13390000000E+10	-3.17903545142E-01	1.37072238697E+02	-8.57291265853E+01	5.22852860996E+01	-8.54552384590E+01	4.38779622798E+01	-3.12913727683E-01	1.35921042344E+02
1.13395000000E+10	-3.18458169813E-01	1.36956739029E+02	-8.63223738141E+01	4.38363953474E+01	-8.64240018999E+01	6.40033595554E+01	-3.13550238702E-01	1.35840026548E+02
1.13400000000E+10	-3.20576799578E-01	1.36833944078E+02	-8.62114858936E+01	3.05980509981E+01	-8.61608616902E+01	4.80002547199E+01	-3.13185546940E-01	1.35736428490E+02
1.13405000000E+10	-3.20413355276E-01	1.36733563939E+02	-8.55248056425E+01	3.09520935091E+01	-8.57471153272E+01	5.62611095341E+01	-3.15379531609E-01	1.35637393374E+02
1.13410000000E+10	-3.20562077988E-01	1.36627217015E+02	-8.69779834496E+01	4.52265319209E+01	-8.65538658421E+01	4.12929553156E+01	-3.15568658876E-01	1.35536369224E+02
1.13415000000E+10	-3.17106044898E-01	1.36516471188E+02	-8.68869993056E+01	4.77306456466E+01	-8.63241135291E+01	4.62252814131E+01	-3.13408900634E-01	1.35446254709E+02
1.13420000000E+10	-3.18408613698E-01	1.36405072113E+02	-8.79893261867E+01	4.24625202326E+01	-8.69815411946E+01	4.04129047998E+01	-3.11790045752E-01	1.35330738806E+02
1.13425000000E+10	-3.22196394799E-01	1.36293912348E+02	-8.43667317092E+01	2.81255806132E+01	-8.79634388831E+01	5.45781812547E+01	-3.13087182163E-01	1.35243756797E+02
1.13430000000E+10	-3.16959692971E-01	1.36178610690E+02	-8.76305177762E+01	4.61731670028E+01	-8.66444031310E+01	3.32124698450E+01	-3.12614488747E-01	1.35140874363E+02
1.13435000000E+10	-3.21450708083E-01	1.36073195523E+02	-8.42825288370E+01	3.08421796544E+01	-8.54710809376E+01	4.06096589474E+01	-3.11962964170E-01	1.35051251153E+02
1.13440000000E+10	-3.19731451897E-01	1.35968185886E+02	-8.60980046522E+01	3.91785543464E+01	-8.74878901360E+01	4.55373678731E+01	-3.14996160836E-01	1.34944394472E+02
1.13445000000E+10	-3.18609011646E-01	1.35865048453E+02	-8.66151244981E+01	4.31455190787E+01	-8.54440392505E+01	4.13677445327E+01	-3.14259851074E-01	1.34851109639E+02
1.13450000000E+10	-3.17375292515E-01	1.35742786296E+02	-8.68095557068E+01	2.91058891968E+01	-8.64868272106E+01	5.35056354066E+01	-3.13692868755E-01	1.34757268177E+02
1.13455000000E+10	-3.18095114452E-01	1.35636805752E+02	-8.68601194032E+01	4.48490631008E+01	-8.55943612299E+01	4.00186224759E+01	-3.12559867099E-01	1.34646027369E+02
1.13460000000E+10	-3.20624333563E-01	1.35523550073E+02	-8.54182247229E+01	5.36118743624E+01	-8.64765667298E+01	4.78494567823E+01	-3.12997835265E-01	1.34550212081E+02
1.13465000000E+10	-3.19252706518E-01	1.35402000061E+02	-8.66276215381E+01	4.38919467727E+01	-8.64450117496E+01	3.52812086691E+01	-3.16106874211E-01	1.34428293431E+02
1.13470000000E+10	-3.18360541837E-01	1.35275436256E+02	-8.58089487543E+01	5.16529424265E+01	-8.85917862426E+01	3.77129583235E+01	-3.15074435151E-01	1.34339677204E+02
1.13475000000E+10	-3.19175511588E-01	1.35186825066E+02	-8.54378670997E+01	4.29344430312E+01	-8.61518630762E+01	3.08018399171E+01	-3.14860290963E-01	1.34237442038E+02
1.13480000000E+10	-3.19582338633E-01	1.35085792241E+02	-8.65164803066E+01	4.07722313382E+01	-8.69285021440E+01	4.71557416463E+01	-3.15043986133E-01	1.34128369650E+02
1.13485000000E+10	-3.19375116359E-01	1.34956887205E+02	-8.44559565696E+01	4.24675314456E+01	-8.63217156530E+01	5.20112267372E+01	-3.14768119464E-01	1.34051174246E+02
1.13490000000E+10	-3.16352444254E-01	1.34852004321E+02	-8.92678579270E+01	5.19536022448E+01	-8.58954654469E+01	4.98461350316E+01	-3.14771244775E-01	1.33927369291E+02
1.13495000000E+10	-3.18497526303E-01	1.34721926546E+02	-8.56633744508E+01	4.51927704908E+01	-8.72230887514E+01	2.85972889873E+01	-3.15759050778E-01	1.33829029158E+02
1.13500000000E+10	-3.21783161062E-01	1.34621953609E+02	-8.51879019874E+01	3.96688147335E+01	-8.74692912365E+01	4.17344577710E+01	-3.17386049119E-01	1.33717041820E+02
1.13505000000E+10	-3.20566778326E-01	1.34518736332E+02	-8.64033892576E+01	3.31045447670E+01	-8.64195816163E+01	4.28175512647E+01	-3.15907215430E-01	1.33627560265E+02
1.13510000000E+10	-3.20203778617E-01	1.34402028460E+02	-8.70793245054E+01	4.68932410243E+01	-8.54748473772E+01	4.49427463602E+01	-3.15365345250E-01	1.33510739477E+02
1.13515000000E+10	-3.20231795160E-01	1.34267401060E+02	-8.66930312197E+01	4.62969617812E+01	-8.57523714448E+01	5.57079042646E+01	-3.17309671224E-01	1.33407112430E+02
1.13520000000E+10	-3.20035782925E-01	1.34169850602E+02	-8.53765037881E+01	2.62858356287E+01	-8.56939289664E+01	5.11796653774E+01	-3.15579359913E-01	1.33314317942E+02
1.13525000000E+10	-3.18048373739E-01	1.34048425133E+02	-8.59169085514E+01	4.51737224035E+01	-8.60629657184E+01	3.95562354047E+01	-3.15088485258E-01	1.33209352140E+02
1.13530000000E+10	-3.19777924649E-01	1.33934317538E+02	-8.57396204238E+01	4.74105044904E+01	-8.55922543906E+01	3.57467008569E+01	-3.13988731484E-01	1.33110952001E+02
1.13535000000E+10	-3.20883533730E-01	1.33815546061E+02	-8.41739521699E+01	3.41145918324E+01	-8.54301854753E+01	3.66957928262E+01	-3.15769742739E-01	1.33020290026E+02
1.13540000000E+10	-3.20642190574E-01	1.33695555677E+02	-8.52069113831E+01	4.42084426868E+01	-8.65220876231E+01	4.45067712953E+01	-3.18229492373E-01	1.32893834622E+02
1.13545000000E+10	-3.19180556736E-01	1.33586248676E+02	-8.79322014090E+01	4.27123321480E+01	-8.47328571341E+01	4.06949426161E+01	-3.17082076470E-01	1.32801060758E+02
1.13550000000E+10	-3.20618408931E-01	1.33468075146E+02	-8.56521386035E+01	4.48532352056E+01	-8.56875558790E+01	3.78167522882E+01	-3.15410915713E-01	1.32683182809E+02
1.13555000000E+10	-3.19072809252E-01	1.33346508328E+02	-8.57220166612E+01	4.13205535205E+01	-8.68321694096E+01	4.32696669290E+01	-3.14678082136E-01	1.32597657864E+02
1.13560000000E+10	-3.19719730074E-01	1.33230816417E+02	-8.61370005740E+01	5.17985693815E+01	-8.59625083732E+01	4.27410763756E+01	-3.18646979987E-01	1.32475863841E+02
1.13565000000E+10	-3.22009194500E-01	1.33127564095E+02	-8.63604643975E+01	4.53306416926E+01	-8.62334074045E+01	3.65784473858E+01	-3.15775308897E-01	1.32362056708E+02
1.13570000000E+10	-3.20276432335E-01	1.32996230155E+02	-8.70431647632E+01	3.86553740017E+01	-8.88414459824E+01	3.45495851873E+01	-3.20398274866E-01	1.32275245330E+02
1.13575000000E+10	-3.21337716230E-01	1.32888821218E+02	-8.51894683188E+01	3.81359621058E+01	-8.46419359757E+01	3.48071683699E+01	-3.16070589961E-01	1.32165902390E+02
1.13580000000E+10	-3.20269700528E-01	1.32758414804E+02	-8.60772169724E+01	3.28474002965E+01	-8.50258689433E+01	3.02247624899E+01	-3.16147306098E-01	1.32048864717E+02
1.13585000000E+10	-3.21746886726E-01	1.32641350370E+02	-8.59409836407E+01	3.73689476865E+01	-8.59486156892E+01	4.94572140374E+01	-3.17694454018E-01	1.31959621130E+02
1.13590000000E+10	-3.21067754458E-01	1.32529105916E+02	-8.45561158535E+01	4.09860404235E+01	-8.61076348294E+01	3.99835607128E+01	-3.15793012211E-01	1.31839611861E+02
