# Hz S DB R 50
! Planar, S50244, 24171007, 25.4.1/6
! Date: 15.10.2025 10:27:00
! Data: Format (Calibration Info)
! Freq	S11:dB/Ang(F2)	S21:dB/Ang(F2)	S12:dB/Ang(F2)	S22:dB/Ang(F2)
1.13000000000E+10	-3.22076041916E-01	1.45049573964E+02	-8.75791399905E+01	5.41103164237E+01	-8.95778210793E+01	4.69662980375E+01	-3.13790991959E-01	1.43257207853E+02
1.13005000000E+10	-3.21482379331E-01	1.44952210517E+02	-8.63776757276E+01	4.49957744353E+01	-8.76607870973E+01	4.43559935638E+01	-3.15002553860E-01	1.43161868213E+02
1.13010000000E+10	-3.20830153929E-01	1.44855749982E+02	-8.64598905604E+01	5.79566913362E+01	-9.01271456885E+01	4.48871754801E+01	-3.13153766972E-01	1.43073609284E+02
1.13015000000E+10	-3.22048176592E-01	1.44766065438E+02	-8.53424838549E+01	5.74790147680E+01	-8.58354088445E+01	4.22745172033E+01	-3.13104330855E-01	1.42995736376E+02
1.13020000000E+10	-3.21914553540E-01	1.44658206700E+02	-8.64070837710E+01	4.03026157391E+01	-8.77338827990E+01	3.24346469042E+01	-3.14648526795E-01	1.42910982422E+02
1.13025000000E+10	-3.20515583233E-01	1.44562591662E+02	-8.69323249686E+01	5.73094490021E+01	-8.81039234754E+01	4.03818033628E+01	-3.14668794913E-01	1.42842703919E+02
1.13030000000E+10	-3.20569656760E-01	1.44481185579E+02	-9.02422353403E+01	4.31413907447E+01	-8.76478596107E+01	5.60681824332E+01	-3.10187748020E-01	1.42730471697E+02
1.13035000000E+10	-3.19821686670E-01	1.44377310042E+02	-9.11962971535E+01	5.85539631777E+01	-8.81059493824E+01	5.65678537693E+01	-3.10779696318E-01	1.42653276663E+02
1.13040000000E+10	-3.21641718419E-01	1.44273219742E+02	-8.79797448787E+01	4.49586210079E+01	-8.81095108424E+01	4.35682013834E+01	-3.13116124401E-01	1.42568006614E+02
1.13045000000E+10	-3.20438766933E-01	1.44179559305E+02	-8.81553307717E+01	5.97897264803E+01	-8.82187628827E+01	5.80199247496E+01	-3.11520042258E-01	1.42493474570E+02
1.13050000000E+10	-3.18762866796E-01	1.44093399221E+02	-8.61037949738E+01	5.60920861056E+01	-8.66007027082E+01	4.86210041986E+01	-3.15655844099E-01	1.42371349351E+02
1.13055000000E+10	-3.21320088689E-01	1.43995177481E+02	-9.11358130574E+01	4.81714899985E+01	-8.62414279633E+01	3.79101001264E+01	-3.12430217582E-01	1.42287055126E+02
1.13060000000E+10	-3.19595527127E-01	1.43885243133E+02	-8.50500266425E+01	2.92254544857E+01	-8.76602755362E+01	4.53618930944E+01	-3.12338468210E-01	1.42214835379E+02
1.13065000000E+10	-3.20584109685E-01	1.43817853372E+02	-8.90074403710E+01	3.80866248175E+01	-8.69459545184E+01	4.90945485108E+01	-3.12496518046E-01	1.42127235875E+02
1.13070000000E+10	-3.20390089589E-01	1.43723563209E+02	-9.23135324476E+01	4.86795009704E+01	-8.82530241541E+01	5.22222100582E+01	-3.11574141935E-01	1.42040299103E+02
1.13075000000E+10	-3.22149745566E-01	1.43621910384E+02	-8.79552215202E+01	4.50148618465E+01	-8.67258419267E+01	4.20121156493E+01	-3.11314288710E-01	1.41951062943E+02
1.13080000000E+10	-3.21941320025E-01	1.43534213960E+02	-8.64450283578E+01	5.28225401723E+01	-8.65943665320E+01	6.50137474035E+01	-3.07479909607E-01	1.41869409297E+02
1.13085000000E+10	-3.21365703888E-01	1.43431868278E+02	-8.81774448736E+01	4.16519127817E+01	-8.65473771654E+01	4.77799072587E+01	-3.13732514682E-01	1.41772752849E+02
1.13090000000E+10	-3.20351659823E-01	1.43340307028E+02	-9.47312497551E+01	2.73021345408E+01	-8.86041773906E+01	5.76163218602E+01	-3.11331497204E-01	1.41682451809E+02
1.13095000000E+10	-3.19938594919E-01	1.43237506597E+02	-8.83776974902E+01	3.62113254817E+01	-8.88118957271E+01	7.24437296720E+01	-3.10938406513E-01	1.41582379519E+02
1.13100000000E+10	-3.17621253654E-01	1.43135240640E+02	-8.78087149162E+01	6.18592720642E+01	-8.92356093777E+01	4.85144419882E+01	-3.07738339879E-01	1.41510147894E+02
1.13105000000E+10	-3.20192847713E-01	1.43029137393E+02	-8.74940933236E+01	4.57559524996E+01	-8.66044166047E+01	3.32234227415E+01	-3.12424641398E-01	1.41399464468E+02
1.13110000000E+10	-3.21009445981E-01	1.42951034865E+02	-9.06570800431E+01	4.70265040205E+01	-8.94824415135E+01	3.70578028814E+01	-3.11690000049E-01	1.41320093187E+02
1.13115000000E+10	-3.19854936435E-01	1.42854902767E+02	-8.80225998601E+01	3.91206920355E+01	-8.79665994943E+01	4.57254517808E+01	-3.09388884642E-01	1.41237351381E+02
1.13120000000E+10	-3.20731644155E-01	1.42753367790E+02	-8.83661113283E+01	2.59760963182E+01	-9.10305408878E+01	6.40840216482E+01	-3.12208276765E-01	1.41142345385E+02
1.13125000000E+10	-3.19050025378E-01	1.42671233267E+02	-8.90436251048E+01	6.54971767089E+01	-9.01062412279E+01	5.92914205864E+01	-3.09882959237E-01	1.41052672834E+02
1.13130000000E+10	-3.19893775554E-01	1.42561977104E+02	-8.90736618824E+01	4.86231049739E+01	-8.95218032645E+01	6.56436796683E+01	-3.11274431191E-01	1.40962340362E+02
1.13135000000E+10	-3.21482892207E-01	1.42469271510E+02	-8.81019776784E+01	3.42849205507E+01	-8.95085979705E+01	5.96300956164E+01	-3.07070196375E-01	1.40884765420E+02
1.13140000000E+10	-3.19185854006E-01	1.42342646689E+02	-8.62685242960E+01	4.95998819899E+01	-8.57888735924E+01	3.06193136615E+01	-3.12292007267E-01	1.40788793009E+02
1.13145000000E+10	-3.20818390567E-01	1.42256518513E+02	-8.76544027030E+01	4.29420922453E+01	-8.59135860404E+01	4.56330067394E+01	-3.10845728668E-01	1.40696231432E+02
1.13150000000E+10	-3.18955179341E-01	1.42162212797E+02	-8.85960667292E+01	3.59622534647E+01	-8.62637570764E+01	4.39035869254E+01	-3.07189658851E-01	1.40595500093E+02
1.13155000000E+10	-3.19479842178E-01	1.42070236205E+02	-8.98125715027E+01	2.70473018805E+01	-8.67473373319E+01	3.32796514636E+01	-3.11152690791E-01	1.40508116338E+02
1.13160000000E+10	-3.20060298393E-01	1.41968377467E+02	-8.53708817227E+01	3.40431322485E+01	-8.81097412882E+01	3.95917517741E+01	-3.10094183150E-01	1.40436232537E+02
1.13165000000E+10	-3.18228166651E-01	1.41858690483E+02	-8.72420170019E+01	5.86082316683E+01	-8.66525773041E+01	4.97136100909E+01	-3.13668467450E-01	1.40342522272E+02
1.13170000000E+10	-3.17441039155E-01	1.41762306812E+02	-8.71013937646E+01	4.13896401947E+01	-8.76366736295E+01	5.05754960915E+01	-3.09167347805E-01	1.40249167413E+02
1.13175000000E+10	-3.18796348507E-01	1.41669713689E+02	-8.93951355524E+01	4.13995592354E+01	-8.93350527753E+01	5.16382903324E+01	-3.13261677928E-01	1.40156634099E+02
1.13180000000E+10	-3.19087695322E-01	1.41570435956E+02	-9.00841904114E+01	5.46608476965E+01	-8.89430050191E+01	4.00827680974E+01	-3.11769076936E-01	1.40047447482E+02
1.13185000000E+10	-3.19812873630E-01	1.41459474664E+02	-8.77364095060E+01	4.71777716749E+01	-8.87219056062E+01	5.70315260818E+01	-3.10948739189E-01	1.39970406843E+02
1.13190000000E+10	-3.18257962205E-01	1.41363998648E+02	-8.78342366618E+01	3.16747905758E+01	-8.63471046758E+01	4.80980451931E+01	-3.06550572760E-01	1.39868769725E+02
1.13195000000E+10	-3.19335340694E-01	1.41271406682E+02	-8.72237945941E+01	5.57156493001E+01	-9.00243958360E+01	4.85145505105E+01	-3.09685888549E-01	1.39784464303E+02
1.13200000000E+10	-3.18759999474E-01	1.41164994307E+02	-8.63328261029E+01	3.82616962653E+01	-8.83430903417E+01	4.87159626502E+01	-3.11118613131E-01	1.39698519810E+02
1.13205000000E+10	-3.18359780985E-01	1.41069241511E+02	-8.85120302103E+01	4.23524537933E+01	-8.51854417591E+01	4.48186393915E+01	-3.10117800749E-01	1.39602639934E+02
1.13210000000E+10	-3.19328782468E-01	1.40961414131E+02	-8.96345480692E+01	5.41848644666E+01	-8.92747652335E+01	4.53298931680E+01	-3.09588777858E-01	1.39519343274E+02
1.13215000000E+10	-3.18167813057E-01	1.40872121226E+02	-8.81559638535E+01	5.28319078187E+01	-8.70549751921E+01	4.18526256176E+01	-3.11957205185E-01	1.39416170320E+02
1.13220000000E+10	-3.17650279732E-01	1.40761302934E+02	-8.82290326992E+01	5.32214751652E+01	-9.01247618426E+01	5.63682403469E+01	-3.08820816578E-01	1.39346657656E+02
1.13225000000E+10	-3.16588892851E-01	1.40660054548E+02	-8.85621507406E+01	2.92460651510E+01	-8.71432132963E+01	4.42626178656E+01	-3.11396251511E-01	1.39233276002E+02
1.13230000000E+10	-3.18029435333E-01	1.40568938225E+02	-8.61646880408E+01	3.71596481544E+01	-8.67770819842E+01	5.27259967951E+01	-3.09836785253E-01	1.39147902149E+02
1.13235000000E+10	-3.18842677706E-01	1.40459636523E+02	-8.71723724398E+01	5.03058032223E+01	-8.77227704131E+01	3.96350079382E+01	-3.09129873410E-01	1.39062308070E+02
1.13240000000E+10	-3.17596966475E-01	1.40352430528E+02	-8.63197293992E+01	5.75574688223E+01	-8.62731794144E+01	5.65926298621E+01	-3.09794273649E-01	1.38982577252E+02
1.13245000000E+10	-3.19083860529E-01	1.40253248984E+02	-8.76682548983E+01	3.62754329142E+01	-8.77807056604E+01	4.88340222110E+01	-3.09771041409E-01	1.38871466559E+02
1.13250000000E+10	-3.19726700216E-01	1.40168614400E+02	-8.70106283945E+01	4.73283504164E+01	-8.66753359305E+01	4.24664291186E+01	-3.10027908903E-01	1.38786507494E+02
1.13255000000E+10	-3.15800057834E-01	1.40060508870E+02	-8.58909387013E+01	4.51774274261E+01	-8.95930048797E+01	3.80289399948E+01	-3.09119107248E-01	1.38691295715E+02
1.13260000000E+10	-3.19147265929E-01	1.39941070218E+02	-8.60794832031E+01	5.02421898774E+01	-8.65679177143E+01	4.11538682798E+01	-3.08365870464E-01	1.38577706397E+02
1.13265000000E+10	-3.18731795412E-01	1.39843202605E+02	-8.72412662164E+01	3.65570405641E+01	-8.77473459965E+01	5.38086396547E+01	-3.09210384287E-01	1.38504666376E+02
1.13270000000E+10	-3.18404399961E-01	1.39745689232E+02	-8.75739473190E+01	3.82265039811E+01	-8.90915231776E+01	3.86617341220E+01	-3.09910124716E-01	1.38410650395E+02
1.13275000000E+10	-3.17782475594E-01	1.39650906152E+02	-8.82611298815E+01	5.03747718013E+01	-8.80570106458E+01	3.60691371655E+01	-3.09257453197E-01	1.38316470823E+02
1.13280000000E+10	-3.19514891394E-01	1.39536983847E+02	-8.78498433479E+01	4.93717351067E+01	-8.69394673708E+01	3.91666522676E+01	-3.08526458108E-01	1.38217910984E+02
1.13285000000E+10	-3.17362383162E-01	1.39430039371E+02	-8.80079987056E+01	3.92311718948E+01	-8.82271699711E+01	4.44859161285E+01	-3.09135901009E-01	1.38125603894E+02
1.13290000000E+10	-3.16603254843E-01	1.39338219991E+02	-8.65281895939E+01	5.19056809967E+01	-8.88051461286E+01	4.14685658404E+01	-3.08910410291E-01	1.38036908306E+02
1.13295000000E+10	-3.16407129065E-01	1.39222339410E+02	-8.72232773221E+01	6.54308998318E+01	-8.81825491587E+01	5.17835547517E+01	-3.10795036982E-01	1.37935524376E+02
1.13300000000E+10	-3.18565736686E-01	1.39109239158E+02	-8.67613711237E+01	4.45648232754E+01	-9.05117462117E+01	3.68484237809E+01	-3.09651090294E-01	1.37838568186E+02
1.13305000000E+10	-3.19115043071E-01	1.39030289734E+02	-8.71678689836E+01	5.16627306153E+01	-8.95148644889E+01	4.53239397727E+01	-3.07939344229E-01	1.37741660922E+02
1.13310000000E+10	-3.18982607612E-01	1.38911911416E+02	-8.56118811681E+01	3.43458817612E+01	-8.75725820706E+01	3.57027329224E+01	-3.08752629440E-01	1.37656084493E+02
1.13315000000E+10	-3.19175738784E-01	1.38829150218E+02	-8.79991005327E+01	4.56490315281E+01	-8.96691908842E+01	6.37538833915E+01	-3.11044664395E-01	1.37553314785E+02
1.13320000000E+10	-3.17845878242E-01	1.38711210694E+02	-8.76452950733E+01	4.62125008742E+01	-8.66622276540E+01	4.75245028775E+01	-3.11663563710E-01	1.37468256877E+02
1.13325000000E+10	-3.16356570945E-01	1.38598061694E+02	-8.52376682303E+01	5.49864990793E+01	-8.76871007392E+01	4.53967348844E+01	-3.11920378448E-01	1.37374105027E+02
1.13330000000E+10	-3.16869332009E-01	1.38497939956E+02	-8.96717083010E+01	4.60361884104E+01	-8.79945131578E+01	5.14735328868E+01	-3.09199074748E-01	1.37287055839E+02
1.13335000000E+10	-3.17626569930E-01	1.38402394847E+02	-8.85725432540E+01	4.10398290827E+01	-8.57389304747E+01	4.10636432257E+01	-3.09125707599E-01	1.37171088743E+02
1.13340000000E+10	-3.17355872514E-01	1.38295582431E+02	-8.60613873430E+01	3.83912867237E+01	-8.80665895685E+01	3.88198122789E+01	-3.11142444256E-01	1.37105753093E+02
1.13345000000E+10	-3.14020169296E-01	1.38165031568E+02	-8.82269580443E+01	5.94219796973E+01	-8.84167893864E+01	4.84074769093E+01	-3.09564330627E-01	1.36990106354E+02
1.13350000000E+10	-3.16240382108E-01	1.38065524916E+02	-8.76762401982E+01	3.56952150254E+01	-8.80599228519E+01	4.20251975762E+01	-3.09371512849E-01	1.36906551711E+02
1.13355000000E+10	-3.18949653209E-01	1.37956703045E+02	-8.76735207454E+01	3.44888666082E+01	-8.82770715772E+01	4.21662769453E+01	-3.10519622974E-01	1.36806454529E+02
1.13360000000E+10	-3.17700513149E-01	1.37855977415E+02	-8.70828620487E+01	4.08294353106E+01	-8.82375085520E+01	3.00348818328E+01	-3.10754308010E-01	1.36714576203E+02
1.13365000000E+10	-3.17046707096E-01	1.37764718370E+02	-8.69098219326E+01	4.52842001906E+01	-8.65604704424E+01	2.55360329803E+01	-3.08460043313E-01	1.36595460501E+02
1.13370000000E+10	-3.16731247803E-01	1.37658158902E+02	-8.75954682969E+01	4.96709315302E+01	-8.68214714399E+01	3.59167685336E+01	-3.06522615312E-01	1.36516180525E+02
1.13375000000E+10	-3.18895361144E-01	1.37555366741E+02	-8.79667538961E+01	2.60548358626E+01	-8.65449729996E+01	2.85364127995E+01	-3.07791884986E-01	1.36419911987E+02
1.13380000000E+10	-3.18942472584E-01	1.37448503591E+02	-8.78169047036E+01	3.34374754873E+01	-8.72751964086E+01	3.25182779887E+01	-3.10238445680E-01	1.36329603734E+02
1.13385000000E+10	-3.17562950210E-01	1.37336726185E+02	-8.66350324252E+01	4.74974287473E+01	-8.81263591580E+01	5.35569901200E+01	-3.08812329596E-01	1.36240252108E+02
1.13390000000E+10	-3.17801040107E-01	1.37239678274E+02	-8.59893756629E+01	4.58846866488E+01	-8.58486968980E+01	3.28411064398E+01	-3.09943633365E-01	1.36118852970E+02
1.13395000000E+10	-3.17004576829E-01	1.37117365205E+02	-8.78080380345E+01	5.26094421928E+01	-8.87104901757E+01	6.64578086595E+01	-3.10525854602E-01	1.36037543395E+02
1.13400000000E+10	-3.19997540366E-01	1.37005386771E+02	-8.58461892412E+01	4.41096018207E+01	-8.68166228689E+01	5.35599620245E+01	-3.09049814967E-01	1.35933361431E+02
1.13405000000E+10	-3.18338816741E-01	1.36899520885E+02	-8.63135539078E+01	4.08712562964E+01	-8.87625906768E+01	4.59470622561E+01	-3.12362880275E-01	1.35834591488E+02
1.13410000000E+10	-3.19363876045E-01	1.36802219859E+02	-8.56431584479E+01	3.20258925550E+01	-8.64836903183E+01	3.94521823837E+01	-3.12317365522E-01	1.35740005160E+02
1.13415000000E+10	-3.17324716762E-01	1.36687068879E+02	-8.70046688404E+01	3.83059055062E+01	-8.63491752781E+01	4.36876766788E+01	-3.10217291656E-01	1.35641235334E+02
1.13420000000E+10	-3.16813431138E-01	1.36570085612E+02	-8.62782675680E+01	4.33279093174E+01	-8.66818673517E+01	5.22099970882E+01	-3.08913483958E-01	1.35535356664E+02
1.13425000000E+10	-3.20249345761E-01	1.36471225143E+02	-8.68128429146E+01	3.39726288810E+01	-8.63066701130E+01	3.28391023257E+01	-3.09326495299E-01	1.35452426506E+02
1.13430000000E+10	-3.16775077809E-01	1.36351174134E+02	-8.77110991267E+01	3.85017939723E+01	-8.66847032993E+01	4.36749609293E+01	-3.09665170762E-01	1.35345561649E+02
1.13435000000E+10	-3.19444462052E-01	1.36236118878E+02	-8.51664604954E+01	3.61060151819E+01	-8.51200583337E+01	4.44330590081E+01	-3.08106484000E-01	1.35253459262E+02
1.13440000000E+10	-3.21249121463E-01	1.36134644675E+02	-8.58376328474E+01	4.83311430963E+01	-8.68782284227E+01	3.53248259053E+01	-3.11483522279E-01	1.35150532301E+02
1.13445000000E+10	-3.17645053453E-01	1.36032171495E+02	-8.74340162586E+01	6.13142770508E+01	-8.58790308438E+01	4.37881842180E+01	-3.10998492634E-01	1.35056893163E+02
1.13450000000E+10	-3.16965556300E-01	1.35916505924E+02	-8.81878849202E+01	4.01579803809E+01	-8.81871099617E+01	3.11551292337E+01	-3.09598774752E-01	1.34959416621E+02
1.13455000000E+10	-3.19224720272E-01	1.35806677399E+02	-8.51097542696E+01	2.90057865460E+01	-8.62639752578E+01	4.31151990723E+01	-3.10045536932E-01	1.34857716735E+02
1.13460000000E+10	-3.20837649147E-01	1.35697597652E+02	-8.69465854576E+01	3.94904168944E+01	-8.86546050494E+01	5.24270059432E+01	-3.10170216361E-01	1.34756205283E+02
1.13465000000E+10	-3.19671550223E-01	1.35571981431E+02	-8.51016016314E+01	3.86256795313E+01	-8.51300429013E+01	3.34325708956E+01	-3.12368961702E-01	1.34642800656E+02
1.13470000000E+10	-3.19895489269E-01	1.35448665889E+02	-8.44002036547E+01	4.14748758154E+01	-8.83410310657E+01	5.84675226976E+01	-3.10663220644E-01	1.34556596834E+02
1.13475000000E+10	-3.20045137452E-01	1.35353135152E+02	-8.67013448805E+01	4.83578393176E+01	-8.76364210888E+01	3.66751171308E+01	-3.11142784841E-01	1.34458939638E+02
1.13480000000E+10	-3.21541373738E-01	1.35245832260E+02	-8.45772048803E+01	3.52195639568E+01	-8.69302095530E+01	4.11609660659E+01	-3.11458430771E-01	1.34356253595E+02
1.13485000000E+10	-3.17919128675E-01	1.35129217854E+02	-8.61024059822E+01	5.09308926780E+01	-8.57461797108E+01	3.67203807183E+01	-3.09958060406E-01	1.34261335523E+02
1.13490000000E+10	-3.18482662467E-01	1.35019526318E+02	-8.61755918331E+01	4.14027104220E+01	-8.55459952613E+01	4.35683583078E+01	-3.10910624356E-01	1.34148499698E+02
1.13495000000E+10	-3.17069444327E-01	1.34898583140E+02	-8.68156375773E+01	4.14863009234E+01	-8.51062444468E+01	2.42488722605E+01	-3.11266909738E-01	1.34055550798E+02
1.13500000000E+10	-3.20461699325E-01	1.34801618637E+02	-8.73784881796E+01	4.12562818057E+01	-8.84348576988E+01	3.22944143191E+01	-3.12265861261E-01	1.33940746951E+02
1.13505000000E+10	-3.21333223307E-01	1.34690472224E+02	-8.53998576665E+01	3.80159396375E+01	-8.66809508586E+01	3.41474594501E+01	-3.11652303789E-01	1.33853130401E+02
1.13510000000E+10	-3.20272127553E-01	1.34578061467E+02	-8.74672182755E+01	2.93897225448E+01	-8.67867233803E+01	5.06720920058E+01	-3.11022672390E-01	1.33741729528E+02
1.13515000000E+10	-3.21316187415E-01	1.34442469713E+02	-8.75147756305E+01	2.61882780068E+01	-8.77702372405E+01	2.55735312401E+01	-3.12226898170E-01	1.33631541681E+02
1.13520000000E+10	-3.21059462928E-01	1.34348089841E+02	-8.51915729729E+01	3.07320135524E+01	-8.68495852863E+01	4.86884546323E+01	-3.11631437272E-01	1.33543824449E+02
1.13525000000E+10	-3.18677979879E-01	1.34226551463E+02	-8.59814876449E+01	2.58924596063E+01	-8.74115031300E+01	3.98012941539E+01	-3.12908988901E-01	1.33434929034E+02
1.13530000000E+10	-3.21311644340E-01	1.34123845602E+02	-8.62652231268E+01	4.58477508718E+01	-8.71550656035E+01	3.48453174927E+01	-3.09739677663E-01	1.33341088441E+02
1.13535000000E+10	-3.20711743494E-01	1.34006745935E+02	-8.94957175795E+01	3.31987508143E+01	-8.61071297455E+01	4.62144015824E+01	-3.11066600355E-01	1.33255402562E+02
1.13540000000E+10	-3.20103791153E-01	1.33881288172E+02	-8.74173560214E+01	3.38150512318E+01	-8.57110435681E+01	2.68469145355E+01	-3.12592391582E-01	1.33124747750E+02
1.13545000000E+10	-3.19613502384E-01	1.33760827947E+02	-8.64742266868E+01	3.71915087388E+01	-8.64184497722E+01	4.27704067056E+01	-3.13116972397E-01	1.33040202044E+02
1.13550000000E+10	-3.20042975131E-01	1.33647130263E+02	-8.51341527006E+01	4.17466904904E+01	-8.48630397277E+01	2.90053934287E+01	-3.10702915559E-01	1.32922415774E+02
1.13555000000E+10	-3.19408394994E-01	1.33533197500E+02	-8.58302302430E+01	3.30878613403E+01	-8.64908373018E+01	4.23067600099E+01	-3.10205636737E-01	1.32836416155E+02
1.13560000000E+10	-3.18747204075E-01	1.33416850754E+02	-8.61917742906E+01	3.80219821805E+01	-8.64768220851E+01	4.27081747599E+01	-3.14158692743E-01	1.32713652200E+02
1.13565000000E+10	-3.21425529385E-01	1.33307602551E+02	-8.72848397695E+01	4.41630200721E+01	-8.60268891277E+01	4.48470876872E+01	-3.11919285873E-01	1.32609347931E+02
1.13570000000E+10	-3.20734856538E-01	1.33186397938E+02	-8.47933612693E+01	3.25477957186E+01	-8.69034408839E+01	3.38135105471E+01	-3.15032849661E-01	1.32521661988E+02
1.13575000000E+10	-3.22172497868E-01	1.33082714110E+02	-8.44854001501E+01	3.81600970846E+01	-8.55801022163E+01	3.78945022949E+01	-3.12092929159E-01	1.32412406050E+02
1.13580000000E+10	-3.19698748732E-01	1.32951737167E+02	-8.51137622497E+01	3.28782633740E+01	-8.77624302552E+01	2.40856248966E+01	-3.11610752575E-01	1.32303403893E+02
1.13585000000E+10	-3.22668759616E-01	1.32829143847E+02	-8.56358177794E+01	3.61338181148E+01	-8.57820782945E+01	4.31026836432E+01	-3.12311135701E-01	1.32208024701E+02
1.13590000000E+10	-3.20886600505E-01	1.32719880757E+02	-8.62136845888E+01	3.30287580782E+01	-8.66780802246E+01	3.27598006361E+01	-3.10494077065E-01	1.32090141577E+02
