# Hz S DB R 50
! Planar, S50244, 24171007, 25.4.1/6
! Date: 15.10.2025 10:08:51
! Data: Format (Calibration Info)
! Freq	S11:dB/Ang(F2)	S21:dB/Ang(F2)	S12:dB/Ang(F2)	S22:dB/Ang(F2)
1.13000000000E+10	-3.30329015284E-01	1.45405826939E+02	-9.00052311464E+01	8.16532594872E+01	-8.84742189791E+01	4.75354091810E+01	-3.15252502009E-01	1.43062892572E+02
1.13005000000E+10	-3.32125958149E-01	1.45316160256E+02	-8.82965939891E+01	3.53048375864E+01	-8.73495753595E+01	5.57358176618E+01	-3.16729715384E-01	1.42964424869E+02
1.13010000000E+10	-3.31761449064E-01	1.45218047732E+02	-8.79060124152E+01	4.87621750791E+01	-8.70647177327E+01	4.97764734346E+01	-3.14980103428E-01	1.42882162700E+02
1.13015000000E+10	-3.32400261704E-01	1.45137609336E+02	-9.27516968753E+01	8.62945486082E+01	-9.14883450685E+01	6.11495354741E+01	-3.16298464337E-01	1.42808983635E+02
1.13020000000E+10	-3.31421818522E-01	1.45023494790E+02	-8.75790613886E+01	5.48631973730E+01	-9.03012528350E+01	6.72849628303E+01	-3.15333114821E-01	1.42708798248E+02
1.13025000000E+10	-3.30492984215E-01	1.44938129306E+02	-8.90931298748E+01	6.81029385831E+01	-9.12103388244E+01	4.62372394040E+01	-3.15368096325E-01	1.42641146268E+02
1.13030000000E+10	-3.29886440318E-01	1.44843833477E+02	-8.67842299464E+01	6.07855414061E+01	-8.80255225255E+01	4.90659331410E+01	-3.12383090430E-01	1.42522888080E+02
1.13035000000E+10	-3.30067232801E-01	1.44733547265E+02	-8.80985521712E+01	4.71649607217E+01	-8.94870781544E+01	6.88634868486E+01	-3.12366998859E-01	1.42440928766E+02
1.13040000000E+10	-3.32223096980E-01	1.44647877555E+02	-8.96372889963E+01	5.92959267620E+01	-9.02856876798E+01	6.05658044519E+01	-3.15861758995E-01	1.42362014107E+02
1.13045000000E+10	-3.30232122529E-01	1.44541938086E+02	-8.63143289447E+01	4.28871061272E+01	-9.03703303623E+01	6.00638760040E+01	-3.13482735817E-01	1.42279279105E+02
1.13050000000E+10	-3.27751081960E-01	1.44470794080E+02	-8.74771686406E+01	5.28360956059E+01	-8.81769365245E+01	3.93976744213E+01	-3.18551159518E-01	1.42155803576E+02
1.13055000000E+10	-3.29256142018E-01	1.44371098678E+02	-8.93106867774E+01	6.19647959425E+01	-8.95955473545E+01	4.01074048971E+01	-3.13621777264E-01	1.42080926813E+02
1.13060000000E+10	-3.28469132443E-01	1.44259842723E+02	-8.67955948591E+01	5.62507955783E+01	-8.84674646376E+01	5.23543436441E+01	-3.12493056125E-01	1.41992004699E+02
1.13065000000E+10	-3.31102009246E-01	1.44179972051E+02	-8.73231482283E+01	5.17476794620E+01	-8.71070077072E+01	4.29691477774E+01	-3.13935412127E-01	1.41896711718E+02
1.13070000000E+10	-3.29426992867E-01	1.44090809606E+02	-9.08336500649E+01	5.67704187160E+01	-8.85032210223E+01	6.99608105346E+01	-3.12638991557E-01	1.41806532311E+02
1.13075000000E+10	-3.30620775840E-01	1.43990490490E+02	-8.77945088958E+01	6.16968162233E+01	-8.70294204630E+01	3.71958464339E+01	-3.13060422010E-01	1.41727450647E+02
1.13080000000E+10	-3.29432798361E-01	1.43915404834E+02	-9.10801385818E+01	6.74274970428E+01	-8.62882541282E+01	6.11076417369E+01	-3.10702567096E-01	1.41644284284E+02
1.13085000000E+10	-3.30311658407E-01	1.43793869408E+02	-9.10772106997E+01	2.83236794416E+01	-8.80669449518E+01	4.71395274953E+01	-3.15008604094E-01	1.41537023835E+02
1.13090000000E+10	-3.29057962243E-01	1.43694919450E+02	-8.68276789481E+01	5.06122629292E+01	-8.81102759449E+01	6.08376382058E+01	-3.12964121547E-01	1.41446345613E+02
1.13095000000E+10	-3.26225047228E-01	1.43608045688E+02	-8.84706767178E+01	5.51018752282E+01	-8.99832412911E+01	5.78984525047E+01	-3.14092710266E-01	1.41347111298E+02
1.13100000000E+10	-3.24798229808E-01	1.43514945983E+02	-8.74499748603E+01	7.12276331015E+01	-8.97135015402E+01	5.67817218948E+01	-3.09930382108E-01	1.41267213620E+02
1.13105000000E+10	-3.27705590908E-01	1.43407471275E+02	-8.78205158504E+01	5.97278587094E+01	-8.75473870053E+01	4.87254911366E+01	-3.14066812923E-01	1.41163797003E+02
1.13110000000E+10	-3.28090284382E-01	1.43312980640E+02	-8.80577178768E+01	6.95290788228E+01	-8.68575830790E+01	4.96118441849E+01	-3.12553790740E-01	1.41068183120E+02
1.13115000000E+10	-3.29802327657E-01	1.43228298687E+02	-9.07086684609E+01	4.07296952748E+01	-8.78298586237E+01	4.85079340998E+01	-3.12179240948E-01	1.40990610667E+02
1.13120000000E+10	-3.27896146722E-01	1.43118778586E+02	-8.88432108596E+01	5.91614091003E+01	-8.65311101346E+01	3.62344633294E+01	-3.14460971626E-01	1.40882447635E+02
1.13125000000E+10	-3.26975759710E-01	1.43039550438E+02	-8.64141365275E+01	5.27224223940E+01	-8.76305896263E+01	6.18782127861E+01	-3.10371054226E-01	1.40808026851E+02
1.13130000000E+10	-3.26820274254E-01	1.42936652693E+02	-8.94653384903E+01	4.31528551869E+01	-8.82368861590E+01	4.48027764322E+01	-3.14150634849E-01	1.40707168671E+02
1.13135000000E+10	-3.29371252461E-01	1.42837296615E+02	-8.68616567425E+01	2.73218094310E+01	-9.08605873740E+01	5.08056866942E+01	-3.09095554951E-01	1.40620703694E+02
1.13140000000E+10	-3.28303740731E-01	1.42724068928E+02	-8.85809060184E+01	3.89602411896E+01	-8.73503312947E+01	4.92818863188E+01	-3.12951346032E-01	1.40541645257E+02
1.13145000000E+10	-3.28403161338E-01	1.42639892666E+02	-8.91766112043E+01	3.43611604781E+01	-8.88573917579E+01	6.86551674128E+01	-3.10935323610E-01	1.40440677615E+02
1.13150000000E+10	-3.27421327096E-01	1.42532795748E+02	-8.67469213279E+01	4.20118558063E+01	-8.84828178276E+01	4.10074873206E+01	-3.07722543482E-01	1.40334726173E+02
1.13155000000E+10	-3.25298965130E-01	1.42439707273E+02	-8.70576848936E+01	4.55254926596E+01	-8.93232180465E+01	3.49478785987E+01	-3.12523226477E-01	1.40247975989E+02
1.13160000000E+10	-3.26757675124E-01	1.42348586917E+02	-8.70355222792E+01	6.39747446373E+01	-8.98404065642E+01	6.95618512079E+01	-3.10905761176E-01	1.40169158525E+02
1.13165000000E+10	-3.26886100818E-01	1.42240719740E+02	-8.65509288210E+01	5.26348200184E+01	-8.74066162506E+01	3.54375780221E+01	-3.15790876105E-01	1.40073170735E+02
1.13170000000E+10	-3.25329572080E-01	1.42159520815E+02	-8.67199123328E+01	5.58938634868E+01	-8.84959373027E+01	4.32351693811E+01	-3.11302737677E-01	1.39974978557E+02
1.13175000000E+10	-3.26090987881E-01	1.42047456113E+02	-8.80255616678E+01	4.52787268166E+01	-8.94389577274E+01	4.63745187372E+01	-3.13766967626E-01	1.39879181499E+02
1.13180000000E+10	-3.25427649404E-01	1.41947508976E+02	-8.76191954657E+01	4.95207614225E+01	-8.73013281954E+01	5.09597481762E+01	-3.12926652340E-01	1.39769734564E+02
1.13185000000E+10	-3.25720555188E-01	1.41841244215E+02	-8.87425263119E+01	5.80612648272E+01	-8.87256944456E+01	4.48312155958E+01	-3.12100611005E-01	1.39698979440E+02
1.13190000000E+10	-3.24433745471E-01	1.41762413318E+02	-8.91788110301E+01	4.08468473084E+01	-8.76881337607E+01	4.72613408066E+01	-3.07275399939E-01	1.39592743860E+02
1.13195000000E+10	-3.26672716527E-01	1.41656418347E+02	-8.75147869794E+01	4.47743291818E+01	-9.06460520438E+01	5.48036419796E+01	-3.10414791771E-01	1.39501821451E+02
1.13200000000E+10	-3.23767843667E-01	1.41547318714E+02	-8.60197096192E+01	4.89769827214E+01	-8.76359234319E+01	5.59877343380E+01	-3.11560282883E-01	1.39411672802E+02
1.13205000000E+10	-3.25825488571E-01	1.41463232010E+02	-9.02016412859E+01	4.94737257248E+01	-8.57605788632E+01	4.48457809027E+01	-3.10919737552E-01	1.39309093473E+02
1.13210000000E+10	-3.25196727191E-01	1.41356090510E+02	-8.91251077175E+01	5.42826572531E+01	-8.76748374986E+01	5.54091147614E+01	-3.10523483199E-01	1.39219689048E+02
1.13215000000E+10	-3.24936209252E-01	1.41270104043E+02	-8.99248728695E+01	6.33979266847E+01	-9.10979467444E+01	4.51060307052E+01	-3.11869093638E-01	1.39126810205E+02
1.13220000000E+10	-3.25209543676E-01	1.41159228022E+02	-8.66610654128E+01	5.38129655889E+01	-8.84117610441E+01	4.54229618443E+01	-3.09464685862E-01	1.39046533039E+02
1.13225000000E+10	-3.22504318723E-01	1.41057103157E+02	-8.71258003985E+01	5.16430907456E+01	-8.58830095517E+01	4.68456383195E+01	-3.11134745348E-01	1.38933222583E+02
1.13230000000E+10	-3.25408593237E-01	1.40964608205E+02	-8.71105097573E+01	3.77224522503E+01	-8.50924790625E+01	5.15343566076E+01	-3.09224952647E-01	1.38846540635E+02
1.13235000000E+10	-3.26161235134E-01	1.40854490295E+02	-8.75624345863E+01	4.70422790070E+01	-8.97120038183E+01	3.80464719468E+01	-3.09442810194E-01	1.38758049644E+02
1.13240000000E+10	-3.22568690862E-01	1.40752636367E+02	-8.78430216042E+01	3.88587544476E+01	-8.93594174580E+01	4.51925243610E+01	-3.10454046553E-01	1.38672700696E+02
1.13245000000E+10	-3.23430251497E-01	1.40661775367E+02	-8.89222097869E+01	6.35803647189E+01	-8.96108638254E+01	4.33043700888E+01	-3.10427792703E-01	1.38557031761E+02
1.13250000000E+10	-3.23617451506E-01	1.40566881547E+02	-8.76370782049E+01	5.54175637327E+01	-8.90197732813E+01	4.13397637806E+01	-3.09973379027E-01	1.38473233261E+02
1.13255000000E+10	-3.21846290597E-01	1.40458571231E+02	-8.59751818403E+01	5.33848761830E+01	-8.78100691455E+01	6.41695633481E+01	-3.09561551882E-01	1.38374188895E+02
1.13260000000E+10	-3.25348538908E-01	1.40349328632E+02	-8.76285728971E+01	4.45891316232E+01	-8.91431058228E+01	4.93736625673E+01	-3.07715701724E-01	1.38253785942E+02
1.13265000000E+10	-3.24246161946E-01	1.40251024236E+02	-8.92624828977E+01	3.57608840419E+01	-8.86482064122E+01	4.54632931999E+01	-3.09585945932E-01	1.38182554415E+02
1.13270000000E+10	-3.22847589517E-01	1.40139640362E+02	-8.68676471289E+01	5.51526359102E+01	-8.63376080652E+01	3.31290602772E+01	-3.10187541210E-01	1.38082251442E+02
1.13275000000E+10	-3.24718814874E-01	1.40052141253E+02	-8.61906823324E+01	4.74753831341E+01	-8.59357502087E+01	5.39501242641E+01	-3.09157803803E-01	1.37991180210E+02
1.13280000000E+10	-3.23082305401E-01	1.39941659429E+02	-8.86906301460E+01	6.24226876341E+01	-8.81643875131E+01	4.53570641976E+01	-3.08710396397E-01	1.37886080084E+02
1.13285000000E+10	-3.23326562151E-01	1.39842199135E+02	-8.72529345513E+01	3.04816176507E+01	-8.80676382422E+01	3.56316155053E+01	-3.09480005824E-01	1.37797115345E+02
1.13290000000E+10	-3.23392565010E-01	1.39738603068E+02	-8.70213346913E+01	3.42579401994E+01	-8.69535322527E+01	4.18428761291E+01	-3.09335779547E-01	1.37703302644E+02
1.13295000000E+10	-3.22224950930E-01	1.39635395850E+02	-8.80149254072E+01	4.65588466594E+01	-8.66079998204E+01	4.70181142899E+01	-3.10792874989E-01	1.37602681166E+02
1.13300000000E+10	-3.24345741376E-01	1.39532335965E+02	-8.84445477929E+01	3.92685151446E+01	-8.53245632447E+01	4.17949571533E+01	-3.10519725932E-01	1.37500940894E+02
1.13305000000E+10	-3.23836988827E-01	1.39442700912E+02	-9.10879997981E+01	3.46916536237E+01	-8.87641209656E+01	3.80319142063E+01	-3.08259776633E-01	1.37399938985E+02
1.13310000000E+10	-3.23732097048E-01	1.39323131729E+02	-8.91056178020E+01	5.44849470664E+01	-8.69938938282E+01	4.47082027061E+01	-3.09383648511E-01	1.37315475099E+02
1.13315000000E+10	-3.22161727972E-01	1.39232369915E+02	-8.76269695884E+01	4.98837025638E+01	-8.65399384962E+01	4.78531957077E+01	-3.10689109029E-01	1.37204999298E+02
1.13320000000E+10	-3.21828406815E-01	1.39125448737E+02	-8.95089906544E+01	4.73837601241E+01	-8.73111343772E+01	4.24701793372E+01	-3.11377501494E-01	1.37124921204E+02
1.13325000000E+10	-3.22080656155E-01	1.39016737076E+02	-8.59411877467E+01	4.40769756305E+01	-8.69645327950E+01	6.15676200047E+01	-3.11803130814E-01	1.37023069531E+02
1.13330000000E+10	-3.19946559393E-01	1.38918205107E+02	-8.94061893138E+01	6.91432420907E+01	-8.82412786114E+01	3.64412042182E+01	-3.09565482173E-01	1.36933367201E+02
1.13335000000E+10	-3.23457559271E-01	1.38820249083E+02	-8.74443857395E+01	4.32398631039E+01	-8.76482957829E+01	4.81629301399E+01	-3.08496084311E-01	1.36818557472E+02
1.13340000000E+10	-3.21516619635E-01	1.38722856457E+02	-8.76999763676E+01	5.02573917064E+01	-8.80717476563E+01	5.40595569041E+01	-3.11552286540E-01	1.36749794368E+02
1.13345000000E+10	-3.20788795229E-01	1.38595566345E+02	-8.91122255702E+01	3.56915852189E+01	-8.84087647044E+01	5.81572105996E+01	-3.09681739013E-01	1.36632745483E+02
1.13350000000E+10	-3.21772452889E-01	1.38484724999E+02	-8.69774006752E+01	4.25004853544E+01	-9.00230793779E+01	5.76407329113E+01	-3.09896591268E-01	1.36543970135E+02
1.13355000000E+10	-3.23560367181E-01	1.38381368100E+02	-8.68399406514E+01	4.97887685120E+01	-8.70764001750E+01	6.23680109587E+01	-3.11441333988E-01	1.36444614428E+02
1.13360000000E+10	-3.20736849130E-01	1.38278952382E+02	-8.77706500620E+01	4.75692149912E+01	-8.58636654078E+01	4.96537536350E+01	-3.11110561600E-01	1.36346056492E+02
1.13365000000E+10	-3.22008660659E-01	1.38181257085E+02	-8.76870008200E+01	4.56724395303E+01	-8.80939617952E+01	5.42630320671E+01	-3.08372686839E-01	1.36225009050E+02
1.13370000000E+10	-3.20804356236E-01	1.38091954968E+02	-9.04768987302E+01	4.94914835115E+01	-8.79530632062E+01	4.72394402762E+01	-3.06565476651E-01	1.36140759312E+02
1.13375000000E+10	-3.22414620379E-01	1.37979559556E+02	-8.75069099624E+01	5.10939980995E+01	-8.86142751394E+01	5.52104985962E+01	-3.08786556533E-01	1.36042270344E+02
1.13380000000E+10	-3.20825315664E-01	1.37868365444E+02	-8.76446928567E+01	5.78150174811E+01	-8.75980928011E+01	3.84133187973E+01	-3.10074711291E-01	1.35951379255E+02
1.13385000000E+10	-3.21601824789E-01	1.37774040884E+02	-8.64230769470E+01	4.36464016073E+01	-8.91043049950E+01	2.29161536616E+01	-3.09260207054E-01	1.35853152265E+02
1.13390000000E+10	-3.19452756264E-01	1.37657878160E+02	-8.63669644483E+01	5.30101543557E+01	-8.67564345804E+01	4.19814087804E+01	-3.09831945979E-01	1.35731258839E+02
1.13395000000E+10	-3.19790771027E-01	1.37558347022E+02	-8.69643081537E+01	5.21962038543E+01	-9.05661488890E+01	5.53318228416E+01	-3.10287088049E-01	1.35648519579E+02
1.13400000000E+10	-3.22071928703E-01	1.37434077754E+02	-8.67106396923E+01	4.93975891665E+01	-8.86210853947E+01	4.24603079736E+01	-3.09385541172E-01	1.35541752460E+02
1.13405000000E+10	-3.20796413156E-01	1.37338335478E+02	-8.78143300752E+01	4.24179255773E+01	-8.67638079021E+01	5.68914368933E+01	-3.12385666132E-01	1.35440841799E+02
1.13410000000E+10	-3.20108383619E-01	1.37241640881E+02	-8.82419628230E+01	4.06794366217E+01	-8.41938658149E+01	4.42190583400E+01	-3.11615274365E-01	1.35341451038E+02
1.13415000000E+10	-3.20110628180E-01	1.37120678634E+02	-8.66126782039E+01	4.44358351443E+01	-8.72652285121E+01	5.01641478120E+01	-3.10536367023E-01	1.35249757350E+02
1.13420000000E+10	-3.20977559371E-01	1.37016012070E+02	-8.66059237441E+01	4.18090049378E+01	-8.71455262918E+01	4.41609537549E+01	-3.10033883205E-01	1.35133240701E+02
1.13425000000E+10	-3.22957717706E-01	1.36907837235E+02	-8.69779136283E+01	5.18095420452E+01	-8.72728766486E+01	5.13515253929E+01	-3.09182144785E-01	1.35044101111E+02
1.13430000000E+10	-3.19579428882E-01	1.36800742481E+02	-8.80954255352E+01	4.17619446983E+01	-8.63272597737E+01	4.72780413864E+01	-3.09742903449E-01	1.34938441961E+02
1.13435000000E+10	-3.22125848030E-01	1.36686893361E+02	-8.73648422558E+01	3.84827321011E+01	-8.55220979247E+01	5.65401865597E+01	-3.08903963245E-01	1.34851371865E+02
1.13440000000E+10	-3.22172865915E-01	1.36586157549E+02	-8.73490210312E+01	3.69990615005E+01	-8.62964277044E+01	4.62647450066E+01	-3.11667192876E-01	1.34740465513E+02
1.13445000000E+10	-3.21169374309E-01	1.36485668943E+02	-8.67570819880E+01	4.30989249904E+01	-8.80528114088E+01	4.76069224339E+01	-3.11277412820E-01	1.34643647236E+02
1.13450000000E+10	-3.19964988140E-01	1.36364124242E+02	-8.76104562104E+01	2.91161170098E+01	-8.68553852511E+01	5.53237756127E+01	-3.10218823724E-01	1.34541180896E+02
1.13455000000E+10	-3.20985444199E-01	1.36259646209E+02	-8.58988176654E+01	4.96531868184E+01	-8.74178442977E+01	4.20574460023E+01	-3.10593965304E-01	1.34432452250E+02
1.13460000000E+10	-3.21793267949E-01	1.36157028879E+02	-8.91640410521E+01	5.36063331272E+01	-8.72980350699E+01	5.01514012980E+01	-3.10695061394E-01	1.34333138952E+02
1.13465000000E+10	-3.19713237315E-01	1.36040384770E+02	-8.85207037135E+01	3.52112927329E+01	-8.83545832735E+01	3.29287595583E+01	-3.13098686258E-01	1.34218155414E+02
1.13470000000E+10	-3.20010235178E-01	1.35910267516E+02	-8.64206525277E+01	4.72019661183E+01	-8.67955372085E+01	3.63504950671E+01	-3.11731148053E-01	1.34115618374E+02
1.13475000000E+10	-3.22792475160E-01	1.35817903997E+02	-8.54992928639E+01	4.79075598380E+01	-8.73949151281E+01	3.84750804914E+01	-3.11631792656E-01	1.34020222898E+02
1.13480000000E+10	-3.20906931979E-01	1.35723900234E+02	-8.99897163355E+01	4.89758742376E+01	-8.59007444493E+01	5.41432485862E+01	-3.11611927604E-01	1.33917755579E+02
1.13485000000E+10	-3.20171817741E-01	1.35598320911E+02	-8.67224028658E+01	4.50083953073E+01	-8.96918740596E+01	4.79127515110E+01	-3.11801689529E-01	1.33822046657E+02
1.13490000000E+10	-3.20231991504E-01	1.35490636262E+02	-8.75375100550E+01	5.64970679728E+01	-8.84584108068E+01	5.92443212643E+01	-3.12225852835E-01	1.33701882918E+02
1.13495000000E+10	-3.20450691557E-01	1.35373087145E+02	-8.64206038767E+01	4.54975758207E+01	-8.82518184806E+01	4.21589093131E+01	-3.12750474353E-01	1.33607639467E+02
1.13500000000E+10	-3.23047449158E-01	1.35269963811E+02	-8.58296989202E+01	5.71861442175E+01	-8.66618546291E+01	4.23366658457E+01	-3.12326620663E-01	1.33486247681E+02
1.13505000000E+10	-3.22785702646E-01	1.35169737626E+02	-8.72553939015E+01	4.63686754862E+01	-8.79441757698E+01	3.93750253305E+01	-3.13666375560E-01	1.33397572804E+02
1.13510000000E+10	-3.22796351533E-01	1.35046888565E+02	-8.66671958485E+01	5.29885690316E+01	-8.77498479800E+01	3.28622974507E+01	-3.13051271052E-01	1.33279861520E+02
1.13515000000E+10	-3.22071828107E-01	1.34936066771E+02	-8.80872201607E+01	3.01162863360E+01	-8.80704475507E+01	5.19784934773E+01	-3.14626572771E-01	1.33171938482E+02
1.13520000000E+10	-3.21921846973E-01	1.34838575746E+02	-8.89078448201E+01	1.91286914465E+01	-8.68699469019E+01	3.67645293686E+01	-3.12328943960E-01	1.33073219187E+02
1.13525000000E+10	-3.20577611344E-01	1.34712724148E+02	-8.57346010139E+01	4.19536638394E+01	-8.66623637787E+01	3.93914941221E+01	-3.12816249990E-01	1.32966704367E+02
1.13530000000E+10	-3.23083323328E-01	1.34606910049E+02	-8.77905085176E+01	4.66346747250E+01	-8.74776433175E+01	3.92540943504E+01	-3.11073655396E-01	1.32869921102E+02
1.13535000000E+10	-3.21757021120E-01	1.34490961592E+02	-8.70478447803E+01	5.73383493587E+01	-8.82599075765E+01	5.79453965771E+01	-3.13119173709E-01	1.32774667993E+02
1.13540000000E+10	-3.21911064667E-01	1.34376326560E+02	-8.92236098355E+01	3.32084571363E+01	-8.84446291826E+01	4.87292683307E+01	-3.15587181204E-01	1.32652935663E+02
1.13545000000E+10	-3.22288082214E-01	1.34258119999E+02	-8.80543620437E+01	4.14313334228E+01	-8.58252814578E+01	3.06033807834E+01	-3.14341749559E-01	1.32547745141E+02
1.13550000000E+10	-3.23625912151E-01	1.34148505398E+02	-8.60646641413E+01	4.68466001089E+01	-8.84117553693E+01	3.94371789595E+01	-3.12614521847E-01	1.32431283761E+02
1.13555000000E+10	-3.22083766441E-01	1.34029426314E+02	-8.62039652379E+01	4.60321293297E+01	-8.77765128897E+01	3.41451371818E+01	-3.10909477435E-01	1.32340669574E+02
1.13560000000E+10	-3.22376207739E-01	1.33919306924E+02	-8.55461894275E+01	3.07262371850E+01	-8.63647325539E+01	4.89467521055E+01	-3.15268443474E-01	1.32226811403E+02
1.13565000000E+10	-3.23551347336E-01	1.33806609543E+02	-8.72275125758E+01	5.14191590777E+01	-8.74552405487E+01	3.82849035707E+01	-3.13828012578E-01	1.32104209933E+02
1.13570000000E+10	-3.23870666100E-01	1.33694356156E+02	-8.46576261375E+01	4.02392301043E+01	-8.77566321158E+01	5.38987740008E+01	-3.16688722223E-01	1.32014258410E+02
1.13575000000E+10	-3.23251982457E-01	1.33577101914E+02	-8.51991987391E+01	4.41736532516E+01	-8.57883847866E+01	4.88869531069E+01	-3.13913013490E-01	1.31899903069E+02
1.13580000000E+10	-3.23085890932E-01	1.33452267359E+02	-8.60885781261E+01	4.21313284408E+01	-8.57807999257E+01	5.04175997010E+01	-3.12926141376E-01	1.31794033774E+02
1.13585000000E+10	-3.24678443289E-01	1.33349379817E+02	-8.62658966110E+01	3.41138156709E+01	-8.45999035843E+01	4.16558480069E+01	-3.12562567939E-01	1.31690255811E+02
1.13590000000E+10	-3.23666463819E-01	1.33227255842E+02	-8.55557329350E+01	4.73833709457E+01	-8.87258253447E+01	2.99609620823E+01	-3.12428126979E-01	1.31567696137E+02
