! Created with skrf (http://scikit-rf.org).
# Hz S RI R 50.0 
!freq ReS11 ImS11 ReS21 ImS21 ReS12 ImS12 ReS22 ImS22
11300000000.0 -0.79385707575 0.54628852549 2.2397080569e-05 2.1147403902e-05 2.6929628506e-05 3.2598915879e-05 -0.77474278636 0.57469074753
11300500000.0 -0.79296282992 0.54765562476 3.3496638247e-05 4.0393821833e-05 3.5833049263e-05 1.9860363364e-05 -0.77359054336 0.57588182158
11301000000.0 -0.79214015301 0.5489372001 2.9236310682e-05 2.7304336038e-05 3.3649963013e-05 1.9459632117e-05 -0.7730723209 0.57723779293
11301500000.0 -0.79115278581 0.55002895453 2.874232956e-05 2.4183583031e-05 2.554603488e-05 2.9048734278e-05 -0.77222352378 0.57830090022
11302000000.0 -0.79036603872 0.55163364071 2.2366836054e-05 3.0737020182e-05 3.7231436501e-05 2.2357459548e-05 -0.77154068435 0.57940510703
11302500000.0 -0.78940577692 0.55306501458 2.4447486047e-05 3.0574678406e-05 2.2615868223e-05 4.0050978078e-05 -0.77064604763 0.58052215462
11303000000.0 -0.78853550515 0.55431271137 3.3653786859e-05 2.8979656857e-05 3.4614168637e-05 3.0172214439e-05 -0.76982865801 0.58203300217
11303500000.0 -0.78754213504 0.55579266464 4.0055365405e-05 3.3296630781e-05 2.5236909999e-05 2.8589582825e-05 -0.76887689306 0.58325607028
11304000000.0 -0.78661517611 0.55699716744 1.695563696e-05 4.1625998281e-05 3.0089153282e-05 2.9470697487e-05 -0.76790464915 0.58396004513
11304500000.0 -0.7857419305 0.55850626151 3.5346760598e-05 1.9776987883e-05 3.2588984017e-05 2.7968315815e-05 -0.76708073057 0.58533651042
11305000000.0 -0.78495497879 0.55969382771 3.157726849e-05 2.6008769855e-05 2.6334484787e-05 3.5725620186e-05 -0.7656173362 0.58650400574
11305500000.0 -0.7838615862 0.56099087433 2.8036948285e-05 4.0383212786e-05 3.8069923238e-05 3.3136128574e-05 -0.76522913154 0.58790308375
11306000000.0 -0.78307711579 0.56247064626 2.3862543657e-05 2.5637691068e-05 2.941359592e-05 1.6924689347e-05 -0.76444545156 0.58902396506
11306500000.0 -0.78213087681 0.56361713979 2.4347117051e-05 3.828230935e-05 1.0601835241e-05 1.9842117726e-05 -0.76342452918 0.59008418128
11307000000.0 -0.78123872217 0.56486095912 3.6174713129e-05 3.0532490238e-05 3.4062119398e-05 3.3612024326e-05 -0.76268864244 0.59153721793
11307500000.0 -0.78022887466 0.56610094921 3.1543761439e-05 3.3283753928e-05 2.9236517416e-05 2.6603731043e-05 -0.76178229899 0.59260357691
11308000000.0 -0.77957773385 0.56738867147 2.999973727e-05 3.4672929761e-05 2.7142437684e-05 3.4876321326e-05 -0.76108008125 0.59392995934
11308500000.0 -0.77833116192 0.56887106324 2.9345644986e-05 3.1605589221e-05 1.9378796566e-05 1.7637360855e-05 -0.75968617342 0.59478825087
11309000000.0 -0.77749420054 0.57025809016 2.3123191534e-05 3.2748048634e-05 2.8539592849e-05 3.2208815109e-05 -0.75888414502 0.59620259158
11309500000.0 -0.7764821486 0.57161774218 2.9124309701e-05 2.3954545233e-05 2.8073740889e-05 3.1858758517e-05 -0.75789194918 0.59753614211
11310000000.0 -0.77568234468 0.57300869158 3.318127202e-05 3.1765535855e-05 3.0526444464e-05 2.9804339374e-05 -0.75730022736 0.5989192174
11310500000.0 -0.77442449252 0.57437984739 3.71399927e-05 3.2874375417e-05 3.1451413783e-05 3.2369858676e-05 -0.75594629854 0.60005187567
11311000000.0 -0.77342558061 0.57557274975 2.1123989461e-05 2.4176330966e-05 3.5703189122e-05 3.7558946319e-05 -0.75495017373 0.60116823289
11311500000.0 -0.7726131714 0.57667033032 2.7032467896e-05 2.2792730393e-05 2.099719353e-05 3.0295926821e-05 -0.75437805186 0.60229584921
11312000000.0 -0.77177117666 0.5782900214 2.2926514406e-05 2.1116083803e-05 2.987183138e-05 2.5162590155e-05 -0.75307506424 0.6034071147
11312500000.0 -0.7709064922 0.57939397045 2.8345655245e-05 2.2292731238e-05 2.8302287255e-05 3.8012022029e-05 -0.75239478323 0.60478896338
11313000000.0 -0.76985324461 0.58071702411 2.0057626459e-05 3.14277188e-05 2.4999669632e-05 4.5041592766e-05 -0.75139085239 0.60587190227
11313500000.0 -0.76873166504 0.58206901125 3.2871566613e-05 3.514384998e-05 2.8602218445e-05 3.9429827893e-05 -0.75076943629 0.60718431372
11314000000.0 -0.7677754575 0.58364279199 3.3607747513e-05 2.9670933097e-05 3.1807199986e-05 3.5045745444e-05 -0.7495972996 0.6079669237
11314500000.0 -0.76657606824 0.58486719122 3.5121696768e-05 3.2181121209e-05 3.2710619326e-05 2.8333188782e-05 -0.74861474711 0.60933113182
11315000000.0 -0.76563727619 0.58621726043 3.771371371e-05 2.8215095137e-05 2.6192147841e-05 3.3657849398e-05 -0.74780168459 0.61084249731
11315500000.0 -0.76492274616 0.58746466526 2.6479062653e-05 3.2398698163e-05 2.440984831e-05 3.081452138e-05 -0.74662795368 0.61177171582
11316000000.0 -0.7641098851 0.58858129551 1.2556731607e-05 1.611590244e-05 3.4598922573e-05 2.8720991422e-05 -0.74583889116 0.61285933856
11316500000.0 -0.76270376038 0.59010484261 3.1911356981e-05 3.7449580513e-05 3.6790743504e-05 2.9265806313e-05 -0.74458175686 0.61392864294
11317000000.0 -0.76196789445 0.59139573104 3.5466511729e-05 2.8193083326e-05 3.8676602495e-05 3.724764407e-05 -0.74389662242 0.61542954719
11317500000.0 -0.76086767564 0.59272363981 3.7298447634e-05 2.9773240707e-05 3.0983434386e-05 2.7303947317e-05 -0.74254498126 0.61639485112
11318000000.0 -0.75984933968 0.59409699836 2.1821716893e-05 3.1225282921e-05 3.5263097917e-05 3.7585333935e-05 -0.7414855427 0.61795603176
11318500000.0 -0.75875214269 0.59541249998 2.5580643855e-05 1.8061104554e-05 3.653640502e-05 2.8523312791e-05 -0.74066438575 0.61891628724
11319000000.0 -0.75781705582 0.59673196769 2.7292106721e-05 2.6824025872e-05 3.7613493417e-05 3.0674672703e-05 -0.74002304281 0.6205677309
11319500000.0 -0.75670208429 0.5980326452 2.8634668281e-05 2.5429347721e-05 2.9993312268e-05 3.460750447e-05 -0.73884836126 0.62153489578
11320000000.0 -0.75582068727 0.59957162086 2.8986178502e-05 3.0946136846e-05 3.4023927646e-05 3.3126642561e-05 -0.73773129794 0.62258403318
11320500000.0 -0.75474489008 0.60072949279 2.2538584716e-05 2.8253558566e-05 2.9546321528e-05 3.5641830587e-05 -0.73682731215 0.62390486072
11321000000.0 -0.75358826877 0.60213485181 3.1429668582e-05 3.340917807e-05 2.8624388667e-05 3.0951773246e-05 -0.73592915597 0.6249905635
11321500000.0 -0.75266245661 0.6032984975 4.0867415713e-05 3.2765006978e-05 3.4061362795e-05 3.1869155115e-05 -0.73464234993 0.62615519648
11322000000.0 -0.75153028561 0.60473939805 4.0428305839e-05 3.6851857463e-05 3.4048255474e-05 2.8987975946e-05 -0.73411018859 0.6272610282
11322500000.0 -0.7506644184 0.60624146461 3.8520284206e-05 3.1379637214e-05 3.1741192184e-05 4.3415139402e-05 -0.73275894117 0.62853687709
11323000000.0 -0.74956151104 0.60721629907 3.3302939374e-05 3.0688180861e-05 3.9551229323e-05 3.5460379273e-05 -0.73194071886 0.62976842878
11323500000.0 -0.74833370999 0.60868837577 2.5435157596e-05 4.0043360968e-05 2.918054592e-05 2.4720011184e-05 -0.73113024043 0.63081412309
11324000000.0 -0.74748397223 0.6102836839 2.5964926928e-05 3.253474876e-05 3.6567291078e-05 3.1040205005e-05 -0.73011368299 0.63187775298
11324500000.0 -0.74606565226 0.61135992178 3.9855122131e-05 3.6403986228e-05 3.381989219e-05 3.6050771986e-05 -0.72882542774 0.63334302617
11325000000.0 -0.74532912442 0.61228325859 2.2200707686e-05 2.3621713324e-05 4.8470225267e-05 1.6471514746e-05 -0.72792411045 0.63430090059
11325500000.0 -0.74432057405 0.61404830737 3.4132771282e-05 2.8233468302e-05 3.9508425985e-05 4.5251888143e-05 -0.72689846842 0.63564287942
11326000000.0 -0.74273073312 0.61538993291 3.2301303243e-05 3.2956090091e-05 2.7036077412e-05 2.4656545365e-05 -0.72585585076 0.63720186899
11326500000.0 -0.7419257867 0.61679757752 3.4721160737e-05 1.9360514994e-05 3.6079325032e-05 2.8647521724e-05 -0.7248945665 0.63799422721
11327000000.0 -0.74086685191 0.61816277463 2.6590638915e-05 2.9231283597e-05 3.9466930445e-05 3.6873712119e-05 -0.72379153463 0.6392425795
11327500000.0 -0.73978346545 0.61919308714 3.919423863e-05 3.0567777698e-05 3.5773041447e-05 3.3550926455e-05 -0.72283515189 0.64046918983
11328000000.0 -0.73842332479 0.6206852661 4.41698365e-05 3.3591797745e-05 3.661669907e-05 3.7326055533e-05 -0.72170571249 0.64172259178
11328500000.0 -0.73751931184 0.6222871844 3.2371188576e-05 4.0583492786e-05 2.5471117603e-05 2.8377044094e-05 -0.72070077688 0.64289847124
11329000000.0 -0.73648351308 0.62342488948 3.6829912115e-05 3.5173358309e-05 3.181331837e-05 2.7920062393e-05 -0.71974817597 0.64389454014
11329500000.0 -0.73542387257 0.62463174408 2.3324042261e-05 3.2614103254e-05 3.2639571204e-05 3.0428337507e-05 -0.71844222772 0.64509422902
11330000000.0 -0.73396118295 0.62606597207 3.1355606268e-05 4.1544461387e-05 3.6917832232e-05 2.3951543829e-05 -0.71738659396 0.64651020152
11330500000.0 -0.73295410628 0.62705910926 2.943950331e-05 2.8467209525e-05 4.047885804e-05 2.5446648394e-05 -0.71651235523 0.64781091111
11331000000.0 -0.73177845663 0.62849473384 2.8359241595e-05 3.0114575757e-05 3.6155842944e-05 2.8258726338e-05 -0.71541067332 0.64871980371
11331500000.0 -0.73072720813 0.62975428628 3.494648916e-05 3.9760055634e-05 3.9394287739e-05 3.1440585181e-05 -0.71414792251 0.64994051266
11332000000.0 -0.72977622397 0.63121301389 3.3073472814e-05 2.950075825e-05 4.0521566647e-05 2.856962435e-05 -0.71313860673 0.6509650358
11332500000.0 -0.72856653816 0.63270423604 3.5156394918e-05 3.6300290141e-05 4.6906052804e-05 3.3590223087e-05 -0.71196513069 0.6521642582
11333000000.0 -0.72725837936 0.63414040601 4.0056319145e-05 3.8676386237e-05 4.1038393647e-05 3.5761738258e-05 -0.71118244075 0.65334118364
11333500000.0 -0.7260544475 0.63501671607 4.3612323374e-05 2.3054858857e-05 2.8264929423e-05 3.3144939663e-05 -0.71000243488 0.65481568839
11334000000.0 -0.72523105153 0.63657593102 3.5371205664e-05 3.6954367291e-05 4.0665160907e-05 2.390026385e-05 -0.70903754695 0.65548453999
11334500000.0 -0.72384116371 0.63816749888 4.0261639495e-05 3.3733187833e-05 3.9543251211e-05 3.1550945305e-05 -0.70785650469 0.65703455756
11335000000.0 -0.72258260942 0.63934110869 2.9857272392e-05 1.9018284422e-05 2.9513376105e-05 3.2776032388e-05 -0.70686831933 0.6580731323
11335500000.0 -0.72126348531 0.64056993429 4.9087943418e-05 2.9493895299e-05 3.6192638927e-05 3.4403663201e-05 -0.70561057595 0.65918297035
11336000000.0 -0.72032306194 0.64208604724 3.5296846941e-05 2.4824746536e-05 4.459549491e-05 3.4588584793e-05 -0.70460108689 0.66042406309
11336500000.0 -0.71905561356 0.64318120179 4.0617290803e-05 3.0049771276e-05 3.3026055701e-05 2.9775612031e-05 -0.70343247004 0.66208996498
11337000000.0 -0.71786984951 0.64458258373 3.3680472716e-05 3.4280692048e-05 2.8168245691e-05 3.3896442043e-05 -0.7025493801 0.66317541381
11337500000.0 -0.71663613903 0.64588877203 3.1800762324e-05 3.7661955407e-05 3.7360743305e-05 3.6293408112e-05 -0.70134879274 0.66425669013
11338000000.0 -0.7155033986 0.64712721042 4.2891847325e-05 2.5566163654e-05 3.1361682783e-05 3.5129007443e-05 -0.70012652089 0.66516740808
11338500000.0 -0.71446280179 0.64829059213 3.3291916722e-05 2.6985777984e-05 2.9559951071e-05 2.3558578046e-05 -0.69916966909 0.66632934434
11339000000.0 -0.71314905573 0.64979299971 4.8244909797e-05 2.7187495047e-05 4.8732033787e-05 2.3042885802e-05 -0.69770262827 0.66782116035
11339500000.0 -0.71197754726 0.65109706883 3.2994135162e-05 2.4889044766e-05 4.2221405857e-05 3.5721529041e-05 -0.69670623843 0.66871622473
11340000000.0 -0.71057414799 0.6523684853 2.8620297795e-05 3.3978471583e-05 4.8038000379e-05 2.463087061e-05 -0.69554901951 0.67004834471
11340500000.0 -0.70934220427 0.65377676473 3.7362622116e-05 3.7395075324e-05 4.0307548031e-05 4.2893659808e-05 -0.6941805931 0.67105777504
11341000000.0 -0.70827118511 0.65496308825 3.9111498509e-05 2.68464026e-05 4.0349716179e-05 3.1377707984e-05 -0.69308908771 0.67216199875
11341500000.0 -0.70709283108 0.65661549685 2.9719711221e-05 2.324817381e-05 3.5470967996e-05 2.8071271251e-05 -0.69204401091 0.67342233396
11342000000.0 -0.7058575988 0.65788570242 3.102856106e-05 2.7498812489e-05 4.4454981062e-05 2.3912817784e-05 -0.69085145862 0.67489630012
11342500000.0 -0.70434955535 0.65905209167 4.7138023178e-05 2.4681811224e-05 3.7640120792e-05 2.7949789304e-05 -0.68983239013 0.67583546663
11343000000.0 -0.7032518684 0.66078655588 4.0551374354e-05 3.1234712684e-05 2.7722394132e-05 3.0647034313e-05 -0.68862195188 0.67710140513
11343500000.0 -0.70173176933 0.66207671617 2.9359849631e-05 4.734698949e-05 3.370830941e-05 4.2785467484e-05 -0.68772301136 0.67821917515
11344000000.0 -0.70057898321 0.66314391112 4.0147065499e-05 3.7562362414e-05 2.7674945274e-05 3.4585936507e-05 -0.68617190897 0.67933539314
11344500000.0 -0.6996443626 0.66459715837 2.2970727669e-05 3.3642686043e-05 4.2687904228e-05 2.4573747671e-05 -0.68508378745 0.68054153835
11345000000.0 -0.6984777225 0.66610942004 3.8329256961e-05 2.5093828113e-05 4.2824195935e-05 4.6538069676e-05 -0.68404828806 0.68173016211
11345500000.0 -0.69679847962 0.66734572225 4.2670713207e-05 3.1160632892e-05 4.6220581804e-05 2.7382520298e-05 -0.68280651141 0.68298136249
11346000000.0 -0.69553940787 0.66841600696 3.5915972021e-05 3.2959520538e-05 3.3042939018e-05 2.6074431194e-05 -0.6816410983 0.68413940007
11346500000.0 -0.69418369235 0.66996557041 3.8628205599e-05 3.2277474868e-05 3.8985460484e-05 3.7554911654e-05 -0.68002824373 0.68523140411
11347000000.0 -0.69285636232 0.67159346609 3.0684605418e-05 3.2222648648e-05 3.8928631741e-05 3.5903130448e-05 -0.67898794265 0.68660993881
11347500000.0 -0.69157284662 0.67247322085 4.2035665448e-05 3.1261166626e-05 3.7419013843e-05 3.5375505605e-05 -0.67783450299 0.68762295856
11348000000.0 -0.69034850689 0.67383798417 3.9707524253e-05 3.4778263393e-05 2.5579202469e-05 3.0960423975e-05 -0.67653903614 0.68872526488
11348500000.0 -0.68902831548 0.67524317267 5.2283009449e-05 3.8713674228e-05 3.8170362029e-05 3.2603990025e-05 -0.67555167088 0.69002370704
11349000000.0 -0.68788501845 0.67668449208 3.4144120257e-05 3.1476375833e-05 3.538049284e-05 3.4088058632e-05 -0.67399135694 0.69138204893
11349500000.0 -0.68632116413 0.67836736387 3.1216676537e-05 3.3383819076e-05 5.1692734804e-05 2.8763352963e-05 -0.67293996086 0.6924180907
11350000000.0 -0.68495245402 0.67911614885 3.2761779027e-05 2.151548795e-05 3.6193493732e-05 3.6317880788e-05 -0.67137182068 0.69371543161
11350500000.0 -0.68362024735 0.68046125944 3.9840900725e-05 4.0381385436e-05 4.5899268734e-05 3.79479641e-05 -0.67040103081 0.69476765708
11351000000.0 -0.68235846392 0.68186448426 3.3433289361e-05 3.6859064624e-05 4.3629401128e-05 3.5928409268e-05 -0.66891690377 0.69607340328
11351500000.0 -0.68055263845 0.68329144358 4.3754911266e-05 3.391473609e-05 3.2382990978e-05 3.4398635401e-05 -0.66765910522 0.69725402587
11352000000.0 -0.67966811486 0.68457000653 3.4916928277e-05 3.2080153551e-05 4.4937853549e-05 3.5656942039e-05 -0.6664814131 0.69841599122
11352500000.0 -0.67838679358 0.68598328027 5.1496296858e-05 3.0177403667e-05 4.5119331537e-05 2.8412440109e-05 -0.6651831587 0.69965517569
11353000000.0 -0.67690465445 0.68703909632 4.5229220748e-05 2.6526183489e-05 3.7333097454e-05 2.5783599602e-05 -0.66411381247 0.7009171647
11353500000.0 -0.67538336235 0.68848438885 4.6189060705e-05 4.078102842e-05 5.0692433078e-05 3.1705785416e-05 -0.66298666473 0.70195925412
11354000000.0 -0.67407745723 0.68997350457 3.2045013561e-05 3.127175864e-05 2.8063096776e-05 3.3942013753e-05 -0.66131776938 0.70294753847
11354500000.0 -0.67261669585 0.69132120239 5.070921285e-05 3.1864360572e-05 3.2244547646e-05 2.7729295972e-05 -0.66004236935 0.70421762316
11355000000.0 -0.67134333963 0.69266550303 3.7902904654e-05 3.7820639366e-05 4.5074817906e-05 2.825790216e-05 -0.65883436168 0.7057712556
11355500000.0 -0.66987950271 0.69407176069 4.0472307521e-05 2.2343986788e-05 4.9055869095e-05 2.4141265087e-05 -0.65786624556 0.70686682017
11356000000.0 -0.66844657683 0.69538296186 3.6904417979e-05 3.9759308553e-05 3.4116808115e-05 3.4467087289e-05 -0.65608042283 0.7077260297
11356500000.0 -0.66710461627 0.69658189606 3.3177620959e-05 3.4779502421e-05 4.5098799676e-05 2.5803723448e-05 -0.65478565019 0.70943896205
11357000000.0 -0.66567013254 0.69814996491 3.8550174662e-05 3.6583791778e-05 3.4855109482e-05 3.3001377303e-05 -0.65344887458 0.70997618001
11357500000.0 -0.66419200367 0.69924232627 4.0216200741e-05 3.1473010694e-05 4.7401911194e-05 4.1693936417e-05 -0.65225711611 0.71136006316
11358000000.0 -0.66276415432 0.70084678557 3.6231207475e-05 3.4487917006e-05 5.1297970411e-05 3.3026150746e-05 -0.65103941209 0.71291420428
11358500000.0 -0.66113559699 0.70194425478 5.3136471079e-05 3.8484737794e-05 4.4440151477e-05 3.0950436764e-05 -0.64964193416 0.71386283323
11359000000.0 -0.65996201739 0.70337507471 4.5308255289e-05 2.7909625229e-05 3.7134670922e-05 3.1947295982e-05 -0.64837425986 0.71527050682
11359500000.0 -0.65841395702 0.70469791864 4.1667762334e-05 2.9633627751e-05 5.2906784094e-05 2.5181631904e-05 -0.64692152506 0.71662298778
11360000000.0 -0.65662066074 0.7061213956 4.4055258087e-05 5.3569176919e-05 4.2316847519e-05 3.9686150593e-05 -0.64550077649 0.71758303927
11360500000.0 -0.65539133039 0.70742152556 4.3409094697e-05 3.9709143207e-05 4.0976911462e-05 3.3115688023e-05 -0.64374880825 0.718459353
11361000000.0 -0.65381763526 0.70864123374 5.5296253722e-05 3.1472111605e-05 4.390687835e-05 3.2753257802e-05 -0.64270490922 0.71992341002
11361500000.0 -0.65258009454 0.71017053961 4.136237932e-05 2.7477309744e-05 4.4746204466e-05 2.1948206975e-05 -0.64131758786 0.72094938351
11362000000.0 -0.65088089131 0.71173219476 4.1976096971e-05 3.507864993e-05 4.7935602564e-05 4.0955171908e-05 -0.64002343729 0.72219002212
11362500000.0 -0.64910152252 0.71281675712 5.130683919e-05 3.4537069463e-05 3.8974481117e-05 2.8431027595e-05 -0.63847581239 0.72354212595
11363000000.0 -0.64789257268 0.7140132396 4.260841738e-05 2.8615703623e-05 4.1281739821e-05 2.9156143044e-05 -0.63703952811 0.72497290451
11363500000.0 -0.6463378945 0.71540887806 4.3883066446e-05 2.0835104685e-05 4.533508193e-05 3.1713525935e-05 -0.63581406888 0.72605450434
11364000000.0 -0.64473980858 0.71681979865 5.0344999252e-05 2.6980767449e-05 4.5261310169e-05 3.5412475161e-05 -0.63458488817 0.7275103884
11364500000.0 -0.64312896618 0.7182594548 4.00858592e-05 3.9181486408e-05 4.9789634458e-05 2.9955411436e-05 -0.63281400291 0.72852729896
11365000000.0 -0.64167751528 0.71940274618 5.1957244855e-05 2.9580843065e-05 4.4849474659e-05 3.3159057126e-05 -0.63150775324 0.72965057789
11365500000.0 -0.64006525786 0.72073239203 5.0538517903e-05 3.8232021501e-05 4.0268293968e-05 3.1311201934e-05 -0.62964542637 0.73079809407
11366000000.0 -0.63847212596 0.7220556528 4.6022517679e-05 3.228784678e-05 3.9862171205e-05 4.0031118371e-05 -0.62849133255 0.73182051913
11366500000.0 -0.63676639726 0.72368184551 4.8151489161e-05 2.847891934e-05 4.2244025216e-05 3.0013559e-05 -0.62710166483 0.73288220972
11367000000.0 -0.63546627784 0.72485711433 5.1130375703e-05 3.4582719733e-05 4.2071079312e-05 3.3726442636e-05 -0.62555675336 0.7342999221
11367500000.0 -0.63376060323 0.72627346171 4.264462689e-05 3.849808103e-05 3.2070164991e-05 2.6798434656e-05 -0.62392648075 0.73574673888
11368000000.0 -0.63212249379 0.72770678857 5.9776788973e-05 2.8061831563e-05 4.8466752925e-05 3.0754297902e-05 -0.62280304244 0.73696032609
11368500000.0 -0.63042927079 0.72879369805 4.2575534102e-05 3.6860836138e-05 4.4019584576e-05 3.0580333e-05 -0.62119275349 0.73795885169
11369000000.0 -0.62893519207 0.73054010604 5.5940053207e-05 2.8967551286e-05 5.2523328481e-05 3.2648678635e-05 -0.61981201269 0.7394907693
11369500000.0 -0.62723222055 0.7316277935 4.6647988319e-05 2.8845957297e-05 5.0121467021e-05 2.4437680677e-05 -0.61795122166 0.74072929116
11370000000.0 -0.62549714512 0.73313500533 4.5817450298e-05 3.8648822596e-05 5.6397114447e-05 3.180962336e-05 -0.61681175379 0.74206794888
11370500000.0 -0.624092352 0.7343264571 5.453479946e-05 2.6803563552e-05 5.0989351604e-05 2.0393903222e-05 -0.6150434833 0.74295850039
11371000000.0 -0.62229796193 0.73585817995 4.4696347834e-05 4.1393738333e-05 5.404625691e-05 3.3797946677e-05 -0.61383340604 0.74410665488
