! Created with skrf (http://scikit-rf.org).
# Hz S RI R 50.0 
!freq ReS11 ImS11 ReS21 ImS21 ReS12 ImS12 ReS22 ImS22
11300000000.0 -0.79434845543 0.54573252667 2.4016450817e-05 2.6609329976e-05 2.8562514427e-05 3.4805191257e-05 -0.7751090749 0.57435997684
11300500000.0 -0.79370099488 0.54700076204 2.5481590078e-05 4.285256674e-05 1.3058023556e-05 3.1516849933e-05 -0.77418860611 0.5755544387
11301000000.0 -0.79270905315 0.54853021027 3.707545064e-05 3.9563832989e-05 2.0470111238e-05 3.2625080664e-05 -0.77339456847 0.57682265902
11301500000.0 -0.79178851995 0.54956684502 2.8559268032e-05 2.5350134774e-05 3.1374810633e-05 3.3580326311e-05 -0.7725940952 0.57784689787
11302000000.0 -0.79067975357 0.55112679279 2.4457139485e-05 2.7509595692e-05 2.8103432573e-05 3.470901054e-05 -0.77179423469 0.57899338423
11302500000.0 -0.78992130286 0.55255663543 2.9024999707e-05 4.2324024961e-05 2.3088692464e-05 3.737990767e-05 -0.77101461527 0.58009261153
11303000000.0 -0.7890749317 0.5537249806 2.3059649487e-05 2.0755037195e-05 3.5695944101e-05 3.8726411527e-05 -0.77022230906 0.58154705929
11303500000.0 -0.78799067414 0.55520929297 3.2995917218e-05 2.5286741622e-05 3.5714026772e-05 2.3134369183e-05 -0.76925602919 0.58278490722
11304000000.0 -0.78707085746 0.5565020746 3.0225805637e-05 2.2686569232e-05 2.8169159378e-05 3.1111185528e-05 -0.76833081957 0.58352490791
11304500000.0 -0.7863252791 0.5579740901 2.6472634207e-05 3.4215913436e-05 2.5053283406e-05 3.1516490925e-05 -0.76752986673 0.58500993476
11305000000.0 -0.78549662532 0.55905081915 3.5670764286e-05 2.0708695439e-05 4.4128029191e-05 3.2581423594e-05 -0.76586297762 0.58620082309
11305500000.0 -0.78447325576 0.56036468413 3.2252423926e-05 2.4855552484e-05 2.3129945743e-05 3.1563730945e-05 -0.76570590464 0.58752491443
11306000000.0 -0.78367883709 0.56193817771 3.5929832548e-05 4.7274464323e-05 1.8185614282e-05 2.8387424916e-05 -0.76474971906 0.5887180905
11306500000.0 -0.78262136993 0.56304588877 3.174014825e-05 3.033934739e-05 3.1289209688e-05 2.617125667e-05 -0.76373117881 0.58974193486
11307000000.0 -0.78191391579 0.56433380375 2.1157554428e-05 3.144739149e-05 2.0675711506e-05 3.1820083279e-05 -0.76300135235 0.59122270709
11307500000.0 -0.78072530392 0.56561442008 3.8992379118e-05 3.3020993894e-05 3.3029380468e-05 2.8844930118e-05 -0.76210641613 0.59220656362
11308000000.0 -0.7798277163 0.5669320891 3.7359626366e-05 4.605031067e-05 3.7977221472e-05 3.7864495985e-05 -0.76142925062 0.59348685524
11308500000.0 -0.77882921032 0.56843059559 3.1074651075e-05 2.963165031e-05 2.9587925988e-05 2.3315436998e-05 -0.75991905529 0.59446579925
11309000000.0 -0.77799414616 0.56973896708 2.7096014622e-05 3.3967576919e-05 3.0028953238e-05 3.1653196069e-05 -0.75910454464 0.59588428448
11309500000.0 -0.77718412505 0.57102818433 2.2530054456e-05 2.396468919e-05 1.2453713005e-05 3.394621665e-05 -0.75823430404 0.59707251991
11310000000.0 -0.77631387626 0.57245848763 2.7337648111e-05 2.5205889286e-05 4.029120361e-05 2.9182260758e-05 -0.75773286063 0.59840023301
11310500000.0 -0.77509455576 0.57378853993 3.1502951479e-05 3.6152123275e-05 1.5157249454e-05 3.0199522373e-05 -0.75639429826 0.59951547039
11311000000.0 -0.77405799813 0.57495083192 2.9508794921e-05 3.3955961379e-05 2.5394003645e-05 2.2793275351e-05 -0.75552409172 0.6007401645
11311500000.0 -0.7733021336 0.57624033887 3.4268811741e-05 4.928347675e-05 3.7791107838e-05 3.7684602495e-05 -0.75482124578 0.60191294936
11312000000.0 -0.772406717 0.57767478253 3.0004002212e-05 4.8139575972e-05 2.2894408263e-05 2.9075990618e-05 -0.75353768353 0.60311296973
11312500000.0 -0.77163093588 0.57874306502 2.7193632834e-05 2.4451054116e-05 3.29525952e-05 2.0242344924e-05 -0.75300322535 0.60426659851
11313000000.0 -0.77055413608 0.58024458746 3.0800176802e-05 4.3113707713e-05 2.5608156491e-05 3.8002502045e-05 -0.75177163006 0.60546322532
11313500000.0 -0.76937464778 0.58147323776 3.387081026e-05 2.6662535748e-05 2.3061461862e-05 2.7330641613e-05 -0.7512779883 0.60683802824
11314000000.0 -0.76834691127 0.58300520175 3.3787799395e-05 3.5145535042e-05 2.100625813e-05 2.2786628624e-05 -0.75007086121 0.60755689964
11314500000.0 -0.76729057559 0.58420321973 3.3490008785e-05 3.1023508937e-05 2.4588304429e-05 2.6111488077e-05 -0.74915631971 0.6088710516
11315000000.0 -0.76635217869 0.58559219593 3.8203447916e-05 2.8882977058e-05 1.9745011622e-05 2.6517284675e-05 -0.74825412097 0.61055917376
11315500000.0 -0.76576113281 0.58693361573 2.7464191803e-05 3.0289172087e-05 2.0280613246e-05 3.2274492767e-05 -0.74708197195 0.61149988665
11316000000.0 -0.76446925146 0.5881342704 2.9372872092e-05 2.742458323e-05 3.0062006902e-05 4.1612749613e-05 -0.74636359533 0.61254604526
11316500000.0 -0.76363298878 0.58941477587 1.5646875265e-05 2.4382008131e-05 4.2217783143e-05 2.7553124855e-05 -0.7450025417 0.61356982269
11317000000.0 -0.76263865107 0.5908443608 3.3440588085e-05 2.7248895671e-05 2.5417067304e-05 4.0025600346e-05 -0.74442910768 0.61496176815
11317500000.0 -0.76144617942 0.59224306941 3.6862612681e-05 2.9221670414e-05 2.3733507904e-05 1.9769518495e-05 -0.74308321798 0.61600002126
11318000000.0 -0.76050468897 0.59365950609 2.532795456e-05 3.3066442459e-05 1.8722878378e-05 2.3573825094e-05 -0.74198245645 0.61747367792
11318500000.0 -0.75937237711 0.59504327138 2.6784054816e-05 2.763897868e-05 4.2851258635e-05 3.5369160787e-05 -0.74117163688 0.61852455443
11319000000.0 -0.75850844461 0.59637627698 3.1276888559e-05 4.5478191114e-05 3.3629531261e-05 1.9549129782e-05 -0.74048401396 0.62016317377
11319500000.0 -0.75726498137 0.59737160158 3.0160628078e-05 3.376291431e-05 3.5716326516e-05 2.4404250248e-05 -0.73935858691 0.62107429005
11320000000.0 -0.75653852976 0.59895269353 3.3392567646e-05 2.7680622168e-05 2.6764682363e-05 3.6276849558e-05 -0.73837536258 0.62209452176
11320500000.0 -0.75531811184 0.60004694746 3.6712671727e-05 2.9159531834e-05 3.3957181361e-05 2.776944501e-05 -0.7373795488 0.62344902979
11321000000.0 -0.75420181818 0.60144147322 3.4817040442e-05 2.7715362979e-05 3.7723301772e-05 2.5536087955e-05 -0.73638074422 0.62452812011
11321500000.0 -0.75333777759 0.60292623242 2.6499628916e-05 3.444074755e-05 2.4595403461e-05 2.7732428738e-05 -0.73526880783 0.62570550451
11322000000.0 -0.75237948469 0.60421611551 2.2943825254e-05 2.1053334338e-05 3.5674324083e-05 2.8170862269e-05 -0.73457860681 0.62685426128
11322500000.0 -0.75139931175 0.6056237946 2.7691865331e-05 3.2160678704e-05 3.0288364616e-05 3.6774951917e-05 -0.73327715047 0.62812515729
11323000000.0 -0.7501986725 0.60674099866 3.6163768182e-05 4.4085313328e-05 3.0285406677e-05 2.2503230955e-05 -0.73247295263 0.62937072139
11323500000.0 -0.74887860629 0.60809059569 3.4169987393e-05 3.2667653085e-05 3.113450357e-05 3.2483820251e-05 -0.73156187421 0.63040060711
11324000000.0 -0.7481096645 0.60970341794 2.8059188144e-05 3.4756932569e-05 2.4626832736e-05 4.0299863761e-05 -0.73059050789 0.63141873765
11324500000.0 -0.74697199405 0.6107367918 2.5521500352e-05 3.5292226867e-05 2.9089814567e-05 3.1717961196e-05 -0.72935899704 0.63288538759
11325000000.0 -0.74587573208 0.61184634216 4.1381371492e-05 3.0846584909e-05 3.0866603395e-05 3.1303009939e-05 -0.72841737276 0.63391042509
11325500000.0 -0.74512691369 0.61333434558 3.1338356e-05 2.2888328865e-05 4.5153163325e-05 2.2744776936e-05 -0.72743041426 0.6351994707
11326000000.0 -0.74353036984 0.61476342878 3.0532317501e-05 3.4728934162e-05 4.1573928355e-05 3.3196232966e-05 -0.72627084639 0.6368249064
11326500000.0 -0.74250942875 0.61600832522 3.6051952034e-05 1.9246793972e-05 2.8684336216e-05 2.9599292554e-05 -0.72543049931 0.63754770264
11327000000.0 -0.74156114441 0.61753385003 2.7468775715e-05 3.1256014041e-05 2.6976470223e-05 2.8852455306e-05 -0.72429793228 0.63867063234
11327500000.0 -0.74053086456 0.61864058632 2.8764838951e-05 3.3022901502e-05 3.1257163975e-05 3.3918327703e-05 -0.72330082921 0.63988194305
11328000000.0 -0.73922107376 0.62003133594 3.1822003154e-05 3.1362646394e-05 9.1240219556e-06 3.3715028239e-05 -0.72222430221 0.64130616115
11328500000.0 -0.73810546302 0.62161268366 3.8210132027e-05 3.1863989092e-05 2.701259853e-05 2.4617547292e-05 -0.72115228031 0.64242930151
11329000000.0 -0.73723153364 0.62287929292 3.555846318e-05 4.1549133219e-05 2.1544747715e-05 3.1761908957e-05 -0.72024705177 0.64348857154
11329500000.0 -0.73604147668 0.62410444281 2.8355465373e-05 3.0429028251e-05 2.5330378336e-05 3.0409291694e-05 -0.71893518872 0.64464136893
11330000000.0 -0.73481185325 0.62549216906 2.9728878518e-05 2.6934702234e-05 3.4672424798e-05 2.7825613743e-05 -0.71794177175 0.64595325859
11330500000.0 -0.73367296653 0.62663163964 3.5808197384e-05 1.8778178212e-05 3.6774782896e-05 3.879875597e-05 -0.71702194983 0.64731273161
11331000000.0 -0.73248443537 0.62804623283 3.0258004842e-05 2.2494981711e-05 3.5061482506e-05 2.5215324866e-05 -0.71597817039 0.6482697006
11331500000.0 -0.73156025224 0.62920739771 3.2914238986e-05 3.3721190877e-05 2.998296678e-05 3.3819108791e-05 -0.71460584524 0.64948576364
11332000000.0 -0.73048593369 0.63055647796 3.0811084349e-05 2.7795706972e-05 3.1992817754e-05 3.3020774181e-05 -0.71365875073 0.65044853781
11332500000.0 -0.72928306194 0.63202578335 2.8536966982e-05 3.4205640358e-05 3.3838110363e-05 2.1800126515e-05 -0.71249076748 0.65159186559
11333000000.0 -0.72826668572 0.63353266067 3.4851555302e-05 2.1913109835e-05 3.1718168348e-05 2.3205006858e-05 -0.71169954728 0.65290254698
11333500000.0 -0.72691461708 0.6346016227 3.6448633221e-05 3.5876588363e-05 2.3633543851e-05 3.4446183823e-05 -0.71051659004 0.65443536923
11334000000.0 -0.7260252798 0.63594350214 3.1040072607e-05 2.5788602045e-05 4.2215917181e-05 2.6564131039e-05 -0.7094179715 0.65498660074
11334500000.0 -0.72476456779 0.63766139591 3.2807736153e-05 2.1622938139e-05 3.7638753253e-05 2.7314423253e-05 -0.70832295177 0.65653912133
11335000000.0 -0.72336223064 0.63889624469 3.3448738961e-05 3.4468324958e-05 2.9971184792e-05 2.9276887314e-05 -0.70736344016 0.65761399608
11335500000.0 -0.72201048788 0.64003811255 3.0687915357e-05 3.891674319e-05 3.6887598472e-05 4.1213867423e-05 -0.7060586541 0.65867211743
11336000000.0 -0.72113326504 0.64145520616 1.6939935677e-05 3.2671340907e-05 2.484960273e-05 3.817578858e-05 -0.70503888913 0.6598968203
11336500000.0 -0.7200334987 0.64263854745 2.2539765629e-05 4.092080851e-05 3.4891012468e-05 2.1045315069e-05 -0.70391759935 0.66153402538
11337000000.0 -0.71889680164 0.64388189735 3.6402826166e-05 3.186043379e-05 4.0574674074e-05 3.9938862057e-05 -0.70311042527 0.66265136592
11337500000.0 -0.71749287648 0.64523972588 3.913090127e-05 2.3142784958e-05 2.7170815005e-05 3.7893233652e-05 -0.70182235471 0.66374373329
11338000000.0 -0.7163424656 0.64647958973 3.560320493e-05 9.6781072941e-06 2.7064178869e-05 2.5633772011e-05 -0.70060284863 0.66467304644
11338500000.0 -0.71520030669 0.64769433006 4.1501842428e-05 2.0984948116e-05 3.5554136289e-05 2.1329101587e-05 -0.69958255626 0.66584008183
11339000000.0 -0.71400712515 0.64926174219 4.0387757178e-05 3.9091767641e-05 3.7751004031e-05 3.0381873438e-05 -0.69815179604 0.66729587635
11339500000.0 -0.7129492781 0.65041790959 3.1234663924e-05 2.244495776e-05 2.997979265e-05 3.2829363366e-05 -0.69721772576 0.66827491956
11340000000.0 -0.71140143443 0.65189493001 2.6001220649e-05 3.4190399589e-05 3.758825211e-05 2.8777766391e-05 -0.69601059784 0.66956386162
11340500000.0 -0.71031292381 0.65330879728 3.1529783761e-05 3.3232444192e-05 3.240462095e-05 3.3486461511e-05 -0.69455946188 0.67048858921
11341000000.0 -0.7092060075 0.65438044457 3.5750122604e-05 2.2802674266e-05 3.0032871417e-05 3.6078579876e-05 -0.69349469684 0.67171914858
11341500000.0 -0.70791708817 0.6560141907 2.2356524956e-05 2.7412720037e-05 3.6626724099e-05 3.2766344782e-05 -0.69255652435 0.67294336964
11342000000.0 -0.7066180505 0.65728007788 3.839241247e-05 1.5841062696e-05 3.5379714206e-05 3.0355760971e-05 -0.69128576001 0.67432932371
11342500000.0 -0.70528722048 0.65840328899 3.5769417606e-05 2.2786292193e-05 3.8731234152e-05 3.8888280484e-05 -0.69026968604 0.67537722364
11343000000.0 -0.70409300684 0.66008635915 3.9569163794e-05 3.9363095313e-05 3.3119569478e-05 3.2556040834e-05 -0.68912348348 0.67670224893
11343500000.0 -0.70251732906 0.66144316606 3.885022218e-05 3.9241561394e-05 3.7001782228e-05 2.1491293118e-05 -0.68807822779 0.67772577055
11344000000.0 -0.70157749786 0.66249250507 3.1193811753e-05 2.6499081687e-05 3.1627651365e-05 2.7766417052e-05 -0.68662814593 0.67883288637
11344500000.0 -0.70036183276 0.66391548706 3.4958193014e-05 3.0385557383e-05 3.2784184393e-05 2.4796632205e-05 -0.6855214819 0.67995019627
11345000000.0 -0.69915596797 0.66551622857 3.03691904e-05 1.9966675437e-05 3.6155478422e-05 3.3876650079e-05 -0.6845260499 0.68120843439
11345500000.0 -0.69783646171 0.66657773362 4.2940098335e-05 2.2467413715e-05 3.8205139666e-05 2.6719105177e-05 -0.68330748193 0.68248336144
11346000000.0 -0.69630544751 0.66771241121 4.4685256459e-05 3.5275084282e-05 3.1039295352e-05 2.4173880807e-05 -0.68208170378 0.68367315001
11346500000.0 -0.69533384823 0.6694814254 2.7506153431e-05 2.6580414406e-05 3.5004292869e-05 3.822282429e-05 -0.68054578008 0.68475191893
11347000000.0 -0.69365512705 0.67098231497 3.2553185765e-05 3.0061998791e-05 3.8605969019e-05 3.3605513536e-05 -0.67945776423 0.68606794561
11347500000.0 -0.6924786518 0.67182005296 3.4485528616e-05 2.4931261007e-05 3.3667454271e-05 3.3450985659e-05 -0.67825751767 0.68720039966
11348000000.0 -0.69114852595 0.6732920449 3.6843145854e-05 4.084619858e-05 3.6648265093e-05 2.7865905671e-05 -0.6769741632 0.68837616414
11348500000.0 -0.68997003263 0.6747882839 2.9519443238e-05 3.2477678218e-05 4.0539798137e-05 2.8791427579e-05 -0.67602323549 0.6895081747
11349000000.0 -0.68870621138 0.67605542394 3.3689961011e-05 3.6467722634e-05 4.6254429965e-05 3.5577837327e-05 -0.6744943228 0.69091890085
11349500000.0 -0.6872744148 0.67766640493 3.4784353439e-05 3.3087281177e-05 4.746578035e-05 2.750336037e-05 -0.67332262472 0.69198978127
11350000000.0 -0.68582356335 0.67853602105 4.2127313937e-05 2.0717570831e-05 3.4322570323e-05 2.3214318088e-05 -0.67190036063 0.6931866494
11350500000.0 -0.68455268479 0.67984388846 3.9474738848e-05 3.6109914588e-05 3.5427519706e-05 3.4360128716e-05 -0.6707544238 0.69433512102
11351000000.0 -0.68321190857 0.68119287764 3.9576169263e-05 3.3470573298e-05 4.0926341042e-05 4.2874998487e-05 -0.66951197929 0.69567233343
11351500000.0 -0.68175267175 0.68277229922 3.8464714856e-05 2.4954100016e-05 3.5977053388e-05 2.8644685525e-05 -0.66807708814 0.69690241778
11352000000.0 -0.68062264798 0.68386862665 3.4577267672e-05 3.1786026506e-05 4.052721283e-05 4.0981241861e-05 -0.66710395728 0.6979170813
11352500000.0 -0.67932458263 0.68544434202 4.0686816942e-05 2.6243931476e-05 4.5506870591e-05 3.3626253774e-05 -0.66578011162 0.69924029027
11353000000.0 -0.67777119656 0.68662672389 3.3703667519e-05 3.0924376571e-05 3.5975929665e-05 2.6588303308e-05 -0.6647381553 0.70044300688
11353500000.0 -0.67633477347 0.68795171318 3.9781856835e-05 2.6316202875e-05 3.6086710784e-05 3.9981126196e-05 -0.66353157737 0.70144106826
11354000000.0 -0.67493381409 0.68935513581 3.9402043022e-05 3.7138653076e-05 4.4027948438e-05 3.5223901796e-05 -0.66186942849 0.70274331279
11354500000.0 -0.67362388424 0.69082556846 3.7208827324e-05 3.5535649655e-05 3.9619399367e-05 2.6890533423e-05 -0.66066159226 0.70382053381
11355000000.0 -0.6721989342 0.69202502996 4.1794096909e-05 3.684904474e-05 3.1916552585e-05 2.2184462619e-05 -0.65928047007 0.70529420649
11355500000.0 -0.67084971955 0.69358124069 2.96802583e-05 4.0419967025e-05 3.7858674604e-05 3.2286793598e-05 -0.65838087802 0.70640130182
11356000000.0 -0.66946619393 0.69472697835 4.4695267216e-05 3.9657819373e-05 5.08843806e-05 3.9983876655e-05 -0.65668753732 0.7074840023
11356500000.0 -0.66795751407 0.69584278844 4.910734764e-05 3.7074763504e-05 4.6303458601e-05 3.1601762851e-05 -0.65532090397 0.7089756629
11357000000.0 -0.66661067937 0.6974704613 4.4843806792e-05 3.526671195e-05 3.9294640477e-05 3.7892636058e-05 -0.65405853868 0.70970015099
11357500000.0 -0.66520189797 0.69859772385 3.3110764231e-05 1.961522064e-05 4.8236043954e-05 3.9303215955e-05 -0.65279312039 0.71118043641
11358000000.0 -0.66359865348 0.70029973532 2.993906728e-05 3.1868871756e-05 4.4753484254e-05 4.0891503426e-05 -0.65168946821 0.71238882851
11358500000.0 -0.66217812883 0.70127212559 5.7297982827e-05 3.1444232059e-05 3.8861212777e-05 4.066602298e-05 -0.6503090086 0.71343297733
11359000000.0 -0.66074939387 0.70262991966 4.5369182494e-05 2.9530478054e-05 4.3824780708e-05 2.643572051e-05 -0.64888312723 0.71503380306
11359500000.0 -0.65925039758 0.7040618152 3.5271164687e-05 3.2898287975e-05 3.0804977456e-05 2.655478213e-05 -0.64753063021 0.71589319603
11360000000.0 -0.65783076689 0.70572577112 3.0797519043e-05 2.9222204316e-05 4.8991255439e-05 2.740238649e-05 -0.64613644618 0.71718224557
11360500000.0 -0.65632915534 0.70684920567 4.6273359342e-05 3.1730667622e-05 4.1463299387e-05 3.9697098251e-05 -0.64456317769 0.71816350308
11361000000.0 -0.65480038413 0.70808072742 4.7350156029e-05 3.0865914536e-05 2.8087263118e-05 3.3660086459e-05 -0.64336431525 0.71944158787
11361500000.0 -0.65343420488 0.70957656092 2.5506703754e-05 3.3204155462e-05 3.5021306546e-05 2.6828535299e-05 -0.64199994468 0.72045238303
11362000000.0 -0.65182227421 0.71107603347 3.4582428357e-05 3.6359598095e-05 4.2268787982e-05 2.3625490608e-05 -0.64025045967 0.7218841468
11362500000.0 -0.65001588544 0.7123018741 4.8436937882e-05 3.4260040306e-05 4.2824173765e-05 3.0285441204e-05 -0.63917211164 0.72323441384
11363000000.0 -0.64884267297 0.71337917081 3.8616406744e-05 2.2248461687e-05 2.8509614226e-05 3.6669500629e-05 -0.63777890869 0.72460655241
11363500000.0 -0.64740550532 0.71484245089 4.4581514047e-05 2.936392092e-05 4.6566494057e-05 3.4588449416e-05 -0.6363036446 0.72560577135
11364000000.0 -0.64566232936 0.71613625749 5.0045839473e-05 3.7457097917e-05 5.0931982866e-05 1.9107767986e-05 -0.63503110778 0.72713259942
11364500000.0 -0.6442297184 0.71756658603 4.7152087714e-05 2.5958803085e-05 5.3235152879e-05 1.9389582021e-05 -0.63343245008 0.72820582712
11365000000.0 -0.64270455249 0.71883333187 3.6190003504e-05 2.9499597064e-05 3.8207504353e-05 2.8538999548e-05 -0.63202478928 0.72929685757
11365500000.0 -0.64106794691 0.72020864199 3.1929102679e-05 3.5386294466e-05 4.2735484777e-05 2.5551779985e-05 -0.6302419635 0.73050375258
11366000000.0 -0.63963833118 0.7214727733 4.2909501616e-05 2.9963725003e-05 4.1323121609e-05 3.3730347958e-05 -0.62908697716 0.73151232567
11366500000.0 -0.63765437934 0.72307101791 4.2024456841e-05 3.5299031017e-05 4.2056797124e-05 2.3039487629e-05 -0.62767154679 0.73254049683
11367000000.0 -0.63641648355 0.72426180477 4.2533532006e-05 3.2620925063e-05 4.8936907881e-05 3.8985745693e-05 -0.62616372729 0.73399243311
11367500000.0 -0.63478346117 0.72568702661 4.4349918474e-05 3.4845465192e-05 4.405165137e-05 2.6389364638e-05 -0.62488500572 0.73536083972
11368000000.0 -0.63304929071 0.72728267188 3.607146477e-05 4.1936603084e-05 5.4500939926e-05 3.2506852367e-05 -0.62355881704 0.73663465665
11368500000.0 -0.63147482075 0.7281398201 4.7825430318e-05 2.6849267895e-05 4.2623261623e-05 2.5806865932e-05 -0.62184802783 0.73760546081
11369000000.0 -0.62984573086 0.7298399991 4.3760012887e-05 3.3115670308e-05 4.2043483653e-05 3.8833592405e-05 -0.62053778928 0.73899515453
11369500000.0 -0.62816134661 0.73101343458 4.8223574699e-05 2.8665256256e-05 3.194813421e-05 2.8718242448e-05 -0.61872091503 0.74031319392
11370000000.0 -0.62643888461 0.73250717382 4.6362845901e-05 3.7764461509e-05 4.1842924652e-05 3.4424649656e-05 -0.61748627049 0.74145745693
11370500000.0 -0.62499203905 0.73366055687 4.8720683899e-05 2.9137546471e-05 3.6549921995e-05 2.0997842262e-05 -0.61573146791 0.74233224314
11371000000.0 -0.62325866846 0.73532080328 5.1066463415e-05 4.5215939204e-05 5.0220482797e-05 3.068746352e-05 -0.61453932117 0.74349556996
