! Created with skrf (http://scikit-rf.org).
# Hz S RI R 50.0 
!freq ReS11 ImS11 ReS21 ImS21 ReS12 ImS12 ReS22 ImS22
11300000000.0 -0.80645997309 0.52813983277 1.8877890003e-05 3.4772432327e-05 3.6315679371e-05 3.8220380365e-05 -0.75581673619 0.59887011512
11300500000.0 -0.80560315403 0.52932562108 1.592637184e-05 1.8718535308e-05 2.6297340345e-05 1.8117482467e-05 -0.75459401824 0.60012634928
11301000000.0 -0.80481952399 0.53079495665 3.1803436729e-05 4.3965120667e-05 2.5177924054e-05 2.8127007806e-05 -0.75395284998 0.60159009039
11301500000.0 -0.80387995221 0.53184720481 2.0339742582e-05 2.7844793041e-05 2.0084677014e-05 3.1195877833e-05 -0.75293827782 0.60259796797
11302000000.0 -0.8030071213 0.5334078171 3.0334546847e-05 3.9573811368e-05 3.326207548e-05 4.5437011558e-05 -0.75204434352 0.60410958917
11302500000.0 -0.80222942531 0.53462016654 3.4156710273e-05 3.7803147673e-05 1.906170225e-05 2.3164469823e-05 -0.7512836098 0.60498373304
11303000000.0 -0.80170374304 0.53578091223 2.7236180296e-05 2.451929771e-05 2.9508497053e-05 2.7854929277e-05 -0.75020916887 0.60676435481
11303500000.0 -0.80054520113 0.53747460609 4.0040810003e-05 4.1299990418e-05 2.2427398073e-05 3.1560329713e-05 -0.74907890419 0.60797820978
11304000000.0 -0.79967634163 0.53866355424 2.1238446751e-05 5.2202076004e-05 2.0883510682e-05 3.1979734768e-05 -0.74814874242 0.60881611943
11304500000.0 -0.79891567204 0.53997632305 2.8231344708e-05 3.9655797135e-05 3.132603762e-05 3.1845847212e-05 -0.74713408068 0.61024859029
11305000000.0 -0.79819952323 0.54111997202 2.9035862713e-05 3.7385997143e-05 1.8330272178e-05 2.1486317843e-05 -0.74535319767 0.6115053936
11305500000.0 -0.79757466846 0.54239720531 1.5577509254e-05 4.5257131269e-05 3.1206463543e-05 2.9426924165e-05 -0.74490867778 0.61311091764
11306000000.0 -0.79656413148 0.54359014222 2.7859982319e-05 2.5852184547e-05 2.5726759478e-05 3.8187087147e-05 -0.74407402597 0.6143495141
11306500000.0 -0.79559624945 0.54487118976 3.8556203816e-05 4.3470004587e-05 2.8977174732e-05 2.389121219e-05 -0.74273323314 0.61549560716
11307000000.0 -0.79483931343 0.54609561227 3.6241735939e-05 3.3576060407e-05 2.5765026959e-05 3.486868497e-05 -0.74177681902 0.61698685367
11307500000.0 -0.79392891054 0.5471832836 1.81527169e-05 3.3340718155e-05 3.0871704488e-05 4.4954589897e-05 -0.74091276697 0.61816493208
11308000000.0 -0.79309863904 0.54841303047 3.3544487029e-05 3.1333030463e-05 1.9865212903e-05 3.564610573e-05 -0.74017853995 0.61943129595
11308500000.0 -0.79217418984 0.54994200609 2.6878374731e-05 2.6890844377e-05 2.9084116986e-05 2.536732007e-05 -0.73839574142 0.62043634554
11309000000.0 -0.79134080754 0.55123527924 3.2550001803e-05 3.7035725107e-05 3.4477033247e-05 3.5927986649e-05 -0.73751328476 0.6220048701
11309500000.0 -0.79069005847 0.55250369856 2.9889417671e-05 3.796811647e-05 3.1509143846e-05 3.9784955213e-05 -0.73640518799 0.62351731198
11310000000.0 -0.78989303466 0.55388947315 2.1786189796e-05 3.4869266579e-05 3.1650578359e-05 3.3782590312e-05 -0.73573008025 0.62485631926
11310500000.0 -0.78865283903 0.5550884324 3.2137451763e-05 3.5186983414e-05 2.574827449e-05 3.4485212847e-05 -0.73420193356 0.62596160231
11311000000.0 -0.78763468801 0.55642826212 4.11976099e-05 3.7789672858e-05 2.0013437727e-05 3.7271566776e-05 -0.73334144308 0.62730012331
11311500000.0 -0.78700089086 0.55735825223 2.8975197237e-05 3.3871574969e-05 4.0403968227e-05 3.5530015415e-05 -0.73230041972 0.62843484688
11312000000.0 -0.7861877676 0.55898274541 3.3911047574e-05 4.2027067575e-05 3.0168518083e-05 2.6551438313e-05 -0.73096386033 0.62963342335
11312500000.0 -0.78553052025 0.56007574636 2.9468500496e-05 4.1490046077e-05 3.8322443515e-05 3.6326667848e-05 -0.73028753103 0.63116412556
11313000000.0 -0.78440911279 0.56141890914 3.7269980502e-05 2.379817296e-05 3.3079841821e-05 2.4652573341e-05 -0.72882819907 0.63233236596
11313500000.0 -0.78348505679 0.56246890609 2.6214877197e-05 2.9846898165e-05 3.6350922189e-05 3.0674164139e-05 -0.72815035656 0.63376107541
11314000000.0 -0.78252845132 0.56396695098 2.7931912222e-05 2.7107555024e-05 4.1095979217e-05 2.3983063234e-05 -0.72687612341 0.63460818237
11314500000.0 -0.78158268185 0.56524816301 2.9110620065e-05 3.0319098205e-05 2.9013244751e-05 3.5158231977e-05 -0.72581460197 0.63607541582
11315000000.0 -0.78065410396 0.56653346448 3.0757641632e-05 4.1642090709e-05 3.1303797026e-05 2.9817754468e-05 -0.72479166966 0.63768901538
11315500000.0 -0.78007493982 0.56787120886 1.7877284263e-05 3.0994755526e-05 2.9187878782e-05 3.4953503932e-05 -0.72345196934 0.63873303329
11316000000.0 -0.7789347928 0.56894913019 4.1998206083e-05 3.1055732802e-05 3.9687772109e-05 3.4144468152e-05 -0.72254203631 0.63984419483
11316500000.0 -0.77800848579 0.57026292573 4.0198782045e-05 2.0462565432e-05 2.8132039033e-05 3.5867305211e-05 -0.72109585829 0.64092012078
11317000000.0 -0.77724463284 0.57167181468 4.0378635163e-05 3.3664971632e-05 3.4385187183e-05 2.0356514117e-05 -0.7202545682 0.64243335712
11317500000.0 -0.77613032744 0.57281962938 4.0628909591e-05 1.8083761722e-05 2.6577548934e-05 2.8636666586e-05 -0.71871629911 0.64366886556
11318000000.0 -0.77539284058 0.57423752536 2.5330740098e-05 3.1196717745e-05 2.5246402919e-05 3.5604506556e-05 -0.71760061887 0.64517775946
11318500000.0 -0.77436266148 0.57543101129 2.7980220279e-05 2.750827714e-05 3.8662947784e-05 3.316339227e-05 -0.71661279609 0.64633174004
11319000000.0 -0.77364362325 0.57687881615 3.2782532753e-05 4.3345501793e-05 3.0446513821e-05 2.7132485276e-05 -0.71584596111 0.64802091674
11319500000.0 -0.77257174204 0.5778918933 3.144203837e-05 3.4276044912e-05 3.629266025e-05 3.6306439688e-05 -0.71433083061 0.64910648927
11320000000.0 -0.77192823867 0.57929437586 3.6267932727e-05 3.4784978258e-05 3.0773869504e-05 4.143152545e-05 -0.71309540542 0.65024735804
11320500000.0 -0.77075750227 0.58039594424 2.6869145e-05 3.2827136143e-05 4.2027452755e-05 3.3610848007e-05 -0.71202029276 0.6516151876
11321000000.0 -0.76973476914 0.58181033141 2.8930968729e-05 3.5908422435e-05 3.5476116775e-05 3.8663544947e-05 -0.71091942417 0.65295772585
11321500000.0 -0.76897536296 0.5831562702 3.5290672463e-05 3.234841651e-05 3.6633987565e-05 2.5473905398e-05 -0.70946521231 0.65415100769
11322000000.0 -0.76799130485 0.58445313238 2.2603477116e-05 2.3269980779e-05 3.0053955029e-05 3.3312147648e-05 -0.70875021859 0.65538107111
11322500000.0 -0.76714007674 0.58580394502 3.0576629303e-05 2.5239904709e-05 3.4265064379e-05 3.6508141365e-05 -0.70716145355 0.65676378967
11323000000.0 -0.76635070182 0.58675154913 2.6955553189e-05 3.9379233476e-05 2.7700066469e-05 3.1231220833e-05 -0.70627498565 0.65802370919
11323500000.0 -0.76496003586 0.58815237494 2.7787690743e-05 3.3026041943e-05 3.4935473191e-05 2.9592530364e-05 -0.70515676563 0.65926054924
11324000000.0 -0.76420863187 0.58967854212 3.4654122616e-05 2.424076809e-05 2.9074359862e-05 3.5277769579e-05 -0.70398942132 0.66035160569
11324500000.0 -0.7631034373 0.59073566699 2.5725885573e-05 2.5178921641e-05 4.5605160325e-05 2.9380830565e-05 -0.70246783419 0.66195384008
11325000000.0 -0.76214230152 0.59179533151 3.7052403698e-05 2.6213745316e-05 2.8024337043e-05 2.0941587447e-05 -0.70144097108 0.66298731922
11325500000.0 -0.76132537586 0.59327958277 4.1990461871e-05 3.3410946259e-05 3.2020507991e-05 3.6963238256e-05 -0.70026908364 0.66442766074
11326000000.0 -0.76016681991 0.59440773626 4.3340415787e-05 2.6252300652e-05 3.2448862235e-05 3.1752153428e-05 -0.69889545524 0.66605353314
11326500000.0 -0.75919212251 0.59610833433 3.6141591058e-05 2.9538232318e-05 3.0942518643e-05 4.0717417762e-05 -0.69787002822 0.66699684803
11327000000.0 -0.75815173396 0.59726958505 4.3207151812e-05 4.1086394709e-05 3.9476765357e-05 3.9205339968e-05 -0.69653698409 0.66822116861
11327500000.0 -0.75725413733 0.59824999204 3.5058869233e-05 3.5702314507e-05 3.3425159529e-05 3.9965039279e-05 -0.69542913841 0.66956610597
11328000000.0 -0.75613261179 0.59942479672 4.8094388284e-05 1.9026543726e-05 4.5515655771e-05 3.8822807354e-05 -0.69412961385 0.67096297607
11328500000.0 -0.75546042283 0.60126135283 2.1482311911e-05 3.216875095e-05 2.9870953757e-05 3.5921591387e-05 -0.69290055673 0.67221989632
11329000000.0 -0.75438952883 0.60231892957 2.5291154942e-05 3.6353677822e-05 2.4995842123e-05 3.4825418239e-05 -0.69177066766 0.67336557647
11329500000.0 -0.75325477545 0.60358756977 3.4132287456e-05 3.7603468738e-05 4.1953254543e-05 3.6608317483e-05 -0.69025789484 0.67467732509
11330000000.0 -0.75221969726 0.60472779062 4.0216354333e-05 2.5694455523e-05 1.5368034488e-05 3.7924945313e-05 -0.68901901129 0.6761037605
11330500000.0 -0.75129833798 0.60578335697 3.7088299437e-05 3.3791440525e-05 2.9112264558e-05 3.3755524595e-05 -0.68791889039 0.67753576989
11331000000.0 -0.75009997843 0.60728729871 4.4538300849e-05 2.9304694155e-05 3.1912387256e-05 2.636984609e-05 -0.6866025144 0.67866810545
11331500000.0 -0.74914926701 0.60826863079 4.6391280915e-05 3.1098987141e-05 2.0908770244e-05 4.1014635634e-05 -0.68509798191 0.67991136784
11332000000.0 -0.74835607527 0.60984221654 3.0683622419e-05 2.889723037e-05 3.8815359351e-05 4.5538501261e-05 -0.68390706179 0.68102648251
11332500000.0 -0.7473149462 0.61095262061 3.1373357805e-05 2.5791307381e-05 4.5204707127e-05 2.6102563039e-05 -0.6825212208 0.68228688871
11333000000.0 -0.74624304079 0.61238478073 4.4673196941e-05 2.0848091694e-05 3.9276784058e-05 3.9499299536e-05 -0.68153281469 0.68370802068
11333500000.0 -0.74522278006 0.61332563783 2.5304052518e-05 3.6087342914e-05 3.559814744e-05 2.5980174837e-05 -0.68010174547 0.68528202586
11334000000.0 -0.74431959649 0.61464558687 4.1794179331e-05 3.1493991725e-05 3.6308254628e-05 3.3084050289e-05 -0.67888081537 0.6859584158
11334500000.0 -0.74325611114 0.61633092054 3.5764798873e-05 3.020056693e-05 3.5488882936e-05 2.8430379876e-05 -0.67754546387 0.68762902707
11335000000.0 -0.7420024139 0.61752978044 4.1927616663e-05 2.8509484776e-05 4.1241272899e-05 2.9934659781e-05 -0.6763512956 0.68888388231
11335500000.0 -0.74095284344 0.61852154304 3.334957897e-05 1.392264034e-05 4.046513435e-05 5.5751730296e-05 -0.67496929743 0.69000771397
11336000000.0 -0.73988502662 0.62009910987 3.3110954067e-05 3.4296781114e-05 3.3029251463e-05 3.039372808e-05 -0.67361787689 0.69133579107
11336500000.0 -0.73887860592 0.62089205257 4.3592168734e-05 2.7308739318e-05 3.8555616911e-05 2.6248425044e-05 -0.67224031811 0.69312064084
11337000000.0 -0.73797211362 0.62233408973 3.7871459715e-05 3.0559777335e-05 3.6385050751e-05 2.7370451638e-05 -0.671150267 0.69437943845
11337500000.0 -0.7366418114 0.62357108687 3.4680209071e-05 2.872796902e-05 3.9814923465e-05 2.4364243747e-05 -0.66969506771 0.69549243251
11338000000.0 -0.73571648547 0.62486242307 3.776863901e-05 3.8041911743e-05 3.1114636999e-05 3.5609644676e-05 -0.66821883258 0.69660003945
11338500000.0 -0.7347005994 0.62595811736 3.9637945469e-05 3.4774361766e-05 3.8289552701e-05 2.9528244953e-05 -0.66708967006 0.69786580553
11339000000.0 -0.73371328731 0.62735923002 3.8080818887e-05 3.4681368123e-05 3.6765399474e-05 3.7189956751e-05 -0.66540361782 0.69942405914
11339500000.0 -0.73268587327 0.62875506423 4.2177376779e-05 3.5449912685e-05 5.0906344309e-05 3.9034870524e-05 -0.66422115517 0.7005161949
11340000000.0 -0.73120739995 0.62989461706 3.7897727149e-05 3.3096069788e-05 4.4410972819e-05 3.7678616561e-05 -0.66278345056 0.70195046493
11340500000.0 -0.73042898298 0.6313038481 2.9877977584e-05 4.1599799621e-05 3.5874191316e-05 2.6700388637e-05 -0.66115325726 0.70303543841
11341000000.0 -0.72929956216 0.63235984878 4.7034461852e-05 2.8290090646e-05 3.2232023663e-05 3.7853314381e-05 -0.65977380379 0.70431016524
11341500000.0 -0.72812953726 0.63382298511 4.0877477021e-05 3.0515258253e-05 3.653825104e-05 3.1792565676e-05 -0.65859992118 0.70572858365
11342000000.0 -0.72700434627 0.63516309251 3.8703366812e-05 4.4956148701e-05 3.5483814541e-05 2.770514559e-05 -0.65715980561 0.70723615324
11342500000.0 -0.72581193212 0.63623855796 3.319010445e-05 4.4021544677e-05 4.7894774354e-05 3.2090987347e-05 -0.65582020133 0.70844538298
11343000000.0 -0.72481730755 0.63769404293 3.8188657032e-05 3.7030162467e-05 3.2317464436e-05 3.4848622889e-05 -0.65443092165 0.7097943899
11343500000.0 -0.72351779985 0.63886721687 4.0371487974e-05 4.1007873025e-05 3.7148972841e-05 4.3169446909e-05 -0.65316268145 0.71102219208
11344000000.0 -0.72249278705 0.63998583534 3.967701597e-05 3.3530188539e-05 3.4721869221e-05 4.0149203073e-05 -0.65143897233 0.71225801433
11344500000.0 -0.72158243805 0.6411826777 3.830648584e-05 2.3739789297e-05 4.1453474748e-05 3.7421662112e-05 -0.65010214624 0.71343285287
11345000000.0 -0.7205341473 0.64285414562 3.9596249283e-05 2.9335586628e-05 4.8329161392e-05 3.99711431e-05 -0.64872712502 0.71488797283
11345500000.0 -0.71936194012 0.64381811945 4.3606851202e-05 2.0123060813e-05 4.9321623186e-05 3.6672159289e-05 -0.64733960893 0.71622998427
11346000000.0 -0.71800545345 0.64502775756 3.1736470276e-05 2.9222184226e-05 3.1528206993e-05 3.3559596636e-05 -0.64578245963 0.71743455563
11346500000.0 -0.71692126164 0.64656367766 5.0732716583e-05 3.6146256834e-05 4.9507821219e-05 2.9566765992e-05 -0.64399257135 0.71876121724
11347000000.0 -0.71542409359 0.64779758888 4.2465540628e-05 3.9635064077e-05 3.4009457663e-05 3.0196119089e-05 -0.64265672299 0.72004924503
11347500000.0 -0.71465438311 0.64875070173 3.915290938e-05 2.3171106888e-05 3.6566117839e-05 3.797991222e-05 -0.64118978667 0.72131322713
11348000000.0 -0.71355102668 0.65001338027 3.6253233745e-05 3.3575708031e-05 4.8223925319e-05 3.0120696926e-05 -0.63960310301 0.72266200408
11348500000.0 -0.71245451304 0.65141771887 3.9282287629e-05 2.5845093431e-05 4.260369471e-05 3.4637451416e-05 -0.63836570985 0.72390223453
11349000000.0 -0.71109058338 0.65270780671 4.3047175993e-05 4.3343390243e-05 4.005042517e-05 2.658373318e-05 -0.63654408022 0.72543039165
11349500000.0 -0.70989611532 0.6542751435 4.5874773319e-05 2.7127313139e-05 4.6121009547e-05 3.2618376582e-05 -0.63521251347 0.72663530472
11350000000.0 -0.70867800542 0.65519060236 3.0230938374e-05 2.4174904331e-05 4.1517171225e-05 4.2930147892e-05 -0.63344841018 0.72793395692
11350500000.0 -0.70749302143 0.65629331322 4.1731955865e-05 4.1283439559e-05 5.2375190094e-05 3.3051338979e-05 -0.63199067796 0.72916833515
11351000000.0 -0.70631440649 0.65753420288 4.9659543892e-05 3.5222464094e-05 2.8988646513e-05 4.8727619552e-05 -0.63039383824 0.73055121097
11351500000.0 -0.7048924416 0.65898374659 4.7724811863e-05 2.989320118e-05 4.7565692051e-05 3.9519415552e-05 -0.62872158419 0.73191841454
11352000000.0 -0.70399249731 0.66018842048 4.5044082726e-05 3.4720994983e-05 3.8831909633e-05 2.4576947104e-05 -0.62741859525 0.7332157718
11352500000.0 -0.70276289331 0.66165492422 5.2821067959e-05 4.3735275489e-05 4.3446293625e-05 4.0020404549e-05 -0.6257425328 0.73448793909
11353000000.0 -0.70164111515 0.66272694553 4.5408174285e-05 3.7990609342e-05 4.680120718e-05 3.0588832886e-05 -0.62441564183 0.73593728343
11353500000.0 -0.70029388663 0.66392013431 3.6688182987e-05 3.1174371302e-05 3.9131388365e-05 1.9254480046e-05 -0.622772494 0.73705775396
11354000000.0 -0.69913683881 0.66529101093 4.8369962308e-05 3.1517672426e-05 5.0440041235e-05 2.9726398611e-05 -0.62080805213 0.73836395158
11354500000.0 -0.6976951398 0.66656292498 5.6694907741e-05 3.7929068201e-05 4.190257564e-05 2.176377704e-05 -0.61931321777 0.73963811928
11355000000.0 -0.69652426649 0.6677054235 5.2695628984e-05 3.4958803575e-05 4.5025689518e-05 3.7060827373e-05 -0.61778589766 0.74132415786
11355500000.0 -0.69554793695 0.66925493835 4.5182059637e-05 3.3653139657e-05 4.5071224165e-05 2.3740482481e-05 -0.61638048967 0.74255972008
11356000000.0 -0.69412128342 0.67043463757 4.654225307e-05 3.7007915064e-05 4.3672008523e-05 4.3467751525e-05 -0.61442052799 0.74359878406
11356500000.0 -0.69284414448 0.67138194349 5.2418448532e-05 2.4356834261e-05 3.451255542e-05 3.3842398528e-05 -0.6127172452 0.7453542517
11357000000.0 -0.69165328829 0.6729861922 4.4925448157e-05 2.7890543292e-05 4.3967539481e-05 3.8869084536e-05 -0.61106988833 0.74630359505
11357500000.0 -0.69043863472 0.67410688059 4.2359400144e-05 2.8797520315e-05 4.5588208602e-05 3.8854423021e-05 -0.60953660933 0.74766915247
11358000000.0 -0.68906247618 0.67553422781 5.7774659211e-05 3.1863443708e-05 3.9316459156e-05 3.7177443117e-05 -0.60809646943 0.74918049256
11358500000.0 -0.68768290486 0.67664636413 6.2414402503e-05 3.4931548928e-05 5.5180403447e-05 3.7020912534e-05 -0.60635723419 0.75042220078
11359000000.0 -0.68641840377 0.67808109745 4.1241647573e-05 4.5087297221e-05 4.9429041836e-05 3.6175372856e-05 -0.60471279798 0.7519661183
11359500000.0 -0.68520708848 0.67938150854 4.7308133682e-05 4.1649796064e-05 4.1583391595e-05 2.507853619e-05 -0.60287302805 0.75318062126
11360000000.0 -0.68386952448 0.68067179846 4.9159545355e-05 4.0241343425e-05 4.5250744644e-05 3.4595627991e-05 -0.60106507934 0.75438557948
11360500000.0 -0.68267913439 0.68189332536 5.7817035979e-05 3.1221150712e-05 4.9295154395e-05 4.4194041196e-05 -0.5992134063 0.75554957606
11361000000.0 -0.68135617455 0.68314468069 3.1329090683e-05 2.4746404895e-05 5.3763022818e-05 3.5247024473e-05 -0.59779318353 0.75702960208
11361500000.0 -0.68010338972 0.6845241128 4.2732218019e-05 4.3026376852e-05 4.7599841712e-05 3.9099422621e-05 -0.59600713716 0.75827314162
11362000000.0 -0.67860559674 0.68589074965 4.9226490085e-05 4.6523206415e-05 4.3219297553e-05 3.5846605566e-05 -0.59394991397 0.75951038527
11362500000.0 -0.6771645197 0.68707417631 4.8413535042e-05 3.0904278639e-05 5.7926751512e-05 3.7978463728e-05 -0.59246450744 0.76131857194
11363000000.0 -0.67599215896 0.68801505724 5.2088187336e-05 2.7184948508e-05 4.6535392766e-05 3.9662250295e-05 -0.59071462082 0.76280806249
11363500000.0 -0.67460256906 0.68943425523 5.3655304208e-05 4.2285517487e-05 5.1439496248e-05 3.5882027634e-05 -0.58878465968 0.7638281383
11364000000.0 -0.67322321496 0.69079453457 4.5925922863e-05 3.330209046e-05 5.3940284e-05 3.1932234936e-05 -0.58712573534 0.76552965554
11364500000.0 -0.67191088849 0.69202781379 4.9683912263e-05 3.0383266037e-05 6.256699949e-05 3.9897163925e-05 -0.58518433399 0.76651176151
11365000000.0 -0.67062759718 0.69321925438 5.7398119624e-05 4.3643864215e-05 5.2285572263e-05 4.4519052002e-05 -0.58339829231 0.7679383381
11365500000.0 -0.66934794172 0.69447763858 5.5859089029e-05 3.1768286431e-05 5.6420134942e-05 3.811831182e-05 -0.5811086756 0.76935146058
11366000000.0 -0.66795593594 0.69569007502 4.9815845481e-05 3.4767920706e-05 5.1735691274e-05 4.220036485e-05 -0.57946698774 0.77044176511
11366500000.0 -0.66630239778 0.69719126712 5.3903839801e-05 3.7037072868e-05 4.5510024389e-05 3.0874408206e-05 -0.57769984808 0.77160885734
11367000000.0 -0.66526948115 0.69837382143 4.1322904964e-05 2.8391842884e-05 6.2783878441e-05 3.7968598136e-05 -0.57578084953 0.77329639099
11367500000.0 -0.66380807684 0.69970730655 6.9912715351e-05 2.4085942618e-05 5.8579226167e-05 4.7516644198e-05 -0.57395883929 0.77480725518
11368000000.0 -0.66215728566 0.70102707485 6.2282126893e-05 4.496502062e-05 5.7176758785e-05 2.67805028e-05 -0.5722533249 0.77622082173
11368500000.0 -0.66078824115 0.70213853081 4.0392035723e-05 4.4297037382e-05 6.671599838e-05 3.4463223582e-05 -0.57032782974 0.7773395974
11369000000.0 -0.65947907478 0.70365240589 6.0686638843e-05 2.5975657368e-05 5.1086657588e-05 4.5951374786e-05 -0.56859203446 0.77883031617
11369500000.0 -0.65808524516 0.70496731244 5.2965622059e-05 3.8899364538e-05 4.0691313111e-05 3.244830893e-05 -0.56627405849 0.7801048841
11370000000.0 -0.65660766872 0.7061751751 5.3523490172e-05 2.8403276982e-05 5.2160775579e-05 3.4719494815e-05 -0.56453504143 0.78136736712
11370500000.0 -0.65525951648 0.70720786441 5.618521152e-05 4.5687920285e-05 5.7785887305e-05 2.9258314179e-05 -0.56249800625 0.78267586083
