! Created with skrf (http://scikit-rf.org).
# Hz S RI R 50.0 
!freq ReS11 ImS11 ReS21 ImS21 ReS12 ImS12 ReS22 ImS22
11300000000.0 -0.80603415691 0.52879247444 2.349681597e-05 2.6409011812e-05 3.3598183516e-05 4.3036628266e-05 -0.75568567152 0.59894070844
11300500000.0 -0.80535797158 0.52997843626 1.1961651407e-05 4.0814639186e-05 1.6013864997e-05 3.8204549604e-05 -0.75471610319 0.60033056071
11301000000.0 -0.80455639402 0.53116607163 1.0981908597e-05 2.0119078491e-05 4.0036456821e-05 3.4105602393e-05 -0.75382578688 0.60168409911
11301500000.0 -0.80378666297 0.53240714751 2.0417793947e-05 4.5070348855e-05 3.1643002392e-05 3.331726326e-05 -0.75291276831 0.60280447466
11302000000.0 -0.8028653437 0.53391833803 2.0677295148e-05 2.8421293572e-05 3.0515632787e-05 2.5035062938e-05 -0.75197547855 0.6040143614
11302500000.0 -0.80212867421 0.53512814943 2.1699542562e-05 2.4855386853e-05 1.1819449422e-05 4.1865930291e-05 -0.75112920878 0.6052273152
11303000000.0 -0.80134918452 0.53628845115 2.1884220374e-05 2.7926614397e-05 3.4726674574e-05 3.1962840279e-05 -0.75007269822 0.60694876573
11303500000.0 -0.80043072298 0.5378137357 2.5573533591e-05 3.3972364691e-05 1.9154836334e-05 2.0347647313e-05 -0.74905902875 0.60800929269
11304000000.0 -0.79946715866 0.53908845671 1.7683592553e-05 3.2560905234e-05 3.5741230486e-05 2.836906677e-05 -0.747854931 0.60898976349
11304500000.0 -0.79877690785 0.54043737964 3.2711227042e-05 2.230372502e-05 3.5332354928e-05 3.3480117559e-05 -0.74701458115 0.61029449514
11305000000.0 -0.79810108398 0.54164751487 2.1461979028e-05 3.6365040132e-05 2.3148866817e-05 2.6485696643e-05 -0.7454758456 0.61155058316
11305500000.0 -0.79692383355 0.54299011684 3.9653879384e-05 4.3988017431e-05 2.9159127207e-05 3.5846684688e-05 -0.74492006503 0.61314668992
11306000000.0 -0.79625862394 0.54430376517 2.4538071083e-05 4.1721774871e-05 2.873439993e-05 2.8129245062e-05 -0.74382851492 0.61442549115
11306500000.0 -0.79531318981 0.54517070832 2.6409004515e-05 1.3866827387e-05 2.2347602959e-05 3.3360096625e-05 -0.74280607083 0.61549007501
11307000000.0 -0.79454158486 0.54660877702 4.0380255946e-05 3.4234947631e-05 2.0774026636e-05 3.3917494795e-05 -0.7418703461 0.61690415963
11307500000.0 -0.79357502897 0.54778722069 2.2505179883e-05 2.1462893964e-05 1.8719352816e-05 3.9129746257e-05 -0.74093802163 0.61812060765
11308000000.0 -0.7930004672 0.54894387122 2.7441130357e-05 3.1370583907e-05 2.287139108e-05 2.4557991297e-05 -0.74013485452 0.61934442723
11308500000.0 -0.79191536669 0.55047781249 4.6880107898e-05 4.1895948332e-05 1.1545590356e-05 3.6000132454e-05 -0.73855891465 0.6204375837
11309000000.0 -0.79096734555 0.55175378612 3.3231600272e-05 3.6122983155e-05 3.1787656993e-05 2.0346814892e-05 -0.73751420154 0.62190961766
11309500000.0 -0.79035563826 0.55305600819 3.437897368e-05 2.5146635781e-05 2.0837193558e-05 2.0544187415e-05 -0.73640329018 0.62325994132
11310000000.0 -0.7897825165 0.55440550343 1.021401935e-05 4.1606128526e-05 3.0004188399e-05 3.858688087e-05 -0.73574231228 0.62483636444
11310500000.0 -0.78841609311 0.5555005758 3.07862077e-05 4.125748402e-05 2.8283155873e-05 3.529930981e-05 -0.73414398838 0.6260218869
11311000000.0 -0.78756638873 0.5566915264 2.7326219564e-05 3.0882218617e-05 2.319650061e-05 2.4294702632e-05 -0.73318634979 0.62719655395
11311500000.0 -0.78673474512 0.55778135503 3.0841177478e-05 1.9520074724e-05 2.9174041819e-05 2.9625912639e-05 -0.73233997931 0.62851505368
11312000000.0 -0.7859014118 0.55927048709 2.6653740561e-05 3.0710898901e-05 4.1414208025e-05 3.4159905172e-05 -0.73075787107 0.62968065004
11312500000.0 -0.78526854785 0.56034982069 2.4991697989e-05 2.1664857815e-05 2.7779281125e-05 2.663210791e-05 -0.7301269767 0.6310736312
11313000000.0 -0.78424886625 0.561844174 3.4267808217e-05 3.2583431742e-05 2.3009023316e-05 2.8123013054e-05 -0.72882731061 0.63229981847
11313500000.0 -0.78338116048 0.56298579103 2.5742860869e-05 3.0979161646e-05 4.8253218566e-05 2.3956474053e-05 -0.72805556507 0.63364061144
11314000000.0 -0.7822546179 0.56445408009 2.81846966e-05 2.7195332096e-05 3.1266276942e-05 2.8605723466e-05 -0.72685516868 0.63463901382
11314500000.0 -0.78141921297 0.56581648182 3.9055272973e-05 3.2781764948e-05 3.2819725032e-05 2.3197628725e-05 -0.72562948058 0.63601542489
11315000000.0 -0.78054005047 0.56690325283 2.484247671e-05 2.1859460641e-05 3.0381735565e-05 4.0632527857e-05 -0.72471358668 0.63770242616
11315500000.0 -0.77983833968 0.56821303466 3.5095629391e-05 3.0725383635e-05 3.28961197e-05 1.6049886314e-05 -0.72333414436 0.6386753501
11316000000.0 -0.77873685856 0.56964358901 3.6885167032e-05 3.1255183465e-05 2.5294787249e-05 1.9755296548e-05 -0.72247676716 0.63980933346
11316500000.0 -0.77763999727 0.57070443486 4.4768767015e-05 2.587181916e-05 3.1084787947e-05 2.9430382631e-05 -0.72103448612 0.64091375144
11317000000.0 -0.77711957377 0.57215930338 2.8066521232e-05 2.9219118374e-05 2.8967027687e-05 2.4735466698e-05 -0.72014121743 0.64247657786
11317500000.0 -0.7761021794 0.57325206267 3.2454845719e-05 2.9190987842e-05 2.1125279192e-05 2.3270863585e-05 -0.71867316132 0.64367503173
11318000000.0 -0.77528546315 0.57465303792 2.9689725694e-05 2.9588046227e-05 2.4634726217e-05 3.3056284035e-05 -0.71746476997 0.64520330108
11318500000.0 -0.7741492824 0.57583583683 4.1792578781e-05 3.7729309813e-05 3.0799125485e-05 3.1922375933e-05 -0.71647492781 0.64632320457
11319000000.0 -0.7733730763 0.57703299525 3.1946141198e-05 2.6943318959e-05 3.2927990575e-05 3.8604445758e-05 -0.71577468148 0.64809004972
11319500000.0 -0.77233386377 0.57826027018 3.3487960522e-05 3.1845481442e-05 2.8673813302e-05 2.4011819386e-05 -0.71432271452 0.649123492
11320000000.0 -0.77158840915 0.57965061169 3.1995597853e-05 1.4601657549e-05 2.881336387e-05 4.9761306956e-05 -0.71300518984 0.65030656277
11320500000.0 -0.77069103455 0.58065268032 2.4627868749e-05 2.152743907e-05 3.2831797694e-05 2.5905380818e-05 -0.71198593668 0.6516481346
11321000000.0 -0.7694276067 0.58220587117 3.6557507994e-05 2.5473746245e-05 3.5157206754e-05 3.2262103296e-05 -0.71080068706 0.6529120348
11321500000.0 -0.76882948465 0.58339237253 2.4619721822e-05 3.5880301391e-05 2.8058820377e-05 3.2446838508e-05 -0.7094716065 0.65409154941
11322000000.0 -0.76763945814 0.58465134 3.4061421375e-05 3.3715557541e-05 3.2441959691e-05 2.9026713232e-05 -0.70874360784 0.6553121569
11322500000.0 -0.76697183689 0.58612173504 2.9318588744e-05 1.8988581903e-05 2.4956843953e-05 1.9401831795e-05 -0.70714910098 0.65666341695
11323000000.0 -0.76614519936 0.58701684648 2.5619819399e-05 1.9939414966e-05 3.1201487808e-05 2.7161228116e-05 -0.70620136852 0.65804038518
11323500000.0 -0.7647855251 0.58831709899 4.0150247311e-05 2.1052582371e-05 2.8667655052e-05 3.5698990588e-05 -0.70507359071 0.65928345948
11324000000.0 -0.76409281563 0.5899800046 3.0504216019e-05 2.2280601536e-05 4.5955495208e-05 4.4004654579e-05 -0.7039130802 0.6603649856
11324500000.0 -0.76292766861 0.59099610729 3.8023244888e-05 3.2760107572e-05 2.6386106526e-05 3.3769030993e-05 -0.70257355481 0.66190739122
11325000000.0 -0.76193169028 0.59206155447 3.0761826632e-05 3.3732754048e-05 3.8361529254e-05 4.5854957746e-05 -0.70146271074 0.66298267122
11325500000.0 -0.76122083925 0.59369500763 3.319376778e-05 3.4971356883e-05 2.8573376279e-05 3.6964099369e-05 -0.70018192789 0.66446639117
11326000000.0 -0.75998150537 0.59488811315 2.8276875316e-05 4.8182693401e-05 4.2923985057e-05 3.8853888953e-05 -0.69885158376 0.66604011222
11326500000.0 -0.75894105803 0.59611359455 2.9759448902e-05 3.0803427098e-05 2.7583187147e-05 4.4201627212e-05 -0.69780922166 0.66704493235
11327000000.0 -0.75795488942 0.59742710388 3.6386378799e-05 3.2218039286e-05 3.0348908073e-05 2.8711255278e-05 -0.69644043263 0.66829250535
11327500000.0 -0.75709051268 0.59845786019 3.0696973224e-05 3.9627769413e-05 3.3647301602e-05 2.5587039047e-05 -0.69524583665 0.6695937998
11328000000.0 -0.75624583943 0.5996944324 2.2083229946e-05 2.9775106104e-05 3.2027673504e-05 2.577352617e-05 -0.69404283019 0.67104302434
11328500000.0 -0.75529464985 0.60115408238 3.5256986025e-05 2.0591384547e-05 3.2969925205e-05 2.9053861972e-05 -0.69276928718 0.67230795081
11329000000.0 -0.75407294174 0.60242214943 4.0873443263e-05 4.745740954e-05 3.3317328673e-05 2.626515499e-05 -0.69160592941 0.67345082148
11329500000.0 -0.75308812791 0.60358637841 3.7360921679e-05 3.2855509145e-05 3.4553306394e-05 1.9634969497e-05 -0.69017333243 0.67470625435
11330000000.0 -0.75197909795 0.60513999035 2.4540353963e-05 4.4137053009e-05 3.9600628558e-05 2.8307167322e-05 -0.68890170435 0.67615506788
11330500000.0 -0.7511878986 0.60616210374 3.1520997066e-05 3.9216541235e-05 4.6635555616e-05 2.4637326877e-05 -0.68776665176 0.67759974103
11331000000.0 -0.75008919993 0.60732887551 3.6066716312e-05 2.2865169693e-05 3.4194955728e-05 3.3999250695e-05 -0.68655474221 0.67865480485
11331500000.0 -0.74923853731 0.60834078458 3.1765845117e-05 3.3434632387e-05 3.0950471118e-05 3.868943332e-05 -0.68505463604 0.67997756356
11332000000.0 -0.74828861985 0.61000599695 2.4364748244e-05 3.6616318904e-05 2.8986202642e-05 2.9323355086e-05 -0.68392475884 0.68108669486
11332500000.0 -0.74735955157 0.61112501904 2.9640583774e-05 3.5050496808e-05 3.1265930141e-05 2.7315752486e-05 -0.68252578172 0.68239815657
11333000000.0 -0.74637785572 0.61252568863 2.6323081864e-05 4.0278365893e-05 2.1912020601e-05 3.7110972932e-05 -0.68154257929 0.68379210477
11333500000.0 -0.74508949819 0.61348011777 3.9857471139e-05 2.6427439611e-05 3.4187036485e-05 2.6718964602e-05 -0.6801479186 0.68534945716
11334000000.0 -0.74450148566 0.61467274371 3.724266941e-05 2.1257204033e-05 3.5368071696e-05 2.5163033633e-05 -0.67888085231 0.68609550484
11334500000.0 -0.74332175252 0.6163550411 3.8628602934e-05 1.8121596515e-05 4.4221941548e-05 4.2052616624e-05 -0.67750089347 0.68784076121
11335000000.0 -0.74196850183 0.61747423127 4.5591510917e-05 2.9108492387e-05 3.7151984508e-05 2.6854672823e-05 -0.6762998066 0.68897535655
11335500000.0 -0.74086678177 0.61882898538 3.0297615995e-05 3.371580201e-05 3.9356352515e-05 2.1838200977e-05 -0.67483892266 0.69013929202
11336000000.0 -0.73994503696 0.62000972114 4.3990382964e-05 2.971322667e-05 3.7117820051e-05 3.9131750097e-05 -0.67359504393 0.6914724645
11336500000.0 -0.73892737029 0.62107965413 3.819243056e-05 3.3878530734e-05 3.7379333903e-05 3.441946859e-05 -0.6721943769 0.69321495722
11337000000.0 -0.73803620336 0.6223740756 3.0520610106e-05 3.0550709821e-05 3.1672102172e-05 3.5805984399e-05 -0.67112525401 0.69446820249
11337500000.0 -0.73689689202 0.62353972139 3.1576811099e-05 2.4863543476e-05 4.0928981931e-05 3.7924889049e-05 -0.66967392404 0.69562318035
11338000000.0 -0.73579496222 0.62476395803 3.0889563541e-05 3.7049057061e-05 4.5431594717e-05 2.0909845417e-05 -0.66820527291 0.69671971824
11338500000.0 -0.73476493223 0.62590086829 3.9346263825e-05 2.1683692244e-05 2.7681946809e-05 3.9182391588e-05 -0.66703386368 0.69798048313
11339000000.0 -0.73379338201 0.62743149811 3.5934103382e-05 3.8218212135e-05 4.0409398017e-05 3.8887860724e-05 -0.66539794454 0.6994930313
11339500000.0 -0.73281920256 0.62849490911 2.7884405193e-05 2.2999510528e-05 4.1912068203e-05 3.2517916024e-05 -0.66419720436 0.70051648004
11340000000.0 -0.73135533127 0.62991449242 3.5686303392e-05 3.5594266957e-05 2.7749882312e-05 2.7148861585e-05 -0.662715971 0.70200230447
11340500000.0 -0.73036342906 0.6311549631 4.2209227791e-05 3.832923249e-05 2.5281089655e-05 3.5705086896e-05 -0.66098953339 0.70312373575
11341000000.0 -0.72950894363 0.63244315813 2.500093475e-05 3.978374099e-05 3.1927947834e-05 2.9938867992e-05 -0.65968297109 0.70436662633
11341500000.0 -0.72836077584 0.63366573943 3.3258595755e-05 3.042450103e-05 2.3172328271e-05 3.0459871848e-05 -0.65846773815 0.70571323222
11342000000.0 -0.72710787409 0.63514992448 2.8683329419e-05 3.8998551853e-05 4.0551659856e-05 3.334782088e-05 -0.65702038971 0.70726133798
11342500000.0 -0.72608968821 0.63598932013 3.0500507368e-05 2.3304732918e-05 3.4982018651e-05 3.0528109963e-05 -0.65573458861 0.70848354979
11343000000.0 -0.72504237767 0.6375661765 3.6558133253e-05 2.7234806244e-05 3.3278486245e-05 2.3419528037e-05 -0.65423313202 0.70983933019
11343500000.0 -0.72378083749 0.63863805125 4.0642875902e-05 2.8818835705e-05 3.785562731e-05 3.3168950222e-05 -0.65304079984 0.71103009234
11344000000.0 -0.7226867183 0.63982414407 5.0015146001e-05 2.201293914e-05 4.3910775459e-05 2.0406584267e-05 -0.65138736187 0.71231347671
11344500000.0 -0.72163614224 0.64113103105 3.9208965767e-05 3.2386786574e-05 4.2123521547e-05 3.2563144471e-05 -0.6500170879 0.71344009945
11345000000.0 -0.72067965199 0.64267100049 2.8906493743e-05 4.1813085866e-05 3.9723403104e-05 3.3621036738e-05 -0.64866037996 0.71483501289
11345500000.0 -0.7193755685 0.643788662 4.2587628364e-05 3.5908520395e-05 4.3759237477e-05 3.5976104615e-05 -0.64711639703 0.71619284734
11346000000.0 -0.71809335871 0.64469829291 4.2811054336e-05 3.3187814421e-05 4.3373322199e-05 3.4988330859e-05 -0.64573111143 0.71754836702
11346500000.0 -0.71706693252 0.64644893147 3.408426787e-05 3.0732434311e-05 3.5193606829e-05 3.2921180513e-05 -0.64392864306 0.7187436585
11347000000.0 -0.71557429398 0.64770647602 5.3349472187e-05 3.3689232145e-05 4.3733756587e-05 2.9563235218e-05 -0.64249827918 0.72020612404
11347500000.0 -0.71462524435 0.64870323014 3.9411927312e-05 3.3760141469e-05 3.2327092703e-05 3.4117296166e-05 -0.64104995917 0.72142475083
11348000000.0 -0.71360396765 0.64989173261 3.4102344864e-05 3.3557979733e-05 4.4590861805e-05 2.4569040235e-05 -0.63950415148 0.72284318924
11348500000.0 -0.71264360417 0.65130246079 3.244920462e-05 2.7822942908e-05 2.748261991e-05 2.9217078463e-05 -0.63815570553 0.72402517721
11349000000.0 -0.71144296789 0.65260335307 3.0097563365e-05 2.584984776e-05 3.5308826431e-05 3.2908603915e-05 -0.63640691213 0.72552307018
11349500000.0 -0.7101033494 0.65403531864 3.0627781061e-05 2.9011095102e-05 3.9375741775e-05 3.4311209674e-05 -0.63511054847 0.72657260838
11350000000.0 -0.70874110313 0.65495077471 3.8299965124e-05 4.2463390876e-05 4.1254048055e-05 2.7912118054e-05 -0.63331075715 0.72805314939
11350500000.0 -0.70776962265 0.65605241876 3.6617433449e-05 4.3250910177e-05 4.1696893487e-05 3.5991003102e-05 -0.63202714635 0.72922077823
11351000000.0 -0.70667227281 0.6573979693 4.1153037796e-05 3.3973906149e-05 3.1534386161e-05 3.0304273196e-05 -0.63021694267 0.73067879864
11351500000.0 -0.70508100855 0.65878792358 4.0517619945e-05 3.3706267768e-05 3.5137834381e-05 3.370498292e-05 -0.62858998231 0.73188805096
11352000000.0 -0.70435325578 0.66000837539 2.7007414092e-05 2.7886563754e-05 3.4350164613e-05 2.5128835476e-05 -0.62716879279 0.73335659476
11352500000.0 -0.70297595811 0.66134535306 4.182088193e-05 3.1804006037e-05 3.8198256012e-05 3.5596502214e-05 -0.62551804345 0.73459884385
11353000000.0 -0.70194168813 0.66243553319 2.9895540629e-05 2.8566220267e-05 3.645769376e-05 3.0388050381e-05 -0.6242922814 0.73603992744
11353500000.0 -0.70062942376 0.66379363025 2.8988842681e-05 3.2847754142e-05 4.0003307788e-05 2.7781625235e-05 -0.62271662609 0.73711123988
11354000000.0 -0.69926652145 0.66515925616 4.9348727312e-05 3.8845206134e-05 4.2418827473e-05 2.3833761072e-05 -0.62078903633 0.73836423445
11354500000.0 -0.6981068795 0.66639221778 4.186283103e-05 2.521077559e-05 5.2936293616e-05 3.848058112e-05 -0.6192580902 0.73973497522
11355000000.0 -0.69692898444 0.66760655507 3.8244907027e-05 3.1785129098e-05 4.4744701426e-05 3.6068109165e-05 -0.61774713621 0.74121134267
11355500000.0 -0.69577861373 0.66889109248 3.2987062387e-05 2.4284185249e-05 3.6891774575e-05 3.7984720371e-05 -0.61631121405 0.74261861718
11356000000.0 -0.69459652773 0.67014634359 4.8916787259e-05 2.9978520207e-05 5.7900479044e-05 2.7525534779e-05 -0.61420335869 0.74381853782
11356500000.0 -0.69331791671 0.67128233334 3.5062992833e-05 2.4711689737e-05 3.7477118854e-05 3.0162425279e-05 -0.61247948118 0.74542800558
11357000000.0 -0.69207394885 0.67257457421 4.1177777957e-05 3.5627184566e-05 4.9296078927e-05 2.4242848022e-05 -0.61096031873 0.74631716599
11357500000.0 -0.69081551193 0.67380180891 4.3196491425e-05 3.0028144274e-05 4.4814684882e-05 2.8727887652e-05 -0.60947600387 0.74770582228
11358000000.0 -0.68958471757 0.67504449353 4.7416628383e-05 2.1700302115e-05 5.199946612e-05 3.2075253085e-05 -0.60782722695 0.74921463876
11358500000.0 -0.68814535556 0.67629938406 4.5884637197e-05 2.7514136386e-05 5.0130850644e-05 3.6486386391e-05 -0.60613964712 0.75045863377
11359000000.0 -0.68692417716 0.67755779448 4.6057411081e-05 3.8108297329e-05 4.8847418643e-05 3.7182818211e-05 -0.60450562025 0.75206237403
11359500000.0 -0.68567457723 0.67889377971 3.9194766792e-05 2.7919096628e-05 4.2757549571e-05 4.2618152927e-05 -0.60278296923 0.75318361119
11360000000.0 -0.68450839965 0.68022464076 4.7093238171e-05 2.7723284597e-05 4.2671997715e-05 2.7963239589e-05 -0.60087024868 0.75451275463
11360500000.0 -0.68318940482 0.68162148465 4.186033005e-05 3.0665557379e-05 4.3927515841e-05 2.8178092208e-05 -0.59893255248 0.75580767748
11361000000.0 -0.68179976798 0.68259573931 3.3374947174e-05 2.6057837931e-05 4.233023825e-05 3.6474910198e-05 -0.59771859014 0.75714679888
11361500000.0 -0.68077377484 0.68411565331 3.249878596e-05 2.7817217075e-05 3.9452100664e-05 2.7325219366e-05 -0.59582007014 0.75830287256
11362000000.0 -0.6793214519 0.68530656666 5.2310467808e-05 2.9879689873e-05 4.5249895679e-05 2.9564489547e-05 -0.5938031883 0.75961532975
11362500000.0 -0.67771258869 0.68644593569 4.9107283371e-05 3.6903836404e-05 4.900538377e-05 2.8142560286e-05 -0.59218986365 0.76137770518
11363000000.0 -0.6767976397 0.68747625664 5.4307663419e-05 2.920319132e-05 4.2283311894e-05 2.9727906266e-05 -0.59050439851 0.76283456641
11363500000.0 -0.67533009185 0.68896326437 3.9730070145e-05 2.7438933254e-05 5.0174593891e-05 2.5446711422e-05 -0.58857535477 0.764000472
11364000000.0 -0.67390041303 0.69024734936 5.0647064164e-05 3.2952074874e-05 4.2407831059e-05 3.2025184022e-05 -0.58715913723 0.76557015481
11364500000.0 -0.67259919084 0.69144075097 4.5228852855e-05 2.8748092156e-05 4.6581211394e-05 3.9068345581e-05 -0.58507414225 0.76668947564
11365000000.0 -0.67131539355 0.69275752172 5.0215382517e-05 3.0744390948e-05 5.6517518019e-05 3.6976541002e-05 -0.58319960137 0.7681019842
11365500000.0 -0.66995775033 0.69385013844 3.1323934531e-05 3.1928199107e-05 3.912334539e-05 2.2190060289e-05 -0.5809448334 0.76931420735
11366000000.0 -0.66865927411 0.69516889378 3.9774530318e-05 4.0101118568e-05 3.0700022747e-05 3.8059649731e-05 -0.57933339245 0.77040796557
11366500000.0 -0.66716326097 0.69660022876 5.3091457028e-05 3.5566243524e-05 3.510665015e-05 3.3746531165e-05 -0.57773790342 0.77175219345
11367000000.0 -0.666042185 0.69764110959 4.6253988021e-05 3.3121351378e-05 4.6343747683e-05 2.4797523398e-05 -0.57567088644 0.77333047499
11367500000.0 -0.66462754884 0.69901980337 4.9064124714e-05 3.6778589308e-05 5.622708029e-05 2.770958074e-05 -0.5739398096 0.7748930819
11368000000.0 -0.66318767501 0.70044050752 2.9349693738e-05 3.9531146996e-05 4.233976107e-05 2.4272476411e-05 -0.57210556195 0.77622339775
11368500000.0 -0.66166248563 0.70138814928 4.8055933774e-05 4.1426556127e-05 5.2328474195e-05 3.5515098427e-05 -0.57016857582 0.77748180937
11369000000.0 -0.66038109123 0.70293272699 5.1753768763e-05 3.6479891285e-05 4.5565181392e-05 3.8389423913e-05 -0.56820149132 0.77887436638
11369500000.0 -0.65894461375 0.70399755348 4.5452713293e-05 3.112352295e-05 5.0333749034e-05 3.0552579545e-05 -0.566157334 0.78022400135
11370000000.0 -0.65755653731 0.70538817881 4.8101302241e-05 2.7390890858e-05 5.3013043313e-05 3.2207886762e-05 -0.56434569167 0.7816341472
11370500000.0 -0.65623919791 0.70641477365 5.3183619458e-05 3.6204844305e-05 5.0898058944e-05 3.9581444574e-05 -0.56229589317 0.78280018846
11371000000.0 -0.65484950404 0.70786671738 4.2568248653e-05 3.5024483846e-05 5.3814303969e-05 4.0558803854e-05 -0.56077980915 0.78403051799
