! Created with skrf (http://scikit-rf.org).
# Hz S RI R 50.0 
!freq ReS11 ImS11 ReS21 ImS21 ReS12 ImS12 ReS22 ImS22
11300000000.0 -0.79140473119 0.54913756396 2.7876531426e-05 3.3794152527e-05 2.3129138159e-05 2.9960198872e-05 -0.76863736334 0.58319722657
11300500000.0 -0.79058824002 0.55032580185 1.7080393696e-05 2.8181641924e-05 3.3744176149e-05 3.1223268501e-05 -0.76750435401 0.58446702765
11301000000.0 -0.7895644032 0.55164356506 2.2766880069e-05 2.7260037647e-05 3.5180666038e-05 2.2291713251e-05 -0.76677616524 0.58576359578
11301500000.0 -0.78877238914 0.55280598113 3.0229481322e-05 2.8189234986e-05 2.5431310863e-05 3.0989157492e-05 -0.76599870979 0.58672290337
11302000000.0 -0.78779056571 0.55436774956 1.7763254544e-05 1.2185807301e-05 1.8830223705e-05 3.8199787693e-05 -0.76519847776 0.58811546525
11302500000.0 -0.78686816315 0.55587473203 3.4155886675e-05 3.2025710186e-05 1.9025219881e-05 3.0208236013e-05 -0.76439047734 0.58884962755
11303000000.0 -0.78607604014 0.55710160076 3.633025378e-05 3.8258553696e-05 2.534243326e-05 2.8459897166e-05 -0.76357847911 0.59064146508
11303500000.0 -0.78502505885 0.55867708344 3.6396439126e-05 3.426779555e-05 3.2353420561e-05 3.7531745754e-05 -0.76252551711 0.59193711019
11304000000.0 -0.7841776125 0.56017230142 2.1020872009e-05 5.3865157182e-05 1.8775970631e-05 2.7055491394e-05 -0.76162749441 0.59273115809
11304500000.0 -0.78338526253 0.56142358735 2.5511835598e-05 2.1815681491e-05 2.8946517052e-05 4.3512630352e-05 -0.76083428157 0.59411563536
11305000000.0 -0.78256464577 0.56255667127 1.9503554233e-05 2.5453771695e-05 2.3833450351e-05 2.893408613e-05 -0.75931436584 0.59531069381
11305500000.0 -0.78141026085 0.56396577684 3.340587993e-05 3.1123209093e-05 3.4158784341e-05 3.1998448283e-05 -0.7589019481 0.59673927934
11306000000.0 -0.78067988134 0.56519065004 2.901180176e-05 2.5460309961e-05 2.9111739451e-05 3.9036457476e-05 -0.75793117471 0.59799001398
11306500000.0 -0.77961381081 0.56652257349 3.0877554651e-05 3.4706149453e-05 2.003294873e-05 2.893542527e-05 -0.75702691474 0.5990113385
11307000000.0 -0.77886533306 0.56775894952 2.4402536086e-05 2.5225083394e-05 2.6937136632e-05 2.5228220557e-05 -0.75620671787 0.60019622041
11307500000.0 -0.77768277732 0.56909343241 1.7457114802e-05 3.4310690424e-05 2.4354185538e-05 2.2427500931e-05 -0.75518606139 0.60138241064
11308000000.0 -0.77678160514 0.57026875395 2.9084715456e-05 2.8023313075e-05 3.5283916874e-05 2.447591549e-05 -0.75442768062 0.60263320178
11308500000.0 -0.77583836442 0.57183166936 3.0139202976e-05 3.2779449888e-05 3.597270518e-05 3.7384821871e-05 -0.75314099123 0.60371050776
11309000000.0 -0.77501477158 0.57318206292 2.3421851568e-05 3.3292656246e-05 3.3969225663e-05 3.3696759585e-05 -0.75229335375 0.60517654969
11309500000.0 -0.77399753677 0.57464880306 4.2949520137e-05 2.6415600831e-05 3.085625845e-05 1.3830021746e-05 -0.75112106288 0.60633324561
11310000000.0 -0.77334004364 0.57597466323 2.5073681046e-05 1.8835993354e-05 3.8566882144e-05 3.6029797304e-05 -0.75059767606 0.60773592864
11310500000.0 -0.77205449631 0.57731658434 2.6320620705e-05 2.7438377803e-05 2.8657790537e-05 3.5482192758e-05 -0.7492540505 0.60881840212
11311000000.0 -0.77115256759 0.57853655378 2.4441527685e-05 2.2362899349e-05 3.7148725173e-05 3.0759802141e-05 -0.74841037939 0.61006172836
11311500000.0 -0.77032412535 0.5795823545 2.0717698689e-05 3.2581751451e-05 2.9780049448e-05 2.9935895922e-05 -0.74756701973 0.61131071653
11312000000.0 -0.76920058698 0.58135601394 3.505126469e-05 2.9472627412e-05 2.5138756958e-05 3.0165647693e-05 -0.74642627391 0.61233872053
11312500000.0 -0.76847718994 0.58223570484 3.2252725927e-05 1.9081752887e-05 3.360432909e-05 3.2975142954e-05 -0.74570901821 0.61377657631
11313000000.0 -0.76737454168 0.58388189767 4.2052271268e-05 3.4121187692e-05 3.2049447711e-05 2.5103678126e-05 -0.74450933531 0.61488047127
11313500000.0 -0.76636260232 0.58496277899 2.5456479687e-05 2.1104649094e-05 4.0358215863e-05 2.8620685805e-05 -0.74399628397 0.61621174523
11314000000.0 -0.76532388504 0.5866780509 2.8377517733e-05 4.119671676e-05 3.6177247462e-05 2.8950022988e-05 -0.7427734832 0.61711415855
11314500000.0 -0.76422874465 0.58799633923 3.1595622153e-05 3.772602481e-05 2.6188934145e-05 2.8712656859e-05 -0.74202360287 0.61835053167
11315000000.0 -0.76317373621 0.58911657865 3.4600820877e-05 3.991852867e-05 4.0954367119e-05 2.1734528721e-05 -0.74093314228 0.61989750653
11315500000.0 -0.76271879187 0.59051540876 1.4493957625e-05 2.8376832874e-05 3.74441286e-05 4.067035897e-05 -0.73981378487 0.62094353757
11316000000.0 -0.7614916805 0.59181433553 3.4852704806e-05 2.6024429457e-05 3.4850185941e-05 2.3161733041e-05 -0.73909623655 0.6218611766
11316500000.0 -0.76042521097 0.59316227526 2.7786287011e-05 3.0669942171e-05 2.886856248e-05 2.7244994323e-05 -0.73783765941 0.62293499962
11317000000.0 -0.75960730772 0.59446149618 2.7087668701e-05 2.4057255542e-05 3.0409625128e-05 1.4883450723e-05 -0.73697709905 0.6243449057
11317500000.0 -0.75834453959 0.59570961136 3.2326909956e-05 2.0831557994e-05 3.1385107383e-05 4.5233044307e-05 -0.73566585992 0.62555139591
11318000000.0 -0.75734228441 0.59718671095 3.0770215485e-05 3.0776053319e-05 3.1468726298e-05 3.8282079345e-05 -0.7345923321 0.6269828934
11318500000.0 -0.75638832558 0.59856271454 3.1161260227e-05 2.6021691309e-05 2.3648406994e-05 2.7370502955e-05 -0.73391762407 0.62803305775
11319000000.0 -0.75537232309 0.59983416216 3.5954956074e-05 2.1878764756e-05 4.0384641216e-05 3.4581897531e-05 -0.73311935597 0.62965590463
11319500000.0 -0.75427570365 0.60097169187 4.2648604731e-05 3.7298138227e-05 3.685107767e-05 2.520592127e-05 -0.73189552977 0.63054765236
11320000000.0 -0.75351770391 0.60254509131 2.9693384567e-05 2.4791307727e-05 2.7744845613e-05 2.9564860126e-05 -0.73090231723 0.63161023779
11320500000.0 -0.75255141587 0.60382902736 2.1781676806e-05 3.5231146985e-05 3.0797591839e-05 2.9518628047e-05 -0.72984901126 0.63292323827
11321000000.0 -0.75128084664 0.60518221727 3.6370849493e-05 3.0682823579e-05 3.1120827638e-05 3.7715759808e-05 -0.72891010432 0.634077263
11321500000.0 -0.75040916123 0.60648595594 3.3854647845e-05 3.4782036887e-05 3.7343006886e-05 2.8117498471e-05 -0.72767062533 0.63528247422
11322000000.0 -0.74923575386 0.60761974554 3.0755879214e-05 2.239727691e-05 3.980797222e-05 2.4269810244e-05 -0.72705851557 0.63628367776
11322500000.0 -0.74838210046 0.60924549684 4.0830183795e-05 3.163741371e-05 2.8825829531e-05 2.2134983174e-05 -0.72568379262 0.63759612408
11323000000.0 -0.74737480756 0.61022175451 2.5961803744e-05 3.8217335855e-05 3.0099902911e-05 4.1918998559e-05 -0.72486155413 0.63893349847
11323500000.0 -0.74612684019 0.61152598025 3.5133651662e-05 2.3385633135e-05 4.2707424019e-05 2.797694655e-05 -0.72395095422 0.64002819674
11324000000.0 -0.74517694809 0.61304466016 3.4324893583e-05 2.1884186883e-05 2.4443987529e-05 2.6507704867e-05 -0.7229809767 0.64100987596
11324500000.0 -0.74403004166 0.61418912421 3.0480989706e-05 2.6110228469e-05 3.3548409577e-05 2.9686737882e-05 -0.72172408296 0.64240653153
11325000000.0 -0.74308493372 0.61536328878 2.6584306956e-05 3.2405509412e-05 3.13437575e-05 1.9096712827e-05 -0.72076853701 0.643417962
11325500000.0 -0.74214082677 0.61688860599 3.3761736958e-05 3.0733221209e-05 3.471318505e-05 3.7515105501e-05 -0.71974801583 0.64473234163
11326000000.0 -0.74086106712 0.61824339682 3.9648629137e-05 2.8890969062e-05 3.4746560153e-05 1.7572873777e-05 -0.71858503888 0.64630161813
11326500000.0 -0.73978230742 0.61981745674 4.5879199241e-05 3.6446247964e-05 3.1422384228e-05 3.2574345352e-05 -0.71763409218 0.6472067152
11327000000.0 -0.73863880468 0.62115096256 3.171542044e-05 4.2116614076e-05 3.9903036547e-05 3.3727729355e-05 -0.71644577962 0.64836268577
11327500000.0 -0.73772426831 0.62218423341 2.4625164184e-05 4.2090790492e-05 3.4246408851e-05 3.1063943029e-05 -0.71547879317 0.64959657755
11328000000.0 -0.73662218551 0.62343838222 2.9706740013e-05 3.7557166265e-05 3.3885943606e-05 3.0173902137e-05 -0.71444479548 0.65085378368
11328500000.0 -0.73560461286 0.62498656638 3.3487719801e-05 4.3000949306e-05 3.5189890681e-05 4.5564922458e-05 -0.71338079339 0.65204675996
11329000000.0 -0.73459452592 0.62618637753 2.9400822652e-05 2.8060492634e-05 3.0740108333e-05 2.8886610217e-05 -0.71235076314 0.65313305261
11329500000.0 -0.73329962133 0.62742649132 3.7955766489e-05 2.4348028787e-05 3.3586729176e-05 2.7054927437e-05 -0.71106338733 0.65432363453
11330000000.0 -0.73196743988 0.62889569945 3.6055845064e-05 3.1508366767e-05 3.1579116719e-05 3.2950461607e-05 -0.70991345413 0.65568361749
11330500000.0 -0.73109699143 0.62988370621 3.7001874076e-05 3.1038554847e-05 2.6679143096e-05 3.0894095728e-05 -0.70902404849 0.65703419164
11331000000.0 -0.7299891855 0.63142102917 3.4009339089e-05 3.126662224e-05 3.7344222534e-05 4.1667345155e-05 -0.70800484277 0.65796506343
11331500000.0 -0.72888824527 0.63242434925 4.2674088552e-05 2.233623238e-05 2.5132798984e-05 3.7945065914e-05 -0.70658239245 0.65912896853
11332000000.0 -0.72766280337 0.63406318349 4.2195753067e-05 3.6759660951e-05 3.320724566e-05 3.5645063065e-05 -0.70559497598 0.66013219033
11332500000.0 -0.72675682392 0.63534123719 4.3021636064e-05 3.159208844e-05 2.259482479e-05 3.6268777744e-05 -0.70438029076 0.66126704974
11333000000.0 -0.72552446042 0.63685516844 3.1414400821e-05 3.7798711538e-05 3.367804956e-05 2.8602542119e-05 -0.70354894375 0.66257419815
11333500000.0 -0.72448201396 0.637765734 4.2015047578e-05 2.850159707e-05 3.3774972019e-05 3.4332748084e-05 -0.70231136171 0.66408930118
11334000000.0 -0.72349313438 0.63917356871 3.458832872e-05 3.6836588448e-05 2.4480722209e-05 3.1397972126e-05 -0.70124533871 0.66466571137
11334500000.0 -0.72221311067 0.64081821138 4.2918653546e-05 2.6578643273e-05 3.3971227545e-05 3.3215059245e-05 -0.70010669964 0.66617064676
11335000000.0 -0.72101182362 0.64213868801 3.6223882248e-05 3.780664104e-05 3.7812328013e-05 3.6094389626e-05 -0.69906594071 0.66731355798
11335500000.0 -0.7196649003 0.6433205694 2.9995564512e-05 4.1559082717e-05 2.2758435583e-05 4.5376566876e-05 -0.6978663295 0.66837597037
11336000000.0 -0.71876026693 0.64472134693 2.3539044074e-05 2.5234997577e-05 3.5477768599e-05 3.2743125884e-05 -0.69673295594 0.66963651903
11336500000.0 -0.71749724123 0.64568425145 4.3564368361e-05 3.5114974214e-05 2.3517576626e-05 2.865313535e-05 -0.6955797476 0.67129024992
11337000000.0 -0.71651689069 0.64697400441 2.5765260205e-05 2.9435623736e-05 3.8328349685e-05 2.7173227365e-05 -0.69476601877 0.672407321
11337500000.0 -0.71519817093 0.64840532543 3.1810706899e-05 3.3415026447e-05 2.9155142968e-05 2.856965299e-05 -0.69347588458 0.67349379479
11338000000.0 -0.71422945748 0.64973477239 2.7722006318e-05 3.7767416358e-05 3.9639825857e-05 2.6919535802e-05 -0.69222167237 0.6744728185
11338500000.0 -0.71296737062 0.65084479232 3.184350338e-05 2.4966483365e-05 3.8004526606e-05 3.3728167184e-05 -0.69123646987 0.67558711861
11339000000.0 -0.71182115733 0.65219196965 4.8999666677e-05 3.14193148e-05 3.1300900901e-05 3.0624231614e-05 -0.68970175609 0.67703561899
11339500000.0 -0.71084050193 0.65355596215 2.8351100525e-05 2.1591520421e-05 3.4403411157e-05 2.9814490037e-05 -0.68867981135 0.67798564526
11340000000.0 -0.70917931155 0.65507896481 2.0070204986e-05 3.9683619246e-05 4.1883086301e-05 3.8426897461e-05 -0.68753061741 0.67938284222
11340500000.0 -0.70808566687 0.65623890905 3.2971158296e-05 2.852441847e-05 3.7806570269e-05 2.3219398932e-05 -0.68610726726 0.68036741025
11341000000.0 -0.70687404658 0.6573758944 3.805516271e-05 3.2544751577e-05 3.4463112869e-05 3.0251163402e-05 -0.68495275752 0.68148850584
11341500000.0 -0.70579284412 0.65894460251 3.9087213416e-05 3.2255599632e-05 2.6570101616e-05 4.1135440485e-05 -0.68395624162 0.6827540794
11342000000.0 -0.7045119975 0.6601303044 3.7093327262e-05 3.7140597242e-05 4.6958059058e-05 3.4694698929e-05 -0.68265929737 0.68420398191
11342500000.0 -0.703075714 0.66118655873 4.5389232673e-05 3.6422487016e-05 2.7186364761e-05 2.2842812803e-05 -0.68157937765 0.68525455457
11343000000.0 -0.70208528472 0.66302682445 3.8206213581e-05 4.0553455888e-05 4.0841249841e-05 2.8848119603e-05 -0.68037959815 0.68651388635
11343500000.0 -0.70064747854 0.66406834736 3.5066797023e-05 2.8394621951e-05 4.3985300336e-05 3.0115831106e-05 -0.67938412964 0.68765420399
11344000000.0 -0.69943618189 0.66533945455 4.2170150629e-05 3.4096752566e-05 3.7726785459e-05 2.8461980518e-05 -0.67779400533 0.68878928597
11344500000.0 -0.69833050437 0.66657083735 3.4995830476e-05 2.8430018794e-05 2.4303531419e-05 2.6070690478e-05 -0.67668410436 0.68992038148
11345000000.0 -0.69730729694 0.66810727523 3.7416163626e-05 3.0885460365e-05 3.5440406713e-05 2.798068574e-05 -0.67562885992 0.69116464219
11345500000.0 -0.69582978696 0.6692713169 4.9110410337e-05 3.3981541745e-05 4.4617713149e-05 3.2208311217e-05 -0.67429154288 0.69244141749
11346000000.0 -0.69457300383 0.67061863565 3.7281840327e-05 4.0664276155e-05 4.4697690727e-05 2.9748286396e-05 -0.67305794013 0.69358291807
11346500000.0 -0.69332821739 0.67203063964 3.2204848332e-05 3.4562431866e-05 3.3945353663e-05 3.980778476e-05 -0.67149705471 0.6947225926
11347000000.0 -0.69176298805 0.67338804785 3.1624742258e-05 3.024237319e-05 4.7762339729e-05 3.7536165608e-05 -0.67036085495 0.69598466313
11347500000.0 -0.6907825646 0.67437718788 3.4178548042e-05 4.1232180798e-05 3.0569598456e-05 3.0409832076e-05 -0.66917082249 0.69709423445
11348000000.0 -0.68953742301 0.67560191742 4.7339917964e-05 2.8707810839e-05 4.0239040617e-05 3.4341438258e-05 -0.6677609054 0.69828922635
11348500000.0 -0.68828069138 0.67722237043 3.6906487136e-05 3.3236407436e-05 4.6991583882e-05 2.7130633482e-05 -0.66666706316 0.69950252975
11349000000.0 -0.68695235342 0.67851865537 4.4219346338e-05 3.6536697901e-05 4.2214924462e-05 2.317625925e-05 -0.66519817017 0.70083380427
11349500000.0 -0.68543349821 0.68003453999 4.7194075539e-05 3.3828897944e-05 4.2480192547e-05 4.1400098188e-05 -0.66411226852 0.70177091489
11350000000.0 -0.68426129712 0.68101708367 3.3943993291e-05 3.0590733658e-05 4.5568585231e-05 3.0155899139e-05 -0.66253259789 0.70319153292
11350500000.0 -0.68289678218 0.6820535423 3.5143386128e-05 4.3609210028e-05 4.7141101396e-05 2.9240587052e-05 -0.66145415912 0.70421999364
11351000000.0 -0.68154151855 0.68356554105 4.2940024914e-05 3.7261416702e-05 5.373228449e-05 4.2720283374e-05 -0.66008389902 0.7056697422
11351500000.0 -0.68006001084 0.68497211101 3.9326139556e-05 2.9927767808e-05 3.0242595763e-05 2.4852821497e-05 -0.65854677132 0.70681706901
11352000000.0 -0.67884491009 0.68628539242 3.804252755e-05 3.8189339966e-05 4.1228445097e-05 3.8944419477e-05 -0.65755615627 0.70788319824
11352500000.0 -0.67771910453 0.68770664444 3.3568337135e-05 3.0636082991e-05 4.1216164246e-05 2.6173261899e-05 -0.65608844028 0.70922860492
11353000000.0 -0.67633836922 0.68853938833 3.9032745794e-05 1.5468116586e-05 3.9058147919e-05 3.1444357643e-05 -0.65505124413 0.71046411337
11353500000.0 -0.67485712242 0.68995990375 4.5776284714e-05 3.0714668289e-05 3.7414509623e-05 4.0606897673e-05 -0.65370059791 0.71148312114
11354000000.0 -0.67348482654 0.69140944475 4.4000429259e-05 3.0377819588e-05 4.2710677331e-05 2.6039864044e-05 -0.65208831851 0.71267558475
11354500000.0 -0.67202075999 0.69268182388 4.5053552929e-05 3.720061064e-05 4.0514320746e-05 4.5784956891e-05 -0.65088850941 0.71381337894
11355000000.0 -0.67063973855 0.69406256667 3.0726298048e-05 4.1520953507e-05 3.4103719352e-05 3.7988072003e-05 -0.64942606356 0.71513510324
11355500000.0 -0.66937439161 0.69544920065 3.8535716077e-05 3.816368572e-05 4.9469163308e-05 3.6738724721e-05 -0.64844125775 0.71640755342
11356000000.0 -0.66795559581 0.69680291773 3.7682431415e-05 3.2807833167e-05 3.9083327538e-05 3.3390076931e-05 -0.64661217245 0.71741030132
11356500000.0 -0.66648552258 0.69766541743 5.4700712197e-05 4.1709041502e-05 3.7783992948e-05 2.3127643181e-05 -0.64508839324 0.71898911282
11357000000.0 -0.66522253294 0.69937797121 4.7403967363e-05 3.8151155359e-05 4.8980920689e-05 3.2746222756e-05 -0.64390929405 0.71971657176
11357500000.0 -0.66372471843 0.70050187501 3.7883667652e-05 3.366516004e-05 5.1091699426e-05 3.1544662289e-05 -0.64253993051 0.72114133299
11358000000.0 -0.66229284081 0.70199572596 5.1382867934e-05 2.0754307265e-05 3.8317886956e-05 3.132459212e-05 -0.6412425217 0.72237416261
11358500000.0 -0.66078309048 0.70318952849 4.3880317457e-05 2.6618302579e-05 4.0272747657e-05 3.5335547678e-05 -0.6398503799 0.72359101249
11359000000.0 -0.65943692953 0.70444078069 4.2030209503e-05 2.7387880744e-05 3.8306286854e-05 2.4118970682e-05 -0.63843347964 0.72495609563
11359500000.0 -0.65791709533 0.70576884411 5.125228529e-05 3.7055237021e-05 4.2080498344e-05 3.1583481622e-05 -0.63701393027 0.72603687677
11360000000.0 -0.65647839195 0.70723896804 4.1005901915e-05 1.8512566391e-05 2.7937894066e-05 2.0246154277e-05 -0.63534794047 0.72708260876
11360500000.0 -0.65507309465 0.70858666536 2.9613082681e-05 3.5641015357e-05 4.3670142651e-05 2.2998157317e-05 -0.63366660205 0.72822984036
11361000000.0 -0.65346903345 0.70980335755 3.4718980462e-05 3.5717850977e-05 4.1462410778e-05 3.9308708823e-05 -0.63267082304 0.72962505599
11361500000.0 -0.65208621168 0.71121594834 4.0259583065e-05 3.8126141762e-05 4.9645592147e-05 2.3727181754e-05 -0.63112230089 0.73076400029
11362000000.0 -0.65060914049 0.71260642711 4.1173185175e-05 3.1732500921e-05 4.0721929841e-05 3.0467368297e-05 -0.62957757829 0.7318373573
11362500000.0 -0.64892820206 0.71392443284 3.5319643885e-05 2.2580495524e-05 4.2797293419e-05 3.3991472979e-05 -0.6281559242 0.73347092105
11363000000.0 -0.64756851915 0.71498349322 4.7181652511e-05 3.8243224581e-05 5.2247131428e-05 4.0069631883e-05 -0.62674936016 0.73482123213
11363500000.0 -0.64606703873 0.71645193946 3.5741779031e-05 3.4225686293e-05 3.9476938093e-05 1.7652942804e-05 -0.62508822389 0.73584134841
11364000000.0 -0.64434991627 0.71777992215 3.5143132556e-05 3.9712645353e-05 4.8628992477e-05 3.5609813319e-05 -0.6240402438 0.73730902024
11364500000.0 -0.64311938958 0.71909824765 5.2994404978e-05 2.3568226323e-05 4.8814252614e-05 3.1434409255e-05 -0.62205404449 0.73824382321
11365000000.0 -0.64159418224 0.72028091239 5.6709688943e-05 2.0539682415e-05 5.1462674395e-05 3.8577648324e-05 -0.62073858681 0.73962784769
11365500000.0 -0.63989127056 0.72152053444 5.4373977133e-05 4.0304793443e-05 4.7786389432e-05 3.6035276229e-05 -0.61892479212 0.74069666087
11366000000.0 -0.63845219079 0.72300072503 4.1841357342e-05 3.1670070397e-05 5.5422219331e-05 4.153428848e-05 -0.61762629289 0.74189863441
11366500000.0 -0.63672380199 0.72445503064 4.1889175498e-05 2.670383357e-05 3.360338198e-05 4.0332473952e-05 -0.61606130528 0.74267063563
11367000000.0 -0.63538571632 0.72549224584 5.9614293354e-05 3.363840606e-05 4.3428970964e-05 2.4453342513e-05 -0.61429523574 0.74429968076
11367500000.0 -0.63370028541 0.72696971743 4.3127480298e-05 2.5786399033e-05 4.9558179416e-05 3.4355770105e-05 -0.61291420637 0.74583984059
11368000000.0 -0.63201242145 0.72840507884 5.0919402542e-05 3.5200715326e-05 4.7243897269e-05 3.387209362e-05 -0.61155939895 0.74692053711
11368500000.0 -0.63039650141 0.72947981765 5.670262204e-05 3.74238208e-05 3.5991669845e-05 3.1496189484e-05 -0.6099304846 0.74800959458
11369000000.0 -0.62892481809 0.73115661494 4.5927193293e-05 3.6209522863e-05 5.1081788761e-05 4.1055496393e-05 -0.60827162431 0.74937151377
11369500000.0 -0.62718386871 0.73231443357 4.8710047598e-05 3.3428491932e-05 5.7028607018e-05 2.4418669174e-05 -0.60653175525 0.750815638
11370000000.0 -0.6255385234 0.73373085214 4.9041362501e-05 3.0318191957e-05 3.4859880015e-05 3.2876174506e-05 -0.6049909619 0.75189470473
11370500000.0 -0.62409241018 0.73484523929 4.5265729368e-05 2.8051786061e-05 3.8580269192e-05 3.2694200236e-05 -0.60333422583 0.75283372867
