#  HZ   S   RI   R     50.00 
! Rohde & Schwarz ZVA50 2Ports - Version 3.70 - 1145.1110k50 SN: 100192
! Date: 2025-10-24 10:36:28
! Measurements: S11 S21 S12 S22 
! 
 1.269400000000000E10   -8.893962204456329E-2   8.980484604835510E-1   2.746596001088619E-3   3.962765331380069E-4   2.744361991062760E-3   4.057183687109500E-4  -3.399975895881653E-1   8.573743700981140E-1  
 1.269420000000000E10   -7.536578923463821E-2   8.981206417083740E-1   2.790194237604737E-3   3.678366774693131E-4   2.789553254842758E-3   3.767733578570187E-4  -3.300608396530151E-1   8.603219389915466E-1  
 1.269440000000000E10   -6.159830838441849E-2   8.980203866958618E-1   2.834034385159612E-3   3.395678650122136E-4   2.831581048667431E-3   3.461686428636313E-4  -3.198541998863220E-1   8.632093071937561E-1  
 1.269460000000000E10   -4.752423986792564E-2   8.977156877517700E-1   2.877744846045971E-3   3.067413344979286E-4   2.875013742595911E-3   3.156439343001694E-4  -3.094910681247711E-1   8.659503459930420E-1  
 1.269480000000000E10   -3.351240605115891E-2   8.973881602287293E-1   2.922134008258581E-3   2.757169422693551E-4   2.919235732406378E-3   2.858256048057228E-4  -2.992367446422577E-1   8.691509366035461E-1  
 1.269500000000000E10   -1.907639205455780E-2   8.965783715248108E-1   2.962806727737188E-3   2.436567738186568E-4   2.960199955850840E-3   2.509896876290441E-4  -2.884841561317444E-1   8.717469573020935E-1  
 1.269520000000000E10   -4.467397928237915E-3   8.954357504844666E-1   3.005488310009241E-3   2.084277366520837E-4   3.002363722771406E-3   2.146908082067967E-4  -2.774981260299683E-1   8.742216229438782E-1  
 1.269540000000000E10    1.039653643965721E-2   8.940306901931763E-1   3.044720040634275E-3   1.727692142594606E-4   3.043538425117731E-3   1.795012794900686E-4  -2.663321793079376E-1   8.765350580215454E-1  
 1.269560000000000E10    2.543833851814270E-2   8.923644423484802E-1   3.083779243752360E-3   1.350520469713956E-4   3.081826493144035E-3   1.411995908711106E-4  -2.549351453781128E-1   8.787877559661865E-1  
 1.269580000000000E10    4.068972542881966E-2   8.903277516365051E-1   3.121330402791500E-3   9.517571743344888E-5   3.121280111372471E-3   1.013463770505041E-4  -2.432867586612701E-1   8.808633089065552E-1  
 1.269600000000000E10    5.617054551839829E-2   8.880301117897034E-1   3.159957705065608E-3   5.697201413568109E-5   3.156774211674929E-3   6.119633326306939E-5  -2.314358353614807E-1   8.828310966491699E-1  
 1.269620000000000E10    7.186153531074524E-2   8.853862285614014E-1   3.194676246494055E-3   1.637298555579037E-5   3.192831063643098E-3   2.054336073342711E-5  -2.193489968776703E-1   8.846508264541626E-1  
 1.269640000000000E10    8.774800598621368E-2   8.823634386062622E-1   3.227668348699808E-3  -2.744600351434201E-5   3.226282075047493E-3  -2.443599805701524E-5  -2.070026248693466E-1   8.863042593002319E-1  
 1.269660000000000E10    1.038931310176849E-1   8.789633512496948E-1   3.259666962549090E-3  -6.949229282326996E-5   3.259248100221157E-3  -6.746550207026303E-5  -1.944241821765900E-1   8.877845406532288E-1  
 1.269680000000000E10    1.202023327350617E-1   8.752238154411316E-1   3.289076499640942E-3  -1.143456320278347E-4   3.290553577244282E-3  -1.126666320487857E-4  -1.815894246101379E-1   8.890736699104309E-1  
 1.269700000000000E10    1.366745084524155E-1   8.710205554962158E-1   3.316353773698211E-3  -1.582723925821483E-4   3.315210808068514E-3  -1.579049567226321E-4  -1.684956848621368E-1   8.902035951614380E-1  
 1.269720000000000E10    1.533765792846680E-1   8.664295077323914E-1   3.341800067573786E-3  -2.043887216132134E-4   3.343002870678902E-3  -2.034947392530739E-4  -1.551683247089386E-1   8.911406397819519E-1  
 1.269740000000000E10    1.702843308448792E-1   8.613538742065430E-1   3.363635390996933E-3  -2.513727813493460E-4   3.363439114764333E-3  -2.499215770512819E-4  -1.415519118309021E-1   8.918528556823731E-1  
 1.269760000000000E10    1.873930841684341E-1   8.558458685874939E-1   3.380604786798358E-3  -2.970963250845671E-4   3.383005736395717E-3  -2.991532674059272E-4  -1.276519894599915E-1   8.923142552375794E-1  
 1.269780000000000E10    2.046166211366653E-1   8.498784303665161E-1   3.396891755983234E-3  -3.446025366429240E-4   3.399453358724713E-3  -3.459240251686424E-4  -1.134906709194183E-1   8.925157189369202E-1  
 1.269800000000000E10    2.220635116100311E-1   8.433235287666321E-1   3.407601267099381E-3  -3.904704935848713E-4   3.411406418308616E-3  -3.920499584637582E-4  -9.902112185955048E-2   8.924983143806458E-1  
 1.269820000000000E10    2.396831959486008E-1   8.363268971443176E-1   3.416173392906785E-3  -4.370572569314390E-4   3.419862594455481E-3  -4.371124377939850E-4  -8.425225317478180E-2   8.921594023704529E-1  
 1.269840000000000E10    2.574646472930908E-1   8.287165760993958E-1   3.419151296839118E-3  -4.841877671424300E-4   3.425794653594494E-3  -4.834968713112176E-4  -6.920170783996582E-2   8.915445804595947E-1  
 1.269860000000000E10    2.753646075725555E-1   8.205728530883789E-1   3.419843968003988E-3  -5.249702371656895E-4   3.424309426918626E-3  -5.273259012028575E-4  -5.386926978826523E-2   8.906101584434509E-1  
 1.269880000000000E10    2.934066653251648E-1   8.117555975914002E-1   3.412773599848151E-3  -5.692496779374778E-4   3.418712643906474E-3  -5.695785512216389E-4  -3.820215165615082E-2   8.893508911132813E-1  
 1.269900000000000E10    3.115789592266083E-1   8.023352622985840E-1   3.401478752493858E-3  -6.091761169955134E-4   3.409794764593244E-3  -6.101271719671786E-4  -2.222976088523865E-2   8.877288103103638E-1  
 1.269920000000000E10    3.298569917678833E-1   7.922405004501343E-1   3.387461183592677E-3  -6.448156200349331E-4   3.395456122234464E-3  -6.459188880398870E-4  -5.907647311687470E-3   8.856950402259827E-1  
 1.269940000000000E10    3.482524156570435E-1   7.814720869064331E-1   3.364625619724393E-3  -6.777418311685324E-4   3.374281572178006E-3  -6.799409165978432E-4   1.067147403955460E-2   8.832649588584900E-1  
 1.269960000000000E10    3.666428625583649E-1   7.699296474456787E-1   3.337485017254949E-3  -7.066547404974699E-4   3.348480211570859E-3  -7.072851294651628E-4   2.761767059564591E-2   8.803828358650208E-1  
 1.269980000000000E10    3.851138651371002E-1   7.576578259468079E-1   3.303042380139232E-3  -7.303016027435660E-4   3.313087159767747E-3  -7.311757653951645E-4   4.488214105367661E-2   8.770447969436646E-1  
 1.270000000000000E10    4.036659300327301E-1   7.445826530456543E-1   3.263539401814342E-3  -7.487783441320062E-4   3.274049377068877E-3  -7.468398544006050E-4   6.252863258123398E-2   8.731428980827332E-1  
 1.270020000000000E10    4.221196174621582E-1   7.306553721427918E-1   3.215561620891094E-3  -7.567782886326313E-4   3.229059278964996E-3  -7.563413237221539E-4   8.048032224178314E-2   8.687217235565186E-1  
 1.270040000000000E10    4.405851364135742E-1   7.159240245819092E-1   3.164467401802540E-3  -7.586734136566520E-4   3.176733385771513E-3  -7.560183294117451E-4   9.876896440982819E-2   8.637718558311462E-1  
 1.270060000000000E10    4.589582085609436E-1   7.003029584884644E-1   3.103239694610238E-3  -7.483112858608365E-4   3.115886822342873E-3  -7.468421827070415E-4   1.174020990729332E-1   8.581287860870361E-1  
 1.270080000000000E10    4.771867990493774E-1   6.837351918220520E-1   3.037997521460056E-3  -7.271122885867953E-4   3.050388535484672E-3  -7.263147272169590E-4   1.363703906536102E-1   8.518692255020142E-1  
 1.270100000000000E10    4.952762424945831E-1   6.662017703056335E-1   2.965842373669148E-3  -6.932156393304467E-4   2.977492986246944E-3  -6.917768041603267E-4   1.556082218885422E-1   8.448544144630432E-1  
 1.270120000000000E10    5.132181048393250E-1   6.476632952690125E-1   2.887565875425935E-3  -6.446813931688666E-4   2.898698672652245E-3  -6.425439496524632E-4   1.752310097217560E-1   8.370963335037231E-1  
 1.270140000000000E10    5.308600664138794E-1   6.280394196510315E-1   2.803664654493332E-3  -5.793474847450852E-4   2.815074985846877E-3  -5.768532864749432E-4   1.950833797454834E-1   8.285343050956726E-1  
 1.270160000000000E10    5.482283830642700E-1   6.073809862136841E-1   2.714375033974648E-3  -4.951643059030175E-4   2.726238220930100E-3  -4.932062001898885E-4   2.152950465679169E-1   8.190534114837647E-1  
 1.270180000000000E10    5.651970505714417E-1   5.856291055679321E-1   2.622368745505810E-3  -3.914865083061159E-4   2.632920164614916E-3  -3.857364063151181E-4   2.357574552297592E-1   8.086275458335877E-1  
 1.270200000000000E10    5.817102193832398E-1   5.626655817031860E-1   2.526724943891168E-3  -2.621776948217303E-4   2.537410007789731E-3  -2.567099872976542E-4   2.564452290534973E-1   7.972118854522705E-1  
 1.270220000000000E10    5.976745486259460E-1   5.385732650756836E-1   2.428376814350486E-3  -1.073486055247486E-4   2.439121482893825E-3  -1.032971194945276E-4   2.773725390434265E-1   7.846329808235169E-1  
 1.270240000000000E10    6.131368279457092E-1   5.132473707199097E-1   2.334581688046455E-3   7.479723717551678E-5   2.342381980270147E-3   8.159714343491942E-5   2.985036373138428E-1   7.709091901779175E-1  
 1.270260000000000E10    6.278299689292908E-1   4.866601228713989E-1   2.239864319562912E-3   2.861921384464949E-4   2.247981727123261E-3   2.935181837528944E-4   3.197391629219055E-1   7.559288144111633E-1  
 1.270280000000000E10    6.417007446289063E-1   4.588521718978882E-1   2.151718595996499E-3   5.349656566977501E-4   2.158974297344685E-3   5.406722193583846E-4   3.410869538784027E-1   7.396101951599121E-1  
 1.270300000000000E10    6.547092199325562E-1   4.297254085540772E-1   2.071959897875786E-3   8.175254915840924E-4   2.076692180708051E-3   8.248843951150775E-4   3.624229729175568E-1   7.217885255813599E-1  
 1.270320000000000E10    6.667007207870483E-1   3.992896080017090E-1   2.004901180043817E-3   1.139442902058363E-3   2.009660936892033E-3   1.147374510765076E-3   3.837080299854279E-1   7.024733424186707E-1  
 1.270340000000000E10    6.775086522102356E-1   3.675194382667542E-1   1.954483333975077E-3   1.499737380072475E-3   1.957557629793882E-3   1.509792287833989E-3   4.048403501510620E-1   6.814438104629517E-1  
 1.270360000000000E10    6.870645284652710E-1   3.344557285308838E-1   1.925577293150127E-3   1.905021024867892E-3   1.926911063492298E-3   1.915476983413100E-3   4.256940782070160E-1   6.586442589759827E-1  
 1.270380000000000E10    6.951451897621155E-1   3.001069426536560E-1   1.922628958709538E-3   2.351484727114439E-3   1.923025352880359E-3   2.362452680245042E-3   4.461199641227722E-1   6.339321732521057E-1  
 1.270400000000000E10    7.016765475273132E-1   2.644572556018829E-1   1.951878308318555E-3   2.841639565303922E-3   1.951045240275562E-3   2.855182625353336E-3   4.659723639488220E-1   6.072589159011841E-1  
 1.270420000000000E10    7.063799500465393E-1   2.275417149066925E-1   2.019064035266638E-3   3.376119304448366E-3   2.016819315031171E-3   3.390931989997625E-3   4.851304590702057E-1   5.784030556678772E-1  
 1.270440000000000E10    7.091175913810730E-1   1.894386112689972E-1   2.131956862285733E-3   3.954493906348944E-3   2.127381507307291E-3   3.970431629568338E-3   5.032893419265747E-1   5.473282337188721E-1  
 1.270460000000000E10    7.097600102424622E-1   1.502510309219360E-1   2.295107580721378E-3   4.571993835270405E-3   2.288434188812971E-3   4.588728770613670E-3   5.201817750930786E-1   5.139082074165344E-1  
 1.270480000000000E10    7.080317735671997E-1   1.100263893604279E-1   2.514161169528961E-3   5.226531531661749E-3   2.505797892808914E-3   5.244748666882515E-3   5.355675220489502E-1   4.780486524105072E-1  
 1.270500000000000E10    7.037208080291748E-1   6.890364736318588E-2   2.794096712023020E-3   5.912531167268753E-3   2.786142053082585E-3   5.930498708039522E-3   5.490444302558899E-1   4.396612942218781E-1  
 1.270520000000000E10    6.966696381568909E-1   2.705372497439385E-2   3.137619467452169E-3   6.623201537877321E-3   3.126464085653424E-3   6.640605162829161E-3   5.602586865425110E-1   3.987636566162109E-1  
 1.270540000000000E10    6.865949630737305E-1  -1.537405326962471E-2   3.544453065842390E-3   7.350247353315353E-3   3.530592424795032E-3   7.370761595666409E-3   5.687617659568787E-1   3.553520441055298E-1  
 1.270560000000000E10    6.733234524726868E-1  -5.812580138444901E-2   4.011556506156921E-3   8.089251816272736E-3   3.995254635810852E-3   8.109543472528458E-3   5.740209221839905E-1   3.094760775566101E-1  
 1.270580000000000E10    6.566063761711121E-1  -1.009079366922379E-1   4.529070109128952E-3   8.828840218484402E-3   4.512662068009377E-3   8.850957266986370E-3   5.754728913307190E-1   2.613054513931274E-1  
 1.270600000000000E10    6.362676620483398E-1  -1.434776335954666E-1   5.085418466478586E-3   9.566109627485275E-3   5.068034864962101E-3   9.592467918992043E-3   5.726191401481628E-1   2.110545635223389E-1  
 1.270620000000000E10    6.120988726615906E-1  -1.854173243045807E-1   5.660409107804298E-3   1.030602958053350E-2   5.638531874865294E-3   1.033181883394718E-2   5.647109150886536E-1   1.591784060001373E-1  
 1.270640000000000E10    5.839796662330627E-1  -2.262963205575943E-1   6.223605014383793E-3   1.105519849807024E-2   6.199558731168509E-3   1.108011603355408E-2   5.511345267295837E-1   1.061877384781838E-1  
 1.270660000000000E10    5.517696738243103E-1  -2.656775116920471E-1   6.741479504853487E-3   1.183404866605997E-2   6.717866752296686E-3   1.186209451407194E-2   5.313330292701721E-1   5.275232344865799E-2  
 1.270680000000000E10    5.153910517692566E-1  -3.030494451522827E-1   7.184194400906563E-3   1.268997881561518E-2   7.158610504120588E-3   1.271796878427267E-2   5.046673417091370E-1  -1.817485317587853E-4  
 1.270700000000000E10    4.748770296573639E-1  -3.377338647842407E-1   7.512073032557964E-3   1.368913613259792E-2   7.485209032893181E-3   1.371695194393396E-2   4.707506000995636E-1  -5.149210989475250E-2  
 1.270720000000000E10    4.302271306514740E-1  -3.691729307174683E-1   7.705444470047951E-3   1.492541469633579E-2   7.674921769648790E-3   1.495601143687964E-2   4.292968511581421E-1  -9.985709190368652E-2  
 1.270740000000000E10    3.817541599273682E-1  -3.966261148452759E-1   7.766212336719036E-3   1.654188521206379E-2   7.731747347861528E-3   1.661343313753605E-2   3.803357779979706E-1  -1.437310278415680E-1  
 1.270760000000000E10    3.296686708927155E-1  -4.193590879440308E-1   7.732963655143976E-3   1.869502663612366E-2   7.688191719353199E-3   1.877375692129135E-2   3.242987990379334E-1  -1.814584732055664E-1  
 1.270780000000000E10    2.744471430778503E-1  -4.367134571075440E-1   7.654701359570026E-3   2.166350744664669E-2   7.665131241083145E-3   2.167778462171555E-2   2.619313299655914E-1  -2.113595306873322E-1  
 1.270800000000000E10    2.167246043682098E-1  -4.478519260883331E-1   7.838154211640358E-3   2.552321180701256E-2   7.843348197638989E-3   2.553675696253777E-2   1.945788860321045E-1  -2.318112254142761E-1  
 1.270820000000000E10    1.572642475366592E-1  -4.521282315254211E-1   8.526507765054703E-3   3.053317777812481E-2   8.535569533705711E-3   3.054657205939293E-2   1.240452378988266E-1  -2.414479851722717E-1  
 1.270840000000000E10    9.710130095481873E-2  -4.490010738372803E-1   1.016516983509064E-2   3.682647645473480E-2   1.017675455659628E-2   3.684427961707115E-2   5.256346985697746E-2  -2.393147498369217E-1  
 1.270860000000000E10    3.747550025582314E-2  -4.379515945911408E-1   1.329294592142105E-2   4.443769901990891E-2   1.330982800573111E-2   4.446477442979813E-2  -1.733878254890442E-2  -2.250656336545944E-1  
 1.270880000000000E10   -2.020450867712498E-2  -4.187787771224976E-1   1.856775209307671E-2   5.322168022394180E-2   1.858184300363064E-2   5.323885008692741E-2  -8.279839158058167E-2  -1.990401595830917E-1  
 1.270900000000000E10   -7.437183707952499E-2  -3.915793597698212E-1   2.669860981404781E-2   6.278650462627411E-2   2.670597285032272E-2   6.279740482568741E-2  -1.412401795387268E-1  -1.623075902462006E-1  
 1.270920000000000E10   -1.233685314655304E-1  -3.568072915077210E-1   3.836255148053169E-2   7.246676087379456E-2   3.837017342448235E-2   7.247929275035858E-2  -1.903230100870132E-1  -1.168008372187614E-1  
 1.270940000000000E10   -1.654812395572662E-1  -3.153640627861023E-1   5.410616844892502E-2   8.128254115581513E-2   5.411727353930473E-2   8.129429072141647E-2  -2.282581925392151E-1  -6.499913334846497E-2  
 1.270960000000000E10   -1.991878300905228E-1  -2.686527669429779E-1   7.420619577169418E-2   8.798192441463471E-2   7.421067357063294E-2   8.800412714481354E-2  -2.540869712829590E-1  -9.843946434557438E-3  
 1.270980000000000E10   -2.232850641012192E-1  -2.185606807470322E-1   9.859050065279007E-2   9.107452630996704E-2   9.859666228294373E-2   9.110004454851151E-2  -2.677561044692993E-1   4.559845849871635E-2  
 1.271000000000000E10   -2.370326966047287E-1  -1.674213856458664E-1   1.266292035579681E-1   8.900008350610733E-2   1.266507506370544E-1   8.903132379055023E-2  -2.700057029724121E-1   9.832596778869629E-2  
 1.271020000000000E10   -2.403718829154968E-1  -1.177933961153030E-1   1.571911126375198E-1   8.029299974441528E-2   1.571991890668869E-1   8.032451570034027E-2  -2.624607682228088E-1   1.458014249801636E-1  
 1.271040000000000E10   -2.340286672115326E-1  -7.233285903930664E-2   1.885696947574616E-1   6.374766677618027E-2   1.885889321565628E-1   6.378521770238876E-2  -2.474167346954346E-1   1.861017495393753E-1  
 1.271060000000000E10   -2.196027636528015E-1  -3.345536813139916E-2   2.186023443937302E-1   3.874202445149422E-2   2.186314314603806E-1   3.876003995537758E-2  -2.274940907955170E-1   2.181492000818253E-1  
 1.271080000000000E10   -1.993827372789383E-1  -3.003621939569712E-3   2.448460161685944E-1   5.246656481176615E-3   2.448959648609161E-1   5.269859451800585E-3  -2.054295688867569E-1   2.417860776185989E-1  
 1.271100000000000E10   -1.762449145317078E-1   1.798626407980919E-2   2.648738026618958E-1  -3.588896617293358E-2   2.649281620979309E-1  -3.585327044129372E-2  -1.837197393178940E-1   2.576302289962769E-1  
 1.271120000000000E10   -1.532307714223862E-1   2.947677485644817E-2   2.765330374240875E-1  -8.303353190422058E-2   2.766119837760925E-1  -8.301229029893875E-2  -1.643846780061722E-1   2.670283019542694E-1  
 1.271140000000000E10   -1.332680135965347E-1   3.250212594866753E-2   2.782762646675110E-1  -1.339929997920990E-1   2.783453166484833E-1  -1.339564770460129E-1  -1.488142758607864E-1   2.718465626239777E-1  
 1.271160000000000E10   -1.186187863349915E-1   2.892411872744560E-2   2.692434191703796E-1  -1.860679537057877E-1   2.693074345588684E-1  -1.860749125480652E-1  -1.376026123762131E-1   2.740329205989838E-1  
 1.271180000000000E10   -1.108003556728363E-1   2.120048552751541E-2   2.494620233774185E-1  -2.366144061088562E-1   2.495626658201218E-1  -2.365736365318298E-1  -1.306215524673462E-1   2.754882574081421E-1  
 1.271200000000000E10   -1.103343293070793E-1   1.204397995024920E-2   2.197491228580475E-1  -2.830524742603302E-1   2.198033183813095E-1  -2.830655872821808E-1  -1.272507607936859E-1   2.778009474277496E-1  
 1.271220000000000E10   -1.168287023901939E-1   3.980983048677445E-3   1.815135627985001E-1  -3.233290910720825E-1   1.816076338291168E-1  -3.233295977115631E-1  -1.264202892780304E-1   2.820696532726288E-1  
 1.271240000000000E10   -1.291716992855072E-1  -8.248953963629901E-4   1.366401910781860E-1  -3.559239804744721E-1   1.367042809724808E-1  -3.559572994709015E-1  -1.269344985485077E-1   2.889398634433746E-1  
 1.271260000000000E10   -1.457674652338028E-1  -8.613053360022605E-4   8.713124692440033E-2  -3.800043165683746E-1   8.719710260629654E-2  -3.800258040428162E-1  -1.275800019502640E-1   2.986506521701813E-1  
