#  HZ   S   RI   R     50.00 
! Rohde & Schwarz ZVA50 2Ports - Version 3.70 - 1145.1110k50 SN: 100192
! Date: 2025-10-24 10:37:11
! Measurements: S11 S21 S12 S22 
! 
 1.269400000000000E10    2.337887138128281E-2   8.980820775032044E-1   3.079052548855543E-3   1.699638960417360E-5   3.076937515288591E-3   2.645724453032017E-5  -1.953785717487335E-1   8.964849114418030E-1  
 1.269420000000000E10    3.779814019799233E-2   8.963986039161682E-1   3.121078014373779E-3  -2.340802166145295E-5   3.120072185993195E-3  -1.450878335162997E-5  -1.836849153041840E-1   8.980255722999573E-1  
 1.269440000000000E10    5.241686850786209E-2   8.945078849792481E-1   3.161460161209106E-3  -6.756464426871389E-5   3.161120694130659E-3  -5.771382711827755E-5  -1.717085242271423E-1   8.993670344352722E-1  
 1.269460000000000E10    6.724926829338074E-2   8.923304080963135E-1   3.203676315024495E-3  -1.107271382352337E-4   3.201239509508014E-3  -1.026982354233041E-4  -1.596107929944992E-1   9.005630612373352E-1  
 1.269480000000000E10    8.209803700447083E-2   8.900854587554932E-1   3.244169754907489E-3  -1.571020402479917E-4   3.242346690967679E-3  -1.492602459620684E-4  -1.475061178207398E-1   9.021655917167664E-1  
 1.269500000000000E10    9.728074818849564E-2   8.872757554054260E-1   3.281733021140099E-3  -2.034373028436676E-4   3.281413810327649E-3  -1.968229189515114E-4  -1.349896490573883E-1   9.030533432960510E-1  
 1.269520000000000E10    1.125768199563026E-1   8.841357231140137E-1   3.319378476589918E-3  -2.525561721995473E-4   3.317622700706124E-3  -2.463290293235332E-4  -1.222399175167084E-1   9.037660360336304E-1  
 1.269540000000000E10    1.281387805938721E-1   8.806485533714294E-1   3.354189917445183E-3  -3.027115890290588E-4   3.354178974404931E-3  -2.956930547952652E-4  -1.093100160360336E-1   9.042410254478455E-1  
 1.269560000000000E10    1.437941193580627E-1   8.768439888954163E-1   3.388952231034637E-3  -3.540024918038398E-4   3.388619283214212E-3  -3.488909278530628E-4  -9.614174067974091E-2   9.045937061309815E-1  
 1.269580000000000E10    1.595977395772934E-1   8.725894093513489E-1   3.421023022383452E-3  -4.058190097566694E-4   3.421054920181632E-3  -4.017796891275793E-4  -8.275112509727478E-2   9.046658873558044E-1  
 1.269600000000000E10    1.756212115287781E-1   8.680521845817566E-1   3.452039556577802E-3  -4.607010341715068E-4   3.449897281825542E-3  -4.560812376439571E-4  -6.909856945276260E-2   9.045206308364868E-1  
 1.269620000000000E10    1.917811036109924E-1   8.630719184875488E-1   3.479861188679934E-3  -5.142451263964176E-4   3.479054197669029E-3  -5.113508086651564E-4  -5.527630820870400E-2   9.041807055473328E-1  
 1.269640000000000E10    2.080592811107636E-1   8.576552271842957E-1   3.505030414089561E-3  -5.700545152649283E-4   3.504278138279915E-3  -5.673683481290937E-4  -4.120676591992378E-2   9.035726785659790E-1  
 1.269660000000000E10    2.245688885450363E-1   8.518215417861939E-1   3.527448512613773E-3  -6.276908097788692E-4   3.528771921992302E-3  -6.261926610022783E-4  -2.691497653722763E-2   9.027026295661926E-1  
 1.269680000000000E10    2.411252707242966E-1   8.455899357795715E-1   3.547337604686618E-3  -6.833799416199327E-4   3.548726672306657E-3  -6.846147007308900E-4  -1.239853352308273E-2   9.015578031539917E-1  
 1.269700000000000E10    2.578206062316895E-1   8.388404250144959E-1   3.563601523637772E-3  -7.409558165818453E-4   3.566468600183725E-3  -7.400920148938894E-4   2.378515899181366E-3   9.001509547233582E-1  
 1.269720000000000E10    2.746496200561523E-1   8.316338062286377E-1   3.578614909201860E-3  -7.987293647602201E-4   3.580978140234947E-3  -7.997963111847639E-4   1.736213266849518E-2   8.984348177909851E-1  
 1.269740000000000E10    2.916159033775330E-1   8.239117264747620E-1   3.589621046558023E-3  -8.575730025768280E-4   3.592848312109709E-3  -8.599429856985807E-4   3.288062661886215E-2   8.963654637336731E-1  
 1.269760000000000E10    3.086984753608704E-1   8.156496882438660E-1   3.597009694203734E-3  -9.175598388537765E-4   3.601778065785766E-3  -9.175871964544058E-4   4.853125661611557E-2   8.939407467842102E-1  
 1.269780000000000E10    3.258239626884460E-1   8.068946003913879E-1   3.601381089538336E-3  -9.755615610629320E-4   3.607556223869324E-3  -9.765856666490436E-4   6.464122235774994E-2   8.910971283912659E-1  
 1.269800000000000E10    3.430350124835968E-1   7.975142598152161E-1   3.601067932322621E-3  -1.031836261972785E-3   3.605105448514223E-3  -1.034012064337730E-3   8.045824617147446E-2   8.880405426025391E-1  
 1.269820000000000E10    3.603489696979523E-1   7.876173853874207E-1   3.590894164517522E-3  -1.086447271518409E-3   3.597135422751308E-3  -1.086528995074332E-3   9.617338329553604E-2   8.846023678779602E-1  
 1.269840000000000E10    3.777013421058655E-1   7.770649790763855E-1   3.577567404136062E-3  -1.136782462708652E-3   3.586649661883712E-3  -1.138620893470943E-3   1.125070974230766E-1   8.806892037391663E-1  
 1.269860000000000E10    3.950594961643219E-1   7.659609913825989E-1   3.562658792361617E-3  -1.186358276754618E-3   3.572724526748061E-3  -1.189737231470645E-3   1.291798055171967E-1   8.763173818588257E-1  
 1.269880000000000E10    4.124500751495361E-1   7.541220188140869E-1   3.541047452017665E-3  -1.234646770171821E-3   3.551334142684937E-3  -1.237494288943708E-3   1.461308449506760E-1   8.714884519577026E-1  
 1.269900000000000E10    4.298211336135864E-1   7.416296601295471E-1   3.516646567732096E-3  -1.278732903301716E-3   3.525922307744622E-3  -1.279263407923281E-3   1.632807552814484E-1   8.661415576934815E-1  
 1.269920000000000E10    4.471556544303894E-1   7.284548282623291E-1   3.482945496216416E-3  -1.317405840381980E-3   3.494909498840570E-3  -1.318955793976784E-3   1.806955784559250E-1   8.602828979492188E-1  
 1.269940000000000E10    4.644999504089356E-1   7.145297527313232E-1   3.447503782808781E-3  -1.350724138319492E-3   3.459135768935084E-3  -1.351837534457445E-3   1.983265578746796E-1   8.538699746131897E-1  
 1.269960000000000E10    4.817006289958954E-1   6.998627185821533E-1   3.404673421755433E-3  -1.378627144731581E-3   3.417358733713627E-3  -1.379863941110671E-3   2.162311971187592E-1   8.468550443649292E-1  
 1.269980000000000E10    4.988049864768982E-1   6.844217777252197E-1   3.358052577823401E-3  -1.399610075168312E-3   3.369974903762341E-3  -1.399966655299068E-3   2.346276342868805E-1   8.391227722167969E-1  
 1.270000000000000E10    5.158014297485352E-1   6.681795120239258E-1   3.301880322396755E-3  -1.411452889442444E-3   3.316130023449659E-3  -1.408288953825831E-3   2.525424063205719E-1   8.309818506240845E-1  
 1.270020000000000E10    5.325807332992554E-1   6.510967016220093E-1   3.244654508307576E-3  -1.412340905517340E-3   3.254900919273496E-3  -1.410627854056656E-3   2.710217535495758E-1   8.219959735870361E-1  
 1.270040000000000E10    5.491728186607361E-1   6.331842541694641E-1   3.177870530635119E-3  -1.404047128744423E-3   3.190525341778994E-3  -1.402563299052417E-3   2.896853387355804E-1   8.123205900192261E-1  
 1.270060000000000E10    5.654741525650024E-1   6.144148111343384E-1   3.106961725279689E-3  -1.382426242344081E-3   3.121214220300317E-3  -1.380770816467702E-3   3.085257112979889E-1   8.018693923950195E-1  
 1.270080000000000E10    5.814650654792786E-1   5.947306156158447E-1   3.034407040104270E-3  -1.347353914752603E-3   3.046846250072122E-3  -1.346474979072809E-3   3.274742662906647E-1   7.905972599983215E-1  
 1.270100000000000E10    5.971150398254395E-1   5.740944147109985E-1   2.955405972898006E-3  -1.297161565162242E-3   2.969347173348069E-3  -1.293415436521173E-3   3.465256392955780E-1   7.784339785575867E-1  
 1.270120000000000E10    6.124215126037598E-1   5.525250434875488E-1   2.873977413401008E-3  -1.230166875757277E-3   2.886773785576224E-3  -1.227068365551531E-3   3.656867146492004E-1   7.653833031654358E-1  
 1.270140000000000E10    6.272436976432800E-1   5.299633145332336E-1   2.790271770209074E-3  -1.143694156780839E-3   2.801951486617327E-3  -1.138626947067678E-3   3.849315047264099E-1   7.513533234596252E-1  
 1.270160000000000E10    6.415506601333618E-1   5.064141154289246E-1   2.705506747588515E-3  -1.035974011756480E-3   2.718115923926234E-3  -1.031823223456740E-3   4.041895866394043E-1   7.362982034683228E-1  
 1.270180000000000E10    6.552608013153076E-1   4.818634986877441E-1   2.620587823912501E-3  -9.052334353327751E-4   2.632852643728256E-3  -9.007031330838800E-4   4.234632551670075E-1   7.201653122901917E-1  
 1.270200000000000E10    6.682911515235901E-1   4.562367796897888E-1   2.539091743528843E-3  -7.516592158935964E-4   2.549844328314066E-3  -7.466862443834543E-4   4.426234364509583E-1   7.029074430465698E-1  
 1.270220000000000E10    6.806105375289917E-1   4.296377599239349E-1   2.461569616571069E-3  -5.709356628358364E-4   2.470688894391060E-3  -5.634606350213289E-4   4.616717696189880E-1   6.843742132186890E-1  
 1.270240000000000E10    6.921373605728149E-1   4.019185900688171E-1   2.391190966591239E-3  -3.585380618460476E-4   2.398284850642085E-3  -3.522120823618025E-4   4.805475771427155E-1   6.646223068237305E-1  
 1.270260000000000E10    7.027075886726379E-1   3.731409311294556E-1   2.327273599803448E-3  -1.203664578497410E-4   2.335474826395512E-3  -1.123136607930064E-4   4.991777539253235E-1   6.435225605964661E-1  
 1.270280000000000E10    7.123010158538818E-1   3.433503210544586E-1   2.278003608807921E-3   1.548110158182681E-4   2.287029288709164E-3   1.631665800232440E-4   5.174551606178284E-1   6.210193634033203E-1  
 1.270300000000000E10    7.207512855529785E-1   3.124412894248962E-1   2.246406860649586E-3   4.628293099813163E-4   2.252665348351002E-3   4.707253538072109E-4   5.352584719657898E-1   5.970177054405212E-1  
 1.270320000000000E10    7.280129194259644E-1   2.804723978042603E-1   2.235480817034841E-3   8.042209083214402E-4   2.239305758848786E-3   8.130200440064073E-4   5.525331497192383E-1   5.714756250381470E-1  
 1.270340000000000E10    7.339140176773071E-1   2.475107908248901E-1   2.247402444481850E-3   1.182745094411075E-3   2.250694204121828E-3   1.194750308059156E-3   5.691322684288025E-1   5.443270206451416E-1  
 1.270360000000000E10    7.383927702903748E-1   2.135064303874970E-1   2.290496602654457E-3   1.599355367943645E-3   2.294175093993545E-3   1.609862316399813E-3   5.849052071571350E-1   5.154532194137573E-1  
 1.270380000000000E10    7.412524223327637E-1   1.785614192485809E-1   2.368047833442688E-3   2.049935050308704E-3   2.368376823142171E-3   2.064237371087074E-3   5.996359586715698E-1   4.848532676696777E-1  
 1.270400000000000E10    7.424384951591492E-1   1.426768004894257E-1   2.485499484464526E-3   2.540225163102150E-3   2.486872021108866E-3   2.551873913034797E-3   6.132283806800842E-1   4.524447321891785E-1  
 1.270420000000000E10    7.416943311691284E-1   1.058930307626724E-1   2.650270005688071E-3   3.061089664697647E-3   2.648176625370979E-3   3.073644125834107E-3   6.254175305366516E-1   4.181796014308929E-1  
 1.270440000000000E10    7.389243841171265E-1   6.835614889860153E-2   2.863902365788817E-3   3.611769760027528E-3   2.861612942069769E-3   3.629409708082676E-3   6.360068321228027E-1   3.820069432258606E-1  
 1.270460000000000E10    7.340358495712280E-1   3.015233203768730E-2   3.135771723464131E-3   4.192782565951347E-3   3.130522323772311E-3   4.208906088024378E-3   6.446397900581360E-1   3.439313173294067E-1  
 1.270480000000000E10    7.267478704452515E-1  -8.668862283229828E-3   3.462963504716754E-3   4.794933367520571E-3   3.457396291196346E-3   4.811912775039673E-3   6.511214375495911E-1   3.040607571601868E-1  
 1.270500000000000E10    7.169758677482605E-1  -4.786964505910873E-2   3.855219343677163E-3   5.411671008914709E-3   3.845807397738099E-3   5.432559177279472E-3   6.550726890563965E-1   2.623201012611389E-1  
 1.270520000000000E10    7.045565843582153E-1  -8.736386150121689E-2   4.305745940655470E-3   6.040693260729313E-3   4.296552855521441E-3   6.062357686460018E-3   6.561241745948792E-1   2.187749743461609E-1  
 1.270540000000000E10    6.893090605735779E-1  -1.269450187683106E-1   4.817448556423187E-3   6.673645228147507E-3   4.805052187293768E-3   6.696387659758329E-3   6.539597511291504E-1   1.737387031316757E-1  
 1.270560000000000E10    6.710324883460999E-1  -1.663762181997299E-1   5.380719434469938E-3   7.301799487322569E-3   5.368387792259455E-3   7.326855324208736E-3   6.480523347854614E-1   1.272229999303818E-1  
 1.270580000000000E10    6.496317386627197E-1  -2.053741514682770E-1   5.989822559058666E-3   7.927359081804752E-3   5.975718144327402E-3   7.953946478664875E-3   6.380107998847961E-1   7.957654446363449E-2  
 1.270600000000000E10    6.249732375144959E-1  -2.437022626399994E-1   6.623226217925549E-3   8.545511402189732E-3   6.605087313801050E-3   8.571237325668335E-3   6.235035061836243E-1   3.129618242383003E-2  
 1.270620000000000E10    5.968815684318543E-1  -2.809952795505524E-1   7.267388515174389E-3   9.161464869976044E-3   7.249245420098305E-3   9.189628064632416E-3   6.038860678672791E-1  -1.737624593079090E-2  
 1.270640000000000E10    5.653206706047058E-1  -3.168717920780182E-1   7.893673144280911E-3   9.797332808375359E-3   7.873247377574444E-3   9.824395179748535E-3   5.788668990135193E-1  -6.561318784952164E-2  
 1.270660000000000E10    5.302104353904724E-1  -3.509549796581268E-1   8.476105518639088E-3   1.047036051750183E-2   8.451789617538452E-3   1.050159893929958E-2   5.481862425804138E-1  -1.127043589949608E-1  
 1.270680000000000E10    4.915197193622589E-1  -3.827451467514038E-1   8.984325453639031E-3   1.123684458434582E-2   8.962207473814488E-3   1.126853842288256E-2   5.113246440887451E-1  -1.579072326421738E-1  
 1.270700000000000E10    4.493108987808228E-1  -4.117272496223450E-1   9.402870200574398E-3   1.216126140207052E-2   9.377547539770603E-3   1.219378411769867E-2   4.682998359203339E-1  -2.000617682933807E-1  
 1.270720000000000E10    4.036445617675781E-1  -4.373573660850525E-1   9.713935665786266E-3   1.333963219076395E-2   9.684302844107151E-3   1.337421499192715E-2   4.192318320274353E-1  -2.380275726318359E-1  
 1.270740000000000E10    3.547986447811127E-1  -4.590387940406799E-1   9.939775802195072E-3   1.490041986107826E-2   9.911488741636276E-3   1.493373978883028E-2   3.641144633293152E-1  -2.706250846385956E-1  
 1.270760000000000E10    3.030024468898773E-1  -4.761415421962738E-1   1.013809628784657E-2   1.699406281113625E-2   1.010089740157127E-2   1.707348972558975E-2   3.038260042667389E-1  -2.964027822017670E-1  
 1.270780000000000E10    2.487150877714157E-1  -4.880925118923187E-1   1.042727287858725E-2   1.980275288224220E-2   1.037957426160574E-2   1.989274658262730E-2   2.391369193792343E-1  -3.141288161277771E-1  
 1.270800000000000E10    1.925295144319534E-1  -4.941484928131104E-1   1.093313004821539E-2   2.359881252050400E-2   1.094261743128300E-2   2.361251227557659E-2   1.713580340147018E-1  -3.225515484809876E-1  
 1.270820000000000E10    1.350736171007156E-1  -4.937778115272522E-1   1.207920908927918E-2   2.838631533086300E-2   1.208980381488800E-2   2.840146794915199E-2   1.022123992443085E-1  -3.206995129585266E-1  
 1.270840000000000E10    7.735296338796616E-2  -4.864690303802490E-1   1.422464288771153E-2   3.435852378606796E-2   1.422813534736633E-2   3.437793627381325E-2   3.370379656553268E-2  -3.079544007778168E-1  
 1.270860000000000E10    2.046176791191101E-2  -4.717798829078674E-1   1.790935173630714E-2   4.152984917163849E-2   1.791959814727306E-2   4.155448824167252E-2  -3.193864598870277E-2  -2.842132747173309E-1  
 1.270880000000000E10   -3.426136076450348E-2  -4.495031237602234E-1   2.379236556589603E-2   4.974023252725601E-2   2.379162237048149E-2   4.975852742791176E-2  -9.225136786699295E-2  -2.498668879270554E-1  
 1.270900000000000E10   -8.532943576574326E-2  -4.197072386741638E-1   3.255689889192581E-2   5.857964977622032E-2   3.254424408078194E-2   5.860553681850433E-2  -1.447373777627945E-1  -2.061541378498077E-1  
 1.270920000000000E10   -1.312062442302704E-1  -3.828345239162445E-1   4.488315060734749E-2   6.735791265964508E-2   4.488211870193481E-2   6.738237291574478E-2  -1.875131577253342E-1  -1.548396348953247E-1  
 1.270940000000000E10   -1.701917797327042E-1  -3.397849500179291E-1   6.134793534874916E-2   7.504481077194214E-2   6.133545190095902E-2   7.507232576608658E-2  -2.188769429922104E-1  -9.839057922363281E-2  
 1.270960000000000E10   -2.008395344018936E-1  -2.919015586376190E-1   8.218631148338318E-2   8.028707653284073E-2   8.216851949691773E-2   8.033353835344315E-2  -2.379226386547089E-1  -3.977132961153984E-2  
 1.270980000000000E10   -2.219863981008530E-1  -2.411104440689087E-1   1.072376593947411E-1   8.154115080833435E-2   1.072372049093247E-1   8.156682550907135E-2  -2.448362112045288E-1   1.797234266996384E-2  
 1.271000000000000E10   -2.329461276531220E-1  -1.896903812885284E-1   1.357918530702591E-1   7.706389576196671E-2   1.357953250408173E-1   7.711123675107956E-2  -2.405866384506226E-1   7.194774597883225E-2  
 1.271020000000000E10   -2.337822318077087E-1  -1.402630358934403E-1   1.664234250783920E-1   6.541670113801956E-2   1.664282381534576E-1   6.546004116535187E-2  -2.268755733966827E-1   1.193726733326912E-1  
 1.271040000000000E10   -2.253620624542236E-1  -9.537329524755478E-2   1.971830278635025E-1   4.540403932332993E-2   1.972032785415649E-1   4.546797648072243E-2  -2.063651531934738E-1   1.586935371160507E-1  
 1.271060000000000E10   -2.094172537326813E-1  -5.734376236796379E-2   2.256422936916351E-1   1.657152175903320E-2   2.256691604852676E-1   1.662993058562279E-2  -1.819683909416199E-1   1.891289204359055E-1  
 1.271080000000000E10   -1.883475333452225E-1  -2.778743207454681E-2   2.491474300622940E-1  -2.070647478103638E-2   2.492056638002396E-1  -2.061784267425537E-2  -1.565071493387222E-1   2.106542140245438E-1  
 1.271100000000000E10   -1.650206297636032E-1  -7.456636521965265E-3   2.652389705181122E-1  -6.519816815853119E-2   2.652909755706787E-1  -6.513950973749161E-2  -1.324603259563446E-1   2.245894670486450E-1  
 1.271120000000000E10   -1.423257291316986E-1   3.914574161171913E-3   2.718711495399475E-1  -1.148724928498268E-1   2.719527482986450E-1  -1.148089691996574E-1  -1.116224005818367E-1   2.325076013803482E-1  
 1.271140000000000E10   -1.229304224252701E-1   7.530280854552984E-3   2.678260803222656E-1  -1.671533882617950E-1   2.679229974746704E-1  -1.670895367860794E-1  -9.502920508384705E-2   2.364667505025864E-1  
 1.271160000000000E10   -1.087155714631081E-1   5.319791845977306E-3   2.527000010013580E-1  -2.192238271236420E-1   2.527909576892853E-1  -2.191763818264008E-1  -8.288405090570450E-2   2.385933101177216E-1  
 1.271180000000000E10   -1.008426472544670E-1  -3.824222367256880E-4   2.268804460763931E-1  -2.683953344821930E-1   2.269966900348663E-1  -2.683386504650116E-1  -7.465533167123795E-2   2.405981868505478E-1  
 1.271200000000000E10   -9.959714114665985E-2  -7.129409350454807E-3   1.916040182113648E-1  -3.122588396072388E-1   1.917063295841217E-1  -3.122307360172272E-1  -6.948102265596390E-2   2.437164038419724E-1  
 1.271220000000000E10   -1.044741645455360E-1  -1.273630652576685E-2   1.484804600477219E-1  -3.490382432937622E-1   1.486084759235382E-1  -3.490267097949982E-1  -6.620119512081146E-2   2.489382177591324E-1  
 1.271240000000000E10   -1.143790334463120E-1  -1.536941528320313E-2   9.948177635669708E-2  -3.774896264076233E-1   9.957198798656464E-2  -3.775072991847992E-1  -6.362446397542954E-2   2.564744353294373E-1  
 1.271260000000000E10   -1.279349029064179E-1  -1.376855187118053E-2   4.663356393575668E-2  -3.969954550266266E-1   4.675314202904701E-2  -3.969931602478027E-1  -6.069238483905792E-2   2.663091719150543E-1  
