#  HZ   S   RI   R     50.00 
! Rohde & Schwarz ZVA50 2Ports - Version 3.70 - 1145.1110k50 SN: 100192
! Date: 2025-10-24 10:34:22
! Measurements: S11 S21 S12 S22 
! 
 1.269400000000000E10   -1.673358082771301E-1   8.980230689048767E-1   2.152331639081240E-3   4.960135556757450E-4   2.151615219190717E-3   5.051877815276384E-4  -4.143467843532562E-1   8.368685245513916E-1  
 1.269420000000000E10   -1.557420492172241E-1   8.992894291877747E-1   2.190099330618978E-3   4.807052027899772E-4   2.190369646996260E-3   4.897344624623656E-4  -4.064718186855316E-1   8.402182459831238E-1  
 1.269440000000000E10   -1.439542323350906E-1   9.004847407341003E-1   2.229456556960940E-3   4.609666066244245E-4   2.227813471108675E-3   4.711770743597299E-4  -3.983783125877380E-1   8.434882760047913E-1  
 1.269460000000000E10   -1.319785565137863E-1   9.015359878540039E-1   2.269267570227385E-3   4.445863305591047E-4   2.266269177198410E-3   4.536733322311193E-4  -3.901944160461426E-1   8.467105031013489E-1  
 1.269480000000000E10   -1.200230717658997E-1   9.026611447334290E-1   2.306462032720447E-3   4.266841569915414E-4   2.307151444256306E-3   4.353800322860479E-4  -3.822687268257141E-1   8.503936529159546E-1  
 1.269500000000000E10   -1.077325642108917E-1   9.034045934677124E-1   2.348475391045213E-3   4.058663907926530E-4   2.346185967326164E-3   4.152133478783071E-4  -3.738238513469696E-1   8.535529971122742E-1  
 1.269520000000000E10   -9.528978914022446E-2   9.039102196693420E-1   2.388119930401444E-3   3.843964077532291E-4   2.386201173067093E-3   3.931580577045679E-4  -3.652665317058563E-1   8.566901683807373E-1  
 1.269540000000000E10   -8.264646679162979E-2   9.042928218841553E-1   2.427512081339955E-3   3.627474070526660E-4   2.424481790512800E-3   3.706796269398183E-4  -3.565264940261841E-1   8.596842885017395E-1  
 1.269560000000000E10   -6.988595426082611E-2   9.044761657714844E-1   2.467271406203508E-3   3.403549490030855E-4   2.465239027515054E-3   3.478658618405461E-4  -3.477202653884888E-1   8.627244234085083E-1  
 1.269580000000000E10   -5.693211033940315E-2   9.044365286827087E-1   2.508178818970919E-3   3.153709985781461E-4   2.504428615793586E-3   3.226575208827853E-4  -3.387148380279541E-1   8.655708432197571E-1  
 1.269600000000000E10   -4.380492866039276E-2   9.042595624923706E-1   2.547331852838397E-3   2.898389939218760E-4   2.543587703257799E-3   2.984559396281838E-4  -3.295871913433075E-1   8.684377670288086E-1  
 1.269620000000000E10   -3.053031489253044E-2   9.038479924201965E-1   2.588783856481314E-3   2.642434264998883E-4   2.586153568699956E-3   2.712022105697542E-4  -3.203299343585968E-1   8.712352514266968E-1  
 1.269640000000000E10   -1.706221513450146E-2   9.032093286514282E-1   2.629362512379885E-3   2.355753968004137E-4   2.624745480716229E-3   2.435552014503628E-4  -3.109115958213806E-1   8.739514350891113E-1  
 1.269660000000000E10   -3.397401422262192E-3   9.023804664611816E-1   2.668217755854130E-3   2.074447111226618E-4   2.664330881088972E-3   2.122658916050568E-4  -3.013547062873840E-1   8.765937685966492E-1  
 1.269680000000000E10    1.040425896644592E-2   9.013293385505676E-1   2.707857172936201E-3   1.783862098818645E-4   2.704931423068047E-3   1.829695975175127E-4  -2.916296422481537E-1   8.791347742080689E-1  
 1.269700000000000E10    2.437213063240051E-2   8.999756574630737E-1   2.748557832092047E-3   1.457148464396596E-4   2.743618562817574E-3   1.517786004114896E-4  -2.817368805408478E-1   8.816317319869995E-1  
 1.269720000000000E10    3.848710283637047E-2   8.983928561210632E-1   2.786244265735149E-3   1.151913165813312E-4   2.782589057460427E-3   1.172467746073380E-4  -2.717190384864807E-1   8.840438127517700E-1  
 1.269740000000000E10    5.283037573099136E-2   8.965615034103394E-1   2.824946539476514E-3   8.194074325729162E-5   2.822072710841894E-3   8.270781108876690E-5  -2.615452706813812E-1   8.863680958747864E-1  
 1.269760000000000E10    6.733793020248413E-2   8.944531679153442E-1   2.863253466784954E-3   4.499527858570218E-5   2.861047396436334E-3   4.642931162379682E-5  -2.511827647686005E-1   8.885599374771118E-1  
 1.269780000000000E10    8.193586766719818E-2   8.920505642890930E-1   2.900630235671997E-3   8.563161827623844E-6   2.897437429055572E-3   1.035860623233020E-5  -2.406794428825378E-1   8.906442523002625E-1  
 1.269800000000000E10    9.675762057304382E-2   8.893190622329712E-1   2.937993267551065E-3  -2.821460657287389E-5   2.935390686616302E-3  -2.717136521823704E-5  -2.299564778804779E-1   8.926650881767273E-1  
 1.269820000000000E10    1.117563769221306E-1   8.863652944564819E-1   2.972329268231988E-3  -6.789265898987651E-5   2.970647532492876E-3  -6.843084702268243E-5  -2.190701067447662E-1   8.945363759994507E-1  
 1.269840000000000E10    1.268990039825440E-1   8.830435276031494E-1   3.008941188454628E-3  -1.097693748306483E-4   3.005629638209939E-3  -1.109776349039748E-4  -2.080339193344116E-1   8.962975740432739E-1  
 1.269860000000000E10    1.421605944633484E-1   8.794478774070740E-1   3.041414078325033E-3  -1.509912835899741E-4   3.041817573830485E-3  -1.526219712104648E-4  -1.968083530664444E-1   8.979207873344421E-1  
 1.269880000000000E10    1.576269865036011E-1   8.754180669784546E-1   3.074072301387787E-3  -1.944825926329941E-4   3.075035987421870E-3  -1.969026052393019E-4  -1.853830516338348E-1   8.994468450546265E-1  
 1.269900000000000E10    1.732454895973206E-1   8.710803389549255E-1   3.104878822341561E-3  -2.388557768426836E-4   3.106477903202176E-3  -2.410928718745709E-4  -1.737656444311142E-1   9.008231163024902E-1  
 1.269920000000000E10    1.889876127243042E-1   8.663531541824341E-1   3.133535850793123E-3  -2.836115891113877E-4   3.135995706543326E-3  -2.864650159608573E-4  -1.619545966386795E-1   9.020547270774841E-1  
 1.269940000000000E10    2.049206346273422E-1   8.612697124481201E-1   3.164451336488128E-3  -3.314328787382692E-4   3.167235059663653E-3  -3.348923928570002E-4  -1.500152051448822E-1   9.031027555465698E-1  
 1.269960000000000E10    2.209420651197434E-1   8.557484149932861E-1   3.189160954207182E-3  -3.790276241488755E-4   3.193519311025739E-3  -3.824235463980585E-4  -1.378116756677628E-1   9.040216803550720E-1  
 1.269980000000000E10    2.371040284633637E-1   8.498188257217407E-1   3.214010968804359E-3  -4.303557507228106E-4   3.218964207917452E-3  -4.319155996199697E-4  -1.254615485668182E-1   9.047611355781555E-1  
 1.270000000000000E10    2.534295916557312E-1   8.434715867042542E-1   3.236628603190184E-3  -4.797468718606979E-4   3.242672886699438E-3  -4.829686658922583E-4  -1.128560304641724E-1   9.053115844726563E-1  
 1.270020000000000E10    2.698506414890289E-1   8.366414308547974E-1   3.255389165133238E-3  -5.304578226059675E-4   3.263309597969055E-3  -5.340463249012828E-4  -1.000370532274246E-1   9.056582450866699E-1  
 1.270040000000000E10    2.863954603672028E-1   8.293837904930115E-1   3.273492911830545E-3  -5.833434406667948E-4   3.282377030700445E-3  -5.876983050256968E-4  -8.703755587339401E-2   9.058596491813660E-1  
 1.270060000000000E10    3.030280172824860E-1   8.216224908828735E-1   3.288818756118417E-3  -6.365524022839963E-4   3.298611380159855E-3  -6.389650516211987E-4  -7.378151267766953E-2   9.058005213737488E-1  
 1.270080000000000E10    3.197182416915894E-1   8.133661150932312E-1   3.302597440779209E-3  -6.891691591590643E-4   3.310733940452337E-3  -6.923265755176544E-4  -6.033065542578697E-2   9.055974483489990E-1  
 1.270100000000000E10    3.365157246589661E-1   8.045756220817566E-1   3.310464322566986E-3  -7.427985547110438E-4   3.322308417409658E-3  -7.455801242031157E-4  -4.668052867054939E-2   9.050482511520386E-1  
 1.270120000000000E10    3.534130454063416E-1   7.952546477317810E-1   3.316072514280677E-3  -7.974432082846761E-4   3.329099854454398E-3  -7.998332730494440E-4  -3.280206769704819E-2   9.043505191802979E-1  
 1.270140000000000E10    3.703678250312805E-1   7.853543162345886E-1   3.320236923173070E-3  -8.534863591194153E-4   3.332308959215879E-3  -8.540548151358962E-4  -1.870423555374146E-2   9.033352732658386E-1  
 1.270160000000000E10    3.873637616634369E-1   7.748804688453674E-1   3.319827839732170E-3  -9.058387950062752E-4   3.331646323204041E-3  -9.063222096301615E-4  -4.326373338699341E-3   9.020689129829407E-1  
 1.270180000000000E10    4.043476283550263E-1   7.638303041458130E-1   3.313672496005893E-3  -9.603461949154735E-4   3.329571103677154E-3  -9.605102241039276E-4   1.021912693977356E-2   9.005104899406433E-1  
 1.270200000000000E10    4.213706851005554E-1   7.520780563354492E-1   3.306661732494831E-3  -1.013132510706782E-3   3.320417832583189E-3  -1.013848464936018E-3   2.503562718629837E-2   8.986728191375732E-1  
 1.270220000000000E10    4.383323490619659E-1   7.397295832633972E-1   3.293147776275873E-3  -1.066102879121900E-3   3.308014944195747E-3  -1.066502882167697E-3   4.009747505187988E-2   8.964536190032959E-1  
 1.270240000000000E10    4.553447365760803E-1   7.266973257064819E-1   3.276236820966005E-3  -1.117332489229739E-3   3.291551955044270E-3  -1.115843653678894E-3   5.540344864130020E-2   8.939161896705627E-1  
 1.270260000000000E10    4.722674787044525E-1   7.129631042480469E-1   3.254533279687166E-3  -1.166502013802528E-3   3.269711975008249E-3  -1.164549496024847E-3   7.094561308622360E-2   8.910586237907410E-1  
 1.270280000000000E10    4.890576004981995E-1   6.985233426094055E-1   3.227825043722987E-3  -1.214931951835752E-3   3.243215382099152E-3  -1.211611554026604E-3   8.671581745147705E-2   8.877959251403809E-1  
 1.270300000000000E10    5.058001875877380E-1   6.833289861679077E-1   3.196350298821926E-3  -1.260367804206908E-3   3.211450763046742E-3  -1.257380936294794E-3   1.027634516358376E-1   8.840919137001038E-1  
 1.270320000000000E10    5.224111676216126E-1   6.673448681831360E-1   3.158391686156392E-3  -1.303848344832659E-3   3.174285637214780E-3  -1.298466930165887E-3   1.190342381596565E-1   8.800057172775269E-1  
 1.270340000000000E10    5.388116240501404E-1   6.505830287933350E-1   3.115146886557341E-3  -1.344764023087919E-3   3.130059922114015E-3  -1.338784350082278E-3   1.355684697628021E-1   8.754315376281738E-1  
 1.270360000000000E10    5.550312399864197E-1   6.329932212829590E-1   3.067618468776345E-3  -1.382330432534218E-3   3.080911003053188E-3  -1.375216641463339E-3   1.523470729589462E-1   8.703979849815369E-1  
 1.270380000000000E10    5.709719061851502E-1   6.145830154418945E-1   3.011439228430390E-3  -1.414294238202274E-3   3.026221645995975E-3  -1.409992342814803E-3   1.693611741065979E-1   8.647887706756592E-1  
 1.270400000000000E10    5.866636037826538E-1   5.953013896942139E-1   2.950936788693070E-3  -1.445834524929524E-3   2.965412335470319E-3  -1.437867991626263E-3   1.865784972906113E-1   8.586981296539307E-1  
 1.270420000000000E10    6.020113825798035E-1   5.750399231910706E-1   2.882125321775675E-3  -1.471908530220389E-3   2.894345903769136E-3  -1.463861088268459E-3   2.040830999612808E-1   8.520053625106812E-1  
 1.270440000000000E10    6.169573664665222E-1   5.539039373397827E-1   2.806317061185837E-3  -1.493096817284823E-3   2.819562330842018E-3  -1.483955653384328E-3   2.218253910541534E-1   8.447216153144836E-1  
 1.270460000000000E10    6.314864754676819E-1   5.318325757980347E-1   2.722069155424833E-3  -1.510933041572571E-3   2.735087648034096E-3  -1.503862324170768E-3   2.397883832454681E-1   8.367144465446472E-1  
 1.270480000000000E10    6.455370783805847E-1   5.087885856628418E-1   2.631498500704765E-3  -1.525471569038928E-3   2.641411032527685E-3  -1.516630873084068E-3   2.579335570335388E-1   8.280546665191650E-1  
 1.270500000000000E10    6.589557528495789E-1   4.847143292427063E-1   2.530281664803624E-3  -1.537098200060427E-3   2.542015630751848E-3  -1.527857268229127E-3   2.763022184371948E-1   8.186476230621338E-1  
 1.270520000000000E10    6.718020439147949E-1   4.596948921680450E-1   2.419575816020370E-3  -1.544980099424720E-3   2.428085077553988E-3  -1.537030912004411E-3   2.948557734489441E-1   8.083680868148804E-1  
 1.270540000000000E10    6.839198470115662E-1   4.335702657699585E-1   2.295984420925379E-3  -1.548808300867677E-3   2.303802175447345E-3  -1.539897988550365E-3   3.135501742362976E-1   7.972872853279114E-1  
 1.270560000000000E10    6.952279806137085E-1   4.064113795757294E-1   2.158933551982045E-3  -1.553623704239726E-3   2.166214864701033E-3  -1.546268351376057E-3   3.324027657508850E-1   7.852525115013123E-1  
 1.270580000000000E10    7.056339383125305E-1   3.782172799110413E-1   2.003706991672516E-3  -1.558434450998902E-3   2.010018797591329E-3  -1.549614593386650E-3   3.513427376747131E-1   7.722356319427490E-1  
 1.270600000000000E10    7.150712013244629E-1   3.489232063293457E-1   1.828208449296653E-3  -1.567117753438652E-3   1.832772046327591E-3  -1.556989154778421E-3   3.704094886779785E-1   7.581840157508850E-1  
 1.270620000000000E10    7.233930230140686E-1   3.185473680496216E-1   1.627446385100484E-3  -1.577734947204590E-3   1.631340594030917E-3  -1.570826978422701E-3   3.894892632961273E-1   7.429671287536621E-1  
 1.270640000000000E10    7.305333018302918E-1   2.870933413505554E-1   1.391826663166285E-3  -1.598379574716091E-3   1.397498068399727E-3  -1.589783118106425E-3   4.085415601730347E-1   7.265134453773499E-1  
 1.270660000000000E10    7.362869977951050E-1   2.546002864837647E-1   1.115099526941776E-3  -1.627598423510790E-3   1.119462191127241E-3  -1.622386276721954E-3   4.275047183036804E-1   7.087961435317993E-1  
 1.270680000000000E10    7.405850887298584E-1   2.210294753313065E-1   7.844469510018826E-4  -1.672911457717419E-3   7.855653529986739E-4  -1.666249940171838E-3   4.462988078594208E-1   6.896430253982544E-1  
 1.270700000000000E10    7.432219982147217E-1   1.864860951900482E-1   3.803358413279057E-4  -1.733133569359779E-3   3.813434159383178E-4  -1.728119794279337E-3   4.648637175559998E-1   6.689960956573486E-1  
 1.270720000000000E10    7.440439462661743E-1   1.509031951427460E-1  -1.178165111923590E-4  -1.813336508348584E-3  -1.196028315462172E-4  -1.809875248000026E-3   4.829970896244049E-1   6.467235088348389E-1  
 1.270740000000000E10    7.428815364837647E-1   1.144906282424927E-1  -7.402378832921386E-4  -1.914352760650218E-3  -7.428530370816588E-4  -1.912479754537344E-3   5.006448030471802E-1   6.226844787597656E-1  
 1.270760000000000E10    7.395057678222656E-1   7.726522535085678E-2  -1.528514432720840E-3  -2.029791241511703E-3  -1.531121786683798E-3  -2.030716277658939E-3   5.175926685333252E-1   5.967959165573120E-1  
 1.270780000000000E10    7.337598800659180E-1   3.927325457334518E-2  -2.527744974941015E-3  -2.151436172425747E-3  -2.532208571210504E-3  -2.157159149646759E-3   5.336223244667053E-1   5.689347386360169E-1  
 1.270800000000000E10    7.253560423851013E-1   8.125118911266327E-4  -3.809427842497826E-3  -2.262765076011419E-3  -3.814164781942964E-3  -2.267581410706043E-3   5.485129356384277E-1   5.389879941940308E-1  
 1.270820000000000E10    7.140083909034729E-1  -3.805153071880341E-2  -5.450760014355183E-3  -2.318112645298243E-3  -5.460574291646481E-3  -2.328288275748491E-3   5.618753433227539E-1   5.067902803421021E-1  
 1.270840000000000E10    6.995911598205566E-1  -7.702304422855377E-2  -7.562384009361267E-3  -2.259478438645601E-3  -7.571762427687645E-3  -2.273244783282280E-3   5.733476281166077E-1   4.723455309867859E-1  
 1.270860000000000E10    6.817277669906616E-1  -1.157336831092835E-1  -1.026514638215303E-2  -1.974195241928101E-3  -1.027603074908257E-2  -1.994022633880377E-3   5.824654698371887E-1   4.355711638927460E-1  
 1.270880000000000E10    6.602229475975037E-1  -1.537924855947495E-1  -1.370063703507185E-2  -1.292273052968085E-3  -1.371673028916121E-2  -1.319769537076354E-3   5.886445045471191E-1   3.964991271495819E-1  
 1.270900000000000E10    6.348119378089905E-1  -1.905912756919861E-1  -1.805666834115982E-2  -1.681828871369362E-5  -1.807331480085850E-2  -1.248868647962809E-5   5.911703109741211E-1   3.553963899612427E-1  
 1.270920000000000E10    6.053943037986755E-1  -2.255411148071289E-1  -2.340173535048962E-2   2.353627700358629E-3  -2.342211827635765E-2   2.372401999309659E-3   5.892873406410217E-1   3.125315904617310E-1  
 1.270940000000000E10    5.718969106674194E-1  -2.577603161334992E-1  -2.980573661625385E-2   6.337195169180632E-3  -2.982942014932632E-2   6.363692693412304E-3   5.821705460548401E-1   2.686114013195038E-1  
 1.270960000000000E10    5.345404744148254E-1  -2.861726880073547E-1  -3.714362531900406E-2   1.268968265503645E-2  -3.716685622930527E-2   1.271695550531149E-2   5.690525770187378E-1   2.246561050415039E-1  
 1.270980000000000E10    4.939822256565094E-1  -3.097831606864929E-1  -4.497095569968224E-2   2.235375717282295E-2  -4.499257728457451E-2   2.238580770790577E-2   5.493070483207703E-1   1.821302920579910E-1  
 1.271000000000000E10    4.511725306510925E-1  -3.274887502193451E-1  -5.230218544602394E-2   3.634503856301308E-2  -5.231287330389023E-2   3.637038543820381E-2   5.229238867759705E-1   1.430456340312958E-1  
 1.271020000000000E10    4.077323377132416E-1  -3.385629057884216E-1  -5.742670968174934E-2   5.550045147538185E-2  -5.744233354926109E-2   5.552425980567932E-2   4.906748235225678E-1   1.095915734767914E-1  
 1.271040000000000E10    3.657806813716888E-1  -3.429421484470367E-1  -5.792522057890892E-2   7.993257045745850E-2  -5.793689936399460E-2   7.995820045471191E-2   4.544846415519714E-1   8.381991833448410E-2  
 1.271060000000000E10    3.274079263210297E-1  -3.416198492050171E-1  -5.094855651259422E-2   1.085403561592102E-1  -5.095402896404266E-2   1.085650175809860E-1   4.174789190292358E-1   6.672777980566025E-2  
 1.271080000000000E10    2.940696179866791E-1  -3.365608751773834E-1  -3.402277082204819E-2   1.386271417140961E-1  -3.402402624487877E-2   1.386528313159943E-1   3.831186890602112E-1   5.755726620554924E-2  
 1.271100000000000E10    2.660476863384247E-1  -3.302862048149109E-1  -6.108899600803852E-3   1.662054806947708E-1  -6.106848828494549E-3   1.662428230047226E-1   3.540273606777191E-1   5.374441668391228E-2  
 1.271120000000000E10    2.422697246074677E-1  -3.250112235546112E-1   3.186560049653053E-2   1.870533376932144E-1   3.186222910881043E-2   1.870936900377274E-1   3.310232758522034E-1   5.160748586058617E-2  
 1.271140000000000E10    2.207912355661392E-1  -3.217826187610626E-1   7.717790454626083E-2   1.978078633546829E-1   7.717278599739075E-2   1.978511959314346E-1   3.127081394195557E-1   4.788233712315559E-2  
 1.271160000000000E10    1.998028010129929E-1  -3.204587996006012E-1   1.261472851037979E-1   1.967137008905411E-1   1.261727362871170E-1   1.967513859272003E-1   2.963208258152008E-1   4.080583527684212E-2  
 1.271180000000000E10    1.780915856361389E-1  -3.201328814029694E-1   1.751941442489624E-1   1.834922283887863E-1   1.752099990844727E-1   1.835306882858276E-1   2.788807451725006E-1   3.037527762353420E-2  
 1.271200000000000E10    1.552851200103760E-1  -3.196892142295837E-1   2.211977243423462E-1   1.589912921190262E-1   2.212491631507874E-1   1.589995175600052E-1   2.581017613410950E-1   1.805302128195763E-2  
 1.271220000000000E10    1.315945386886597E-1  -3.181499242782593E-1   2.617801129817963E-1   1.245690807700157E-1   2.618512213230133E-1   1.245751604437828E-1   2.328333556652069E-1   5.996380932629108E-3  
 1.271240000000000E10    1.076341569423676E-1  -3.150775432586670E-1   2.951318919658661E-1   8.197282254695892E-2   2.952147722244263E-1   8.191423863172531E-2   2.029761373996735E-1  -3.523782361298800E-3  
 1.271260000000000E10    8.401174843311310E-2  -3.104024529457092E-1   3.199202120304108E-1   3.297804296016693E-2   3.199738562107086E-1   3.296022489666939E-2   1.693774163722992E-1  -8.517280220985413E-3  
