#  HZ   S   RI   R     50.00 
! Rohde & Schwarz ZVA50 2Ports - Version 3.70 - 1145.1110k50 SN: 100192
! Date: 2025-10-24 10:33:41
! Measurements: S11 S21 S12 S22 
! 
 1.269400000000000E10   -1.677433103322983E-1   8.955751061439514E-1   2.146145096048713E-3   4.954875912517309E-4   2.146969782188535E-3   5.032882327213883E-4  -4.145369231700897E-1   8.368257880210877E-1  
 1.269420000000000E10   -1.561761498451233E-1   8.968308568000794E-1   2.183548640459776E-3   4.786919162143022E-4   2.185672521591187E-3   4.884833469986916E-4  -4.066764414310455E-1   8.401772379875183E-1  
 1.269440000000000E10   -1.444635689258575E-1   8.980334401130676E-1   2.221631584689021E-3   4.622956912498921E-4   2.223066519945860E-3   4.717899719253182E-4  -3.986006677150726E-1   8.434386253356934E-1  
 1.269460000000000E10   -1.325026005506516E-1   8.990703225135803E-1   2.260565524920821E-3   4.428449028637260E-4   2.262774389237166E-3   4.541508387774229E-4  -3.904183506965637E-1   8.466696739196777E-1  
 1.269480000000000E10   -1.206095218658447E-1   9.001630544662476E-1   2.300804946571589E-3   4.247647593729198E-4   2.303720917552710E-3   4.357002035249025E-4  -3.824667036533356E-1   8.503529429435730E-1  
 1.269500000000000E10   -1.083398088812828E-1   9.009062051773071E-1   2.341668354347348E-3   4.053128650411964E-4   2.340627135708928E-3   4.147673025727272E-4  -3.740665614604950E-1   8.535265922546387E-1  
 1.269520000000000E10   -9.596259891986847E-2   9.014102816581726E-1   2.380275167524815E-3   3.841778379864991E-4   2.379317767918110E-3   3.945173521060497E-4  -3.654876053333283E-1   8.566304445266724E-1  
 1.269540000000000E10   -8.334239572286606E-2   9.017651677131653E-1   2.419365104287863E-3   3.613508888520300E-4   2.418706659227610E-3   3.719039377756417E-4  -3.567962348461151E-1   8.596336841583252E-1  
 1.269560000000000E10   -7.063146680593491E-2   9.019585847854614E-1   2.460955642163754E-3   3.383967559784651E-4   2.457975642755628E-3   3.477741556707770E-4  -3.479632437229157E-1   8.626582026481628E-1  
 1.269580000000000E10   -5.772709846496582E-2   9.019067883491516E-1   2.500093774870038E-3   3.147057723253965E-4   2.498301211744547E-3   3.233927709516138E-4  -3.389792442321777E-1   8.655301928520203E-1  
 1.269600000000000E10   -4.465799778699875E-2   9.017112255096436E-1   2.540890593081713E-3   2.897703379858285E-4   2.536716172471643E-3   2.999014395754784E-4  -3.298402726650238E-1   8.684003353118897E-1  
 1.269620000000000E10   -3.142271563410759E-2   9.013233780860901E-1   2.578839892521501E-3   2.625600609462708E-4   2.577063394710422E-3   2.727946266531944E-4  -3.205976784229279E-1   8.712032437324524E-1  
 1.269640000000000E10   -1.800304651260376E-2   9.006644487380981E-1   2.618918661028147E-3   2.366237749811262E-4   2.617264399304986E-3   2.452987828291953E-4  -3.111770153045654E-1   8.739338517189026E-1  
 1.269660000000000E10   -4.372794181108475E-3   8.998373746871948E-1   2.660305472090840E-3   2.073335199384019E-4   2.656861906871200E-3   2.143033489119262E-4  -3.016182780265808E-1   8.765569329261780E-1  
 1.269680000000000E10    9.381476789712906E-3   8.987747430801392E-1   2.699878765270114E-3   1.776198041625321E-4   2.695529488846660E-3   1.840576005633920E-4  -2.919004857540131E-1   8.791067004203796E-1  
 1.269700000000000E10    2.327345684170723E-2   8.974184393882752E-1   2.737767761573196E-3   1.482813095208257E-4   2.735396614298224E-3   1.520184450782836E-4  -2.820158004760742E-1   8.815952539443970E-1  
 1.269720000000000E10    3.733215481042862E-2   8.958590030670166E-1   2.777520800009370E-3   1.140775275416672E-4   2.773651387542486E-3   1.192225463455543E-4  -2.720022499561310E-1   8.840185403823853E-1  
 1.269740000000000E10    5.161049962043762E-2   8.940129876136780E-1   2.815610961988568E-3   8.048569725360721E-5   2.811897778883576E-3   8.582775626564398E-5  -2.618239223957062E-1   8.863329887390137E-1  
 1.269760000000000E10    6.606104969978333E-2   8.919222950935364E-1   2.853210316970944E-3   4.554317274596542E-5   2.848587697371841E-3   5.181650340091437E-5  -2.514616847038269E-1   8.885408639907837E-1  
 1.269780000000000E10    8.061727881431580E-2   8.895534276962280E-1   2.889562631025910E-3   1.080655783880502E-5   2.885666443035007E-3   1.379975583404303E-5  -2.409443855285645E-1   8.906106948852539E-1  
 1.269800000000000E10    9.537772089242935E-2   8.868197202682495E-1   2.925201784819365E-3  -2.633988333400339E-5   2.923075109720230E-3  -2.475593646522611E-5  -2.302449345588684E-1   8.926305174827576E-1  
 1.269820000000000E10    1.102935075759888E-1   8.839073777198792E-1   2.961808117106557E-3  -6.662633677478880E-5   2.959681907668710E-3  -6.338748789858073E-5  -2.193795293569565E-1   8.945050835609436E-1  
 1.269840000000000E10    1.253895163536072E-1   8.805706501007080E-1   2.995703136548400E-3  -1.059198693837971E-4   2.994181588292122E-3  -1.061026414390653E-4  -2.083240747451782E-1   8.962680697441101E-1  
 1.269860000000000E10    1.405930817127228E-1   8.770024180412293E-1   3.029006300494075E-3  -1.470853603677824E-4   3.027335973456502E-3  -1.466395624447614E-4  -1.971099674701691E-1   8.979129195213318E-1  
 1.269880000000000E10    1.559749096632004E-1   8.730009794235230E-1   3.061108523979783E-3  -1.903392694657669E-4   3.060637973248959E-3  -1.900012284750119E-4  -1.856933832168579E-1   8.994436860084534E-1  
 1.269900000000000E10    1.715163886547089E-1   8.686792850494385E-1   3.091149497777224E-3  -2.336869947612286E-4   3.088732250034809E-3  -2.336567267775536E-4  -1.741019785404205E-1   9.008122086524963E-1  
 1.269920000000000E10    1.872073709964752E-1   8.639930486679077E-1   3.119674511253834E-3  -2.778676571324468E-4   3.119447035714984E-3  -2.786779950838536E-4  -1.623056232929230E-1   9.020279049873352E-1  
 1.269940000000000E10    2.030794322490692E-1   8.589285016059876E-1   3.147968323901296E-3  -3.254662733525038E-4   3.148530609905720E-3  -3.256018098909408E-4  -1.503562033176422E-1   9.031236767768860E-1  
 1.269960000000000E10    2.190230637788773E-1   8.534544706344605E-1   3.172529628500342E-3  -3.701469686347991E-4   3.174852114170790E-3  -3.727055154740810E-4  -1.381524950265884E-1   9.040100574493408E-1  
 1.269980000000000E10    2.351147234439850E-1   8.475620746612549E-1   3.198200371116400E-3  -4.180630494374782E-4   3.199688624590635E-3  -4.194533394183964E-4  -1.257947087287903E-1   9.047647118568420E-1  
 1.270000000000000E10    2.513701319694519E-1   8.412893414497376E-1   3.217465244233608E-3  -4.670722701121122E-4   3.221882972866297E-3  -4.708420601673424E-4  -1.131902411580086E-1   9.053189754486084E-1  
 1.270020000000000E10    2.677029967308044E-1   8.344881534576416E-1   3.236089833080769E-3  -5.156235420145094E-4   3.242068458348513E-3  -5.191304953768849E-4  -1.003805994987488E-1   9.056476950645447E-1  
 1.270040000000000E10    2.841879725456238E-1   8.272721171379089E-1   3.253557253628969E-3  -5.663931369781494E-4   3.259693272411823E-3  -5.705244839191437E-4  -8.737343549728394E-2   9.058732986450195E-1  
 1.270060000000000E10    3.007324337959290E-1   8.195841312408447E-1   3.266656538471580E-3  -6.152678979560733E-4   3.275580704212189E-3  -6.199298659339547E-4  -7.413600385189056E-2   9.058086276054382E-1  
 1.270080000000000E10    3.173648118972778E-1   8.113630414009094E-1   3.278212621808052E-3  -6.656919140368700E-4   3.286332590505481E-3  -6.721154786646366E-4  -6.069686263799667E-2   9.055845141410828E-1  
 1.270100000000000E10    3.340597748756409E-1   8.026528954505920E-1   3.285628044977784E-3  -7.176096551120281E-4   3.295136615633965E-3  -7.220002589747310E-4  -4.706029966473579E-2   9.050499200820923E-1  
 1.270120000000000E10    3.508840501308441E-1   7.934268116950989E-1   3.289473010227084E-3  -7.679306436330080E-4   3.300638636574149E-3  -7.726623443886638E-4  -3.315828740596771E-2   9.043498635292053E-1  
 1.270140000000000E10    3.677750527858734E-1   7.835817933082581E-1   3.291675122454763E-3  -8.198902942240238E-4   3.301241202279925E-3  -8.230216917581856E-4  -1.907707750797272E-2   9.033294320106506E-1  
 1.270160000000000E10    3.846929669380188E-1   7.732183933258057E-1   3.287919331341982E-3  -8.699509198777378E-4   3.301128279417753E-3  -8.721917401999235E-4  -4.716537892818451E-3   9.021114110946655E-1  
 1.270180000000000E10    4.015937745571137E-1   7.622653841972351E-1   3.281692275777459E-3  -9.189991978928447E-4   3.294695867225528E-3  -9.209004929289222E-4   9.836278855800629E-3   9.005529880523682E-1  
 1.270200000000000E10    4.185270369052887E-1   7.506135702133179E-1   3.271256107836962E-3  -9.647909319028258E-4   3.285273909568787E-3  -9.688799618743360E-4   2.462518960237503E-2   8.987119793891907E-1  
 1.270220000000000E10    4.354392588138580E-1   7.383652925491333E-1   3.256836207583547E-3  -1.012974302284420E-3   3.269279608502984E-3  -1.013905974105001E-3   3.968250006437302E-2   8.965005278587341E-1  
 1.270240000000000E10    4.523388147354126E-1   7.254966497421265E-1   3.236046060919762E-3  -1.056876964867115E-3   3.251040587201715E-3  -1.057647750712931E-3   5.495025217533112E-2   8.940050005912781E-1  
 1.270260000000000E10    4.692026972770691E-1   7.119002342224121E-1   3.211452392861247E-3  -1.096741412766278E-3   3.227757290005684E-3  -1.096308464184403E-3   7.051470130681992E-2   8.911246657371521E-1  
 1.270280000000000E10    4.859365820884705E-1   6.976257562637329E-1   3.182539250701666E-3  -1.135143567807972E-3   3.199567086994648E-3  -1.135444035753608E-3   8.627559989690781E-2   8.878734111785889E-1  
 1.270300000000000E10    5.026177763938904E-1   6.825742721557617E-1   3.149152034893632E-3  -1.170544768683612E-3   3.165680216625333E-3  -1.169612398371100E-3   1.023150160908699E-1   8.842045664787293E-1  
 1.270320000000000E10    5.191527605056763E-1   6.667710542678833E-1   3.109449520707130E-3  -1.200923928990960E-3   3.124048933386803E-3  -1.198653015308082E-3   1.185656115412712E-1   8.801182508468628E-1  
 1.270340000000000E10    5.355042219161987E-1   6.501869559288025E-1   3.064193995669484E-3  -1.226490479893982E-3   3.079602494835854E-3  -1.222911640070379E-3   1.350837945938110E-1   8.755667209625244E-1  
 1.270360000000000E10    5.516864061355591E-1   6.328235864639282E-1   3.013811307027936E-3  -1.247335108928382E-3   3.029155079275370E-3  -1.243851613253355E-3   1.518585085868835E-1   8.705366849899292E-1  
 1.270380000000000E10    5.675684809684753E-1   6.146321892738342E-1   2.958417171612382E-3  -1.262686098925769E-3   2.971369540318847E-3  -1.257587457075715E-3   1.688535213470459E-1   8.649687170982361E-1  
 1.270400000000000E10    5.832473039627075E-1   5.955758094787598E-1   2.895410871133208E-3  -1.269608503207564E-3   2.910569310188294E-3  -1.264361548237503E-3   1.860710531473160E-1   8.589010834693909E-1  
 1.270420000000000E10    5.986061692237854E-1   5.756136775016785E-1   2.827601274475455E-3  -1.269720029085875E-3   2.841729903593659E-3  -1.264125457964838E-3   2.035564482212067E-1   8.522318005561829E-1  
 1.270440000000000E10    6.135632395744324E-1   5.547515749931335E-1   2.753459848463535E-3  -1.261891215108335E-3   2.767956582829356E-3  -1.256785239093006E-3   2.213010787963867E-1   8.449715971946716E-1  
 1.270460000000000E10    6.280851364135742E-1   5.329902172088623E-1   2.672701608389616E-3  -1.245713909156621E-3   2.685006242245436E-3  -1.239113043993712E-3   2.392263114452362E-1   8.369939327239990E-1  
 1.270480000000000E10    6.421786546707153E-1   5.102682113647461E-1   2.588022267445922E-3  -1.221603946760297E-3   2.599646337330341E-3  -1.213442534208298E-3   2.573798000812531E-1   8.283786773681641E-1  
 1.270500000000000E10    6.556810140609741E-1   4.865921735763550E-1   2.494052518159151E-3  -1.185909030027688E-3   2.505610696971417E-3  -1.178180566057563E-3   2.757070362567902E-1   8.189947605133057E-1  
 1.270520000000000E10    6.686289310455322E-1   4.618580937385559E-1   2.396586816757917E-3  -1.139005296863616E-3   2.404669532552362E-3  -1.130508491769433E-3   2.943034768104553E-1   8.087414503097534E-1  
 1.270540000000000E10    6.808881759643555E-1   4.361766576766968E-1   2.291107084602118E-3  -1.080815447494388E-3   2.299967221915722E-3  -1.073481515049934E-3   3.129711151123047E-1   7.977440357208252E-1  
 1.270560000000000E10    6.923924684524536E-1   4.094784855842590E-1   2.179432893171907E-3  -1.014544162899256E-3   2.187917707487941E-3  -1.006438164040446E-3   3.318417072296143E-1   7.857477068901062E-1  
 1.270580000000000E10    7.030088901519775E-1   3.817697465419769E-1   2.058133715763688E-3  -9.365718578919768E-4   2.065899781882763E-3  -9.279166697524488E-4   3.507994115352631E-1   7.727991342544556E-1  
 1.270600000000000E10    7.127247452735901E-1   3.530104160308838E-1   1.927826437167823E-3  -8.478184463456273E-4   1.936648739501834E-3  -8.372853044420481E-4   3.698583245277405E-1   7.588262557983398E-1  
 1.270620000000000E10    7.213895320892334E-1   3.231982290744782E-1   1.790157752111554E-3  -7.489402778446674E-4   1.796092255972326E-3  -7.373588159680367E-4   3.889462053775787E-1   7.436960339546204E-1  
 1.270640000000000E10    7.289690971374512E-1   2.923651337623596E-1   1.638518180698156E-3  -6.378326797857881E-4   1.642318442463875E-3  -6.305471761152148E-4   4.079893231391907E-1   7.273787260055542E-1  
 1.270660000000000E10    7.352769374847412E-1   2.605001032352448E-1   1.470532384701073E-3  -5.232646944932640E-4   1.471738214604557E-3  -5.138697451911867E-4   4.270110130310059E-1   7.097733616828919E-1  
 1.270680000000000E10    7.402464747428894E-1   2.276015132665634E-1   1.280971453525126E-3  -4.004354996141046E-4   1.281957724131644E-3  -3.897779097314924E-4   4.458381533622742E-1   6.907724142074585E-1  
 1.270700000000000E10    7.436713576316834E-1   1.937236487865448E-1   1.063502160832286E-3  -2.710981061682105E-4   1.064397860318422E-3  -2.626478380989283E-4   4.644562602043152E-1   6.702761054039002E-1  
 1.270720000000000E10    7.454705238342285E-1   1.588577628135681E-1   8.101544226519764E-4  -1.414884900441393E-4   8.105463348329067E-4  -1.332430401816964E-4   4.827364981174469E-1   6.481697559356690E-1  
 1.270740000000000E10    7.454731464385986E-1   1.231561452150345E-1   5.075319204479456E-4  -7.609629392391071E-6   5.040197283960879E-4  -6.858645065221936E-7   5.005353093147278E-1   6.243078708648682E-1  
 1.270760000000000E10    7.434800863265991E-1   8.659097552299500E-2   1.348962687188759E-4   1.249756605830044E-4   1.315410772804171E-4   1.326549681834877E-4   5.176658630371094E-1   5.986701846122742E-1  
 1.270780000000000E10    7.394288778305054E-1   4.925139993429184E-2  -3.289345477242023E-4   2.630921371746808E-4  -3.309955645818263E-4   2.692687558010221E-4   5.339723825454712E-1   5.710884332656860E-1  
 1.270800000000000E10    7.330046892166138E-1   1.132809743285179E-2  -9.130673133768141E-4   4.067739646416158E-4  -9.163541835732758E-4   4.113180330023170E-4   5.492162704467773E-1   5.414376258850098E-1  
 1.270820000000000E10    7.240557670593262E-1  -2.715900167822838E-2  -1.658607507124543E-3   5.679075256921351E-4  -1.666844938881695E-3   5.726335803046823E-4   5.630812644958496E-1   5.095607638359070E-1  
 1.270840000000000E10    7.124149203300476E-1  -6.596371531486511E-2  -2.620809711515904E-3   7.709265919402242E-4  -2.629612106829882E-3   7.713360246270895E-4   5.752375125885010E-1   4.754104018211365E-1  
 1.270860000000000E10    6.978557109832764E-1  -1.048747226595879E-1  -3.863329300656915E-3   1.048318692483008E-3  -3.874972229823470E-3   1.047976315021515E-3   5.852530002593994E-1   4.389150440692902E-1  
 1.270880000000000E10    6.801585555076599E-1  -1.437200903892517E-1  -5.466971080750227E-3   1.462087035179138E-3  -5.481872707605362E-3   1.455837744288147E-3   5.926601886749268E-1   4.000004529953003E-1  
 1.270900000000000E10    6.591061353683472E-1  -1.820317357778549E-1  -7.527865003794432E-3   2.110545989125967E-3  -7.545579224824905E-3   2.099434379488230E-3   5.967729687690735E-1   3.588063418865204E-1  
 1.270920000000000E10    6.344864368438721E-1  -2.196022719144821E-1  -1.015593856573105E-2   3.141419263556600E-3  -1.017438527196646E-2   3.126404248178005E-3   5.969408750534058E-1   3.154783844947815E-1  
 1.270940000000000E10    6.061340570449829E-1  -2.558566629886627E-1  -1.345134899020195E-2   4.782398231327534E-3  -1.347596663981676E-2   4.759936127811670E-3   5.923215150833130E-1   2.703897058963776E-1  
 1.270960000000000E10    5.739294886589050E-1  -2.901663482189179E-1  -1.749693416059017E-2   7.361448369920254E-3  -1.753033697605133E-2   7.330828811973333E-3   5.820732712745667E-1   2.241664528846741E-1  
 1.270980000000000E10    5.379223823547363E-1  -3.219552636146545E-1  -2.239640243351460E-2   1.127844862639904E-2  -2.240688726305962E-2   1.129680406302214E-2   5.652326941490173E-1   1.777920871973038E-1  
 1.271000000000000E10    4.981317222118378E-1  -3.503593802452087E-1  -2.786061167716980E-2   1.725174859166145E-2  -2.787623926997185E-2   1.727250032126904E-2   5.410788059234619E-1   1.326846331357956E-1  
 1.271020000000000E10    4.549253582954407E-1  -3.745280504226685E-1  -3.356897458434105E-2   2.597931027412415E-2  -3.357983008027077E-2   2.601014077663422E-2   5.091531276702881E-1   9.084188193082809E-2  
 1.271040000000000E10    4.089968800544739E-1  -3.935545682907105E-1  -3.872110322117806E-2   3.827172890305519E-2  -3.873230144381523E-2   3.830129280686379E-2   4.696652591228485E-1   5.471602082252502E-2  
 1.271060000000000E10    3.613075315952301E-1  -4.066573977470398E-1  -4.196802154183388E-2   5.480507388710976E-2  -4.197470471262932E-2   5.482676625251770E-2   4.238759577274323E-1   2.699644118547440E-2  
 1.271080000000000E10    3.132242858409882E-1  -4.133083820343018E-1  -4.136800393462181E-2   7.576359808444977E-2  -4.136225208640099E-2   7.578235119581223E-2   3.744369447231293E-1   1.012441050261259E-2  
 1.271100000000000E10    2.663784325122833E-1  -4.135780930519104E-1  -3.453380614519119E-2   1.004413738846779E-1  -3.453304246068001E-2   1.004648953676224E-1   3.252914845943451E-1   5.396726075559855E-3  
 1.271120000000000E10    2.223309576511383E-1  -4.081667363643646E-1  -1.920747011899948E-2   1.268581897020340E-1  -1.921500824391842E-2   1.268820017576218E-1   2.811228036880493E-1   1.204857043921948E-2  
 1.271140000000000E10    1.821666806936264E-1  -3.983513116836548E-1   6.010929588228464E-3   1.518214941024780E-1   6.010622717440128E-3   1.518444865942001E-1   2.459105551242828E-1   2.693002857267857E-2  
 1.271160000000000E10    1.463085561990738E-1  -3.856284022331238E-1   4.100637137889862E-2   1.714641153812408E-1   4.100763052701950E-2   1.714829206466675E-1   2.216415405273438E-1   4.518710821866989E-2  
 1.271180000000000E10    1.145335286855698E-1  -3.713299334049225E-1   8.389367908239365E-2   1.822018027305603E-1   8.390551060438156E-2   1.822179704904556E-1   2.074589878320694E-1   6.167248263955116E-2  
 1.271200000000000E10    8.615998923778534E-2  -3.563610613346100E-1   1.315297931432724E-1   1.815513521432877E-1   1.315630078315735E-1   1.815611422061920E-1   2.001830339431763E-1   7.269553840160370E-2  
 1.271220000000000E10    6.058141589164734E-2  -3.410189151763916E-1   1.802020370960236E-1   1.684905290603638E-1   1.802493035793304E-1   1.685021817684174E-1   1.956411749124527E-1   7.678447663784027E-2  
 1.271240000000000E10    3.741868957877159E-2  -3.254482150077820E-1   2.263693362474442E-1   1.433077752590179E-1   2.264233082532883E-1   1.433005928993225E-1   1.898834705352783E-1   7.464955002069473E-2  
 1.271260000000000E10    1.650549657642841E-2  -3.097450733184815E-1   2.670284509658814E-1   1.072746291756630E-1   2.670761346817017E-1   1.072439625859261E-1   1.802193820476532E-1   6.849493086338043E-2  
