#  HZ   S   RI   R     50.00 
! Rohde & Schwarz ZVA50 2Ports - Version 3.70 - 1145.1110k50 SN: 100192
! Date: 2025-10-24 10:35:01
! Measurements: S11 S21 S12 S22 
! 
 1.269400000000000E10   -1.662301719188690E-1   8.980710506439209E-1   2.136053051799536E-3   4.926644614897668E-4   2.134279580786824E-3   5.040076212026179E-4  -4.139545261859894E-1   8.369957208633423E-1  
 1.269420000000000E10   -1.545875668525696E-1   8.993107676506043E-1   2.173743909224868E-3   4.780114686582238E-4   2.170465420931578E-3   4.876085149589926E-4  -4.060759544372559E-1   8.403233289718628E-1  
 1.269440000000000E10   -1.427899450063705E-1   9.004773497581482E-1   2.210202394053340E-3   4.607489972840995E-4   2.209465019404888E-3   4.712938971351832E-4  -3.979761600494385E-1   8.436040282249451E-1  
 1.269460000000000E10   -1.307471990585327E-1   9.015148282051086E-1   2.248739823698998E-3   4.417908785399050E-4   2.246618736535311E-3   4.526887787505984E-4  -3.898113071918488E-1   8.468280434608460E-1  
 1.269480000000000E10   -1.187713593244553E-1   9.026082754135132E-1   2.288661664351821E-3   4.244791052769870E-4   2.284994814544916E-3   4.338416038081050E-4  -3.818275332450867E-1   8.504965305328369E-1  
 1.269500000000000E10   -1.064343005418778E-1   9.033256173133850E-1   2.326419577002525E-3   4.053759330417961E-4   2.322558779269457E-3   4.139297525398433E-4  -3.733951747417450E-1   8.536755442619324E-1  
 1.269520000000000E10   -9.396600723266602E-2   9.038265943527222E-1   2.365385880693793E-3   3.851423098240048E-4   2.361501334235072E-3   3.945787611883134E-4  -3.648292422294617E-1   8.568109273910523E-1  
 1.269540000000000E10   -8.125548064708710E-2   9.041528105735779E-1   2.402656013146043E-3   3.636662440840155E-4   2.400484867393971E-3   3.716286155395210E-4  -3.561012446880341E-1   8.597960472106934E-1  
 1.269560000000000E10   -6.845159828662872E-2   9.043294787406921E-1   2.442961093038321E-3   3.392897779121995E-4   2.437994116917253E-3   3.489108639769256E-4  -3.472560942173004E-1   8.628127574920654E-1  
 1.269580000000000E10   -5.545096099376679E-2   9.042269587516785E-1   2.479718998074532E-3   3.168981056660414E-4   2.476211171597242E-3   3.262725367676467E-4  -3.382643759250641E-1   8.656879663467407E-1  
 1.269600000000000E10   -4.224658757448196E-2   9.040191769599915E-1   2.520402660593391E-3   2.925715525634587E-4   2.515807515010238E-3   2.992682857438922E-4  -3.291064500808716E-1   8.685364723205566E-1  
 1.269620000000000E10   -2.889628522098064E-2   9.035895466804504E-1   2.557168947532773E-3   2.663992927409709E-4   2.555226907134056E-3   2.726327802520245E-4  -3.198476135730743E-1   8.713427782058716E-1  
 1.269640000000000E10   -1.540305092930794E-2   9.028817415237427E-1   2.595820697024465E-3   2.408252330496907E-4   2.592378994449973E-3   2.458970411680639E-4  -3.104188740253449E-1   8.740647435188294E-1  
 1.269660000000000E10   -1.657173037528992E-3   9.019916057586670E-1   2.634915523231030E-3   2.115343959303573E-4   2.630668925121427E-3   2.157870185328648E-4  -3.008488416671753E-1   8.766732215881348E-1  
 1.269680000000000E10    1.222919672727585E-2   9.008932113647461E-1   2.671662718057632E-3   1.833513088058680E-4   2.665764419361949E-3   1.875862944871187E-4  -2.911051809787750E-1   8.792313337326050E-1  
 1.269700000000000E10    2.625138685107231E-2   8.994783759117127E-1   2.708362415432930E-3   1.544000551803038E-4   2.705164719372988E-3   1.552198518766090E-4  -2.812212109565735E-1   8.817062973976135E-1  
 1.269720000000000E10    4.044272750616074E-2   8.978530764579773E-1   2.745361533015966E-3   1.215501615661196E-4   2.741084201261401E-3   1.234183146152645E-4  -2.711914777755737E-1   8.841078281402588E-1  
 1.269740000000000E10    5.484121292829514E-2   8.959379792213440E-1   2.781828865408897E-3   8.901424007490277E-5   2.779259579256177E-3   9.074095578398556E-5  -2.609883248806000E-1   8.864363431930542E-1  
 1.269760000000000E10    6.942420452833176E-2   8.937364220619202E-1   2.816806547343731E-3   5.456000508274883E-5   2.813248895108700E-3   5.519465776160359E-5  -2.506276071071625E-1   8.886232972145081E-1  
 1.269780000000000E10    8.410896360874176E-2   8.912732005119324E-1   2.850324846804142E-3   2.026777656283230E-5   2.849018201231957E-3   1.904270902741700E-5  -2.401063442230225E-1   8.906933069229126E-1  
 1.269800000000000E10    9.900818765163422E-2   8.884657621383667E-1   2.883922774344683E-3  -1.627962046768516E-5   2.883253851905465E-3  -1.646163582336158E-5  -2.293697893619537E-1   8.926906585693359E-1  
 1.269820000000000E10    1.140623018145561E-1   8.854338526725769E-1   2.916683442890644E-3  -5.455553764477372E-5   2.916955156251788E-3  -5.482329288497567E-5  -2.184707224369049E-1   8.945783376693726E-1  
 1.269840000000000E10    1.293216645717621E-1   8.819856643676758E-1   2.948369598016143E-3  -9.499276347924024E-5   2.948834560811520E-3  -9.381317067891359E-5  -2.073894441127777E-1   8.963400125503540E-1  
 1.269860000000000E10    1.446972042322159E-1   8.782903552055359E-1   2.978908596560359E-3  -1.340076851192862E-4   2.980133751407266E-3  -1.348060759482905E-4  -1.961642205715179E-1   8.979334235191345E-1  
 1.269880000000000E10    1.602519452571869E-1   8.741662502288818E-1   3.008323954418302E-3  -1.751682430040091E-4   3.009441774338484E-3  -1.762083702487871E-4  -1.847320348024368E-1   8.994658589363098E-1  
 1.269900000000000E10    1.759417951107025E-1   8.696895837783814E-1   3.035399829968810E-3  -2.177829155698419E-4   3.037909744307399E-3  -2.192689571529627E-4  -1.731131374835968E-1   9.008418321609497E-1  
 1.269920000000000E10    1.918053030967712E-1   8.648413419723511E-1   3.060730872675777E-3  -2.618567668832839E-4   3.064831718802452E-3  -2.646219800226390E-4  -1.612773835659027E-1   9.020465016365051E-1  
 1.269940000000000E10    2.078291177749634E-1   8.596152067184448E-1   3.086261451244354E-3  -3.052285755984485E-4   3.089694539085031E-3  -3.070875245612115E-4  -1.492925882339478E-1   9.030842781066895E-1  
 1.269960000000000E10    2.239829748868942E-1   8.539226055145264E-1   3.107163589447737E-3  -3.520598984323442E-4   3.112022997811437E-3  -3.536934673320502E-4  -1.370797902345657E-1   9.039611220359802E-1  
 1.269980000000000E10    2.402433604001999E-1   8.478344678878784E-1   3.126897383481264E-3  -3.974954597651959E-4   3.132771700620651E-3  -4.000106710009277E-4  -1.247165203094482E-1   9.047104716300964E-1  
 1.270000000000000E10    2.566777467727661E-1   8.413074612617493E-1   3.143901703879237E-3  -4.453907604329288E-4   3.151292214170098E-3  -4.466653626877815E-4  -1.120553016662598E-1   9.052310585975647E-1  
 1.270020000000000E10    2.732087969779968E-1   8.342726826667786E-1   3.159305080771446E-3  -4.913837183266878E-4   3.167465562000871E-3  -4.946291446685791E-4  -9.920650720596314E-2   9.055534005165100E-1  
 1.270040000000000E10    2.898783981800079E-1   8.268046379089356E-1   3.171361982822418E-3  -5.416852072812617E-4   3.181008854880929E-3  -5.417309002950788E-4  -8.618104457855225E-2   9.057511687278748E-1  
 1.270060000000000E10    3.066230416297913E-1   8.188125491142273E-1   3.181826788932085E-3  -5.893834168091416E-4   3.191764699295163E-3  -5.909774336032569E-4  -7.291050255298615E-2   9.056714773178101E-1  
 1.270080000000000E10    3.234209716320038E-1   8.102883100509644E-1   3.186872694641352E-3  -6.380615523084998E-4   3.200061619281769E-3  -6.387784960679710E-4  -5.943500250577927E-2   9.053982496261597E-1  
 1.270100000000000E10    3.403310477733612E-1   8.012123703956604E-1   3.192704636603594E-3  -6.869737990200520E-4   3.204607404768467E-3  -6.889502983540297E-4  -4.574790596961975E-2   9.048302173614502E-1  
 1.270120000000000E10    3.573432564735413E-1   7.916123270988464E-1   3.191538620740175E-3  -7.341318996623159E-4   3.205921500921249E-3  -7.375993300229311E-4  -3.178884461522102E-2   9.040858745574951E-1  
 1.270140000000000E10    3.744052052497864E-1   7.813495993614197E-1   3.187905997037888E-3  -7.843148196116090E-4   3.202686784788966E-3  -7.837268058210611E-4  -1.769489794969559E-2   9.030340313911438E-1  
 1.270160000000000E10    3.914947211742401E-1   7.705525755882263E-1   3.180586034432054E-3  -8.326788665726781E-4   3.194667398929596E-3  -8.327194373123348E-4  -3.273107111454010E-3   9.017506837844849E-1  
 1.270180000000000E10    4.086073040962219E-1   7.591195106506348E-1   3.170059993863106E-3  -8.796593756414950E-4   3.187049645930529E-3  -8.779709460213780E-4   1.133007556200028E-2   9.001436829566956E-1  
 1.270200000000000E10    4.257436394691467E-1   7.469406127929688E-1   3.154396312311292E-3  -9.234327590093017E-4   3.170605748891830E-3  -9.238451020792127E-4   2.618714421987534E-2   8.982673287391663E-1  
 1.270220000000000E10    4.428054094314575E-1   7.341368794441223E-1   3.134578000754118E-3  -9.714224142953754E-4   3.150933422148228E-3  -9.672518353909254E-4   4.131229221820831E-2   8.959939479827881E-1  
 1.270240000000000E10    4.599051773548126E-1   7.206368446350098E-1   3.110282821580768E-3  -1.013082219287753E-3   3.125649411231279E-3  -1.009965082630515E-3   5.665672570466995E-2   8.933932781219482E-1  
 1.270260000000000E10    4.769002199172974E-1   7.063862681388855E-1   3.080436494201422E-3  -1.053974847309291E-3   3.097940469160676E-3  -1.050368184223771E-3   7.226389646530151E-2   8.904675245285034E-1  
 1.270280000000000E10    4.937899112701416E-1   6.913602352142334E-1   3.045785473659635E-3  -1.093639293685556E-3   3.062029369175434E-3  -1.088027376681566E-3   8.810786157846451E-2   8.871133923530579E-1  
 1.270300000000000E10    5.105773210525513E-1   6.755542159080505E-1   3.005584236234427E-3  -1.129971584305167E-3   3.020718228071928E-3  -1.123459427617490E-3   1.042216122150421E-1   8.833522200584412E-1  
 1.270320000000000E10    5.271831750869751E-1   6.589100956916809E-1   2.960926387459040E-3  -1.163802575320005E-3   2.975737443193793E-3  -1.155262347310782E-3   1.205211207270622E-1   8.791584968566895E-1  
 1.270340000000000E10    5.435973405838013E-1   6.414080262184143E-1   2.908927854150534E-3  -1.193884760141373E-3   2.922080922871828E-3  -1.185732660815120E-3   1.371515542268753E-1   8.744894266128540E-1  
 1.270360000000000E10    5.597792267799377E-1   6.230300664901733E-1   2.848640084266663E-3  -1.220488105900586E-3   2.864306326955557E-3  -1.213760348036885E-3   1.540008783340454E-1   8.693457245826721E-1  
 1.270380000000000E10    5.756621360778809E-1   6.037478446960449E-1   2.784328069537878E-3  -1.244739862158895E-3   2.797502325847745E-3  -1.236751908436418E-3   1.710851937532425E-1   8.635895252227783E-1  
 1.270400000000000E10    5.912610888481140E-1   5.835419893264771E-1   2.712702844291925E-3  -1.264116028323770E-3   2.725563244894147E-3  -1.256467425264418E-3   1.883871853351593E-1   8.573296070098877E-1  
 1.270420000000000E10    6.064445376396179E-1   5.623219609260559E-1   2.632584189996123E-3  -1.283386722207069E-3   2.644115360453725E-3  -1.276310998946428E-3   2.059851884841919E-1   8.504734039306641E-1  
 1.270440000000000E10    6.211960911750794E-1   5.400947928428650E-1   2.543610520660877E-3  -1.299128751270473E-3   2.554439008235931E-3  -1.288894913159311E-3   2.238163650035858E-1   8.429743647575378E-1  
 1.270460000000000E10    6.354044675827026E-1   5.168754458427429E-1   2.444774378091097E-3  -1.311882166191936E-3   2.455778652802110E-3  -1.303013297729194E-3   2.418365329504013E-1   8.347520232200623E-1  
 1.270480000000000E10    6.490531563758850E-1   4.925609827041626E-1   2.336264820769429E-3  -1.324876677244902E-3   2.343642059713602E-3  -1.314827823080123E-3   2.600917220115662E-1   8.258251547813416E-1  
 1.270500000000000E10    6.620345711708069E-1   4.671659469604492E-1   2.215093467384577E-3  -1.335668610408902E-3   2.221666276454926E-3  -1.325485645793378E-3   2.785284519195557E-1   8.161111474037170E-1  
 1.270520000000000E10    6.742720007896423E-1   4.406916201114655E-1   2.077031647786498E-3  -1.348741701804102E-3   2.085882937535644E-3  -1.338460249826312E-3   2.971713244915009E-1   8.055352568626404E-1  
 1.270540000000000E10    6.856634616851807E-1   4.130740761756897E-1   1.922502415254712E-3  -1.364966272376478E-3   1.928238081745803E-3  -1.355212298221886E-3   3.159456849098206E-1   7.940775156021118E-1  
 1.270560000000000E10    6.960899829864502E-1   3.842672407627106E-1   1.743567176163197E-3  -1.387053518556058E-3   1.749925082549453E-3  -1.378090237267315E-3   3.348822891712189E-1   7.816076278686523E-1  
 1.270580000000000E10    7.054428458213806E-1   3.543542027473450E-1   1.537766540423036E-3  -1.418898347765207E-3   1.543332589790225E-3  -1.409269985742867E-3   3.538970351219177E-1   7.680928111076355E-1  
 1.270600000000000E10    7.135822772979736E-1   3.232144117355347E-1   1.294835936278105E-3  -1.462030224502087E-3   1.299539697356522E-3  -1.454220619052649E-3   3.730155825614929E-1   7.534509301185608E-1  
 1.270620000000000E10    7.203683257102966E-1   2.908864915370941E-1   1.006661332212389E-3  -1.522009493783116E-3   1.008349703624845E-3  -1.516449381597340E-3   3.920880556106567E-1   7.376012206077576E-1  
 1.270640000000000E10    7.256469130516052E-1   2.574227154254913E-1   6.552077829837799E-4  -1.603546086698771E-3   6.565508665516973E-4  -1.596275717020035E-3   4.110799133777618E-1   7.203987836837769E-1  
 1.270660000000000E10    7.292609214782715E-1   2.228012830018997E-1   2.212154649896547E-4  -1.709657604806125E-3   2.232140977866948E-4  -1.705095055513084E-3   4.299671351909638E-1   7.018558979034424E-1  
 1.270680000000000E10    7.310078144073486E-1   1.870437264442444E-1  -3.162900684401393E-4  -1.843763981014490E-3  -3.177488688379526E-4  -1.841037767007947E-3   4.485746324062347E-1   6.816915273666382E-1  
 1.270700000000000E10    7.306388616561890E-1   1.503098458051682E-1  -9.972073603421450E-4  -2.008868148550391E-3  -9.995352011173964E-4  -2.008332870900631E-3   4.668455123901367E-1   6.599366664886475E-1  
 1.270720000000000E10    7.279066443443298E-1   1.125386059284210E-1  -1.864073681645095E-3  -2.202621893957257E-3  -1.866929000243545E-3  -2.203638199716806E-3   4.845734536647797E-1   6.363685727119446E-1  
 1.270740000000000E10    7.226081490516663E-1   7.399778813123703E-2  -2.974857809022069E-3  -2.413600916042924E-3  -2.979009877890348E-3  -2.418165560811758E-3   5.016148686408997E-1   6.108598709106445E-1  
 1.270760000000000E10    7.143942117691040E-1   3.481210768222809E-2  -4.407324362546206E-3  -2.618346596136689E-3  -4.412382375448942E-3  -2.628710353747010E-3   5.176675319671631E-1   5.833500623703003E-1  
 1.270780000000000E10    7.030667066574097E-1  -4.856031388044357E-3  -6.259088404476643E-3  -2.778938971459866E-3  -6.265033036470413E-3  -2.792742568999529E-3   5.324743986129761E-1   5.536401867866516E-1  
 1.270800000000000E10    6.882128715515137E-1  -4.455043748021126E-2  -8.649473078548908E-3  -2.818031702190638E-3  -8.658738806843758E-3  -2.837847918272018E-3   5.456470251083374E-1   5.216754674911499E-1  
 1.270820000000000E10    6.695063114166260E-1  -8.401954919099808E-2  -1.172825694084168E-2  -2.609370509162545E-3  -1.173898950219154E-2  -2.638610778376460E-3   5.567359924316406E-1   4.873331785202026E-1  
 1.270840000000000E10    6.466891169548035E-1  -1.226841285824776E-1  -1.565905101597309E-2  -1.955169718712568E-3  -1.567415148019791E-2  -1.992730190977454E-3   5.651834607124329E-1   4.506588578224182E-1  
 1.270860000000000E10    6.195310950279236E-1  -1.598146855831146E-1  -2.061105892062187E-2  -5.472595221363008E-4  -2.067423425614834E-2  -6.217864574864507E-4   5.702669620513916E-1   4.117742478847504E-1  
 1.270880000000000E10    5.878329277038574E-1  -1.945744454860687E-1  -2.678683958947659E-2   1.993118319660425E-3  -2.681529894471169E-2   1.992308767512441E-3   5.712828040122986E-1   3.709665536880493E-1  
 1.270900000000000E10    5.516332387924194E-1  -2.258587926626205E-1  -3.411482274532318E-2   6.472733337432146E-3  -3.414780274033546E-2   6.473174784332514E-3   5.672452449798584E-1   3.288748264312744E-1  
 1.270920000000000E10    5.113717913627625E-1  -2.525628209114075E-1  -4.247195646166802E-2   1.370988972485066E-2  -4.250156879425049E-2   1.372262928634882E-2   5.574041604995728E-1   2.864739298820496E-1  
 1.270940000000000E10    4.678771793842316E-1  -2.733242213726044E-1  -5.124831944704056E-2   2.477906644344330E-2  -5.127646028995514E-2   2.479149959981442E-2   5.411111712455750E-1   2.452448904514313E-1  
 1.270960000000000E10    4.226423203945160E-1  -2.870053648948669E-1  -5.921612679958344E-2   4.076630994677544E-2  -5.924385040998459E-2   4.076864942908287E-2   5.182440280914307E-1   2.071403861045837E-1  
 1.270980000000000E10    3.777629137039185E-1  -2.931342422962189E-1  -6.437616050243378E-2   6.243735924363136E-2  -6.440037488937378E-2   6.243271753191948E-2   4.895742237567902E-1   1.743659973144531E-1  
 1.271000000000000E10    3.356119394302368E-1  -2.920876741409302E-1  -6.395810842514038E-2   8.965066075325012E-2  -6.399653106927872E-2   8.964816480875015E-2   4.570097327232361E-1   1.489096730947495E-1  
 1.271020000000000E10    2.983417212963104E-1  -2.854675650596619E-1  -5.498530343174934E-2   1.208396628499031E-1  -5.502516776323319E-2   1.208418607711792E-1   4.234942495822907E-1   1.317605823278427E-1  
 1.271040000000000E10    2.670532763004303E-1  -2.758702635765076E-1  -3.518263623118401E-2   1.527901589870453E-1  -3.522110357880592E-2   1.528193056583405E-1   3.922695219516754E-1   1.222160235047340E-1  
 1.271060000000000E10    2.412819117307663E-1  -2.659724056720734E-1  -3.926230594515801E-3   1.812702119350433E-1  -3.963692579418421E-3   1.812986880540848E-1   3.657703995704651E-1   1.179434657096863E-1  
 1.271080000000000E10    2.193171530961990E-1  -2.575715482234955E-1   3.738033771514893E-2   2.020505368709564E-1   3.733459487557411E-2   2.020886987447739E-1   3.447438180446625E-1   1.157894805073738E-1  
 1.271100000000000E10    1.990709751844406E-1  -2.510975599288940E-1   8.572399616241455E-2   2.120372205972672E-1   8.568669855594635E-2   2.121065407991409E-1   3.281355202198029E-1   1.129677817225456E-1  
 1.271120000000000E10    1.789297610521317E-1  -2.458449602127075E-1   1.374499797821045E-1   2.097356617450714E-1   1.374078541994095E-1   2.098148018121719E-1   3.138796687126160E-1   1.079226955771446E-1  
 1.271140000000000E10    1.581570208072662E-1  -2.405133098363876E-1   1.890001147985458E-1   1.950058788061142E-1   1.889743804931641E-1   1.950958073139191E-1   2.996968030929565E-1   1.005359292030335E-1  
 1.271160000000000E10    1.370187699794769E-1  -2.338718324899674E-1   2.373614907264710E-1   1.686258465051651E-1   2.373583614826202E-1   1.687087714672089E-1   2.838642597198486E-1   9.171077609062195E-2  
 1.271180000000000E10    1.163111925125122E-1  -2.252476364374161E-1   2.801330983638763E-1   1.319658309221268E-1   2.801187932491303E-1   1.320659220218658E-1   2.654826939105988E-1   8.287300914525986E-2  
 1.271200000000000E10    9.699738025665283E-2  -2.145828008651733E-1   3.153811395168304E-1   8.666512370109558E-2   3.154217600822449E-1   8.673463016748428E-2   2.444459944963455E-1   7.554686814546585E-2  
 1.271220000000000E10    7.993546128273010E-2  -2.022942155599594E-1   3.417012989521027E-1   3.459314629435539E-2   3.417507708072662E-1   3.464598953723908E-2   2.213093787431717E-1   7.102660089731216E-2  
 1.271240000000000E10    6.561909615993500E-2  -1.892220675945282E-1   3.580388128757477E-1  -2.227316424250603E-2   3.581023216247559E-1  -2.223130315542221E-2   1.969599574804306E-1   7.018964737653732E-2  
 1.271260000000000E10    5.410047620534897E-2  -1.763636618852615E-1   3.638235628604889E-1  -8.182889223098755E-2   3.638747036457062E-1  -8.178333938121796E-2   1.725911945104599E-1   7.347652316093445E-2  
