#  HZ   S   RI   R     50.00 
! Rohde & Schwarz ZVA50 2Ports - Version 3.70 - 1145.1110k50 SN: 100192
! Date: 2025-10-24 10:32:52
! Measurements: S11 S21 S12 S22 
! 
 1.269400000000000E10   -1.689252108335495E-1   8.941994309425354E-1   2.158620394766331E-3   4.974459297955036E-4   2.161537297070026E-3   5.065150326117873E-4  -4.160959720611572E-1   8.365669846534729E-1  
 1.269420000000000E10   -1.573880016803742E-1   8.954302072525024E-1   2.198745962232351E-3   4.801178874913603E-4   2.200860064476728E-3   4.914906457997859E-4  -4.082818031311035E-1   8.399164080619812E-1  
 1.269440000000000E10   -1.456771492958069E-1   8.966051936149597E-1   2.238005865365267E-3   4.632152849808335E-4   2.239841734990478E-3   4.735558759421110E-4  -4.002471566200256E-1   8.431893587112427E-1  
 1.269460000000000E10   -1.337344944477081E-1   8.976706862449646E-1   2.278637373819947E-3   4.474903980735689E-4   2.278733300045133E-3   4.555039049591869E-4  -3.921074867248535E-1   8.464231491088867E-1  
 1.269480000000000E10   -1.218920797109604E-1   8.987593054771423E-1   2.319833030924201E-3   4.270556382834911E-4   2.320776227861643E-3   4.369109519757330E-4  -3.842038512229919E-1   8.501203656196594E-1  
 1.269500000000000E10   -1.096420511603355E-1   8.995102643966675E-1   2.359170001000166E-3   4.065658431500197E-4   2.360143931582570E-3   4.156233044341207E-4  -3.758405447006226E-1   8.533052206039429E-1  
 1.269520000000000E10   -9.728205204010010E-2   9.000258445739746E-1   2.400875790044665E-3   3.863032325170934E-4   2.401377540081739E-3   3.952642146032304E-4  -3.672967851161957E-1   8.564370274543762E-1  
 1.269540000000000E10   -8.470132946968079E-2   9.003800153732300E-1   2.440965501591563E-3   3.644404641818255E-4   2.441625110805035E-3   3.733502817340195E-4  -3.586484193801880E-1   8.594346046447754E-1  
 1.269560000000000E10   -7.200765609741211E-2   9.005800485610962E-1   2.482977462932468E-3   3.383843286428601E-4   2.482234034687281E-3   3.497670695651323E-4  -3.498739898204804E-1   8.624805212020874E-1  
 1.269580000000000E10   -5.912046879529953E-2   9.005237817764282E-1   2.523949835449457E-3   3.154618316330016E-4   2.524307463318110E-3   3.247240674681962E-4  -3.409230113029480E-1   8.653657436370850E-1  
 1.269600000000000E10   -4.607594758272171E-2   9.003391861915588E-1   2.566585550084710E-3   2.877156948670745E-4   2.564255613833666E-3   2.985027385875583E-4  -3.318498730659485E-1   8.682463169097900E-1  
 1.269620000000000E10   -3.286487609148026E-2   8.999567031860352E-1   2.607306698337197E-3   2.619528095237911E-4   2.605527406558394E-3   2.718839095905423E-4  -3.226492106914520E-1   8.710739612579346E-1  
 1.269640000000000E10   -1.948363333940506E-2   8.992933630943298E-1   2.649952424690127E-3   2.343881933484227E-4   2.647574059665203E-3   2.432597248116508E-4  -3.133040368556976E-1   8.738145232200623E-1  
 1.269660000000000E10   -5.889635533094406E-3   8.984799385070801E-1   2.691305475309491E-3   2.061216218862683E-4   2.689053071662784E-3   2.133706584572792E-4  -3.038163781166077E-1   8.764619827270508E-1  
 1.269680000000000E10    7.827527821063995E-3   8.974142670631409E-1   2.731968183070421E-3   1.748361974023283E-4   2.729464555159211E-3   1.828144304454327E-4  -2.941513955593109E-1   8.790268898010254E-1  
 1.269700000000000E10    2.170610055327416E-2   8.960933089256287E-1   2.773460233584046E-3   1.425976806785911E-4   2.770614577457309E-3   1.500299986219034E-4  -2.843398153781891E-1   8.815572857856751E-1  
 1.269720000000000E10    3.574586659669876E-2   8.945200443267822E-1   2.814760897308588E-3   1.093733444577083E-4   2.812869613990188E-3   1.150816024164669E-4  -2.743904292583466E-1   8.839876651763916E-1  
 1.269740000000000E10    4.999166354537010E-2   8.927075266838074E-1   2.856105566024780E-3   7.582757825730369E-5   2.853764686733484E-3   8.033701305976138E-5  -2.642897367477417E-1   8.863405585289002E-1  
 1.269760000000000E10    6.441517174243927E-2   8.906353116035461E-1   2.895740326493979E-3   4.031615389976651E-5   2.893002238124609E-3   4.595411883201450E-5  -2.540002465248108E-1   8.885797858238220E-1  
 1.269780000000000E10    7.895112037658691E-2   8.882756233215332E-1   2.935304772108793E-3   1.778491423465312E-6   2.933698939159513E-3   7.288545020855963E-6  -2.435614466667175E-1   8.906809091567993E-1  
 1.269800000000000E10    9.368537366390228E-2   8.855464458465576E-1   2.974596805870533E-3  -3.586729872040451E-5   2.973435446619988E-3  -3.195567114744335E-5  -2.329506129026413E-1   8.927470445632935E-1  
 1.269820000000000E10    1.085512116551399E-1   8.826513290405273E-1   3.014225512742996E-3  -7.686726166866720E-5   3.010949119925499E-3  -7.216610538307577E-5  -2.221642732620239E-1   8.946552872657776E-1  
 1.269840000000000E10    1.236115470528603E-1   8.793631196022034E-1   3.051229752600193E-3  -1.182569249067456E-4   3.047756152227521E-3  -1.147861476056278E-4  -2.112163752317429E-1   8.964675068855286E-1  
 1.269860000000000E10    1.387920975685120E-1   8.757976293563843E-1   3.089301986619830E-3  -1.604991412023082E-4   3.086312208324671E-3  -1.597262307768688E-4  -2.001230418682098E-1   8.981567621231079E-1  
 1.269880000000000E10    1.541561037302017E-1   8.718207478523254E-1   3.123787697404623E-3  -2.047815651167184E-4   3.122630296275020E-3  -2.031066105701029E-4  -1.888061314821243E-1   8.997291326522827E-1  
 1.269900000000000E10    1.696489453315735E-1   8.675445914268494E-1   3.158455714583397E-3  -2.505808952264488E-4   3.155850572511554E-3  -2.486897865310311E-4  -1.773400008678436E-1   9.011763334274292E-1  
 1.269920000000000E10    1.852917373180389E-1   8.628561496734619E-1   3.192126052454114E-3  -2.974340750370175E-4   3.191720927134156E-3  -2.964482118841261E-4  -1.656661629676819E-1   9.024826288223267E-1  
 1.269940000000000E10    2.011281400918961E-1   8.578404188156128E-1   3.222495084628463E-3  -3.469253133516759E-4   3.223080420866609E-3  -3.471969685051590E-4  -1.538359373807907E-1   9.036066532135010E-1  
 1.269960000000000E10    2.170395702123642E-1   8.524006605148315E-1   3.252720227465034E-3  -3.970732796005905E-4   3.253202885389328E-3  -3.964222560171038E-4  -1.417862623929977E-1   9.045832157135010E-1  
 1.269980000000000E10    2.331012487411499E-1   8.465359210968018E-1   3.280674107372761E-3  -4.473776207305491E-4   3.283671336248517E-3  -4.467820399440825E-4  -1.295710653066635E-1   9.054247140884399E-1  
 1.270000000000000E10    2.493143826723099E-1   8.402681350708008E-1   3.307041013613343E-3  -4.977070493623614E-4   3.309823106974363E-3  -5.001738900318742E-4  -1.170869916677475E-1   9.060728549957275E-1  
 1.270020000000000E10    2.656240165233612E-1   8.335151076316834E-1   3.330342471599579E-3  -5.514298682101071E-4   3.335333894938231E-3  -5.543068982660770E-4  -1.044402271509171E-1   9.065081477165222E-1  
 1.270040000000000E10    2.820722460746765E-1   8.263459205627441E-1   3.354395506903529E-3  -6.067365175113082E-4   3.356576897203922E-3  -6.068676593713462E-4  -9.160427749156952E-2   9.068187475204468E-1  
 1.270060000000000E10    2.985709011554718E-1   8.187014460563660E-1   3.374015446752310E-3  -6.594373844563961E-4   3.378456458449364E-3  -6.622368237003684E-4  -7.853966206312180E-2   9.068782925605774E-1  
 1.270080000000000E10    3.151564896106720E-1   8.105491995811462E-1   3.389975754544139E-3  -7.150953169912100E-4   3.395753446966410E-3  -7.180600659921765E-4  -6.529329717159271E-2   9.067728519439697E-1  
 1.270100000000000E10    3.318283557891846E-1   8.018522262573242E-1   3.403661306947470E-3  -7.719532586634159E-4   3.408648306503892E-3  -7.752383826300502E-4  -5.179113522171974E-2   9.064044356346130E-1  
 1.270120000000000E10    3.486114740371704E-1   7.926640510559082E-1   3.414226695895195E-3  -8.274501888081431E-4   3.422521287575364E-3  -8.290602127090097E-4  -3.811819478869438E-2   9.058314561843872E-1  
 1.270140000000000E10    3.654591441154480E-1   7.828952074050903E-1   3.421813715249300E-3  -8.834874024614692E-4   3.430485725402832E-3  -8.874725317582488E-4  -2.423484623432159E-2   9.049988985061646E-1  
 1.270160000000000E10    3.823406994342804E-1   7.725921869277954E-1   3.426235634833574E-3  -9.412171784788370E-4   3.436096711084247E-3  -9.430691716261208E-4  -1.010335236787796E-2   9.039422273635864E-1  
 1.270180000000000E10    3.992189466953278E-1   7.616938948631287E-1   3.426008159294725E-3  -9.959912858903408E-4   3.438419895246625E-3  -9.987263474613428E-4   4.210442304611206E-3   9.025956392288208E-1  
 1.270200000000000E10    4.161404371261597E-1   7.501121759414673E-1   3.422924317419529E-3  -1.050923950970173E-3   3.435302758589387E-3  -1.054577645845711E-3   1.875218749046326E-2   9.010079503059387E-1  
 1.270220000000000E10    4.330107569694519E-1   7.379551529884338E-1   3.415727056562901E-3  -1.104095252230763E-3   3.428061492741108E-3  -1.107002957724035E-3   3.357128053903580E-2   8.990080356597900E-1  
 1.270240000000000E10    4.499017596244812E-1   7.251553535461426E-1   3.402966307476163E-3  -1.157842925749719E-3   3.418673528358340E-3  -1.159920589998364E-3   4.857458174228668E-2   8.967813253402710E-1  
 1.270260000000000E10    4.667279124259949E-1   7.116369605064392E-1   3.386210417374969E-3  -1.207472174428403E-3   3.402743255719543E-3  -1.210202346555889E-3   6.382378190755844E-2   8.942114710807800E-1  
 1.270280000000000E10    4.834569096565247E-1   6.974199414253235E-1   3.367036813870072E-3  -1.256260438822210E-3   3.381229471415281E-3  -1.257657189853489E-3   7.929980754852295E-2   8.912923932075501E-1  
 1.270300000000000E10    5.000933408737183E-1   6.824769377708435E-1   3.339867573231459E-3  -1.301828655414283E-3   3.356254193931818E-3  -1.300856936722994E-3   9.502196311950684E-2   8.879820704460144E-1  
 1.270320000000000E10    5.166000723838806E-1   6.667767763137817E-1   3.309383057057858E-3  -1.343942014500499E-3   3.326273523271084E-3  -1.342854695394635E-3   1.109524443745613E-1   8.843173384666443E-1  
 1.270340000000000E10    5.329418182373047E-1   6.503016948699951E-1   3.274532034993172E-3  -1.380336587317288E-3   3.291475120931864E-3  -1.378621440380812E-3   1.271294355392456E-1   8.801980018615723E-1  
 1.270360000000000E10    5.491126179695129E-1   6.330327391624451E-1   3.231581998988986E-3  -1.411841250956059E-3   3.248486435040832E-3  -1.412430079653859E-3   1.435436308383942E-1   8.756685853004456E-1  
 1.270380000000000E10    5.650090575218201E-1   6.149432659149170E-1   3.186895046383143E-3  -1.439956133253872E-3   3.203435335308313E-3  -1.437319326214492E-3   1.601785719394684E-1   8.706410527229309E-1  
 1.270400000000000E10    5.806641578674316E-1   5.960265994071960E-1   3.134017111733556E-3  -1.460120896808803E-3   3.148566232994199E-3  -1.457784557715058E-3   1.769946217536926E-1   8.651665449142456E-1  
 1.270420000000000E10    5.960423350334168E-1   5.761859416961670E-1   3.076619701460004E-3  -1.473069656640291E-3   3.092950442805886E-3  -1.469646114856005E-3   1.940935552120209E-1   8.591839075088501E-1  
 1.270440000000000E10    6.109892725944519E-1   5.554773807525635E-1   3.013376845046878E-3  -1.478951773606241E-3   3.029169747605920E-3  -1.474088756367564E-3   2.114264965057373E-1   8.526477217674255E-1  
 1.270460000000000E10    6.255335807800293E-1   5.338651537895203E-1   2.943865256384015E-3  -1.472571864724159E-3   2.960696816444397E-3  -1.470476156100631E-3   2.289351522922516E-1   8.454981446266174E-1  
 1.270480000000000E10    6.396645307540894E-1   5.113071799278259E-1   2.872105687856674E-3  -1.458865590393543E-3   2.885464811697602E-3  -1.453078701160848E-3   2.466546148061752E-1   8.377805948257446E-1  
 1.270500000000000E10    6.532210111618042E-1   4.877689182758331E-1   2.792756538838148E-3  -1.432857709005475E-3   2.807250712066889E-3  -1.425962429493666E-3   2.645671069622040E-1   8.294077515602112E-1  
 1.270520000000000E10    6.662005186080933E-1   4.633221030235291E-1   2.710766158998013E-3  -1.394831459037960E-3   2.723096171393991E-3  -1.388946780934930E-3   2.826830148696899E-1   8.203068375587463E-1  
 1.270540000000000E10    6.785246133804321E-1   4.378281831741333E-1   2.623926615342498E-3  -1.341943512670696E-3   2.634683856740594E-3  -1.334523549303412E-3   3.009454309940338E-1   8.105697035789490E-1  
 1.270560000000000E10    6.901235580444336E-1   4.113382101058960E-1   2.531818812713027E-3  -1.275633694604039E-3   2.544227754697204E-3  -1.268150517717004E-3   3.193730711936951E-1   7.999908924102783E-1  
 1.270580000000000E10    7.008919715881348E-1   3.838667869567871E-1   2.438165480270982E-3  -1.194161479361355E-3   2.447946229949594E-3  -1.184245455078781E-3   3.379312455654144E-1   7.886098623275757E-1  
 1.270600000000000E10    7.107590436935425E-1   3.553488552570343E-1   2.342006657272577E-3  -1.094400766305625E-3   2.352362265810370E-3  -1.084233517758548E-3   3.566223680973053E-1   7.763469815254211E-1  
 1.270620000000000E10    7.196170687675476E-1   3.257828354835510E-1   2.243416151031852E-3  -9.771113982424140E-4   2.252559876069427E-3  -9.676748886704445E-4   3.753907084465027E-1   7.632038593292236E-1  
 1.270640000000000E10    7.274025678634644E-1   2.952388525009155E-1   2.143116435036063E-3  -8.415612974204123E-4   2.150570973753929E-3  -8.319478947669268E-4   3.941820263862610E-1   7.490358948707581E-1  
 1.270660000000000E10    7.339730858802795E-1   2.636390626430512E-1   2.043764106929302E-3  -6.870300276204944E-4   2.048905938863754E-3  -6.772144697606564E-4   4.130212664604187E-1   7.338890433311462E-1  
 1.270680000000000E10    7.392297983169556E-1   2.310254424810410E-1   1.943515148013830E-3  -5.116088432259858E-4   1.948707737028599E-3  -5.009482847526670E-4   4.317923188209534E-1   7.175799012184143E-1  
 1.270700000000000E10    7.430860996246338E-1   1.975028663873673E-1   1.844489364884794E-3  -3.157875617034733E-4   1.847593695856631E-3  -3.046122146770358E-4   4.505499899387360E-1   7.001171708106995E-1  
 1.270720000000000E10    7.453367710113525E-1   1.629581898450851E-1   1.746639143675566E-3  -9.931834938470274E-5   1.748241018503904E-3  -8.852018800098449E-5   4.691177904605866E-1   6.814337372779846E-1  
 1.270740000000000E10    7.459093332290649E-1   1.275582909584045E-1   1.646223943680525E-3   1.375838182866573E-4   1.649433630518615E-3   1.486512774135917E-4   4.874911308288574E-1   6.613866090774536E-1  
 1.270760000000000E10    7.445817589759827E-1   9.134024381637573E-2   1.547848922200501E-3   3.939082962460816E-4   1.547900377772749E-3   4.039974010083824E-4   5.055555105209351E-1   6.399717330932617E-1  
 1.270780000000000E10    7.413178086280823E-1   5.431962385773659E-2   1.445405185222626E-3   6.680649239569902E-4   1.443233224563301E-3   6.802340503782034E-4   5.232284665107727E-1   6.170766353607178E-1  
 1.270800000000000E10    7.358372807502747E-1   1.670451834797859E-2   1.336436485871673E-3   9.627794497646391E-4   1.332249259576201E-3   9.733572369441390E-4   5.404123663902283E-1   5.926439762115479E-1  
 1.270820000000000E10    7.280114889144898E-1  -2.154104784131050E-2   1.214420190081000E-3   1.275690621696413E-3   1.210496993735433E-3   1.286838320083916E-3   5.569659471511841E-1   5.664747953414917E-1  
 1.270840000000000E10    7.177317738533020E-1  -6.022188067436218E-2   1.071652281098068E-3   1.603693235665560E-3   1.066646189428866E-3   1.616275869309902E-3   5.727042555809021E-1   5.386001467704773E-1  
 1.270860000000000E10    7.047652006149292E-1  -9.915021806955338E-2   8.984916494227946E-4   1.952680991962552E-3   8.937772363424301E-4   1.961896661669016E-3   5.874753594398499E-1   5.089021325111389E-1  
 1.270880000000000E10    6.889538764953613E-1  -1.381583809852600E-1   6.786033627577126E-4   2.319743158295751E-3   6.696741329506040E-4   2.330434275791049E-3   6.010674238204956E-1   4.772634804248810E-1  
 1.270900000000000E10    6.700848340988159E-1  -1.769340932369232E-1   3.888283972628415E-4   2.717201365157962E-3   3.802146529778838E-4   2.725262893363833E-3   6.131896376609802E-1   4.436665773391724E-1  
 1.270920000000000E10    6.480343341827393E-1  -2.153695523738861E-1   5.973517545498908E-6   3.148581134155393E-3  -2.145374310202897E-6   3.156722988933325E-3   6.235723495483398E-1   4.080078601837158E-1  
 1.270940000000000E10    6.225870847702026E-1  -2.530680596828461E-1  -5.046484293416143E-4   3.640457987785339E-3  -5.153493257239461E-4   3.648576093837619E-3   6.318478584289551E-1   3.702726662158966E-1  
 1.270960000000000E10    5.936393737792969E-1  -2.896110415458679E-1  -1.186031149700284E-3   4.220105241984129E-3  -1.198835554532707E-3   4.226744640618563E-3   6.376757025718689E-1   3.304882645606995E-1  
 1.270980000000000E10    5.611172914505005E-1  -3.246566951274872E-1  -2.085718326270580E-3   4.939177539199591E-3  -2.100713783875108E-3   4.944921936839819E-3   6.405555009841919E-1   2.886662185192108E-1  
 1.271000000000000E10    5.248692631721497E-1  -3.577247858047485E-1  -3.261534497141838E-3   5.873281043022871E-3  -3.280004253610969E-3   5.874689202755690E-3   6.399936079978943E-1   2.449326515197754E-1  
 1.271020000000000E10    4.848291873931885E-1  -3.882554769515991E-1  -4.769172519445419E-3   7.129814941436052E-3  -4.789617378264666E-3   7.128245662897825E-3   6.353710889816284E-1   1.995546072721481E-1  
 1.271040000000000E10    4.411398172378540E-1  -4.156345725059509E-1  -6.657031364738941E-3   8.867600001394749E-3  -6.683685816824436E-3   8.863803930580616E-3   6.261036992073059E-1   1.528655737638474E-1  
 1.271060000000000E10    3.938865363597870E-1  -4.392083287239075E-1  -8.961728774011135E-3   1.130368188023567E-2  -8.991761133074760E-3   1.129505783319473E-2   6.114698052406311E-1   1.054398491978645E-1  
 1.271080000000000E10    3.433399498462677E-1  -4.581862688064575E-1  -1.165576744824648E-2   1.472961623221636E-2  -1.169658731669188E-2   1.471519097685814E-2   5.907962322235107E-1   5.800839513540268E-2  
 1.271100000000000E10    2.899648249149323E-1  -4.718268513679504E-1  -1.474501658231020E-2   1.950109936296940E-2  -1.475036144256592E-2   1.951693557202816E-2   5.634281039237976E-1   1.168480794876814E-2  
 1.271120000000000E10    2.344192117452622E-1  -4.793088734149933E-1  -1.780221052467823E-2   2.610044926404953E-2  -1.780999824404717E-2   2.611927501857281E-2   5.289255380630493E-1  -3.219672664999962E-2  
 1.271140000000000E10    1.776025593280792E-1  -4.799022376537323E-1  -2.047047950327396E-2   3.500586003065109E-2  -2.047477662563324E-2   3.503444418311119E-2   4.871519804000855E-1  -7.187231630086899E-2  
 1.271160000000000E10    1.207125559449196E-1  -4.729667007923126E-1  -2.198383212089539E-2   4.669572412967682E-2  -2.198477648198605E-2   4.672027379274368E-2   4.384179115295410E-1  -1.052586063742638E-1  
 1.271180000000000E10    6.528967618942261E-2  -4.581194519996643E-1  -2.124418132007122E-2   6.148323789238930E-2  -2.123864926397800E-2   6.150239706039429E-2   3.837855458259583E-1  -1.301420927047730E-1  
 1.271200000000000E10    1.305104792118073E-2  -4.354474246501923E-1  -1.677194610238075E-2   7.930231094360352E-2  -1.676994748413563E-2   7.931530475616455E-2   3.252891600131989E-1  -1.444120407104492E-1  
 1.271220000000000E10   -3.411676734685898E-2  -4.055079221725464E-1  -6.849947851151228E-3   9.946097433567047E-2  -6.851651240140200E-3   9.948191791772842E-2   2.659701108932495E-1  -1.465971320867539E-1  
 1.271240000000000E10   -7.448084652423859E-2  -3.696341812610626E-1   1.019607763737440E-2   1.204191148281097E-1   1.020389888435602E-2   1.204435229301453E-1   2.095598429441452E-1  -1.363410502672195E-1  
 1.271260000000000E10   -1.067600771784782E-1  -3.297000229358673E-1   3.555465489625931E-2   1.397308260202408E-1   3.555292263627052E-2   1.397509425878525E-1   1.600958108901978E-1  -1.149890050292015E-1  
