#  HZ   S   RI   R     50.00 
! Rohde & Schwarz ZVA50 2Ports - Version 3.70 - 1145.1110k50 SN: 100192
! Date: 2025-10-24 10:35:44
! Measurements: S11 S21 S12 S22 
! 
 1.269400000000000E10   -1.561136245727539E-1   8.975900411605835E-1   1.978194573894143E-3   4.679936973843724E-4   1.974858110770583E-3   4.773516848217696E-4  -4.055606424808502E-1   8.393198251724243E-1  
 1.269420000000000E10   -1.440893858671188E-1   8.986762762069702E-1   2.006828086450696E-3   4.546267737168819E-4   2.003185451030731E-3   4.632075433619320E-4  -3.973675668239594E-1   8.426154255867004E-1  
 1.269440000000000E10   -1.319495737552643E-1   8.996822834014893E-1   2.035288373008370E-3   4.394092538859695E-4   2.031362382695079E-3   4.469803534448147E-4  -3.889522552490234E-1   8.458720445632935E-1  
 1.269460000000000E10   -1.195276603102684E-1   9.005241990089417E-1   2.063479507341981E-3   4.235458036419004E-4   2.061021747067571E-3   4.311600059736520E-4  -3.804181516170502E-1   8.490631580352783E-1  
 1.269480000000000E10   -1.071606501936913E-1   9.014029502868652E-1   2.092995448037982E-3   4.080316575709730E-4   2.088445005938411E-3   4.136661591473967E-4  -3.720982968807221E-1   8.527150154113770E-1  
 1.269500000000000E10   -9.439814090728760E-2   9.018812179565430E-1   2.119528362527490E-3   3.911810927093029E-4   2.115520881488919E-3   3.961880283895880E-4  -3.633019030094147E-1   8.558505177497864E-1  
 1.269520000000000E10   -8.154679834842682E-2   9.021276831626892E-1   2.147608436644077E-3   3.718136576935649E-4   2.142424462363124E-3   3.784690634347498E-4  -3.543304800987244E-1   8.589230179786682E-1  
 1.269540000000000E10   -6.839002668857575E-2   9.022071957588196E-1   2.172273118048906E-3   3.540705656632781E-4   2.167714061215520E-3   3.589487751014531E-4  -3.451995253562927E-1   8.618788123130798E-1  
 1.269560000000000E10   -5.512556806206703E-2   9.020898938179016E-1   2.199112670496106E-3   3.342332784086466E-4   2.193444874137640E-3   3.385480085853487E-4  -3.359316587448120E-1   8.648104667663574E-1  
 1.269580000000000E10   -4.165426641702652E-2   9.016933441162109E-1   2.222633687779307E-3   3.136930754408240E-4   2.218968700617552E-3   3.178975894115865E-4  -3.265045583248138E-1   8.676065206527710E-1  
 1.269600000000000E10   -2.799305319786072E-2   9.011372923851013E-1   2.244975883513689E-3   2.936680393759161E-4   2.242416609078646E-3   2.961465215776116E-4  -3.168979883193970E-1   8.703787922859192E-1  
 1.269620000000000E10   -1.415663585066795E-2   9.003543853759766E-1   2.269232645630837E-3   2.731652639340609E-4   2.265053801238537E-3   2.762481162790209E-4  -3.071320950984955E-1   8.730875849723816E-1  
 1.269640000000000E10   -1.483745872974396E-4   8.992848992347717E-1   2.290738513693214E-3   2.526771277189255E-4   2.288866788148880E-3   2.539850538596511E-4  -2.972104847431183E-1   8.756906390190125E-1  
 1.269660000000000E10    1.411788910627365E-2   8.979746103286743E-1   2.311034360900521E-3   2.293073921464384E-4   2.307146321982145E-3   2.312710275873542E-4  -2.871004641056061E-1   8.782128095626831E-1  
 1.269680000000000E10    2.850882336497307E-2   8.964548110961914E-1   2.328012371435762E-3   2.084319858113304E-4   2.326164627447724E-3   2.084983570966870E-4  -2.768176198005676E-1   8.806163668632507E-1  
 1.269700000000000E10    4.310861602425575E-2   8.945567011833191E-1   2.347592264413834E-3   1.841164194047451E-4   2.343553118407726E-3   1.846272934926674E-4  -2.663525938987732E-1   8.829561471939087E-1  
 1.269720000000000E10    5.787184461951256E-2   8.924233913421631E-1   2.361560473218560E-3   1.616466470295563E-4   2.362217986956239E-3   1.610945473657921E-4  -2.557233572006226E-1   8.851929306983948E-1  
 1.269740000000000E10    7.286842167377472E-2   8.899668455123901E-1   2.375533804297447E-3   1.377574808429927E-4   2.376657212153077E-3   1.378792949253693E-4  -2.449006289243698E-1   8.873306512832642E-1  
 1.269760000000000E10    8.805544674396515E-2   8.872038125991821E-1   2.387872664257884E-3   1.148891169577837E-4   2.388389781117439E-3   1.140520034823567E-4  -2.338695824146271E-1   8.893294930458069E-1  
 1.269780000000000E10    1.033589988946915E-1   8.841164708137512E-1   2.398046664893627E-3   9.202611545333639E-5   2.398759126663208E-3   8.998214616440237E-5  -2.226567268371582E-1   8.911762237548828E-1  
 1.269800000000000E10    1.189132854342461E-1   8.805919885635376E-1   2.405286533758044E-3   6.748979649273679E-5   2.406605985015631E-3   6.779426621505991E-5  -2.111939936876297E-1   8.929241299629211E-1  
 1.269820000000000E10    1.346209943294525E-1   8.768557310104370E-1   2.410809276625514E-3   4.618588718585670E-5   2.412379952147603E-3   4.477922630030662E-5  -1.995703577995300E-1   8.945306539535523E-1  
 1.269840000000000E10    1.505375653505325E-1   8.726522922515869E-1   2.413168083876371E-3   2.351138391532004E-5   2.415232360363007E-3   2.147789928130806E-5  -1.876924335956574E-1   8.959718942642212E-1  
 1.269860000000000E10    1.665884256362915E-1   8.680855631828308E-1   2.412653528153896E-3   1.213353243656457E-6   2.413948066532612E-3   4.054163582623005E-7  -1.756320446729660E-1   8.972642421722412E-1  
 1.269880000000000E10    1.828355789184570E-1   8.630532026290894E-1   2.407813444733620E-3  -1.838651951402426E-5   2.410094486549497E-3  -1.999296364374459E-5  -1.633430719375610E-1   8.984044194221497E-1  
 1.269900000000000E10    1.992562413215637E-1   8.576030731201172E-1   2.400899771600962E-3  -3.785702574532479E-5   2.404345199465752E-3  -3.932839899789542E-5  -1.508046686649323E-1   8.993709683418274E-1  
 1.269920000000000E10    2.158217430114746E-1   8.517184853553772E-1   2.389462664723396E-3  -5.593075184151530E-5   2.394914859905839E-3  -5.731638520956039E-5  -1.380445659160614E-1   9.001370668411255E-1  
 1.269940000000000E10    2.326043844223023E-1   8.453685641288757E-1   2.375905402004719E-3  -6.998947355896235E-5   2.380338497459889E-3  -7.250109047163278E-5  -1.250692009925842E-1   9.006890058517456E-1  
 1.269960000000000E10    2.494833320379257E-1   8.384818434715271E-1   2.357370685786009E-3  -8.424723637290299E-5   2.362193772569299E-3  -8.467794395983219E-5  -1.118258237838745E-1   9.010189771652222E-1  
 1.269980000000000E10    2.664867043495178E-1   8.311046957969666E-1   2.333327895030379E-3  -9.423709707334638E-5   2.340804086998105E-3  -9.527651127427816E-5  -9.837598353624344E-2   9.011801481246948E-1  
 1.270000000000000E10    2.836979925632477E-1   8.231893181800842E-1   2.306077163666487E-3  -1.004268560791388E-4   2.313065109774470E-3  -1.018308539642021E-4  -8.458868414163590E-2   9.010483026504517E-1  
 1.270020000000000E10    3.009934425354004E-1   8.146679401397705E-1   2.273620804771781E-3  -1.042449293890968E-4   2.281927969306707E-3  -1.063015370164067E-4  -7.054922729730606E-2   9.006497263908386E-1  
 1.270040000000000E10    3.184024095535278E-1   8.056044578552246E-1   2.238027751445770E-3  -1.031735591823235E-4   2.244598697870970E-3  -1.037726760841906E-4  -5.628221482038498E-2   9.000308513641357E-1  
 1.270060000000000E10    3.358886241912842E-1   7.959101200103760E-1   2.194575732573867E-3  -9.575474541634321E-5   2.202836098149419E-3  -9.807043534237891E-5  -4.171569645404816E-2   8.990947008132935E-1  
 1.270080000000000E10    3.534359633922577E-1   7.855646014213562E-1   2.146691549569368E-3  -8.322803478222340E-5   2.155566122382879E-3  -8.556814282201231E-5  -2.688214182853699E-2   8.978753685951233E-1  
 1.270100000000000E10    3.710286915302277E-1   7.745307087898254E-1   2.094944240525365E-3  -6.538027082569897E-5   2.102694939821959E-3  -6.558670429512858E-5  -1.176371425390244E-2   8.962695002555847E-1  
 1.270120000000000E10    3.887585997581482E-1   7.628403306007385E-1   2.034315373748541E-3  -3.742073022294790E-5   2.044884720817208E-3  -3.716307401191443E-5   3.637649118900299E-3   8.943647146224976E-1  
 1.270140000000000E10    4.065047204494476E-1   7.503377199172974E-1   1.969552366062999E-3  -1.448192051611841E-6   1.978788990527391E-3  -2.976477844640613E-6   1.931623369455338E-2   8.920625448226929E-1  
 1.270160000000000E10    4.242262244224548E-1   7.371088266372681E-1   1.898039947263897E-3   4.186775186099112E-5   1.909121870994568E-3   4.357128636911511E-5   3.534512221813202E-2   8.893790245056152E-1  
 1.270180000000000E10    4.419055283069611E-1   7.230939269065857E-1   1.821881625801325E-3   9.927901555784047E-5   1.832179375924170E-3   1.001782002276741E-4   5.164294689893723E-2   8.862525224685669E-1  
 1.270200000000000E10    4.595491290092468E-1   7.081651091575623E-1   1.739582628943026E-3   1.657465327298269E-4   1.749005983583629E-3   1.683255541138351E-4   6.824214011430740E-2   8.826872706413269E-1  
 1.270220000000000E10    4.770405292510986E-1   6.924082040786743E-1   1.649637357331812E-3   2.493520441930741E-4   1.659148838371038E-3   2.516483946237713E-4   8.517307788133621E-2   8.785589337348938E-1  
 1.270240000000000E10    4.944970607757568E-1   6.757527589797974E-1   1.555399154312909E-3   3.461161977611482E-4   1.564026460982859E-3   3.503547050058842E-4   1.024244800209999E-1   8.739183545112610E-1  
 1.270260000000000E10    5.117388367652893E-1   6.581273078918457E-1   1.454736688174307E-3   4.594088532030582E-4   1.465365057811141E-3   4.645727458409965E-4   1.199814081192017E-1   8.687570095062256E-1  
 1.270280000000000E10    5.287310481071472E-1   6.395082473754883E-1   1.350173144601286E-3   5.926943849772215E-4   1.358671463094652E-3   5.956235108897090E-4   1.378767192363739E-1   8.629488348960877E-1  
 1.270300000000000E10    5.454683899879456E-1   6.198252439498901E-1   1.240962999872863E-3   7.443428039550781E-4   1.249446067959070E-3   7.496601319871843E-4   1.560686677694321E-1   8.564569950103760E-1  
 1.270320000000000E10    5.618898272514343E-1   5.990819334983826E-1   1.129289972595871E-3   9.172240970656276E-4   1.133508048951626E-3   9.236178011633456E-4   1.745705902576447E-1   8.492490649223328E-1  
 1.270340000000000E10    5.779103636741638E-1   5.771935582160950E-1   1.011450425721705E-3   1.116667874157429E-3   1.017036149278283E-3   1.123134978115559E-3   1.934052109718323E-1   8.412859439849854E-1  
 1.270360000000000E10    5.934444665908814E-1   5.541623234748840E-1   8.938436512835324E-4   1.340711489319801E-3   8.993286173790693E-4   1.347366720438004E-3   2.125169038772583E-1   8.324643969535828E-1  
 1.270380000000000E10    6.084274053573608E-1   5.299558639526367E-1   7.758424035273492E-4   1.591115957126021E-3   7.784487679600716E-4   1.599603681825101E-3   2.318982779979706E-1   8.226735591888428E-1  
 1.270400000000000E10    6.227981448173523E-1   5.045121908187866E-1   6.577018648386002E-4   1.873542089015245E-3   6.580181070603430E-4   1.883046235889196E-3   2.514980435371399E-1   8.119661211967468E-1  
 1.270420000000000E10    6.364088058471680E-1   4.777235686779022E-1   5.432224133983254E-4   2.186429454013705E-3   5.426863790489733E-4   2.195128239691258E-3   2.714251577854157E-1   8.001763820648193E-1  
 1.270440000000000E10    6.491528749465942E-1   4.496495723724365E-1   4.317566927056760E-4   2.532008802518249E-3   4.300026048440486E-4   2.540837274864316E-3   2.915366291999817E-1   7.872072458267212E-1  
 1.270460000000000E10    6.609007120132446E-1   4.202455282211304E-1   3.265754494350404E-4   2.910743700340390E-3   3.213564050383866E-4   2.921164501458406E-3   3.117874562740326E-1   7.729455232620239E-1  
 1.270480000000000E10    6.715580224990845E-1   3.894594907760620E-1   2.277984749525785E-4   3.326099598780274E-3   2.203550247941166E-4   3.336888505145907E-3   3.321550488471985E-1   7.573236227035523E-1  
 1.270500000000000E10    6.808847188949585E-1   3.572635650634766E-1   1.361816539429128E-4   3.772865748032928E-3   1.279657008126378E-4   3.788920817896724E-3   3.525348305702210E-1   7.401934266090393E-1  
 1.270520000000000E10    6.888067126274109E-1   3.237159252166748E-1   5.388329736888409E-5   4.259448032826185E-3   4.538588109426200E-5   4.273407161235809E-3   3.728975057601929E-1   7.214061617851257E-1  
 1.270540000000000E10    6.950827836990356E-1   2.887586951255798E-1  -2.063129795715213E-5   4.779236391186714E-3  -3.240042133256793E-5   4.791915882378817E-3   3.930800259113312E-1   7.008841037750244E-1  
 1.270560000000000E10    6.995033621788025E-1   2.524134516716003E-1  -8.877224172465503E-5   5.330014973878861E-3  -1.028307015076280E-4   5.344765260815620E-3   4.129659831523895E-1   6.783751845359802E-1  
 1.270580000000000E10    7.018189430236816E-1   2.147844731807709E-1  -1.571119937580079E-4   5.912803579121828E-3  -1.724775647744536E-4   5.928819067776203E-3   4.323725104331970E-1   6.537537574768066E-1  
 1.270600000000000E10    7.018262147903442E-1   1.758366525173187E-1  -2.322788059245795E-4   6.525973323732615E-3  -2.478602691553533E-4   6.538941524922848E-3   4.511453807353973E-1   6.268765926361084E-1  
 1.270620000000000E10    6.992177963256836E-1   1.357389390468597E-1  -3.277310170233250E-4   7.164980284869671E-3  -3.474211844149977E-4   7.181801833212376E-3   4.689263701438904E-1   5.975265502929688E-1  
 1.270640000000000E10    6.937278509140015E-1   9.465365856885910E-2  -4.637248930521309E-4   7.834671065211296E-3  -4.868172109127045E-4   7.848859764635563E-3   4.853703677654266E-1   5.655488371849060E-1  
 1.270660000000000E10    6.850280165672302E-1   5.270487070083618E-2  -6.691367598250508E-4   8.540662005543709E-3  -6.917217979207635E-4   8.552379906177521E-3   5.002138614654541E-1   5.308239459991455E-1  
 1.270680000000000E10    6.727898120880127E-1   1.016165316104889E-2  -9.819688275456429E-4   9.293689392507076E-3  -1.007127342745662E-3   9.305127896368504E-3   5.128238201141357E-1   4.931590557098389E-1  
 1.270700000000000E10    6.566697359085083E-1  -3.263912349939346E-2  -1.450605457648635E-3   1.012273319065571E-2  -1.480305800214410E-3   1.013444550335407E-2   5.226801037788391E-1   4.525175988674164E-1  
 1.270720000000000E10    6.362990736961365E-1  -7.532713562250137E-2  -2.145957667380571E-3   1.108187437057495E-2  -2.178042195737362E-3   1.109138410538435E-2   5.290088653564453E-1   4.088811874389648E-1  
 1.270740000000000E10    6.114214658737183E-1  -1.173595488071442E-1  -3.136248793452978E-3   1.225203182548285E-2  -3.174960380420089E-3   1.225880812853575E-2   5.310059785842896E-1   3.624017834663391E-1  
 1.270760000000000E10    5.816836953163147E-1  -1.580703705549240E-1  -4.505427088588476E-3   1.376422960311174E-2  -4.546689800918102E-3   1.376895233988762E-2   5.276931524276733E-1   3.134694099426270E-1  
 1.270780000000000E10    5.469293594360352E-1  -1.968311071395874E-1  -6.320977117866278E-3   1.582765951752663E-2  -6.367245223373175E-3   1.582853868603706E-2   5.180334448814392E-1   2.626484334468842E-1  
 1.270800000000000E10    5.069805979728699E-1  -2.325960993766785E-1  -8.614748716354370E-3   1.872439123690128E-2  -8.708015084266663E-3   1.875209994614124E-2   5.008949637413025E-1   2.109518051147461E-1  
 1.270820000000000E10    4.618937373161316E-1  -2.644174098968506E-1  -1.144369505345821E-2   2.285833470523357E-2  -1.144948601722717E-2   2.287732996046543E-2   4.752883911132813E-1   1.597839444875717E-1  
 1.270840000000000E10    4.120059609413147E-1  -2.911099195480347E-1  -1.441231742501259E-2   2.870432473719120E-2  -1.442903559654951E-2   2.872172743082047E-2   4.404857158660889E-1   1.111487150192261E-1  
 1.270860000000000E10    3.578942716121674E-1  -3.114101588726044E-1  -1.717823930084705E-2   3.681385144591332E-2  -1.720011606812477E-2   3.683378174901009E-2   3.962284922599793E-1   6.750228255987167E-2  
 1.270880000000000E10    3.005561530590057E-1  -3.240802586078644E-1  -1.898313127458096E-2   4.771844670176506E-2  -1.899928599596024E-2   4.773857071995735E-2   3.431373834609985E-1   3.172153979539871E-2  
 1.270900000000000E10    2.414207309484482E-1  -3.280320465564728E-1  -1.866715401411057E-2   6.173275038599968E-2  -1.869389973580837E-2   6.174772605299950E-2   2.829403281211853E-1   6.768573075532913E-3  
 1.270920000000000E10    1.823449134826660E-1  -3.225924670696259E-1  -1.475284807384014E-2   7.874951511621475E-2  -1.477452367544174E-2   7.875926792621613E-2   2.186374515295029E-1  -4.931331612169743E-3  
 1.270940000000000E10    1.255017817020416E-1  -3.075207173824310E-1  -5.574801005423069E-3   9.796883910894394E-2  -5.607114173471928E-3   9.798673540353775E-2   1.543284952640533E-1  -2.100806217640638E-3  
 1.270960000000000E10    7.323043048381805E-2  -2.832771539688110E-1   1.035708747804165E-2   1.178093329071999E-1   1.031530182808638E-2   1.178352311253548E-1   9.457346051931381E-2   1.489035505801439E-2  
 1.270980000000000E10    2.767734043300152E-2  -2.511054873466492E-1   3.389153629541397E-2   1.359278559684753E-1   3.385869041085243E-2   1.359515339136124E-1   4.353110864758492E-2   4.376560449600220E-2  
 1.271000000000000E10   -9.402142837643623E-3  -2.127909809350967E-1   6.495487689971924E-2   1.495309025049210E-1   6.492172181606293E-2   1.495735794305801E-1   4.097844008356333E-3   8.077251911163330E-2  
 1.271020000000000E10   -3.683971613645554E-2  -1.706717163324356E-1   1.022985503077507E-1   1.559410393238068E-1   1.022908464074135E-1   1.559833884239197E-1  -2.265511825680733E-2   1.215203106403351E-1  
 1.271040000000000E10   -5.420063436031342E-2  -1.272270530462265E-1   1.437450945377350E-1   1.530156135559082E-1   1.437330991029739E-1   1.530899852514267E-1  -3.750699013471603E-2   1.618847548961639E-1  
 1.271060000000000E10   -6.178092211484909E-2  -8.496522158384323E-2   1.864393502473831E-1   1.395712792873383E-1   1.864333152770996E-1   1.396264433860779E-1  -4.248983040452004E-2   1.987103521823883E-1  
 1.271080000000000E10   -6.048916652798653E-2  -4.617082700133324E-2   2.273427248001099E-1   1.153450012207031E-1   2.273515760898590E-1   1.154381409287453E-1  -4.027996212244034E-2   2.301438450813294E-1  
 1.271100000000000E10   -5.179986357688904E-2  -1.280143950134516E-2   2.636226117610931E-1   8.114632964134216E-2   2.636581957340241E-1   8.126566559076309E-2  -3.356416895985603E-2   2.555548548698425E-1  
 1.271120000000000E10   -3.760746121406555E-2   1.374257169663906E-2   2.929075062274933E-1   3.846390172839165E-2   2.929696440696716E-1   3.859520703554153E-2  -2.462218888103962E-2   2.751547098159790E-1  
 1.271140000000000E10   -2.015542425215244E-2   3.258554637432098E-2   3.134385049343109E-1  -1.073817722499371E-2   3.135042190551758E-1  -1.061885617673397E-2  -1.521670632064343E-2   2.897585034370422E-1  
 1.271160000000000E10   -1.704854192212224E-3   4.352385178208351E-2   3.240712583065033E-1  -6.416988372802734E-2   3.241436779499054E-1  -6.410866975784302E-2  -6.451664492487907E-3   3.004217445850372E-1  
 1.271180000000000E10    1.543295569717884E-2   4.696712270379067E-2   3.242676556110382E-1  -1.196208149194717E-1   3.243574798107147E-1  -1.195284053683281E-1   9.866035543382168E-4   3.082171976566315E-1  
 1.271200000000000E10    2.930459380149841E-2   4.396033287048340E-2   3.140862882137299E-1  -1.747771650552750E-1   3.141734600067139E-1  -1.747411936521530E-1   6.799430586397648E-3   3.141522705554962E-1  
 1.271220000000000E10    3.834045678377152E-2   3.598368167877197E-2   2.939952313899994E-1  -2.276612222194672E-1   2.941026091575623E-1  -2.276254594326019E-1   1.102652959525585E-2   3.190805017948151E-1  
 1.271240000000000E10    4.145357757806778E-2   2.491641417145729E-2   2.648309767246246E-1  -2.764106690883637E-1   2.649120092391968E-1  -2.764337062835693E-1   1.374593935906887E-2   3.237706422805786E-1  
 1.271260000000000E10    3.813761100172997E-2   1.274245977401733E-2   2.277381569147110E-1  -3.195839524269104E-1   2.278281599283218E-1  -3.195633292198181E-1   1.527579501271248E-2   3.288129568099976E-1  
