! Parameters = {f0=12700.012000; bw=77.238000; Q=6100.000000; N=10; m_0_1=1.260355; m_1_1=0.140585; m_1_2=1.095167; m_2_2=0.139936; m_2_3=0.732130; m_2_8=0.000081; m_2_9=0.036785; m_3_3=0.137999; m_3_4=0.620659; m_3_7=0.000681; m_3_8=-0.096407; m_3_9=0.000081; m_4_4=0.135074; m_4_5=0.456994; m_4_6=0.004198; m_4_7=-0.116956; m_4_8=0.000681; m_5_5=0.135456; m_5_6=0.864349; m_5_7=0.004198; m_6_6=0.135455; m_6_7=0.457336; m_7_7=0.135088; m_7_8=0.620777; m_8_8=0.137997; m_8_9=0.732443; m_9_9=0.139931; m_9_10=1.096245; m_10_10=0.140575; m_10_11=1.261150}
!
! Created with skrf (http://scikit-rf.org).
# Hz S RI R 50.0 
!freq ReS11 ImS11 ReS21 ImS21 ReS12 ImS12 ReS22 ImS22
12607400000.0 0.9524775506867008 0.30460879080829323 -1.0563796041674296e-16 -2.273532863911326e-18 -1.0563796041674296e-16 -2.273532863911326e-18 0.9524773484117401 0.30460942329869894
12608017333.333334 0.9555461123884731 0.29484169837236657 -1.0563511413489616e-16 -1.182327590862777e-18 -1.0563511413489616e-16 -1.182327590862777e-18 0.9555459166089137 0.29484233286937783
12608634666.666666 0.9585145212321776 0.28504370294197895 -1.0562100363568906e-16 -9.142357076557957e-20 -1.0562100363568906e-16 -9.142357076557957e-20 0.9585143319679017 0.2850443393788992
12609252000.0 0.9613824660925383 0.27521583146624407 -1.0559563483516827e-16 9.99062997099143e-19 -1.0559563483516827e-16 9.99062997099143e-19 0.9613822833627436 0.27521646977618025
12609869333.333334 0.9641496463741246 0.2653591140256469 -1.055590148472597e-16 2.0890160034672318e-18 -1.055590148472597e-16 2.0890160034672318e-18 0.9641494701973238 0.26535975414151647
12610486666.666666 0.966815772042832 0.25547458372418913 -1.0551115198254234e-16 3.1783194414049003e-18 -1.0551115198254234e-16 3.1783194414049003e-18 0.9668156024368478 0.25547522557872665
12611104000.0 0.9693805636563606 0.24556327658080554 -1.0545205574689193e-16 4.266857418684394e-18 -1.0545205574689193e-16 4.266857418684394e-18 0.9693804006383252 0.24556392010656972
12611721333.333334 0.9718437523934084 0.23562623142113281 -1.0538173684000203e-16 5.3545141700376365e-18 -1.0538173684000203e-16 5.3545141700376365e-18 0.9718435959797617 0.23562687655051387
12612338666.666666 0.974205080081892 0.22566448976846373 -1.053002071537745e-16 6.4411740694784786e-18 -1.053002071537745e-16 6.4411740694784786e-18 0.9742049302883812 0.22566513643369074
12612956000.0 0.9764642992260449 0.21567909573441713 -1.0520747977058476e-16 7.52672164257228e-18 -1.0520747977058476e-16 7.52672164257228e-18 0.9764641560677214 0.21567974386756464
12613573333.333334 0.9786211730322738 0.20567109590986132 -1.051035689614236e-16 8.611041578657665e-18 -1.051035689614236e-16 8.611041578657665e-18 0.9786210365234921 0.2056717454428568
12614190666.666666 0.980675475434047 0.19564153925491465 -1.0498849018390826e-16 9.694018743105845e-18 -1.0498849018390826e-16 9.694018743105845e-18 0.9806753455884643 0.19564219011954562
12614808000.0 0.9826269911155583 0.18559147698913978 -1.0486226008017199e-16 1.0775538189496542e-17 -1.0486226008017199e-16 1.0775538189496542e-17 0.9826268679461304 0.18559212911706055
12615425333.333334 0.9844755155343052 0.1755219624813077 -1.0472489647462558e-16 1.1855485171817015e-17 -1.0472489647462558e-16 1.1855485171817015e-17 0.9844753990532878 0.17552261580404704
12616042666.666666 0.9862208549425077 0.16543405113910345 -1.045764183715949e-16 1.2933745156601932e-17 -1.045764183715949e-16 1.2933745156601932e-17 0.9862207451614541 0.16543470558807163
12616660000.0 0.9878628264074448 0.15532880029833887 -1.0441684595283364e-16 1.401020383506091e-17 -1.0441684595283364e-16 1.401020383506091e-17 0.9878627233372052 0.1553294558048348
12617277333.333334 0.9894012578306133 0.1452072691122149 -1.042462005749109e-16 1.5084747135177308e-17 -1.042462005749109e-16 1.5084747135177308e-17 0.9894011614813337 0.14520792560743345
12617894666.666666 0.9908359879657498 0.13507051844042184 -1.0406450476647726e-16 1.6157261233759237e-17 -1.0406450476647726e-16 1.6157261233759237e-17 0.99083589834687 0.13507117585546083
12618512000.0 0.9921668664357776 0.12491961073761058 -1.03871782225399e-16 1.722763256850967e-17 -1.03871782225399e-16 1.722763256850967e-17 0.9921667835560333 0.12492026900347848
12619129333.333334 0.9933937537485034 0.11475560994254184 -1.0366805781578378e-16 1.8295747849975378e-17 -1.0366805781578378e-16 1.8295747849975378e-17 0.9933936776159202 0.11475626899016438
12619746666.666666 0.9945165213112918 0.10457958136612099 -1.0345335756486591e-16 1.9361494073562512e-17 -1.0345335756486591e-16 1.9361494073562512e-17 0.9945164519331898 0.10458024112634892
12620364000.0 0.9955350514445317 0.09439259157985354 -1.0322770865977868e-16 2.0424758531457957e-17 -1.0322770865977868e-16 2.0424758531457957e-17 0.9955349888275203 0.09439325198346954
12620981333.333334 0.9964492373939411 0.08419570830428097 -1.0299113944420779e-16 2.148542882450295e-17 -1.0299113944420779e-16 2.148542882450295e-17 0.9964491815439235 0.08419636928200733
12621598666.666666 0.9972589833417934 0.07399000029678889 -1.0274367941491158e-16 2.2543392874081784e-17 -1.0274367941491158e-16 2.2543392874081784e-17 0.9972589342639596 0.07399066177929418
12622216000.0 0.9979642044169419 0.06377653723970046 -1.0248535921812906e-16 2.3598538933927837e-17 -1.0248535921812906e-16 2.3598538933927837e-17 0.9979641621157733 0.06377719915760732
12622833333.333334 0.9985648267037132 0.053556389628217765 -1.022162106458616e-16 2.4650755601912883e-17 -1.022162106458616e-16 2.4650755601912883e-17 0.9985647911829807 0.05355705191210996
12623450666.666666 0.999060787249662 0.04333062865816436 -1.0193626663204206e-16 2.569993183176323e-17 -1.0193626663204206e-16 2.569993183176323e-17 0.9990607585124253 0.04333129123859407
12624068000.0 0.9994520340721685 0.03310032611368236 -1.016455612485697e-16 2.6745956944788457e-17 -1.016455612485697e-16 2.6745956944788457e-17 0.9994520121207756 0.03310098892117748
12624685333.333334 0.9997385261638853 0.02286655425483946 -1.0134412970123522e-16 2.778872064152559e-17 -1.0134412970123522e-16 2.778872064152559e-17 0.9997385109999736 0.022867217219910904
12625302666.666666 0.9999202334970311 0.012630385705527346 -1.0103200832553207e-16 2.8828113013321386e-17 -1.0103200832553207e-16 2.8828113013321386e-17 0.9999202251215257 0.012631048758676298
12625920000.0 0.9999971370265459 0.0023928933405829357 -1.0070923458232986e-16 2.986402455393739e-17 -1.0070923458232986e-16 2.986402455393739e-17 0.9999971354396611 0.002393556412308151
12626537333.333334 0.9999692286920796 -0.007844849826150422 -1.0037584705345253e-16 3.0896346171024145e-17 -1.0037584705345253e-16 3.0896346171024145e-17 0.9999692338933183 -0.007844186805345347
12627154666.666666 0.9998365114188438 -0.018081770754628867 -1.0003188543712304e-16 3.1924969197604376e-17 -1.0003188543712304e-16 3.1924969197604376e-17 0.9998365234069971 -0.018081107854228205
12627772000.0 0.9995989991172989 -0.028316796491132515 -9.967739054328878e-17 3.2949785403508916e-17 -9.967739054328878e-17 3.2949785403508916e-17 0.9995990178904467 -0.02831613378060113
12628389333.333334 0.9992567166817039 -0.0385488542803547 -9.93124042888539e-17 3.3970687006690695e-17 -9.93124042888539e-17 3.3970687006690695e-17 0.999256742237215 -0.038548191829130746
12629006666.666666 0.9988096999874946 -0.04877687167826583 -9.893696969275854e-17 3.498756668459695e-17 -9.893696969275854e-17 3.498756668459695e-17 0.9988097323220273 -0.04877620955575351
12629624000.0 0.9982579958875349 -0.05899977666423462 -9.855113087097732e-17 3.600031758538641e-17 -9.855113087097732e-17 3.600031758538641e-17 0.9982580349970378 -0.05899911493979687
12630241333.333334 0.9976016622072029 -0.06921649775344557 -9.815493303138133e-17 3.7008833339153903e-17 -9.815493303138133e-17 3.7008833339153903e-17 0.9976017080869152 -0.06921583649639693
12630858666.666666 0.9968407677383343 -0.07942596410920401 -9.774842246849884e-17 3.801300806906274e-17 -9.774842246849884e-17 3.801300806906274e-17 0.9968408203827847 -0.07942530338880308
12631476000.0 0.995975392231991 -0.08962710565537063 -9.733164655814303e-17 3.901273640247023e-17 -9.733164655814303e-17 3.901273640247023e-17 0.995975451635002 -0.08962644554081321
12632093333.333334 0.995005626390134 -0.09981885318817894 -9.690465375195848e-17 4.000791348191487e-17 -9.690465375195848e-17 4.000791348191487e-17 0.9950056925448196 -0.09981819374859052
12632710666.666666 0.9939315718561003 -0.11000013848849909 -9.64674935718233e-17 4.0998434976124624e-17 -9.64674935718233e-17 4.0998434976124624e-17 0.9939316447548653 -0.10999947979292744
12633328000.0 0.9927533412039418 -0.12016989443382804 -9.602021660415042e-17 4.1984197090933937e-17 -9.602021660415042e-17 4.1984197090933937e-17 0.9927534208384879 -0.12016923655123649
12633945333.333334 0.9914710579266388 -0.1303270551100526 -9.556287449408933e-17 4.296509658011506e-17 -9.556287449408933e-17 4.296509658011506e-17 0.9914711442879616 -0.13032639810931243
12634562666.666666 0.9900848564231527 -0.1404705559231983 -9.509551993960183e-17 4.3941030756182254e-17 -9.509551993960183e-17 4.3941030756182254e-17 0.9900849495015429 -0.1404698998730816
12635180000.0 0.9885948819843381 -0.1505993337110117 -9.46182066854346e-17 4.491189750111563e-17 -9.46182066854346e-17 4.491189750111563e-17 0.9885949817693841 -0.1505986786801842
12635797333.333334 0.9870012907777098 -0.1607123268544208 -9.413098951697895e-17 4.587759527702842e-17 -9.413098951697895e-17 4.587759527702842e-17 0.987001397258299 -0.16071167291143484
12636414666.666666 0.98530424983109 -0.17080847538872138 -9.36339242540355e-17 4.6838023136741405e-17 -9.36339242540355e-17 4.6838023136741405e-17 0.9853043629954084 -0.17080782260200866
12637032000.0 0.9835039370150933 -0.18088672111473109 -9.312706774444441e-17 4.779308073434381e-17 -9.312706774444441e-17 4.779308073434381e-17 0.9835040568506267 -0.18088606955259504
12637649333.333334 0.9816005410244704 -0.1909460077097563 -9.261047785763484e-17 4.874266833563231e-17 -9.261047785763484e-17 4.874266833563231e-17 0.9816006675180073 -0.19094535744036564
12638266666.666666 0.9795942613583474 -0.2009852808382244 -9.208421347805523e-17 4.968668682850788e-17 -9.208421347805523e-17 4.968668682850788e-17 0.9795943944959811 -0.2009846319296058
12638884000.0 0.9774853082993126 -0.211003488262219 -9.154833449850016e-17 5.062503773329649e-17 -9.154833449850016e-17 5.062503773329649e-17 0.9774854480664391 -0.21100284078224957
12639501333.333334 0.9752739028913596 -0.22099957995182226 -9.100290181333134e-17 5.1557623213001375e-17 -9.100290181333134e-17 5.1557623213001375e-17 0.975274049272683 -0.22099893396822287
12640118666.666666 0.9729602769167914 -0.23097250819486612 -9.04479773116046e-17 5.248434608346451e-17 -9.04479773116046e-17 5.248434608346451e-17 0.9729604298963244 -0.23097186377519435
12640736000.0 0.9705446728717547 -0.24092122770749327 -8.98836238700591e-17 5.340510982351362e-17 -8.98836238700591e-17 5.340510982351362e-17 0.970544832432819 -0.2409205849191361
12641353333.333334 0.9680273439410673 -0.2508446957426636 -8.930990534607245e-17 5.4319818584919586e-17 -8.930990534607245e-17 5.4319818584919586e-17 0.968027510066297 -0.25084405465283044
12641970666.666666 0.9654085539714743 -0.26074187220033257 -8.872688657042976e-17 5.5228377202418514e-17 -8.872688657042976e-17 5.5228377202418514e-17 0.9654087266428169 -0.260741232876048
12642588000.0 0.9626885774440893 -0.27061171973605 -8.813463334005482e-17 5.613069120355245e-17 -8.813463334005482e-17 5.613069120355245e-17 0.9626887566428093 -0.2706110822441477
12643205333.333334 0.9598676994456172 -0.2804532038697443 -8.753321241061692e-17 5.702666681847374e-17 -8.753321241061692e-17 5.702666681847374e-17 0.9598678851522957 -0.2804525682768589
12643822666.666666 0.9569462156384321 -0.2902652930942832 -8.692269148903425e-17 5.791621098967478e-17 -8.692269148903425e-17 5.791621098967478e-17 0.9569464078329697 -0.2902646594668437
12644440000.0 0.9539244322296581 -0.30004695898334294 -8.630313922589394e-17 5.879923138161613e-17 -8.630313922589394e-17 5.879923138161613e-17 0.9539246308912777 -0.300046327387566
12645057333.333334 0.9508026659390214 -0.30979717629939146 -8.567462520776333e-17 5.967563639029154e-17 -8.567462520776333e-17 5.967563639029154e-17 0.9508028710462714 -0.3097965468012747
12645674666.666666 0.9475812439656908 -0.3195149231010375 -8.50372199494141e-17 6.0545335152696e-17 -8.50372199494141e-17 6.0545335152696e-17 0.9475814554964439 -0.3195142957663515
12646292000.0 0.9442605039539039 -0.32919918085035654 -8.439099488592138e-17 6.140823755625267e-17 -8.439099488592138e-17 6.140823755625267e-17 0.9442607218853646 -0.32919855574463974
12646909333.333334 0.9408407939576948 -0.33884893451932474 -8.373602236472007e-17 6.226425424808374e-17 -8.373602236472007e-17 6.226425424808374e-17 0.9408410182663967 -0.33884831170787466
12647526666.666666 0.9373224724043528 -0.34846317269636634 -8.307237563751799e-17 6.311329664426396e-17 -8.307237563751799e-17 6.311329664426396e-17 0.9373227030661645 -0.3484625522442342
12648144000.0 0.9337059080568125 -0.35804088769249687 -8.240012885213666e-17 6.395527693895964e-17 -8.240012885213666e-17 6.395527693895964e-17 0.933706145046938 -0.3580402696644798
12648761333.333334 0.9299914799750717 -0.36758107564672465 -8.171935704426556e-17 6.479010811347435e-17 -8.171935704426556e-17 6.479010811347435e-17 0.929991723268056 -0.3675804601073601
12649378666.666666 0.9261795774764625 -0.37708273663129854 -8.103013612911636e-17 6.561770394521953e-17 -8.103013612911636e-17 6.561770394521953e-17 0.9261798270461912 -0.3770821236448563
12649996000.0 0.9222706000947875 -0.3865448747566421 -8.033254289298537e-17 6.643797901659537e-17 -8.033254289298537e-17 6.643797901659537e-17 0.9222708559144914 -0.3865442643871184
12650613333.333334 0.9182649575384663 -0.3959664982756826 -7.962665498472431e-17 6.725084872378853e-17 -7.962665498472431e-17 6.725084872378853e-17 0.9182652195807239 -0.395965890586793
12651230666.666666 0.9141630696476819 -0.4053466196875888 -7.891255090714195e-17 6.805622928545357e-17 -7.891255090714195e-17 6.805622928545357e-17 0.9141633378844217 -0.4053460147427617
12651848000.0 0.9099653663501983 -0.4146842558416919 -7.81903100082822e-17 6.885403775134643e-17 -7.81903100082822e-17 6.885403775134643e-17 0.9099656407527024 -0.4146836537040619
12652465333.333334 0.9056722876164405 -0.42397842804019004 -7.746001247265457e-17 6.964419201082171e-17 -7.746001247265457e-17 6.964419201082171e-17 0.9056725681553491 -0.423977828772592
12653082666.666666 0.901284283413379 -0.4332281621407583 -7.672173931236109e-17 7.04266108012568e-17 -7.672173931236109e-17 7.04266108012568e-17 0.9012845700586901 -0.4332275658057193
12653700000.0 0.8968018136572403 -0.4424324886589051 -7.597557235811627e-17 7.120121371640617e-17 -7.597557235811627e-17 7.120121371640617e-17 0.8968021063783161 -0.44243189531863925
12654317333.333334 0.8922253481654616 -0.45159044286925254 -7.522159425024207e-17 7.196792121459864e-17 -7.522159425024207e-17 7.196792121459864e-17 0.89222564693103 -0.4515898525856539
12654934666.666666 0.8875553666073802 -0.4607010649068076 -7.445988842951148e-17 7.272665462691277e-17 -7.445988842951148e-17 7.272665462691277e-17 0.8875556713855381 -0.46070047774144357
12655552000.0 0.8827923584538732 -0.46976339986771654 -7.369053912794975e-17 7.3477336165212e-17 -7.369053912794975e-17 7.3477336165212e-17 0.8827926692120913 -0.46976281588182195
12656169333.333334 0.8779368229262278 -0.4787764979090229 -7.291363135956494e-17 7.421988893007583e-17 -7.291363135956494e-17 7.421988893007583e-17 0.8779371396313536 -0.47877591716349377
12656786666.666666 0.8729892689436735 -0.48773941434850104 -7.212925091096039e-17 7.495423691867032e-17 -7.212925091096039e-17 7.495423691867032e-17 0.8729895915619333 -0.4877388369038872
12657404000.0 0.8679502150701032 -0.4966512097635425 -7.133748433189993e-17 7.568030503248874e-17 -7.133748433189993e-17 7.568030503248874e-17 0.8679505435671077 -0.4966506356800422
12658021333.333334 0.8628201894596826 -0.505510950089694 -7.053841892577877e-17 7.639801908500919e-17 -7.053841892577877e-17 7.639801908500919e-17 0.8628205238004302 -0.5055103794271478
12658638666.666666 0.8575997298016226 -0.5143177067183391 -6.97321427400438e-17 7.71073058092284e-17 -6.97321427400438e-17 7.71073058092284e-17 0.8576000699505016 -0.5143171395362226
12659256000.0 0.8522893832635915 -0.5230705565944184 -6.891874455648346e-17 7.780809286514383e-17 -6.891874455648346e-17 7.780809286514383e-17 0.8522897291843855 -0.5230699929518366
12659873333.333334 0.8468897064345516 -0.5317685823128581 -6.809831388150698e-17 7.85003088470769e-17 -6.809831388150698e-17 7.85003088470769e-17 0.8468900580904429 -0.5317680222685399
12660490666.666666 0.8414012652664113 -0.5404108722147521 -6.727094093631943e-17 7.918388329092163e-17 -6.727094093631943e-17 7.918388329092163e-17 0.8414016226199847 -0.5404103158270434
12661108000.0 0.8358246350145404 -0.5489965204831806 -6.6436716647004e-17 7.985874668130684e-17 -6.6436716647004e-17 7.985874668130684e-17 0.835824998027786 -0.5489959678100371
12661725333.333334 0.8301604001777468 -0.5575246272377147 -6.559573263458736e-17 8.052483045860909e-17 -6.559573263458736e-17 8.052483045860909e-17 0.8301607688120672 -0.5575240783366989
12662342666.666666 0.824409154436757 -0.5659942986291455 -6.474808120497551e-17 8.118206702590997e-17 -6.474808120497551e-17 8.118206702590997e-17 0.8244095286529695 -0.565993753557419
12662960000.0 0.8185715005921315 -0.574404646932956 -6.3893855338869e-17 8.18303897558089e-17 -6.3893855338869e-17 8.18303897558089e-17 0.8185718803504705 -0.5744041057472721
12663577333.333334 0.8126480505010457 -0.5827547906424086 -6.303314868157296e-17 8.246973299715938e-17 -6.303314868157296e-17 8.246973299715938e-17 0.8126484357611695 -0.5827542533991085
12664194666.666666 0.8066394250131663 -0.5910438545609414 -6.216605553276578e-17 8.310003208167859e-17 -6.216605553276578e-17 8.310003208167859e-17 0.8066398157341608 -0.5910433213159478
12664812000.0 0.800546253905561 -0.5992709698939223 -6.129267083619083e-17 8.372122333045888e-17 -6.129267083619083e-17 8.372122333045888e-17 0.8005466500459423 -0.5992704407027324
12665429333.333334 0.7943691758167348 -0.6074352743396363 -6.041309016928277e-17 8.433324406037061e-17 -6.041309016928277e-17 8.433324406037061e-17 0.7943695773344581 -0.6074347492573191
12666046666.666666 0.788108838179688 -0.6155359121796965 -5.952740973274572e-17 8.493603259034701e-17 -5.952740973274572e-17 8.493603259034701e-17 0.788109245032146 -0.615535391260883
12666664000.0 0.7817658971539244 -0.6235720343688832 -5.863572634002703e-17 8.55295282475878e-17 -5.863572634002703e-17 8.55295282475878e-17 0.7817663092979571 -0.6235715176677642
12667281333.333334 0.7753410175569112 -0.6315427986238474 -5.773813740680356e-17 8.611367137360321e-17 -5.773813740680356e-17 8.611367137360321e-17 0.7753414349488068 -0.6315422861941656
12667898666.666666 0.7688348727942201 -0.6394473695116135 -5.683474094032433e-17 8.668840333020364e-17 -5.683474094032433e-17 8.668840333020364e-17 0.7688352953897221 -0.6394468614066592
12668516000.0 0.7622481447889277 -0.6472849185371655 -5.592563552874351e-17 8.725366650534532e-17 -5.592563552874351e-17 8.725366650534532e-17 0.7622485725432369 -0.6472844148097693
12669133333.333334 0.7555815239103757 -0.6550546242299962 -5.50109203304056e-17 8.780940431885829e-17 -5.50109203304056e-17 8.780940431885829e-17 0.7555819567781583 -0.6550541249325261
12669750666.666666 0.7488357089015236 -0.6627556722305595 -5.409069506302942e-17 8.835556122809072e-17 -5.409069506302942e-17 8.835556122809072e-17 0.7488361468369129 -0.6627551774149133
12670368000.0 0.7420114068058533 -0.6703872553754479 -5.3165059992868795e-17 8.889208273341977e-17 -5.3165059992868795e-17 8.889208273341977e-17 0.7420118497624578 -0.6703867650930496
