! Parameters = {f0=12700.012000; bw=77.238000; Q=6100.000000; N=10; m_0_1=1.297192; m_1_1=0.693137; m_1_2=1.132004; m_2_2=0.692488; m_2_3=0.768967; m_2_8=0.001923; m_2_9=0.038627; m_3_3=0.690551; m_3_4=0.657496; m_3_7=0.002523; m_3_8=-0.094565; m_3_9=0.001923; m_4_4=0.687626; m_4_5=0.493831; m_4_6=0.006040; m_4_7=-0.115114; m_4_8=0.002523; m_5_5=0.688008; m_5_6=0.901186; m_5_7=0.006040; m_6_6=0.688007; m_6_7=0.494173; m_7_7=0.687640; m_7_8=0.657614; m_8_8=0.690549; m_8_9=0.769280; m_9_9=0.692483; m_9_10=1.133082; m_10_10=0.693127; m_10_11=1.297987}
!
! Created with skrf (http://scikit-rf.org).
# Hz S RI R 50.0 
!freq ReS11 ImS11 ReS21 ImS21 ReS12 ImS12 ReS22 ImS22
12607400000.0 -0.9989336220392779 -0.046169456995991696 1.2186707183089326e-16 -3.005850491181688e-17 1.2186707183089326e-16 -3.005850491181688e-17 -0.9989335904874223 -0.04617013965458502
12608017333.333334 -0.999392484646046 -0.0348519961095216 1.2149221092813067e-16 -3.1441532701823e-17 1.2149221092813067e-16 -3.1441532701823e-17 -0.9993924608295659 -0.0348526790482615
12608634666.666666 -0.9997231297184132 -0.023530063872327162 1.2110166448038625e-16 -3.281992159435361e-17 1.2110166448038625e-16 -3.281992159435361e-17 -0.999723113639607 -0.02353074700357257
12609252000.0 -0.9999255148362055 -0.012205112837065026 1.2069548951691755e-16 -3.4193493806780544e-17 1.2069548951691755e-16 -3.4193493806780544e-17 -0.9999255064963775 -0.012205796073158713
12609869333.333334 -0.9999996140344176 -0.0008785959436881723 1.2027374508069024e-16 -3.556207225359864e-17 1.2027374508069024e-16 -3.556207225359864e-17 -0.9999996134338804 -0.0008792791969680799
12610486666.666666 -0.9999454178065482 0.010448033666845893 1.1983649221990328e-16 -3.6925480569206195e-17 1.1983649221990328e-16 -3.6925480569206195e-17 -0.9999454249446219 0.010447350484035466
12611104000.0 -0.9997629331058187 0.021773322839347655 1.1938379397923932e-16 -3.828354313063685e-17 1.1938379397923932e-16 -3.828354313063685e-17 -0.999762947980829 0.021772639814644768
12611721333.333334 -0.9994521833442824 0.03309581859031724 1.189157153908898e-16 -3.963608508008399e-17 1.189157153908898e-16 -3.963608508008399e-17 -0.9994522059535642 0.03309513581133111
12612338666.666666 -0.999013208389819 0.04441406829481037 1.1843232346528884e-16 -4.098293234743222e-17 1.1843232346528884e-16 -4.098293234743222e-17 -0.9990132387297149 0.04441338584911014
12612956000.0 -0.9984460645610164 0.055726619872689814 1.1793368718161365e-16 -4.232391167260916e-17 1.1793368718161365e-16 -4.232391167260916e-17 -0.9984461026268768 0.05572593784779322
12613573333.333334 -0.9977508246199549 0.06703202197469345 1.174198774780389e-16 -4.3658850627810225e-17 1.174198774780389e-16 -4.3658850627810225e-17 -0.9977508704061413 0.0670313404580558
12614190666.666666 -0.9969275777628638 0.07832882416891997 1.1689096724171721e-16 -4.4987577639666446e-17 1.1689096724171721e-16 -4.4987577639666446e-17 -0.9969276312627454 0.07832814324792266
12614808000.0 -0.9959764296086764 0.08961557712679882 1.163470312985284e-16 -4.630992201124207e-17 1.163470312985284e-16 -4.630992201124207e-17 -0.9959764908146359 0.08961489688873844
12615425333.333334 -0.9948975021854926 0.10089083280894777 1.1578814640257102e-16 -4.762571394393275e-17 1.1578814640257102e-16 -4.762571394393275e-17 -0.9948975710889241 0.10089015334102473
12616042666.666666 -0.9936909339149074 0.11215314465111993 1.1521439122541537e-16 -4.893478455921849e-17 1.1521439122541537e-16 -4.893478455921849e-17 -0.993691010506217 0.11215246604042714
12616660000.0 -0.9923568795942594 0.12340106774967759 1.1462584634509744e-16 -5.023696592032113e-17 1.1462584634509744e-16 -5.023696592032113e-17 -0.9923569638628696 0.12340039008318965
12617277333.333334 -0.9908955103767634 0.13463315904705175 1.1402259423488068e-16 -5.1532091053700927e-17 1.1402259423488068e-16 -5.1532091053700927e-17 -0.9908956023111124 0.13463248241161363
12617894666.666666 -0.9893070137495868 0.14584797751662681 1.134047192517775e-16 -5.281999397041645e-17 1.134047192517775e-16 -5.281999397041645e-17 -0.9893071133371302 0.14584730199894255
12618512000.0 -0.9875915935097284 0.15704408434809564 1.1277230762480722e-16 -5.410050968739596e-17 1.1277230762480722e-16 -5.410050968739596e-17 -0.9875917007369407 0.15704341003471745
12619129333.333334 -0.9857494697379438 0.16822004313154632 1.121254474430516e-16 -5.537347424849267e-17 1.121254474430516e-16 -5.537347424849267e-17 -0.9857495845903224 0.1682193701088636
12619746666.666666 -0.9837808787704665 0.17937442004205648 1.1146422864344328e-16 -5.663872474545866e-17 1.1146422864344328e-16 -5.663872474545866e-17 -0.9837810012325314 0.17937374839628456
12620364000.0 -0.9816860731686848 0.1905057840236461 1.1078874299831842e-16 -5.789609933877419e-17 1.1078874299831842e-16 -5.789609933877419e-17 -0.9816862032239805 0.19050511384081512
12620981333.333334 -0.9794653216867742 0.2016127069726511 1.1009908410276486e-16 -5.914543727826897e-17 1.1009908410276486e-16 -5.914543727826897e-17 -0.9794654593178734 0.20161203833859517
12621598666.666666 -0.9771189092371952 0.21269376392111142 1.0939534736170033e-16 -6.038657892367016e-17 1.0939534736170033e-16 -6.038657892367016e-17 -0.9771190544257008 0.2126930969214577
12622216000.0 -0.9746471368541297 0.2237475332196153 1.0867762997674464e-16 -6.161936576494651e-17 1.0867762997674464e-16 -6.161936576494651e-17 -0.9746472895806758 0.22374686793977266
12622833333.333334 -0.97205032165487 0.23477259671963424 1.0794603093285055e-16 -6.284364044252285e-17 1.0794603093285055e-16 -6.284364044252285e-17 -0.9720504818991259 0.23477193324478265
12623450666.666666 -0.9693287967991471 0.24576753995540984 1.072006509847271e-16 -6.405924676730303e-17 1.072006509847271e-16 -6.405924676730303e-17 -0.9693289645398208 0.2457668783704896
12624068000.0 -0.9664829114463864 0.2567309523254522 1.0644159264300337e-16 -6.526602974059063e-17 1.0644159264300337e-16 -6.526602974059063e-17 -0.9664830866612246 0.25673029271515246
12624685333.333334 -0.9635130307108566 0.2676614272737049 1.0566896016019373e-16 -6.646383557380373e-17 1.0566896016019373e-16 -6.646383557380373e-17 -0.9635132133766507 0.2676607697224536
12625302666.666666 -0.9604195356149327 0.27855756246961605 1.0488285951645409e-16 -6.765251170800691e-17 1.0488285951645409e-16 -6.765251170800691e-17 -0.9604197257075205 0.2785569070615687
12625920000.0 -0.9572028230400899 0.2894179599884889 1.0408339840507279e-16 -6.883190683334735e-17 1.0408339840507279e-16 -6.883190683334735e-17 -0.9572030205343584 0.2894173068075176
12626537333.333334 -0.9538633056760872 0.3002412264904741 1.0327068621779762e-16 -7.000187090823688e-17 1.0327068621779762e-16 -7.000187090823688e-17 -0.9538635105459756 0.30024057562015705
12627154666.666666 -0.9504014119680078 0.31102597339938387 1.024448340299193e-16 -7.116225517840647e-17 1.024448340299193e-16 -7.116225517840647e-17 -0.9504016241865126 0.31102532492299484
12627772000.0 -0.9468175860611887 0.32177081708116595 1.0160595458511969e-16 -7.231291219581393e-17 1.0160595458511969e-16 -7.231291219581393e-17 -0.9468178056003664 0.32177017108166345
12628389333.333334 -0.9431122877443939 0.3324743790209292 1.0075416228017086e-16 -7.34536958372876e-17 1.0075416228017086e-16 -7.34536958372876e-17 -0.9431125145753646 0.33247373558094595
12629006666.666666 -0.9392859923906857 0.34313528600023424 9.988957314935419e-17 -7.458446132308786e-17 9.988957314935419e-17 -7.458446132308786e-17 -0.9392862264836358 0.34313464520206627
12629624000.0 -0.9353391908965316 0.35375217027297284 9.901230484872882e-17 -7.570506523520922e-17 9.901230484872882e-17 -7.570506523520922e-17 -0.9353394322207207 0.35375153219856964
12630241333.333334 -0.9312723896187644 0.3643236697410335 9.812247664015686e-17 -7.681536553554907e-17 9.812247664015686e-17 -7.681536553554907e-17 -0.9312726381425256 0.36432303447198666
12630858666.666666 -0.9270861103097146 0.37484842812878466 9.722020937516324e-17 -7.791522158384242e-17 9.722020937516324e-17 -7.791522158384242e-17 -0.927086366000462 0.3748477957463186
12631476000.0 -0.9227808900501007 0.38532509515753116 9.630562547853382e-17 -7.900449415548132e-17 9.630562547853382e-17 -7.900449415548132e-17 -0.9227811528743313 0.38532446574249124
12632093333.333334 -0.9183572811802996 0.39575232671829746 9.537884893179216e-17 -8.008304545905038e-17 9.537884893179216e-17 -8.008304545905038e-17 -0.9183575511035978 0.3957517003511406
12632710666.666666 -0.9138158512294098 0.40612878504445676 9.444000525642573e-17 -8.115073915373429e-17 9.444000525642573e-17 -8.115073915373429e-17 -0.9138161282164545 0.4061281618052415
12633328000.0 -0.9091571828423751 0.4164531388835172 9.348922149692173e-17 -8.22074403665233e-17 9.348922149692173e-17 -8.22074403665233e-17 -0.9091574668569411 0.41645251885189255
12633945333.333334 -0.9043818737053765 0.42672406366757487 9.25266262036442e-17 -8.325301570918389e-17 9.25266262036442e-17 -8.325301570918389e-17 -0.9043821647103425 0.4267234469227716
12634562666.666666 -0.8994905364690321 0.4369402416835391 9.155234941548702e-17 -8.428733329506964e-17 9.155234941548702e-17 -8.428733329506964e-17 -0.8994908344263807 0.4369396283043569
12635180000.0 -0.8944837986698471 0.44710036224205557 9.0566522642365e-17 -8.53102627557002e-17 9.0566522642365e-17 -8.53102627557002e-17 -0.8944841035406748 0.4470997523068558
12635797333.333334 -0.8893623026496713 0.45720312184574097 8.95692788474922e-17 -8.632167525716801e-17 8.95692788474922e-17 -8.632167525716801e-17 -0.8893626143941908 0.457202515432435
12636414666.666666 -0.8841267054733916 0.467247224356212 8.856075242951394e-17 -8.73214435162998e-17 8.856075242951394e-17 -8.73214435162998e-17 -0.8841270240509377 0.467246621542252
12637032000.0 -0.8787776788444777 0.47723138116067837 8.754107920442189e-17 -8.830944181664791e-17 8.754107920442189e-17 -8.830944181664791e-17 -0.8787780042135136 0.47723078202304775
12637649333.333334 -0.8733159090189118 0.48715431133706444 8.651039638731677e-17 -8.928554602424632e-17 8.651039638731677e-17 -8.928554602424632e-17 -0.8733162411370321 0.48715371595226653
12638266666.666666 -0.8677420967171138 0.4970147418183934 8.546884257399548e-17 -9.0249633603154e-17 8.546884257399548e-17 -9.0249633603154e-17 -0.8677424355410529 0.4970141502624436
12638884000.0 -0.8620569570340474 0.5068114075561192 8.441655772234372e-17 -9.120158363080736e-17 8.441655772234372e-17 -9.120158363080736e-17 -0.8620573025196826 0.5068108199045335
12639501333.333334 -0.8562612193474454 0.5165430516824739 8.335368313358033e-17 -9.214127681313306e-17 8.335368313358033e-17 -9.214127681313306e-17 -0.8562615714498032 0.5165424680102599
12640118666.666666 -0.8503556272243785 0.5262084256714737 8.228036143334048e-17 -9.30685954994397e-17 8.228036143334048e-17 -9.30685954994397e-17 -0.8503559858976419 0.526207846053122
12640736000.0 -0.8443409383255382 0.5358062894996359 8.119673655253442e-17 -9.398342369713987e-17 8.119673655253442e-17 -9.398342369713987e-17 -0.8443413035230518 0.535805714009109
12641353333.333334 -0.8382179243084438 0.5453354118043867 8.010295370816463e-17 -9.488564708614703e-17 8.010295370816463e-17 -9.488564708614703e-17 -0.8382182959827201 0.5453348405151114
12641970666.666666 -0.8319873707281045 0.5547945700425998 7.899915938383547e-17 -9.577515303317582e-17 7.899915938383547e-17 -9.577515303317582e-17 -0.831987748830828 0.5547940030274552
12642588000.0 -0.8256500769364403 0.5641825506471005 7.788550131021478e-17 -9.665183060572175e-17 7.788550131021478e-17 -9.665183060572175e-17 -0.8256504614184771 0.5641819879784116
12643205333.333334 -0.8192068559796272 0.5734981491825336 7.676212844529901e-17 -9.751557058585224e-17 7.676212844529901e-17 -9.751557058585224e-17 -0.8192072467910304 0.5734975909320607
12643822666.666666 -0.8126585344937837 0.5827401704998832 7.562919095451931e-17 -9.836626548377168e-17 7.562919095451931e-17 -9.836626548377168e-17 -0.8126589315837979 0.5827396167388119
12644440000.0 -0.8060059525989801 0.5919074288897109 7.448684019072378e-17 -9.920380955113752e-17 7.448684019072378e-17 -9.920380955113752e-17 -0.8060063559160495 0.5919068796886444
12645057333.333334 -0.7992499637914234 0.6009987482343248 7.333522867399315e-17 -1.0002809879415891e-16 7.333522867399315e-17 -1.0002809879415891e-16 -0.7992503732831995 0.6009982036632747
12645674666.666666 -0.79239143483403 0.6100129621585805 7.217451007132964e-17 -1.0083903098644966e-16 7.217451007132964e-17 -1.0083903098644966e-16 -0.7923918504473758 0.6100124222869572
12646292000.0 -0.7854312456449941 0.6189489141798139 7.100483917615517e-17 -1.0163650568168047e-16 7.100483917615517e-17 -1.0163650568168047e-16 -0.7854316673259941 0.6189483790764185
12646909333.333334 -0.7783702891851977 0.6278054578558308 6.982637188775755e-17 -1.0242042422593323e-16 6.982637188775755e-17 -1.0242042422593323e-16 -0.7783707168791622 0.6278049275888459
12647526666.666666 -0.7712094713434526 0.6365814569322362 6.86392651905195e-17 -1.0319068976987397e-16 6.86392651905195e-17 -1.0319068976987397e-16 -0.7712099049949268 0.6365809315692178
12648144000.0 -0.7639497108202981 0.6452757854881892 6.744367713304941e-17 -1.0394720728066149e-16 6.744367713304941e-17 -1.0394720728066149e-16 -0.7639501503730668 0.6452752650960561
12648761333.333334 -0.7565919390101853 0.6538873280807831 6.623976680718752e-17 -1.0468988355361122e-16 6.623976680718752e-17 -1.0468988355361122e-16 -0.7565923844072827 0.6538868127258112
12649378666.666666 -0.7491370998820613 0.6624149798880695 6.502769432688751e-17 -1.0541862722361496e-16 6.502769432688751e-17 -1.0541862722361496e-16 -0.7491375510657777 0.6624144696358816
12649996000.0 -0.7415861498580608 0.6708576468510402 6.380762080692887e-17 -1.0613334877634454e-16 6.380762080692887e-17 -1.0613334877634454e-16 -0.7415866067699495 0.6708571417665983
12650613333.333334 -0.7339400576909261 0.6792142458138355 6.257970834156001e-17 -1.0683396055917585e-16 6.257970834156001e-17 -1.0683396055917585e-16 -0.7339405202718109 0.6792137459614319
12651230666.666666 -0.7261998043397824 0.6874837046626487 6.134411998301157e-17 -1.075203767918751e-16 6.134411998301157e-17 -1.075203767918751e-16 -0.7262002725297659 0.6874832101058986
12651848000.0 -0.7183663828440701 0.6956649624635008 6.01010197198526e-17 -1.081925135770585e-16 6.01010197198526e-17 -1.081925135770585e-16 -0.7183668565825418 0.6956644732653341
12652465333.333334 -0.7104407981963985 0.7037569695980866 5.885057245528902e-17 -1.0885028891037222e-16 5.885057245528902e-17 -1.0885028891037222e-16 -0.7104412774220411 0.7037564858207389
12653082666.666666 -0.7024240672134897 0.7117586878985573 5.759294398533902e-17 -1.0949362269042891e-16 5.759294398533902e-17 -1.0949362269042891e-16 -0.7024245518642886 0.7117582096035635
12653700000.0 -0.6943172184056082 0.719669090780837 5.632830097683863e-17 -1.1012243672852513e-16 5.632830097683863e-17 -1.1012243672852513e-16 -0.6943177084188584 0.7196686180290219
12654317333.333334 -0.6861212918448651 0.7274871633760627 5.5056810945448226e-17 -1.1073665475805057e-16 5.5056810945448226e-17 -1.1073665475805057e-16 -0.6861217871571806 0.7274866962275353
12654934666.666666 -0.677837339031585 0.7352119026609937 5.377864223346666e-17 -1.1133620244369007e-16 5.377864223346666e-17 -1.1133620244369007e-16 -0.6778378395789044 0.7352114411751359
12655552000.0 -0.6694664227593733 0.7428423175867043 5.249396398758049e-17 -1.1192100739035252e-16 5.249396398758049e-17 -1.1192100739035252e-16 -0.6694669284769721 0.7428418618221686
12656169333.333334 -0.6610096169790427 0.7503774292054873 5.120294613654278e-17 -1.124909991518318e-16 5.120294613654278e-17 -1.124909991518318e-16 -0.6610101278015387 0.7503769792201856
12656786666.666666 -0.6524680066604933 0.7578162707967547 4.990575936871436e-17 -1.1304610923923188e-16 4.990575936871436e-17 -1.1304610923923188e-16 -0.6524685225218549 0.7578158266478507
12657404000.0 -0.6438426876537021 0.7651578879908869 4.860257510953059e-17 -1.1358627112912584e-16 4.860257510953059e-17 -1.1358627112912584e-16 -0.6438432084872585 0.7651574497347912
12658021333.333334 -0.6351347665480482 0.7724013388917539 4.729356549889054e-17 -1.141114202714512e-16 4.729356549889054e-17 -1.141114202714512e-16 -0.635135292286497 0.772400906584115
12658638666.666666 -0.6263453605305368 0.7795456941973888 4.5978903368468733e-17 -1.146214940971432e-16 4.5978903368468733e-17 -1.146214940971432e-16 -0.6263458911059536 0.7795452678930876
12659256000.0 -0.6174755972421211 0.7865900373195074 4.4658762218899926e-17 -1.1511643202552557e-16 4.4658762218899926e-17 -1.1511643202552557e-16 -0.6174761325859665 0.786589617072648
12659873333.333334 -0.6085266146333124 0.7935334645008606 4.3333316196944187e-17 -1.155961754714149e-16 4.3333316196944187e-17 -1.155961754714149e-16 -0.6085271546764428 0.7935330503647657
12660490666.666666 -0.5994995608181698 0.8003750849312093 4.200274007256433e-17 -1.1606066785197002e-16 4.200274007256433e-17 -1.1606066785197002e-16 -0.5995001054908452 0.8003746769584121
12661108000.0 -0.5903955939267512 0.8071140208617963 4.066720921586448e-17 -1.165098545932995e-16 4.066720921586448e-17 -1.165098545932995e-16 -0.5903961431586451 0.8071136191040352
12661725333.333334 -0.5812158819569415 0.8137494077176537 3.9326899574072445e-17 -1.169436831367666e-16 3.9326899574072445e-17 -1.169436831367666e-16 -0.5812164356771483 0.8137490122258632
12662342666.666666 -0.5719616026242139 0.8202803942088082 3.7981987648355964e-17 -1.1736210294506299e-16 3.7981987648355964e-17 -1.1736210294506299e-16 -0.5719621607612599 0.8202800050331152
12662960000.0 -0.562633943210741 0.826706142439349 3.663265047063272e-17 -1.1776506550799784e-16 3.663265047063272e-17 -1.1776506550799784e-16 -0.562634505692593 0.8267057596290648
12663577333.333334 -0.5532341004130265 0.8330258280149578 3.527906558029991e-17 -1.1815252434802682e-16 3.527906558029991e-17 -1.1815252434802682e-16 -0.5532346671670999 0.8330254516185719
12664194666.666666 -0.543763280188349 0.8392386401486908 3.3921411000907336e-17 -1.185244350255158e-16 3.3921411000907336e-17 -1.185244350255158e-16 -0.543763851141519 0.8392382702138654
12664812000.0 -0.5342226976001411 0.8453437817649383 3.255986521679276e-17 -1.1888075514372995e-16 3.255986521679276e-17 -1.1888075514372995e-16 -0.5342232726787506 0.8453434183385012
12665429333.333334 -0.5246135766619304 0.8513404696017886 3.119460714962956e-17 -1.192214443535667e-16 3.119460714962956e-17 -1.192214443535667e-16 -0.5246141557918026 0.8513401127297313
12666046666.666666 -0.5149371501805282 0.8572279343113908 2.982581613498079e-17 -1.195464643580056e-16 2.982581613498079e-17 -1.195464643580056e-16 -0.5149377332869708 0.8572275840388559
12666664000.0 -0.5051946595975673 0.8630054205588259 2.845367189873694e-17 -1.1985577891630656e-16 2.845367189873694e-17 -1.1985577891630656e-16 -0.5051952466053868 0.863005076930107
12667281333.333334 -0.4953873548305505 0.8686721871188273 2.7078354533597183e-17 -1.2014935384791813e-16 2.7078354533597183e-17 -1.2014935384791813e-16 -0.49538794566406025 0.8686718501773608
12667898666.666666 -0.4855164941123478 0.874227506970967 2.5700044475450942e-17 -1.2042715703613168e-16 2.5700044475450942e-17 -1.2042715703613168e-16 -0.485517088695377 0.8742271767593265
12668516000.0 -0.475583343829618 0.8796706673930061 2.4318922479702908e-17 -1.2068915843146726e-16 2.4318922479702908e-17 -1.2068915843146726e-16 -0.47558394208552285 0.8796703439528991
12669133333.333334 -0.46558917836066166 0.8850009700521586 2.293516959768259e-17 -1.2093533005476662e-16 2.293516959768259e-17 -1.2093533005476662e-16 -0.4655897802123344 0.8850006534244187
12669750666.666666 -0.45553527991165044 0.8902177310948328 2.1548967152873362e-17 -1.21165646000045e-16 2.1548967152873362e-17 -1.21165646000045e-16 -0.4555358852815296 0.8902174213194164
12670368000.0 -0.445422938352199 0.8953202812343248 2.016049671721485e-17 -1.2138008243705168e-16 2.016049671721485e-17 -1.2138008243705168e-16 -0.44542354716227944 0.8953199783503052
