! Parameters = {f0=12700.012000; bw=77.238000; Q=6100.000000; N=10; m_0_1=1.168664; m_1_1=-1.234791; m_1_2=1.003476; m_2_2=-1.235440; m_2_3=0.640439; m_2_8=-0.004503; m_2_9=0.032201; m_3_3=-1.237377; m_3_4=0.528968; m_3_7=-0.003903; m_3_8=-0.100991; m_3_9=-0.004503; m_4_4=-1.240302; m_4_5=0.365303; m_4_6=-0.000386; m_4_7=-0.121540; m_4_8=-0.003903; m_5_5=-1.239920; m_5_6=0.772658; m_5_7=-0.000386; m_6_6=-1.239921; m_6_7=0.365645; m_7_7=-1.240288; m_7_8=0.529086; m_8_8=-1.237379; m_8_9=0.640752; m_9_9=-1.235445; m_9_10=1.004554; m_10_10=-1.234801; m_10_11=1.169459}
!
! Created with skrf (http://scikit-rf.org).
# Hz S RI R 50.0 
!freq ReS11 ImS11 ReS21 ImS21 ReS12 ImS12 ReS22 ImS22
12607400000.0 0.6638756961330077 -0.7478429381118505 -2.834699798897412e-17 6.052969412227269e-17 -2.834699798897412e-17 6.052969412227269e-17 0.6638761567242715 -0.747842529235173
12608017333.333334 0.6582277950392912 -0.7528188160756635 -2.787973212142095e-17 6.073192500307976e-17 -2.787973212142095e-17 6.073192500307976e-17 0.6582282586724584 -0.7528184106973426
12608634666.666666 0.6525425999792094 -0.7577520407179545 -2.7411031747201545e-17 6.093055308856997e-17 -2.7411031747201545e-17 6.093055308856997e-17 0.6525430666277152 -0.7577516388606149
12609252000.0 0.6468204330654183 -0.7626423325313876 -2.6940924612621622e-17 6.112556826984905e-17 -2.6940924612621622e-17 6.112556826984905e-17 0.6468209027025291 -0.7626419342174516
12609869333.333334 0.6410616185053309 -0.7674894144411221 -2.6469438534684636e-17 6.131696065145834e-17 -2.6469438534684636e-17 6.131696065145834e-17 0.6410620911041468 -0.7674890196928096
12610486666.666666 0.6352664825827691 -0.7722930118204919 -2.5996601399453676e-17 6.15047205518642e-17 -2.5996601399453676e-17 6.15047205518642e-17 0.6352669581162246 -0.7722926206598184
12611104000.0 0.6294353536393679 -0.7770528525066583 -2.552244116039047e-17 6.168883850394256e-17 -2.552244116039047e-17 6.168883850394256e-17 0.6294358320802338 -0.7770524649554332
12611721333.333334 0.623568562056191 -0.7817686668158462 -2.5046985836735212e-17 6.186930525543291e-17 -2.5046985836735212e-17 6.186930525543291e-17 0.6235690433770763 -0.7817682828956728
12612338666.666666 0.6176664402348157 -0.7864401875587886 -2.4570263511832046e-17 6.204611176940026e-17 -2.4570263511832046e-17 6.204611176940026e-17 0.617666924408169 -0.7864398072910628
12612956000.0 0.6117293225784961 -0.7910671500558628 -2.409230233148682e-17 6.221924922467045e-17 -2.409230233148682e-17 6.221924922467045e-17 0.6117298095766076 -0.7910667734617717
12613573333.333334 0.6057575454734212 -0.7956492921519297 -2.3613130502320142e-17 6.238870901625347e-17 -2.3613130502320142e-17 6.238870901625347e-17 0.6057580352684232 -0.7956489192524495
12614190666.666666 0.5997514472694513 -0.8001863542313432 -2.3132776290092686e-17 6.255448275576365e-17 -2.3132776290092686e-17 6.255448275576365e-17 0.5997519398333204 -0.800185985047239
12614808000.0 0.5937113682609708 -0.8046780792326427 -2.2651268018052656e-17 6.271656227181781e-17 -2.2651268018052656e-17 6.271656227181781e-17 0.5937118635655299 -0.8046777137844672
12615425333.333334 0.5876376506677223 -0.8091242126630314 -2.2168634065271596e-17 6.28749396104238e-17 -2.2168634065271596e-17 6.28749396104238e-17 0.5876381486846404 -0.8091238509711225
12616042666.666666 0.5815306386153228 -0.8135245026128625 -2.1684902864970507e-17 6.302960703535896e-17 -2.1684902864970507e-17 6.302960703535896e-17 0.5815311393161198 -0.8135241446973452
12616660000.0 0.5753906781157927 -0.817878699769898 -2.1200102902861334e-17 6.318055702852946e-17 -2.1200102902861334e-17 6.318055702852946e-17 0.5753911814718381 -0.8178783456506797
12617277333.333334 0.569218117047926 -0.8221865574334474 -2.0714262715466437e-17 6.332778229032374e-17 -2.0714262715466437e-17 6.332778229032374e-17 0.5692186230304427 -0.8221862071302204
12617894666.666666 0.5630133051376986 -0.8264478315282672 -2.022741088845551e-17 6.347127573994677e-17 -2.022741088845551e-17 6.347127573994677e-17 0.5630138137177624 -0.8264474850605037
12618512000.0 0.556776593938217 -0.8306622806185482 -1.9739576054951344e-17 6.361103051575006e-17 -1.9739576054951344e-17 6.361103051575006e-17 0.5567771050867601 -0.8306619380055027
12619129333.333334 0.5505083368100369 -0.8348296659214367 -1.9250786893869832e-17 6.374703997553841e-17 -1.9250786893869832e-17 6.374703997553841e-17 0.5505088504978484 -0.8348293271821424
12619746666.666666 0.5442088889010461 -0.8389497513206258 -1.876107212823249e-17 6.3879297696871e-17 -1.876107212823249e-17 6.3879297696871e-17 0.5442094050987746 -0.8389494164738949
12620364000.0 0.53787860712625 -0.8430223033797957 -1.8270460523477024e-17 6.400779747734953e-17 -1.8270460523477024e-17 6.400779747734953e-17 0.5378791258044041 -0.8430219724442183
12620981333.333334 0.531517850147785 -0.8470470913556853 -1.777898088579182e-17 6.41325333348868e-17 -1.777898088579182e-17 6.41325333348868e-17 0.531518371276737 -0.8470467643496289
12621598666.666666 0.5251269783543618 -0.8510238872113219 -1.7286662060412024e-17 6.425349950797216e-17 -1.7286662060412024e-17 6.425349950797216e-17 0.5251275019043462 -0.8510235641529272
12622216000.0 0.5187063538409621 -0.8549524656288594 -1.679353292994333e-17 6.437069045591602e-17 -1.679353292994333e-17 6.437069045591602e-17 0.5187068797820805 -0.8549521465360442
12622833333.333334 0.5122563403883024 -0.8588326040223643 -1.62996224126623e-17 6.448410085908746e-17 -1.62996224126623e-17 6.448410085908746e-17 0.5122568686905233 -0.8588322889128183
12623450666.666666 0.5057773034422207 -0.8626640825504249 -1.580495946084463e-17 6.459372561913163e-17 -1.580495946084463e-17 6.459372561913163e-17 0.5057778340753826 -0.8626637714416121
12624068000.0 0.4992696100929976 -0.8664466841285948 -1.5309573059057206e-17 6.469955985918252e-17 -1.5309573059057206e-17 6.469955985918252e-17 0.49927014302680867 -0.866446377037749
12624685333.333334 0.49273362905443213 -0.8701801944417603 -1.4813492222465443e-17 6.480159892405886e-17 -1.4813492222465443e-17 6.480159892405886e-17 0.492734164258474 -0.8701798913858871
12625302666.666666 0.48616973064322455 -0.8738644019561305 -1.4316745995158085e-17 6.489983838044343e-17 -1.4316745995158085e-17 6.489983838044343e-17 0.4861702680869526 -0.8738641029520043
12625920000.0 0.479578286757622 -0.8774990979314304 -1.3819363448426518e-17 6.499427401705831e-17 -1.3819363448426518e-17 6.499427401705831e-17 0.4795788264103687 -0.8774988029955966
12626537333.333334 0.4729596708567218 -0.8810840764325228 -1.3321373679087696e-17 6.508490184481872e-17 -1.3321373679087696e-17 6.508490184481872e-17 0.4729602126876963 -0.8810837855812916
12627154666.666666 0.4663142579390619 -0.8846191343412112 -1.2822805807787606e-17 6.517171809697695e-17 -1.2822805807787606e-17 6.517171809697695e-17 0.46631480191735347 -0.8846188475906617
12627772000.0 0.4596424245213721 -0.8881040713677454 -1.2323688977285574e-17 6.525471922925744e-17 -1.2323688977285574e-17 6.525471922925744e-17 0.45964297061595205 -0.8881037887337232
12628389333.333334 0.4529445486174968 -0.8915386900620426 -1.182405235078432e-17 6.533390191997011e-17 -1.182405235078432e-17 6.533390191997011e-17 0.4529450967972186 -0.8915384115601576
12629006666.666666 0.4462210097166207 -0.8949227958250537 -1.1323925110203726e-17 6.540926307012051e-17 -1.1323925110203726e-17 6.540926307012051e-17 0.44622155995022317 -0.8949225214706804
12629624000.0 0.439472188762047 -0.8982561969196465 -1.082333645450445e-17 6.548079980349885e-17 -1.082333645450445e-17 6.548079980349885e-17 0.43947274101815564 -0.898255926727923
12630241333.333334 0.4326984681294625 -0.9015387044815484 -1.032231559797021e-17 6.554850946676233e-17 -1.032231559797021e-17 6.554850946676233e-17 0.43269902237659125 -0.9015384384673754
12630858666.666666 0.4259002316054245 -0.9047701325299685 -9.820891768530885e-18 6.561238962949847e-17 -9.820891768530885e-18 6.561238962949847e-17 0.42590078781197765 -0.9047698707080091
12631476000.0 0.4190778643653621 -0.9079502979782644 -9.319094206035102e-18 6.567243808428287e-17 -9.319094206035102e-18 6.567243808428287e-17 0.41907842249963595 -0.9079500403629419
12632093333.333334 0.412231752951981 -0.9110790206441965 -8.816952160578791e-18 6.572865284671582e-17 -8.816952160578791e-18 6.572865284671582e-17 0.4122323129821659 -0.9110787672496954
12632710666.666666 0.4053622852533661 -0.914156123260146 -8.314494890787204e-18 6.57810321554534e-17 -8.314494890787204e-18 6.57810321554534e-17 0.4053628471475481 -0.91415587410041
12633328000.0 0.3984698504807699 -0.917181431483261 -7.811751662117446e-18 6.58295744722208e-17 -7.811751662117446e-18 6.58295744722208e-17 0.39847041420693213 -0.9171811865719917
12633945333.333334 0.39155483914681943 -0.9201547739052159 -7.308751745169024e-18 6.587427848181427e-17 -7.308751745169024e-18 6.587427848181427e-17 0.3915554046728451 -0.9201545332558743
12634562666.666666 0.3846176430432623 -0.923075982061985 -6.805524413977733e-18 6.591514309209037e-17 -6.805524413977733e-18 6.591514309209037e-17 0.3846182103369347 -0.9230757456877874
12635180000.0 0.37765865521879155 -0.9259448904433699 -6.302098944319432e-18 6.595216743394208e-17 -6.302098944319432e-18 6.595216743394208e-17 0.37765922424779846 -0.9259446583572918
12635797333.333334 0.370678269956781 -0.9287613365023867 -5.798504612012539e-18 6.598535086126213e-17 -5.798504612012539e-18 6.598535086126213e-17 0.3706788406887138 -0.9287611087171568
12636414666.666666 0.36367688275294063 -0.9315251606644643 -5.294770691221109e-18 6.601469295089283e-17 -5.294770691221109e-18 6.601469295089283e-17 0.3636774551552979 -0.9315249371925678
12637032000.0 0.3566548902929118 -0.934236206336493 -4.790926452758744e-18 6.604019350256385e-17 -4.790926452758744e-18 6.604019350256385e-17 0.35665546433310097 -0.9342359871901701
12637649333.333334 0.34961269042979165 -0.9368943199156962 -4.287001162393328e-18 6.606185253881654e-17 -4.287001162393328e-18 6.606185253881654e-17 0.3496132660751297 -0.9368941051069386
12638266666.666666 0.34255068216158935 -0.9394993507983289 -3.783024079152717e-18 6.607967030491544e-17 -3.783024079152717e-18 6.607967030491544e-17 0.3425512593793064 -0.939499140338884
12638884000.0 0.3354692656086224 -0.9420511513882164 -3.2790244536314886e-18 6.609364726874728e-17 -3.2790244536314886e-18 6.609364726874728e-17 0.33546984436586214 -0.9420509452895821
12639501333.333334 0.328368841990844 -0.9445495771051112 -2.7750315262988433e-18 6.610378412070655e-17 -2.7750315262988433e-18 6.610378412070655e-17 0.32836942225466653 -0.9445493753785387
12640118666.666666 0.32124981360513943 -0.94699448639288 -2.271074525811508e-18 6.611008177356878e-17 -2.271074525811508e-18 6.611008177356878e-17 0.3212503953425224 -0.946994289049371
12640736000.0 0.3141125838023976 -0.9493857407275683 -1.767182667305415e-18 6.611254136235063e-17 -1.767182667305415e-18 6.611254136235063e-17 0.3141131669802384 -0.9493855477778749
12641353333.333334 0.30695755696492616 -0.9517232046251559 -1.263385150745254e-18 6.611116424415701e-17 -1.263385150745254e-18 6.611116424415701e-17 0.306958141550044 -0.9517230160797805
12641970666.666666 0.29978513848327193 -0.9540067456493257 -7.597111592003351e-19 6.610595199801606e-17 -7.597111592003351e-19 6.610595199801606e-17 0.29978572444240936 -0.9540065615185203
12642588000.0 0.2925957347333864 -0.9562362344189229 -2.561898571803793e-19 6.609690642470071e-17 -2.561898571803793e-19 6.609690642470071e-17 0.2925963220332116 -0.9562360547126884
12643205333.333334 0.2853897530536016 -0.9584115446152849 2.4714961105703354e-19 6.608402954653766e-17 2.4714961105703354e-19 6.608402954653766e-17 0.28539034166070976 -0.9584113693433701
12643822666.666666 0.2781676017214418 -0.9605325529894306 7.502781231840293e-19 6.606732360720351e-17 7.502781231840293e-19 6.606732360720351e-17 0.2781681916023577 -0.960532382161333
12644440000.0 0.270929689930655 -0.9625991393689957 1.2531665804799585e-18 6.604679107150838e-17 1.2531665804799585e-18 6.604679107150838e-17 0.27093028105183414 -0.9625989729939591
12645057333.333334 0.2636764277678924 -0.9646111866650806 1.7557859095087735e-18 6.602243462516668e-17 1.7557859095087735e-18 6.602243462516668e-17 0.2636770200957236 -0.9646110247520967
12645674666.666666 0.25640822618963804 -0.9665685808788408 2.25810706379429e-18 6.599425717455532e-17 2.25810706379429e-18 6.599425717455532e-17 0.2564088196904447 -0.9665684234366463
12646292000.0 0.24912549699862235 -0.9684712111080229 2.7601010255044616e-18 6.596226184645818e-17 2.7601010255044616e-18 6.596226184645818e-17 0.24912609163866511 -0.9684710581451021
12646909333.333334 0.24182865282087568 -0.970318969553152 3.261738807105239e-18 6.592645198780001e-17 3.261738807105239e-18 6.592645198780001e-17 0.24182924856635385 -0.9703188210777343
12647526666.666666 0.23451810708207435 -0.9721117515237081 3.762991453036379e-18 6.588683116536576e-17 3.762991453036379e-18 6.588683116536576e-17 0.23451870389912757 -0.9721116075437659
12648144000.0 0.2271942739841435 -0.9738494554440484 4.2638300413828715e-18 6.584340316550769e-17 4.2638300413828715e-18 6.584340316550769e-17 0.22719487183885426 -0.9738493159673002
12648761333.333334 0.21985756848192747 -0.9755319828591298 4.764225685528789e-18 6.579617199384078e-17 4.764225685528789e-18 6.579617199384078e-17 0.21985816734032285 -0.9755318478930384
12649378666.666666 0.21250840625956954 -0.9771592384401163 5.264149535817829e-18 6.574514187492524e-17 5.264149535817829e-18 6.574514187492524e-17 0.21250900608762302 -0.977159107991888
12649996000.0 0.20514720370698677 -0.9787311299897714 5.7635727812184744e-18 6.56903172519349e-17 5.7635727812184744e-18 6.56903172519349e-17 0.20514780447062003 -0.9787310040663549
12650613333.333334 0.19777437789625057 -0.9802475684476869 6.26246665098075e-18 6.563170278631494e-17 6.26246665098075e-18 6.563170278631494e-17 0.1977749795613359 -0.9802474470557752
12651230666.666666 0.19039034655809528 -0.9817084678953012 6.7608024162693866e-18 6.556930335742759e-17 6.7608024162693866e-18 6.556930335742759e-17 0.1903909490904571 -0.9817083510413296
12651848000.0 0.18299552805797215 -0.9831137455608253 7.258551391838716e-18 6.550312406218178e-17 7.258551391838716e-18 6.550312406218178e-17 0.18299613142338914 -0.9831136332509713
12652465333.333334 0.1755903413726238 -0.9844633218238744 7.755684937659668e-18 6.543317021465488e-17 7.755684937659668e-18 6.543317021465488e-17 0.1755909455368306 -0.9844632140640568
12653082666.666666 0.1681752060662343 -0.9857571202200012 8.252174460562151e-18 6.535944734570001e-17 8.252174460562151e-18 6.535944734570001e-17 0.1681758109949241 -0.9857570170158827
12653700000.0 0.16075054226654606 -0.9869950674450518 8.747991415890729e-18 6.528196120253841e-17 8.747991415890729e-18 6.528196120253841e-17 0.1607511479253716 -0.9869949688020335
12654317333.333334 0.15331677064133512 -0.9881770933592634 9.243107309121661e-18 6.52007177483447e-17 9.243107309121661e-18 6.52007177483447e-17 0.15331737699591133 -0.9881769992824893
12654934666.666666 0.14587431237432597 -0.9893031309912895 9.737493697502289e-18 6.511572316181572e-17 9.737493697502289e-18 6.511572316181572e-17 0.14587491939023164 -0.9893030414856434
12655552000.0 0.13842358914132658 -0.9903731165419848 1.0231122191686788e-17 6.502698383672694e-17 1.0231122191686788e-17 6.502698383672694e-17 0.13842419678410658 -0.9903730316120923
12656169333.333334 0.1309650230865912 -0.9913869893879889 1.0723964457342382e-17 6.493450638148124e-17 1.0723964457342382e-17 6.493450638148124e-17 0.130965631321758 -0.9913869090382145
12656786666.666666 0.12349903679864843 -0.9923446920851936 1.1215992216786745e-17 6.483829761863923e-17 1.1215992216786745e-17 6.483829761863923e-17 0.12349964559168454 -0.9923446163196433
12657404000.0 0.1160260532863869 -0.9932461703719965 1.1707177250603054e-17 6.473836458444048e-17 1.1707177250603054e-17 6.473836458444048e-17 0.11602666260274638 -0.9932460991945149
12658021333.333334 0.10854649595520029 -0.9940913731723554 1.2197491399245504e-17 6.463471452831349e-17 1.2197491399245504e-17 6.463471452831349e-17 0.1085471057603112 -0.9940913065865284
12658638666.666666 0.1010607885830273 -0.9948802525986876 1.268690656464632e-17 6.4527354912373e-17 1.268690656464632e-17 6.4527354912373e-17 0.10106139884229312 -0.9948801906078393
12659256000.0 0.09356935529608616 -0.9956127639546042 1.3175394711836856e-17 6.441629341090109e-17 1.3175394711836856e-17 6.441629341090109e-17 0.0935699659748881 -0.9956127065617982
12659873333.333334 0.086072620545099 -0.9962888657374186 1.3662927870529548e-17 6.430153790982303e-17 1.3662927870529548e-17 6.430153790982303e-17 0.08607323160879791 -0.9962888129454581
12660490666.666666 0.0785710090812434 -0.9969085196404971 1.4149478136721272e-17 6.418309650616658e-17 1.4149478136721272e-17 6.418309650616658e-17 0.07857162049518172 -0.9969084714519247
12661108000.0 0.07106494593183203 -0.9974716905554554 1.4635017674292062e-17 6.406097750750829e-17 1.4635017674292062e-17 6.406097750750829e-17 0.07106555766133568 -0.9974716469725516
12661725333.333334 0.06355485637651444 -0.9979783465741193 1.5119518716573874e-17 6.393518943141419e-17 1.5119518716573874e-17 6.393518943141419e-17 0.0635554683868949 -0.9979783075989048
12662342666.666666 0.05604116592303994 -0.9984284589903467 1.5602953567951024e-17 6.380574100485986e-17 1.5602953567951024e-17 6.380574100485986e-17 0.05604177817959611 -0.99842842462458
12662960000.0 0.04852430028317742 -0.9988220023016509 1.6085294605428723e-17 6.367264116364511e-17 1.6085294605428723e-17 6.367264116364511e-17 0.048524912751197684 -0.9988219725468299
12663577333.333334 0.041004685348595436 -0.9991589542106477 1.6566514280205746e-17 6.353589905179458e-17 1.6566514280205746e-17 6.353589905179458e-17 0.041005297993359516 -0.9991589290680072
12664194666.666666 0.03348274716673173 -0.999439295626313 1.7046585119249563e-17 6.339552402094472e-17 1.7046585119249563e-17 6.339552402094472e-17 0.03348335995351283 -0.9994392750968291
12664812000.0 0.025958911916654438 -0.9996630106650716 1.752547972684822e-17 6.325152562972337e-17 1.752547972684822e-17 6.325152562972337e-17 0.025959524810721002 -0.9996629947494572
12665429333.333334 0.0184336058849154 -0.9998300866516928 1.8003170786177196e-17 6.310391364311294e-17 1.8003170786177196e-17 6.310391364311294e-17 0.018434218851533228 -0.9998300753503996
12666046666.666666 0.010907255441426044 -0.9999405141200088 1.8479631060841116e-17 6.295269803180668e-17 1.8479631060841116e-17 6.295269803180668e-17 0.010907868445860197 -0.9999405074332268
12666664000.0 0.0033802870151579383 -0.9999942868134527 1.8954833396438983e-17 6.279788897154562e-17 1.8954833396438983e-17 6.279788897154562e-17 0.0033809000226747363 -0.9999942847411118
12667281333.333334 -0.004146872929733662 -0.9999914016854129 1.94287507220882e-17 6.26394968424538e-17 1.94287507220882e-17 6.26394968424538e-17 -0.0041462599538646975 -0.9999914042271794
12667898666.666666 -0.011673797918328292 -0.9999318588994017 1.9901356051968222e-17 6.247753222835494e-17 1.9901356051968222e-17 6.247753222835494e-17 -0.011673185008832465 -0.9999318660546832
12668516000.0 -0.019200061489103547 -0.9998156618290526 2.0372622486858592e-17 6.23120059160772e-17 2.0372622486858592e-17 6.23120059160772e-17 -0.019199448680699005 -0.999815673596993
12669133333.333334 -0.0267252372178418 -0.999642817057924 2.0842523215646634e-17 6.214292889475474e-17 2.0842523215646634e-17 6.214292889475474e-17 -0.026724624545237576 -0.9996428334374071
12669750666.666666 -0.03424889874204642 -0.9994133343791293 2.1311031516864742e-17 6.197031235510589e-17 2.1311031516864742e-17 6.197031235510589e-17 -0.03424828623994049 -0.9994133553687777
12670368000.0 -0.04177061978509863 -0.9991272267947773 2.1778120760195388e-17 6.17941676887088e-17 2.1778120760195388e-17 6.17941676887088e-17 -0.041770007488175886 -0.999127252392952
