! Parameters = {f0=12700.012000; bw=77.238000; Q=6100.000000; N=10; m_0_1=1.200095; m_1_1=-0.763319; m_1_2=1.034907; m_2_2=-0.763968; m_2_3=0.671870; m_2_8=-0.002932; m_2_9=0.033772; m_3_3=-0.765905; m_3_4=0.560399; m_3_7=-0.002332; m_3_8=-0.099420; m_3_9=-0.002932; m_4_4=-0.768830; m_4_5=0.396734; m_4_6=0.001185; m_4_7=-0.119969; m_4_8=-0.002332; m_5_5=-0.768448; m_5_6=0.804089; m_5_7=0.001185; m_6_6=-0.768449; m_6_7=0.397076; m_7_7=-0.768816; m_7_8=0.560517; m_8_8=-0.765907; m_8_9=0.672183; m_9_9=-0.763973; m_9_10=1.035985; m_10_10=-0.763329; m_10_11=1.200890}
!
! Created with skrf (http://scikit-rf.org).
# Hz S RI R 50.0 
!freq ReS11 ImS11 ReS21 ImS21 ReS12 ImS12 ReS22 ImS22
12607400000.0 0.5535805647431918 -0.8327956281936476 -2.3125251665996792e-17 7.511709617622856e-17 -2.3125251665996792e-17 7.511709617622856e-17 0.553581091405343 -0.8327952781075976
12608017333.333334 0.5465184239771339 -0.8374470802703847 -2.2478131404039493e-17 7.529720702616147e-17 -2.2478131404039493e-17 7.529720702616147e-17 0.5465189535549434 -0.8374467346673764
12608634666.666666 0.5394172017687247 -0.8420386466403078 -2.1829622982977592e-17 7.547174821572957e-17 -2.1829622982977592e-17 7.547174821572957e-17 0.5394177342240385 -0.8420383055446147
12609252000.0 0.5322774059252254 -0.8465699989613118 -2.117977429608407e-17 7.564070918287346e-17 -2.117977429608407e-17 7.564070918287346e-17 0.5322779412196877 -0.8465696623968829
12609869333.333334 0.5250995470122665 -0.8510408131972023 -2.052863331569377e-17 7.580407977699499e-17 -2.052863331569377e-17 7.580407977699499e-17 0.5251000851073225 -0.8510404811876604
12610486666.666666 0.5178841383175303 -0.8554507696407497 -1.9876248089688912e-17 7.596185025953212e-17 -1.9876248089688912e-17 7.596185025953212e-17 0.5178846791744286 -0.8554504422093901
12611104000.0 0.5106316958136123 -0.8597995529368205 -1.9222666737945844e-17 7.611401130451241e-17 -1.9222666737945844e-17 7.611401130451241e-17 0.5106322393934076 -0.8597992301066076
12611721333.333334 0.5033427381216553 -0.8640868521046003 -1.8567937448812835e-17 7.626055399906823e-17 -1.8567937448812835e-17 7.626055399906823e-17 0.5033432843852114 -0.864086533898168
12612338666.666666 0.4960177864738503 -0.868312360560083 -1.7912108475551344e-17 7.64014698439285e-17 -1.7912108475551344e-17 7.64014698439285e-17 0.49601833538184364 -0.8683120469997331
12612956000.0 0.4886573646762363 -0.8724757761379499 -1.725522813279595e-17 7.65367507538756e-17 -1.725522813279595e-17 7.65367507538756e-17 0.4886579161891571 -0.8724754672456482
12613573333.333334 0.4812619990715373 -0.8765768011130056 -1.6597344793011094e-17 7.666638905817177e-17 -1.6597344793011094e-17 7.666638905817177e-17 0.4812625531496942 -0.8765764969103834
12614190666.666666 0.47383221850110513 -0.8806151422217104 -1.5938506882923283e-17 7.679037750096025e-17 -1.5938506882923283e-17 7.679037750096025e-17 0.47383277510462674 -0.880614842730061
12614808000.0 0.4663685542674241 -0.884590510682969 -1.5278762879983217e-17 7.690870924162787e-17 -1.5278762879983217e-17 7.690870924162787e-17 0.4663691133562626 -0.8845902159232466
12615425333.333334 0.4588715400959174 -0.88850262221889 -1.461816130879102e-17 7.702137785514603e-17 -1.461816130879102e-17 7.702137785514603e-17 0.45887210162985126 -0.8885023322117092
12616042666.666666 0.45134171209685653 -0.8923511970750757 -1.3956750737554057e-17 7.712837733237283e-17 -1.3956750737554057e-17 7.712837733237283e-17 0.45134227603549315 -0.8923509118407084
12616660000.0 0.4437796087270998 -0.8961359600405875 -1.32945797745104e-17 7.722970208033208e-17 -1.32945797745104e-17 7.722970208033208e-17 0.4437801750298784 -0.8961356795989619
12617277333.333334 0.4361857707514091 -0.8998566404677152 -1.2631697064370292e-17 7.732534692245737e-17 -1.2631697064370292e-17 7.732534692245737e-17 0.436186339377604 -0.8998563648384158
12617894666.666666 0.42856074120398435 -0.9035129722912311 -1.196815128476967e-17 7.741530709880418e-17 -1.196815128476967e-17 7.741530709880418e-17 0.4285613121127081 -0.9035127014934968
12618512000.0 0.4209050653494269 -0.9071046940475157 -1.130399114266761e-17 7.749957826623972e-17 -1.130399114266761e-17 7.749957826623972e-17 0.42090563849963253 -0.9071044281002375
12619129333.333334 0.41321929064392676 -0.9106315488931696 -1.0639265370817948e-17 7.757815649859153e-17 -1.0639265370817948e-17 7.757815649859153e-17 0.413219865994411 -0.9106312878148893
12619746666.666666 0.4055039666960631 -0.9140932846234033 -9.974022724187488e-18 7.765103828677275e-17 -9.974022724187488e-18 7.765103828677275e-17 0.4055045442054693 -0.9140930284323132
12620364000.0 0.39775964522732016 -0.917489653690155 -9.308311976376163e-18 7.771822053887651e-17 -9.308311976376163e-18 7.771822053887651e-17 0.39776022485414153 -0.9174894024040963
12620981333.333334 0.3899868800329449 -0.9208204132196531 -8.642181916077062e-18 7.777970058023547e-17 -8.642181916077062e-18 7.777970058023547e-17 0.38998746173552756 -0.9208201668561148
12621598666.666666 0.3821862269421649 -0.9240853250298668 -7.975681343494667e-18 7.783547615345504e-17 -7.975681343494667e-18 7.783547615345504e-17 0.3821868106787103 -0.9240850836059841
12622216000.0 0.3743582437783869 -0.9272841556475582 -7.308859066774784e-18 7.788554541841567e-17 -7.308859066774784e-18 7.788554541841567e-17 0.3743588295069549 -0.9272839191801104
12622833333.333334 0.36650349031946405 -0.9304166763249104 -6.641763898452914e-18 7.792990695224212e-17 -6.641763898452914e-18 7.792990695224212e-17 0.36650407799797674 -0.9304164448303219
12623450666.666666 0.3586225282575895 -0.9334826630559231 -5.9744446518838746e-18 7.796855974924523e-17 -5.9744446518838746e-18 7.796855974924523e-17 0.3586231178438331 -0.9334824365502605
12624068000.0 0.3507159211590745 -0.936481896592446 -5.30695013767486e-18 7.800150322083192e-17 -5.30695013767486e-18 7.800150322083192e-17 0.3507165126107037 -0.9364816750914184
12624685333.333334 0.34278423442410294 -0.9394141624598413 -4.639329160129022e-18 7.802873719538464e-17 -4.639329160129022e-18 7.802873719538464e-17 0.3427848276986422 -0.9394139459787973
12625302666.666666 0.33482803524637744 -0.9422792509722867 -3.971630513695345e-18 7.805026191811052e-17 -3.971630513695345e-18 7.805026191811052e-17 0.33482863030122606 -0.9422790395262158
12625920000.0 0.3268478925723749 -0.9450769572478428 -3.303902979385119e-18 7.806607805086171e-17 -3.303902979385119e-18 7.806607805086171e-17 0.3268484893648082 -0.9450767508513718
12626537333.333334 0.31884437706084634 -0.9478070812230326 -2.636195321255116e-18 7.807618667192201e-17 -2.636195321255116e-18 7.807618667192201e-17 0.3188449755480201 -0.9478068798904263
12627154666.666666 0.3108180610419305 -0.9504694276671805 -1.968556282829089e-18 7.808058927576717e-17 -1.968556282829089e-18 7.808058927576717e-17 0.3108186611808836 -0.9504692314123409
12627772000.0 0.30276951847614514 -0.9530638061963982 -1.3010345835420706e-18 7.80792877727922e-17 -1.3010345835420706e-18 7.80792877727922e-17 0.3027701202238022 -0.9530636150328622
12628389333.333334 0.2946993249135319 -0.9555900312871369 -6.336789152322569e-19 7.807228448900922e-17 -6.336789152322569e-19 7.807228448900922e-17 0.29469992822670654 -0.9555898452280753
12629006666.666666 0.28660805745230944 -0.9580479222895151 3.346206145030075e-20 7.805958216571535e-17 3.346206145030075e-20 7.805958216571535e-17 0.28660866228770804 -0.9580477413477332
12629624000.0 0.2784962946977143 -0.9604373034402023 7.003397205403295e-19 7.804118395913032e-17 7.003397205403295e-19 7.804118395913032e-17 0.27849690101193847 -0.9604371276281385
12630241333.333334 0.2703646167205421 -0.962758003875012 1.3669054743210765e-18 7.801709344000356e-17 1.3669054743210765e-18 7.801709344000356e-17 0.27036522447009187 -0.9627578332047365
12630858666.666666 0.26221360501591356 -0.9650098576410507 2.0331107768350706e-18 7.798731459319219e-17 2.0331107768350706e-18 7.798731459319219e-17 0.262214214157191 -0.9650096921242655
12631476000.0 0.2540438424611997 -0.9671927037087242 2.6989071274281398e-18 7.795185181720713e-17 2.6989071274281398e-18 7.795185181720713e-17 0.254044452950511 -0.9671925433567602
12632093333.333334 0.24585591327491438 -0.9693063859830909 3.3642460742555202e-18 7.79107099237316e-17 3.3642460742555202e-18 7.79107099237316e-17 0.24585652506847394 -0.9693062308069095
12632710666.666666 0.23765040297458206 -0.9713507533151258 4.029079217805171e-18 7.786389413710794e-17 4.029079217805171e-18 7.786389413710794e-17 0.23765101602851524 -0.971350603325317
12633328000.0 0.22942789833481064 -0.9733256595125369 4.693358214413679e-18 7.781141009379466e-17 4.693358214413679e-18 7.781141009379466e-17 0.22942851260515706 -0.9733255147193196
12633945333.333334 0.22118898734566295 -0.9752309633501405 5.35703477976565e-18 7.775326384179454e-17 5.35703477976565e-18 7.775326384179454e-17 0.22118960278837954 -0.97523082376336
12634562666.666666 0.21293425917027828 -0.9770665285800388 6.0200606923984525e-18 7.768946184005187e-17 6.0200606923984525e-18 7.768946184005187e-17 0.2129348757412423 -0.9770663942091674
12635180000.0 0.20466430410299033 -0.9788322239413055 6.6823877971877844e-18 7.762001095782144e-17 6.6823877971877844e-18 7.762001095782144e-17 0.20466492175800277 -0.978832094795442
12635797333.333334 0.1963797135268933 -0.9805279231694213 7.343968008851257e-18 7.754491847400518e-17 7.343968008851257e-18 7.754491847400518e-17 0.19638033222168202 -0.98052779925729
12636414666.666666 0.18808107987174713 -0.982153505005262 8.004753315414734e-18 7.74641920764629e-17 8.004753315414734e-18 7.74641920764629e-17 0.18808169956196993 -0.9821533863352117
12637032000.0 0.17976899657152906 -0.9837088532037863 8.66469578169387e-18 7.737783986129006e-17 8.66469578169387e-18 7.737783986129006e-17 0.17976961721277696 -0.9837087397837911
12637649333.333334 0.17144405802191415 -0.9851938565423674 9.323747552768804e-18 7.728587033206704e-17 9.323747552768804e-18 7.728587033206704e-17 0.17144467956971426 -0.9851937483800233
12638266666.666666 0.16310685953796464 -0.9866084088287035 9.9818608574296e-18 7.718829239908121e-17 9.9818608574296e-18 7.718829239908121e-17 0.16310748194778396 -0.9866083059312325
12638884000.0 0.1547579973113644 -0.9879524089084549 1.0638988011644975e-17 7.70851153785156e-17 1.0638988011644975e-17 7.70851153785156e-17 0.15475862053861245 -0.9879523112827
12639501333.333334 0.14639806836784047 -0.9892257606724607 1.1295081422003566e-17 7.697634899161109e-17 1.1295081422003566e-17 7.697634899161109e-17 0.14639869236787262 -0.9892256683248873
12640118666.666666 0.138027670524723 -0.9904283730635755 1.1950093589131976e-17 7.686200336380172e-17 1.1950093589131976e-17 7.686200336380172e-17 0.1380282952528438 -0.9904282860002718
12640736000.0 0.12964740234754896 -0.9915601600832781 1.2603977111172324e-17 7.674208902381025e-17 1.2603977111172324e-17 7.674208902381025e-17 0.1296480277590152 -0.991560078309953
12641353333.333334 0.12125786310815868 -0.992621040797689 1.3256684687144346e-17 7.661661690273178e-17 1.3256684687144346e-17 7.661661690273178e-17 0.12125848915818271 -0.9926209643196727
12641970666.666666 0.11285965274105415 -0.9936109393434698 1.3908169120397072e-17 7.648559833307254e-17 1.3908169120397072e-17 7.648559833307254e-17 0.11286027938480718 -0.993610868165715
12642588000.0 0.10445337180086381 -0.9945297849331981 1.4558383322003424e-17 7.634904504776724e-17 1.4558383322003424e-17 7.634904504776724e-17 0.10445399899347886 -0.9945297190602768
12643205333.333334 0.09603962141945384 -0.9953775118604253 1.5207280314150132e-17 7.620696917916735e-17 1.5207280314150132e-17 7.620696917916735e-17 0.09604024911602893 -0.9953774512965288
12643822666.666666 0.08761900326262989 -0.9961540595044053 1.5854813233524674e-17 7.60593832579992e-17 1.5854813233524674e-17 7.60593832579992e-17 0.08761963141823162 -0.9961540042533464
12644440000.0 0.07919211948748023 -0.9968593723343947 1.650093533469472e-17 7.59063002122932e-17 1.650093533469472e-17 7.59063002122932e-17 0.07919274805714659 -0.9968593223996053
12645057333.333334 0.0707595726990889 -0.9974933999136458 1.7145599993458182e-17 7.574773336628821e-17 1.7145599993458182e-17 7.574773336628821e-17 0.07076020163783278 -0.9974933552981773
12645674666.666666 0.06232196590752891 -0.9980560969030068 1.778876071021349e-17 7.558369643930176e-17 1.778876071021349e-17 7.558369643930176e-17 0.06232259517034108 -0.9980560576095296
12646292000.0 0.0538799024846271 -0.9985474230641682 1.8430371113312563e-17 7.541420354457155e-17 1.8430371113312563e-17 7.541420354457155e-17 0.053880532026479674 -0.9985473890949725
12646909333.333334 0.045433986121016075 -0.9989673432625306 1.907038496236065e-17 7.523926918808074e-17 1.907038496236065e-17 7.523926918808074e-17 0.045434615896865586 -0.998967314619526
12647526666.666666 0.03698482078276572 -0.9993158274697296 1.970875615157371e-17 7.505890826733732e-17 1.970875615157371e-17 7.505890826733732e-17 0.03698545074755634 -0.999315804154444
12648144000.0 0.02853301066830701 -0.9995928507657734 2.0345438713081703e-17 7.487313607013577e-17 2.0345438713081703e-17 7.487313607013577e-17 0.028533640776973825 -0.999592832779354
12648761333.333334 0.020079160165140886 -0.9997983933408308 2.098038682021444e-17 7.468196827329349e-17 2.098038682021444e-17 7.468196827329349e-17 0.020079790372613072 -0.999798380684043
12649378666.666666 0.011623873806845774 -0.9999324404966407 2.161355479080343e-17 7.448542094135149e-17 2.161355479080343e-17 7.448542094135149e-17 0.01162450406804985 -0.999932433169869
12649996000.0 0.0031677562294781516 -0.9999949826475705 2.2244897090463223e-17 7.428351052524901e-17 2.2244897090463223e-17 7.428351052524901e-17 0.0031683864993412142 -0.9999949806508198
12650613333.333334 -0.00528858787135227 -0.9999860153212998 2.2874368335843956e-17 7.407625386097614e-17 2.2874368335843956e-17 7.407625386097614e-17 -0.0052879576378993725 -0.999986018654193
12651230666.666666 -0.013744553783809536 -0.9999055391591382 2.3501923297890536e-17 7.3863668168193e-17 2.3501923297890536e-17 7.3863668168193e-17 -0.013743923631828943 -0.9999055478209158
12651848000.0 -0.02219953682327322 -0.9997535599159804 2.4127516905087208e-17 7.3645771048822e-17 2.4127516905087208e-17 7.3645771048822e-17 -0.022198906797816838 -0.9997535739055026
12652465333.333334 -0.030652932375238234 -0.9995300884598932 2.4751104246680875e-17 7.34225804856152e-17 2.4751104246680875e-17 7.34225804856152e-17 -0.03065230252134456 -0.9995301077756407
12653082666.666666 -0.03910413593874976 -0.9992351407713433 2.537264057588953e-17 7.319411484069596e-17 2.537264057588953e-17 7.319411484069596e-17 -0.03910350630144059 -0.9992351654114145
12653700000.0 -0.047552543169687725 -0.9988687379420478 2.5992081313118113e-17 7.296039285406534e-17 2.5992081313118113e-17 7.296039285406534e-17 -0.047551913793964944 -0.9988687679041602
12654317333.333334 -0.055997549923784445 -0.99843090617347 2.6609382049129886e-17 7.272143364209319e-17 2.6609382049129886e-17 7.272143364209319e-17 -0.055996920854626965 -0.9984309414549635
12654934666.666666 -0.06443855230002596 -0.9979216767749461 2.7224498548235242e-17 7.247725669597116e-17 2.7224498548235242e-17 7.247725669597116e-17 -0.06443792358238623 -0.9979217173727776
12655552000.0 -0.0728749466837513 -0.9973410861614412 2.783738675144569e-17 7.222788188014583e-17 2.783738675144569e-17 7.222788188014583e-17 -0.0728743183625524 -0.9973411320721899
12656169333.333334 -0.08130612978973221 -0.9966891758509568 2.8448002779614134e-17 7.197332943072629e-17 2.8448002779614134e-17 7.197332943072629e-17 -0.08130550190986428 -0.9966892270708199
12656786666.666666 -0.08973149870551198 -0.9959659924615429 2.905630293658096e-17 7.171361995385646e-17 2.905630293658096e-17 7.171361995385646e-17 -0.08973087131182948 -0.9959660489863413
12657404000.0 -0.09815045093429342 -0.9951715877079884 2.966224371227506e-17 7.144877442407358e-17 2.966224371227506e-17 7.144877442407358e-17 -0.09814982407161156 -0.9951716495331626
12658021333.333334 -0.10656238443827776 -0.9943060183980945 3.026578178583465e-17 7.117881418262634e-17 3.026578178583465e-17 7.117881418262634e-17 -0.10656175815136934 -0.994306085518706
12658638666.666666 -0.1149666976813488 -0.9933693464286534 3.086687402866852e-17 7.09037609357856e-17 3.086687402866852e-17 7.09037609357856e-17 -0.11496607201494109 -0.9933694188393857
12659256000.0 -0.12336278967256889 -0.9923616387809663 3.14654775075625e-17 7.062363675310302e-17 3.14654775075625e-17 7.062363675310302e-17 -0.12336216467134063 -0.9923617164761269
12659873333.333334 -0.13175006000881695 -0.9912829675160958 3.2061549487712177e-17 7.033846406566938e-17 3.2061549487712177e-17 7.033846406566938e-17 -0.13174943571739473 -0.9912830504896127
12660490666.666666 -0.14012790891763838 -0.9901334097697205 3.2655047435758097e-17 7.004826566433949e-17 3.2655047435758097e-17 7.004826566433949e-17 -0.14012728538059385 -0.9901334980151462
12661108000.0 -0.14849573730061447 -0.9889130477465603 3.324592902284293e-17 6.975306469791389e-17 3.324592902284293e-17 6.975306469791389e-17 -0.14849511456246073 -0.9889131412570697
12661725333.333334 -0.15685294677558329 -0.9876219687145783 3.383415212758688e-17 6.945288467132593e-17 3.383415212758688e-17 6.945288467132593e-17 -0.1568523248807723 -0.9876220674829721
12662342666.666666 -0.16519893971993738 -0.9862602649986728 3.441967483909628e-17 6.914774944377966e-17 3.441967483909628e-17 6.914774944377966e-17 -0.1651983187128563 -0.9862603690173751
12662960000.0 -0.173533119313134 -0.9848280339741033 3.500245545994209e-17 6.883768322687009e-17 3.500245545994209e-17 6.883768322687009e-17 -0.17353249923810218 -0.9848281432351645
12663577333.333334 -0.1818548895793178 -0.9833253780595401 3.5582452509115404e-17 6.852271058268033e-17 3.5582452509115404e-17 6.852271058268033e-17 -0.18185427048058375 -0.9833254925546364
12664194666.666666 -0.19016365543013541 -0.9817524047097073 3.6159624724964266e-17 6.820285642185566e-17 3.6159624724964266e-17 6.820285642185566e-17 -0.1901630373518733 -0.9817525244301404
12664812000.0 -0.19845882270706564 -0.9801092264077351 3.673393106813296e-17 6.787814600164283e-17 3.673393106813296e-17 6.787814600164283e-17 -0.19845820569337264 -0.9801093513444358
12665429333.333334 -0.20673979822413213 -0.9783959606570797 3.730533072445632e-17 6.754860492391858e-17 3.730533072445632e-17 6.754860492391858e-17 -0.2067391823190246 -0.9783960908006044
12666046666.666666 -0.21500598981009741 -0.9766127299731577 3.787378310785456e-17 6.721425913318536e-17 3.787378310785456e-17 6.721425913318536e-17 -0.21500537505750875 -0.9766128653136944
12666664000.0 -0.22325680635103332 -0.9747596618745468 3.843924786322098e-17 6.687513491453527e-17 3.843924786322098e-17 6.687513491453527e-17 -0.2232561927948096 -0.9747598024019097
12667281333.333334 -0.23149165783239567 -0.9728368888739021 3.900168486924477e-17 6.653125889161804e-17 3.900168486924477e-17 6.653125889161804e-17 -0.23149104551629357 -0.9728370345775377
12667898666.666666 -0.23970995538127238 -0.9708445484684723 3.956105424127794e-17 6.618265802454846e-17 3.956105424127794e-17 6.618265802454846e-17 -0.23970934434895547 -0.9708446993374571
12668516000.0 -0.24791111130868704 -0.9687827831302207 4.0117316334147727e-17 6.58293596078107e-17 4.0117316334147727e-17 6.58293596078107e-17 -0.24791050160372283 -0.9687829391532627
12669133333.333334 -0.2560945391512925 -0.9666517402957133 4.067043174493413e-17 6.547139126815026e-17 4.067043174493413e-17 6.547139126815026e-17 -0.2560939308171494 -0.966651901461154
12669750666.666666 -0.26425965371350296 -0.9644515723555352 4.122036131578254e-17 6.510878096240872e-17 4.122036131578254e-17 6.510878096240872e-17 -0.2642590467935471 -0.9644517386513489
12670368000.0 -0.2724058711094223 -0.9621824366433639 4.176706613664328e-17 6.474155697536858e-17 4.176706613664328e-17 6.474155697536858e-17 -0.27240526564691464 -0.9621826080571596
