! Parameters = {f0=12700.012000; bw=77.238000; Q=6100.000000; N=10; m_0_1=1.317012; m_1_1=0.990434; m_1_2=1.151824; m_2_2=0.989785; m_2_3=0.788787; m_2_8=0.002914; m_2_9=0.039618; m_3_3=0.987848; m_3_4=0.677316; m_3_7=0.003514; m_3_8=-0.093574; m_3_9=0.002914; m_4_4=0.984923; m_4_5=0.513651; m_4_6=0.007031; m_4_7=-0.114123; m_4_8=0.003514; m_5_5=0.985305; m_5_6=0.921006; m_5_7=0.007031; m_6_6=0.985304; m_6_7=0.513993; m_7_7=0.984937; m_7_8=0.677434; m_8_8=0.987846; m_8_9=0.789100; m_9_9=0.989780; m_9_10=1.152902; m_10_10=0.990424; m_10_11=1.317807}
!
! Created with skrf (http://scikit-rf.org).
# Hz S RI R 50.0 
!freq ReS11 ImS11 ReS21 ImS21 ReS12 ImS12 ReS22 ImS22
12607400000.0 -0.8028872606266284 -0.5961308973063538 1.2900066514737608e-16 4.718607059890594e-17 1.2900066514737608e-16 4.718607059890594e-17 -0.8028868470358894 -0.5961314543425623
12608017333.333334 -0.8099316789489069 -0.5865242326066462 1.2953229362491958e-16 4.5625581122190286e-17 1.2953229362491958e-16 4.5625581122190286e-17 -0.8099312720431097 -0.586524794502705
12608634666.666666 -0.816861158377863 -0.5768343331784137 1.3004505697975046e-16 4.4059131079891745e-17 1.3004505697975046e-16 4.4059131079891745e-17 -0.8168607582140954 -0.5768348998541118
12609252000.0 -0.8236747155384463 -0.5670625741331112 1.305388887538647e-16 4.2486948396875527e-17 1.305388887538647e-16 4.2486948396875527e-17 -0.8236743221728325 -0.5670631455075659
12609869333.333334 -0.8303713835063614 -0.5572103421990133 1.310137252413348e-16 4.090926173422101e-17 1.310137252413348e-16 4.090926173422101e-17 -0.8303709969940573 -0.5572109181906841
12610486666.666666 -0.836950211945165 -0.5472790355246154 1.3146950549639446e-16 3.932630045604552e-17 1.3146950549639446e-16 3.932630045604552e-17 -0.8369498323403475 -0.5472796160513145
12611104000.0 -0.8434102672413963 -0.5372700634798163 1.3190617134115104e-16 3.7738294596142545e-17 1.3190617134115104e-16 3.7738294596142545e-17 -0.8434098945972571 -0.53727064845872
12611721333.333334 -0.849750632636801 -0.527184846456314 1.32323667372859e-16 3.6145474824667776e-17 1.32323667372859e-16 3.6145474824667776e-17 -0.849750267005538 -0.5271854358039748
12612338666.666666 -0.855970408358538 -0.51702481566587 1.3272194097082142e-16 3.454807241463773e-17 1.3272194097082142e-16 3.454807241463773e-17 -0.855970049791351 -0.5170254092982297
12612956000.0 -0.8620687117469634 -0.5067914129370599 1.331009423028776e-16 3.29463192083921e-17 1.331009423028776e-16 3.29463192083921e-17 -0.8620683602940421 -0.506792010769459
12613573333.333334 -0.8680446773806874 -0.4964860905109713 1.334606243314741e-16 3.134044758404055e-17 1.334606243314741e-16 3.134044758404055e-17 -0.8680443330912092 -0.496486692458164
12614190666.666666 -0.8738974571995727 -0.48611031083482636 1.3380094281935796e-16 2.973069042173555e-17 1.3380094281935796e-16 2.973069042173555e-17 -0.8738971201216926 -0.4861109168109904
12614808000.0 -0.8796262206249493 -0.47566554635466046 1.3412185633484188e-16 2.811728106997697e-17 1.3412185633484188e-16 2.811728106997697e-17 -0.8796258908057951 -0.4756661562734109
12615425333.333334 -0.8852301546775867 -0.46515327930619466 1.3442332625667057e-16 2.6500453311840073e-17 1.3442332625667057e-16 2.6500453311840073e-17 -0.8852298321632502 -0.4651538930805948
12616042666.666666 -0.8907084640930032 -0.45457500150458435 1.3470531677848504e-16 2.4880441331123218e-17 1.3470531677848504e-16 2.4880441331123218e-17 -0.8907081489285373 -0.45457561904716004
12616660000.0 -0.8960603714343567 -0.44393221413266704 1.3496779491287414e-16 2.325747967848971e-17 1.3496779491287414e-16 2.325747967848971e-17 -0.8960600636637649 -0.4439328353554168
12617277333.333334 -0.9012851172027296 -0.43322642752799956 1.3521073049502185e-16 2.1631803237542997e-17 1.3521073049502185e-16 2.1631803237542997e-17 -0.9012848168689619 -0.43322705234240844
12617894666.666666 -0.9063819599449244 -0.4224591609684994 1.3543409618594096e-16 2.0003647190913445e-17 1.3543409618594096e-16 2.0003647190913445e-17 -0.9063816670898724 -0.4224597892855521
12618512000.0 -0.9113501763587847 -0.41163194245663653 1.356378674753132e-16 1.8373246986215393e-17 1.356378674753132e-16 1.8373246986215393e-17 -0.9113498910232748 -0.41163257418682925
12619129333.333334 -0.9161890613956307 -0.4007463085030275 1.3582202268390153e-16 1.6740838302110045e-17 1.3582202268390153e-16 1.6740838302110045e-17 -0.9161887836194182 -0.40074694355638085
12619746666.666666 -0.9208979283605123 -0.38980380390797625 1.359865429655679e-16 1.5106657014256184e-17 1.359865429655679e-16 1.5106657014256184e-17 -0.920897658182275 -0.3898044421940478
12620364000.0 -0.9254761090096106 -0.3788059815423212 1.3613141230888025e-16 1.3470939161249445e-17 1.3613141230888025e-16 1.3470939161249445e-17 -0.9254758464669453 -0.37880662297021894
12620981333.333334 -0.9299229536449464 -0.3677544021273824 1.3625661753830416e-16 1.1833920910625063e-17 1.3625661753830416e-16 1.1833920910625063e-17 -0.9299226987743623 -0.36775504660577735
12621598666.666666 -0.9342378312067521 -0.35665063401305575 1.363621483149941e-16 1.0195838524758504e-17 1.363621483149941e-16 1.0195838524758504e-17 -0.9342375840436653 -0.35665128145019437
12622216000.0 -0.938420129362927 -0.34549625295548136 1.3644799713716966e-16 8.556928326847196e-18 1.3644799713716966e-16 8.556928326847196e-18 -0.9384198899416581 -0.3454969032592003
12622833333.333334 -0.9424692545959781 -0.33429284189332 1.3651415934008787e-16 6.9174266668308904e-18 1.3651415934008787e-16 6.9174266668308904e-18 -0.9424690229497444 -0.3342934949710573
12623450666.666666 -0.9463846322871685 -0.32304199072332895 1.365606330956039e-16 5.2775698873796945e-18 1.365606330956039e-16 5.2775698873796945e-18 -0.9463844084480824 -0.32304264648213865
12624068000.0 -0.9501657067981716 -0.31174529607444323 1.3658741941132486e-16 3.637594289865382e-18 1.3658741941132486e-16 3.637594289865382e-18 -0.9501654907972324 -0.31174595442100755
12624685333.333334 -0.9538119415498947 -0.30040436108124613 1.3659452212935673e-16 1.9977361003092962e-18 1.3659452212935673e-16 1.9977361003092962e-18 -0.9538117334169881 -0.30040502192188956
12625302666.666666 -0.9573228190985169 -0.289020795156818 1.365819479246408e-16 3.582314354941282e-19 1.365819479246408e-16 3.582314354941282e-19 -0.9573226188624092 -0.2890214583975203
12625920000.0 -0.9606978412091017 -0.2775962137637733 1.3654970630288595e-16 -1.280683731089386e-18 1.3654970630288595e-16 -1.280683731089386e-18 -0.9606976488974348 -0.27759687931018256
12626537333.333334 -0.9639365289261548 -0.26613223818546705 1.3649780959809285e-16 -2.918773603091041e-18 1.3649780959809285e-16 -2.918773603091041e-18 -0.9639363445654444 -0.2661329059429137
12627154666.666666 -0.9670384226416276 -0.2546304952958372 1.3642627296967295e-16 -4.555802595192547e-18 1.3642627296967295e-16 -4.555802595192547e-18 -0.9670382462572571 -0.25463116516934675
12627772000.0 -0.9700030821602253 -0.2430926173282004 1.363351143991586e-16 -6.191535366990109e-18 1.363351143991586e-16 -6.191535366990109e-18 -0.9700029137764445 -0.24309328922250764
12628389333.333334 -0.972830086761744 -0.23152024164411414 1.3622435468651435e-16 -7.825736856712253e-18 1.3622435468651435e-16 -7.825736856712253e-18 -0.9728299264016663 -0.23152091546367662
12629006666.666666 -0.9755190352608992 -0.21991501050054804 1.3609401744603647e-16 -9.458172315019949e-18 1.3609401744603647e-16 -9.458172315019949e-18 -0.975518882946496 -0.21991568614955928
12629624000.0 -0.978069546064153 -0.20827857081724127 1.3594412910185616e-16 -1.1088607338624618e-17 1.3594412910185616e-16 -1.1088607338624618e-17 -0.9780694018162521 -0.20827924819964455
12630241333.333334 -0.9804812572239542 -0.1966125739426263 1.3577471888303365e-16 -1.2716807903947696e-17 1.3577471888303365e-16 -1.2716807903947696e-17 -0.9804811210622367 -0.1966132529621283
12630858666.666666 -0.9827538264900172 -0.18491867541987125 1.3558581881825712e-16 -1.4342540400627357e-17 1.3558581881825712e-16 -1.4342540400627357e-17 -0.982753698433015 -0.18491935597995582
12631476000.0 -0.9848869313579943 -0.17319853475143804 1.3537746373013065e-16 -1.5965571665041246e-17 1.3537746373013065e-16 -1.5965571665041246e-17 -0.984886811423086 -0.17319921675537958
12632093333.333334 -0.9868802691151506 -0.1614538151640241 1.3514969122907672e-16 -1.7585669013636433e-17 1.3514969122907672e-16 -1.7585669013636433e-17 -0.9868801573185632 -0.16145449851490207
12632710666.666666 -0.9887335568833499 -0.1496861833724498 1.3490254170682663e-16 -1.9202600276288822e-17 1.3490254170682663e-16 -1.9202600276288822e-17 -0.9887334532401522 -0.14968686797316164
12633328000.0 -0.9904465316592417 -0.13789730934282163 1.34636058329515e-16 -2.0816133829536773e-17 1.34636058329515e-16 -2.0816133829536773e-17 -0.9904464361833442 -0.13789799509609701
12633945333.333334 -0.9920189503515275 -0.1260888660559094 1.3435028703038884e-16 -2.242603862966993e-17 1.3435028703038884e-16 -2.242603862966993e-17 -0.9920188630556808 -0.12608955286432394
12634562666.666666 -0.9934505898154838 -0.11426252926956201 1.3404527650210571e-16 -2.4032084245809322e-17 1.3404527650210571e-16 -2.4032084245809322e-17 -0.9934505107112771 -0.11426321703555123
12635180000.0 -0.9947412468846315 -0.10241997728089777 1.337210781886478e-16 -2.5634040892825247e-17 1.337210781886478e-16 -2.5634040892825247e-17 -0.9947411759824889 -0.10242066590677067
12635797333.333334 -0.9958907383995516 -0.09056289068821827 1.3337774627683825e-16 -2.723167946417994e-17 1.3337774627683825e-16 -2.723167946417994e-17 -0.9958906757087336 -0.09056358007617146
12636414666.666666 -0.996898901233895 -0.07869295215242753 1.3301533768747375e-16 -2.882477156461785e-17 1.3301533768747375e-16 -2.882477156461785e-17 -0.9968988467624944 -0.07869364220455896
12637032000.0 -0.9977655923175198 -0.06681184615829863 1.3263391206605184e-16 -3.041308954281663e-17 1.3263391206605184e-16 -3.041308954281663e-17 -0.9977655460724645 -0.06681253677662174
12637649333.333334 -0.9984906886568065 -0.05492125877534063 1.32233531773124e-16 -3.199640652384618e-17 1.32233531773124e-16 -3.199640652384618e-17 -0.9984906506438549 -0.05492194986179796
12638266666.666666 -0.9990740873521016 -0.04302287741861019 1.318142618742587e-16 -3.357449644152247e-17 1.318142618742587e-16 -3.357449644152247e-17 -0.9990740575758443 -0.04302356887508746
12638884000.0 -0.9995157056123258 -0.031118390609190735 1.3137617012961113e-16 -3.51471340706621e-17 1.3137617012961113e-16 -3.51471340706621e-17 -0.9995156840761835 -0.031119082337530742
12639501333.333334 -0.9998154807667181 -0.01920948773465653 1.3091932698311628e-16 -3.671409505917324e-17 1.3091932698311628e-16 -3.671409505917324e-17 -0.999815467472942 -0.019210179636673076
12640118666.666666 -0.9999733702737341 -0.007297858809328673 1.3044380555130943e-16 -3.827515595997887e-17 1.3044380555130943e-16 -3.827515595997887e-17 -0.9999733652234059 -0.0072985507868205055
12640736000.0 -0.9999893517270837 0.0046148057659274235 1.2994968161172512e-16 -3.9830094262934075e-17 1.2994968161172512e-16 -3.9830094262934075e-17 -0.9999893549201155 0.0046141138111626765
12641353333.333334 -0.9998634228589075 0.01652681544282261 1.294370335909904e-16 -4.137868842635583e-17 1.294370335909904e-16 -4.137868842635583e-17 -0.9998634342940399 0.016526123608974496
12641970666.666666 -0.9995956015400977 0.0284364797663201 1.2890594255246243e-16 -4.2920717908659614e-17 1.2890594255246243e-16 -4.2920717908659614e-17 -0.9995956212149045 0.028435788151551445
12642588000.0 -0.9991859257777691 0.04034210861413326 1.28356492183543e-16 -4.4455963199669646e-17 1.28356492183543e-16 -4.4455963199669646e-17 -0.9991859536886523 0.04034141731656617
12643205333.333334 -0.9986344537098556 0.05224201243663059 1.2778876878260786e-16 -4.5984205851813175e-17 1.2778876878260786e-16 -4.5984205851813175e-17 -0.9986344898520515 0.05224132155433264
12643822666.666666 -0.9979412635968639 0.06413450249674507 1.2720286124554945e-16 -4.750522851119314e-17 1.2720286124554945e-16 -4.750522851119314e-17 -0.9979413079644405 0.06413381212771532
12644440000.0 -0.9971064538107731 0.07601789110937024 1.2659886105197482e-16 -4.901881494842191e-17 1.2659886105197482e-16 -4.901881494842191e-17 -0.9971065063966297 0.07601720135152525
12645057333.333334 -0.9961301428210625 0.08789049188108958 1.2597686225102285e-16 -5.0524750089325236e-17 1.2597686225102285e-16 -5.0524750089325236e-17 -0.9961302036169364 0.08788980283224981
12645674666.666666 -0.9950124691779235 0.0997506199492696 1.253369614468253e-16 -5.20228200454422e-17 1.253369614468253e-16 -5.20228200454422e-17 -0.9950125381743842 0.09974993170714512
12646292000.0 -0.9937535914925526 0.11159659222155727 1.2467925778358144e-16 -5.351281214440335e-17 1.2467925778358144e-16 -5.351281214440335e-17 -0.9937536686790098 0.11159590488373435
12646909333.333334 -0.9923536884146915 0.1234267276142786 1.2400385293031595e-16 -5.499451496001882e-17 1.2400385293031595e-16 -5.499451496001882e-17 -0.9923537737793924 0.12342604127820556
12647526666.666666 -0.9908129586072547 0.13523934729120218 1.23310851065245e-16 -5.646771834225706e-17 1.23310851065245e-16 -5.646771834225706e-17 -0.9908130521372878 0.13523866205417576
12648144000.0 -0.9891316207181183 0.147032774901927 1.2260035885978892e-16 -5.793221344702038e-17 1.2260035885978892e-16 -5.793221344702038e-17 -0.9891317223994142 0.14703209086107843
12648761333.333334 -0.9873099133491167 0.15880533681955025 1.21872485462254e-16 -5.93877927656759e-17 1.21872485462254e-16 -5.93877927656759e-17 -0.9873100231664511 0.15880465407183159
12649378666.666666 -0.9853480950221811 0.17055536237823202 1.2112734248114782e-16 -6.083425015441753e-17 1.2112734248114782e-16 -6.083425015441753e-17 -0.9853482129591754 0.17055468102040214
12649996000.0 -0.9832464441426442 0.18228118411031016 1.2036504396814807e-16 -6.227138086341637e-17 1.2036504396814807e-16 -6.227138086341637e-17 -0.9832465701817708 0.18228050423892156
12650613333.333334 -0.9810052589597126 0.19398113798304584 1.1958570640072324e-16 -6.369898156576611e-17 1.1958570640072324e-16 -6.369898156576611e-17 -0.9810053930822953 0.19398045969443056
12651230666.666666 -0.9786248575242041 0.20565356363443416 1.1878944866443e-16 -6.511685038617442e-17 1.1878944866443e-16 -6.511685038617442e-17 -0.978624999710421 0.20565288702469017
12651848000.0 -0.9761055776433187 0.21729680460930317 1.1797639203483461e-16 -6.652478692950228e-17 1.1797639203483461e-16 -6.652478692950228e-17 -0.976105727872207 0.21729612977428106
12652465333.333334 -0.9734477768327746 0.2289092085940225 1.171466601591437e-16 -6.792259230899455e-17 1.171466601591437e-16 -6.792259230899455e-17 -0.9734479350822295 0.22890853562931107
12653082666.666666 -0.970651832266063 0.24048912765101335 1.1630037903746554e-16 -6.931006917434674e-17 1.1630037903746554e-16 -6.931006917434674e-17 -0.9706519985128481 0.24048845665192778
12653700000.0 -0.967718140720862 0.2520349184529171 1.154376770037371e-16 -7.068702173954213e-17 1.154376770037371e-16 -7.068702173954213e-17 -0.9677183149406043 0.25203424951448333
12654317333.333334 -0.9646471185228399 0.2635449425153035 1.1455868470636955e-16 -7.205325581037361e-17 1.1455868470636955e-16 -7.205325581037361e-17 -0.9646473006900383 0.2635442757322459
12654934666.666666 -0.9614392014864668 0.2750175664296328 1.1366353508850365e-16 -7.340857881183489e-17 1.1366353508850365e-16 -7.340857881183489e-17 -0.9614393915744972 0.2750169018963614
12655552000.0 -0.958094844853186 0.28645116209497273 1.1275236336798072e-16 -7.47527998152011e-17 1.1275236336798072e-16 -7.47527998152011e-17 -0.9580950428343012 0.2864504999055684
12656169333.333334 -0.9546145232269055 0.29784410694871755 1.1182530701700523e-16 -7.608572956485074e-17 1.1182530701700523e-16 -7.608572956485074e-17 -0.954614729072241 0.2978434471969197
12656786666.666666 -0.9509987305065166 0.3091947841972851 1.1088250574144798e-16 -7.740718050489573e-17 1.1088250574144798e-16 -7.740718050489573e-17 -0.9509989441860941 0.3091941269764778
12657404000.0 -0.9472479798158675 0.3205015830453406 1.0992410145988047e-16 -7.871696680549358e-17 1.0992410145988047e-16 -7.871696680549358e-17 -0.9472482012986014 0.32050092844854
12658021333.333334 -0.9433628034309574 0.3317628989243616 1.0895023828226135e-16 -8.001490438895445e-17 1.0895023828226135e-16 -8.001490438895445e-17 -0.9433630326846574 0.33176224704420243
12658638666.666666 -0.9393437527043919 0.34297713372037264 1.079610624883533e-16 -8.130081095553236e-17 1.079610624883533e-16 -8.130081095553236e-17 -0.939343989695767 0.3429764846490945
12659256000.0 -0.9351913979870795 0.35414269600089576 1.069567225057885e-16 -8.257450600901536e-17 1.069567225057885e-16 -8.257450600901536e-17 -0.9351916426817461 0.35414204983033176
12659873333.333334 -0.9309063285473616 0.3652580012406076 1.0593736888789056e-16 -8.383581088196932e-17 1.0593736888789056e-16 -8.383581088196932e-17 -0.9309065809098442 0.3652573580621692
12660490666.666666 -0.9264891524874275 0.37632147204609545 1.049031542911566e-16 -8.508454876076757e-17 1.049031542911566e-16 -8.508454876076757e-17 -0.9264894124811672 0.37632083195076116
12661108000.0 -0.9219404966568563 0.3873315383801331 1.0385423345243978e-16 -8.632054471034475e-17 1.0385423345243978e-16 -8.632054471034475e-17 -0.9219407642442154 0.3873309014584353
12661725333.333334 -0.9172610065638348 0.39828663778403767 1.0279076316590186e-16 -8.754362569860076e-17 1.0279076316590186e-16 -8.754362569860076e-17 -0.9172612817060999 0.39828600412604875
12662342666.666666 -0.9124513462834671 0.40918521559961163 1.0171290225959439e-16 -8.875362062062126e-17 1.0171290225959439e-16 -8.875362062062126e-17 -0.9124516289408584 0.4091845852949329
12662960000.0 -0.9075121983635257 0.42002572518979414 1.0062081157182044e-16 -8.995036032253482e-17 1.0062081157182044e-16 -8.995036032253482e-17 -0.9075124884951999 0.4200250983275421
12663577333.333334 -0.9024442637276211 0.43080662815806836 9.95146539271864e-17 -9.113367762511495e-17 9.95146539271864e-17 -9.113367762511495e-17 -0.9024445612916782 0.430806004826862
12664194666.666666 -0.8972482615757069 0.4415263945668287 9.83945941123946e-17 -9.230340734706829e-17 9.83945941123946e-17 -9.230340734706829e-17 -0.8972485665291974 0.44152577485477795
12664812000.0 -0.8919249292820722 0.4521835031543965 9.72607988517382e-17 -9.345938632805561e-17 9.72607988517382e-17 -9.345938632805561e-17 -0.8919252415810008 0.45218288714908855
12665429333.333334 -0.8864750222905925 0.46277644155110753 9.61134367823458e-17 -9.460145345138839e-17 9.61134367823458e-17 -9.460145345138839e-17 -0.8864753418899259 0.46277582933959505
12666046666.666666 -0.8808993140076943 0.47330370649360654 9.495267842917819e-17 -9.57294496664081e-17 9.495267842917819e-17 -9.57294496664081e-17 -0.8808996408613693 0.47330309816239585
12666664000.0 -0.8751985956923635 0.48376380403863195 9.377869617969437e-17 -9.684321801062577e-17 9.377869617969437e-17 -9.684321801062577e-17 -0.8751989297532903 0.48376319967366993
12667281333.333334 -0.8693736763440929 0.49415524977457087 9.259166425835537e-17 -9.794260363145894e-17 9.259166425835537e-17 -9.794260363145894e-17 -0.8693740175641648 0.49415464946123355
12667898666.666666 -0.8634253825879327 0.5044765690323925 9.139175870079391e-17 -9.902745380773367e-17 9.139175870079391e-17 -9.902745380773367e-17 -0.8634257309180312 0.5044759728554725
12668516000.0 -0.8573545585571599 0.5147262970949412 9.017915732775986e-17 -1.0009761797084372e-16 9.017915732775986e-17 -1.0009761797084372e-16 -0.8573549139471621 0.5147257051386358
12669133333.333334 -0.8511620657736763 0.5249029794044804 8.895403971886011e-17 -1.0115294772555715e-16 8.895403971886011e-17 -1.0115294772555715e-16 -0.8511624281724628 0.5249023917523798
12669750666.666666 -0.8448487830255172 0.5350051717695029 8.771658718597221e-17 -1.0219329687057548e-16 8.771658718597221e-17 -1.0219329687057548e-16 -0.8448491523809787 0.5350045885045783
