! Parameters = {f0=12700.012000; bw=77.238000; Q=6100.000000; N=10; m_0_1=1.279174; m_1_1=0.422867; m_1_2=1.113986; m_2_2=0.422218; m_2_3=0.750949; m_2_8=0.001022; m_2_9=0.037726; m_3_3=0.420281; m_3_4=0.639478; m_3_7=0.001622; m_3_8=-0.095466; m_3_9=0.001022; m_4_4=0.417356; m_4_5=0.475813; m_4_6=0.005139; m_4_7=-0.116015; m_4_8=0.001622; m_5_5=0.417738; m_5_6=0.883168; m_5_7=0.005139; m_6_6=0.417737; m_6_7=0.476155; m_7_7=0.417370; m_7_8=0.639596; m_8_8=0.420279; m_8_9=0.751262; m_9_9=0.422213; m_9_10=1.115064; m_10_10=0.422857; m_10_11=1.279969}
!
! Created with skrf (http://scikit-rf.org).
# Hz S RI R 50.0 
!freq ReS11 ImS11 ReS21 ImS21 ReS12 ImS12 ReS22 ImS22
12607400000.0 0.06399620767278077 0.9979501417422233 -3.981634462467094e-17 -1.0838735834884218e-16 -3.981634462467094e-17 -1.0838735834884218e-16 0.06399553512606858 0.9979501848708425
12608017333.333334 0.07476430360285032 0.9972012329046741 -4.0985499023398296e-17 -1.0792649432177869e-16 -4.0985499023398296e-17 -1.0792649432177869e-16 0.07476363159374971 0.9972012832877495
12608634666.666666 0.0855236885353869 0.9963361374050038 -4.214934122262427e-17 -1.0745302787372399e-16 -4.214934122262427e-17 -1.0745302787372399e-16 0.08552301714213914 0.9963361950359557
12609252000.0 0.09627310886482422 0.9953549560379568 -4.330773547863919e-17 -1.0696702000867864e-16 -4.330773547863919e-17 -1.0696702000867864e-16 0.09627243816559092 0.9953550209093603
12609869333.333334 0.1070113121466287 0.9942578031237557 -4.4460546745957775e-17 -1.0646853319168074e-16 -4.4460546745957775e-17 -1.0646853319168074e-16 0.1070106422194832 0.9942578752273448
12610486666.666666 0.11773704724308477 0.9930448064948031 -4.560764069298464e-17 -1.0595763134085971e-16 -4.560764069298464e-17 -1.0595763134085971e-16 0.11773637816600264 0.9930448858214683
12611104000.0 0.12844906446937823 0.9917161074807451 -4.674888371771257e-17 -1.0543437981926797e-16 -4.674888371771257e-17 -1.0543437981926797e-16 0.12844839632022856 0.9917161940205382
12611721333.333334 0.13914611573880628 0.9902718608920602 -4.788414296317813e-17 -1.048988454266103e-16 -4.788414296317813e-17 -1.048988454266103e-16 0.1391454485953421 0.9902719546341912
12612338666.666666 0.1498269547084764 0.988712235001977 -4.90132863329428e-17 -1.0435109639075314e-16 -4.90132863329428e-17 -1.0435109639075314e-16 0.1498262886483264 0.9887123359348201
12612956000.0 0.16049033692452225 0.9870374115268756 -5.013618250643008e-17 -1.0379120235908949e-16 -5.013618250643008e-17 -1.0379120235908949e-16 0.16048967202518097 0.9870375196379674
12613573333.333334 0.1711350199668162 0.985247585605151 -5.125270095414152e-17 -1.0321923438975115e-16 -5.125270095414152e-17 -1.0321923438975115e-16 0.17113435630563548 0.9852477008811926
12614190666.666666 0.18175976359412108 0.9833429657744194 -5.236271195282887e-17 -1.0263526494262992e-16 -5.236271195282887e-17 -1.0263526494262992e-16 0.18175910124830105 0.98334308820128
12614808000.0 0.19236332988828536 0.9813237739472707 -5.346608660052085e-17 -1.0203936787025795e-16 -5.346608660052085e-17 -1.0203936787025795e-16 0.19236266893486503 0.9813239035099857
12615425333.333334 0.20294448339861573 0.9791902453853852 -5.456269683146155e-17 -1.0143161840851976e-16 -5.456269683146155e-17 -1.0143161840851976e-16 0.20294382391446492 0.9791903820681632
12616042666.666666 0.21350199128579644 0.9769426286721355 -5.565241543095545e-17 -1.0081209316719794e-16 -5.565241543095545e-17 -1.0081209316719794e-16 0.21350133334760565 0.9769427724583539
12616660000.0 0.22403462346552913 0.9745811856836147 -5.673511605007732e-17 -1.0018087012037566e-16 -5.673511605007732e-17 -1.0018087012037566e-16 0.22403396714980184 0.9745813365558275
12617277333.333334 0.23454115275188234 0.972106191558124 -5.78106732203049e-17 -9.95380285966634e-17 -5.78106732203049e-17 -9.95380285966634e-17 0.23454049813492495 0.9721063494980592
12617894666.666666 0.24502035500013492 0.9695179346641448 -5.887896236801119e-17 -9.888364926928802e-17 -5.887896236801119e-17 -9.888364926928802e-17 0.2450197021580488 0.9695180996527101
12618512000.0 0.25547100924970934 0.9668167165666693 -5.993985982889228e-17 -9.821781414599751e-17 -5.993985982889228e-17 -9.821781414599751e-17 0.25547035825838166 0.966816888583953
12619129333.333334 0.2658918978660425 0.9640028519921582 -6.099324286221229e-17 -9.754060655885427e-17 -6.099324286221229e-17 -9.754060655885427e-17 0.265891248801137 0.9640030310174308
12619746666.666666 0.27628180668273117 0.9610766687918021 -6.203898966500025e-17 -9.685211115383466e-17 -6.203898966500025e-17 -9.685211115383466e-17 0.2762811596196801 0.9610768548035201
12620364000.0 0.286639525142997 0.9580385079033188 -6.307697938610236e-17 -9.615241388029366e-17 -6.307697938610236e-17 -9.615241388029366e-17 0.2866388801569921 0.9580387008791278
12620981333.333334 0.2969638464404869 0.9548887233113039 -6.410709214008913e-17 -9.544160198029834e-17 -6.410709214008913e-17 -9.544160198029834e-17 0.2969632036064702 0.954888923228039
12621598666.666666 0.3072535676601261 0.9516276820059126 -6.512920902110818e-17 -9.471976397776847e-17 -6.512920902110818e-17 -9.471976397776847e-17 0.30725292705278184 0.951627888839603
12622216000.0 0.3175074899182458 0.9482557639401077 -6.614321211654726e-17 -9.398698966751534e-17 -6.614321211654726e-17 -9.398698966751534e-17 0.3175068516119915 0.9482559776659796
12622833333.333334 0.32772441850215966 0.9447733619854253 -6.714898452062115e-17 -9.324337010410328e-17 -6.714898452062115e-17 -9.324337010410328e-17 0.3277237825711374 0.9447735825779041
12623450666.666666 0.3379031630093642 0.9411808818862019 -6.814641034780403e-17 -9.248899759058727e-17 -6.814641034780403e-17 -9.248899759058727e-17 0.3379025295274323 0.9411811093189157
12624068000.0 0.3480425374863436 0.9374787422122648 -6.913537474616263e-17 -9.172396566708751e-17 -6.913537474616263e-17 -9.172396566708751e-17 0.34804190652706724 0.937478976458046
12624685333.333334 0.3581413605667726 0.9336673743101458 -7.011576391055064e-17 -9.094836909922977e-17 -7.011576391055064e-17 -9.094836909922977e-17 0.3581407322034169 0.9336676153410386
12625302666.666666 0.36819845560889775 0.9297472222529329 -7.108746509564648e-17 -9.016230386646763e-17 -7.108746509564648e-17 -9.016230386646763e-17 0.36819782991441724 0.929747470040191
12625920000.0 0.37821265083302597 0.9257187427883683 -7.205036662892409e-17 -8.936586715021476e-17 -7.205036662892409e-17 -8.936586715021476e-17 0.37821202788005764 0.9257189973024622
12626537333.333334 0.3881827794576838 0.921582405285783 -7.300435792341829e-17 -8.855915732189916e-17 -7.300435792341829e-17 -8.855915732189916e-17 0.388182159318538 0.9215826664964022
12627154666.666666 0.3981076798357205 0.9173386916813453 -7.394932949040421e-17 -8.774227393084171e-17 -7.394932949040421e-17 -8.774227393084171e-17 0.39810706258237244 0.9173389595574017
12627772000.0 0.40798619558981025 0.9129880964218399 -7.488517295195472e-17 -8.691531769198961e-17 -7.488517295195472e-17 -8.691531769198961e-17 0.40798558129389273 0.9129883709314738
12628389333.333334 0.4178171757468217 0.90853112640722 -7.581178105328614e-17 -8.60783904735797e-17 -7.581178105328614e-17 -8.60783904735797e-17 0.4178165644796147 0.9085314075177991
12629006666.666666 0.4275994748723083 0.9039683009313702 -7.672904767506344e-17 -8.523159528458772e-17 -7.672904767506344e-17 -8.523159528458772e-17 0.4275988667047332 0.9039685886094986
12629624000.0 0.4373319532036578 0.8993001516217457 -7.76368678454895e-17 -8.437503626211344e-17 -7.76368678454895e-17 -8.437503626211344e-17 0.43733134820626735 0.8993004458332652
12630241333.333334 0.4470134767831705 0.8945272223772975 -7.853513775229795e-17 -8.35088186585983e-17 -7.853513775229795e-17 -8.35088186585983e-17 0.4470128750261413 0.8945275230872914
12630858666.666666 0.4566429175897458 0.889650069305312 -7.942375475457527e-17 -8.263304882894283e-17 -7.942375475457527e-17 -8.263304882894283e-17 0.45664231914286973 0.8896503764781097
12631476000.0 0.4662191536709477 0.8846692606563019 -8.030261739447969e-17 -8.174783421746013e-17 -8.030261739447969e-17 -8.174783421746013e-17 0.4662185586036246 0.8846695742554842
12632093333.333334 0.47574106927311643 0.8795853767581034 -8.117162540875896e-17 -8.085328334475945e-17 -8.117162540875896e-17 -8.085328334475945e-17 0.47574047765434574 0.8795856967465061
12632710666.666666 0.48520755497164847 0.8743990099481225 -8.203067974016515e-17 -7.994950579446788e-17 -8.203067974016515e-17 -7.994950579446788e-17 0.48520696687002096 0.8743993362878403
12633328000.0 0.4946175078003579 0.8691107645042635 -8.287968254872992e-17 -7.903661219982024e-17 -8.287968254872992e-17 -7.903661219982024e-17 0.4946169232840478 0.8691110971566546
12633945333.333334 0.5039698313797595 0.8637212565746427 -8.371853722283747e-17 -7.811471423018703e-17 -8.371853722283747e-17 -7.811471423018703e-17 0.5039692505165165 0.8637215955003337
12634562666.666666 0.5132634360449364 0.858231114105733 -8.454714839020198e-17 -7.718392457742848e-17 -8.454714839020198e-17 -7.718392457742848e-17 0.5132628589020786 0.8582314592646241
12635180000.0 0.5224972389724768 0.852640976769215 -8.536542192866928e-17 -7.624435694215881e-17 -8.536542192866928e-17 -7.624435694215881e-17 0.5224966656168818 0.8526413281204835
12635797333.333334 0.5316701643066577 0.846951495887429 -8.617326497687277e-17 -7.529612601988916e-17 -8.617326497687277e-17 -7.529612601988916e-17 0.5316695948047554 0.8469518533895353
12636414666.666666 0.5407811432847021 0.841163334357551 -8.697058594472582e-17 -7.433934748707091e-17 -8.697058594472582e-17 -7.433934748707091e-17 0.5407805777024668 0.841163697968242
12637032000.0 0.5498291143614461 0.8352771665742632 -8.775729452377983e-17 -7.337413798700294e-17 -8.775729452377983e-17 -7.337413798700294e-17 0.5498285527643895 0.8352775362505795
12637649333.333334 0.5588130233329285 0.8292936783512431 -8.853330169740673e-17 -7.240061511565542e-17 -8.853330169740673e-17 -7.240061511565542e-17 0.5588124657860908 0.8292940540495214
12638266666.666666 0.5677318234592392 0.8232135668412358 -8.929851975083166e-17 -7.1418897407376e-17 -8.929851975083166e-17 -7.1418897407376e-17 0.5677312700271835 0.8232139485171173
12638884000.0 0.5765844755864586 0.8170375404548501 -9.005286228101704e-17 -7.042910432048071e-17 -9.005286228101704e-17 -7.042910432048071e-17 0.5765839263332614 0.8170379280632825
12639501333.333334 0.5853699482678693 0.8107663187779167 -9.079624420636787e-17 -6.943135622276331e-17 -9.079624420636787e-17 -6.943135622276331e-17 0.5853694032571142 0.8107667122731612
12640118666.666666 0.5940872178837392 0.8044006324879287 -9.152858177628498e-17 -6.842577437689655e-17 -9.152858177628498e-17 -6.842577437689655e-17 0.59408667717851 0.8044010318235661
12640736000.0 0.60273526876128 0.797941223268412 -9.224979258058776e-17 -6.741248092568711e-17 -9.224979258058776e-17 -6.741248092568711e-17 0.6027347324241514 0.7979416283973456
12641353333.333334 0.6113130932921784 0.791388843723091 -9.295979555870127e-17 -6.639159887733554e-17 -9.295979555870127e-17 -6.639159887733554e-17 0.6113125613852113 0.7913892545975552
12641970666.666666 0.6198196920505938 0.7847442572877666 -9.365851100876473e-17 -6.536325209048052e-17 -9.365851100876473e-17 -6.536325209048052e-17 0.6198191646353266 0.7847446738593306
12642588000.0 0.6282540739093532 0.7780082381415527 -9.434586059651762e-17 -6.432756525923051e-17 -9.434586059651762e-17 -6.432756525923051e-17 0.6282535510467945 0.7780086603611261
12643205333.333334 0.636615256155451 0.7711815711166552 -9.502176736403891e-17 -6.328466389807559e-17 -9.502176736403891e-17 -6.328466389807559e-17 0.636614737906073 0.7711819989344947
12643822666.666666 0.6449022646046362 0.7642650516068585 -9.568615573833446e-17 -6.223467432668656e-17 -9.568615573833446e-17 -6.223467432668656e-17 0.6449017510283693 0.7642654849725748
12644440000.0 0.6531141337148098 0.757259485474943 -9.633895153972308e-17 -6.11777236546763e-17 -9.633895153972308e-17 -6.11777236546763e-17 0.6531136248710323 0.7572599243375036
12645057333.333334 0.661249906698542 0.7501656889587731 -9.698008199008292e-17 -6.011393976622982e-17 -9.698008199008292e-17 -6.011393976622982e-17 0.6612494026460761 0.7501661332665108
12645674666.666666 0.6693086356345542 0.7429844885761977 -9.760947572091871e-17 -5.904345130466561e-17 -9.760947572091871e-17 -5.904345130466561e-17 0.6693081364316574 0.7429849382768154
12646292000.0 0.6772893815783083 0.7357167210286141 -9.822706278127094e-17 -5.79663876568899e-17 -9.822706278127094e-17 -5.79663876568899e-17 0.6772888872826677 0.7357171760691923
12646909333.333334 0.685191214671133 0.7283632331037315 -9.88327746454226e-17 -5.68828789378257e-17 -9.88327746454226e-17 -5.68828789378257e-17 0.6851907253398587 0.7283636934307335
12647526666.666666 0.6930132142487544 0.7209248815767368 -9.942654422047107e-17 -5.579305597469703e-17 -9.942654422047107e-17 -5.579305597469703e-17 0.6930127299383728 0.7209253471360159
12648144000.0 0.7007544689486259 0.7134025331104117 -1.0000830585370967e-16 -5.469705029126561e-17 -1.0000830585370967e-16 -5.469705029126561e-17 0.7007539897150724 0.7134030038472158
12648761333.333334 0.7084140768159043 0.7057970641543454 -1.0057799533983109e-16 -5.359499409200008e-17 -1.0057799533983109e-16 -5.359499409200008e-17 0.708413602714517 0.7057975400133248
12649378666.666666 0.715991145408626 0.6981093608427454 -1.0113554992796395e-16 -5.2487020246159717e-17 -1.0113554992796395e-16 -5.2487020246159717e-17 0.7159906764941405 0.6981098417679594
12649996000.0 0.7234847919017674 0.6903403188911097 -1.0168090832853922e-16 -5.137326227179367e-17 -1.0168090832853922e-16 -5.137326227179367e-17 0.7234843282283092 0.6903408048260324
12650613333.333334 0.7308941431900432 0.6824908434919222 -1.0221401071997813e-16 -5.0253854319675526e-17 -1.0221401071997813e-16 -5.0253854319675526e-17 0.7308936848111222 0.6824913343794503
12651230666.666666 0.738218335989557 0.6745618492092709 -1.0273479875518005e-16 -4.9128931157218807e-17 -1.0273479875518005e-16 -4.9128931157218807e-17 0.7382178829580612 0.6745623449917293
12651848000.0 0.7454565169385812 0.666554259872083 -1.0324321556788779e-16 -4.799862815221197e-17 -1.0324321556788779e-16 -4.799862815221197e-17 0.7454560693067696 0.6665547604912315
12652465333.333334 0.7526078426968066 0.6584690084666718 -1.0373920577881383e-16 -4.686308125661725e-17 -1.0373920577881383e-16 -4.686308125661725e-17 0.752607400516304 0.6584695138637122
12653082666.666666 0.7596714800436052 0.6503070370280339 -1.0422271550162335e-16 -4.572242699023369e-17 -1.0422271550162335e-16 -4.572242699023369e-17 0.7596710433653979 0.6503075471436186
12653700000.0 0.7666466059753007 0.6420692965298785 -1.0469369234874197e-16 -4.457680242428703e-17 -1.0469369234874197e-16 -4.457680242428703e-17 0.766646174849728 0.6420698113041152
12654317333.333334 0.7735324078007966 0.6337567467741265 -1.0515208543695539e-16 -4.3426345165029285e-17 -1.0515208543695539e-16 -4.3426345165029285e-17 0.7735319822775455 0.6337572661465851
12654934666.666666 0.7803280832364308 0.6253703562788854 -1.055978453928572e-16 -4.227119333721283e-17 -1.055978453928572e-16 -4.227119333721283e-17 0.7803276633645313 0.6253708801886072
12655552000.0 0.7870328404995237 0.6169111021655183 -1.0603092435811023e-16 -4.11114855675211e-17 -1.0603092435811023e-16 -4.11114855675211e-17 0.7870324263273422 0.6169116305510209
12656169333.333334 0.7936458984003606 0.6083799700451239 -1.0645127599449772e-16 -3.9947360968022e-17 -1.0645127599449772e-16 -3.9947360968022e-17 0.7936454899755959 0.6083805028444113
12656786666.666666 0.8001664864334652 0.5997779539033977 -1.0685885548884435e-16 -3.8778959119437676e-17 -1.0685885548884435e-16 -3.8778959119437676e-17 0.80016608380314 0.5997784910539631
12657404000.0 0.8065938448672584 0.5911060559849439 -1.0725361955770697e-16 -3.760642005448569e-17 -1.0725361955770697e-16 -3.760642005448569e-17 0.8065934480777176 0.5911065974237819
12658021333.333334 0.812927224832619 0.5823652866764631 -1.0763552645191042e-16 -3.642988424110401e-17 -1.0763552645191042e-16 -3.642988424110401e-17 0.8129268339295214 0.5823658323400737
12658638666.666666 0.8191658884100489 0.5735566643891414 -1.0800453596088512e-16 -3.524949256567057e-17 -1.0800453596088512e-16 -3.524949256567057e-17 0.8191655034383633 0.5735572142135386
12659256000.0 0.8253091087158172 0.5646812154397621 -1.0836060941683704e-16 -3.406538631613058e-17 -1.0836060941683704e-16 -3.406538631613058e-17 0.8253087297198168 0.5646817693604819
12659873333.333334 0.8313561699865004 0.5557399739313337 -1.0870370969871445e-16 -3.287770716514146e-17 -1.0870370969871445e-16 -3.287770716514146e-17 0.831355797009759 0.5557405318834413
12660490666.666666 0.8373063676623852 0.5467339816326082 -1.0903380123599984e-16 -3.1686597153151067e-17 -1.0903380123599984e-16 -3.1686597153151067e-17 0.8373060007477701 0.5467345435507049
12661108000.0 0.8431590084697106 0.5376642878564621 -1.0935085001232458e-16 -3.049219867140803e-17 -1.0935085001232458e-16 -3.049219867140803e-17 0.8431586476593789 0.537664853674694
12661725333.333334 0.8489134105012279 0.5285319493379722 -1.0965482356887696e-16 -2.9294654445014725e-17 -1.0965482356887696e-16 -2.9294654445014725e-17 0.8489130558366205 0.5285325189900366
12662342666.666666 0.8545689032958195 0.5193380301110282 -1.0994569100765001e-16 -2.8094107515854124e-17 -1.0994569100765001e-16 -2.8094107515854124e-17 0.8545685548176586 0.5193386035301832
12662960000.0 0.8601248279165408 0.5100836013844815 -1.1022342299448139e-16 -2.6890701225566597e-17 -1.1022342299448139e-16 -2.6890701225566597e-17 0.8601244856648241 0.5100841785035527
12663577333.333334 0.8655805370273976 0.5007697414173354 -1.1048799176192039e-16 -2.5684579198448258e-17 -1.1048799176192039e-16 -2.5684579198448258e-17 0.8655802010413916 0.5007703221687231
12664194666.666666 0.8709353949688198 0.4913975353930138 -1.1073937111190338e-16 -2.4475885324341037e-17 -1.1073937111190338e-16 -2.4475885324341037e-17 0.8709350652870591 0.49139811970870234
12664812000.0 0.8761887778316455 0.48196807529307356 -1.1097753641824338e-16 -2.326476374149496e-17 -1.1097753641824338e-16 -2.326476374149496e-17 0.8761884544919258 0.4819686631046388
12665429333.333334 0.88134007352988 0.4724824597698502 -1.1120246462893315e-16 -2.2051358819404553e-17 -1.1120246462893315e-16 -2.2051358819404553e-17 0.8813397565692545 0.4724830510084671
12666046666.666666 0.8863886818719321 0.46294179401860064 -1.1141413426825737e-16 -2.083581514164351e-17 -1.1141413426825737e-16 -2.083581514164351e-17 0.8863883713267072 0.4629423886150517
12666664000.0 0.8913340146306915 0.4533471896484588 -1.1161252543872674e-16 -1.9618277488629985e-17 -1.1161252543872674e-16 -1.9618277488629985e-17 0.8913337105364227 0.4533477875331422
12667281333.333334 0.8961754956118784 0.44369976455327 -1.1179761982281013e-16 -1.8398890820457943e-17 -1.1179761982281013e-16 -1.8398890820457943e-17 0.8961751980033652 0.44370036565620685
12667898666.666666 0.9009125607213072 0.43400064278108974 -1.1196940068449444e-16 -1.7177800259621632e-17 -1.1196940068449444e-16 -1.7177800259621632e-17 0.9009122696325921 0.43400124703193427
12668516000.0 0.9055446580306129 0.4242509544032186 -1.1212785287064637e-16 -1.5955151073791285e-17 -1.1212785287064637e-16 -1.5955151073791285e-17 0.9055443734949744 0.4242515617312645
12669133333.333334 0.910071247841443 0.414451835382763 -1.122729628121869e-16 -1.473108865857512e-17 -1.122729628121869e-16 -1.473108865857512e-17 0.9100709698913925 0.4144524457169521
12669750666.666666 0.9144918027484628 0.4046044274420252 -1.124047185250846e-16 -1.3505758520228348e-17 -1.124047185250846e-16 -1.3505758520228348e-17 0.9144915314157415 0.40460504071095643
12670368000.0 0.9188058077007554 0.394709877929581 -1.1252310961115403e-16 -1.2279306258397207e-17 -1.1252310961115403e-16 -1.2279306258397207e-17 0.9188055430163307 0.39471049406151815
