! Parameters = {f0=12700.012000; bw=77.238000; Q=6100.000000; N=10; m_0_1=1.333228; m_1_1=1.233678; m_1_2=1.168040; m_2_2=1.233029; m_2_3=0.805003; m_2_8=0.003725; m_2_9=0.040429; m_3_3=1.231092; m_3_4=0.693532; m_3_7=0.004325; m_3_8=-0.092763; m_3_9=0.003725; m_4_4=1.228167; m_4_5=0.529867; m_4_6=0.007842; m_4_7=-0.113312; m_4_8=0.004325; m_5_5=1.228549; m_5_6=0.937222; m_5_7=0.007842; m_6_6=1.228548; m_6_7=0.530209; m_7_7=1.228181; m_7_8=0.693650; m_8_8=1.231090; m_8_9=0.805316; m_9_9=1.233024; m_9_10=1.169118; m_10_10=1.233668; m_10_11=1.334023}
!
! Created with skrf (http://scikit-rf.org).
# Hz S RI R 50.0 
!freq ReS11 ImS11 ReS21 ImS21 ReS12 ImS12 ReS22 ImS22
12607400000.0 0.964662143754144 0.26348993986007596 -1.476557508866747e-16 3.1560074340962425e-18 -1.476557508866747e-16 3.1560074340962425e-18 0.9646619587040746 0.2634906173453315
12608017333.333334 0.9678531961030455 0.2515157863692163 -1.4757596139693936e-16 4.997601059759724e-18 -1.4757596139693936e-16 4.997601059759724e-18 0.9678530194711098 0.2515164660622862
12608634666.666666 0.9708956218493617 0.2395030093204396 -1.47473215640862e-16 6.837695147448991e-18 -1.47473215640862e-16 6.837695147448991e-18 0.9708954536618574 0.2395036911167369
12609252000.0 0.9737889537886756 0.2274534534338022 -1.4734753860962333e-16 8.676003693101249e-18 -1.4734753860962333e-16 8.676003693101249e-18 0.9737887940706019 0.22745413722842717
12609869333.333334 0.976532747611872 0.2153689690772879 -1.4719895885568226e-16 1.0512241082709134e-17 -1.4719895885568226e-16 1.0512241082709134e-17 0.9765325963869259 0.21536965476504447
12610486666.666666 0.9791265819733674 0.20325141198268873 -1.4702750848693744e-16 1.234612213661162e-17 -1.4702750848693744e-16 1.234612213661162e-17 0.9791264392639389 0.2032520994581004
12611104000.0 0.9815700585558698 0.19110264296035437 -1.4683322316033032e-16 1.4177362153791888e-17 -1.4683322316033032e-16 1.4177362153791888e-17 0.981569924383039 0.19110333211768038
12611721333.333334 0.9838628021314583 0.1789245276138575 -1.4661614207491122e-16 1.600567695593717e-17 -1.4661614207491122e-16 1.600567695593717e-17 0.9838626765149924 0.1789252183471092
12612338666.666666 0.9860044606192827 0.16671893605311586 -1.463763079643439e-16 1.7830782931537745e-17 -1.463763079643439e-16 1.7830782931537745e-17 0.9860043435776347 0.1667196282560732
12612956000.0 0.9879947051395985 0.15448774260737946 -1.461137670888658e-16 1.9652397079838562e-17 -1.461137670888658e-16 1.9652397079838562e-17 0.9879945966899004 0.15448843617360672
12613573333.333334 0.9898332300642394 0.1422328255375706 -1.4582856922671225e-16 2.1470237054603778e-17 -1.4582856922671225e-16 2.1470237054603778e-17 0.9898331302223037 0.14223352036043338
12614190666.666666 0.991519753063613 0.1299560667474879 -1.4552076766498193e-16 2.328402120787877e-17 -1.4552076766498193e-16 2.328402120787877e-17 0.9915196618439291 0.12995676272016937
12614808000.0 0.9930540151500081 0.1176593514951242 -1.4519041918996653e-16 2.5093468633563735e-17 -1.4519041918996653e-16 2.5093468633563735e-17 0.9930539325657389 0.11766004851064117
12615425333.333334 0.9944357807173846 0.1053445681030193 -1.4483758407694224e-16 2.6898299210842447e-17 -1.4483758407694224e-16 2.6898299210842447e-17 0.9944357067803663 0.10534526605423905
12616042666.666666 0.9956648375775486 0.09301360766834006 -1.4446232607941766e-16 2.869823364750512e-17 -1.4446232607941766e-16 2.869823364750512e-17 0.9956647722982892 0.09301430644799671
12616660000.0 0.9967409969927473 0.08066836377236408 -1.4406471241784234e-16 3.0492993523124794e-17 -1.4406471241784234e-16 3.0492993523124794e-17 0.996740940380423 0.08066906327307502
12617277333.333334 0.9976640937046369 0.06831073218983694 -1.4364481376778723e-16 3.2282301332048476e-17 -1.4364481376778723e-16 3.2282301332048476e-17 0.9976640457670937 0.06831143230411936
12617894666.666666 0.998433985959661 0.05594261059790789 -1.432027042475906e-16 3.4065880526241567e-17 -1.432027042475906e-16 3.4065880526241567e-17 0.998433946703411 0.05594331121819524
12618512000.0 0.9990505555308445 0.04356589828429114 -1.4273846140545466e-16 3.5843455558035306e-17 -1.4273846140545466e-16 3.5843455558035306e-17 0.9990505249610663 0.04356659930294969
12619129333.333334 0.9995137077359056 0.031182495856314264 -1.4225216620605381e-16 3.7614751922539375e-17 -1.4225216620605381e-16 3.7614751922539375e-17 0.9995136858564437 0.03118319716565969
12619746666.666666 0.9998233714518346 0.018794304948374117 -1.417439030165667e-16 3.9379496200074414e-17 -1.417439030165667e-16 3.9379496200074414e-17 0.9998233582651989 0.01879500644068796
12620364000.0 0.9999794991257969 0.006403227930227802 -1.4121375959221864e-16 4.113741609827674e-17 -1.4121375959221864e-16 4.113741609827674e-17 0.9999794946331616 0.006403929497774054
12620981333.333334 0.9999820667824354 -0.005988832384999014 -1.406618270612986e-16 4.288824049403619e-17 -1.406618270612986e-16 4.288824049403619e-17 0.9999820709836399 -0.005988130849957376
12621598666.666666 0.9998310740275571 -0.018379973033383522 -1.4008819990963475e-16 4.4631699475307337e-17 -1.4008819990963475e-16 4.4631699475307337e-17 0.9998310869211067 -0.018379271638568
12622216000.0 0.9995265440481921 -0.030768291192118352 -1.3949297596458168e-16 4.636752438261959e-17 -1.3949297596458168e-16 4.636752438261959e-17 0.9995265656312569 -0.03076759004521837
12622833333.333334 0.999068523609032 -0.043151884471885574 -1.38876256378473e-16 4.809544785044415e-17 -1.38876256378473e-16 4.809544785044415e-17 0.9990685538774472 -0.04315118368054195
12623450666.666666 0.9984570830452512 -0.055528851208851565 -1.3823814561157915e-16 4.981520384829574e-17 -1.3823814561157915e-16 4.981520384829574e-17 0.9984571219935199 -0.055528150880640004
12624068000.0 0.9976923162517056 -0.06789729075680623 -1.3757875141453534e-16 5.1526527721669463e-17 -1.3757875141453534e-16 5.1526527721669463e-17 0.9976923638729978 -0.06789659099922077
12624685333.333334 0.9967743406684976 -0.0802553037791738 -1.3689818481028265e-16 5.322915623269186e-17 -1.3689818481028265e-16 5.322915623269186e-17 0.9967743969546545 -0.0802546046996105
12625302666.666666 0.9957032972629827 -0.0926009925401993 -1.3619656007551384e-16 5.492282760052919e-17 -1.3619656007551384e-16 5.492282760052919e-17 0.9957033622045128 -0.09260029424593942
12625920000.0 0.9944793505080641 -0.10493246119702221 -1.3547399472157702e-16 5.660728154164865e-17 -1.3547399472157702e-16 5.660728154164865e-17 0.9944794240941496 -0.10493176379521603
12626537333.333334 0.9931026883569904 -0.11724781609021355 -1.3473060947494553e-16 5.828225930968453e-17 -1.3473060947494553e-16 5.828225930968453e-17 0.993102770575486 -0.1172471196878638
12627154666.666666 0.9915735222144686 -0.12954516603485564 -1.3396652825714884e-16 5.994750373516159e-17 -1.3396652825714884e-16 5.994750373516159e-17 0.9915736130519056 -0.1295444707388011
12627772000.0 0.989892086904182 -0.14182262261109907 -1.331818781642108e-16 6.160275926495604e-17 -1.331818781642108e-16 6.160275926495604e-17 0.9898921863457687 -0.14182192852799824
12628389333.333334 0.9880586406327794 -0.15407830045373144 -1.3237678944565332e-16 6.324777200138e-17 -1.3237678944565332e-16 6.324777200138e-17 0.9880587486624053 -0.15407760769004616
12629006666.666666 0.9860734649501562 -0.16631031754223533 -1.315513954829511e-16 6.48822897411369e-17 -1.315513954829511e-16 6.48822897411369e-17 0.9860735815503934 -0.1663096262042144
12629624000.0 0.9839368647062833 -0.1785167954893187 -1.3070583276755196e-16 6.650606201389908e-17 -1.3070583276755196e-16 6.650606201389908e-17 0.9839369898583894 -0.1785161056829817
12630241333.333334 0.9816491680043528 -0.19069585982964726 -1.2984024087840812e-16 6.811884012063134e-17 -1.2984024087840812e-16 6.811884012063134e-17 0.9816493016882744 -0.1906951716607681
12630858666.666666 0.9792107261504336 -0.2028456403074695 -1.2895476245904223e-16 6.972037717161251e-17 -1.2895476245904223e-16 6.972037717161251e-17 0.9792108683448083 -0.20284495388156032
12631476000.0 0.9766219135994412 -0.21496427116423725 -1.2804954319410985e-16 7.131042812422263e-17 -1.2804954319410985e-16 7.131042812422263e-17 0.9766220642816037 -0.21496358658653253
12632093333.333334 0.9738831278977417 -0.22704989142458826 -1.2712473178556437e-16 7.28887498203069e-17 -1.2712473178556437e-16 7.28887498203069e-17 0.9738832870437234 -0.227049208800028
12632710666.666666 0.9709947896220549 -0.23910064518237467 -1.2618047992830403e-16 7.445510102333836e-17 -1.2618047992830403e-16 7.445510102333836e-17 0.9709949572065913 -0.23909996461558888
12633328000.0 0.9679573423148139 -0.2511146818858822 -1.252169422853742e-16 7.600924245523986e-17 -1.252169422853742e-16 7.600924245523986e-17 0.9679575183113478 -0.2511140034811749
12633945333.333334 0.9647712524161527 -0.2630901566215923 -1.242342764627358e-16 7.755093683285892e-17 -1.242342764627358e-16 7.755093683285892e-17 0.9647714367968356 -0.2630894804829249
12634562666.666666 0.9614370091922174 -0.27502523039774174 -1.2323264298357684e-16 7.907994890413201e-17 -1.2323264298357684e-16 7.907994890413201e-17 0.9614372019279178 -0.2750245566287177
12635180000.0 0.9579551246600536 -0.2869180704266403 -1.222122052621727e-16 8.059604548392896e-17 -1.222122052621727e-16 8.059604548392896e-17 0.9579553257203602 -0.28691739913048947
12635797333.333334 0.9543261335089442 -0.29876685040625833 -1.2117312957730243e-16 8.20989954895686e-17 -1.2117312957730243e-16 8.20989954895686e-17 0.9543263428621687 -0.29876618168582003
12636414666.666666 0.9505505930183737 -0.3105697508004038 -1.2011558504526102e-16 8.35885699759444e-17 -1.2011558504526102e-16 8.35885699759444e-17 0.9505508106315594 -0.31056908475811246
12637032000.0 0.9466290829723761 -0.3223249591184107 -1.1903974359239398e-16 8.50645421703726e-17 -1.1903974359239398e-16 8.50645421703726e-17 0.9466293088113003 -0.32232429585627925
12637649333.333334 0.942562205570548 -0.33403067019330696 -1.1794577992724387e-16 8.652668750703407e-17 -1.1794577992724387e-16 8.652668750703407e-17 0.9425624395997287 -0.33403000981291164
12638266666.666666 0.9383505853355297 -0.3456850864591566 -1.168338715122469e-16 8.7974783661096e-17 -1.168338715122469e-16 8.7974783661096e-17 0.9383508275182302 -0.345684429061621
12638884000.0 0.9339948690171551 -0.357286418226938 -1.157041985350385e-16 8.940861058243411e-17 -1.157041985350385e-16 8.940861058243411e-17 0.9339951193153896 -0.35728576391291766
12639501333.333334 0.9294957254930865 -0.36883288395950786 -1.1455694387932035e-16 9.08279505290253e-17 -1.1455694387932035e-16 9.08279505290253e-17 0.9294959838676288 -0.36883223282917554
12640118666.666666 0.9248538456661867 -0.38032271054496924 -1.1339229309535072e-16 9.223258809992442e-17 -1.1339229309535072e-16 9.223258809992442e-17 0.9248541120765726 -0.38032206269799873
12640736000.0 0.9200699423582053 -0.3917541335694823 -1.1221043436995792e-16 9.362231026795407e-17 -1.1221043436995792e-16 9.362231026795407e-17 0.9200702167627419 -0.39175348910503355
12641353333.333334 0.9151447502006383 -0.40312539758742366 -1.1101155849628787e-16 9.499690641185221e-17 -1.1101155849628787e-16 9.499690641185221e-17 0.9151450325564079 -0.4031247566041274
12641970666.666666 0.9100790255216455 -0.41443475639161564 -1.09795858843011e-16 9.635616834820785e-17 -1.09795858843011e-16 9.635616834820785e-17 0.9100793157845156 -0.41443411898755905
12642588000.0 0.9048735462300282 -0.4256804732811916 -1.0856353132323915e-16 9.769989036288718e-17 -1.0856353132323915e-16 9.769989036288718e-17 0.9048738443546542 -0.42567983955390165
12643205333.333334 0.8995291116957697 -0.4368608213282877 -1.0731477436301253e-16 9.90278692421166e-17 -1.0731477436301253e-16 9.90278692421166e-17 0.8995294176356052 -0.436860191374718
12643822666.666666 0.8940465426271859 -0.4479740836434432 -1.0604978886942986e-16 1.0033990430313952e-16 -1.0604978886942986e-16 1.0033990430313952e-16 0.8940468563344893 -0.4479734575599582
12644440000.0 0.8884266809450272 -0.4590185536389668 -1.0476877819838752e-16 1.0163579742448511e-16 -1.0476877819838752e-16 1.0163579742448511e-16 0.8884270023708691 -0.45901793152132764
12645057333.333334 0.8826703896531344 -0.46999253529113716 -1.0347194812197645e-16 1.0291535307580024e-16 -1.0347194812197645e-16 1.0291535307580024e-16 0.8826707187474037 -0.46999191723448586
12645674666.666666 0.8767785527059355 -0.4808943434005972 -1.0215950679548674e-16 1.0417837834729593e-16 -1.0215950679548674e-16 1.0417837834729593e-16 0.8767788894173499 -0.4808937294994438
12646292000.0 0.8707520748725573 -0.49172230385141497 -1.0083166472404652e-16 1.0542468297877866e-16 -1.0083166472404652e-16 1.0542468297877866e-16 0.8707524191486693 -0.49172169419962186
12646909333.333334 0.8645918815981395 -0.50247475386769 -9.948863472896938e-17 1.0665407938820194e-16 -9.948863472896938e-17 1.0665407938820194e-16 0.8645922333853452 -0.502474148558458
12647526666.666666 0.8582989188615484 -0.5131500422692209 -9.813063191366953e-17 1.0786638269986888e-16 -9.813063191366953e-17 1.0786638269986888e-16 0.8582992781050961 -0.5131494413950747
12648144000.0 0.8518741530300759 -0.5237465297251122 -9.67578736293007e-17 1.0906141077213959e-16 -9.67578736293007e-17 1.0906141077213959e-16 0.8518745196740731 -0.5237459333778863
12648761333.333334 0.8453185707111813 -0.5342625890052682 -9.537057944002339e-17 1.1023898422473684e-16 -9.537057944002339e-17 1.1023898422473684e-16 0.8453189446986062 -0.5342619972760936
12649378666.666666 0.8386331786009356 -0.5446966052303785 -9.396897108797411e-17 1.1139892646558005e-16 -9.396897108797411e-17 1.1139892646558005e-16 0.8386335598736433 -0.5446960182096677
12649996000.0 0.831819003329379 -0.5550469761199727 -9.255327245786005e-17 1.1254106371721919e-16 -9.255327245786005e-17 1.1254106371721919e-16 0.8318193918281125 -0.5550463938974068
12650613333.333334 0.824877091302854 -0.5653121122384963 -9.11237095412738e-17 1.136652250427836e-16 -9.11237095412738e-17 1.136652250427836e-16 0.8248774869672518 -0.5653115349030108
12651230666.666666 0.8178085085434712 -0.575490437239151 -8.968051040069843e-17 1.1477124237147749e-16 -8.968051040069843e-17 1.1477124237147749e-16 0.817808911312078 -0.5754898648789224
12651848000.0 0.8106143405252054 -0.5855803881062734 -8.822390513314216e-17 1.1585895052366773e-16 -8.822390513314216e-17 1.1585895052366773e-16 0.8106147503354794 -0.5855798208087045
12652465333.333334 0.8032956920072768 -0.5955804153952321 -8.675412583356445e-17 1.1692818723543675e-16 -8.675412583356445e-17 1.1692818723543675e-16 0.8032961087956033 -0.5955798532469414
12653082666.666666 0.7958536868646957 -0.6054889834701196 -8.527140655794817e-17 1.1797879318272018e-16 -8.527140655794817e-17 1.1797879318272018e-16 0.7958541105663934 -0.6054884265569255
12653700000.0 0.7882894679152642 -0.615304570740114 -8.377598328604498e-17 1.1901061200499826e-16 -8.377598328604498e-17 1.1901061200499826e-16 0.7882898984645977 -0.6153040191470237
12654317333.333334 0.7806041967445129 -0.6250256698925739 -8.226809388394813e-17 1.2002349032843892e-16 -8.226809388394813e-17 1.2002349032843892e-16 0.7806046340746998 -0.625025123703768
12654934666.666666 0.7727990535270804 -0.6346507881248209 -8.074797806627453e-17 1.2101727778864582e-16 -8.074797806627453e-17 1.2101727778864582e-16 0.7727994975703054 -0.6346502474236427
12655552000.0 0.7648752368454261 -0.6441784473734437 -7.92158773581064e-17 1.2199182705290285e-16 -7.92158773581064e-17 1.2199182705290285e-16 0.7648756875328488 -0.6441779122423859
12656169333.333334 0.7568339635060434 -0.6536071845409447 -7.767203505672944e-17 1.229469938418995e-16 -7.767203505672944e-17 1.229469938418995e-16 0.7568344207678103 -0.6536066550616362
12656786666.666666 0.7486764683523673 -0.6629355517207033 -7.611669619301245e-17 1.2388263695103453e-16 -7.611669619301245e-17 1.2388263695103453e-16 0.7486769321176223 -0.6629350279738977
12657404000.0 0.7404040040751846 -0.6721621164192767 -7.455010749258416e-17 1.2479861827119895e-16 -7.455010749258416e-17 1.2479861827119895e-16 0.7404044742720791 -0.6721615984848391
12658021333.333334 0.7320178410203366 -0.6812854617762892 -7.297251733676832e-17 1.2569480280906436e-16 -7.297251733676832e-17 1.2569480280906436e-16 0.7320183175760423 -0.6812849497331848
12658638666.666666 0.723519266993668 -0.6903041867819952 -7.138417572327008e-17 1.265710587068845e-16 -7.138417572327008e-17 1.265710587068845e-16 0.7235197498343868 -0.690303680708276
12659256000.0 0.7149095870631097 -0.699216906492586 -6.978533422657153e-17 1.2742725726182979e-16 -6.978533422657153e-17 1.2742725726182979e-16 0.7149100761140853 -0.6992164064653803
12659873333.333334 0.7061901233583606 -0.7080222522427604 -6.817624595819774e-17 1.282632729447665e-16 -6.817624595819774e-17 1.282632729447665e-16 0.7061906185438919 -0.7080217583382613
12660490666.666666 0.6973622148679844 -0.716718871855783 -6.655716552669153e-17 1.2907898341857447e-16 -6.655716552669153e-17 1.2907898341857447e-16 0.6973627161114342 -0.7167183841492353
12661108000.0 0.6884272172335059 -0.7253054298514106 -6.49283489973512e-17 1.2987426955596765e-16 -6.49283489973512e-17 1.2987426955596765e-16 0.6884277244573144 -0.7253049484170995
12661725333.333334 0.6793865025415567 -0.7337806076506503 -6.329005385184561e-17 1.3064901545676384e-16 -6.329005385184561e-17 1.3064901545676384e-16 0.6793870156672549 -0.7337801325618925
12662342666.666666 0.6702414591128721 -0.7421431037785473 -6.164253894751424e-17 1.3140310846470111e-16 -6.164253894751424e-17 1.3140310846470111e-16 0.6702419780610902 -0.7421426351076753
12662960000.0 0.6609934912893157 -0.7503916340638194 -5.99860644765683e-17 1.3213643918369247e-16 -5.99860644765683e-17 1.3213643918369247e-16 0.6609940159797991 -0.7503911718821753
12663577333.333334 0.6516440192181256 -0.7585249318361623 -5.832089192501849e-17 1.3284890149360656e-16 -5.832089192501849e-17 1.3284890149360656e-16 0.6516445495697455 -0.7585244762140845
12664194666.666666 0.6421944786338727 -0.7665417481207237 -5.664728403149956e-17 1.3354039256549375e-16 -5.664728403149956e-17 1.3354039256549375e-16 0.6421950145646387 -0.766541299127536
12664812000.0 0.6326463206378994 -0.7744408518299735 -5.496550474582212e-17 1.3421081287633728e-16 -5.496550474582212e-17 1.3421081287633728e-16 0.6326468620649726 -0.7744404095339752
12665429333.333334 0.6230010114755894 -0.7822210299526599 -5.3275819187423083e-17 1.3486006622324973e-16 -5.3275819187423083e-17 1.3486006622324973e-16 0.6230015583152942 -0.7822205944211146
12666046666.666666 0.6132600323112546 -0.7898810877400508 -5.1578493603651004e-17 1.3548805973715015e-16 -5.1578493603651004e-17 1.3548805973715015e-16 0.6132605844790943 -0.7898806590391789
12666664000.0 0.603424879000348 -0.7974198488896687 -4.987379532781549e-17 1.3609470389594656e-16 -4.987379532781549e-17 1.3609470389594656e-16 0.6034254364110141 -0.797419427084633
12667281333.333334 0.5934970618603148 -0.8048361557254873 -4.816199273719888e-17 1.3667991253714704e-16 -4.816199273719888e-17 1.3667991253714704e-16 0.5934976244277029 -0.8048357408803868
12667898666.666666 0.5834781054381235 -0.812128869376127 -4.644335521080613e-17 1.372436028699868e-16 -4.644335521080613e-17 1.372436028699868e-16 0.5834786730753453 -0.8121284615539845
12668516000.0 0.5733695482763969 -0.8192968699495485 -4.471815308705243e-17 1.377856954869962e-16 -4.471815308705243e-17 1.377856954869962e-16 0.5733701208957953 -0.8192964692123044
12669133333.333334 0.5631729426772704 -0.8263390567049524 -4.298665762131864e-17 1.383061143750404e-16 -4.298665762131864e-17 1.383061143750404e-16 0.5631735201904305 -0.8263386631134515
12669750666.666666 0.5528898544637098 -0.8332543482220213 -4.1249140943301677e-17 1.3880478692584932e-16 -4.1249140943301677e-17 1.3880478692584932e-16 0.5528904367814743 -0.8332539618360046
12670368000.0 0.542521862739292 -0.8400416825668221 -3.950587601435527e-17 1.3928164394597925e-16 -3.950587601435527e-17 1.3928164394597925e-16 0.5425224497717747 -0.8400413034449198
