! Parameters = {f0=12700.012000; bw=77.238000; Q=6100.000000; N=10; m_0_1=1.345040; m_1_1=1.410855; m_1_2=1.179852; m_2_2=1.410206; m_2_3=0.816815; m_2_8=0.004316; m_2_9=0.041020; m_3_3=1.408269; m_3_4=0.705344; m_3_7=0.004916; m_3_8=-0.092172; m_3_9=0.004316; m_4_4=1.405344; m_4_5=0.541679; m_4_6=0.008433; m_4_7=-0.112721; m_4_8=0.004916; m_5_5=1.405726; m_5_6=0.949034; m_5_7=0.008433; m_6_6=1.405725; m_6_7=0.542021; m_7_7=1.405358; m_7_8=0.705462; m_8_8=1.408267; m_8_9=0.817128; m_9_9=1.410201; m_9_10=1.180930; m_10_10=1.410845; m_10_11=1.345835}
!
! Created with skrf (http://scikit-rf.org).
# Hz S RI R 50.0 
!freq ReS11 ImS11 ReS21 ImS21 ReS12 ImS12 ReS22 ImS22
12607400000.0 0.8330893762681644 -0.5531384014411973 -9.983774476467372e-17 1.1933809664453133e-16 -9.983774476467372e-17 1.1933809664453133e-16 0.8330897681679903 -0.5531378111950094
12608017333.333334 0.8259742274938242 -0.5637078813674541 -9.827921396354127e-17 1.2058554502535539e-16 -9.827921396354127e-17 1.2058554502535539e-16 0.8259746268626053 -0.5637072961910123
12608634666.666666 0.8187249906861791 -0.5741858493778106 -9.67051162760624e-17 1.2181265617135137e-16 -9.67051162760624e-17 1.2181265617135137e-16 0.8187253974583552 -0.5741852693656117
12609252000.0 0.8113428426809727 -0.5845706044868845 -9.511571686931647e-17 1.2301923608211676e-16 -9.511571686931647e-17 1.2301923608211676e-16 0.8113432567897861 -0.5845700297325765
12609869333.333334 0.8038289818906466 -0.5948604608414046 -9.351128332471057e-17 1.2420509421191964e-16 -9.351128332471057e-17 1.2420509421191964e-16 0.8038294032681571 -0.5948598914377738
12610486666.666666 0.7961846281097994 -0.6050537479938972 -9.189208559298476e-17 1.2537004349971696e-16 -9.189208559298476e-17 1.2537004349971696e-16 0.7961850566868924 -0.6050531840328517
12611104000.0 0.7884110223171595 -0.6151488111738597 -9.025839594884267e-17 1.265139003985847e-16 -9.025839594884267e-17 1.265139003985847e-16 0.7884114580235592 -0.6151482527464154
12611721333.333334 0.7805094264741302 -0.6251440115563983 -8.861048894529098e-17 1.2763648490450908e-16 -8.861048894529098e-17 1.2763648490450908e-16 0.7805098692384094 -0.6251434587526635
12612338666.666666 0.7724811233199205 -0.6350377265282722 -8.694864136752007e-17 1.287376205846538e-16 -8.694864136752007e-17 1.287376205846538e-16 0.7724815730695138 -0.6350371794374338
12612956000.0 0.7643274161633071 -0.6448283499513064 -8.52731321865074e-17 1.298171346049773e-16 -8.52731321865074e-17 1.298171346049773e-16 0.7643278728245234 -0.6448278086616159
12613573333.333334 0.7560496286710586 -0.6545142924231349 -8.358424251227415e-17 1.308748577572553e-16 -8.358424251227415e-17 1.308748577572553e-16 0.75605009216909 -0.6545137570218921
12614190666.666666 0.7476491046530485 -0.6640939815352173 -8.188225554677711e-17 1.3191062448551263e-16 -8.188225554677711e-17 1.3191062448551263e-16 0.7476495749119862 -0.6640934521087589
12614808000.0 0.7391272078441042 -0.6735658621281071 -8.016745653646785e-17 1.329242729118501e-16 -8.016745653646785e-17 1.329242729118501e-16 0.7391276847869492 -0.6735653387617909
12615425333.333334 0.7304853216826205 -0.6829283965439135 -7.844013272460867e-17 1.3391564486160832e-16 -7.844013272460867e-17 1.3391564486160832e-16 0.7304858052312956 -0.682927879322105
12616042666.666666 0.7217248490859698 -0.6921800648759224 -7.670057330316623e-17 1.3488458588798234e-16 -7.670057330316623e-17 1.3488458588798234e-16 0.721725339161334 -0.692179553881982
12616660000.0 0.7128472122227574 -0.7013193652153392 -7.494906936452427e-17 1.358309452959406e-16 -7.494906936452427e-17 1.358309452959406e-16 0.7128477087446169 -0.7013188605316072
12617277333.333334 0.7038538522819032 -0.7103448138951447 -7.31859138527805e-17 1.3675457616558796e-16 -7.31859138527805e-17 1.3675457616558796e-16 0.703854355169027 -0.7103443156029304
12617894666.666666 0.6947462292388863 -0.7192549457307552 -7.141140151488103e-17 1.3765533537482953e-16 -7.141140151488103e-17 1.3765533537482953e-16 0.6947467384090169 -0.7192544539103217
12618512000.0 0.6855258216182855 -0.7280483142583172 -6.962582885135313e-17 1.3853308362146805e-16 -6.962582885135313e-17 1.3853308362146805e-16 0.6855263369881544 -0.7280478289888692
12619129333.333334 0.6761941262543267 -0.7367234919689685 -6.782949406688597e-17 1.3938768544460243e-16 -6.782949406688597e-17 1.3938768544460243e-16 0.6761946477396662 -0.7367230133286394
12619746666.666666 0.6667526580474806 -0.7452790705409769 -6.60226970205721e-17 1.402190092454271e-16 -6.60226970205721e-17 1.402190092454271e-16 0.6667531855630398 -0.745278598606817
12620364000.0 0.6572029497185294 -0.7537136610683575 -6.420573917589526e-17 1.410269273073856e-16 -6.420573917589526e-17 1.410269273073856e-16 0.6572034831780861 -0.7537131959163205
12620981333.333334 0.647546551560127 -0.7620258942860084 -6.237892355055439e-17 1.418113158156417e-16 -6.237892355055439e-17 1.418113158156417e-16 0.647547090876502 -0.7620254359909392
12621598666.666666 0.6377850311847023 -0.7702144207923731 -6.054255466593082e-17 1.425720548759553e-16 -6.054255466593082e-17 1.425720548759553e-16 0.6377855762697758 -0.7702139694279976
12622216000.0 0.627919973270187 -0.7782779112683142 -5.869693849645665e-17 1.4330902853284807e-16 -5.869693849645665e-17 1.4330902853284807e-16 0.6279205240349102 -0.7782774669072251
12622833333.333334 0.6179529793026717 -0.7862150566929853 -5.684238241863494e-17 1.4402212478717133e-16 -5.684238241863494e-17 1.4402212478717133e-16 0.6179535356570826 -0.7862146194066307
12623450666.666666 0.6078856673166013 -0.7940245685561956 -5.4979195159970464e-17 1.4471123561296345e-16 -5.4979195159970464e-17 1.4471123561296345e-16 0.6078862291698398 -0.7940241384148695
12624068000.0 0.5977196716318826 -0.8017051790677647 -5.3107686747617144e-17 1.4537625697368178e-16 -5.3107686747617144e-17 1.4537625697368178e-16 0.5977202388922045 -0.8017047561405939
12624685333.333334 0.5874566425885197 -0.8092556413633626 -5.122816845683092e-17 1.460170888377696e-16 -5.122816845683092e-17 1.460170888377696e-16 0.5874572151633118 -0.8092552257182953
12625302666.666666 0.5770982462791564 -0.8166747297065855 -4.934095275932068e-17 1.466336351935295e-16 -4.934095275932068e-17 1.466336351935295e-16 0.577098824074953 -0.816674321410383
12625920000.0 0.5666461642779181 -0.8239612396884489 -4.744635327129772e-17 1.4722580406337228e-16 -4.744635327129772e-17 1.4722580406337228e-16 0.566646747200414 -0.8239608388066709
12626537333.333334 0.5561020933680686 -0.8311139884224396 -4.554468470148226e-17 1.4779350751735473e-16 -4.554468470148226e-17 1.4779350751735473e-16 0.556102681322136 -0.8311135950194376
12627154666.666666 0.5454677452662834 -0.8381318147367519 -4.363626279886732e-17 1.4833666168607441e-16 -4.363626279886732e-17 1.4833666168607441e-16 0.5454683381559869 -0.838131428875656
12627772000.0 0.5347448463444817 -0.8450135793629708 -4.1721404300330935e-17 1.488551867728885e-16 -4.1721404300330935e-17 1.488551867728885e-16 0.5347454440730949 -0.8450132011056817
12628389333.333334 0.5239351373502364 -0.8517581651205891 -3.980042687819161e-17 1.49349007065436e-16 -3.980042687819161e-17 1.49349007065436e-16 0.5239357398202558 -0.8517577945277658
12629006666.666666 0.5130403731234634 -0.8583644770988255 -3.7873649087511305e-17 1.4981805094651465e-16 -3.7873649087511305e-17 1.4981805094651465e-16 0.5130409802366263 -0.8583641142298789
12629624000.0 0.5020623223120724 -0.8648314428340426 -3.5941390313358787e-17 1.5026225090425779e-16 -3.5941390313358787e-17 1.5026225090425779e-16 0.502062933969371 -0.8648310877471219
12630241333.333334 0.49100276708455354 -0.8711580124840242 -3.4003970717948606e-17 1.506815435416338e-16 -3.4003970717948606e-17 1.506815435416338e-16 0.49100338318625264 -0.8711576652360105
12630858666.666666 0.4798635028409584 -0.877343158998238 -3.2061711187638984e-17 1.5107586958527473e-16 -3.2061711187638984e-17 1.5107586958527473e-16 0.4798641232866115 -0.8773428196447353
12631476000.0 0.46864633792089233 -0.8833858782848745 -3.0114933279822103e-17 1.5144517389362175e-16 -3.0114933279822103e-17 1.5144517389362175e-16 0.4686469626093567 -0.883385546880198
12632093333.333334 0.45735309331064244 -0.8892851893734592 -2.8163959169802457e-17 1.5178940546437368e-16 -2.8163959169802457e-17 1.5178940546437368e-16 0.4573537221400971 -0.88928486597063
12632710666.666666 0.4459856023470141 -0.8950401345744071 -2.6209111597516856e-17 1.5210851744126666e-16 -2.6209111597516856e-17 1.5210851744126666e-16 0.44598623521497593 -0.895039819225142
12633328000.0 0.43454571041995815 -0.9006497796343572 -2.425071381419065e-17 1.5240246712016616e-16 -2.425071381419065e-17 1.5240246712016616e-16 0.43454634722329794 -0.9006494723890596
12633945333.333334 0.4230352746729401 -0.9061132138878631 -2.2289089528965587e-17 1.5267121595446872e-16 -2.2289089528965587e-17 1.5267121595446872e-16 0.42303591530790036 -0.9061129147956172
12634562666.666666 0.4114561637014547 -0.9114295504052327 -2.0324562855481685e-17 1.5291472955981585e-16 -2.0324562855481685e-17 1.5291472955981585e-16 0.4114568080636659 -0.9114292595137936
12635180000.0 0.3998102572496781 -0.9165979261365091 -1.8357458258326706e-17 1.5313297771813384e-16 -1.8357458258326706e-17 1.5313297771813384e-16 0.39981090523417595 -0.9165976434922969
12635797333.333334 0.38809944590531226 -0.9216175020515793 -1.638810049957046e-17 1.5332593438097018e-16 -1.638810049957046e-17 1.5332593438097018e-16 0.3881000974065548 -0.92161722769967
12636414666.666666 0.3763256307926683 -0.9264874632763808 -1.4416814585175446e-17 1.5349357767215553e-16 -1.4416814585175446e-17 1.5349357767215553e-16 0.376326285704553 -0.9264871972605007
12637032000.0 0.36449072326403964 -0.9312070192251879 -1.2443925711440386e-17 1.5363588988977063e-16 -1.2443925711440386e-17 1.5363588988977063e-16 0.3644913814799208 -0.9312067615877057
12637649333.333334 0.352596644589414 -0.9357754037289552 -1.0469759211381142e-17 1.537528575074314e-16 -1.0469759211381142e-17 1.537528575074314e-16 0.35259730600211936 -0.9357751545108741
12638266666.666666 0.3406453256445757 -0.9401918751596948 -8.494640501206076e-18 1.538444711748786e-16 -8.494640501206076e-18 1.538444711748786e-16 0.34064599014642544 -0.9401916344006493
12638884000.0 0.3286387065976498 -0.9444557165508747 -6.51889502666767e-18 1.5391072571789016e-16 -6.51889502666767e-18 1.5391072571789016e-16 0.3286393740804726 -0.9444554842891207
12639501333.333334 0.31657873659408187 -0.9485662357138267 -4.542848209561232e-18 1.5395162013749682e-16 -4.542848209561232e-18 1.5395162013749682e-16 0.316579406949233 -0.9485660119862376
12640118666.666666 0.3044673734404841 -0.952522765350024 -2.5668253941698795e-18 1.539671576085184e-16 -2.5668253941698795e-18 1.539671576085184e-16 0.3044680465588636 -0.9525225501920846
12640736000.0 0.29230658328621484 -0.9563246631596112 -5.911517936905711e-19 1.5395734547741073e-16 -5.911517936905711e-19 1.5395734547741073e-16 0.2923072590582847 -0.9563244566054115
12641353333.333334 0.2800983403049499 -0.9599713119454223 1.3838475630785396e-18 1.5392219525942647e-16 1.3838475630785396e-18 1.5392219525942647e-16 0.28009901862075226 -0.9599711140276533
12641970666.666666 0.2678446263736031 -0.9634621197133737 3.3578478853058902e-18 1.5386172263509318e-16 3.3578478853058902e-18 1.5386172263509318e-16 0.26784530712277776 -0.9634619304633205
12642588000.0 0.2555474307508598 -0.9667965197684766 5.330524673362966e-18 1.5377594744600626e-16 5.330524673362966e-18 1.5377594744600626e-16 0.25554811382266174 -0.9667963392160123
12643205333.333334 0.24320874975424214 -0.9699739708068363 7.301553772175776e-18 1.536648936899388e-16 7.301553772175776e-18 1.536648936899388e-16 0.24320943503756107 -0.9699737989804226
12643822666.666666 0.2308305864358102 -0.9729939570035897 9.270611424402566e-18 1.535285895152694e-16 9.270611424402566e-18 1.535285895152694e-16 0.23083127381918708 -0.9729937939302666
12644440000.0 0.21841495025726101 -0.9758559880965642 1.1237374323534146e-17 1.533670672147312e-16 1.1237374323534146e-17 1.533670672147312e-16 0.21841563962890698 -0.9758558338019495
12645057333.333334 0.20596385676366089 -0.9785595994658887 1.3201519666942983e-17 1.5318036321847932e-16 1.3201519666942983e-17 1.5318036321847932e-16 0.20596454801147546 -0.978559453974173
12645674666.666666 0.19347932725624442 -0.9811043522094247 1.5162725208785004e-17 1.5296851808648174e-16 1.5162725208785004e-17 1.5296851808648174e-16 0.193480020267833 -0.9811042155433654
12646292000.0 0.18096338846388613 -0.9834898332140869 1.7120669312841345e-17 1.5273157650022915e-16 1.7120669312841345e-17 1.5273157650022915e-16 0.18096408312657913 -0.983489705395008
12646909333.333334 0.16841807221480817 -0.9857156552227679 1.9075031005143597e-17 1.5246958725378048e-16 1.9075031005143597e-17 1.5246958725378048e-16 0.16841876841567904 -0.9857155362705555
12647526666.666666 0.15584541510617794 -0.9877814568973174 2.1025490026591245e-17 1.5218260324412245e-16 2.1025490026591245e-17 1.5218260324412245e-16 0.15584611273206123 -0.9877813468304149
12648144000.0 0.14324745817354193 -0.989686902877179 2.2971726885343807e-17 1.5187068146086515e-16 2.2971726885343807e-17 1.5187068146086515e-16 0.1432481571110521 -0.9896868017125874
12648761333.333334 0.13062624655971078 -0.9914316838338006 2.491342290907544e-17 1.5153388297527086e-16 2.491342290907544e-17 1.5153388297527086e-16 0.13062694669526037 -0.9914315915870728
12649378666.666666 0.1179838291827531 -0.9930155165208543 2.6850260297108825e-17 1.5117227292861003e-16 2.6850260297108825e-17 1.5117227292861003e-16 0.11798453040257123 -0.9930154332060944
12649996000.0 0.10532225840309375 -0.9944381438202557 2.878192217239349e-17 1.5078592051984812e-16 2.878192217239349e-17 1.5078592051984812e-16 0.10532296059324478 -0.9944380694501176
12650613333.333334 0.09264358969050401 -0.9956993347838803 3.070809263323477e-17 1.503748989926848e-16 3.070809263323477e-17 1.503748989926848e-16 0.09264429273690578 -0.9956992693695635
12651230666.666666 0.0799498812906446 -0.9967988846710332 3.2628456804919643e-17 1.4993928562192017e-16 3.2628456804919643e-17 1.4993928562192017e-16 0.07995058507908709 -0.9967988282222827
12651848000.0 0.06724319389036593 -0.9977366149817426 3.45427008911442e-17 1.4947916169916127e-16 3.45427008911442e-17 1.4947916169916127e-16 0.06724389830652978 -0.9977365675068469
12652465333.333334 0.05452559028368677 -0.9985123734856863 3.6450512225218324e-17 1.4899461251787994e-16 3.6450512225218324e-17 1.4899461251787994e-16 0.05452629521316197 -0.9985123349914765
12653082666.666666 0.04179913503692272 -0.9991260342469159 3.8351579321005524e-17 1.4848572735783408e-16 3.8351579321005524e-17 1.4848572735783408e-16 0.041799840365227034 -0.9991260047387643
12653700000.0 0.029065894152958204 -0.9995774976443257 4.024559192385967e-17 1.4795259946878459e-16 4.024559192385967e-17 1.4795259946878459e-16 0.02906659976555588 -0.9995774771261469
12654317333.333334 0.016327934736648127 -0.9998666903877932 4.213224106105259e-17 1.4739532605363994e-16 4.213224106105259e-17 1.4739532605363994e-16 0.01632864051896838 -0.9998666788620401
12654934666.666666 0.003587324658677623 -0.9999935655300971 4.4011219092181565e-17 1.4681400825090216e-16 4.4011219092181565e-17 1.4681400825090216e-16 0.003588030496133333 -0.9999935629977639
12655552000.0 -0.009153867780134576 -0.9999581024745318 4.588221975928725e-17 1.4620875111648321e-16 4.588221975928725e-17 1.4620875111648321e-16 -0.00915316200212833 -0.9999581089351528
12656169333.333334 -0.021893574184091033 -0.9997603069782521 4.7744938236649775e-17 1.4557966360490864e-16 4.7744938236649775e-17 1.4557966360490864e-16 -0.021892868580098323 -0.9997603224299004
12656786666.666666 -0.0346297263989657 -0.9994002111513364 4.959907118045437e-17 1.4492685854984764e-16 4.959907118045437e-17 1.4492685854984764e-16 -0.03462902108351119 -0.9994002355906273
12657404000.0 -0.04736025684746243 -0.998877873451578 5.144431677806131e-17 1.4425045264405494e-16 5.144431677806131e-17 1.4425045264405494e-16 -0.047359551935012754 -0.9988779068736673
12658021333.333334 -0.06008309886492054 -0.9981933786749901 5.328037479714483e-17 1.435505664186387e-16 5.328037479714483e-17 1.435505664186387e-16 -0.060082394469865796 -0.9981934210735771
12658638666.666666 -0.07279618703481584 -0.997346837942045 5.510694663437273e-17 1.4282732422176945e-16 5.510694663437273e-17 1.4282732422176945e-16 -0.07279548327145098 -0.9973468893093717
12659256000.0 -0.08549745752405857 -0.9963383886796318 5.692373536405165e-17 1.4208085419667484e-16 5.692373536405165e-17 1.4208085419667484e-16 -0.08549675450656483 -0.9963384490064849
12659873333.333334 -0.09818484841803475 -0.995168194598748 5.873044578619273e-17 1.41311288259127e-16 5.873044578619273e-17 1.41311288259127e-16 -0.09818414626046112 -0.9951682638744608
12660490666.666666 -0.11085630005533538 -0.9938364456679202 6.052678447447772e-17 1.4051876207424037e-16 6.052678447447772e-17 1.4051876207424037e-16 -0.11085559887158024 -0.9938365238803751
12661108000.0 -0.12350975536212089 -0.9923433580823688 6.231245982386533e-17 1.3970341503267852e-16 6.231245982386533e-17 1.3970341503267852e-16 -0.12350905526591335 -0.9923434452179979
12661725333.333334 -0.1361431601860644 -0.9906891742289078 6.408718209781587e-17 1.388653902262868e-16 6.408718209781587e-17 1.388653902262868e-16 -0.13614246129094598 -0.9906892702726959
12662342666.666666 -0.14875446362982167 -0.9888741626465966 6.585066347526148e-17 1.3800483442309243e-16 6.585066347526148e-17 1.3800483442309243e-16 -0.1487537660491279 -0.988874267582085
12662960000.0 -0.16134161838397193 -0.986898617983146 6.760261809724314e-17 1.371218980417109e-16 6.760261809724314e-17 1.371218980417109e-16 -0.16134092223081392 -0.9868987317924338
12663577333.333334 -0.17390258105937678 -0.9847628609470863 6.934276211312744e-17 1.3621673512519727e-16 6.934276211312744e-17 1.3621673512519727e-16 -0.1739018864466228 -0.9847629836108334
12664194666.666666 -0.1864353125189021 -0.9824672382557004 7.107081372659285e-17 1.3528950331425524e-16 7.107081372659285e-17 1.3528950331425524e-16 -0.18643461955915933 -0.982467369753131
12664812000.0 -0.19893777820850594 -0.9800121225787299 7.278649324113539e-17 1.3434036381992738e-16 7.278649324113539e-17 1.3434036381992738e-16 -0.19893708701410243 -0.9800122628876372
12665429333.333334 -0.21140794848730357 -0.9773979124779189 7.448952310533471e-17 1.3336948139564375e-16 7.448952310533471e-17 1.3336948139564375e-16 -0.21140725917026976 -0.9773980615746679
12666046666.666666 -0.22384379895739231 -0.9746250323422473 7.617962795762703e-17 1.323770243087652e-16 7.617962795762703e-17 1.323770243087652e-16 -0.22384311162944306 -0.9746251902017785
12666664000.0 -0.2362433107922678 -0.971693932319078 7.785653467082156e-17 1.3136316431149095e-16 7.785653467082156e-17 1.3136316431149095e-16 -0.23624262556478387 -0.9716940989149111
12667281333.333334 -0.2486044710646138 -0.9686050882410683 7.95199723961195e-17 1.3032807661127043e-16 7.95199723961195e-17 1.3032807661127043e-16 -0.2486037880486247 -0.9686052635453094
12667898666.666666 -0.2609252730730808 -0.9653590015489283 8.116967260680828e-17 1.2927193984061783e-16 8.116967260680828e-17 1.2927193984061783e-16 -0.2609245923792456 -0.9653591855322702
12668516000.0 -0.2732037166680502 -0.9619561992100101 8.280536914160028e-17 1.281949360263469e-16 8.280536914160028e-17 1.281949360263469e-16 -0.27320303840664106 -0.9619563918417421
12669133333.333334 -0.2854378085763395 -0.9583972336327673 8.442679824738242e-17 1.2709725055837524e-16 8.442679824738242e-17 1.2709725055837524e-16 -0.28543713285722216 -0.9583974348807764
12669750666.666666 -0.297625562724787 -0.9546826825770741 8.603369862180884e-17 1.259790721578243e-16 8.603369862180884e-17 1.259790721578243e-16 -0.29762488965740425 -0.9546828924078515
12670368000.0 -0.309765000562724 -0.9508131490604138 8.762581145525473e-17 1.248405928447242e-16 8.762581145525473e-17 1.248405928447242e-16 -0.3097643302560772 -0.9508133674390612
