! Parameters = {f0=12700.012000; bw=77.238000; Q=6100.000000; N=10; m_0_1=1.239334; m_1_1=-0.174731; m_1_2=1.074146; m_2_2=-0.175380; m_2_3=0.711109; m_2_8=-0.000970; m_2_9=0.035734; m_3_3=-0.177317; m_3_4=0.599638; m_3_7=-0.000370; m_3_8=-0.097458; m_3_9=-0.000970; m_4_4=-0.180242; m_4_5=0.435973; m_4_6=0.003147; m_4_7=-0.118007; m_4_8=-0.000370; m_5_5=-0.179860; m_5_6=0.843328; m_5_7=0.003147; m_6_6=-0.179861; m_6_7=0.436315; m_7_7=-0.180228; m_7_8=0.599756; m_8_8=-0.177319; m_8_9=0.711422; m_9_9=-0.175385; m_9_10=1.075224; m_10_10=-0.174741; m_10_11=1.240129}
!
! Created with skrf (http://scikit-rf.org).
# Hz S RI R 50.0 
!freq ReS11 ImS11 ReS21 ImS21 ReS12 ImS12 ReS22 ImS22
12607400000.0 0.9035851478645657 0.4284085439838982 -9.435729049384356e-17 -1.4716742015543095e-17 -9.435729049384356e-17 -1.4716742015543095e-17 0.9035848681093909 0.4284091340337728
12608017333.333334 0.907663048541513 0.41969964297358886 -9.447716513330851e-17 -1.3797615808618628e-17 -9.447716513330851e-17 -1.3797615808618628e-17 0.9076627744867555 0.4197002356573524
12608634666.666666 0.9116570137752752 0.410951930563879 -9.458809325494912e-17 -1.2877549862692673e-17 -9.458809325494912e-17 -1.2877549862692673e-17 0.911656745445718 0.41095252582646824
12609252000.0 0.9155666742270527 0.40216621569277244 -9.46900679157093e-17 -1.1956631196654399e-17 -9.46900679157093e-17 -1.1956631196654399e-17 0.9155664116469473 0.40216681347889094
12609869333.333334 0.9193916683540789 0.3933433108124947 -9.478308301830735e-17 -1.1034946875607989e-17 -9.478308301830735e-17 -1.1034946875607989e-17 0.919391411547143 0.39334391106661826
12610486666.666666 0.9231316424429857 0.38448403181451873 -9.486713331147872e-17 -1.0112584002660866e-17 -9.486713331147872e-17 -1.0112584002660866e-17 0.923131391432401 0.3844846344809003
12611104000.0 0.9267862506426772 0.3755891979537227 -9.494221439014134e-17 -9.189629710681881e-18 -9.494221439014134e-17 -9.189629710681881e-18 0.9267860054510871 0.3755898029763979
12611721333.333334 0.9303551549960949 0.366659631773155 -9.500832269547594e-17 -8.266171154124747e-18 -9.500832269547594e-17 -8.266171154124747e-18 0.9303549156456022 0.36666023909594675
12612338666.666666 0.9338380254716189 0.3576961590276019 -9.506545551493147e-17 -7.342295500790477e-18 -9.506545551493147e-17 -7.342295500790477e-18 0.9338377919837858 0.3576967685941264
12612956000.0 0.9372345399935818 0.34869960860725374 -9.511361098214981e-17 -6.4180899236053156e-18 -9.511361098214981e-17 -6.4180899236053156e-18 0.9372343123894235 0.34870022036092446
12613573333.333334 0.9405443844719498 0.33967081246128983 -9.515278807680742e-17 -5.4936415924527936e-18 -9.515278807680742e-17 -5.4936415924527936e-18 0.9405441627719375 0.3396714263453243
12614190666.666666 0.9437672528314807 0.33061060552068244 -9.518298662438267e-17 -4.569037665930817e-18 -9.518298662438267e-17 -4.569037665930817e-18 0.9437670370555369 0.33061122147810634
12614808000.0 0.9469028470399592 0.3215198256211441 -9.520420729584005e-17 -3.644365283167162e-18 -9.520420729584005e-17 -3.644365283167162e-18 0.9469026372074572 0.32152044359479726
12615425333.333334 0.9499508771358115 0.3123993134255175 -9.521645160723611e-17 -2.7197115556237646e-18 -9.521645160723611e-17 -2.7197115556237646e-18 0.9499506732655717 0.3123999333580585
12616042666.666666 0.9529110612548564 0.3032499123461951 -9.52197219192462e-17 -1.7951635588959966e-18 -9.52197219192462e-17 -1.7951635588959966e-18 0.9529108633651481 0.30325053418010733
12616660000.0 0.9557831256564154 0.2940724684670195 -9.521402143661114e-17 -8.708083245455986e-19 -9.521402143661114e-17 -8.708083245455986e-19 0.9557829337649506 0.2940730921446158
12617277333.333334 0.9585668047486171 0.28486783046504033 -9.519935420750545e-17 5.326716808882277e-20 -9.519935420750545e-17 5.326716808882277e-20 0.9585666188725549 0.28486845592846954
12617894666.666666 0.9612618411129255 0.2756368495321719 -9.51757251228262e-17 9.769760000434095e-19 -9.51757251228262e-17 9.769760000434095e-19 0.9612616612688644 0.27563747672342254
12618512000.0 0.9638679855280272 0.26638037929617797 -9.51431399154021e-17 1.9002313209177802e-18 -9.51431399154021e-17 1.9002313209177802e-18 0.9638678117320068 0.26638100815708476
12619129333.333334 0.9663849969927606 0.2570992757421436 -9.510160515912552e-17 2.822946356983785e-18 -9.510160515912552e-17 2.822946356983785e-18 0.9663848292602604 0.2570999062143927
12619746666.666666 0.9688126427485129 0.24779439713293616 -9.505112826800318e-17 3.7450344193622876e-18 -9.505112826800318e-17 3.7450344193622876e-18 0.9688124810944496 0.24779502915807036
12620364000.0 0.971150698300693 0.23846660393000074 -9.499171749512961e-17 4.6664089121346605e-18 -9.499171749512961e-17 4.6664089121346605e-18 0.9711505427394207 0.238467237449425
12620981333.333334 0.9733989474394636 0.22911675871392922 -9.492338193158321e-17 5.586983340445146e-18 -9.492338193158321e-17 5.586983340445146e-18 0.9733987979847704 0.2291173936689159
12621598666.666666 0.9755571822597908 0.21974572610444454 -9.484613150524064e-17 6.50667131862825e-18 -9.484613150524064e-17 6.50667131862825e-18 0.9755570389248993 0.21974636243613907
12622216000.0 0.9776252031806413 0.2103543726805843 -9.475997697951599e-17 7.425386578284959e-18 -9.475997697951599e-17 7.425386578284959e-18 0.977625065978207 0.21035501033001064
12622833333.333334 0.9796028189634479 0.20094356690050877 -9.466492995202e-17 8.343042976360882e-18 -9.466492995202e-17 8.343042976360882e-18 0.9796026879055579 0.2009442058085747
12623450666.666666 0.9814898467297659 0.19151417902133008 -9.456100285314239e-17 9.259554503206816e-18 -9.456100285314239e-17 9.259554503206816e-18 0.9814897218279377 0.1915148191288328
12624068000.0 0.9832861119782368 0.18206708101838537 -9.444820894455569e-17 1.0174835290620852e-17 -9.444820894455569e-17 1.0174835290620852e-17 0.983285993243419 0.18206772226601725
12624685333.333334 0.9849914486006953 0.1726031465047406 -9.432656231764003e-17 1.1088799619890118e-17 -9.432656231764003e-17 1.1088799619890118e-17 0.9849913360432635 0.172603788833094
12625302666.666666 0.9866056988974989 0.16312325065057143 -9.41960778918361e-17 1.2001361929772496e-17 -9.41960778918361e-17 1.2001361929772496e-17 0.986605592527258 0.16312389400014488
12625920000.0 0.9881287135921861 0.1536282701018418 -9.405677141291124e-17 1.291243682452724e-17 -9.405677141291124e-17 1.291243682452724e-17 0.9881286134183657 0.15362891441304483
12626537333.333334 0.9895603518452032 0.14411908289962722 -9.390865945115793e-17 1.3821939081862743e-17 -9.390865945115793e-17 1.3821939081862743e-17 0.9895602578764612 0.14411972811278675
12627154666.666666 0.9909004812669705 0.13459656839875264 -9.375175939951141e-17 1.4729783660891597e-17 -9.375175939951141e-17 1.4729783660891597e-17 0.9909003935113886 0.1345972144541176
12627772000.0 0.9921489779301313 0.12506160718633197 -9.358608947158608e-17 1.5635885710092045e-17 -9.358608947158608e-17 1.5635885710092045e-17 0.9921488963952177 0.1250622540240797
12628389333.333334 0.9933057263809837 0.11551508100061968 -9.341166869964695e-17 1.6540160575182086e-17 -9.341166869964695e-17 1.6540160575182086e-17 0.9933056510736691 0.1155157285608606
12629006666.666666 0.9943706196501808 0.10595787264921765 -9.322851693249034e-17 1.744252380705149e-17 -9.322851693249034e-17 1.744252380705149e-17 0.9943705505768207 0.10595852087200154
12629624000.0 0.9953435592626065 0.09639086592763674 -9.303665483326224e-17 1.8342891169599937e-17 -9.303665483326224e-17 1.8342891169599937e-17 0.9953434964289778 0.09639151475295778
12630241333.333334 0.996224455246491 0.08681494553742669 -9.283610387718917e-17 1.9241178647610137e-17 -9.283610387718917e-17 1.9241178647610137e-17 0.9962243986577942 0.08681559490522929
12630858666.666666 0.997013226141719 0.07723099700453392 -9.262688634924561e-17 2.01373024545391e-17 -9.262688634924561e-17 2.01373024545391e-17 0.9970131758025769 0.07723164685471827
12631476000.0 0.9977097990073911 0.06763990659710217 -9.240902534173103e-17 2.1031179040355953e-17 -9.240902534173103e-17 2.1031179040355953e-17 0.9977097549218469 0.06764055686952959
12632093333.333334 0.998314109428531 0.05804256124391137 -9.218254475178838e-17 2.1922725099278086e-17 -9.218254475178838e-17 2.1922725099278086e-17 0.9983140716000505 0.058043211878410106
12632710666.666666 0.9988261015220682 0.04843984845207672 -9.194746927883645e-17 2.2811857577533967e-17 -9.194746927883645e-17 2.2811857577533967e-17 0.9988260699535383 0.04844049938844743
12633328000.0 0.9992457279420032 0.03883265622500536 -9.170382442192808e-17 2.369849368109373e-17 -9.170382442192808e-17 2.369849368109373e-17 0.9992457026357302 0.0388333074030266
12633945333.333334 0.9995729498837737 0.02922187298042066 -9.145163647704057e-17 2.4582550883348914e-17 -9.145163647704057e-17 2.4582550883348914e-17 0.9995729308414865 0.029222524339854603
12634562666.666666 0.999807737087853 0.019608387468093097 -9.119093253428884e-17 2.5463946932774333e-17 -9.119093253428884e-17 2.5463946932774333e-17 0.9998077243107001 0.019609038948690986
12635180000.0 0.9999500678425464 0.009993088687682172 -9.092174047506351e-17 2.6342599860571784e-17 -9.092174047506351e-17 2.6342599860571784e-17 0.9999500613310968 0.009993740229189935
12635797333.333334 0.9999999289859954 0.000376865806498372 -9.064408896909591e-17 2.7218427988275886e-17 -9.064408896909591e-17 2.7218427988275886e-17 0.9999999287402396 0.00037751734866220475
12636414666.666666 0.9999573159074004 -0.009239391922579715 -9.035800747145475e-17 2.8091349935319786e-17 -9.035800747145475e-17 2.8091349935319786e-17 0.9999573219267485 -0.009238740440007798
12637032000.0 0.9998222325474434 -0.01885479524362264 -9.006352621946202e-17 2.89612846265927e-17 -9.006352621946202e-17 2.89612846265927e-17 0.9998222448307256 -0.018854143880879207
12637649333.333334 0.9995946913979221 -0.028468454979599087 -8.976067622954082e-17 2.982815129995304e-17 -8.976067622954082e-17 2.982815129995304e-17 0.9995947099433917 -0.02846780379690377
12638266666.666666 0.9992747135005997 -0.038079482114743976 -8.944948929399484e-17 3.0691869513696256e-17 -8.944948929399484e-17 3.0691869513696256e-17 0.9992747383059296 -0.038078831172293846
12638884000.0 0.9988623284452552 -0.0476869878767411 -8.912999797770911e-17 3.155235915401274e-17 -8.912999797770911e-17 3.155235915401274e-17 0.9988623595075403 -0.04768633723470516
12639501333.333334 0.9983575743669455 -0.057290083818939935 -8.88022356147823e-17 3.240954044240166e-17 -8.88022356147823e-17 3.240954044240166e-17 0.9983576116827032 -0.05728943353745356
12640118666.666666 0.9977604979424929 -0.06688788190234406 -8.846623630509491e-17 3.3263333943032785e-17 -8.846623630509491e-17 3.3263333943032785e-17 0.9977605415076604 -0.0668872320415033
12640736000.0 0.9970711543861366 -0.07647949457815705 -8.812203491078e-17 3.4113660570140716e-17 -8.812203491078e-17 3.4113660570140716e-17 0.9970712041960751 -0.07647884519801328
12641353333.333334 0.9962896074444676 -0.08606403486929087 -8.776966705267362e-17 3.4960441595258546e-17 -8.776966705267362e-17 3.4960441595258546e-17 0.9962896634939615 -0.08606338602984513
12641970666.666666 0.995415929390503 -0.09564061645281366 -8.740916910663949e-17 3.580359865455195e-17 -8.740916910663949e-17 3.580359865455195e-17 0.9954159916737603 -0.09563996821401118
12642588000.0 0.9944502010170169 -0.10520835374174176 -8.704057819986115e-17 3.664305375602684e-17 -8.704057819986115e-17 3.664305375602684e-17 0.9944502695276698 -0.10520770616346636
12643205333.333334 0.9933925116290676 -0.11476636196693359 -8.666393220705212e-17 3.747872928672865e-17 -8.666393220705212e-17 3.747872928672865e-17 0.9933925863601725 -0.11476571510900212
12643822666.666666 0.9922429590357287 -0.12431375725902123 -8.627926974659514e-17 3.8310548019908296e-17 -8.627926974659514e-17 3.8310548019908296e-17 0.9922430399797667 -0.124313111181178
12644440000.0 0.9910016495410557 -0.13384965673000382 -8.5886630176617e-17 3.913843312213891e-17 -8.5886630176617e-17 3.913843312213891e-17 0.9910017366899365 -0.1338490114919154
12645057333.333334 0.9896686979342637 -0.14337317855489273 -8.548605359100037e-17 3.9962308160383386e-17 -8.548605359100037e-17 3.9962308160383386e-17 0.9896687912793217 -0.143372534216142
12645674666.666666 0.9882442274790922 -0.1528834420533701 -8.507758081531733e-17 4.0782097109043135e-17 -8.507758081531733e-17 4.0782097109043135e-17 0.9882443270110919 -0.15288279867345117
12646292000.0 0.9867283699024029 -0.16237956777125673 -8.466125340269313e-17 4.1597724356970477e-17 -8.466125340269313e-17 4.1597724356970477e-17 0.9867284756115363 -0.16237892540956916
12646909333.333334 0.9851212653820363 -0.17186067756158654 -8.423711362962566e-17 4.240911471439367e-17 -8.423711362962566e-17 4.240911471439367e-17 0.9851213772579259 -0.17186003627742996
12647526666.666666 0.9834230625338133 -0.18132589466606538 -8.380520449171255e-17 4.3216193419852464e-17 -8.380520449171255e-17 4.3216193419852464e-17 0.9834231805655107 -0.1813252545186338
12648144000.0 0.9816339183977869 -0.19077434379611935 -8.336556969931851e-17 4.40188861470759e-17 -8.336556969931851e-17 4.40188861470759e-17 0.981634042573778 -0.1907737048444961
12648761333.333334 0.9797539984237483 -0.2002051512137254 -8.29182536731938e-17 4.4817119011785755e-17 -8.29182536731938e-17 4.4817119011785755e-17 0.9797541287319503 -0.2002045135168775
12649378666.666666 0.9777834764559301 -0.20961744481218184 -8.246330154001044e-17 4.561081857848922e-17 -8.246330154001044e-17 4.561081857848922e-17 0.9777836128836953 -0.20961680842895453
12649996000.0 0.9757225347168808 -0.21901035419700637 -8.200075912783293e-17 4.6399911867226155e-17 -8.200075912783293e-17 4.6399911867226155e-17 0.9757226772509957 -0.21900971918611745
12650613333.333334 0.9735713637906628 -0.22838301076617418 -8.153067296153534e-17 4.718432636025233e-17 -8.153067296153534e-17 4.718432636025233e-17 0.9735715124173513 -0.2283823771862089
12651230666.666666 0.9713301626052323 -0.23773454779044195 -8.105309025814974e-17 4.796399000868606e-17 -8.105309025814974e-17 4.796399000868606e-17 0.9713303173101573 -0.23773391569984792
12651848000.0 0.968999138413987 -0.24706410049374763 -8.056805892214473e-17 4.873883123911668e-17 -8.056805892214473e-17 4.873883123911668e-17 0.9689992991822489 -0.24706346995082845
12652465333.333334 0.9665785067766532 -0.2563708061329294 -8.007562754065495e-17 4.9508778960145803e-17 -8.007562754065495e-17 4.9508778960145803e-17 0.9665786735927945 -0.2563701771958403
12653082666.666666 0.9640684915393624 -0.2656538040775097 -7.957584537864192e-17 5.027376256888961e-17 -7.957584537864192e-17 5.027376256888961e-17 0.964068664387367 -0.26565317680425155
12653700000.0 0.961469324813878 -0.27491223588952696 -7.906876237397705e-17 5.103371195745713e-17 -7.906876237397705e-17 5.103371195745713e-17 0.9614695036771749 -0.27491161033794126
12654317333.333334 0.9587812469562093 -0.28414524540264524 -7.855442913249969e-17 5.1788557519323395e-17 -7.855442913249969e-17 5.1788557519323395e-17 0.9587814318176717 -0.2841446216304086
12654934666.666666 0.9560045065443543 -0.29335197880143743 -7.803289692297224e-17 5.2538230155718305e-17 -7.803289692297224e-17 5.2538230155718305e-17 0.9560046973863027 -0.2933513568660561
12655552000.0 0.953139360355278 -0.30253158470044955 -7.750421767200286e-17 5.328266128191931e-17 -7.750421767200286e-17 5.328266128191931e-17 0.9531395571594823 -0.3025309646592548
12656169333.333334 0.950186073341251 -0.3116832142226598 -7.696844395890876e-17 5.402178283349713e-17 -7.696844395890876e-17 5.402178283349713e-17 0.9501862760889308 -0.3116825961328017
12656786666.666666 0.9471449186052651 -0.32080602107825057 -7.642562901049775e-17 5.4755527272539926e-17 -7.642562901049775e-17 5.4755527272539926e-17 0.9471451272770927 -0.3208054049966933
12657404000.0 0.94401617737582 -0.3298991616427316 -7.587582669581395e-17 5.548382759379282e-17 -7.587582669581395e-17 5.548382759379282e-17 0.9440163919519219 -0.3298985476262483
12658021333.333334 0.940800138980908 -0.3389617950349811 -7.53190915208063e-17 5.620661733077081e-17 -7.53190915208063e-17 5.620661733077081e-17 0.9408003594408666 -0.3389611831401484
12658638666.666666 0.9374971008212689 -0.34799308319497885 -7.47554786229667e-17 5.692383056178246e-17 -7.47554786229667e-17 5.692383056178246e-17 0.9374973271441241 -0.34799247347817136
12659256000.0 0.9341073683428491 -0.35699219096141205 -7.41850437658702e-17 5.763540191595297e-17 -7.41850437658702e-17 5.763540191595297e-17 0.9341076005071012 -0.3569915834787976
12659873333.333334 0.930631255008603 -0.36595828614877207 -7.360784333369725e-17 5.834126657914203e-17 -7.360784333369725e-17 5.834126657914203e-17 0.930631492992213 -0.36595768095630626
12660490666.666666 0.9270690822695178 -0.37489053962428426 -7.302393432568396e-17 5.904136029982872e-17 -7.302393432568396e-17 5.904136029982872e-17 0.9270693260499134 -0.37488993677770627
12661108000.0 0.9234211795347875 -0.38378812538484763 -7.243337435050087e-17 5.973561939495909e-17 -7.243337435050087e-17 5.973561939495909e-17 0.9234214290888602 -0.3837875249396733
12661725333.333334 0.9196878841414914 -0.3926502206330463 -7.183622162060895e-17 6.04239807556992e-17 -7.183622162060895e-17 6.04239807556992e-17 0.9196881394456022 -0.3926496226445646
12662342666.666666 0.9158695413232996 -0.4014760058535034 -7.12325349465352e-17 6.110638185316232e-17 -7.12325349465352e-17 6.110638185316232e-17 0.9158698023532802 -0.4014754103767707
12662960000.0 0.9119665041785512 -0.4102646648886359 -7.06223737311049e-17 6.178276074406737e-17 -7.06223737311049e-17 6.178276074406737e-17 0.9119667709097065 -0.41026407197847115
12663577333.333334 0.9079791336376639 -0.41901538501399976 -7.000579796361815e-17 6.24530560763419e-17 -7.000579796361815e-17 6.24530560763419e-17 0.9079794060447722 -0.4190147947249784
12664194666.666666 0.9039077984297057 -0.4277273570135483 -6.938286821397382e-17 6.311720709466718e-17 -6.938286821397382e-17 6.311720709466718e-17 0.9039080764870246 -0.4277267693999988
12664812000.0 0.8997528750483141 -0.43639977525443957 -6.875364562674284e-17 6.377515364596322e-17 -6.875364562674284e-17 6.377515364596322e-17 0.8997531587295813 -0.4363991903704377
12665429333.333334 0.8955147477168649 -0.4450318377615609 -6.811819191517875e-17 6.442683618482642e-17 -6.811819191517875e-17 6.442683618482642e-17 0.8955150369953 -0.44503125566092455
12666046666.666666 0.8911938083530047 -0.4536227462915646 -6.747656935520646e-17 6.507219577887708e-17 -6.747656935520646e-17 6.507219577887708e-17 0.8911941032013121 -0.453622167027849
12666664000.0 0.8867904565322814 -0.46217170640693805 -6.682884077931229e-17 6.571117411409702e-17 -6.682884077931229e-17 6.571117411409702e-17 0.8867907569226544 -0.46217113003343124
12667281333.333334 0.8823050994513226 -0.4706779275492157 -6.61750695704399e-17 6.634371350004977e-17 -6.61750695704399e-17 6.634371350004977e-17 0.8823054053554433 -0.4706773541189328
12667898666.666666 0.8777381518901284 -0.4791406231121865 -6.551531965579209e-17 6.696975687508557e-17 -6.551531965579209e-17 6.696975687508557e-17 0.8777384632791734 -0.479140052677866
12668516000.0 0.8730900361736612 -0.48755901051473516 -6.484965550059226e-17 6.758924781147513e-17 -6.484965550059226e-17 6.758924781147513e-17 0.8730903530183011 -0.4875584431288325
12669133333.333334 0.8683611821329265 -0.4959323112729595 -6.417814210183508e-17 6.820213052044731e-17 -6.417814210183508e-17 6.820213052044731e-17 0.8683615044033314 -0.495931746987644
12669750666.666666 0.8635520270650879 -0.5042597510724113 -6.350084498193315e-17 6.88083498572176e-17 -6.350084498193315e-17 6.88083498572176e-17 0.863552354730929 -0.5042591899395599
12670368000.0 0.8586630156930851 -0.5125405598395995 -6.281783018235343e-17 6.94078513259192e-17 -6.281783018235343e-17 6.94078513259192e-17 0.8586633487235367 -0.5125400019107926
