! Parameters = {f0=12700.012000; bw=77.238000; Q=6100.000000; N=10; m_0_1=1.190686; m_1_1=-0.904460; m_1_2=1.025498; m_2_2=-0.905109; m_2_3=0.662461; m_2_8=-0.003402; m_2_9=0.033302; m_3_3=-0.907046; m_3_4=0.550990; m_3_7=-0.002802; m_3_8=-0.099890; m_3_9=-0.003402; m_4_4=-0.909971; m_4_5=0.387325; m_4_6=0.000715; m_4_7=-0.120439; m_4_8=-0.002802; m_5_5=-0.909589; m_5_6=0.794680; m_5_7=0.000715; m_6_6=-0.909590; m_6_7=0.387667; m_7_7=-0.909957; m_7_8=0.551108; m_8_8=-0.907048; m_8_9=0.662774; m_9_9=-0.905114; m_9_10=1.026576; m_10_10=-0.904470; m_10_11=1.191481}
!
! Created with skrf (http://scikit-rf.org).
# Hz S RI R 50.0 
!freq ReS11 ImS11 ReS21 ImS21 ReS12 ImS12 ReS22 ImS22
12607400000.0 -0.011956018303445368 -0.9999285242586949 2.2137334449800164e-17 7.157275891862376e-17 2.2137334449800164e-17 7.157275891862376e-17 -0.011955390887602103 -0.9999285317604301
12608017333.333334 -0.0201331501073317 -0.9997973075911936 2.27238039661425e-17 7.137332564626389e-17 2.27238039661425e-17 7.137332564626389e-17 -0.02013252280454125 -0.9997973202231388
12608634666.666666 -0.028308935349451676 -0.9995992217780206 2.3308490445650887e-17 7.116909165599267e-17 2.3308490445650887e-17 7.116909165599267e-17 -0.028308308201656616 -0.9995992395388288
12609252000.0 -0.03648282721125328 -0.9993342800677457 2.3891354630835682e-17 7.096007278518987e-17 2.3891354630835682e-17 7.096007278518987e-17 -0.03648220026038169 -0.9993343029557259
12609869333.333334 -0.04465427900073428 -0.9990025001804398 2.447235740409152e-17 7.074628519192233e-17 2.447235740409152e-17 7.074628519192233e-17 -0.044653652288697034 -0.9990025281935603
12610486666.666666 -0.052822744189092025 -0.9986039043064964 2.505145979028813e-17 7.052774535372391e-17 2.505145979028813e-17 7.052774535372391e-17 -0.052822117757779855 -0.9986039374423814
12611104000.0 -0.06098767644736166 -0.9981385191051376 2.562862295941446e-17 7.030447006633116e-17 2.562862295941446e-17 7.030447006633116e-17 -0.06098705033864243 -0.998138557361069
12611721333.333334 -0.06914852968278573 -0.9976063757026379 2.6203808229130022e-17 7.00764764424278e-17 2.6203808229130022e-17 7.00764764424278e-17 -0.06914790393850172 -0.9976064190755574
12612338666.666666 -0.07730475807539555 -0.9970075096902483 2.6776977067384904e-17 6.98437819103385e-17 2.6776977067384904e-17 6.98437819103385e-17 -0.0773041327373604 -0.997007558176752
12612956000.0 -0.08545581611474326 -0.9963419611217872 2.7348091094976523e-17 6.960640421272046e-17 2.7348091094976523e-17 6.960640421272046e-17 -0.08545519122473949 -0.9963420147181329
12613573333.333334 -0.09360115863590575 -0.9956097745110085 2.7917112088109345e-17 6.936436140522998e-17 2.7917112088109345e-17 6.936436140522998e-17 -0.09360053423568179 -0.9956098332131116
12614190666.666666 -0.10174024085645661 -0.9948109988285793 2.848400198094839e-17 6.911767185516471e-17 2.848400198094839e-17 6.911767185516471e-17 -0.10173961698772403 -0.9948110626320135
12614808000.0 -0.10987251841256257 -0.9939456874988322 2.90487228681633e-17 6.88663542400849e-17 2.90487228681633e-17 6.88663542400849e-17 -0.10987189511699334 -0.9939457563988312
12615425333.333334 -0.11799744739550573 -0.9930138983961855 2.961123700744054e-17 6.86104275464219e-17 2.961123700744054e-17 6.86104275464219e-17 -0.1179968247147294 -0.9930139723876426
12616042666.666666 -0.12611448438814588 -0.9920156938412599 3.017150682201304e-17 6.83499110680538e-17 3.017150682201304e-17 6.83499110680538e-17 -0.12611386236374683 -0.9920157729187283
12616660000.0 -0.13422308650106854 -0.9909511405967356 3.0729494903146253e-17 6.808482440487421e-17 3.0729494903146253e-17 6.808482440487421e-17 -0.1342224651745831 -0.9909512247544287
12617277333.333334 -0.14232271140914815 -0.9898203098628524 3.128516401264474e-17 6.781518746132578e-17 3.128516401264474e-17 6.781518746132578e-17 -0.142322090822062 -0.9898203990946443
12617894666.666666 -0.15041281738745457 -0.9886232772726995 3.183847708530379e-17 6.754102044493336e-17 3.183847708530379e-17 6.754102044493336e-17 -0.15041219758119992 -0.9886233715721262
12618512000.0 -0.15849286334801957 -0.9873601228870806 3.23893972314096e-17 6.726234386478776e-17 3.23893972314096e-17 6.726234386478776e-17 -0.15849224436397222 -0.9873602222473393
12619129333.333334 -0.16656230887540752 -0.9860309311892492 3.2937887739148055e-17 6.697917853004736e-17 3.2937887739148055e-17 6.697917853004736e-17 -0.16656169075488444 -0.9860310356032
12619746666.666666 -0.1746206142633661 -0.9846357910791838 3.348391207707684e-17 6.669154554838245e-17 3.348391207707684e-17 6.669154554838245e-17 -0.17461999704762207 -0.9846359005393478
12620364000.0 -0.18266724055069772 -0.9831747958676725 3.402743389653457e-17 6.639946632442436e-17 3.402743389653457e-17 6.639946632442436e-17 -0.18266662428092342 -0.9831749103662362
12620981333.333334 -0.19070164955727945 -0.9816480432700805 3.45684170340501e-17 6.610296255818839e-17 3.45684170340501e-17 6.610296255818839e-17 -0.19070103427459817 -0.9816481627988938
12621598666.666666 -0.1987233039201142 -0.9800556353998067 3.510682551374369e-17 6.580205624347415e-17 3.510682551374369e-17 6.580205624347415e-17 -0.19872268966557913 -0.980055759950383
12622216000.0 -0.20673166712935426 -0.978397678761434 3.564262354971635e-17 6.54967696662454e-17 3.564262354971635e-17 6.54967696662454e-17 -0.20673105394394567 -0.978397808324952
12622833333.333334 -0.21472620356401703 -0.976674284243641 3.6175775548408323e-17 6.518712540299945e-17 3.6175775548408323e-17 6.518712540299945e-17 -0.21472559148863987 -0.9766744188109453
12623450666.666666 -0.22270637852792066 -0.9748855671117622 3.67062461109607e-17 6.487314631910912e-17 3.67062461109607e-17 6.487314631910912e-17 -0.2227057676034018 -0.9748857066733643
12624068000.0 -0.23067165828536304 -0.9730316470000994 3.723400003556026e-17 6.455485556714511e-17 3.723400003556026e-17 6.455485556714511e-17 -0.23067104855244783 -0.9730317915461754
12624685333.333334 -0.23862151009706734 -0.9711126479038571 3.775900231976315e-17 6.423227658518486e-17 3.775900231976315e-17 6.423227658518486e-17 -0.2386209015964179 -0.9711127974242528
12625302666.666666 -0.24655540225531636 -0.9691286981709722 3.828121816280214e-17 6.390543309510334e-17 3.828121816280214e-17 6.390543309510334e-17 -0.24655479502750866 -0.9691288526552022
12625920000.0 -0.2544728041201501 -0.9670799304933755 3.880061296789704e-17 6.357434910083401e-17 3.880061296789704e-17 6.357434910083401e-17 -0.25447219820567046 -0.9670800899306216
12626537333.333334 -0.26237318615424865 -0.9649664818982647 3.9317152344527187e-17 6.323904888662576e-17 3.9317152344527187e-17 6.323904888662576e-17 -0.26237258159349164 -0.9649666462773787
12627154666.666666 -0.270256019958735 -0.9627884937388435 3.983080211069597e-17 6.289955701527692e-17 3.983080211069597e-17 6.289955701527692e-17 -0.27025541679200094 -0.9627886630483489
12627772000.0 -0.27812077830846066 -0.96054611168488 4.034152829520887e-17 6.255589832633284e-17 4.034152829520887e-17 6.255589832633284e-17 -0.278120176575953 -0.9605462859129728
12628389333.333334 -0.28596693518710414 -0.9582394857130129 4.0849297139872e-17 6.220809793430612e-17 4.0849297139872e-17 6.220809793430612e-17 -0.28596633492892626 -0.9582396648475593
12629006666.666666 -0.29379396582257056 -0.955868770096655 4.1354075101755355e-17 6.185618122682746e-17 4.1354075101755355e-17 6.185618122682746e-17 -0.2937933670787227 -0.9558689541251938
12629624000.0 -0.3016013467218707 -0.953434123395738 4.185582885536583e-17 6.150017386282679e-17 4.185582885536583e-17 6.150017386282679e-17 -0.30160074953224886 -0.9534343123054838
12630241333.333334 -0.3093885557063529 -0.9509357084460451 4.2354525294863e-17 6.114010177065824e-17 4.2354525294863e-17 6.114010177065824e-17 -0.30938796011074476 -0.9509359022238867
12630858666.666666 -0.3171550719464099 -0.9483736923483866 4.285013153621005e-17 6.077599114624101e-17 4.285013153621005e-17 6.077599114624101e-17 -0.31715447798449276 -0.948373890980888
12631476000.0 -0.3249003759965567 -0.945748246457344 4.334261491936551e-17 6.040786845114179e-17 4.334261491936551e-17 6.040786845114179e-17 -0.32489978370789446 -0.9457484499307459
12632093333.333334 -0.3326239498298757 -0.9430595463699085 4.3831943010390525e-17 6.003576041069002e-17 4.3831943010390525e-17 6.003576041069002e-17 -0.33262335925391684 -0.9430597546701297
12632710666.666666 -0.34032527687290676 -0.9403077719136566 4.43180836035995e-17 5.965969401203188e-17 4.43180836035995e-17 5.965969401203188e-17 -0.3403246880489812 -0.9403079850262939
12633328000.0 -0.3480038420401425 -0.9374931071347379 4.4801004723665303e-17 5.927969650218831e-17 4.4801004723665303e-17 5.927969650218831e-17 -0.34800325500745916 -0.9374933250450683
12633945333.333334 -0.3556591317684517 -0.9346157402855765 4.528067462771145e-17 5.889579538609384e-17 4.528067462771145e-17 5.889579538609384e-17 -0.3556585465660961 -0.9346159629785578
12634562666.666666 -0.36329063405134837 -0.9316758638123098 4.575706180738421e-17 5.850801842462108e-17 4.575706180738421e-17 5.850801842462108e-17 -0.3632900507182797 -0.9316760912725813
12635180000.0 -0.3708978384734224 -0.9286736743418484 4.623013499092456e-17 5.811639363257552e-17 4.623013499092456e-17 5.811639363257552e-17 -0.3708972570484705 -0.9286739065537303
12635797333.333334 -0.37848023624428984 -0.9256093726687903 4.669986314519985e-17 5.772094927669186e-17 4.669986314519985e-17 5.772094927669186e-17 -0.3784796567661541 -0.9256096096162894
12636414666.666666 -0.3860373202327319 -0.9224831637419607 4.7166215477736945e-17 5.732171387360008e-17 4.7166215477736945e-17 5.732171387360008e-17 -0.38603674273997696 -0.9224834054087664
12637032000.0 -0.3935685850005567 -0.9192952566507151 4.762916143872765e-17 5.691871618778232e-17 4.762916143872765e-17 5.691871618778232e-17 -0.39356800953161114 -0.9192955030202047
12637649333.333334 -0.40107352683651243 -0.91604586461092 4.808867072302705e-17 5.65119852295063e-17 4.808867072302705e-17 5.65119852295063e-17 -0.4010729534296651 -0.9160461156661555
12638266666.666666 -0.40855164378979025 -0.9127352049507603 4.854471327211638e-17 5.61015502527573e-17 4.854471327211638e-17 5.61015502527573e-17 -0.40855107248318917 -0.9127354606744945
12638884000.0 -0.41600243570380807 -0.9093634990961228 4.899725927607236e-17 5.568744075313379e-17 4.899725927607236e-17 5.568744075313379e-17 -0.4160018665354567 -0.9093637594707968
12639501333.333334 -0.4234254042494789 -0.9059309725558621 4.9446279175495e-17 5.5269686465748395e-17 4.9446279175495e-17 5.5269686465748395e-17 -0.423424837257234 -0.9059312375636078
12640118666.666666 -0.4308200529585929 -0.9024378549066971 4.9891743663431855e-17 5.4848317363100654e-17 4.9891743663431855e-17 5.4848317363100654e-17 -0.4308194881801618 -0.902438124529338
12640736000.0 -0.43818588725722746 -0.8988843797777571 5.033362368729302e-17 5.442336365292536e-17 5.033362368729302e-17 5.442336365292536e-17 -0.43818532473016597 -0.89888465399681
12641353333.333334 -0.445522414498415 -0.8952707848351517 5.077189045071181e-17 5.399485577606096e-17 5.077189045071181e-17 5.399485577606096e-17 -0.44552185426012486 -0.8952710636318285
12641970666.666666 -0.4528291439954278 -0.8915973117659198 5.120651541543111e-17 5.356282440426028e-17 5.120651541543111e-17 5.356282440426028e-17 -0.45282858608315363 -0.8915975951211272
12642588000.0 -0.4601055870545416 -0.8878642062618822 5.163747030314863e-17 5.3127300438008515e-17 5.163747030314863e-17 5.3127300438008515e-17 -0.4601050315053692 -0.8878644941562246
12643205333.333334 -0.46735125700757113 -0.8840717180032905 5.206472709733613e-17 5.268831500433344e-17 5.206472709733613e-17 5.268831500433344e-17 -0.4673507038584246 -0.8840720104170703
12643822666.666666 -0.4745656692445956 -0.8802201006420355 5.248825804506874e-17 5.224589945457351e-17 5.248825804506874e-17 5.224589945457351e-17 -0.47456511853223493 -0.880220397555255
12644440000.0 -0.48174834124629534 -0.8763096117847214 5.290803565879799e-17 5.180008536216802e-17 5.290803565879799e-17 5.180008536216802e-17 -0.48174779300731374 -0.8763099131770838
12645057333.333334 -0.4888987926161979 -0.8723405129754483 5.332403271813891e-17 5.135090452040057e-17 5.332403271813891e-17 5.135090452040057e-17 -0.48889824688702016 -0.8723408188263597
12645674666.666666 -0.4960165451127622 -0.8683130696783538 5.3736222271613355e-17 5.089838894015404e-17 5.3736222271613355e-17 5.089838894015404e-17 -0.49601600192964024 -0.8683133799669219
12646292000.0 -0.5031011226815825 -0.8642275512597226 5.4144577638406865e-17 5.044257084761586e-17 5.4144577638406865e-17 5.044257084761586e-17 -0.5031005820805964 -0.864227865964764
12646909333.333334 -0.5101520514869617 -0.8600842309701363 5.4549072410055677e-17 4.998348268202574e-17 5.4549072410055677e-17 4.998348268202574e-17 -0.5101515135040141 -0.8600845500701715
12647526666.666666 -0.5171688599437956 -0.8558833859260738 5.494968045216926e-17 4.952115709334863e-17 5.494968045216926e-17 4.952115709334863e-17 -0.517168324614611 -0.855883709399333
12648144000.0 -0.5241510787490423 -0.8516252970914275 5.534637590609573e-17 4.905562693997663e-17 5.534637590609573e-17 4.905562693997663e-17 -0.5241505461091637 -0.8516256249158491
12648761333.333334 -0.5310982409130601 -0.8473102492587353 5.573913319058571e-17 4.858692528639705e-17 5.573913319058571e-17 4.858692528639705e-17 -0.531097710997848 -0.8473105814119707
12649378666.666666 -0.5380098817909156 -0.8429385310300929 5.61279270034204e-17 4.8115085400866476e-17 5.61279270034204e-17 4.8115085400866476e-17 -0.5380093546355446 -0.8429388674895054
12649996000.0 -0.5448855391134129 -0.8385104347978815 5.651273232304697e-17 4.764014075303973e-17 5.651273232304697e-17 4.764014075303973e-17 -0.5448850147528691 -0.8385107755405479
12650613333.333334 -0.5517247530181276 -0.8340262567251304 5.689352441016979e-17 4.71621250116149e-17 5.689352441016979e-17 4.71621250116149e-17 -0.5517242314872072 -0.834026601727844
12651230666.666666 -0.5585270660798806 -0.8294862967258995 5.727027880932053e-17 4.6681072041967464e-17 5.727027880932053e-17 4.6681072041967464e-17 -0.5585265474131875 -0.8294866459651715
12651848000.0 -0.5652920233417595 -0.8248908584449383 5.764297135044035e-17 4.619701590373285e-17 5.764297135044035e-17 4.619701590373285e-17 -0.5652915075737016 -0.8248912118969972
12652465333.333334 -0.5720191723451412 -0.8202402492376398 5.801157815039663e-17 4.570999084843208e-17 5.801157815039663e-17 4.570999084843208e-17 -0.5720186595099307 -0.8202406068784375
12653082666.666666 -0.5787080631601486 -0.8155347801493671 5.837607561451291e-17 4.522003131704456e-17 5.837607561451291e-17 4.522003131704456e-17 -0.5787075532917966 -0.8155351419545744
12653700000.0 -0.585358248415783 -0.8107747658946056 5.873644043807006e-17 4.4727171937578215e-17 5.873644043807006e-17 4.4727171937578215e-17 -0.5853577415481004 -0.81077513183962
12654317333.333334 -0.5919692833297113 -0.805960524836021 5.909264960777741e-17 4.423144752264171e-17 5.909264960777741e-17 4.423144752264171e-17 -0.5919687794963039 -0.8059608948959635
12654934666.666666 -0.5985407257380573 -0.8010923789631289 5.94446804032331e-17 4.373289306699118e-17 5.94446804032331e-17 4.373289306699118e-17 -0.5985402249723252 -0.8010927531128487
12655552000.0 -0.6050721361251605 -0.7961706538706269 5.97925103983716e-17 4.3231543745055526e-17 5.97925103983716e-17 4.3231543745055526e-17 -0.605071638460295 -0.7961710320847019
12656169333.333334 -0.6115630776525809 -0.7911956787369034 6.013611746285944e-17 4.272743490849276e-17 6.013611746285944e-17 4.272743490849276e-17 -0.6115625831215632 -0.7911960609896425
12656786666.666666 -0.6180131161887285 -0.7861677863017172 6.04754797635136e-17 4.22206020836758e-17 6.04754797635136e-17 4.22206020836758e-17 -0.6180126248243272 -0.7861681725671615
12657404000.0 -0.6244218203376044 -0.7810873128441654 6.081057576566066e-17 4.171108096921996e-17 6.081057576566066e-17 4.171108096921996e-17 -0.6244213321723722 -0.7810877030960901
12658021333.333334 -0.6307887614678744 -0.7759545981600152 6.114138423450305e-17 4.119890743346029e-17 6.114138423450305e-17 4.119890743346029e-17 -0.6307882765341479 -0.775954992371932
12658638666.666666 -0.6371135137412548 -0.7707699855392129 6.146788423643743e-17 4.0684117511958325e-17 6.146788423643743e-17 4.0684117511958325e-17 -0.6371130320711502 -0.7707703836843701
12659256000.0 -0.6433956541413846 -0.7655338217425972 6.179005514038748e-17 4.016674740494402e-17 6.179005514038748e-17 4.016674740494402e-17 -0.6433951757667979 -0.765534223793984
12659873333.333334 -0.6496347625017476 -0.7602464569790139 6.210787661907539e-17 3.964683347480889e-17 6.210787661907539e-17 3.964683347480889e-17 -0.6496342874543509 -0.7602468629093605
12660490666.666666 -0.6558304215339504 -0.7549082448817522 6.242132865030118e-17 3.9124412243545334e-17 6.242132865030118e-17 3.9124412243545334e-17 -0.6558299498451896 -0.7549086546635311
12661108000.0 -0.6619822168556931 -0.74951954248483 6.273039151819279e-17 3.859952039018601e-17 6.273039151819279e-17 3.859952039018601e-17 -0.661981748556787 -0.7495199560902599
12661725333.333334 -0.6680897370182501 -0.744080710199325 6.303504581442714e-17 3.8072194748248515e-17 6.303504581442714e-17 3.8072194748248515e-17 -0.668089272140188 -0.7440811276003716
12662342666.666666 -0.6741525735342887 -0.7385921117890051 6.333527243943853e-17 3.7542472303153684e-17 6.333527243943853e-17 3.7542472303153684e-17 -0.6741521121078273 -0.7385925329573821
12662960000.0 -0.6801703209049323 -0.7330541143462243 6.363105260360631e-17 3.701039018963522e-17 6.363105260360631e-17 3.701039018963522e-17 -0.6801698629605957 -0.7330545392533976
12663577333.333334 -0.6861425766470749 -0.7274670882672015 6.392236782840944e-17 3.6475985689157477e-17 6.392236782840944e-17 3.6475985689157477e-17 -0.6861421222151495 -0.7274675168843882
12664194666.666666 -0.6920689413201264 -0.7218314072273975 6.420919994757597e-17 3.593929622729766e-17 6.420919994757597e-17 3.593929622729766e-17 -0.692068490430663 -0.7218318395255707
12664812000.0 -0.6979490185529039 -0.7161474481563731 6.449153110819349e-17 3.540035937114788e-17 6.449153110819349e-17 3.540035937114788e-17 -0.6979485712357115 -0.7161478841062617
12665429333.333334 -0.7037824150699876 -0.710415591212709 6.476934377181555e-17 3.485921282667785e-17 6.476934377181555e-17 3.485921282667785e-17 -0.7037819713546343 -0.7104160307848008
12666046666.666666 -0.7095687407180927 -0.7046362197585265 6.50426207155238e-17 3.431589443612918e-17 6.50426207155238e-17 3.431589443612918e-17 -0.7095683006339033 -0.7046366629230705
12666664000.0 -0.7153076084922234 -0.6988097203337854 6.531134503300017e-17 3.377044217534274e-17 6.531134503300017e-17 3.377044217534274e-17 -0.715307172068276 -0.6988101670607922
12667281333.333334 -0.7209986345614319 -0.6929364826305495 6.557550013553632e-17 3.3222894151153344e-17 6.557550013553632e-17 3.3222894151153344e-17 -0.7209982018265578 -0.6929369328897954
12667898666.666666 -0.7266414382945362 -0.6870168994668864 6.583506975306053e-17 3.2673288598702816e-17 6.583506975306053e-17 3.2673288598702816e-17 -0.7266410092773169 -0.6870173532279139
12668516000.0 -0.732235642285732 -0.6810513667604285 6.609003793511679e-17 3.2121663878793235e-17 6.609003793511679e-17 3.2121663878793235e-17 -0.7322352170144973 -0.681051823992549
12669133333.333334 -0.737780872379501 -0.6750402835022432 6.63403890518287e-17 3.15680584752199e-17 6.63403890518287e-17 3.15680584752199e-17 -0.7377804508823279 -0.6750407441745391
12669750666.666666 -0.7432767576959879 -0.6689840517297755 6.658610779484406e-17 3.101251099209117e-17 6.658610779484406e-17 3.101251099209117e-17 -0.7432763400006976 -0.6689845158111014
12670368000.0 -0.7487229306555715 -0.6628830765002065 6.68271791782583e-17 3.045506015113738e-17 6.68271791782583e-17 3.045506015113738e-17 -0.7487225167897293 -0.6628835439591934
