! Parameters = {f0=12700.012000; bw=77.238000; Q=6100.000000; N=10; m_0_1=1.276772; m_1_1=0.386831; m_1_2=1.111584; m_2_2=0.386182; m_2_3=0.748547; m_2_8=0.000902; m_2_9=0.037606; m_3_3=0.384245; m_3_4=0.637076; m_3_7=0.001502; m_3_8=-0.095586; m_3_9=0.000902; m_4_4=0.381320; m_4_5=0.473411; m_4_6=0.005019; m_4_7=-0.116135; m_4_8=0.001502; m_5_5=0.381702; m_5_6=0.880766; m_5_7=0.005019; m_6_6=0.381701; m_6_7=0.473753; m_7_7=0.381334; m_7_8=0.637194; m_8_8=0.384243; m_8_9=0.748860; m_9_9=0.386177; m_9_10=1.112662; m_10_10=0.386821; m_10_11=1.277567}
!
! Created with skrf (http://scikit-rf.org).
# Hz S RI R 50.0 
!freq ReS11 ImS11 ReS21 ImS21 ReS12 ImS12 ReS22 ImS22
12607400000.0 -0.9832190029827133 0.18242914288429965 1.0172234943517788e-16 -5.1859170484349584e-17 1.0172234943517788e-16 -5.1859170484349584e-17 -0.9832191256965306 0.18242848150541469
12608017333.333334 -0.9812062999937198 0.19296164606588534 1.0113591360739146e-16 -5.29455522007003e-17 1.0113591360739146e-16 -5.29455522007003e-17 -0.9812064297860482 0.19296098607319165
12608634666.666666 -0.9790807733946805 0.20347196162787798 1.0053788461112906e-16 -5.40253191312351e-17 1.0053788461112906e-16 -5.40253191312351e-17 -0.9790809102499034 0.20347130309712513
12609252000.0 -0.9768426675884835 0.21395888104595578 9.992833688484425e-17 -5.5098347662034963e-17 9.992833688484425e-17 -5.5098347662034963e-17 -0.9768428114901746 0.213958224052718
12609869333.333334 -0.9744922399229032 0.22442119848593886 9.930734618393257e-17 -5.616451501506736e-17 9.930734618393257e-17 -5.616451501506736e-17 -0.9744923908538261 0.22442054310560577
12610486666.666666 -0.9720297606610219 0.2348577109423863 9.86749895713856e-17 -5.722369926216832e-17 9.86749895713856e-17 -5.722369926216832e-17 -0.9720299186031356 0.23485705725015524
12611104000.0 -0.969455512950074 0.24526721837728413 9.80313454082432e-17 -5.827577933900898e-17 9.80313454082432e-17 -5.827577933900898e-17 -0.9694556778845315 0.24526656644815054
12611721333.333334 -0.9667697927889862 0.25564852385758685 9.737649334396579e-17 -5.932063505884158e-17 9.737649334396579e-17 -5.932063505884158e-17 -0.9667699646961384 0.25564787376633613
12612338666.666666 -0.9639729089943014 0.26600043369304144 9.671051430659381e-17 -6.035814712624905e-17 9.671051430659381e-17 -6.035814712624905e-17 -0.963973087853701 0.2659997855142407
12612956000.0 -0.9610651831646171 0.27632175757363475 9.603349049280369e-17 -6.13881971507121e-17 9.603349049280369e-17 -6.13881971507121e-17 -0.9610653689550182 0.27632111138162374
12613573333.333334 -0.9580469496437309 0.2866113087059947 9.534550535781003e-17 -6.241066766008605e-17 9.534550535781003e-17 -6.241066766008605e-17 -0.9580471423430938 0.28661066457487755
12614190666.666666 -0.9549185554820631 0.29686790395034635 9.464664360511752e-17 -6.342544211397197e-17 9.464664360511752e-17 -6.342544211397197e-17 -0.9549187550675541 0.29686726195398255
12614808000.0 -0.9516803603968464 0.30709036395619865 9.393699117613018e-17 -6.443240491697724e-17 9.393699117613018e-17 -6.443240491697724e-17 -0.9516805668448439 0.3070897241681956
12615425333.333334 -0.9483327367306973 0.31727751329819764 9.321663523963786e-17 -6.54314414318333e-17 9.321663523963786e-17 -6.54314414318333e-17 -0.9483329500167923 0.31727687579190134
12616042666.666666 -0.9448760694088673 0.32742818061106527 9.248566418113763e-17 -6.64224379924336e-17 9.248566418113763e-17 -6.64224379924336e-17 -0.9448762895078668 0.3274275454595519
12616660000.0 -0.9413107558949096 0.3375411987245027 9.174416759203622e-17 -6.740528191672688e-17 9.174416759203622e-17 -6.740528191672688e-17 -0.9413109827808421 0.3375405660005717
12617277333.333334 -0.9376372061450491 0.3476154047972124 9.099223625871338e-17 -6.837986151949256e-17 9.099223625871338e-17 -6.837986151949256e-17 -0.9376374397911608 0.3476147745733753
12617894666.666666 -0.9338558425610027 0.3576496404506822 9.022996215144323e-17 -6.934606612500599e-17 9.022996215144323e-17 -6.934606612500599e-17 -0.9338560829397696 0.35764901279915745
12618512000.0 -0.9299670999413924 0.3676427519024657 8.945743841317807e-17 -7.030378607958195e-17 8.945743841317807e-17 -7.030378607958195e-17 -0.9299673470245168 0.36764212689516823
12619129333.333334 -0.9259714254318039 0.37759359009868754 8.867475934821931e-17 -7.125291276397245e-17 8.867475934821931e-17 -7.125291276397245e-17 -0.9259716791902202 0.3775929678072211
12619746666.666666 -0.9218692784733525 0.38750101084622024 8.788202041073961e-17 -7.219333860565795e-17 8.788202041073961e-17 -7.219333860565795e-17 -0.9218695388772316 0.38750039134187
12620364000.0 -0.9176611307497698 0.3973638749444599 8.707931819316322e-17 -7.312495709102669e-17 8.707931819316322e-17 -7.312495709102669e-17 -0.9176613977685195 0.3973632582981828
12620981333.333334 -0.9133474661333503 0.4071810483158697 8.626675041447027e-17 -7.404766277736404e-17 8.626675041447027e-17 -7.404766277736404e-17 -0.9133477397356229 0.4071804345982878
12621598666.666666 -0.9089287806291175 0.41695140213685356 8.54444159083004e-17 -7.496135130479783e-17 8.54444159083004e-17 -7.496135130479783e-17 -0.9089290607828099 0.41695079141824465
12622216000.0 -0.9044055823179342 0.4266738129672131 8.461241461099555e-17 -7.58659194080363e-17 8.461241461099555e-17 -7.58659194080363e-17 -0.9044058689901942 0.42667320531750397
12622833333.333334 -0.8997783912979673 0.4363471628795862 8.377084754947133e-17 -7.67612649280306e-17 8.377084754947133e-17 -7.67612649280306e-17 -0.8997786844551959 0.43634655836834363
12623450666.666666 -0.8950477396250266 0.4459703395876819 8.2919816829011e-17 -7.764728682344903e-17 8.2919816829011e-17 -7.764728682344903e-17 -0.895048039232883 0.445969738284105
12624068000.0 -0.8902141712512304 0.45554223657451043 8.205942562088832e-17 -7.852388518207527e-17 8.205942562088832e-17 -7.852388518207527e-17 -0.8902144772746345 0.4555416385474226
12624685333.333334 -0.8852782419625411 0.4650617532194343 8.118977814989891e-17 -7.939096123203487e-17 8.118977814989891e-17 -7.939096123203487e-17 -0.8852785543656805 0.4650611585372762
12625302666.666666 -0.8802405193148906 0.4745277949246756 8.031097968180014e-17 -8.024841735286062e-17 8.031097968180014e-17 -8.024841735286062e-17 -0.88024083806122 0.4745272036554952
12625920000.0 -0.8751015825688219 0.48393927324135044 7.942313651055428e-17 -8.109615708649857e-17 7.942313651055428e-17 -8.109615708649857e-17 -0.8751019076210726 0.4839386854527981
12626537333.333334 -0.8698620226229677 0.4932951059944767 7.852635594555711e-17 -8.193408514807411e-17 7.852635594555711e-17 -8.193408514807411e-17 -0.8698623539431493 0.4932945217537953
12627154666.666666 -0.864522441946135 0.502594217407357 7.762074629867047e-17 -8.276210743659819e-17 7.762074629867047e-17 -8.276210743659819e-17 -0.8645227794955399 0.5025936367813753
12627772000.0 -0.8590834545078321 0.5118355382256227 7.67064168711787e-17 -8.35801310454943e-17 7.67064168711787e-17 -8.35801310454943e-17 -0.8590837982470392 0.5118349612807463
12628389333.333334 -0.853545685707982 0.5210180058396385 7.578347794064545e-17 -8.438806427297437e-17 7.578347794064545e-17 -8.438806427297437e-17 -0.8535460355968639 0.5210174326418447
12629006666.666666 -0.8479097723046998 0.5301405644072286 7.485204074762954e-17 -8.518581663229694e-17 7.485204074762954e-17 -8.518581663229694e-17 -0.8479101283024258 0.5301399950220568
12629624000.0 -0.8421763623412731 0.539202164974736 7.391221748232087e-17 -8.597329886185672e-17 7.391221748232087e-17 -8.597329886185672e-17 -0.842176724406314 0.5392015994672811
12630241333.333334 -0.8363461150715925 0.548201765597738 7.296412127105278e-17 -8.675042293514114e-17 7.296412127105278e-17 -8.675042293514114e-17 -0.8363464831617244 0.5482012040326416
12630858666.666666 -0.8304197008844079 0.5571383314607546 7.200786616274047e-17 -8.751710207051428e-17 7.200786616274047e-17 -8.751710207051428e-17 -0.8304200749567194 0.5571377739021998
12631476000.0 -0.8243978012260255 0.5660108349965716 7.10435671151497e-17 -8.827325074090677e-17 7.10435671151497e-17 -8.827325074090677e-17 -0.8243981812369224 0.5660102815082749
12632093333.333334 -0.8182811085222684 0.5748182560039211 7.007133998116192e-17 -8.90187846832761e-17 7.007133998116192e-17 -8.90187846832761e-17 -0.8182814944274764 0.5748177066491237
12632710666.666666 -0.8120703260986507 0.5835595817650948 6.909130149485301e-17 -8.975362090798636e-17 6.909130149485301e-17 -8.975362090798636e-17 -0.8120707178532234 0.5835590366065573
12633328000.0 -0.8057661680994725 0.592233807162437 6.810356925751608e-17 -9.047767770800062e-17 6.810356925751608e-17 -9.047767770800062e-17 -0.8057665656577935 0.5922332662624306
12633945333.333334 -0.7993693594058997 0.6008399347936392 6.710826172358467e-17 -9.119087466792497e-17 6.710826172358467e-17 -9.119087466792497e-17 -0.7993697627216912 0.6008393982139398
12634562666.666666 -0.7928806355524163 0.6093769750867021 6.61054981864665e-17 -9.189313267289396e-17 6.61054981864665e-17 -9.189313267289396e-17 -0.7928810445787436 0.6093764428885835
12635180000.0 -0.786300742642402 0.6178439464135174 6.509539876425839e-17 -9.258437391731915e-17 6.509539876425839e-17 -9.258437391731915e-17 -0.7863011573316775 0.6178434186577427
12635797333.333334 -0.7796304372621858 0.6262398752029416 6.407808438540778e-17 -9.326452191345587e-17 6.407808438540778e-17 -9.326452191345587e-17 -0.7796308575661753 0.6262393519497578
12636414666.666666 -0.7728704863942584 0.634563796052473 6.305367677425567e-17 -9.393350149983242e-17 6.305367677425567e-17 -9.393350149983242e-17 -0.7728709122640877 0.6345632773616033
12637032000.0 -0.766021667328838 0.6428147518395717 6.202229843650832e-17 -9.459123884951038e-17 6.202229843650832e-17 -9.459123884951038e-17 -0.7660220987149968 0.6428142377702086
12637649333.333334 -0.7590847675747028 0.6509917938314448 6.098407264460973e-17 -9.523766147819419e-17 6.098407264460973e-17 -9.523766147819419e-17 -0.7590852044270522 0.6509912844422443
12638266666.666666 -0.7520605847684804 0.6590939817943366 5.993912342304425e-17 -9.587269825217281e-17 5.993912342304425e-17 -9.587269825217281e-17 -0.7520610270362577 0.6590934771434108
12638884000.0 -0.7449499265830782 0.6671203841014668 5.888757553355938e-17 -9.649627939609817e-17 5.888757553355938e-17 -9.649627939609817e-17 -0.7449503742149027 0.6671198842463768
12639501333.333334 -0.7377536106346436 0.6750700778403443 5.782955446027803e-17 -9.710833650062042e-17 5.782955446027803e-17 -9.710833650062042e-17 -0.7377540635785231 0.6750695828380944
12640118666.666666 -0.7304724643888195 0.6829421489185943 5.67651863947935e-17 -9.77088025298249e-17 5.67651863947935e-17 -9.77088025298249e-17 -0.7304729225921558 0.6829416588256251
12640736000.0 -0.7231073250651345 0.6907356921695657 5.569459822108136e-17 -9.829761182856645e-17 5.569459822108136e-17 -9.829761182856645e-17 -0.7231077884747305 0.6907352070417485
12641353333.333334 -0.715659039541356 0.6984498114557454 5.461791750049299e-17 -9.88747001295508e-17 5.461791750049299e-17 -9.88747001295508e-17 -0.7156595081034212 0.698449331348375
12641970666.666666 -0.7081284642555499 0.7060836197724031 5.3535272456505153e-17 -9.944000456034721e-17 5.3535272456505153e-17 -9.944000456034721e-17 -0.7081289379157057 0.706083144740191
12642588000.0 -0.7005164651079523 0.7136362393492096 5.244679195952978e-17 -9.999346365016167e-17 5.244679195952978e-17 -9.999346365016167e-17 -0.70051694381124 0.7136357694462789
12643205333.333334 -0.6928239173612288 0.7211068017513521 5.1352605511581256e-17 -1.0053501733648437e-16 5.1352605511581256e-17 -1.0053501733648437e-16 -0.6928244010521156 0.7211063370312315
12643822666.666666 -0.6850517055399127 0.7284944479793102 5.025284323089531e-17 -1.0106460697155865e-16 5.025284323089531e-17 -1.0106460697155865e-16 -0.6850521941622969 0.7284939884949261
12644440000.0 -0.6772007233286338 0.7357983285676843 4.9147635836507674e-17 -1.0158217532866924e-16 4.9147635836507674e-17 -1.0158217532866924e-16 -0.6772012168258528 0.7357978743713567
12645057333.333334 -0.6692718734695077 0.7430176036827378 4.803711463272338e-17 -1.020876666082862e-16 4.803711463272338e-17 -1.020876666082862e-16 -0.6692723717843437 0.7430171548261736
12645674666.666666 -0.6612660676581659 0.7501514432191194 4.692141149356892e-17 -1.0258102644401545e-16 4.692141149356892e-17 -1.0258102644401545e-16 -0.6612665707328531 0.7501509997534066
12646292000.0 -0.653184226438946 0.7571990268952924 4.58006588471177e-17 -1.0306220190841194e-16 4.58006588471177e-17 -1.0306220190841194e-16 -0.6531847342151762 0.7571985888708933
12646909333.333334 -0.6450272790991473 0.7641595443477581 4.4674989659861755e-17 -1.0353114151857425e-16 4.4674989659861755e-17 -1.0353114151857425e-16 -0.645027791518078 0.7641591118145054
12647526666.666666 -0.6367961635621374 0.7710321952242759 4.354453742091255e-17 -1.0398779524161939e-16 4.354453742091255e-17 -1.0398779524161939e-16 -0.6367966805643982 0.7710317682313657
12648144000.0 -0.628491826279353 0.7778161892760185 4.240943612622606e-17 -1.0443211449995094e-16 4.240943612622606e-17 -1.0443211449995094e-16 -0.6284923478050515 0.7778157678720048
12648761333.333334 -0.6201152221217304 0.7845107464482174 4.1269820262736545e-17 -1.0486405217637189e-16 4.1269820262736545e-17 -1.0486405217637189e-16 -0.6201157481104616 0.784510330681008
12649378666.666666 -0.6116673142697421 0.7911150969700071 4.012582479247497e-17 -1.0528356261901043e-16 4.012582479247497e-17 -1.0528356261901043e-16 -0.6116678446605918 0.7911146868868559
12649996000.0 -0.6031490741027047 0.7976284814428787 3.8977585136575246e-17 -1.0569060164609716e-16 3.8977585136575246e-17 -1.0569060164609716e-16 -0.6031496088342604 0.7976280770903825
12650613333.333334 -0.5945614810869784 0.8040501509280881 3.782523715930489e-17 -1.0608512655054066e-16 3.782523715930489e-17 -1.0608512655054066e-16 -0.594562020097333 0.804049752352179
12651230666.666666 -0.5859055226636115 0.810379367032566 3.666891715200845e-17 -1.0646709610434608e-16 3.666891715200845e-17 -1.0646709610434608e-16 -0.585906065890373 0.8103789742785087
12651848000.0 -0.5771821941343926 0.816615401994128 3.55087618169947e-17 -1.068364705628614e-16 3.55087618169947e-17 -1.068364705628614e-16 -0.5771827415146894 0.8166150151065121
12652465333.333334 -0.5683924985477923 0.8227575387648668 3.434490825143692e-17 -1.0719321166883141e-16 3.434490825143692e-17 -1.0719321166883141e-16 -0.568393050018282 0.8227571577876044
12653082666.666666 -0.559537446583447 0.82880507109374 3.3177493931194033e-17 -1.0753728265628977e-16 3.3177493931194033e-17 -1.0753728265628977e-16 -0.5595380020803232 0.8288046960700589
12653700000.0 -0.5506180564358981 0.8347573036078066 3.200665669456295e-17 -1.0786864825428395e-16 3.200665669456295e-17 -1.0786864825428395e-16 -0.5506186158948977 0.834756934580246
12654317333.333334 -0.5416353536976567 0.8406135518920906 3.0832534726080697e-17 -1.0818727469039811e-16 3.0832534726080697e-17 -1.0818727469039811e-16 -0.5416359170540668 0.8406131889024954
12654934666.666666 -0.5325903712412288 0.8463731425683082 2.965526654022186e-17 -1.0849312969412105e-16 2.965526654022186e-17 -1.0849312969412105e-16 -0.5325909384298947 0.846372785657825
12655552000.0 -0.5234841491001586 0.8520354133724175 2.847499096506382e-17 -1.0878618250003601e-16 2.847499096506382e-17 -1.0878618250003601e-16 -0.5234847200554921 0.8520350625814912
12656169333.333334 -0.5143177343498505 0.8575997132305135 2.729184712599584e-17 -1.0906640385081471e-16 2.729184712599584e-17 -1.0906640385081471e-16 -0.5143183090058365 0.8575993685988811
12656786666.666666 -0.5050921809867378 0.8630654023339625 2.6105974429291526e-17 -1.0933376600006184e-16 2.6105974429291526e-17 -1.0933376600006184e-16 -0.5050927592769413 0.8630650639006474
12657404000.0 -0.49580854980740147 0.868431852212771 2.4917512545750775e-17 -1.09588242714957e-16 2.4917512545750775e-17 -1.09588242714957e-16 -0.4958091316649777 0.8684315200160829
12658021333.333334 -0.48646790828635444 0.8736984458080042 2.3726601394246043e-17 -1.0982980927873715e-16 2.3726601394246043e-17 -1.0982980927873715e-16 -0.4864684936440532 0.8736981198855293
12658638666.666666 -0.47707133045361555 0.8788645775425472 2.253338112531749e-17 -1.1005844249298405e-16 2.253338112531749e-17 -1.1005844249298405e-16 -0.47707191924379205 0.8788642579311481
12659256000.0 -0.4676198967707943 0.8839296533909783 2.133799210465391e-17 -1.1027412067975382e-16 2.133799210465391e-17 -1.1027412067975382e-16 -0.46762048892541525 0.8839293401267881
12659873333.333334 -0.45811469400714916 0.8888930909477019 2.014057489664545e-17 -1.1047682368350851e-16 2.014057489664545e-17 -1.1047682368350851e-16 -0.45811528945780094 0.8888927840661203
12660490666.666666 -0.44855681511470535 0.8937543194938835 1.8941270247891736e-17 -1.1066653287287663e-16 1.8941270247891736e-17 -1.1066653287287663e-16 -0.44855741379260244 0.8937540190295733
12661108000.0 -0.4389473591021519 0.898512780063294 1.7740219070632034e-17 -1.1084323114224451e-16 1.7740219070632034e-17 -1.1084323114224451e-16 -0.43894796093814403 0.8985124860501763
12661725333.333334 -0.4292874309090039 0.9031679255063095 1.653756242628521e-17 -1.1100690291314828e-16 1.653756242628521e-17 -1.1100690291314828e-16 -0.42928803583358477 0.9031676379775605
12662342666.666666 -0.4195781412781968 0.907719220553006 1.5333441508849715e-17 -1.111575341355083e-16 1.5333441508849715e-17 -1.111575341355083e-16 -0.4195787492215117 0.9077189395410535
12662960000.0 -0.40982060662844416 0.9121661418746682 1.4127997628395258e-17 -1.112951122886684e-16 1.4127997628395258e-17 -1.112951122886684e-16 -0.4098212175202982 0.9121658674111874
12663577333.333334 -0.4000159489258911 0.9165081781439496 1.2921372194478068e-17 -1.1141962638226642e-16 1.2921372194478068e-17 -1.1141962638226642e-16 -0.4000165626957569 0.9165079102598594
12664194666.666666 -0.3901652955551846 0.9207448300936354 1.1713706699604597e-17 -1.1153106695691834e-16 1.1713706699604597e-17 -1.1153106695691834e-16 -0.39016591213221097 0.9207445688190959
12664812000.0 -0.38026977918965943 0.9248756105741309 1.0505142702644674e-17 -1.1162942608472958e-16 1.0505142702644674e-17 -1.1162942608472958e-16 -0.3802703985026791 0.9248753559385378
12665429333.333334 -0.37033053766125296 0.928900044609403 9.295821812271665e-18 -1.1171469736962253e-16 9.295821812271665e-18 -1.1171469736962253e-16 -0.3703311596387915 0.9288997966413873
12666046666.666666 -0.3603487138297284 0.9328176694515833 8.085885670422571e-18 -1.1178687594748583e-16 8.085885670422571e-18 -1.1178687594748583e-16 -0.36034933840001193 0.9328174281790071
12666664000.0 -0.35032545545091826 0.9366280346343099 6.875475935677873e-18 -1.118459584861482e-16 6.875475935677873e-18 -1.118459584861482e-16 -0.3503260825418812 0.9366278000842608
12667281333.333334 -0.34026191504517267 0.9403307020243544 5.664734266773228e-18 -1.1189194318516758e-16 5.664734266773228e-18 -1.1189194318516758e-16 -0.3402625445844673 0.940330474223146
12667898666.666666 -0.3301592497646535 0.9439252458720779 4.4538023059902665e-18 -1.1192482977544642e-16 4.4538023059902665e-18 -1.1192482977544642e-16 -0.3301598816796577 0.9439250248452457
12668516000.0 -0.32001862126009256 0.9474112528604524 3.2428216626385296e-18 -1.119446195186654e-16 3.2428216626385296e-18 -1.119446195186654e-16 -0.32001925547791743 0.9474110386327483
12669133333.333334 -0.3098411955476731 0.9507883221524197 2.0319338965254204e-18 -1.1195131520653923e-16 2.0319338965254204e-18 -1.1195131520653923e-16 -0.3098418319951721 0.9507881147478119
12669750666.666666 -0.2996281428744734 0.954056065437151 8.212805014288466e-19 -1.1194492115989449e-16 8.212805014288466e-19 -1.1194492115989449e-16 -0.29962878147825206 0.9540558648788242
12670368000.0 -0.2893806375842314 0.957214106974593 -3.8899711142236354e-19 -1.1192544322756827e-16 -3.8899711142236354e-19 -1.1192544322756827e-16 -0.289381278270653 0.9572139132849384
