! Parameters = {f0=12700.012000; bw=77.238000; Q=6100.000000; N=10; m_0_1=1.261356; m_1_1=0.155600; m_1_2=1.096168; m_2_2=0.154951; m_2_3=0.733131; m_2_8=0.000132; m_2_9=0.036836; m_3_3=0.153014; m_3_4=0.621660; m_3_7=0.000732; m_3_8=-0.096356; m_3_9=0.000132; m_4_4=0.150089; m_4_5=0.457995; m_4_6=0.004249; m_4_7=-0.116905; m_4_8=0.000732; m_5_5=0.150471; m_5_6=0.865350; m_5_7=0.004249; m_6_6=0.150470; m_6_7=0.458337; m_7_7=0.150103; m_7_8=0.621778; m_8_8=0.153012; m_8_9=0.733444; m_9_9=0.154946; m_9_10=1.097246; m_10_10=0.155590; m_10_11=1.262151}
!
! Created with skrf (http://scikit-rf.org).
# Hz S RI R 50.0 
!freq ReS11 ImS11 ReS21 ImS21 ReS12 ImS12 ReS22 ImS22
12607400000.0 0.9567399242653072 -0.2909445261843564 -8.861666046741922e-17 5.846791281068353e-17 -8.861666046741922e-17 5.846791281068353e-17 0.9567401176190385 -0.2909438903605543
12608017333.333334 0.9537022983636164 -0.30075226698361057 -8.798918469390506e-17 5.937085549937829e-17 -8.798918469390506e-17 5.937085549937829e-17 0.9537024982255241 -0.30075163320956366
12608634666.666666 0.9505641341671418 -0.3105283027920284 -8.735251730907201e-17 6.026707671138374e-17 -8.735251730907201e-17 6.026707671138374e-17 0.9505643405155205 -0.31052767113434476
12609252000.0 0.9473257624979163 -0.320271603030252 -8.67067301867352e-17 6.11564829714101e-17 -8.67067301867352e-17 6.11564829714101e-17 0.9473259753103789 -0.3202709735553094
12609869333.333334 0.9439875247417653 -0.32998114056979233 -8.605189615036061e-17 6.203898157144983e-17 -8.605189615036061e-17 6.203898157144983e-17 0.943987743995245 -0.3299805133437327
12610486666.666666 0.9405497728122928 -0.33965589184139083 -8.53880889648821e-17 6.29144805804234e-17 -8.53880889648821e-17 6.29144805804234e-17 0.940549998483047 -0.33965526693011217
12611104000.0 0.9370128691137533 -0.3492948369430019 -8.471538332841904e-17 6.378288885373626e-17 -8.471538332841904e-17 6.378288885373626e-17 0.9370131011773655 -0.34929421441215197
12611721333.333334 0.9333771865029049 -0.35889695974715 -8.403385486391496e-17 6.464411604272773e-17 -8.403385486391496e-17 6.464411604272773e-17 0.9333774249342861 -0.3588963396621191
12612338666.666666 0.929643108249686 -0.3684612480081025 -8.334358011066492e-17 6.5498072604049e-17 -8.334358011066492e-17 6.5498072604049e-17 0.9296433530230792 -0.3684606304340167
12612956000.0 0.9258110279967265 -0.37798669346879105 -8.26446365157366e-17 6.634466980896554e-17 -8.26446365157366e-17 6.634466980896554e-17 0.9258112790857084 -0.3779860784705054
12613573333.333334 0.9218813497180298 -0.38747229196665184 -8.193710242534511e-17 6.718381975250998e-17 -8.193710242534511e-17 6.718381975250998e-17 0.9218816070955129 -0.3874716796087431
12614190666.666666 0.9178544876761919 -0.39691704353995694 -8.122105707606812e-17 6.801543536262488e-17 -8.122105707606812e-17 6.801543536262488e-17 0.9178547513144312 -0.3969164338867184
12614808000.0 0.913730866378878 -0.40631995253289044 -8.049658058602794e-17 6.883943040914019e-17 -8.049658058602794e-17 6.883943040914019e-17 0.9137311362494687 -0.40631934564832284
12615425333.333334 0.9095109205339634 -0.41568002770074125 -7.976375394594086e-17 6.96557195127086e-17 -7.976375394594086e-17 6.96557195127086e-17 0.9095111966078471 -0.41567942364854743
12616042666.666666 0.9051950950038015 -0.42499628231419245 -7.902265901010873e-17 7.046421815360621e-17 -7.902265901010873e-17 7.046421815360621e-17 0.9051953772512696 -0.4249956811577709
12616660000.0 0.9007838447582353 -0.4342677342635496 -7.827337848729291e-17 7.126484268047274e-17 -7.827337848729291e-17 7.126484268047274e-17 0.9007841331489311 -0.4342671360659872
12617277333.333334 0.8962776348267163 -0.44349340616209143 -7.751599593151717e-17 7.205751031893407e-17 -7.751599593151717e-17 7.205751031893407e-17 0.896277929329638 -0.44349281098615667
12617894666.666666 0.8916769402492455 -0.4526723254491828 -7.675059573279654e-17 7.284213918011471e-17 -7.675059573279654e-17 7.284213918011471e-17 0.89167724083275 -0.4526717333573197
12618512000.0 0.8869822460262438 -0.46180352449290224 -7.597726310772644e-17 7.361864826910898e-17 -7.597726310772644e-17 7.361864826910898e-17 0.886982552658051 -0.461802935547224
12619129333.333334 0.8821940470675677 -0.47088604069177115 -7.5196084090068e-17 7.438695749326817e-17 -7.5196084090068e-17 7.438695749326817e-17 0.8821943597147627 -0.4708854549540529
12619746666.666666 0.8773128481401792 -0.47991891657653307 -7.440714552117838e-17 7.514698767046135e-17 -7.440714552117838e-17 7.514698767046135e-17 0.8773131667692161 -0.47991833410820567
12620364000.0 0.8723391638149556 -0.4889011999110355 -7.361053504038083e-17 7.589866053721105e-17 -7.361053504038083e-17 7.589866053721105e-17 0.8723394883916613 -0.48890062077317953
12620981333.333334 0.8672735184125965 -0.49783194379234225 -7.280634107528157e-17 7.66418987567007e-17 -7.280634107528157e-17 7.66418987567007e-17 0.8672738489021742 -0.49783136804568073
12621598666.666666 0.862116445948187 -0.5067102067508527 -7.19946528319668e-17 7.737662592671685e-17 -7.19946528319668e-17 7.737662592671685e-17 0.8621167823152212 -0.5067096344557461
12622216000.0 0.8568684900749286 -0.5155350528495007 -7.117556028513121e-17 7.810276658747812e-17 -7.117556028513121e-17 7.810276658747812e-17 0.8568688322833852 -0.5155344840659387
12622833333.333334 0.8515302040268965 -0.524305551782296 -7.034915416814268e-17 7.882024622934473e-17 -7.034915416814268e-17 7.882024622934473e-17 0.8515305520401308 -0.5243049865698927
12623450666.666666 0.8461021505606635 -0.5330207789724953 -6.951552596302185e-17 7.952899130043305e-17 -6.951552596302185e-17 7.952899130043305e-17 0.8461025043414232 -0.533020217390483
12624068000.0 0.8405849018960211 -0.5416798156699987 -6.867476789032664e-17 8.0228929214139e-17 -6.867476789032664e-17 8.0228929214139e-17 0.8405852614064476 -0.5416792577772201
12624685333.333334 0.8349790396555131 -0.5502817490484153 -6.782697289897914e-17 8.091998835653927e-17 -6.782697289897914e-17 8.091998835653927e-17 0.8349794048571499 -0.5502811949033201
12625302666.666666 0.8292851548034066 -0.5588256723008672 -6.697223465604724e-17 8.160209809366316e-17 -6.697223465604724e-17 8.160209809366316e-17 0.8292855256571993 -0.558825121961503
12625920000.0 0.8235038475830284 -0.5673106847361272 -6.611064753637163e-17 8.227518877872286e-17 -6.611064753637163e-17 8.227518877872286e-17 0.8235042240493314 -0.5673101382601354
12626537333.333334 0.8176357274538392 -0.5757358918730507 -6.524230661222331e-17 8.293919175915189e-17 -6.524230661222331e-17 8.293919175915189e-17 0.8176361094924184 -0.5757353493176594
12627154666.666666 0.8116814130269591 -0.584100405535199 -6.436730764280679e-17 8.359403938360205e-17 -6.436730764280679e-17 8.359403938360205e-17 0.8116818005969985 -0.5840998669572182
12627772000.0 0.8056415319999891 -0.5924033439444251 -6.348574706373041e-17 8.423966500879984e-17 -6.348574706373041e-17 8.423966500879984e-17 0.8056419250600915 -0.5924028094002385
12628389333.333334 0.7995167210909343 -0.6006438318136865 -6.25977219764188e-17 8.487600300628584e-17 -6.25977219764188e-17 8.487600300628584e-17 0.7995171195991294 -0.6006433013592486
12629006666.666666 0.7933076259709688 -0.608821000439483 -6.170333013742624e-17 8.550298876906512e-17 -6.170333013742624e-17 8.550298876906512e-17 0.7933080298847156 -0.6088204741303108
12629624000.0 0.7870149011964177 -0.6169339877933615 -6.080266994770874e-17 8.612055871812885e-17 -6.080266994770874e-17 8.612055871812885e-17 0.7870153104726104 -0.6169334656845309
12630241333.333334 0.7806392101397911 -0.6249819386127483 -5.98958404418282e-17 8.672865030886396e-17 -5.98958404418282e-17 8.672865030886396e-17 0.7806396247347619 -0.6249814207588859
12630858666.666666 0.774181224919817 -0.6329640044911548 -5.898294127708394e-17 8.732720203735741e-17 -5.898294127708394e-17 8.732720203735741e-17 0.7741816447893419 -0.6329634909464334
12631476000.0 0.7676416263305322 -0.640879343967679 -5.806407272257795e-17 8.791615344658664e-17 -5.806407272257795e-17 8.791615344658664e-17 0.7676420514298357 -0.6408788347858124
12632093333.333334 0.7610211037696036 -0.6487271226156035 -5.71393356482402e-17 8.849544513248368e-17 -5.71393356482402e-17 8.849544513248368e-17 0.761021534053363 -0.64872661784984
12632710666.666666 0.7543203551656935 -0.6565065131303185 -5.620883151378528e-17 8.906501874988785e-17 -5.620883151378528e-17 8.906501874988785e-17 0.7543207905880442 -0.6565060128334355
12633328000.0 0.7475400869046397 -0.664216695416813 -5.5272662357573016e-17 8.962481701840754e-17 -5.5272662357573016e-17 8.962481701840754e-17 0.7475405274191799 -0.6642161996411118
12633945333.333334 0.7406810137552878 -0.6718568566757845 -5.433093078548656e-17 9.01747837281167e-17 -5.433093078548656e-17 9.01747837281167e-17 0.740681459315084 -0.6718563654730854
12634562666.666666 0.7337438587939946 -0.6794261914894985 -5.338373995967887e-17 9.071486374518345e-17 -5.338373995967887e-17 9.071486374518345e-17 0.7337443093515855 -0.679425704911134
12635180000.0 0.7267293533283602 -0.6869239019067327 -5.2431193587319006e-17 9.124500301734477e-17 -5.2431193587319006e-17 9.124500301734477e-17 0.7267298088357622 -0.6869234200035429
12635797333.333334 0.7196382368202482 -0.6943491975267704 -5.1473395909238965e-17 9.176514857929244e-17 -5.1473395909238965e-17 9.176514857929244e-17 0.7196386972289616 -0.6943487203490981
12636414666.666666 0.7124712568077614 -0.7017012955828108 -5.051045168858178e-17 9.227524855790809e-17 -5.051045168858178e-17 9.227524855790809e-17 0.7124717220687727 -0.7017008231804946
12637032000.0 0.7052291688264694 -0.7089794210244423 -4.954246619933036e-17 9.277525217741733e-17 -4.954246619933036e-17 9.277525217741733e-17 0.7052296388902602 -0.7089789534468139
12637649333.333334 0.6979127363296852 -0.7161828065994308 -4.856954521485419e-17 9.326510976438701e-17 -4.856954521485419e-17 9.326510976438701e-17 0.6979132111462354 -0.7161823438953081
12638266666.666666 0.6905227306081221 -0.7233106929344608 -4.7591794996351627e-17 9.374477275263179e-17 -4.7591794996351627e-17 9.374477275263179e-17 0.6905232101269144 -0.7233102351521427
12638884000.0 0.6830599307084224 -0.7303623286153474 -4.660932228128958e-17 9.42141936879769e-17 -4.660932228128958e-17 9.42141936879769e-17 0.68306041487845 -0.7303618758026098
12639501333.333334 0.6755251233511738 -0.7373369702661104 -4.5622234271751254e-17 9.467332623292263e-17 -4.5622234271751254e-17 9.467332623292263e-17 0.6755256121209449 -0.7373365224702013
12640118666.666666 0.6679191028479387 -0.7442338826273851 -4.463063862280052e-17 9.512212517115745e-17 -4.463063862280052e-17 9.512212517115745e-17 0.6679195961654796 -0.744233439895017
12640736000.0 0.6602426710173408 -0.7510523386340758 -4.363464343069927e-17 9.556054641199685e-17 -4.363464343069927e-17 9.556054641199685e-17 0.6602431688302055 -0.7510519010114252
12641353333.333334 0.6524966371008843 -0.7577916194917067 -4.26343572212345e-17 9.598854699463093e-17 -4.26343572212345e-17 9.598854699463093e-17 0.6524971393561575 -0.7577911870244058
12641970666.666666 0.6446818176773661 -0.7644510147524392 -4.162988893783765e-17 9.64060850923235e-17 -4.162988893783765e-17 9.64060850923235e-17 0.644682324321669 -0.7644505874855725
12642588000.0 0.6367990365768343 -0.7710298223899275 -4.062134792979203e-17 9.681312001643135e-17 -4.062134792979203e-17 9.681312001643135e-17 0.6367995475563311 -0.7710294003680267
12643205333.333334 0.6288491247938929 -0.7775273488731976 -3.960884394032762e-17 9.7209612220332e-17 -3.960884394032762e-17 9.7209612220332e-17 0.6288496400542957 -0.7775269321402374
12643822666.666666 0.6208329203998374 -0.7839429092399763 -3.859248709471373e-17 9.759552330321206e-17 -3.859248709471373e-17 9.759552330321206e-17 0.6208334398864127 -0.7839424978393698
12644440000.0 0.6127512684545909 -0.790275827168665 -3.757238788829638e-17 9.797081601373985e-17 -3.757238788829638e-17 9.797081601373985e-17 0.6127517921121658 -0.7902754211432594
12645057333.333334 0.6046050209174221 -0.7965254350497983 -3.6548657174528315e-17 9.83354542536023e-17 -3.6548657174528315e-17 9.83354542536023e-17 0.6046055486903882 -0.7965250344418695
12645674666.666666 0.596395036557311 -0.8026910740562843 -3.552140615292356e-17 9.868940308093291e-17 -3.552140615292356e-17 9.868940308093291e-17 0.5963955683896317 -0.8026906789075324
12646292000.0 0.5881221808620772 -0.8087720942131111 -3.449074635700446e-17 9.903262871360418e-17 -3.449074635700446e-17 9.903262871360418e-17 0.588122716697294 -0.8087717045646575
12646909333.333334 0.5797873259475981 -0.814767854465529 -3.345678964222923e-17 9.936509853239162e-17 -3.345678964222923e-17 9.936509853239162e-17 0.5797878657288351 -0.8147674703579105
12647526666.666666 0.5713913504655738 -0.82067772274685 -3.241964817386992e-17 9.96867810840185e-17 -3.241964817386992e-17 9.96867810840185e-17 0.5713918941355461 -0.8206773442200168
12648144000.0 0.5629351395108533 -0.8265010760451093 -3.137943441485044e-17 9.999764608407754e-17 -3.137943441485044e-17 9.999764608407754e-17 0.5629356870118708 -0.8265007031384181
12648761333.333334 0.554419584528384 -0.832237300468563 -3.033626111359429e-17 1.0029766441981462e-16 -3.033626111359429e-17 1.0029766441981462e-16 0.5544201358023588 -0.8322369332207753
12649378666.666666 0.5458455832190506 -0.8378857913105355 -2.929024129183246e-17 1.0058680815279068e-16 -2.929024129183246e-17 1.0058680815279068e-16 0.5458461382075023 -0.8378854297598112
12649996000.0 0.5372140394451106 -0.8434459531131177 -2.824148823236102e-17 1.0086505052142435e-16 -2.824148823236102e-17 1.0086505052142435e-16 0.5372145980891729 -0.8434455972970131
12650613333.333334 0.5285258631347907 -0.8489171997300166 -2.7190115466795365e-17 1.0113236594340089e-16 -2.7190115466795365e-17 1.0113236594340089e-16 0.5285264253752185 -0.8489168496854803
12651230666.666666 0.5197819701866512 -0.8542989543881636 -2.613623676333428e-17 1.0138873001794582e-16 -2.613623676333428e-17 1.0138873001794582e-16 0.5197825359638261 -0.854298610151533
12651848000.0 0.5109832823726004 -0.8595906497487918 -2.507996611442293e-17 1.0163411952799241e-16 -2.507996611442293e-17 1.0163411952799241e-16 0.5109838516265358 -0.8595903113557862
12652465333.333334 0.5021307272411296 -0.8647917279669833 -2.4021417724480022e-17 1.0186851244219921e-16 -2.4021417724480022e-17 1.0186851244219921e-16 0.5021312999114791 -0.8647913954527038
12653082666.666666 0.49322523801934287 -0.8699016407506018 -2.2960705997581394e-17 1.0209188791684785e-16 -2.2960705997581394e-17 1.0209188791684785e-16 0.49322581404540605 -0.8699013141495268
12653700000.0 0.4842677535145249 -0.8749198494181186 -2.189794552506863e-17 1.023042262976241e-16 -2.189794552506863e-17 1.023042262976241e-16 0.48426833283525245 -0.8749195287640982
12654317333.333334 0.4752592180153197 -0.879845824955312 -2.0833251073256094e-17 1.0250550912124766e-16 -2.0833251073256094e-17 1.0250550912124766e-16 0.4752598005693229 -0.879845510281569
12654934666.666666 0.46620058119214003 -0.884679048071072 -1.97667375710074e-17 1.0269571911699717e-16 -1.97667375710074e-17 1.0269571911699717e-16 0.4662011669176933 -0.8846787394101925
12655552000.0 0.4570927979968492 -0.8894190092522418 -1.8698520097375002e-17 1.0287484020809105e-16 -1.8698520097375002e-17 1.0287484020809105e-16 0.4570933868319 -0.8894187066361771
12656169333.333334 0.4479368285625196 -0.8940652088171086 -1.762871386920838e-17 1.0304285751294534e-16 -1.762871386920838e-17 1.0304285751294534e-16 0.447937420444693 -0.8940649122771687
12656786666.666666 0.43873363810176336 -0.8986171569683159 -1.6557434228743248e-17 1.0319975734630326e-16 -1.6557434228743248e-17 1.0319975734630326e-16 0.4387342329683697 -0.8986168665351674
12657404000.0 0.4294841968053092 -0.9030743738443281 -1.5484796631179352e-17 1.0334552722023687e-16 -1.5484796631179352e-17 1.0334552722023687e-16 0.4294847945933505 -0.9030740895479916
12658021333.333334 0.42018947973947174 -0.907436389570145 -1.4410916632277355e-17 1.0348015584501592e-16 -1.4410916632277355e-17 1.0348015584501592e-16 0.4201900803856475 -0.9074361114399899
12658638666.666666 0.41085046674369263 -0.9117027443066722 -1.333590987592345e-17 1.0360363312985228e-16 -1.333590987592345e-17 1.0360363312985228e-16 0.4108510701844079 -0.9117024723714163
12659256000.0 0.40146814232678585 -0.9158729882994183 -1.2259892081692147e-17 1.0371595018351413e-16 -1.2259892081692147e-17 1.0371595018351413e-16 0.4014687484981573 -0.9158727225871235
12659873333.333334 0.39204349556356316 -0.9199466819257134 -1.1182979032414798e-17 1.0381709931481099e-16 -1.1182979032414798e-17 1.0381709931481099e-16 0.39204410440142523 -0.9199464224637818
12660490666.666666 0.3825775199904907 -0.9239233957410935 -1.0105286561766768e-17 1.0390707403294796e-16 -1.0105286561766768e-17 1.0390707403294796e-16 0.3825781314304036 -0.9239231425562665
12661108000.0 0.37307121350061145 -0.9278027105247151 -9.026930541777207e-18 1.0398586904775776e-16 -9.026930541777207e-18 1.0398586904775776e-16 0.37307182747786743 -0.9278024636430706
12661725333.333334 0.36352557823889897 -0.9315842173233195 -7.948026870457846e-18 1.0405348026979453e-16 -7.948026870457846e-18 1.0405348026979453e-16 0.36352619468852865 -0.9315839767702667
12662342666.666666 0.3539416204961119 -0.9352675174945474 -6.8686914593125534e-18 1.041099048103079e-16 -6.8686914593125534e-18 1.041099048103079e-16 0.3539422393528921 -0.9352672832948272
12662960000.0 0.34432035060305644 -0.9388522227488285 -5.789040220944998e-18 1.041551409810818e-16 -5.789040220944998e-18 1.041551409810818e-16 0.34432097180151633 -0.9388519949265095
12663577333.333334 0.33466278282383755 -0.942337955190404 -4.7091890566059225e-18 1.0418918829414903e-16 -4.7091890566059225e-18 1.0418918829414903e-16 0.33466340629826613 -0.9423377337688803
12664194666.666666 0.32496993524915185 -0.9457243473570875 -3.6292538437968e-18 1.0421204746137399e-16 -3.6292538437968e-18 1.0421204746137399e-16 0.3249705609336043 -0.9457241323590757
12664812000.0 0.3152428296887457 -0.949011042259077 -2.549350423833524e-18 1.0422372039390981e-16 -2.549350423833524e-18 1.0422372039390981e-16 0.31524345751705063 -0.9490108337066141
12665429333.333334 0.3054824915638853 -0.9521976934165233 -1.4695945894632077e-18 1.0422421020152487e-16 -1.4695945894632077e-18 1.0422421020152487e-16 0.3054831214696522 -0.9521974913309662
12666046666.666666 0.2956899497991787 -0.9552839648960862 -3.9010207246143656e-19 1.0421352119180285e-16 -3.9010207246143656e-19 1.0421352119180285e-16 0.2956905817158039 -0.9552837692981061
12666664000.0 0.28586623671402395 -0.9582695313463692 6.890114687591365e-19 1.0419165886921332e-16 6.890114687591365e-19 1.0419165886921332e-16 0.28586687057469895 -0.9582693422559528
12667281333.333334 0.2760123879139476 -0.9611540780321691 1.767630461500827e-18 1.0415862993405546e-16 1.767630461500827e-18 1.0415862993405546e-16 0.2760130236516653 -0.961153895468615
12667898666.666666 0.26612944218137796 -0.9639373008676739 2.8456394311426647e-18 1.041144422812737e-16 2.8456394311426647e-18 1.041144422812737e-16 0.26613007972893976 -0.9639371248495908
12668516000.0 0.2562184413659181 -0.9666189064485797 3.9229230135045365e-18 1.0405910499914474e-16 3.9229230135045365e-18 1.0405910499914474e-16 0.25621908065594146 -0.9666187369938845
12669133333.333334 0.24628043027498087 -0.9691986120828886 4.999365967120727e-18 1.0399262836783994e-16 4.999365967120727e-18 1.0399262836783994e-16 0.24628107123990606 -0.9691984492088049
12669750666.666666 0.23631645656315403 -0.9716761458208512 6.074853185599037e-18 1.0391502385785664e-16 6.074853185599037e-18 1.0391502385785664e-16 0.23631709913525087 -0.9716759895439053
12670368000.0 0.22632757062208472 -0.9740512464835378 7.149269709871898e-18 1.0382630412832606e-16 7.149269709871898e-18 1.0382630412832606e-16 0.22632821473346101 -0.9740510968195621
12670985333.333334 0.21631482546961328 -0.9763236636904171 8.222500740477196e-18 1.037264830251926e-16 8.222500740477196e-18 1.037264830251926e-16 0.21631547105222076 -0.976323520654544
