! Parameters = {f0=12700.012000; bw=77.238000; Q=6100.000000; N=10; m_0_1=1.207703; m_1_1=-0.649205; m_1_2=1.042515; m_2_2=-0.649854; m_2_3=0.679478; m_2_8=-0.002551; m_2_9=0.034153; m_3_3=-0.651791; m_3_4=0.568007; m_3_7=-0.001951; m_3_8=-0.099039; m_3_9=-0.002551; m_4_4=-0.654716; m_4_5=0.404342; m_4_6=0.001566; m_4_7=-0.119588; m_4_8=-0.001951; m_5_5=-0.654334; m_5_6=0.811697; m_5_7=0.001566; m_6_6=-0.654335; m_6_7=0.404684; m_7_7=-0.654702; m_7_8=0.568125; m_8_8=-0.651793; m_8_9=0.679791; m_9_9=-0.649859; m_9_10=1.043593; m_10_10=-0.649215; m_10_11=1.208498}
!
! Created with skrf (http://scikit-rf.org).
# Hz S RI R 50.0 
!freq ReS11 ImS11 ReS21 ImS21 ReS12 ImS12 ReS22 ImS22
12607400000.0 0.7628995484857507 0.6465170368366774 -7.473996591753624e-17 -3.292967952689551e-17 -7.473996591753624e-17 -3.292967952689551e-17 0.7628991370432358 0.6465175223445425
12608017333.333334 0.768483322631023 0.6398698171017465 -7.501118539357457e-17 -3.226663382618671e-17 -7.501118539357457e-17 -3.226663382618671e-17 0.7684829154387276 0.6398703061391691
12608634666.666666 0.774009180748606 0.6331743741787977 -7.527652836938292e-17 -3.160136569867506e-17 -7.527652836938292e-17 -3.160136569867506e-17 0.774008777836799 0.6331748667085771
12609252000.0 0.7794767063873853 0.6264312126637003 -7.553597674026216e-17 -3.0933927178195675e-17 -7.553597674026216e-17 -3.0933927178195675e-17 0.779476307786012 0.626431708648378
12609869333.333334 0.7848854874925107 0.6196408407484807 -7.578951286182148e-17 -3.02643704450834e-17 -7.578951286182148e-17 -3.02643704450834e-17 0.7848850932311875 0.6196413401503407
12610486666.666666 0.7902351164362171 0.6128037701833098 -7.603711955115711e-17 -2.959274782209803e-17 -7.603711955115711e-17 -2.959274782209803e-17 0.7902347265442304 0.6128042729643823
12611104000.0 0.7955251900488804 0.6059205162375122 -7.627878008799464e-17 -2.8919111770339965e-17 -7.627878008799464e-17 -2.8919111770339965e-17 0.7955248045551853 0.6059210223595766
12611721333.333334 0.8007553096490168 0.5989915976612253 -7.65144782157874e-17 -2.824351488517873e-17 -7.65144782157874e-17 -2.824351488517873e-17 0.8007549285822337 0.5989921070858133
12612338666.666666 0.8059250810736438 0.5920175366459021 -7.674419814279029e-17 -2.7566009892142263e-17 -7.674419814279029e-17 -2.7566009892142263e-17 0.8059247044620556 0.5920180493342988
12612956000.0 0.8110341147078426 0.5849988587851317 -7.69679245430888e-17 -2.688664964281946e-17 -7.69679245430888e-17 -2.688664964281946e-17 0.8110337425793958 0.5849993746983821
12613573333.333334 0.8160820255140944 0.5779360930350812 -7.718564255759375e-17 -2.6205487110752808e-17 -7.718564255759375e-17 -2.6205487110752808e-17 0.8160816578963935 0.5779366121339902
12614190666.666666 0.8210684330614095 0.5708297716744647 -7.739733779500176e-17 -2.5522575387314112e-17 -7.739733779500176e-17 -2.5522575387314112e-17 0.8210680699817171 0.570830293919601
12614808000.0 0.8259929615538714 0.563680430264619 -7.760299633271994e-17 -2.4837967677573005e-17 -7.760299633271994e-17 -2.4837967677573005e-17 0.8259926030391043 0.5636809556163175
12615425333.333334 0.8308552398590825 0.5564886076089494 -7.780260471775105e-17 -2.4151717296167048e-17 -7.780260471775105e-17 -2.4151717296167048e-17 0.8308548859358124 0.5564891360273158
12616042666.666666 0.8356549015360113 0.549254845712516 -7.79961499675418e-17 -2.3463877663167264e-17 -7.79961499675418e-17 -2.3463877663167264e-17 0.8356545522304603 0.5492553771574282
12616660000.0 0.8403915848627328 0.5419796897409949 -7.818361957080118e-17 -2.2774502299915115e-17 -7.818361957080118e-17 -2.2774502299915115e-17 0.840391240200773 0.5419802241721069
12617277333.333334 0.8450649328635796 0.5346636879797569 -7.836500148827319e-17 -2.208364482488424e-17 -7.836500148827319e-17 -2.208364482488424e-17 0.8450645928707299 0.5346642253565014
12617894666.666666 0.8496745933360778 0.5273073917925031 -7.854028415347961e-17 -2.139135894951437e-17 -7.854028415347961e-17 -2.139135894951437e-17 0.8496742580375035 0.5273079320740948
12618512000.0 0.85422021887761 0.5199113555795152 -7.870945647342541e-17 -2.069769847403933e-17 -7.870945647342541e-17 -2.069769847403933e-17 0.8542198882981203 0.5199118987249541
12619129333.333334 0.8587014669113427 0.5124761367362863 -7.887250782926235e-17 -2.0002717283332597e-17 -7.887250782926235e-17 -2.0002717283332597e-17 0.8587011410753883 0.5124766827043609
12619746666.666666 0.8631179997122981 0.5050022956111022 -7.902942807692366e-17 -1.9306469342716463e-17 -7.902942807692366e-17 -1.9306469342716463e-17 0.8631176786439695 0.5050028443603914
12620364000.0 0.8674694844326836 0.4974903954630019 -7.918020754771583e-17 -1.8609008693788886e-17 -7.918020754771583e-17 -1.8609008693788886e-17 0.8674691681557112 0.49749094695188023
12620981333.333334 0.8717555931269708 0.48994100241935806 -7.932483704887534e-17 -1.791038945024432e-17 -7.932483704887534e-17 -1.791038945024432e-17 0.8717552816647189 0.4899415566059962
12621598666.666666 0.8759760027766293 0.4823546854331568 -7.946330786408969e-17 -1.7210665793681213e-17 -7.946330786408969e-17 -1.7210665793681213e-17 0.8759756961521002 0.48235524227552784
12622216000.0 0.8801303953145228 0.47473201624004996 -7.959561175398217e-17 -1.6509891969406196e-17 -7.959561175398217e-17 -1.6509891969406196e-17 0.8801300935503503 0.4747325756959301
12622833333.333334 0.8842184576487887 0.46707356931541155 -7.97217409565578e-17 -1.5808122282241567e-17 -7.97217409565578e-17 -1.5808122282241567e-17 0.884218160767238 0.4670741313423842
12623450666.666666 0.8882398816864799 0.4593799218309711 -7.984168818761031e-17 -1.510541109234367e-17 -7.984168818761031e-17 -1.510541109234367e-17 0.8882395897094475 0.45938048638643053
12624068000.0 0.8921943643568094 0.45165165361126397 -7.995544664110028e-17 -1.4401812810975425e-17 -7.995544664110028e-17 -1.4401812810975425e-17 0.8921940773058185 0.45165222065241756
12624685333.333334 0.8960816076339632 0.44388934708998395 -8.00630099894881e-17 -1.3697381896319713e-17 -8.00630099894881e-17 -1.3697381896319713e-17 0.8960813255301644 0.44388991657385635
12625302666.666666 0.8999013185595229 0.4360935872661648 -8.016437238403236e-17 -1.299217284928183e-17 -8.016437238403236e-17 -1.299217284928183e-17 0.8999010414236914 0.43609415914960015
12625920000.0 0.9036532092646339 0.4282649616599144 -8.025952845505614e-17 -1.2286240209255964e-17 -8.025952845505614e-17 -1.2286240209255964e-17 0.903652937117169 0.42826553589958083
12626537333.333334 0.9073369969916234 0.4204040602682897 -8.034847331216655e-17 -1.1579638549956634e-17 -8.034847331216655e-17 -1.1579638549956634e-17 0.907336729852546 0.4204046368206817
12627154666.666666 0.9109524041152889 0.41251147552088435 -8.043120254444797e-17 -1.0872422475180655e-17 -8.043120254444797e-17 -1.0872422475180655e-17 0.9109521420042409 0.4125120543423264
12627772000.0 0.9144991581639859 0.4045878022348188 -8.050771222061201e-17 -1.0164646614602542e-17 -8.050771222061201e-17 -1.0164646614602542e-17 0.9144989011002297 0.40458838328146957
12628389333.333334 0.9179769918399082 0.3966336375704842 -8.057799888911126e-17 -9.456365619578948e-18 -8.057799888911126e-17 -9.456365619578948e-18 0.9179767398423213 0.3966342207983375
12629006666.666666 0.92138564303948 0.3886495809859628 -8.064205957821815e-17 -8.747634158923135e-18 -8.064205957821815e-17 -8.747634158923135e-18 0.9213853961265585 0.3886501663508534
12629624000.0 0.9247248548729549 0.3806362341922179 -8.069989179606534e-17 -8.038506914705088e-18 -8.069989179606534e-17 -8.038506914705088e-18 0.9247246130628088 0.3806368216498236
12630241333.333334 0.9279943756838079 0.3725942011076671 -8.075149353064955e-17 -7.32903857803608e-18 -8.075149353064955e-17 -7.32903857803608e-18 0.9279941389941609 0.3725947906135119
12630858666.666666 0.9311939590677127 0.3645240878126423 -8.079686324979756e-17 -6.619283844881874e-18 -8.079686324979756e-17 -6.619283844881874e-18 0.9311937275159022 0.36452467932210114
12631476000.0 0.934323363891146 0.3564265025036354 -8.083599990109903e-17 -5.909297411815043e-18 -8.083599990109903e-17 -5.909297411815043e-18 0.9343231374941188 0.35642709597193567
12632093333.333334 0.9373823543095015 0.3483020554475913 -8.086890291179657e-17 -5.199133971858608e-18 -8.086890291179657e-17 -5.199133971858608e-18 0.9373821330838152 0.34830265082981765
12632710666.666666 0.9403706997848522 0.3401513589359723 -8.089557218864442e-17 -4.488848210253396e-18 -8.089557218864442e-17 -4.488848210253396e-18 0.9403704837466728 0.3401519561870691
12633328000.0 0.9432881751034486 0.3319750272382649 -8.091600811772792e-17 -3.778494800252914e-18 -8.091600811772792e-17 -3.778494800252914e-18 0.9432879642685502 0.33197562631304084
12633945333.333334 0.9461345603925274 0.3237736765561403 -8.093021156424517e-17 -3.068128398953017e-18 -8.093021156424517e-17 -3.068128398953017e-18 0.9461343547762895 0.3237742774092704
12634562666.666666 0.9489096411369967 0.3155479249766945 -8.093818387225465e-17 -2.357803643069241e-18 -8.093818387225465e-17 -2.357803643069241e-18 0.9489094407544049 0.31554852756272445
12635180000.0 0.9516132081955639 0.3072983924259725 -8.093992686438376e-17 -1.6475751447656524e-18 -8.093992686438376e-17 -1.6475751447656524e-18 0.9516130130612084 0.3072989966993221
12635797333.333334 0.9542450578164823 0.29902570062230377 -8.093544284150221e-17 -9.374974874481072e-19 -8.093544284150221e-17 -9.374974874481072e-19 0.9542448679445543 0.29902630653726947
12636414666.666666 0.9568049916529298 0.2907304730293647 -8.09247345823579e-17 -2.2762522159587663e-19 -8.09247345823579e-17 -2.2762522159587663e-19 0.9568048070572248 0.2907310805401244
12637032000.0 0.9592928167779434 0.28241333480924724 -8.09078053431767e-17 4.819871394255772e-19 -8.09078053431767e-17 4.819871394255772e-19 0.9592926374718568 0.28241394386986274
12637649333.333334 0.9617083456989901 0.27407491277523455 -8.088465885722542e-17 1.1912851235473307e-18 -8.088465885722542e-17 1.1912851235473307e-18 0.9617081716955176 0.2740755233396553
12638266666.666666 0.964051396372041 0.26571583534475257 -8.085529933433859e-17 1.9002143041519293e-18 -8.085529933433859e-17 1.9002143041519293e-18 0.9640512276837773 0.26571644736681926
12638884000.0 0.966321792215352 0.25733673249179156 -8.081973146040821e-17 2.608720304257682e-18 -8.081973146040821e-17 2.608720304257682e-18 0.9663216288544899 0.25733734592523944
12639501333.333334 0.9685193621227209 0.24893823569962045 -8.077796039683801e-17 3.3167488006630335e-18 -8.077796039683801e-17 3.3167488006630335e-18 0.9685192041010513 0.24893885049808315
12640118666.666666 0.9706439404763972 0.24052097791314092 -8.072999177996117e-17 4.024245528103589e-18 -8.072999177996117e-17 4.024245528103589e-18 0.9706437878053075 0.24052159403015377
12640736000.0 0.9726953671596205 0.23208559349096602 -8.067583172041917e-17 4.73115628343053e-18 -8.067583172041917e-17 4.73115628343053e-18 0.9726952198500926 0.23208621087996922
12641353333.333334 0.9746734875685651 0.2236327181580797 -8.061548680251102e-17 5.437426929690951e-18 -8.061548680251102e-17 5.437426929690951e-18 0.9746733456311776 0.2236333367724226
12641970666.666666 0.9765781526241234 0.21516298895743155 -8.054896408349786e-17 6.14300340032758e-18 -8.054896408349786e-17 6.14300340032758e-18 0.9765780160690473 0.21516360875037524
12642588000.0 0.9784092187830451 0.20667704420228358 -8.047627109287839e-17 6.84783170326602e-18 -8.047627109287839e-17 6.84783170326602e-18 0.9784090876200462 0.20667766512700525
12643205333.333334 0.9801665480488133 0.19817552342788441 -8.039741583162432e-17 7.551857925054248e-18 -8.039741583162432e-17 7.551857925054248e-18 0.9801664222872479 0.19817614543748016
12643822666.666666 0.9818500079820132 0.18965906734338092 -8.031240677138092e-17 8.255028234978395e-18 -8.031240677138092e-17 8.255028234978395e-18 0.9818498876308337 0.18965969039087036
12644440000.0 0.9834594717103393 0.18112831778345 -8.022125285363348e-17 8.957288889150008e-18 -8.022125285363348e-17 8.957288889150008e-18 0.9834593567780847 0.1811289418217782
12645057333.333334 0.9849948179381083 0.17258391766012054 -8.0123963488835e-17 9.658586234621614e-18 -8.0123963488835e-17 9.658586234621614e-18 0.9849947084329115 0.17258454264216314
12645674666.666666 0.986455930955448 0.16402651091412748 -8.002054855550163e-17 1.0358866713457173e-17 -8.002054855550163e-17 1.0358866713457173e-17 0.9864558268850318 0.16402713679269343
12646292000.0 0.9878427006470302 0.15545674246626842 -7.991101839926634e-17 1.1058076866843703e-17 -7.991101839926634e-17 1.1058076866843703e-17 0.9878426020187068 0.15545736919410386
12646909333.333334 0.9891550225002947 0.14687525816924862 -7.979538383190619e-17 1.1756163339125473e-17 -7.979538383190619e-17 1.1756163339125473e-17 0.989154929320965 0.14687588569904006
12647526666.666666 0.9903927976134045 0.13828270475852986 -7.9673656130327e-17 1.2453072881880994e-17 -7.9673656130327e-17 1.2453072881880994e-17 0.9903927098895594 0.13828333304290824
12648144000.0 0.9915559327026611 0.12967972980384299 -7.954584703551276e-17 1.3148752357987805e-17 -7.954584703551276e-17 1.3148752357987805e-17 0.9915558504403778 0.12968035879538675
12648761333.333334 0.992644340109544 0.12106698166027083 -7.941196875144605e-17 1.3843148745636407e-17 -7.941196875144605e-17 1.3843148745636407e-17 0.9926442633144896 0.12106761131151003
12649378666.666666 0.9936579378072987 0.11244510941961247 -7.927203394398655e-17 1.4536209142379047e-17 -7.927203394398655e-17 1.4536209142379047e-17 0.9936578664847255 0.11244573968303179
12649996000.0 0.9945966494071531 0.10381476286109702 -7.912605573971798e-17 1.5227880769142833e-17 -7.912605573971798e-17 1.5227880769142833e-17 0.9945965835619028 0.10381539368913995
12650613333.333334 0.9954604041640472 0.09517659240272519 -7.897404772475759e-17 1.5918110974247584e-17 -7.897404772475759e-17 1.5918110974247584e-17 0.9954603438005467 0.09517722374779707
12651230666.666666 0.996249136981967 0.08653124905216565 -7.881602394353552e-17 1.6606847237387623e-17 -7.881602394353552e-17 1.6606847237387623e-17 0.9962490821042312 0.0865318808666377
12651848000.0 0.996962788418875 0.07787938435749492 -7.865199889753289e-17 1.7294037173633292e-17 -7.865199889753289e-17 1.7294037173633292e-17 0.996962739030504 0.07788001659370754
12652465333.333334 0.9976013046911557 0.06922165035843343 -7.848198754398996e-17 1.79796285374004e-17 -7.848198754398996e-17 1.79796285374004e-17 0.9976012607953351 0.06922228296869984
12653082666.666666 0.9981646376776863 0.06055869953700698 -7.830600529458216e-17 1.8663569226393966e-17 -7.830600529458216e-17 1.8663569226393966e-17 0.9981645992771886 0.06055933247361697
12653700000.0 0.9986527449234698 0.05189118476831654 -7.812406801404951e-17 1.9345807285595186e-17 -7.812406801404951e-17 1.9345807285595186e-17 0.9986527120206523 0.051891817983539895
12654317333.333334 0.9990655896428197 0.04321975927150475 -7.793619201880912e-17 2.0026290911159797e-17 -7.793619201880912e-17 2.0026290911159797e-17 0.9990655622396247 0.04322039271759491
12654934666.666666 0.999403140722138 0.0345450765604702 -7.774239407552106e-17 2.0704968454356748e-17 -7.774239407552106e-17 2.0704968454356748e-17 0.9994031188200945 0.034545710189667914
12655552000.0 0.9996653727222689 0.02586779039438871 -7.754269139961958e-17 2.138178842549321e-17 -7.754269139961958e-17 2.138178842549321e-17 0.9996653563224919 0.025868424158925617
12656169333.333334 0.9998522658804008 0.017188554728926275 -7.733710165382481e-17 2.2056699497772932e-17 -7.733710165382481e-17 2.2056699497772932e-17 0.9998522549835884 0.0171891885810284
12656786666.666666 0.9999638061115671 0.008508023666471314 -7.712564294660029e-17 2.272965051121556e-17 -7.712564294660029e-17 2.272965051121556e-17 0.9999638007180036 0.00850865755836277
12657404000.0 0.9999999850097036 -0.0001731485929338435 -7.690833383059171e-17 2.340059047650643e-17 -7.690833383059171e-17 2.340059047650643e-17 0.9999999851192578 -0.00017251470902726889
12658021333.333334 0.9999607998482786 -0.00885430780086767 -7.668519330102839e-17 2.4069468578847307e-17 -7.668519330102839e-17 2.4069468578847307e-17 0.9999608054604069 -0.00885367397271493
12658638666.666666 0.999846253580507 -0.017534799709893113 -7.645624079408925e-17 2.4736234181798753e-17 -7.645624079408925e-17 2.4736234181798753e-17 0.9998462646942496 -0.017534165985254316
12659256000.0 0.9996563548391193 -0.026213970122921173 -7.622149618523501e-17 2.5400836831107108e-17 -7.622149618523501e-17 2.5400836831107108e-17 0.9996563714531018 -0.026213336549543956
12659873333.333334 0.9993911179357147 -0.03489116494248545 -7.598097978751063e-17 2.606322625850745e-17 -7.598097978751063e-17 2.606322625850745e-17 0.9993911400481478 -0.03489053156810138
12660490666.666666 0.9990505628596865 -0.043565730219810264 -7.573471234981545e-17 2.6723352385508632e-17 -7.573471234981545e-17 2.6723352385508632e-17 0.9990505904683681 -0.04356509709213127
12661108000.0 0.9986347152767006 -0.052237012204606185 -7.548271505513258e-17 2.7381165327183617e-17 -7.548271505513258e-17 2.7381165327183617e-17 0.9986347483790142 -0.052236379371320966
12661725333.333334 0.9981436065267865 -0.06090435739371463 -7.522500951873723e-17 2.803661539591374e-17 -7.522500951873723e-17 2.803661539591374e-17 0.9981436451197012 -0.06090372490248502
12662342666.666666 0.9975772736219498 -0.06956711258086945 -7.496161778636364e-17 2.868965310513731e-17 -7.496161778636364e-17 2.868965310513731e-17 0.9975773177020222 -0.06956648047932688
12662960000.0 0.9969357592433954 -0.07822462490569815 -7.469256233234058e-17 2.934022917308175e-17 -7.469256233234058e-17 2.934022917308175e-17 0.9969358088067684 -0.07822399324144001
12663577333.333334 0.9962191117383142 -0.08687624190286733 -7.441786605770203e-17 2.998829452645688e-17 -7.441786605770203e-17 2.998829452645688e-17 0.9962191667807184 -0.08687561072345351
12664194666.666666 0.995427385116228 -0.0955213115514538 -7.413755228825476e-17 3.0633800304160684e-17 -7.413755228825476e-17 3.0633800304160684e-17 0.9954274456329808 -0.09552068090440292
12664812000.0 0.9945606390449342 -0.10415918232385671 -7.38516447726221e-17 3.1276697860946096e-17 -7.38516447726221e-17 3.1276697860946096e-17 0.994560705030941 -0.10415855225664264
12665429333.333334 0.993618938845985 -0.11278920323515383 -7.356016768025521e-17 3.191693877107179e-17 -7.356016768025521e-17 3.191693877107179e-17 0.9936190102957403 -0.1127885737952022
12666046666.666666 0.9926023554898066 -0.1214107238917954 -7.326314559940968e-17 3.25544748319434e-17 -7.326314559940968e-17 3.25544748319434e-17 0.992602432397393 -0.12141009512647985
12666664000.0 0.9915109655902874 -0.13002309454115665 -7.296060353508883e-17 3.3189258067737703e-17 -7.296060353508883e-17 3.3189258067737703e-17 0.9915110479493767 -0.13002246649779536
12667281333.333334 0.9903448513990774 -0.138625666119885 -7.265256690696631e-17 3.382124073298776e-17 -7.265256690696631e-17 3.382124073298776e-17 0.9903449392029323 -0.1386250388457373
12667898666.666666 0.9891041007993282 -0.14721779030332388 -7.233906154726325e-17 3.445037531617747e-17 -7.233906154726325e-17 3.445037531617747e-17 0.9891041940408016 -0.1472171638455865
12668516000.0 0.9877888072990985 -0.1557988195541477 -7.202011369860497e-17 3.507661454329645e-17 -7.202011369860497e-17 3.507661454329645e-17 0.9877889059706325 -0.15579819395995095
12669133333.333334 0.9863990700243129 -0.1643681071711061 -7.169575001184541e-17 3.5699911381377065e-17 -7.169575001184541e-17 3.5699911381377065e-17 0.9863991741179429 -0.1643674824875109
12669750666.666666 0.9849349937112645 -0.17292500733795935 -7.136599754385775e-17 3.632021904202005e-17 -7.136599754385775e-17 3.632021904202005e-17 0.9849351032186172 -0.1729243836119534
12670368000.0 0.9833966886987509 -0.18146887517195284 -7.103088375529304e-17 3.6937490984901694e-17 -7.103088375529304e-17 3.6937490984901694e-17 0.9833968036110463 -0.181468252450447
