! Parameters = {f0=12700.012000; bw=77.238000; Q=6100.000000; N=10; m_0_1=1.284580; m_1_1=0.503948; m_1_2=1.119392; m_2_2=0.503299; m_2_3=0.756355; m_2_8=0.001293; m_2_9=0.037997; m_3_3=0.501362; m_3_4=0.644884; m_3_7=0.001893; m_3_8=-0.095195; m_3_9=0.001293; m_4_4=0.498437; m_4_5=0.481219; m_4_6=0.005410; m_4_7=-0.115744; m_4_8=0.001893; m_5_5=0.498819; m_5_6=0.888574; m_5_7=0.005410; m_6_6=0.498818; m_6_7=0.481561; m_7_7=0.498451; m_7_8=0.645002; m_8_8=0.501360; m_8_9=0.756668; m_9_9=0.503294; m_9_10=1.120470; m_10_10=0.503938; m_10_11=1.285375}
!
! Created with skrf (http://scikit-rf.org).
# Hz S RI R 50.0 
!freq ReS11 ImS11 ReS21 ImS21 ReS12 ImS12 ReS22 ImS22
12607400000.0 -0.18694546825695613 -0.9823702926585304 5.426740881204389e-17 1.0524805384624037e-16 5.426740881204389e-17 1.0524805384624037e-16 -0.1869448034220967 -0.9823704191766431
12608017333.333334 -0.19769488018979842 -0.9802636045200092 5.541543975166028e-17 1.046219019568824e-16 5.541543975166028e-17 1.046219019568824e-16 -0.1976942168131516 -0.9802637383064082
12608634666.666666 -0.2084205711083841 -0.9780392965206842 5.655626356236014e-17 1.0398323728959363e-16 5.655626356236014e-17 1.0398323728959363e-16 -0.20841990926940043 -0.978039437558606
12609252000.0 -0.21912125405864533 -0.9756976355508843 5.768974397217508e-17 1.0333214261340209e-16 5.768974397217508e-17 1.0333214261340209e-16 -0.21912059383658314 -0.9756977838226969
12609869333.333334 -0.22979564508719924 -0.9732389025818775 5.881574565770487e-17 1.0266870218020501e-16 5.881574565770487e-17 1.0266870218020501e-16 -0.2297949865611152 -0.9732390580690833
12610486666.666666 -0.24044246339518596 -0.9706633926322118 5.993413426021696e-17 1.0199300171393299e-16 5.993413426021696e-17 1.0199300171393299e-16 -0.24044180664392512 -0.9706635553154477
12611104000.0 -0.25106043149244567 -0.9679714147321947 6.104477640169712e-17 1.0130512839949378e-16 6.104477640169712e-17 1.0130512839949378e-16 -0.251059776594633 -0.9679715845912383
12611721333.333334 -0.26164827535019664 -0.9651632918869679 6.214753970065914e-17 1.0060517087161206e-16 6.214753970065914e-17 1.0060517087161206e-16 -0.26164762238422634 -0.9651634689007356
12612338666.666666 -0.2722047245543698 -0.9622393610376262 6.324229278793885e-17 9.98932192034284e-17 6.324229278793885e-17 9.98932192034284e-17 -0.2722040735983975 -0.9622395451841802
12612956000.0 -0.282728512457962 -0.9591999730208124 6.432890532230102e-17 9.916936489496262e-17 6.432890532230102e-17 9.916936489496262e-17 -0.28272786358989377 -0.9592001642773597
12613573333.333334 -0.2932183763326887 -0.9560454925267107 6.540724800589016e-17 9.843370086142462e-17 6.540724800589016e-17 9.843370086142462e-17 -0.29321772963017284 -0.9560456908696082
12614190666.666666 -0.3036730575209613 -0.9527762980551573 6.647719259962655e-17 9.768632142130584e-17 6.647719259962655e-17 9.768632142130584e-17 -0.3036724130613785 -0.9527765034599135
12614808000.0 -0.3140913015865572 -0.9493927818703294 6.753861193839974e-17 9.692732228434841e-17 6.753861193839974e-17 9.692732228434841e-17 -0.3140906594470113 -0.949392994311608
12615425333.333334 -0.32447185846535265 -0.9458953499536086 6.859137994614259e-17 9.615680053933893e-17 6.859137994614259e-17 9.615680053933893e-17 -0.32447121872266227 -0.9458955694052329
12616042666.666666 -0.33481348261523625 -0.9422844219548987 6.963537165078837e-17 9.537485464172341e-17 6.963537165078837e-17 9.537485464172341e-17 -0.3348128453459243 -0.9422846483898512
12616660000.0 -0.3451149331654765 -0.9385604311422944 7.067046319906274e-17 9.458158440107767e-17 7.067046319906274e-17 9.458158440107767e-17 -0.3451142984457621 -0.9385606645327244
12617277333.333334 -0.355374974065827 -0.9347238243500232 7.169653187113633e-17 9.377709096841573e-17 7.169653187113633e-17 9.377709096841573e-17 -0.35537434197161566 -0.9347240646672476
12617894666.666666 -0.3655923742344907 -0.9307750619249576 7.271345609514229e-17 9.296147682333474e-17 7.271345609514229e-17 9.296147682333474e-17 -0.36559174484136553 -0.9307753091394646
12618512000.0 -0.3757659077063133 -0.9267146176711966 7.372111546156548e-17 9.213484576098673e-17 7.372111546156548e-17 9.213484576098673e-17 -0.3757652810895257 -0.9267148717526494
12619129333.333334 -0.3858943537794325 -0.9225429787933868 7.47193907374195e-17 9.129730287894858e-17 7.47193907374195e-17 9.129730287894858e-17 -0.3858937300138939 -0.9225432397106295
12619746666.666666 -0.39597649716193484 -0.9182606458381976 7.570816388036359e-17 9.044895456386649e-17 7.570816388036359e-17 9.044895456386649e-17 -0.3959758763222073 -0.9182609135592563
12620364000.0 -0.4060111281178592 -0.9138681326341802 7.668731805260351e-17 8.958990847800152e-17 7.668731805260351e-17 8.958990847800152e-17 -0.4060105102781457 -0.9138684071262663
12620981333.333334 -0.4159970426119036 -0.9093659662303014 7.765673763465635e-17 8.872027354561235e-17 7.765673763465635e-17 8.872027354561235e-17 -0.41599642784604074 -0.9093662474598194
12621598666.666666 -0.4259330424543419 -0.9047546868325184 7.861630823898373e-17 8.78401599391697e-17 7.861630823898373e-17 8.78401599391697e-17 -0.4259324308357895 -0.9047549747650657
12622216000.0 -0.43581793544458025 -0.9000348477390434 7.956591672343222e-17 8.69496790654573e-17 7.956591672343222e-17 8.69496790654573e-17 -0.43581732704641424 -0.9000351423394191
12622833333.333334 -0.4456505355141846 -0.8952070152739756 8.050545120455888e-17 8.604894355148984e-17 8.050545120455888e-17 8.604894355148984e-17 -0.44564993040908674 -0.8952073165061799
12623450666.666666 -0.4554296628692699 -0.8902717687193071 8.143480107074649e-17 8.51380672303353e-17 8.143480107074649e-17 8.51380672303353e-17 -0.45542906112951964 -0.8902720765465487
12624068000.0 -0.4651541441319856 -0.8852297002454568 8.235385699521745e-17 8.421716512674108e-17 8.235385699521745e-17 8.421716512674108e-17 -0.465153545829452 -0.8852300146301569
12624685333.333334 -0.4748228124815334 -0.8800814148400968 8.326251094885099e-17 8.32863534426517e-17 8.326251094885099e-17 8.32863534426517e-17 -0.47482221768766614 -0.8800817357438944
12625302666.666666 -0.4844345077937204 -0.874827530235804 8.416065621281318e-17 8.234574954261677e-17 8.416065621281318e-17 8.234574954261677e-17 -0.4844339165795408 -0.8748278576195584
12625920000.0 -0.49398807678070916 -0.8694686768356384 8.504818739110033e-17 8.139547193898014e-17 8.504818739110033e-17 8.139547193898014e-17 -0.4939874892168028 -0.8694690106594364
12626537333.333334 -0.5034823731289757 -0.8640054976377378 8.592500042282902e-17 8.043564027702747e-17 8.592500042282902e-17 8.043564027702747e-17 -0.5034817892854824 -0.8640058378608961
12627154666.666666 -0.5129162576369283 -0.8584386481581243 8.679099259440445e-17 7.946637531995265e-17 8.679099259440445e-17 7.946637531995265e-17 -0.5129156775835352 -0.8584389947391967
12627772000.0 -0.5222885983519179 -0.8527687963518653 8.764606255154216e-17 7.848779893366916e-17 8.764606255154216e-17 7.848779893366916e-17 -0.5222880221578502 -0.8527691492486466
12628389333.333334 -0.5315982707055188 -0.8469966225332435 8.849011031104123e-17 7.750003407157993e-17 8.849011031104123e-17 7.750003407157993e-17 -0.5315976984395326 -0.8469969817027752
12629006666.666666 -0.5408441576490012 -0.8411228192938064 8.932303727248308e-17 7.650320475911033e-17 8.932303727248308e-17 7.650320475911033e-17 -0.5408435893793744 -0.8411231846923818
12629624000.0 -0.5500251497870228 -0.8351480914194702 9.014474622967836e-17 7.54974360782076e-17 9.014474622967836e-17 7.54974360782076e-17 -0.5500245855815461 -0.8351484630026379
12630241333.333334 -0.559140145510814 -0.8290731558059068 9.09551413819763e-17 7.448285415167424e-17 9.09551413819763e-17 7.448285415167424e-17 -0.5591395854367855 -0.8290735335284799
12630858666.666666 -0.5681880511303639 -0.8228987413725335 9.175412834539258e-17 7.345958612738883e-17 9.175412834539258e-17 7.345958612738883e-17 -0.5681874952545778 -0.8228991251885912
12631476000.0 -0.5771677810058304 -0.8166255889749144 9.254161416357549e-17 7.242776016238625e-17 9.254161416357549e-17 7.242776016238625e-17 -0.5771672293945725 -0.816625978837811
12632093333.333334 -0.5860782576774581 -0.8102544513161131 9.33175073185454e-17 7.138750540688501e-17 9.33175073185454e-17 7.138750540688501e-17 -0.5860777103964946 -0.8102548471784801
12632710666.666666 -0.5949184119950458 -0.8037860928562479 9.408171774131379e-17 7.03389519881229e-17 9.408171774131379e-17 7.03389519881229e-17 -0.5949178691096176 -0.8037864946700033
12633328000.0 -0.6036871832463936 -0.7972212897206492 9.483415682228901e-17 6.928223099412252e-17 9.483415682228901e-17 6.928223099412252e-17 -0.6036866448212076 -0.7972216974370007
12633945333.333334 -0.6123835192843197 -0.7905608296069139 9.557473742150167e-17 6.821747445734268e-17 9.557473742150167e-17 6.821747445734268e-17 -0.6123829853835414 -0.790561243176366
12634562666.666666 -0.6210063766529543 -0.7838055116903612 9.630337387865608e-17 6.714481533821165e-17 9.630337387865608e-17 6.714481533821165e-17 -0.6210058473402006 -0.7838059310627211
12635180000.0 -0.6295547207130561 -0.7769561465280561 9.701998202298436e-17 6.606438750856879e-17 9.701998202298436e-17 6.606438750856879e-17 -0.6295541960513863 -0.7769565716524395
12635797333.333334 -0.6380275257661062 -0.770013555961582 9.772447918293927e-17 6.497632573496948e-17 9.772447918293927e-17 6.497632573496948e-17 -0.6380270058180163 -0.7700139867864201
12636414666.666666 -0.6464237751772299 -0.7629785730185594 9.841678419566219e-17 6.388076566194247e-17 9.841678419566219e-17 6.388076566194247e-17 -0.6464232600046437 -0.7629790094916038
12637032000.0 -0.6547424614974652 -0.7558520418124572 9.909681741631039e-17 6.277784379507745e-17 9.909681741631039e-17 6.277784379507745e-17 -0.6547419511617272 -0.7558524838807864
12637649333.333334 -0.6629825865843801 -0.7486348174415249 9.976450072715853e-17 6.166769748406985e-17 9.976450072715853e-17 6.166769748406985e-17 -0.6629820811462492 -0.7486352650515522
12638266666.666666 -0.6711431617220145 -0.7413277658860471 1.004197575465198e-16 6.055046490565563e-17 1.004197575465198e-16 6.055046490565563e-17 -0.6711426612416564 -0.7413282189835269
12638884000.0 -0.679223207739447 -0.7339317639044907 1.01062512837491e-16 5.942628504642954e-17 1.01062512837491e-16 5.942628504642954e-17 -0.6792227122764255 -0.7339322224345222
12639501333.333334 -0.6872217551282412 -0.72644769892834 1.0169269311649062e-16 5.82952976855932e-17 1.0169269311649062e-16 5.82952976855932e-17 -0.6872212647415132 -0.7264481628353779
12640118666.666666 -0.6951378441587795 -0.7188764689556224 1.0231022646159492e-16 5.715764337763516e-17 1.0231022646159492e-16 5.715764337763516e-17 -0.695137358906687 -0.7188769381834812
12640736000.0 -0.7029705249956834 -0.7112189824428997 1.0291504252073073e-16 5.601346343482885e-17 1.0291504252073073e-16 5.601346343482885e-17 -0.7029700449359458 -0.7112194569347599
12641353333.333334 -0.7107188578112484 -0.7034761581967758 1.0350707251958593e-16 5.4862899909806076e-17 1.0350707251958593e-16 5.4862899909806076e-17 -0.7107183830009578 -0.7034766378951931
12641970666.666666 -0.718381912898686 -0.6956489252632001 1.040862492694206e-16 5.370609557787176e-17 1.040862492694206e-16 5.370609557787176e-17 -0.7183814433942983 -0.6956494101101109
12642588000.0 -0.7259587707835103 -0.6877382228161487 1.0465250717461636e-16 5.254319391935729e-17 1.0465250717461636e-16 5.254319391935729e-17 -0.7259583066408398 -0.6877387127528776
12643205333.333334 -0.7334485223338466 -0.6797450000449561 1.0520578224004648e-16 5.1374339101862827e-17 1.0520578224004648e-16 5.1374339101862827e-17 -0.7334480636080581 -0.6797454950122219
12643822666.666666 -0.7408502688695333 -0.6716702160404022 1.0574601207826575e-16 5.019967596238712e-17 1.0574601207826575e-16 5.019967596238712e-17 -0.7408498156151369 -0.6716707159783265
12644440000.0 -0.7481631222699937 -0.6635148396795923 1.0627313591647481e-16 4.9019349989436117e-17 1.0627313591647481e-16 4.9019349989436117e-17 -0.7481626745408377 -0.6635153445277067
12645057333.333334 -0.755386205080664 -0.6552798495098507 1.0678709460329483e-16 4.783350730504188e-17 1.0678709460329483e-16 4.783350730504188e-17 -0.7553857629299291 -0.6552803592071029
12645674666.666666 -0.7625186506184162 -0.646966233631161 1.0728783061535244e-16 4.6642294646686714e-17 1.0728783061535244e-16 4.6642294646686714e-17 -0.7625182140986069 -0.6469667481159227
12646292000.0 -0.7695596030756143 -0.638574989577515 1.0777528806365959e-16 4.544585934916491e-17 1.0777528806365959e-16 4.544585934916491e-17 -0.769559172238556 -0.6385755087875898
12646909333.333334 -0.7765082176225114 -0.6301071241975688 1.0824941269976779e-16 4.424434932644086e-17 1.0824941269976779e-16 4.424434932644086e-17 -0.7765077925193423 -0.6301076480701999
12647526666.666666 -0.7833636605089135 -0.6215636535334871 1.0871015192175961e-16 4.303791305334487e-17 1.0871015192175961e-16 4.303791305334487e-17 -0.7833632411900778 -0.6215641820053633
12648144000.0 -0.7901251091641387 -0.6129456026991117 1.0915745478001196e-16 4.1826699547269346e-17 1.0915745478001196e-16 4.1826699547269346e-17 -0.7901246956793838 -0.612946135706378
12648761333.333334 -0.7967917522956 -0.604254005757122 1.0959127198275302e-16 4.061085834981553e-17 1.0959127198275302e-16 4.061085834981553e-17 -0.7967913446939662 -0.6042545432353833
12649378666.666666 -0.8033627899862666 -0.5954899055947976 1.1001155590143133e-16 3.9390539508340135e-17 1.1001155590143133e-16 3.9390539508340135e-17 -0.8033623883160854 -0.5954904474791307
12649996000.0 -0.809837433790601 -0.5866543537989594 1.1041826057586831e-16 3.8165893557478446e-17 1.1041826057586831e-16 3.8165893557478446e-17 -0.8098370380994862 -0.586654900023917
12650613333.333334 -0.816214906829238 -0.5777484105296691 1.1081134171921415e-16 3.693707150059023e-17 1.1081134171921415e-16 3.693707150059023e-17 -0.8162145171640823 -0.5777489610292909
12651230666.666666 -0.8224944438820077 -0.5687731443933052 1.1119075672268018e-16 3.570422479120942e-17 1.1119075672268018e-16 3.570422479120942e-17 -0.8224940602889758 -0.5687736991011239
12651848000.0 -0.8286752914800298 -0.5597296323139473 1.11556464660095e-16 3.4467505314354626e-17 1.11556464660095e-16 3.4467505314354626e-17 -0.8286749140045541 -0.5597301911629975
12652465333.333334 -0.8347567079959257 -0.5506189594044365 1.1190842629222328e-16 3.3227065367885725e-17 1.1190842629222328e-16 3.3227065367885725e-17 -0.8347563366826987 -0.5506195223272615
12653082666.666666 -0.8407379637327573 -0.541442218836247 1.1224660407088827e-16 3.19830576437896e-17 1.1224660407088827e-16 3.19830576437896e-17 -0.8407375986257283 -0.5414427857649085
12653700000.0 -0.8466183410118483 -0.5322005117079149 1.1257096214290273e-16 3.073563520936403e-17 1.1257096214290273e-16 3.073563520936403e-17 -0.8466179821542191 -0.5322010825740017
12654317333.333334 -0.8523971342585591 -0.5228949469134466 1.1288146635376233e-16 2.9484951488468784e-17 1.1288146635376233e-16 2.9484951488468784e-17 -0.8523967816927766 -0.5228955216480803
12654934666.666666 -0.8580736500872072 -0.5135266410088558 1.1317808425115216e-16 2.823116024266384e-17 1.1317808425115216e-16 2.823116024266384e-17 -0.8580733038549583 -0.5135272195427009
12655552000.0 -0.8636472073842126 -0.5040967180782598 1.1346078508824245e-16 2.697441555231678e-17 1.1346078508824245e-16 2.697441555231678e-17 -0.8636468675264212 -0.5040973003415319
12656169333.333334 -0.8691171373896532 -0.49460630959929747 1.137295398267616e-16 2.571487179773678e-17 1.137295398267616e-16 2.571487179773678e-17 -0.8691168039464751 -0.4946068955217721
12656786666.666666 -0.8744827837777537 -0.4850565543069502 1.1398432113987412e-16 2.4452683640218128e-17 1.1398432113987412e-16 2.4452683640218128e-17 -0.8744824567885703 -0.48505714381797027
12657404000.0 -0.8797435027354498 -0.4754485980572258 1.1422510341484535e-16 2.318800600307304e-17 1.1422510341484535e-16 2.318800600307304e-17 -0.8797431822388647 -0.4754491910857103
12658021333.333334 -0.8848986630397784 -0.46578359368942185 1.1445186275548994e-16 2.1920994052665755e-17 1.1445186275548994e-16 2.1920994052665755e-17 -0.8848983490736121 -0.46578419016387507
12658638666.666666 -0.8899476461334397 -0.45606270088812406 1.1466457698441702e-16 2.065180317939869e-17 1.1466457698441702e-16 2.065180317939869e-17 -0.8899473387347248 -0.4560633007366431
12659256000.0 -0.8948898461992436 -0.44628708604363104 1.1486322564506642e-16 1.9380588978662124e-17 1.1486322564506642e-16 1.9380588978662124e-17 -0.8948895454042222 -0.446287689193916
12659873333.333334 -0.8997246702326399 -0.4364579221123024 1.1504779000352354e-16 1.8107507231828398e-17 1.1504779000352354e-16 1.8107507231828398e-17 -0.8997243760767584 -0.43645852849166394
12660490666.666666 -0.9044515381128397 -0.4265763884758973 1.152182530501355e-16 1.6832713887172295e-17 1.152182530501355e-16 1.6832713887172295e-17 -0.904451250630744 -0.426576998011266
12661108000.0 -0.9090698826726318 -0.4166436707996274 1.1537459950091388e-16 1.5556365040774897e-17 1.1537459950091388e-16 1.5556365040774897e-17 -0.9090696018981643 -0.4166442834175623
12661725333.333334 -0.9135791497661666 -0.4066609608904555 1.1551681579871748e-16 1.4278616917495672e-17 1.1551681579871748e-16 1.4278616917495672e-17 -0.9135788757323611 -0.40666157651715285
12662342666.666666 -0.917978798335666 -0.3966294565536304 1.1564489011423906e-16 1.2999625851821564e-17 1.1564489011423906e-16 1.2999625851821564e-17 -0.9179785310747438 -0.39663007511493226
12662960000.0 -0.9222683004762433 -0.3865503614491691 1.1575881234676796e-16 1.1719548268811812e-17 1.1575881234676796e-16 1.1719548268811812e-17 -0.9222680400196109 -0.3865509828705732
12663577333.333334 -0.9264471414992292 -0.3764248849474868 1.1585857412475026e-16 1.043854066497027e-17 1.1585857412475026e-16 1.043854066497027e-17 -0.9264468878774733 -0.3764255091541549
12664194666.666666 -0.9305148199940023 -0.36625424198410245 1.1594416880613357e-16 9.156759589152565e-18 1.1594416880613357e-16 9.156759589152565e-18 -0.9305145732368879 -0.3662548689008697
12664812000.0 -0.93447084788807 -0.3560396529140727 1.1601559147850188e-16 7.874361623474407e-18 1.1601559147850188e-16 7.874361623474407e-18 -0.9344706080245326 -0.35604028246545544
12665429333.333334 -0.938314750505717 -0.34578234336532293 1.1607283895900126e-16 6.591503364186982e-18 1.1607283895900126e-16 6.591503364186982e-18 -0.9383145175638655 -0.34578297547553016
12666046666.666666 -0.9420460666248407 -0.33548354409193687 1.1611590979405193e-16 5.308341402627399e-18 1.1611590979405193e-16 5.308341402627399e-18 -0.9420458406319483 -0.33548417868487673
12666664000.0 -0.9456643485324611 -0.32514449082599695 1.1614480425885307e-16 4.0250323060747744e-18 1.1614480425885307e-16 4.0250323060747744e-18 -0.9456641295149658 -0.3251451278252877
12667281333.333334 -0.9491691620782788 -0.3147664241297669 1.1615952435667356e-16 2.7417325987323184e-18 1.1615952435667356e-16 2.7417325987323184e-18 -0.9491689500617786 -0.31476706345874544
12667898666.666666 -0.9525600867268359 -0.30435058924665237 1.1616007381793526e-16 1.4585987426428254e-18 1.1616007381793526e-16 1.4585987426428254e-18 -0.9525598817360873 -0.3043512308283837
12668516000.0 -0.9558367156080294 -0.29389823595162456 1.1614645809908473e-16 1.757871186224759e-19 1.1614645809908473e-16 1.757871186224759e-19 -0.9558365176669427 -0.29389887970891077
12669133333.333334 -0.9589986555658214 -0.28341061840158566 1.1611868438125563e-16 -1.1065459927285977e-18 1.1611868438125563e-16 -1.1065459927285977e-18 -0.9589984646974591 -0.28341126425697544
12669750666.666666 -0.9620455272054766 -0.27288899498469654 1.1607676156872076e-16 -2.3882444300588645e-18 1.1607676156872076e-16 -2.3882444300588645e-18 -0.9620453434320513 -0.27288964286049455
12670368000.0 -0.964976964939109 -0.2623346281693032 1.1602070028713524e-16 -3.669152170262768e-18 1.1602070028713524e-16 -3.669152170262768e-18 -0.964976788281978 -0.26233527798757883
