! Parameters = {f0=12700.012000; bw=77.238000; Q=6100.000000; N=10; m_0_1=1.266962; m_1_1=0.239684; m_1_2=1.101774; m_2_2=0.239035; m_2_3=0.738737; m_2_8=0.000412; m_2_9=0.037116; m_3_3=0.237098; m_3_4=0.627266; m_3_7=0.001012; m_3_8=-0.096076; m_3_9=0.000412; m_4_4=0.234173; m_4_5=0.463601; m_4_6=0.004529; m_4_7=-0.116625; m_4_8=0.001012; m_5_5=0.234555; m_5_6=0.870956; m_5_7=0.004529; m_6_6=0.234554; m_6_7=0.463943; m_7_7=0.234187; m_7_8=0.627384; m_8_8=0.237096; m_8_9=0.739050; m_9_9=0.239030; m_9_10=1.102852; m_10_10=0.239674; m_10_11=1.267757}
!
! Created with skrf (http://scikit-rf.org).
# Hz S RI R 50.0 
!freq ReS11 ImS11 ReS21 ImS21 ReS12 ImS12 ReS22 ImS22
12607400000.0 -0.8576191022020871 0.5142854028046207 7.37258468445445e-17 -8.032077267329561e-17 7.37258468445445e-17 -8.032077267329561e-17 -0.8576194454958563 0.5142848303296567
12608017333.333334 -0.8522069150539379 0.52320490625956 7.28623889409739e-17 -8.107616215423608e-17 7.28623889409739e-17 -8.107616215423608e-17 -0.8522072642845238 0.5232043374251704
12608634666.666666 -0.8467019657710931 0.5320674592184639 7.199120223604186e-17 -8.182227948066759e-17 7.199120223604186e-17 -8.182227948066759e-17 -0.8467023208999028 0.5320668940862066
12609252000.0 -0.8411048535635589 0.5408720969985866 7.11123861931735e-17 -8.255904569192738e-17 7.11123861931735e-17 -8.255904569192738e-17 -0.8411052145513612 0.5408715356296101
12609869333.333334 -0.8354161876731985 0.5496178612212348 7.022604108121989e-17 -8.32863828932329e-17 7.022604108121989e-17 -8.32863828932329e-17 -0.8354165544801277 0.549617303676272
12610486666.666666 -0.8296365873074887 0.5583037999159666 6.93322679630728e-17 -8.40042142638617e-17 6.93322679630728e-17 -8.40042142638617e-17 -0.8296369598930519 0.5583032462553293
12611104000.0 -0.8237666815719543 0.5669289676244761 6.843116868413468e-17 -8.471246406526121e-17 6.843116868413468e-17 -8.471246406526121e-17 -0.8237670598950313 0.5669284179080463
12611721333.333334 -0.8178071094019054 0.5754924255031725 6.752284586077879e-17 -8.541105764897718e-17 6.752284586077879e-17 -8.541105764897718e-17 -0.8178074934207556 0.575491879790397
12612338666.666666 -0.8117585194927505 0.5839932414255864 6.660740286866741e-17 -8.609992146450616e-17 6.660740286866741e-17 -8.609992146450616e-17 -0.8117589091650186 0.583992699775471
12612956000.0 -0.8056215702293167 0.5924304900839216 6.568494383101534e-17 -8.67789830670044e-17 6.568494383101534e-17 -8.67789830670044e-17 -0.805621965512036 0.5924299525550241
12613573333.333334 -0.7993969296144351 0.6008032530894283 6.475557360680005e-17 -8.744817112485315e-17 6.475557360680005e-17 -8.744817112485315e-17 -0.799397330464032 0.6008027197398518
12614190666.666666 -0.7930852751959948 0.6091106190726914 6.38193977788354e-17 -8.810741542714193e-17 6.38193977788354e-17 -8.810741542714193e-17 -0.7930856815682953 0.6091100899600795
12614808000.0 -0.7866872939932957 0.6173516837826963 6.287652264183197e-17 -8.875664689097876e-17 6.287652264183197e-17 -8.875664689097876e-17 -0.7866877058435278 0.6173511589642248
12615425333.333334 -0.7802036824222458 0.625525550185276 6.192705519034397e-17 -8.939579756870265e-17 6.192705519034397e-17 -8.939579756870265e-17 -0.7802040997050455 0.6255250297176477
12616042666.666666 -0.7736351462195592 0.6336313285607543 6.097110310665767e-17 -9.002480065495585e-17 6.097110310665767e-17 -9.002480065495585e-17 -0.773635568888976 0.6336308125001929
12616660000.0 -0.7669824003659544 0.6416681366007685 6.000877474860677e-17 -9.06435904936297e-17 6.000877474860677e-17 -9.06435904936297e-17 -0.7669828283754573 0.6416676250030139
12617277333.333334 -0.7602461690082412 0.6496350995044194 5.904017913731438e-17 -9.125210258468134e-17 5.904017913731438e-17 -9.125210258468134e-17 -0.7602466023107203 0.6496345924247184
12617894666.666666 -0.7534271853806933 0.6575313500732506 5.806542594488556e-17 -9.185027359080927e-17 5.806542594488556e-17 -9.185027359080927e-17 -0.753427623928468 0.6575308475663534
12618512000.0 -0.7465261917249636 0.6653560288059673 5.708462548197681e-17 -9.243804134403104e-17 5.708462548197681e-17 -9.243804134403104e-17 -0.7465266354697883 0.6653555309261221
12619129333.333334 -0.7395439392095714 0.6731082839916729 5.60978886853922e-17 -9.301534485207282e-17 5.60978886853922e-17 -9.301534485207282e-17 -0.7395443881026382 0.6731077907926176
12619746666.666666 -0.732481187847949 0.680787271802788 5.510532710552572e-17 -9.358212430468128e-17 5.510532710552572e-17 -9.358212430468128e-17 -0.732481641839895 0.6807867833377467
12620364000.0 -0.7253387064157131 0.6883921563868998 5.410705289377936e-17 -9.413832107977712e-17 5.410705289377936e-17 -9.413832107977712e-17 -0.725339165456625 0.6883916727085755
12620981333.333334 -0.718117272367158 0.695922109957556 5.310317878994477e-17 -9.46838777494625e-17 5.310317878994477e-17 -9.46838777494625e-17 -0.7181177364065793 0.6959216311181272
12621598666.666666 -0.7108176717504608 0.7033763128845602 5.2093818109459794e-17 -9.521873808592947e-17 5.2093818109459794e-17 -9.521873808592947e-17 -0.7108181407373934 0.7033758389356711
12622216000.0 -0.7034406991221308 0.7107539537831595 5.107908473067368e-17 -9.574284706719596e-17 5.107908473067368e-17 -9.574284706719596e-17 -0.7034411730050444 0.7107534847759185
12622833333.333334 -0.6959871574606059 0.718054229602285 5.005909308200908e-17 -9.62561508827314e-17 5.005909308200908e-17 -9.62561508827314e-17 -0.695987636187443 0.718053765587258
12623450666.666666 -0.6884578580788522 0.7252763457119666 4.9033958129098306e-17 -9.675859693893046e-17 4.9033958129098306e-17 -9.675859693893046e-17 -0.6884583415970321 0.7252758867391701
12624068000.0 -0.6808536205359699 0.7324195159899052 4.8003795361837726e-17 -9.72501338644639e-17 4.8003795361837726e-17 -9.72501338644639e-17 -0.6808541087923958 0.7324190621088024
12624685333.333334 -0.6731752725479613 0.739482962907059 4.6968720781399715e-17 -9.773071151548586e-17 4.6968720781399715e-17 -9.773071151548586e-17 -0.6731757654890264 0.7394825141665544
12625302666.666666 -0.6654236498978463 0.7464659176120861 4.592885088722728e-17 -9.820028098068844e-17 4.592885088722728e-17 -9.820028098068844e-17 -0.6654241474694386 0.7464654740605197
12625920000.0 -0.6575995963443703 0.7533676200153188 4.488430266389423e-17 -9.865879458625627e-17 4.488430266389423e-17 -9.865879458625627e-17 -0.6576000984918796 0.7533671817004611
12626537333.333334 -0.6497039635304593 0.7601873188712345 4.383519356802656e-17 -9.910620590063283e-17 4.383519356802656e-17 -9.910620590063283e-17 -0.6497044701987822 0.7601868858402812
12627154666.666666 -0.6417376108904148 0.7669242718603236 4.2781641515092174e-17 -9.954246973918503e-17 4.2781641515092174e-17 -9.954246973918503e-17 -0.6417381220239612 0.7669238441598908
12627772000.0 -0.6337014055561448 0.7735777456700734 4.1723764866159e-17 -9.99675421687215e-17 4.1723764866159e-17 -9.99675421687215e-17 -0.6337019210988444 0.7735773233461923
12628389333.333334 -0.6255962222632132 0.7801470160744199 4.066168241466311e-17 -1.0038138051184834e-16 4.066168241466311e-17 -1.0038138051184834e-16 -0.6255967421585215 0.7801465991725332
12629006666.666666 -0.6174229432552125 0.7866313680129314 3.9595513373054236e-17 -1.0078394335121669e-16 3.9595513373054236e-17 -1.0078394335121669e-16 -0.6174234674461164 0.7866309565778857
12629624000.0 -0.609182458187992 0.793030095668418 3.852537735946016e-17 -1.0117519053360504e-16 3.852537735946016e-17 -1.0117519053360504e-16 -0.6091829866170165 0.7930296897444613
12630241333.333334 -0.6008756640326894 0.799342502543872 3.7451394384291646e-17 -1.0155508317386859e-16 3.7451394384291646e-17 -1.0155508317386859e-16 -0.6008761966419041 0.7993421021746479
12630858666.666666 -0.59250346497823 0.8055679015381741 3.637368483681468e-17 -1.0192358365874416e-16 3.637368483681468e-17 -1.0192358365874416e-16 -0.5925040017092544 0.8055675067667171
12631476000.0 -0.5840667723326567 0.8117056150210731 3.529236947165139e-17 -1.0228065565052516e-16 3.529236947165139e-17 -1.0228065565052516e-16 -0.5840673131266685 0.8117052258898048
12632093333.333334 -0.5755665044242542 0.8177549749067078 3.4207569395312687e-17 -1.0262626409057127e-16 3.4207569395312687e-17 -1.0262626409057127e-16 -0.5755670492219943 0.817754591457432
12632710666.666666 -0.5670035865013621 0.8237153227264974 3.311940605264485e-17 -1.02960375202693e-16 3.311940605264485e-17 -1.02960375202693e-16 -0.567004135243141 0.8237149450003947
12633328000.0 -0.5583789506316811 0.8295860097007949 3.202800121323203e-17 -1.0328295649639593e-16 3.202800121323203e-17 -1.0328295649639593e-16 -0.5583795032573863 0.8295856377384191
12633945333.333334 -0.5496935356009381 0.8353663968094269 3.093347695783854e-17 -1.0359397676995963e-16 3.093347695783854e-17 -1.0359397676995963e-16 -0.5496940920500397 0.8353660306507007
12634562666.666666 -0.540948286810604 0.841055854861315 2.9835955664751794e-17 -1.038934061133952e-16 2.9835955664751794e-17 -1.038934061133952e-16 -0.5409488470221625 0.8410554945455252
12635180000.0 -0.5321441561750124 0.8466537645629457 2.8735559996129785e-17 -1.0418121591124802e-16 2.8735559996129785e-17 -1.0418121591124802e-16 -0.5321447200876847 0.8466534101287403
12635797333.333334 -0.5232821020177205 0.8521595165857982 2.7632412884313615e-17 -1.044573788452592e-16 2.7632412884313615e-17 -1.044573788452592e-16 -0.5232826695697657 0.8521591680711792
12636414666.666666 -0.5143630889672905 0.8575725116326037 2.652663751813055e-17 -1.0472186889687869e-16 2.652663751813055e-17 -1.0472186889687869e-16 -0.514363660096579 0.8575721690749276
12637032000.0 -0.5053880878521728 0.8628921605026603 2.541835732914703e-17 -1.0497466134964013e-16 2.541835732914703e-17 -1.0497466134964013e-16 -0.5053886624961912 0.8628918239386303
12637649333.333334 -0.49635807559503 0.8681178841559613 2.4307695977915242e-17 -1.05215732791387e-16 2.4307695977915242e-17 -1.05215732791387e-16 -0.49635865369088783 0.8681175536216245
12638266666.666666 -0.4872740351065202 0.8732491137761516 2.319477734021458e-17 -1.0544506111635027e-16 2.319477734021458e-17 -1.0544506111635027e-16 -0.4872746165909584 0.8732487893068958
12638884000.0 -0.47813695517821264 0.878285290832502 2.207972549324781e-17 -1.056626255270867e-16 2.207972549324781e-17 -1.056626255270867e-16 -0.47813753998760905 0.8782849724630513
12639501333.333334 -0.46894783037495563 0.8832258671407023 2.0962664701832287e-17 -1.058684065362691e-16 2.0962664701832287e-17 -1.058684065362691e-16 -0.4689484184453328 0.8832255549051139
12640118666.666666 -0.45970766092677234 0.8880703049224541 1.9843719404596975e-17 -1.060623859683272e-16 1.9843719404596975e-17 -1.060623859683272e-16 -0.45970825219380307 0.8880699988541126
12640736000.0 -0.4504174526195801 0.8928180768642145 1.8723014200081035e-17 -1.0624454696095731e-16 1.8723014200081035e-17 -1.0624454696095731e-16 -0.4504180470185965 0.8928177769958316
12641353333.333334 -0.4410782166863187 0.8974686661742807 1.7600673832989324e-17 -1.0641487396645713e-16 1.7600673832989324e-17 -1.0641487396645713e-16 -0.44107881415231837 0.8974683725378902
12641970666.666666 -0.431690969696374 0.9020215666393065 1.64768231802256e-17 -1.0657335275295057e-16 1.64768231802256e-17 -1.0657335275295057e-16 -0.4316915701640271 0.902021279266261
12642588000.0 -0.42225673344507486 0.9064762826793207 1.5351587237085818e-17 -1.0671997040543821e-16 1.5351587237085818e-17 -1.0671997040543821e-16 -0.42225733684873057 0.9064760016002865
12643205333.333334 -0.41277653484259946 0.9108323294016091 1.4225091103362078e-17 -1.0685471532671503e-16 1.4225091103362078e-17 -1.0685471532671503e-16 -0.4127771411162943 0.9108320546465655
12643822666.666666 -0.40325140580199187 0.9150892326535933 1.3097459969449401e-17 -1.0697757723813977e-16 1.3097459969449401e-17 -1.0697757723813977e-16 -0.40325201487945633 0.9150889642518283
12644440000.0 -0.3936823831269939 0.9192465290743702 1.1968819102475405e-17 -1.0708854718025559e-16 1.1968819102475405e-17 -1.0708854718025559e-16 -0.3936829949416595 0.9192462670544765
12645057333.333334 -0.38407050839916296 0.9233037661451592 1.0839293832393342e-17 -1.071876175132679e-16 1.0839293832393342e-17 -1.071876175132679e-16 -0.38407112288417056 0.9233035105350342
12645674666.666666 -0.3744168278644993 0.9272605022385623 9.709009538107134e-18 -1.0727478191737242e-16 9.709009538107134e-18 -1.0727478191737242e-16 -0.3744174449527052 0.9272602530654019
12646292000.0 -0.3647223923193773 0.9311163066667109 8.578091633544618e-18 -1.0735003539294227e-16 8.578091633544618e-18 -1.0735003539294227e-16 -0.36472301194336065 0.9311160639570066
12646909333.333334 -0.3549882569965346 0.9348707597279888 7.446665553808573e-18 -1.0741337426056216e-16 7.446665553808573e-18 -1.0741337426056216e-16 -0.3549888790886058 0.9348705235075283
12647526666.666666 -0.34521548144984365 0.938523452752875 6.31485674125761e-18 -1.0746479616092236e-16 6.31485674125761e-18 -1.0746479616092236e-16 -0.3452161059420506 0.9385232230467352
12648144000.0 -0.3354051294391624 0.9420739881483434 5.182790631628272e-18 -1.075043000545636e-16 5.182790631628272e-18 -1.075043000545636e-16 -0.33540575626329866 0.9420737649808906
12648761333.333334 -0.3255582688145462 0.9455219794411454 4.050592640157235e-18 -1.0753188622147692e-16 4.050592640157235e-18 -1.0753188622147692e-16 -0.3255588979021582 0.9455217628360322
12649378666.666666 -0.31567597140004083 0.9488670513198711 2.9183881477295063e-18 -1.0754755626055713e-16 2.9183881477295063e-18 -1.0754755626055713e-16 -0.315676602682435 0.9488668413000326
12649996000.0 -0.3057593128768798 0.9521088396758451 1.7863024869899756e-18 -1.0755131308891149e-16 1.7863024869899756e-18 -1.0755131308891149e-16 -0.30575994628513087 0.9521086362634987
12650613333.333334 -0.2958093726664785 0.9552469916427324 6.544609285054803e-19 -1.0754316094102224e-16 6.544609285054803e-19 -1.0754316094102224e-16 -0.2958100081314362 0.955246794859373
12651230666.666666 -0.28582723381307495 0.9582811656349045 -4.770113330608745e-19 -1.0752310536776359e-16 -4.770113330608745e-19 -1.0752310536776359e-16 -0.2858278712653721 0.9582809755013043
12651848000.0 -0.2758139828654617 0.9612110313847407 -1.6079891928043828e-18 -1.0749115323527379e-16 -1.6079891928043828e-18 -1.0749115323527379e-16 -0.27581462223552144 0.961210847920945
12652465333.333334 -0.2657707097591223 0.9640362699784475 -2.7383476493599977e-18 -1.0744731272368171e-16 -2.7383476493599977e-18 -1.0744731272368171e-16 -0.2657713509771659 0.9640360932037747
12653082666.666666 -0.2556985076974858 0.9667565738908144 -3.867961818691238e-18 -1.0739159332568984e-16 -3.867961818691238e-18 -1.0739159332568984e-16 -0.25569915069354027 0.9667564038238525
12653700000.0 -0.2455984730326842 0.9693716470187475 -4.9967069479064695e-18 -1.0732400584500928e-16 -4.9967069479064695e-18 -1.0732400584500928e-16 -0.24559911773658982 0.9693714836773536
12654317333.333334 -0.23547170514660076 0.971881204713404 -6.1244584289515625e-18 -1.0724456239465556e-16 -6.1244584289515625e-18 -1.0724456239465556e-16 -0.2354723514880187 0.9718810481147001
12654934666.666666 -0.22531930633092725 0.9742849738112435 -7.251091812384916e-18 -1.071532763950954e-16 -7.251091812384916e-18 -1.071532763950954e-16 -0.22531995423934745 0.974284823971617
12655552000.0 -0.21514238166717972 0.9765826926637594 -8.376482821083713e-18 -1.0705016257225069e-16 -8.376482821083713e-18 -1.0705016257225069e-16 -0.2151430310719283 0.9765825495988598
12656169333.333334 -0.20494203890668877 0.9787741111658987 -9.500507363898532e-18 -1.069352369553629e-16 -9.500507363898532e-18 -1.069352369553629e-16 -0.2049426897369358 0.9787739748906362
12656786666.666666 -0.19471938834963276 0.98085899078337 -1.0623041549354941e-17 -1.0680851687470667e-16 -1.0623041549354941e-17 -1.0680851687470667e-16 -0.19472004053440034 0.9808588613119154
12657404000.0 -0.18447554272448818 0.9828371045785423 -1.1743961699251701e-17 -1.0667002095916746e-16 -1.1743961699251701e-17 -1.0667002095916746e-16 -0.1844761961926578 0.9828369819243242
12658021333.333334 -0.17421161706674265 0.9847082372351809 -1.286314436228169e-17 -1.0651976913367172e-16 -1.286314436228169e-17 -1.0651976913367172e-16 -0.17421227174706305 0.9847081214108848
12658638666.666666 -0.1639287285976923 0.9864721850818551 -1.3980466327586088e-17 -1.0635778261647888e-16 -1.3980466327586088e-17 -1.0635778261647888e-16 -0.1639293844187873 0.9864720760994218
12659256000.0 -0.15362799660255286 0.988128756114157 -1.509580463832499e-17 -1.0618408391632463e-16 -1.509580463832499e-17 -1.0618408391632463e-16 -0.15362865349292892 0.9881286539847811
12659873333.333334 -0.14331054230887796 0.9896777700155552 -1.6209036605157244e-17 -1.0599869682943053e-16 -1.6209036605157244e-17 -1.0599869682943053e-16 -0.14331120019693216 0.9896776747496839
12660490666.666666 -0.13297748876454277 0.9911190581770194 -1.732003981970963e-17 -1.058016464363691e-16 -1.732003981970963e-17 -1.058016464363691e-16 -0.1329781475785707 0.991118969784353
12661108000.0 -0.12262996071510776 0.9924524637154346 -1.842869216805482e-17 -1.055929590987809e-16 -1.842869216805482e-17 -1.055929590987809e-16 -0.12263062038331134 0.9924523822049247
12661725333.333334 -0.11226908448195343 0.9936778414905959 -1.9534871844049228e-17 -1.0537266245596767e-16 -1.9534871844049228e-17 -1.0537266245596767e-16 -0.11226974493244826 0.9936777668704423
12662342666.666666 -0.1018959878392583 0.9947950581210623 -2.063845736273681e-17 -1.051407854213276e-16 -2.063845736273681e-17 -1.051407854213276e-16 -0.10189664900008207 0.9947949903987152
12662960000.0 -0.0915117998914111 0.9958039919986565 -2.1739327573649047e-17 -1.0489735817866257e-16 -2.1739327573649047e-17 -1.0489735817866257e-16 -0.09151246169053118 0.9958039311808147
12663577333.333334 -0.0811176509500799 0.9967045333017034 -2.283736167408369e-17 -1.0464241217834168e-16 -2.283736167408369e-17 -1.0464241217834168e-16 -0.0811183133154012 0.9967044793943137
12664194666.666666 -0.0707146724111788 0.9974965840069855 -2.393243922233398e-17 -1.0437598013332813e-16 -2.393243922233398e-17 -1.0437598013332813e-16 -0.07071533527055164 0.9974965370152415
12664812000.0 -0.06030399663171605 0.998180057900411 -2.5024440150887453e-17 -1.0409809601506394e-16 -2.5024440150887453e-17 -1.0409809601506394e-16 -0.06030465991294395 0.9981800178287531
12665429333.333334 -0.04988675680650936 0.9987548805863998 -2.6113244779551694e-17 -1.0380879504922374e-16 -2.6113244779551694e-17 -1.0380879504922374e-16 -0.04988742043735704 0.9987548474385153
12666046666.666666 -0.03946408684500895 0.9992209894959753 -2.719873382854384e-17 -1.0350811371132837e-16 -2.719873382854384e-17 -1.0350811371132837e-16 -0.03946475075321008 0.9992209632747966
12666664000.0 -0.02903712124744624 0.9995783338935907 -2.828078843156321e-17 -1.0319608972221392e-16 -2.828078843156321e-17 -1.0319608972221392e-16 -0.0290377853607114 0.9995783146012976
12667281333.333334 -0.018606994981912362 0.9998268748826318 -2.93592901487424e-17 -1.0287276204338299e-16 -2.93592901487424e-17 -1.0287276204338299e-16 -0.018607659227936793 0.9998268625206481
12667898666.666666 -0.008174843360419888 0.999966585409662 -3.043412097961374e-17 -1.0253817087220248e-16 -3.043412097961374e-17 -1.0253817087220248e-16 -0.008175507666891462 0.9999665799786582
12668516000.0 0.0022581980846465705 0.9999974502673677 -3.1505163376007197e-17 -1.0219235763696985e-16 -3.1505163376007197e-17 -1.0219235763696985e-16 0.002257533790039517 0.9999974517672596
12669133333.333334 0.012690993723876604 0.9999194660962083 -3.257230025483815e-17 -1.0183536499186253e-16 -3.257230025483815e-17 -1.0183536499186253e-16 0.012690329513437402 0.9999194745261569
12669750666.666666 0.023122407954730643 0.9997326413847856 -3.3635415010922823e-17 -1.0146723681172728e-16 -3.3635415010922823e-17 -1.0146723681172728e-16 0.023121743900746426 0.9997326567431987
12670368000.0 0.03355130532503585 0.9994369964689185 -3.4694391529680805e-17 -1.0108801818675383e-16 -3.4694391529680805e-17 -1.0108801818675383e-16 0.03355064149976963 0.9994370187534476
