! Parameters = {f0=12700.012000; bw=77.238000; Q=6100.000000; N=10; m_0_1=1.189685; m_1_1=-0.919475; m_1_2=1.024497; m_2_2=-0.920124; m_2_3=0.661460; m_2_8=-0.003452; m_2_9=0.033252; m_3_3=-0.922061; m_3_4=0.549989; m_3_7=-0.002852; m_3_8=-0.099940; m_3_9=-0.003452; m_4_4=-0.924986; m_4_5=0.386324; m_4_6=0.000665; m_4_7=-0.120489; m_4_8=-0.002852; m_5_5=-0.924604; m_5_6=0.793679; m_5_7=0.000665; m_6_6=-0.924605; m_6_7=0.386666; m_7_7=-0.924972; m_7_8=0.550107; m_8_8=-0.922063; m_8_9=0.661773; m_9_9=-0.920129; m_9_10=1.025575; m_10_10=-0.919485; m_10_11=1.190480}
!
! Created with skrf (http://scikit-rf.org).
# Hz S RI R 50.0 
!freq ReS11 ImS11 ReS21 ImS21 ReS12 ImS12 ReS22 ImS22
12607400000.0 0.5586733153021342 -0.8293878023995569 -2.2366426944812097e-17 7.109993363704228e-17 -2.2366426944812097e-17 7.109993363704228e-17 0.5586738352742018 -0.8293874521475826
12608017333.333334 0.5518964802852788 -0.8339126303447892 -2.1775737000593377e-17 7.126779640932079e-17 -2.1775737000593377e-17 7.126779640932079e-17 0.5518970030685179 -0.8339122843583927
12608634666.666666 0.5450829995864224 -0.8383820868564124 -2.1183800544669603e-17 7.143075660956838e-17 -2.1183800544669603e-17 7.143075660956838e-17 0.5450835251458467 -0.838381745158148
12609252000.0 0.53823332561772 -0.8427958751645229 -2.059065822768106e-17 7.158880510155067e-17 -2.059065822768106e-17 7.158880510155067e-17 0.5382338539181626 -0.8427955377766584
12609869333.333334 0.5313479131945196 -0.8471537021955777 -1.9996350766141427e-17 7.174193308577176e-17 -1.9996350766141427e-17 7.174193308577176e-17 0.5313484442006347 -0.8471533691400921
12610486666.666666 0.5244272195052829 -0.8514552785917784 -1.9400918939648974e-17 7.189013209993989e-17 -1.9400918939648974e-17 7.189013209993989e-17 0.5244277531815487 -0.851454949890361
12611104000.0 0.5174717040809372 -0.8557003187304624 -1.880440358808215e-17 7.203339401941253e-17 -1.880440358808215e-17 7.203339401941253e-17 0.5174722403916584 -0.855699994404512
12611721333.333334 0.5104818287648009 -0.8598885407428041 -1.8206845608833305e-17 7.217171105760863e-17 -1.8206845608833305e-17 7.217171105760863e-17 0.51048236767411 -0.859888220813426
12612338666.666666 0.5034580576815267 -0.8640196665327644 -1.7608285953992304e-17 7.230507576640906e-17 -1.7608285953992304e-17 7.230507576640906e-17 0.5034585991533881 -0.86401935102077
12612956000.0 0.49640085720638166 -0.8680934217954965 -1.7008765627548112e-17 7.24334810365291e-17 -1.7008765627548112e-17 7.24334810365291e-17 0.496401401204593 -0.868093110721403
12613573333.333334 0.4893106959344771 -0.8721095360354472 -1.640832568260449e-17 7.255692009786432e-17 -1.640832568260449e-17 7.255692009786432e-17 0.4893112424226709 -0.8721092294194733
12614190666.666666 0.4821880446494065 -0.8760677425844576 -1.5807007218564487e-17 7.267538651981928e-17 -1.5807007218564487e-17 7.267538651981928e-17 0.4821885935910543 -0.8760674404465252
12614808000.0 0.4750333762920857 -0.8799677786194148 -1.5204851378323314e-17 7.278887421161136e-17 -1.5204851378323314e-17 7.278887421161136e-17 0.4750339276504999 -0.8799674809791466
12615425333.333334 0.4678471659294241 -0.8838093851796612 -1.4601899345467555e-17 7.28973774225493e-17 -1.4601899345467555e-17 7.28973774225493e-17 0.4678477196677601 -0.8838090920563797
12616042666.666666 0.4606298907226313 -0.8875923071842735 -1.399819234146448e-17 7.300089074229043e-17 -1.399819234146448e-17 7.300089074229043e-17 0.46063044680388987 -0.8875920185969984
12616660000.0 0.45338202989563264 -0.8913162934489423 -1.3393771622851943e-17 7.309940910107419e-17 -1.3393771622851943e-17 7.309940910107419e-17 0.4533825882826625 -0.8913160094163904
12617277333.333334 0.4461040647031993 -0.8949810967026787 -1.2788678478424977e-17 7.31929277699332e-17 -1.2788678478424977e-17 7.31929277699332e-17 0.44610462535870005 -0.8949808172432634
12617894666.666666 0.43879647839909436 -0.8985864736041816 -1.2182954226431627e-17 7.328144236087891e-17 -1.2182954226431627e-17 7.328144236087891e-17 0.4387970412856186 -0.8985861987360104
12618512000.0 0.43145975620380767 -0.9021321847580853 -1.1576640211744997e-17 7.336494882706791e-17 -1.1576640211744997e-17 7.336494882706791e-17 0.4314603212837633 -0.9021319144989589
12619129333.333334 0.42409438527254106 -0.905617994730754 -1.0969777803065978e-17 7.344344346294079e-17 -1.0969777803065978e-17 7.344344346294079e-17 0.424094952508194 -0.9056177290981652
12619746666.666666 0.41670085466270707 -0.9090436720659878 -1.0362408390096052e-17 7.351692290434109e-17 -1.0362408390096052e-17 7.351692290434109e-17 0.41670142401618476 -0.909043411077122
12620364000.0 0.4092796553014316 -0.912408989300405 -9.754573380720344e-18 7.358538412861023e-17 -9.754573380720344e-18 7.358538412861023e-17 0.40928022673472353 -0.9124087329721363
12620981333.333334 0.4018312799531872 -0.9157137229784369 -9.146314198211451e-18 7.364882445465649e-17 -9.146314198211451e-18 7.364882445465649e-17 0.40183185342814853 -0.9157134713273277
12621598666.666666 0.3943562231867892 -0.9189576536672933 -8.53767227839353e-18 7.370724154300568e-17 -8.53767227839353e-18 7.370724154300568e-17 0.39435679866514395 -0.9189574067095955
12622216000.0 0.3868549813427917 -0.9221405659714323 -7.928689066835954e-18 7.376063339582506e-17 -7.928689066835954e-18 7.376063339582506e-17 0.38685555878613415 -0.9221403237230836
12622833333.333334 0.3793280525003212 -0.925262248546951 -7.31940601604325e-18 7.380899835692463e-17 -7.31940601604325e-18 7.380899835692463e-17 0.37932863187011867 -0.9252620110235747
12623450666.666666 0.37177593644421286 -0.928322494115528 -6.7098645826372724e-18 7.38523351117364e-17 -6.7098645826372724e-18 7.38523351117364e-17 0.3717765177018092 -0.9283222613324329
12624068000.0 0.3641991346316694 -0.9313210994782563 -6.100106224542272e-18 7.389064268726988e-17 -6.100106224542272e-18 7.389064268726988e-17 0.36419971773828663 -0.931320871450435
12624685333.333334 0.3565981501589372 -0.9342578655291428 -5.490172398168883e-18 7.392392045204466e-17 -5.490172398168883e-18 7.392392045204466e-17 0.356598735075678 -0.9342576422712696
12625302666.666666 0.3489734877281375 -0.9371325972682338 -4.8801045556245616e-18 7.395216811599835e-17 -4.8801045556245616e-18 7.395216811599835e-17 0.34897407441598877 -0.9371323787946662
12625920000.0 0.3413256536134645 -0.9399451038146779 -4.2699441418727966e-18 7.397538573037425e-17 -4.2699441418727966e-18 7.397538573037425e-17 0.3413262420332993 -0.9399448901394541
12626537333.333334 0.3336551556277826 -0.9426951984193231 -3.659732591954976e-18 7.399357368758331e-17 -3.659732591954976e-18 7.399357368758331e-17 0.3336557457403621 -0.9426949895561598
12627154666.666666 0.3259625030888512 -0.9453826984771286 -3.0495113281697626e-18 7.400673272104425e-17 -3.0495113281697626e-18 7.400673272104425e-17 0.32596309485482894 -0.945382494439424
12627772000.0 0.3182482067853222 -0.9480074255393633 -2.439321757265007e-18 7.401486390500088e-17 -2.439321757265007e-18 7.401486390500088e-17 0.3182488001652455 -0.9480072263401937
12628389333.333334 0.3105127789431982 -0.9505692053253243 -1.8292052676528404e-18 7.401796865431543e-17 -1.8292052676528404e-18 7.401796865431543e-17 0.31051337389751077 -0.9505690109774411
12629006666.666666 0.30275673319138974 -0.9530678677340478 -1.2192032265871094e-18 7.401604872423972e-17 -1.2192032265871094e-18 7.401604872423972e-17 0.3027573296804348 -0.9530676782498807
12629624000.0 0.2949805845280157 -0.9555032468554756 -6.093569773875491e-19 7.400910621016274e-17 -6.093569773875491e-19 7.400910621016274e-17 0.2949811825120387 -0.9555030622471309
12630241333.333334 0.2871848492858842 -0.957875180981578 2.921633670024805e-22 7.399714354733567e-17 2.921633670024805e-22 7.399714354733567e-17 0.2871854487250349 -0.9578750012608354
12630858666.666666 0.2793700450984779 -0.9601835126170001 6.097029086193459e-19 7.398016351057405e-17 6.097029086193459e-19 7.398016351057405e-17 0.27937064595281375 -0.9601833377953156
12631476000.0 0.2715366908652584 -0.9624280884896241 1.2188340036368034e-18 7.395816921393616e-17 1.2188340036368034e-18 7.395816921393616e-17 0.2715372930947463 -0.9624279185781258
12632093333.333334 0.2636853067175642 -0.964608759560637 1.8276442287813794e-18 7.393116411037995e-17 1.8276442287813794e-18 7.393116411037995e-17 0.26368591028208394 -0.9646085945701262
12632710666.666666 0.2558164139838849 -0.9667253810344859 2.4360924022953867e-18 7.389915199139621e-17 2.4360924022953867e-18 7.389915199139621e-17 0.2558170188432316 -0.9667252209754368
12633328000.0 0.247930535155217 -0.9687778123684989 3.0441373830918026e-18 7.386213698661847e-17 3.0441373830918026e-18 7.386213698661847e-17 0.24793114126910357 -0.9687776572510562
12633945333.333334 0.24002819385045263 -0.9707659172821926 3.651738073509275e-18 7.382012356341157e-17 3.651738073509275e-18 7.382012356341157e-17 0.2400288011785127 -0.9707657671161728
12634562666.666666 0.2321099147815844 -0.97268956376633 4.258853422092518e-18 7.377311652643624e-17 4.258853422092518e-18 7.377311652643624e-17 0.23211052328337498 -0.9726894185612194
12635180000.0 0.2241762237188646 -0.9745486240916847 4.865442426355883e-18 7.372112101719164e-17 4.865442426355883e-18 7.372112101719164e-17 0.22417683335386895 -0.9745484838566407
12635797333.333334 0.21622764745586712 -0.9763429748175316 5.4714641355488064e-18 7.366414251353447e-17 5.4714641355488064e-18 7.366414251353447e-17 0.21622825818349678 -0.9763428395613788
12636414666.666666 0.20826471377459085 -0.9780724967998199 6.076877653395754e-18 7.36021868291775e-17 6.076877653395754e-18 7.36021868291775e-17 0.20826532555418897 -0.9780723665310523
12637032000.0 0.20028795141036052 -0.9797370751991009 6.681642140873264e-18 7.35352601131622e-17 6.681642140873264e-18 7.35352601131622e-17 0.20028856420120428 -0.9797369499258797
12637649333.333334 0.19229789001666248 -0.9813365994881597 7.285716818940137e-18 7.346336884931174e-17 7.285716818940137e-18 7.346336884931174e-17 0.19229850377796637 -0.981336479218316
12638266666.666666 0.18429506013006108 -0.9828709634593465 7.889060971283463e-18 7.338651985566038e-17 7.889060971283463e-18 7.338651985566038e-17 0.1842956748209784 -0.9828708482003753
12638884000.0 0.17627999313494078 -0.9843400652316209 8.491633947055076e-18 7.330472028386021e-17 8.491633947055076e-18 7.330472028386021e-17 0.1762806087145677 -0.9843399549906867
12639501333.333334 0.16825322122819672 -0.9857438072573327 9.093395163604662e-18 7.321797761856593e-17 9.093395163604662e-18 7.321797761856593e-17 0.16825383765557422 -0.9857437020412645
12640118666.666666 0.1602152773840362 -0.9870820963286702 9.69430410919465e-18 7.312629967679832e-17 9.69430410919465e-18 7.312629967679832e-17 0.16021589461815283 -0.9870819961439627
12640736000.0 0.15216669531825322 -0.9883548435839062 1.0294320345744525e-17 7.302969460728081e-17 1.0294320345744525e-17 7.302969460728081e-17 0.15216731331804817 -0.9883547484367201
12641353333.333334 0.14410800945329472 -0.9895619645132157 1.0893403511506894e-17 7.292817088976277e-17 1.0893403511506894e-17 7.292817088976277e-17 0.14410862817766026 -0.9895618744093762
12641970666.666666 0.1360397548822984 -0.9907033789643652 1.1491513323809836e-17 7.282173733430992e-17 1.1491513323809836e-17 7.282173733430992e-17 0.1360403742900827 -0.990703293909362
12642588000.0 0.12796246733381506 -0.9917790111479916 1.2088609581738981e-17 7.27104030805807e-17 1.2088609581738981e-17 7.27104030805807e-17 0.12796308738382503 -0.9917789311469793
12643205333.333334 0.11987668313618068 -0.992788789642648 1.2684652168833701e-17 7.259417759707736e-17 1.2684652168833701e-17 7.259417759707736e-17 0.11987730378718453 -0.9927887147004445
12643822666.666666 0.11178293918190405 -0.9937326473995411 1.3279601055782676e-17 7.247307068037389e-17 1.3279601055782676e-17 7.247307068037389e-17 0.11178356039263417 -0.9937325775206283
12644440000.0 0.10368177289198947 -0.9946105217469904 1.3873416303096039e-17 7.234709245432518e-17 1.3873416303096039e-17 7.234709245432518e-17 0.10368239462114506 -0.9946104569355133
12645057333.333334 0.09557372218033663 -0.9954223543945767 1.4466058063772476e-17 7.221625336925376e-17 1.4466058063772476e-17 7.221625336925376e-17 0.09557434438658656 -0.995422294654344
12645674666.666666 0.08745932541799564 -0.9961680914370202 1.5057486585977522e-17 7.208056420111159e-17 1.5057486585977522e-17 7.208056420111159e-17 0.08745994805998111 -0.9961680367715033
12646292000.0 0.07933912139722084 -0.9968476833577752 1.564766221570803e-17 7.194003605062019e-17 1.564766221570803e-17 7.194003605062019e-17 0.07933974443355817 -0.996847633770108
12646909333.333334 0.07121364929606344 -0.9974610850322853 1.6236545399418475e-17 7.179468034239677e-17 1.6236545399418475e-17 7.179468034239677e-17 0.07121427268534679 -0.997461040525264
12647526666.666666 0.06308344864225891 -0.9980082557310068 1.682409668668429e-17 7.164450882404844e-17 1.682409668668429e-17 7.164450882404844e-17 0.06308407234306307 -0.9980082163070906
12648144000.0 0.05494905927754399 -0.9984891591221003 1.7410276732834672e-17 7.148953356524968e-17 1.7410276732834672e-17 7.148953356524968e-17 0.054949683248427146 -0.9984891247834117
12648761333.333334 0.04681102132175499 -0.9989037632738507 1.7995046301571185e-17 7.132976695680013e-17 1.7995046301571185e-17 7.132976695680013e-17 0.046811645521261394 -0.9989037340221721
12649378666.666666 0.03866987513707736 -0.9992520406567751 1.8578366267588116e-17 7.116522170965865e-17 1.8578366267588116e-17 7.116522170965865e-17 0.03867049952374012 -0.9992520164935524
12649996000.0 0.030526161291995743 -0.9995339681454658 1.9160197619184318e-17 7.099591085395576e-17 1.9160197619184318e-17 7.099591085395576e-17 0.030526785824339632 -0.9995339490718068
12650613333.333334 0.022380420525485535 -0.999749527020118 1.9740501460870246e-17 7.082184773798365e-17 1.9740501460870246e-17 7.082184773798365e-17 0.022381045162029656 -0.9997495130367913
12651230666.666666 0.014233193711193253 -0.9998987029677691 2.0319239015944145e-17 7.064304602717161e-17 2.0319239015944145e-17 7.064304602717161e-17 0.014233818410453897 -0.999898694075207
12651848000.0 0.006085021821352426 -0.9999814860832575 2.089637162909711e-17 7.04595197030288e-17 2.089637162909711e-17 7.04595197030288e-17 0.006085646541845739 -0.9999814822815543
12652465333.333334 -0.0020635541090515924 -0.9999978708698761 2.1471860768968916e-17 7.027128306207815e-17 2.1471860768968916e-17 7.027128306207815e-17 -0.0020629294088068306 -0.9999978721587862
12653082666.666666 -0.01021199301809239 -0.9999478562397363 2.2045668030714657e-17 7.007835071476372e-17 2.2045668030714657e-17 7.007835071476372e-17 -0.010211368379572004 -0.9999478626186784
12653700000.0 -0.01835975385314139 -0.9998314455138414 2.261775513857135e-17 6.988073758433308e-17 2.261775513857135e-17 6.988073758433308e-17 -0.018359129317813055 -0.9998314569818945
12654317333.333334 -0.026506295606424084 -0.9996486464218676 2.318808394838733e-17 6.967845890570878e-17 2.318808394838733e-17 6.967845890570878e-17 -0.026505671215744556 -0.9996486629777731
12654934666.666666 -0.034651077351113134 -0.9993994711016481 2.3756616450169355e-17 6.947153022432971e-17 2.3756616450169355e-17 6.947153022432971e-17 -0.03465045314652555 -0.9993994927438109
12655552000.0 -0.042793558277416224 -0.9990839360983659 2.432331477060954e-17 6.925996739497457e-17 2.432331477060954e-17 6.925996739497457e-17 -0.04279293430034735 -0.9990839628248533
12656169333.333334 -0.05093319772811631 -0.9987020623634633 2.488814117558271e-17 6.90437865805727e-17 2.488814117558271e-17 6.90437865805727e-17 -0.050932574019973684 -0.9987020941720038
12656786666.666666 -0.059069455234783325 -0.9982538752532399 2.5451058072670434e-17 6.882300425098063e-17 2.5451058072670434e-17 6.882300425098063e-17 -0.05906883183695267 -0.9982539121412267
12657404000.0 -0.06720179055354762 -0.9977394045271759 2.6012028013645074e-17 6.859763718174896e-17 2.6012028013645074e-17 6.859763718174896e-17 -0.06720116750738994 -0.997739446491663
12658021333.333334 -0.07532966370091491 -0.997158684345954 2.657101369695685e-17 6.836770245286408e-17 2.657101369695685e-17 6.836770245286408e-17 -0.07532904104776386 -0.9971587313836601
12658638666.666666 -0.08345253498964968 -0.9965117532691962 2.71279779701983e-17 6.813321744747419e-17 2.71279779701983e-17 6.813321744747419e-17 -0.08345191277080886 -0.9965118053765042
12659256000.0 -0.09156986506478001 -0.9957986542528886 2.7682883832577043e-17 6.789419985058765e-17 2.7682883832577043e-17 6.789419985058765e-17 -0.09156924332152008 -0.9957987114258436
12659873333.333334 -0.09968111493918388 -0.9950194346465441 2.823569443735982e-17 6.765066764775816e-17 2.823569443735982e-17 6.765066764775816e-17 -0.09968049371273983 -0.9950194968808553
12660490666.666666 -0.10778574602937759 -0.9941741461900612 2.8786373094303495e-17 6.740263912375146e-17 2.8786373094303495e-17 6.740263912375146e-17 -0.10778512536094628 -0.9941742134811041
12661108000.0 -0.11588322019156068 -0.9932628450102625 2.933488327210282e-17 6.715013286117918e-17 2.933488327210282e-17 6.715013286117918e-17 -0.11588260012229773 -0.9932629173530753
12661725333.333334 -0.12397299975698065 -0.9922855916172035 2.9881188600779126e-17 6.68931677391346e-17 2.9881188600779126e-17 6.68931677391346e-17 -0.12397238032799784 -0.9922856690064896
12662342666.666666 -0.13205454756783158 -0.991242450900133 3.042525287410644e-17 6.663176293178646e-17 3.042525287410644e-17 6.663176293178646e-17 -0.13205392882019448 -0.9912425333302631
12662960000.0 -0.14012732701294994 -0.9901334921231841 3.096704005198566e-17 6.636593790697127e-17 3.096704005198566e-17 6.636593790697127e-17 -0.14012670898767468 -0.9901335795881938
12663577333.333334 -0.14819080206336044 -0.988958788920785 3.15065142628371e-17 6.609571242475296e-17 3.15065142628371e-17 6.609571242475296e-17 -0.14819018480141086 -0.988958881414374
12664194666.666666 -0.15624443730789547 -0.9877184192927585 3.204363980595945e-17 6.582110653597185e-17 3.204363980595945e-17 6.582110653597185e-17 -0.15624382085018138 -0.9877185168082973
12664812000.0 -0.16428769798877568 -0.9864124655991501 3.257838115388608e-17 6.554214058077117e-17 3.257838115388608e-17 6.554214058077117e-17 -0.1642870823761492 -0.986412568129674
12665429333.333334 -0.17232005003703257 -0.9850410145547654 3.31107029547284e-17 6.525883518710369e-17 3.31107029547284e-17 6.525883518710369e-17 -0.1723194353102855 -0.9850411220929769
12666046666.666666 -0.18034096010799855 -0.9836041572234084 3.364057003449545e-17 6.497121126922569e-17 3.364057003449545e-17 6.497121126922569e-17 -0.18034034630786028 -0.9836042697616798
12666664000.0 -0.18834989561691742 -0.982101989011805 3.4167947399430005e-17 6.46792900261564e-17 3.4167947399430005e-17 6.46792900261564e-17 -0.18834928278405155 -0.982102106542176
12667281333.333334 -0.19634632477394293 -0.9805346096633264 3.469280023828724e-17 6.43830929401419e-17 3.469280023828724e-17 6.43830929401419e-17 -0.19634571294894518 -0.9805347321775078
12667898666.666666 -0.2043297166197581 -0.9789021232513171 3.52150939246353e-17 6.408264177508241e-17 3.52150939246353e-17 6.408264177508241e-17 -0.20432910584315297 -0.9789022507406878
12668516000.0 -0.21229954106071763 -0.9772046381721969 3.5734794019142106e-17 6.377795857494036e-17 3.5734794019142106e-17 6.377795857494036e-17 -0.21229893137295647 -0.9772047706278081
12669133333.333334 -0.22025526890396416 -0.9754422671382912 3.6251866271814266e-17 6.346906566214959e-17 3.6251866271814266e-17 6.346906566214959e-17 -0.2202546603454216 -0.975442404550863
12669750666.666666 -0.22819637189273112 -0.9736151271703005 3.676627662426557e-17 6.31559856359818e-17 3.676627662426557e-17 6.31559856359818e-17 -0.2281957645037035 -0.9736152695302274
12670368000.0 -0.23612232274133746 -0.9717233395895575 3.7277991211944675e-17 6.283874137091033e-17 3.7277991211944675e-17 6.283874137091033e-17 -0.23612171656203876 -0.9717234868869035
