! Parameters = {f0=12700.012000; bw=77.238000; Q=6100.000000; N=10; m_0_1=1.236932; m_1_1=-0.210767; m_1_2=1.071744; m_2_2=-0.211416; m_2_3=0.708707; m_2_8=-0.001090; m_2_9=0.035614; m_3_3=-0.213353; m_3_4=0.597236; m_3_7=-0.000490; m_3_8=-0.097578; m_3_9=-0.001090; m_4_4=-0.216278; m_4_5=0.433571; m_4_6=0.003027; m_4_7=-0.118127; m_4_8=-0.000490; m_5_5=-0.215896; m_5_6=0.840926; m_5_7=0.003027; m_6_6=-0.215897; m_6_7=0.433913; m_7_7=-0.216264; m_7_8=0.597354; m_8_8=-0.213355; m_8_9=0.709020; m_9_9=-0.211421; m_9_10=1.072822; m_10_10=-0.210777; m_10_11=1.237727}
!
! Created with skrf (http://scikit-rf.org).
# Hz S RI R 50.0 
!freq ReS11 ImS11 ReS21 ImS21 ReS12 ImS12 ReS22 ImS22
12607400000.0 -0.31771089334863417 0.9481876334605116 3.3316800137860784e-18 -9.432863855629933e-17 3.3316800137860784e-18 -9.432863855629933e-17 -0.31771151132821646 0.9481874263927846
12608017333.333334 -0.3086457570653355 0.951177058515079 2.422297601171885e-18 -9.433787871462517e-17 2.422297601171885e-18 -9.433787871462517e-17 -0.30864637696291747 0.9511768573653885
12608634666.666666 -0.29955249903302666 0.9540798186330643 1.513046495335292e-18 -9.433835834975868e-17 1.513046495335292e-18 -9.433835834975868e-17 -0.2995531207919422 0.9540796234191571
12609252000.0 -0.2904319477689482 0.9568956493343291 6.040110285707828e-19 -9.433008084839997e-17 6.040110285707828e-19 -9.433008084839997e-17 -0.2904325713323673 0.9568954600734092
12609869333.333334 -0.28128493427719903 0.9596242940591407 -3.047245198792811e-19 -9.431305040846758e-17 -3.047245198792811e-19 -9.431305040846758e-17 -0.28128555958813267 0.9596241107678687
12610486666.666666 -0.27211229197296694 0.9622655041915675 -1.2130759315874132e-18 -9.428727203839121e-17 -1.2130759315874132e-18 -9.428727203839121e-17 -0.2721129189742728 0.9622653268860587
12611104000.0 -0.2629148566063743 0.9648190390821909 -2.1209590567781378e-18 -9.425275155632873e-17 -2.1209590567781378e-18 -9.425275155632873e-17 -0.2629154852407613 0.9648188677780128
12611721333.333334 -0.2536934661867953 0.9672846660699018 -3.02828982206192e-18 -9.420949558931098e-17 -3.02828982206192e-18 -9.420949558931098e-17 -0.2536940963968296 0.967284500782075
12612338666.666666 -0.24444896090603702 0.9696621605032306 -3.934984238223269e-18 -9.415751157230904e-17 -3.934984238223269e-18 -9.415751157230904e-17 -0.24444959263414634 0.9696620012462239
12612956000.0 -0.23518218306200422 0.9719513057607478 -4.840958407995288e-18 -9.409680774722785e-17 -4.840958407995288e-18 -9.409680774722785e-17 -0.23518281625048423 0.971951152548482
12613573333.333334 -0.2258939769819851 0.9741518932708055 -5.746128533774511e-18 -9.402739316182719e-17 -5.746128533774511e-18 -9.402739316182719e-17 -0.22589461157300367 0.9741517461166479
12614190666.666666 -0.21658518894566453 0.9762637225305479 -6.6504109253742865e-18 -9.394927766856577e-17 -6.6504109253742865e-18 -9.394927766856577e-17 -0.21658582488126746 0.9762635814473124
12614808000.0 -0.2072566671079627 0.9782866011241963 -7.553722007751774e-18 -9.386247192337174e-17 -7.553722007751774e-18 -9.386247192337174e-17 -0.20725730433007886 0.9782864661241416
12615425333.333334 -0.19790926142181087 0.9802203447405623 -8.455978328697224e-18 -9.376698738434103e-17 -8.455978328697224e-18 -9.376698738434103e-17 -0.19790989987225788 0.9802202158353938
12616042666.666666 -0.18854382356079374 0.9820647771898294 -9.357096566546202e-18 -9.366283631035894e-17 -9.357096566546202e-18 -9.366283631035894e-17 -0.1885444631812828 0.9820646543906947
12616660000.0 -0.17916120684135564 0.9838197304196444 -1.0256993537850043e-17 -9.355003175965003e-17 -1.0256993537850043e-17 -9.355003175965003e-17 -0.17916184757349723 0.9838196137371342
12617277333.333334 -0.16976226614524695 0.9854850445303895 -1.1155586205033105e-17 -9.342858758825434e-17 -1.1155586205033105e-17 -9.342858758825434e-17 -0.16976290793055568 0.9854849339745354
12617894666.666666 -0.1603478578415491 0.9870605677897679 -1.2052791684044226e-17 -9.329851844842945e-17 -1.2052791684044226e-17 -9.329851844842945e-17 -0.16034850062144973 0.9870604633700438
12618512000.0 -0.15091883970856443 0.9885461566466454 -1.2948527251993494e-17 -9.315983978697842e-17 -1.2948527251993494e-17 -9.315983978697842e-17 -0.1509194834243965 0.9885460583719637
12619129333.333334 -0.14147607085585645 0.9899416757440915 -1.3842710354744601e-17 -9.301256784350805e-17 -1.3842710354744601e-17 -9.301256784350805e-17 -0.14147671544888046 0.9899415836228062
12619746666.666666 -0.13202041164577846 0.9912469979317529 -1.473525861452573e-17 -9.285671964861015e-17 -1.473525861452573e-17 -9.285671964861015e-17 -0.1320210570571801 0.9912469119716529
12620364000.0 -0.12255272361516528 0.9924620042774123 -1.5626089837494434e-17 -9.26923130219722e-17 -1.5626089837494434e-17 -9.26923130219722e-17 -0.12255336978606186 0.9924619244857272
12620981333.333334 -0.11307386939689375 0.9935865840778284 -1.6515122021285486e-17 -9.251936657041766e-17 -1.6515122021285486e-17 -9.251936657041766e-17 -0.1130745162683391 0.9935865104612251
12621598666.666666 -0.1035847126412285 0.9946206348688263 -1.7402273362548233e-17 -9.233789968586994e-17 -1.7402273362548233e-17 -9.233789968586994e-17 -0.1035853601542183 0.9946205674334075
12622216000.0 -0.09408611793707539 0.9955640624346407 -1.828746226446274e-17 -9.214793254324585e-17 -1.828746226446274e-17 -9.214793254324585e-17 -0.09408676603255263 0.995564001185945
12622833333.333334 -0.08457895073323364 0.9964167808164905 -1.9170607344225813e-17 -9.194948609827777e-17 -1.9170607344225813e-17 -9.194948609827777e-17 -0.08457959935209423 0.9964167257594947
12623450666.666666 -0.07506407725974089 0.9971787123204024 -2.0051627440498706e-17 -9.174258208526815e-17 -2.0051627440498706e-17 -9.174258208526815e-17 -0.07506472634283864 0.9971786634595164
12624068000.0 -0.06554236444860773 0.9978497875243141 -2.0930441620878344e-17 -9.152724301476277e-17 -2.0930441620878344e-17 -9.152724301476277e-17 -0.06554301393675993 0.9978497448633833
12624685333.333334 -0.05601467985502681 0.9984299452843808 -2.1806969189310272e-17 -9.130349217115919e-17 -2.1806969189310272e-17 -9.130349217115919e-17 -0.0560153296890197 0.9984299088266854
12625302666.666666 -0.04648189157838404 0.9989191327405478 -2.2681129693448627e-17 -9.107135361025278e-17 -2.2681129693448627e-17 -9.107135361025278e-17 -0.046482541698978135 0.9989191024888029
12625920000.0 -0.036944868182964406 0.9993173053213761 -2.3552842932080967e-17 -9.083085215668877e-17 -2.3552842932080967e-17 -9.083085215668877e-17 -0.03694551853089993 0.9993172812777312
12626537333.333334 -0.02740447861901281 0.9996244267480926 -2.4422028962413386e-17 -9.058201340137342e-17 -2.4422028962413386e-17 -9.058201340137342e-17 -0.027405129135015034 0.9996244089141314
12627154666.666666 -0.017861592143476022 0.9998404690379028 -2.528860810741903e-17 -9.032486369879164e-17 -2.528860810741903e-17 -9.032486369879164e-17 -0.017862242768260695 0.9998404574146419
12627772000.0 -0.008317078240716437 0.9999654125065381 -2.6152500963133218e-17 -9.005943016426086e-17 -2.6152500963133218e-17 -9.005943016426086e-17 -0.008317728914995234 0.9999654070944302
12628389333.333334 0.0012281934565106086 0.9999992457700486 -2.701362840586925e-17 -8.978574067113091e-17 -2.701362840586925e-17 -8.978574067113091e-17 0.001227542792024752 0.9999992465689798
12629006666.666666 0.010773353246490952 0.9999419657458423 -2.78719115995051e-17 -8.950382384788494e-17 -2.78719115995051e-17 -8.950382384788494e-17 0.010772702651078405 0.9999419727551316
12629624000.0 0.020317531437679368 0.9997935776529636 -2.872727200263596e-17 -8.921370907520322e-17 -2.872727200263596e-17 -8.921370907520322e-17 0.020316880970608412 0.9997935908713655
12630241333.333334 0.02985985842802528 0.9995540950116164 -2.957963137577808e-17 -8.89154264829329e-17 -2.957963137577808e-17 -8.89154264829329e-17 0.02985920814854671 0.99955411443732
12630858666.666666 0.039399464783949505 0.9992235396419421 -3.04289117884862e-17 -8.860900694700791e-17 -3.04289117884862e-17 -8.860900694700791e-17 0.03939881475129123 0.9992235652725704
12631476000.0 0.048935481320072534 0.9988019416620123 -3.127503562648204e-17 -8.82944820862855e-17 -3.127503562648204e-17 -8.82944820862855e-17 0.048934831593434196 0.9988019734946239
12632093333.333334 0.0584670391778125 0.9982893394851087 -3.211792559871579e-17 -8.797188425932802e-17 -3.211792559871579e-17 -8.797188425932802e-17 0.05846638981636002 0.998289377516196
12632710666.666666 0.0679932699049473 0.9976857798162034 -3.2957504744405026e-17 -8.764124656111428e-17 -3.2957504744405026e-17 -8.764124656111428e-17 0.06799262096780771 0.9976858240416976
12633328000.0 0.07751330553465725 0.9969913176477131 -3.37936964400747e-17 -8.730260281966958e-17 -3.37936964400747e-17 -8.730260281966958e-17 0.07751265708091297 0.9969913680629784
12633945333.333334 0.0870262786645514 0.9962060162544861 -3.462642440650379e-17 -8.695598759265295e-17 -3.462642440650379e-17 -8.695598759265295e-17 0.08702563075323504 0.996206072854324
12634562666.666666 0.0965313225357561 0.9953299471880324 -3.545561271567173e-17 -8.660143616386353e-17 -3.545561271567173e-17 -8.660143616386353e-17 0.09653067522584519 0.995330009966682
12635180000.0 0.10602757111177544 0.9943631902700196 -3.628118579767748e-17 -8.623898453967954e-17 -3.628118579767748e-17 -8.623898453967954e-17 0.1060269244621869 0.9943632592211574
12635797333.333334 0.1155141591576248 0.9933058335849742 -3.7103068447604585e-17 -8.58686694454366e-17 -3.7103068447604585e-17 -8.58686694454366e-17 0.11551351322720965 0.9933059087017153
12636414666.666666 0.12499022231832614 0.9921579734722932 -3.7921185832338516e-17 -8.549052832174811e-17 -3.7921185832338516e-17 -8.549052832174811e-17 0.12498957716586422 0.9921580547471918
12637032000.0 0.13445489719805812 0.9909197145174239 -3.873546349739463e-17 -8.510459932073777e-17 -3.873546349739463e-17 -8.510459932073777e-17 0.13445425288225235 0.990919801942472
12637649333.333334 0.14390732143848348 0.9895911695423697 -3.9545827373648336e-17 -8.471092130223575e-17 -3.9545827373648336e-17 -8.471092130223575e-17 0.1439066780179551 0.9895912631090018
12638266666.666666 0.15334663379754757 0.9881724595953858 -4.0352203784074966e-17 -8.430953382988823e-17 -4.0352203784074966e-17 -8.430953382988823e-17 0.1533459913308305 0.9881725592944774
12638884000.0 0.1627719742278644 0.986663713939961 -4.115451945042411e-17 -8.39004771672154e-17 -4.115451945042411e-17 -8.39004771672154e-17 0.16277133277339992 0.9866638197618297
12639501333.333334 0.1721824839550221 0.9850650700430466 -4.195270149985682e-17 -8.348379227360504e-17 -4.195270149985682e-17 -8.348379227360504e-17 0.17218184357115351 0.9850651819774529
12640118666.666666 0.18157730555585713 0.9833766735625307 -4.274667747154779e-17 -8.30595208002417e-17 -4.274667747154779e-17 -8.30595208002417e-17 0.18157666630082459 0.9833767915986793
12640736000.0 0.1909555830368008 0.9815986783339256 -4.3536375323276617e-17 -8.262770508595576e-17 -4.3536375323276617e-17 -8.262770508595576e-17 0.19095494496873566 0.9815988024604654
12641353333.333334 0.20031646191142388 0.9797312463564296 -4.432172343788419e-17 -8.218838815306081e-17 -4.432172343788419e-17 -8.218838815306081e-17 0.20031582508834406 0.9797313765614577
12641970666.666666 0.20965908927865567 0.9777745477781054 -4.510265062981608e-17 -8.174161370306087e-17 -4.510265062981608e-17 -8.174161370306087e-17 0.20965845375845985 0.9777746840491652
12642588000.0 0.21898261390041052 0.9757287608803882 -4.587908615151537e-17 -8.12874261123533e-17 -4.587908615151537e-17 -8.12874261123533e-17 0.2189819797408729 0.9757289032044714
12643205333.333334 0.22828618627909117 0.9735940720618542 -4.665095969983351e-17 -8.082587042783854e-17 -4.665095969983351e-17 -8.082587042783854e-17 0.22828555353785648 0.9735942204254028
12643822666.666666 0.2375689587350169 0.9713706758212307 -4.7418201422380485e-17 -8.035699236247752e-17 -4.7418201422380485e-17 -8.035699236247752e-17 0.23756832746959505 0.9713708302101378
12644440000.0 0.24683008548371438 0.9690587747396627 -4.8180741923810765e-17 -7.988083829080185e-17 -4.8180741923810765e-17 -7.988083829080185e-17 0.24682945575147514 0.9690589351392741
12645057333.333334 0.25606872271278613 0.966658579462302 -4.893851227210059e-17 -7.939745524434255e-17 -4.893851227210059e-17 -7.939745524434255e-17 0.2560680945709541 0.9666587458574168
12645674666.666666 0.2652840286589871 0.9641703086790689 -4.969144400474366e-17 -7.890689090702155e-17 -4.969144400474366e-17 -7.890689090702155e-17 0.2652834021646362 0.9641704810539415
12646292000.0 0.2744751636850291 0.9615941891046925 -5.0439469134950116e-17 -7.840919361045336e-17 -5.0439469134950116e-17 -7.840919361045336e-17 0.27447453889507767 0.9615943674430336
12646909333.333334 0.2836412903556442 0.958930455458173 -5.1182520157732075e-17 -7.790441232923158e-17 -5.1182520157732075e-17 -7.790441232923158e-17 0.2836406673268498 0.9589306397431527
12647526666.666666 0.2927815735143529 0.9561793504412724 -5.1920530055993524e-17 -7.739259667612459e-17 -5.1920530055993524e-17 -7.739259667612459e-17 0.2927809523033072 0.9561795406555204
12648144000.0 0.30189518035931096 0.9533411247164646 -5.265343230656968e-17 -7.687379689721475e-17 -5.265343230656968e-17 -7.687379689721475e-17 0.30189456102243406 0.9533413208420711
12648761333.333334 0.3109812805192972 0.9504160368840648 -5.33811608861792e-17 -7.63480638670078e-17 -5.33811608861792e-17 -7.63480638670078e-17 0.31098066311283373 0.9504162389025852
12649378666.666666 0.32003904612915635 0.9474043534587403 -5.410365027736916e-17 -7.581544908345774e-17 -5.410365027736916e-17 -7.581544908345774e-17 0.3200384307091687 0.9474045613511929
12649996000.0 0.32906765190555176 0.9443063488451195 -5.4820835474399816e-17 -7.527600466294297e-17 -5.4820835474399816e-17 -7.527600466294297e-17 0.3290670385279164 0.9443065625919901
12650613333.333334 0.3380662752219977 0.9411223053128418 -5.553265198906188e-17 -7.472978333519874e-17 -5.553265198906188e-17 -7.472978333519874e-17 0.33806566394239973 0.9411225248940853
12651230666.666666 0.34703409618362496 0.9378525129709082 -5.623903585646213e-17 -7.417683843818436e-17 -5.623903585646213e-17 -7.417683843818436e-17 0.34703348705755244 0.9378527383659492
12651848000.0 0.3559702977023386 0.9344972697410857 -5.69399236407668e-17 -7.361722391288507e-17 -5.69399236407668e-17 -7.361722391288507e-17 0.35596969078507784 0.9344975009288202
12652465333.333334 0.3648740655708099 0.9310568813309215 -5.763525244085492e-17 -7.305099429809267e-17 -5.763525244085492e-17 -7.305099429809267e-17 0.3648734609174414 0.9310571182897224
12653082666.666666 0.37374458853685244 0.9275316612058327 -5.832495989596008e-17 -7.247820472510186e-17 -5.832495989596008e-17 -7.247820472510186e-17 0.3737439862022446 0.9275319039135476
12653700000.0 0.3825810583775193 0.9239219305604623 -5.900898419124765e-17 -7.18989109123602e-17 -5.900898419124765e-17 -7.18989109123602e-17 0.3825804584163234 0.923922178994416
12654317333.333334 0.3913826699722949 0.9202280182895933 -5.968726406332256e-17 -7.131316916008268e-17 -5.968726406332256e-17 -7.131316916008268e-17 0.39138207243894135 0.9202282724265936
12654934666.666666 0.400148621376901 0.9164502609580067 -6.035973880571135e-17 -7.07210363447896e-17 -6.035973880571135e-17 -7.07210363447896e-17 0.4001480263255941 0.9164505207743439
12655552000.0 0.408878113896154 0.912589002769898 -6.102634827427008e-17 -7.012256991381031e-17 -6.102634827427008e-17 -7.012256991381031e-17 0.4088775213808657 0.9125892682413455
12656169333.333334 0.41757035215670985 0.9086445955375263 -6.168703289254079e-17 -6.951782787973512e-17 -6.168703289254079e-17 -6.951782787973512e-17 0.4175697622311758 0.9086448666393449
12656786666.666666 0.4262245441795861 0.9046173986491398 -6.234173365706044e-17 -6.890686881480932e-17 -6.234173365706044e-17 -6.890686881480932e-17 0.4262239568973016 0.9046176753560816
12657404000.0 0.4348399014523742 0.9005077790362075 -6.299039214261499e-17 -6.828975184527761e-17 -6.299039214261499e-17 -6.828975184527761e-17 0.43483931686658783 0.9005080613225145
12658021333.333334 0.44341563900105524 0.8963161111399932 -6.363295050743152e-17 -6.766653664568457e-17 -6.363295050743152e-17 -6.766653664568457e-17 0.4434150571647646 0.8963163989794017
12658638666.666666 0.4519509754613185 0.8920427768775425 -6.426935149830149e-17 -6.703728343313981e-17 -6.426935149830149e-17 -6.703728343313981e-17 0.4519503964272664 0.8920430702432874
12659256000.0 0.46044513315018837 0.8876881656066724 -6.489953845569457e-17 -6.640205296148875e-17 -6.489953845569457e-17 -6.640205296148875e-17 0.4604445569708566 0.8876884644714864
12659873333.333334 0.46889733813644796 0.8832526740907083 -6.552345531875077e-17 -6.576090651549828e-17 -6.552345531875077e-17 -6.576090651549828e-17 0.46889676486405335 0.8832529784268259
12660490666.666666 0.4773068203113337 0.8787367064622477 -6.614104663026135e-17 -6.511390590495209e-17 -6.614104663026135e-17 -6.511390590495209e-17 0.47730624999782256 0.8787370162414068
12661108000.0 0.48567281345887603 0.8741406741862396 -6.675225754159025e-17 -6.446111345869814e-17 -6.675225754159025e-17 -6.446111345869814e-17 0.4856722461559207 0.8741409893796864
12661725333.333334 0.49399455532528835 0.869464996022729 -6.735703381749391e-17 -6.380259201869644e-17 -6.735703381749391e-17 -6.380259201869644e-17 0.4939939910842816 0.8694653166012184
12662342666.666666 0.5022712876888669 0.8647100979884534 -6.795532184094461e-17 -6.313840493395711e-17 -6.795532184094461e-17 -6.313840493395711e-17 0.5022707265609175 0.864710423922253
12662960000.0 0.5105022564287519 0.8598764133182091 -6.854706861784828e-17 -6.246861605448079e-17 -6.854706861784828e-17 -6.246861605448079e-17 0.5105016984646795 0.8598767445771
12663577333.333334 0.5186867115938589 0.8549643824252467 -6.913222178171438e-17 -6.179328972514415e-17 -6.913222178171438e-17 -6.179328972514415e-17 0.5186861568441913 0.8549647189785302
12664194666.666666 0.526823907471016 0.8499744528612637 -6.971072959828142e-17 -6.1112490779524e-17 -6.971072959828142e-17 -6.1112490779524e-17 0.5268233559859822 0.8499747946777603
12664812000.0 0.5349131026530769 0.8449070792755213 -7.028254097005582e-17 -6.042628453370821e-17 -7.028254097005582e-17 -6.042628453370821e-17 0.534912554482604 0.8449074263235761
12665429333.333334 0.5429535601064238 0.8397627233734497 -7.084760544081728e-17 -5.973473678003208e-17 -7.084760544081728e-17 -5.973473678003208e-17 0.5429530153001318 0.8397630756209328
12666046666.666666 0.5509445472379315 0.8345418538747028 -7.140587320003633e-17 -5.903791378080578e-17 -7.140587320003633e-17 -5.903791378080578e-17 0.5509440058451287 0.834542211289014
12666664000.0 0.5588853359621423 0.8292449464701717 -7.1957295087256e-17 -5.833588226196718e-17 -7.1957295087256e-17 -5.833588226196718e-17 0.5588847980318222 0.8292453090182444
12667281333.333334 0.5667752027670863 0.8238724837789906 -7.25018225963883e-17 -5.762870940672621e-17 -7.25018225963883e-17 -5.762870940672621e-17 0.5667746683479213 0.8238728514272927
12667898666.666666 0.5746134287806254 0.8184249553042763 -7.303940787996124e-17 -5.691646284914932e-17 -7.303940787996124e-17 -5.691646284914932e-17 0.5746128979209643 0.8184253280188156
12668516000.0 0.5823992998357653 0.8129028573886579 -7.357000375331279e-17 -5.619921066769551e-17 -7.357000375331279e-17 -5.619921066769551e-17 0.5823987725836266 0.8129032351349819
12669133333.333334 0.5901321065356769 0.8073066931690818 -7.409356369868986e-17 -5.547702137875204e-17 -7.409356369868986e-17 -5.547702137875204e-17 0.5901315829387467 0.8073070759122845
12669750666.666666 0.5978111443184982 0.8016369725308596 -7.461004186931537e-17 -5.4749963930093514e-17 -7.461004186931537e-17 -5.4749963930093514e-17 0.5978106244241241 0.8016373602355823
12670368000.0 0.6054357135213629 0.795894212061322 -7.511939309338404e-17 -5.4018107694310815e-17 -7.511939309338404e-17 -5.4018107694310815e-17 0.6054351973765516 0.7958946046917584
