! Parameters = {f0=12700.012000; bw=77.238000; Q=6100.000000; N=10; m_0_1=1.232728; m_1_1=-0.273830; m_1_2=1.067540; m_2_2=-0.274479; m_2_3=0.704503; m_2_8=-0.001300; m_2_9=0.035404; m_3_3=-0.276416; m_3_4=0.593032; m_3_7=-0.000700; m_3_8=-0.097788; m_3_9=-0.001300; m_4_4=-0.279341; m_4_5=0.429367; m_4_6=0.002817; m_4_7=-0.118337; m_4_8=-0.000700; m_5_5=-0.278959; m_5_6=0.836722; m_5_7=0.002817; m_6_6=-0.278960; m_6_7=0.429709; m_7_7=-0.279327; m_7_8=0.593150; m_8_8=-0.276418; m_8_9=0.704816; m_9_9=-0.274484; m_9_10=1.068618; m_10_10=-0.273840; m_10_11=1.233523}
!
! Created with skrf (http://scikit-rf.org).
# Hz S RI R 50.0 
!freq ReS11 ImS11 ReS21 ImS21 ReS12 ImS12 ReS22 ImS22
12607400000.0 -0.27478256354537656 -0.9615063924755076 4.9616211724929404e-17 7.802974995285144e-17 4.9616211724929404e-17 7.802974995285144e-17 -0.2747819390079383 -0.9615065709577191
12608017333.333334 -0.28382866449290506 -0.9588750122993127 5.034613969189579e-17 7.753920110936276e-17 5.034613969189579e-17 7.753920110936276e-17 -0.28382804169515036 -0.9588751966483071
12608634666.666666 -0.29284957391166616 -0.9561585261135261 5.107122817168938e-17 7.704183127364408e-17 5.107122817168938e-17 7.704183127364408e-17 -0.2928489529086988 -0.9561587163123667
12609252000.0 -0.30184449114093226 -0.953357175022932 5.179141349229897e-17 7.653768809290542e-17 5.179141349229897e-17 7.653768809290542e-17 -0.3018438719876919 -0.9533573710541664
12609869333.333334 -0.31081261782688924 -0.950471207664614 5.250663244993779e-17 7.602681980805602e-17 5.250663244993779e-17 7.602681980805602e-17 -0.3108120005781456 -0.9504714095102729
12610486666.666666 -0.3197531579935209 -0.9475008801858733 5.321682231456215e-17 7.550927524911885e-17 5.321682231456215e-17 7.550927524911885e-17 -0.3197525427038694 -0.9475010878274726
12611104000.0 -0.3286653181134456 -0.9444464562214319 5.392192083537936e-17 7.49851038305691e-17 5.392192083537936e-17 7.49851038305691e-17 -0.3286647048373026 -0.9444466696399763
12611721333.333334 -0.33754830717799716 -0.9413082068701528 5.4621866246259435e-17 7.445435554665936e-17 5.4621866246259435e-17 7.445435554665936e-17 -0.33754769596959455 -0.9413084260461347
12612338666.666666 -0.3464013367676999 -0.9380864106708854 5.5316597271140796e-17 7.391708096666394e-17 5.5316597271140796e-17 7.391708096666394e-17 -0.34640072768108116 -0.9380866355842891
12612956000.0 -0.35522362112227185 -0.934781353577731 5.600605312938957e-17 7.337333123007354e-17 5.600605312938957e-17 7.337333123007354e-17 -0.35522301421128694 -0.9347815842080338
12613573333.333334 -0.36401437721002 -0.9313933289347931 5.669017354107247e-17 7.282315804177024e-17 5.669017354107247e-17 7.282315804177024e-17 -0.36401377252832035 -0.9313935652609663
12614190666.666666 -0.37277282479776425 -0.9279226374499809 5.736889873223209e-17 7.226661366711477e-17 5.736889873223209e-17 7.226661366711477e-17 -0.37277222239879837 -0.9279228794504932
12614808000.0 -0.3814981865198498 -0.9243695871684116 5.804216944008149e-17 7.170375092701127e-17 5.804216944008149e-17 7.170375092701127e-17 -0.38149758645685783 -0.9243698348212287
12615425333.333334 -0.3901896879471941 -0.9207344934450453 5.870992691816257e-17 7.113462319291338e-17 5.870992691816257e-17 7.113462319291338e-17 -0.39018909027320453 -0.9207347467276353
12616042666.666666 -0.39884655765602456 -0.9170176789167005 5.937211294145422e-17 7.055928438178487e-17 5.937211294145422e-17 7.055928438178487e-17 -0.3988459624238478 -0.9170179378060322
12616660000.0 -0.40746802729634496 -0.913219473473413 6.002866981143292e-17 6.997778895101072e-17 6.002866981143292e-17 6.997778895101072e-17 -0.40746743455857026 -0.9132197379459619
12617277333.333334 -0.41605333166018493 -0.9093402142291377 6.06795403610759e-17 6.93901918932684e-17 6.06795403610759e-17 6.93901918932684e-17 -0.41605274146917426 -0.9093404842608837
12617894666.666666 -0.4246017087492817 -0.905380245491928 6.132466795982265e-17 6.879654873134616e-17 6.132466795982265e-17 6.879654873134616e-17 -0.4246011211571667 -0.905380521058362
12618512000.0 -0.4331123998431541 -0.9013399187331805 6.196399651849695e-17 6.819691551290434e-17 6.196399651849695e-17 6.819691551290434e-17 -0.4331118149018304 -0.9013401998093042
12619129333.333334 -0.44158464956597765 -0.8972195925566526 6.259747049413994e-17 6.759134880522696e-17 6.259747049413994e-17 6.759134880522696e-17 -0.4415840673271002 -0.8972198791169805
12619746666.666666 -0.45001770595391194 -0.8930196326665006 6.322503489483589e-17 6.697990568988762e-17 6.322503489483589e-17 6.697990568988762e-17 -0.4500171264688909 -0.8930199246850631
12620364000.0 -0.45841082052184146 -0.88874041183482 6.384663528446707e-17 6.636264375738842e-17 6.384663528446707e-17 6.636264375738842e-17 -0.458410243841838 -0.8887407092851662
12620981333.333334 -0.46676324832960475 -0.8843823098686618 6.446221778739985e-17 6.573962110177182e-17 6.446221778739985e-17 6.573962110177182e-17 -0.4667626745055256 -0.884382612723861
12621598666.666666 -0.4750742480482651 -0.8799457135762462 6.507172909315563e-17 6.511089631515244e-17 6.507172909315563e-17 6.511089631515244e-17 -0.475073677130759 -0.8799460218088909
12622216000.0 -0.48334308202593373 -0.875431016732618 6.56751164609916e-17 6.447652848224256e-17 6.56751164609916e-17 6.447652848224256e-17 -0.48334251406538603 -0.8754313303148258
12622833333.333334 -0.4915690163531884 -0.8708386200447203 6.627232772445997e-17 6.38365771748042e-17 6.627232772445997e-17 6.38365771748042e-17 -0.49156845139971767 -0.8708389389481372
12623450666.666666 -0.4997513209281391 -0.8661689311158733 6.686331129588349e-17 6.319110244608851e-17 6.686331129588349e-17 6.319110244608851e-17 -0.49975075903159166 -0.8661692553116752
12624068000.0 -0.5078892695213545 -0.861422364409527 6.744801617080339e-17 6.254016482520856e-17 6.744801617080339e-17 6.254016482520856e-17 -0.5078887107313004 -0.8614226938684234
12624685333.333334 -0.5159821398403638 -0.8565993412124441 6.802639193236247e-17 6.188382531147933e-17 6.802639193236247e-17 6.188382531147933e-17 -0.5159815842060934 -0.8565996759046807
12625302666.666666 -0.5240292135934271 -0.8517002895975138 6.859838875561532e-17 6.122214536874001e-17 6.859838875561532e-17 6.122214536874001e-17 -0.524028661163945 -0.8517006294928737
12625920000.0 -0.5320297765537965 -0.8467256443854474 6.916395741182629e-17 6.055518691958719e-17 6.916395741182629e-17 6.055518691958719e-17 -0.5320292273778185 -0.8467259894532562
12626537333.333334 -0.539983118622672 -0.8416758471064537 6.972304927266346e-17 5.98830123396239e-17 6.972304927266346e-17 5.98830123396239e-17 -0.5399825727486203 -0.8416761973155795
12627154666.666666 -0.5478885338923984 -0.8365513459609473 7.027561631436315e-17 5.920568445164055e-17 7.027561631436315e-17 5.920568445164055e-17 -0.547887991368397 -0.8365517012798056
12627772000.0 -0.5557453207092592 -0.8313525957796709 7.082161112185386e-17 5.85232665197374e-17 7.082161112185386e-17 5.85232665197374e-17 -0.555744781583131 -0.8313529561762275
12628389333.333334 -0.5635527817354214 -0.826080057983549 7.13609868927746e-17 5.783582224346998e-17 7.13609868927746e-17 5.783582224346998e-17 -0.563552246054682 -0.8260804234253206
12629006666.666666 -0.5713102240112056 -0.8207342005424778 7.189369744149144e-17 5.71434157518885e-17 7.189369744149144e-17 5.71434157518885e-17 -0.5713096918230613 -0.8207345709965387
12629624000.0 -0.57901695901624 -0.8153154979340328 7.241969720301354e-17 5.64461115975959e-17 7.241969720301354e-17 5.64461115975959e-17 -0.579016430367582 -0.8153158733670143
12630241333.333334 -0.5866723027308487 -0.80982443110116 7.293894123687836e-17 5.574397475073501e-17 7.293894123687836e-17 5.574397475073501e-17 -0.5866717776682493 -0.8098248114792547
12630858666.666666 -0.5942755756965322 -0.8042614874096542 7.345138523096027e-17 5.5037070592965203e-17 7.345138523096027e-17 5.5037070592965203e-17 -0.594275054266241 -0.8042618726986195
12631476000.0 -0.6018261030765493 -0.7986271606047015 7.395698550524888e-17 5.4325464911366704e-17 7.395698550524888e-17 5.4325464911366704e-17 -0.6018255853244894 -0.7986275507698628
12632093333.333334 -0.6093232147155152 -0.7929219507672772 7.445569901552362e-17 5.360922389237124e-17 7.445569901552362e-17 5.360922389237124e-17 -0.609322700687278 -0.792922345773529
12632710666.666666 -0.616766245199041 -0.7871463642696381 7.494748335701468e-17 5.2888414115598286e-17 7.494748335701468e-17 5.2888414115598286e-17 -0.616765734939884 -0.7871467640814508
12633328000.0 -0.6241545339128182 -0.7813009137303676 7.5432296767987e-17 5.216310254768106e-17 7.5432296767987e-17 5.216310254768106e-17 -0.6241540274676585 -0.7813013183117862
12633945333.333334 -0.6314874251011812 -0.7753861179689228 7.591009813325176e-17 5.1433356536079105e-17 7.591009813325176e-17 5.1433356536079105e-17 -0.6314869225145942 -0.7753865272835742
12634562666.666666 -0.6387642679253326 -0.7694025019595714 7.638084698763762e-17 5.069924380283156e-17 7.638084698763762e-17 5.069924380283156e-17 -0.6387637692415477 -0.7694029159706669
12635180000.0 -0.6459844165211136 -0.7633505967848008 7.684450351939252e-17 4.996083243829136e-17 7.684450351939252e-17 4.996083243829136e-17 -0.6459839217840075 -0.7633510154551358
12635797333.333334 -0.653147230056343 -0.7572309395881553 7.730102857352832e-17 4.921819089482453e-17 7.730102857352832e-17 4.921819089482453e-17 -0.6531467393094393 -0.7572313628801179
12636414666.666666 -0.6602520727876359 -0.751044073526624 7.775038365509922e-17 4.8471387980488156e-17 7.775038365509922e-17 4.8471387980488156e-17 -0.6602515860740993 -0.7510445014021941
12637032000.0 -0.6672983141168697 -0.7447905477223901 7.819253093242573e-17 4.7720492852667114e-17 7.819253093242573e-17 4.7720492852667114e-17 -0.6672978314795026 -0.7447909801431453
12637649333.333334 -0.6742853286471986 -0.7384709172140594 7.862743324025826e-17 4.696557501168254e-17 7.862743324025826e-17 4.696557501168254e-17 -0.6742848501284375 -0.7384713541411773
12638266666.666666 -0.6812124962384947 -0.73208574290745 7.905505408287137e-17 4.6206704294382013e-17 7.905505408287137e-17 4.6206704294382013e-17 -0.6812120218804071 -0.7320861843017127
12638884000.0 -0.6880792020624132 -0.7256355915257929 7.947535763710267e-17 4.544395086769357e-17 7.947535763710267e-17 4.544395086769357e-17 -0.6880787319066924 -0.7256360373475891
12639501333.333334 -0.69488483665698 -0.719121035559409 7.98883087553291e-17 4.467738522215212e-17 7.98883087553291e-17 4.467738522215212e-17 -0.6948843707449428 -0.7191214857687388
12640118666.666666 -0.7016287959805652 -0.7125426532150183 8.029387296837264e-17 4.3907078165415215e-17 8.029387296837264e-17 4.3907078165415215e-17 -0.7016283343531476 -0.7125431077714963
12640736000.0 -0.7083104814658386 -0.705901028364081 8.069201648837014e-17 4.313310081570201e-17 8.069201648837014e-17 4.313310081570201e-17 -0.7083100241635925 -0.7059014872269401
12641353333.333334 -0.7149293000723307 -0.6991967504915344 8.108270621153367e-17 4.2355524595296844e-17 8.108270621153367e-17 4.2355524595296844e-17 -0.7149288471354204 -0.6991972136196294
12641970666.666666 -0.7214846643396153 -0.6924304146429344 8.146590972089567e-17 4.157442122393529e-17 8.146590972089567e-17 4.157442122393529e-17 -0.721484215807813 -0.692430881994745
12642588000.0 -0.7279759924391649 -0.6856026213719193 8.184159528896616e-17 4.078986271221469e-17 8.184159528896616e-17 4.078986271221469e-17 -0.7279755483518476 -0.6856030929055539
12643205333.333334 -0.7344027082260335 -0.6787139766868678 8.220973188032756e-17 4.000192135497836e-17 8.220973188032756e-17 4.000192135497836e-17 -0.7344022686221813 -0.6787144523600692
12643822666.666666 -0.7407642412900717 -0.6717650919970305 8.257028915417523e-17 3.921066972465835e-17 8.257028915417523e-17 3.921066972465835e-17 -0.7407638062082623 -0.6717655717671774
12644440000.0 -0.7470600270064741 -0.664756584058345 8.292323746678315e-17 3.8416180664618975e-17 8.292323746678315e-17 3.8416180664618975e-17 -0.7470595964848806 -0.6647570678824571
12645057333.333334 -0.7532895065858408 -0.6576890749187608 8.326854787391224e-17 3.761852728246445e-17 8.326854787391224e-17 3.761852728246445e-17 -0.7532890806622268 -0.6576895627535017
12645674666.666666 -0.7594521271238825 -0.6505631918629002 8.360619213315358e-17 3.6817782943327705e-17 8.360619213315358e-17 3.6817782943327705e-17 -0.7594517058356008 -0.6505636836645824
12646292000.0 -0.7655473416505535 -0.6433795673563195 8.39361427062151e-17 3.6014021263119166e-17 8.39361427062151e-17 3.6014021263119166e-17 -0.7655469250345418 -0.6433800630809073
12646909333.333334 -0.771574609178373 -0.6361388389896305 8.425837276111844e-17 3.520731610181546e-17 8.425837276111844e-17 3.520731610181546e-17 -0.7715741972711503 -0.6361393385927445
12647526666.666666 -0.7775333947506275 -0.6288416494216962 8.457285617436499e-17 3.4397741556649815e-17 8.457285617436499e-17 3.4397741556649815e-17 -0.7775329875882915 -0.6288421528586168
12648144000.0 -0.7834231694888304 -0.621488646322609 8.487956753301471e-17 3.358537195533357e-17 8.487956753301471e-17 3.358537195533357e-17 -0.7834227671070548 -0.6214891535482818
12648761333.333334 -0.7892434106396107 -0.6140804823162753 8.517848213670348e-17 3.2770281849255234e-17 8.517848213670348e-17 3.2770281849255234e-17 -0.7892430130736404 -0.6140809932853124
12649378666.666666 -0.7949936016210393 -0.6066178149225777 8.546957599959728e-17 3.195254600665446e-17 8.546957599959728e-17 3.195254600665446e-17 -0.7949932089056893 -0.6066183295892648
12649996000.0 -0.8006732320686742 -0.5991013064987736 8.575282585228613e-17 3.113223940576718e-17 8.575282585228613e-17 3.113223940576718e-17 -0.8006728442383251 -0.5991018248170722
12650613333.333334 -0.8062817978807333 -0.5915316241808605 8.602820914360431e-17 3.0309437227973423e-17 8.602820914360431e-17 3.0309437227973423e-17 -0.8062814149693289 -0.5915321461044124
12651230666.666666 -0.8118188012627876 -0.5839094398244342 8.629570404238681e-17 2.94842148509302e-17 8.629570404238681e-17 2.94842148509302e-17 -0.8118184233038318 -0.5839099653065659
12651848000.0 -0.8172837507721127 -0.5762354299448296 8.655528943916548e-17 2.8656647841666505e-17 8.655528943916548e-17 2.8656647841666505e-17 -0.8172833777986662 -0.576235958938556
12652465333.333334 -0.8226761613611684 -0.5685102756572544 8.680694494779371e-17 2.782681194968658e-17 8.680694494779371e-17 2.782681194968658e-17 -0.822675793405848 -0.5685108081152844
12653082666.666666 -0.8279955544205936 -0.5607346626164369 8.705065090700333e-17 2.699478310006159e-17 8.705065090700333e-17 2.699478310006159e-17 -0.827995191515565 -0.5607351984911753
12653700000.0 -0.8332414578219375 -0.5529092809553912 8.728638838190722e-17 2.6160637386471097e-17 8.728638838190722e-17 2.6160637386471097e-17 -0.8332410999989172 -0.552909820198945
12654317333.333334 -0.838413405959279 -0.5450348252245878 8.751413916541679e-17 2.5324451064293904e-17 8.751413916541679e-17 2.5324451064293904e-17 -0.8384130532495281 -0.5450353677887692
12654934666.666666 -0.8435109397907256 -0.5371119943300482 8.773388577961149e-17 2.4486300543627653e-17 8.773388577961149e-17 2.4486300543627653e-17 -0.8435105922250492 -0.5371125401663801
12655552000.0 -0.8485336068791551 -0.5291414914713127 8.794561147703308e-17 2.3646262382321534e-17 8.794561147703308e-17 2.3646262382321534e-17 -0.848533264487899 -0.5291420405310322
12656169333.333334 -0.8534809614322499 -0.521124024079218 8.814930024190968e-17 2.2804413279018857e-17 8.814930024190968e-17 2.2804413279018857e-17 -0.8534806242452957 -0.5211245763132797
12656786666.666666 -0.8583525643421533 -0.5130603037529635 8.834493679132151e-17 2.1960830066154303e-17 8.834493679132151e-17 2.1960830066154303e-17 -0.8583522323889204 -0.5130608591120468
12657404000.0 -0.8631479832244637 -0.5049510461969321 8.853250657629729e-17 2.1115589702954495e-17 8.853250657629729e-17 2.1115589702954495e-17 -0.8631476565339018 -0.5049516046314422
12658021333.333334 -0.8678667924565715 -0.4967969711572096 8.87119957828412e-17 2.0268769268437175e-17 8.87119957828412e-17 2.0268769268437175e-17 -0.8678664710571623 -0.49679753261728493
12658638666.666666 -0.8725085732153878 -0.4885988023578059 8.888339133289286e-17 1.9420445954407557e-17 8.888339133289286e-17 1.9420445954407557e-17 -0.8725082571351405 -0.48859936679332105
12659256000.0 -0.8770729135146564 -0.48035726743617263 8.904668088522775e-17 1.85706970584118e-17 8.904668088522775e-17 1.85706970584118e-17 -0.877072602781104 -0.4803578347967422
12659873333.333334 -0.8815594082413905 -0.472073097878841 8.920185283628021e-17 1.771959997673157e-17 8.920185283628021e-17 1.771959997673157e-17 -0.8815591028815893 -0.47207366811382534
12660490666.666666 -0.8859676591918448 -0.4637470289564752 8.934889632090503e-17 1.6867232197349945e-17 8.934889632090503e-17 1.6867232197349945e-17 -0.8859673592323735 -0.46374760201498527
12661108000.0 -0.8902972751069456 -0.45537979965846426 8.948780121307631e-17 1.6013671292883525e-17 8.948780121307631e-17 1.6013671292883525e-17 -0.8902969805738984 -0.45538037548936444
12661725333.333334 -0.8945478717069019 -0.44697215262753004 8.961855812650635e-17 1.5158994913583528e-17 8.961855812650635e-17 1.5158994913583528e-17 -0.8945475826258901 -0.446972731179444
12662342666.666666 -0.8987190717254097 -0.4385248340936385 8.974115841521322e-17 1.4303280780243565e-17 8.974115841521322e-17 1.4303280780243565e-17 -0.8987187881215583 -0.43852541531495326
12662960000.0 -0.9028105049430843 -0.4300385938078679 8.985559417400938e-17 1.3446606677169898e-17 8.985559417400938e-17 1.3446606677169898e-17 -0.9028102268410296 -0.43003917764673893
12663577333.333334 -0.9068218082203303 -0.4215141849758381 8.996185823892832e-17 1.2589050445120769e-17 8.996185823892832e-17 1.2589050445120769e-17 -0.9068215356442183 -0.42151477138019355
12664194666.666666 -0.9107526255295872 -0.412952364190834 9.00599441875828e-17 1.1730689974248424e-17 9.00599441875828e-17 1.1730689974248424e-17 -0.9107523585030695 -0.41295295310837876
12664812000.0 -0.9146026079868774 -0.4043538913667551 9.014984633945644e-17 1.0871603197039478e-17 9.014984633945644e-17 1.0871603197039478e-17 -0.9146023465331132 -0.40435448274497726
12665429333.333334 -0.9183714138828594 -0.39571952967048946 9.023155975612803e-17 1.0011868081251595e-17 9.023155975612803e-17 1.0011868081251595e-17 -0.9183711580245095 -0.3957201234566632
12666046666.666666 -0.9220587087130484 -0.3870500454544102 9.030508024142725e-17 9.15156262286515e-18 9.030508024142725e-17 9.15156262286515e-18 -0.9220584584722753 -0.387050641595601
12666664000.0 -0.9256641652076435 -0.3783462081880443 9.037040434152738e-17 8.290764838991438e-18 9.037040434152738e-17 8.290764838991438e-18 -0.9256639206061089 -0.3783468066311142
12667281333.333334 -0.9291874633604188 -0.3696087903901444 9.042752934496408e-17 7.42955276085881e-18 9.042752934496408e-17 7.42955276085881e-18 -0.9291872244192818 -0.3696093910817559
12667898666.666666 -0.9326282904572344 -0.36083856755985994 9.047645328259467e-17 6.568004426712905e-18 9.047645328259467e-17 6.568004426712905e-18 -0.9326280571971496 -0.36083917044648156
12668516000.0 -0.935986341103802 -0.3520363181078803 9.051717492748503e-17 5.706197874770349e-18 9.051717492748503e-17 5.706197874770349e-18 -0.9359861135449182 -0.3520369231357909
12669133333.333334 -0.939261317252655 -0.3432028232876902 9.054969379473097e-17 4.844211136185634e-18 9.054969379473097e-17 4.844211136185634e-18 -0.9392610954146133 -0.34320343040298384
12669750666.666666 -0.9424529282297704 -0.33433886712580557 9.057401014121348e-17 3.9821222279749366e-18 9.057401014121348e-17 3.9821222279749366e-18 -0.9424527121317002 -0.3343394762743959
12670368000.0 -0.9455608907602765 -0.32544523635239603 9.059012496528596e-17 3.1200091459800673e-18 9.059012496528596e-17 3.1200091459800673e-18 -0.9455606804207991 -0.3254458474800223
12670985333.333334 -0.9485849289935887 -0.3165227203315147 9.059804000639524e-17 2.2579498578319287e-18 9.059804000639524e-17 2.2579498578319287e-18 -0.9485847244308107 -0.3165233333837453
