! Parameters = {f0=12700.012000; bw=77.238000; Q=6100.000000; N=10; m_0_1=1.251146; m_1_1=0.002447; m_1_2=1.085958; m_2_2=0.001798; m_2_3=0.722921; m_2_8=-0.000379; m_2_9=0.036325; m_3_3=-0.000139; m_3_4=0.611450; m_3_7=0.000221; m_3_8=-0.096867; m_3_9=-0.000379; m_4_4=-0.003064; m_4_5=0.447785; m_4_6=0.003738; m_4_7=-0.117416; m_4_8=0.000221; m_5_5=-0.002682; m_5_6=0.855140; m_5_7=0.003738; m_6_6=-0.002683; m_6_7=0.448127; m_7_7=-0.003050; m_7_8=0.611568; m_8_8=-0.000141; m_8_9=0.723234; m_9_9=0.001793; m_9_10=1.087036; m_10_10=0.002437; m_10_11=1.251941}
!
! Created with skrf (http://scikit-rf.org).
# Hz S RI R 50.0 
!freq ReS11 ImS11 ReS21 ImS21 ReS12 ImS12 ReS22 ImS22
12607400000.0 0.9171069108780238 -0.39864133506147764 -7.74600704407801e-17 6.498513674195854e-17 -7.74600704407801e-17 6.498513674195854e-17 0.9171071736670413 -0.39864073049336035
12608017333.333334 0.9130887456779551 -0.4077608888994713 -7.678774747410749e-17 6.57477645752188e-17 -7.678774747410749e-17 6.57477645752188e-17 0.913089014465533 -0.4077602870096476
12608634666.666666 0.9089798998881398 -0.4168399472209642 -7.610792484835293e-17 6.650344687880478e-17 -7.610792484835293e-17 6.650344687880478e-17 0.9089801746469977 -0.41683934806894346
12609252000.0 0.9047807815659832 -0.4258776083673304 -7.542067421533099e-17 6.725210999068856e-17 -7.542067421533099e-17 6.725210999068856e-17 0.9047810622682518 -0.425877012012345
12609869333.333334 0.9004918077340167 -0.4348729747912033 -7.472606794945702e-17 6.799368098703314e-17 -7.472606794945702e-17 6.799368098703314e-17 0.9004920943512379 -0.43487238129220146
12610486666.666666 0.8961134043385438 -0.44382515314548565 -7.402417914015037e-17 6.872808768927441e-17 -7.402417914015037e-17 6.872808768927441e-17 0.8961136968416752 -0.4438245625611263
12611104000.0 0.8916460062071871 -0.4527332543723742 -7.331508158415516e-17 6.945525867113604e-17 -7.331508158415516e-17 6.945525867113604e-17 0.8916463045666049 -0.4527326667610213
12611721333.333334 0.8870900570059336 -0.46159639379119705 -7.259884977783275e-17 7.017512326552489e-17 -7.259884977783275e-17 7.017512326552489e-17 0.8870903611914349 -0.4615958092109132
12612338666.666666 0.8824460091948702 -0.4704136911866791 -7.187555890934118e-17 7.088761157139478e-17 -7.187555890934118e-17 7.088761157139478e-17 0.8824463191756773 -0.4704131096952206
12612956000.0 0.8777143239832957 -0.47918427089625454 -7.114528485076679e-17 7.15926544605087e-17 -7.114528485076679e-17 7.15926544605087e-17 0.8777146397280582 -0.4791836925510654
12613573333.333334 0.8728954712840281 -0.48790726189683137 -7.040810415020703e-17 7.229018358410505e-17 -7.040810415020703e-17 7.229018358410505e-17 0.8728957927608256 -0.4879066867550373
12614190666.666666 0.8679899296666 -0.49658179789154483 -6.966409402375928e-17 7.298013137951049e-17 -6.966409402375928e-17 7.298013137951049e-17 0.8679902568429474 -0.4965812260099482
12614808000.0 0.8629981863097863 -0.5052070173956901 -6.891333234745517e-17 7.366243107666038e-17 -6.891333234745517e-17 7.366243107666038e-17 0.8629985191526334 -0.5052064488307629
12615425333.333334 0.8579207369532604 -0.5137820638222033 -6.815589764914003e-17 7.433701670452898e-17 -6.815589764914003e-17 7.433701670452898e-17 0.8579210754290008 -0.5137814986300845
12616042666.666666 0.8527580858482842 -0.5223060855668824 -6.739186910028129e-17 7.50038230974843e-17 -6.739186910028129e-17 7.50038230974843e-17 0.8527584299227522 -0.5223055238033687
12616660000.0 0.8475107457076777 -0.5307782360928583 -6.662132650771722e-17 7.566278590155716e-17 -6.662132650771722e-17 7.566278590155716e-17 0.8475110953461564 -0.5307776778134013
12617277333.333334 0.8421792376548758 -0.5391976740147175 -6.584435030534224e-17 7.631384158062744e-17 -6.584435030534224e-17 7.631384158062744e-17 0.8421795928220998 -0.5391971192744177
12617894666.666666 0.8367640911722518 -0.5475635631819415 -6.506102154574582e-17 7.695692742251454e-17 -6.506102154574582e-17 7.695692742251454e-17 0.8367644518324099 -0.5475630120355426
12618512000.0 0.831265844048347 -0.5558750727622337 -6.427142189175403e-17 7.759198154501303e-17 -6.427142189175403e-17 7.759198154501303e-17 0.8312662101650845 -0.5558745252641157
12619129333.333334 0.8256850423247398 -0.5641313773235999 -6.347563360797986e-17 7.821894290178792e-17 -6.347563360797986e-17 7.821894290178792e-17 0.8256854138611658 -0.564130833527777
12619746666.666666 0.8200222402415716 -0.5723316569167067 -6.267373955224e-17 7.88377512882443e-17 -6.267373955224e-17 7.88377512882443e-17 0.8200226171602594 -0.5723311168768195
12620364000.0 0.8142780001825617 -0.5804750971562151 -6.186582316695957e-17 7.944834734727361e-17 -6.186582316695957e-17 7.944834734727361e-17 0.8142783824455534 -0.5804745609255253
12620981333.333334 0.8084528926192862 -0.5885608893014707 -6.105196847053093e-17 8.005067257490564e-17 -6.105196847053093e-17 8.005067257490564e-17 0.8084532801880984 -0.5885603569328576
12621598666.666666 0.8025474960543629 -0.5965882303370561 -6.023226004857602e-17 8.064466932590299e-17 -6.023226004857602e-17 8.064466932590299e-17 0.8025478888899885 -0.5965877018830102
12622216000.0 0.7965623969640635 -0.6045563230524474 -5.94067830451897e-17 8.123028081924112e-17 -5.94067830451897e-17 8.123028081924112e-17 0.7965627950269746 -0.6045557985650641
12622833333.333334 0.7904981897401004 -0.6124643761211376 -5.85756231541113e-17 8.180745114351217e-17 -5.85756231541113e-17 8.180745114351217e-17 0.7904985929902559 -0.6124638556521147
12623450666.666666 0.7843554766305673 -0.6203116041792748 -5.773886660986991e-17 8.237612526222076e-17 -5.773886660986991e-17 8.237612526222076e-17 0.7843558850274148 -0.6203110877799056
12624068000.0 0.7781348676801109 -0.6280972279036788 -5.689660017883403e-17 8.293624901902089e-17 -5.689660017883403e-17 8.293624901902089e-17 0.7781352811825898 -0.6280967156248473
12624685333.333334 0.7718369806693065 -0.6358204740892807 -5.604891115024375e-17 8.348776914283831e-17 -5.604891115024375e-17 8.348776914283831e-17 0.7718373992358544 -0.6358199659814571
12625302666.666666 0.7654624410534869 -0.6434805757256905 -5.5195887327207806e-17 8.403063325289224e-17 -5.5195887327207806e-17 8.403063325289224e-17 0.7654628646420416 -0.6434800718389254
12625920000.0 0.7590118819003374 -0.651076772073722 -5.433761701759545e-17 8.456478986366343e-17 -5.433761701759545e-17 8.456478986366343e-17 0.7590123104683422 -0.651076272457642
12626537333.333334 0.7524859438273523 -0.6586083087405508 -5.3474189024947596e-17 8.509018838972583e-17 -5.3474189024947596e-17 8.509018838972583e-17 0.7524863773317609 -0.6586078134443538
12627154666.666666 0.7458852749379967 -0.6660744377548957 -5.260569263930564e-17 8.56067791505089e-17 -5.260569263930564e-17 8.56067791505089e-17 0.7458857133352752 -0.666073946827345
12627772000.0 0.739210530757298 -0.6734744176413403 -5.173221762797012e-17 8.61145133749811e-17 -5.173221762797012e-17 8.61145133749811e-17 0.7392109740034343 -0.673473931130763
12628389333.333334 0.7324623741669983 -0.6808075134937 -5.085385422628821e-17 8.66133432061957e-17 -5.085385422628821e-17 8.66133432061957e-17 0.7324628222174988 -0.6808070314479765
12629006666.666666 0.7256414753394261 -0.6880729970483146 -4.997069312831382e-17 8.710322170579152e-17 -4.997069312831382e-17 8.710322170579152e-17 0.7256419281493277 -0.6880725195148804
12629624000.0 0.7187485116711411 -0.695270146756172 -4.9082825477492025e-17 8.758410285836101e-17 -4.9082825477492025e-17 8.758410285836101e-17 0.7187489691950107 -0.6952696737820077
12630241333.333334 0.711784167715616 -0.702398247854603 -4.8190342857259247e-17 8.805594157574688e-17 -4.8190342857259247e-17 8.805594157574688e-17 0.711784629907558 -0.7023977794862327
12630858666.666666 0.7047491351152587 -0.7094565924382712 -4.729333728163289e-17 8.851869370122738e-17 -4.729333728163289e-17 8.851869370122738e-17 0.7047496019289176 -0.7094561287217569
12631476000.0 0.6976441125325795 -0.7164444795296135 -4.639190118571559e-17 8.897231601362922e-17 -4.639190118571559e-17 8.897231601362922e-17 0.6976445839211449 -0.7164440205105502
12632093333.333334 0.6904698055810458 -0.723361215148215 -4.548612741623411e-17 8.941676623130664e-17 -4.548612741623411e-17 8.941676623130664e-17 0.6904702814972592 -0.7233607608717283
12632710666.666666 0.6832269267548693 -0.730206112379872 -4.4576109221967005e-17 8.985200301606228e-17 -4.4576109221967005e-17 8.985200301606228e-17 0.6832274071510261 -0.7302056628906106
12633328000.0 0.6759161953582231 -0.7369784914448273 -4.366194024416281e-17 9.027798597695562e-17 -4.366194024416281e-17 9.027798597695562e-17 0.6759166801861788 -0.7369780467869612
12633945333.333334 0.668538337433869 -0.7436776797652241 -4.2743714506945845e-17 9.069467567400404e-17 -4.2743714506945845e-17 9.069467567400404e-17 0.6685388266450436 -0.7436772399824387
12634562666.666666 0.661094085691031 -0.7503030120319184 -4.182152640765363e-17 9.110203362180233e-17 -4.182152640765363e-17 9.110203362180233e-17 0.6610945792364138 -0.7503025771674106
12635180000.0 0.653584179432629 -0.7568538302705526 -4.089547070715569e-17 9.150002229303682e-17 -4.089547070715569e-17 9.150002229303682e-17 0.6535846772627844 -0.7568534003670273
12635797333.333334 0.6460093644818364 -0.7633294839069192 -3.9965642520131707e-17 9.18886051219047e-17 -3.9965642520131707e-17 9.18886051219047e-17 0.6460098665469074 -0.7633290590065838
12636414666.666666 0.6383703931080749 -0.7697293298315147 -3.903213730534397e-17 9.226774650742425e-17 -3.903213730534397e-17 9.226774650742425e-17 0.6383708993577889 -0.7697289099760756
12637032000.0 0.6306680239522618 -0.7760527324634449 -3.809505085582635e-17 9.26374118166679e-17 -3.809505085582635e-17 9.26374118166679e-17 0.6306685343359364 -0.7760523176941049
12637649333.333334 0.6229030219514267 -0.7822990638135843 -3.715447928909584e-17 9.299756738787448e-17 -3.715447928909584e-17 9.299756738787448e-17 0.6229035364179727 -0.7822986541710354
12638266666.666666 0.6150761582628052 -0.7884677035468841 -3.621051903730885e-17 9.334818053347314e-17 -3.621051903730885e-17 9.334818053347314e-17 0.6150766767607345 -0.7884672990713063
12638884000.0 0.6071882101872373 -0.7945580390440016 -3.526326683739483e-17 9.368921954300503e-17 -3.526326683739483e-17 9.368921954300503e-17 0.6071887326646643 -0.7945576397750562
12639501333.333334 0.5992399610919436 -0.8005694654621522 -3.431281972116038e-17 9.402065368594697e-17 -3.431281972116038e-17 9.402065368594697e-17 0.5992404874965944 -0.8005690714389817
12640118666.666666 0.5912322003328682 -0.8065013857950806 -3.335927500538615e-17 9.434245321442765e-17 -3.335927500538615e-17 9.434245321442765e-17 0.5912327306120836 -0.8065009970563017
12640736000.0 0.5831657231758969 -0.8123532109326346 -3.240273028183676e-17 9.465458936586485e-17 -3.240273028183676e-17 9.465458936586485e-17 0.5831662572766383 -0.8123528275163364
12641353333.333334 0.5750413307185201 -0.8181243597188039 -3.14432834073686e-17 9.495703436546181e-17 -3.14432834073686e-17 9.495703436546181e-17 0.5750418685873739 -0.8181239816625417
12641970666.666666 0.5668598298096524 -0.8238142590098825 -3.04810324938658e-17 9.52497614286515e-17 -3.04810324938658e-17 9.52497614286515e-17 0.5668603713928363 -0.8238138863506763
12642588000.0 0.5586220329698264 -0.8294223437311588 -2.951607589826538e-17 9.553274476340374e-17 -2.951607589826538e-17 9.553274476340374e-17 0.5586225782131944 -0.8294219765054892
12643205333.333334 0.5503287583104534 -0.8349480569330676 -2.854851221251822e-17 9.580595957244536e-17 -2.854851221251822e-17 9.580595957244536e-17 0.5503293071595021 -0.8349476951768726
12643822666.666666 0.541980829452481 -0.840390849846564 -2.7578440253524682e-17 9.606938205538013e-17 -2.7578440253524682e-17 9.606938205538013e-17 0.5419813818523539 -0.8403904935952348
12644440000.0 0.533579075444693 -0.8457501819375608 -2.660595905307616e-17 9.632298941070058e-17 -2.660595905307616e-17 9.632298941070058e-17 0.5335796313401856 -0.8457498312259373
12645057333.333334 0.525124330681444 -0.8510255209605617 -2.5631167847759422e-17 9.656675983770282e-17 -2.5631167847759422e-17 9.656675983770282e-17 0.5251248900170109 -0.8510251758229315
12645674666.666666 0.5166174348196564 -0.8562163430116173 -2.4654166068861083e-17 9.68006725382962e-17 -2.4654166068861083e-17 9.68006725382962e-17 0.5166179975394157 -0.8562160034817111
12646292000.0 0.5080592326953539 -0.8613221325803944 -2.367505333220915e-17 9.702470771872168e-17 -2.367505333220915e-17 9.702470771872168e-17 0.5080597987430931 -0.8613217986913816
12646909333.333334 0.4994505742400521 -0.8663423826011937 -2.269392942808283e-17 9.723884659114832e-17 -2.269392942808283e-17 9.723884659114832e-17 0.49945114355923365 -0.8663420543856812
12647526666.666666 0.49079231439608234 -0.8712765945034712 -2.17108943110313e-17 9.744307137518599e-17 -2.17108943110313e-17 9.744307137518599e-17 0.4907928869298502 -0.8712762719935009
12648144000.0 0.4820853130318099 -0.8761242782612821 -2.072604808971297e-17 9.763736529928773e-17 -2.072604808971297e-17 9.763736529928773e-17 0.4820858887229926 -0.8761239614883224
12648761333.333334 0.4733304348561848 -0.8808849524419663 -1.9739491016731486e-17 9.782171260204763e-17 -1.9739491016731486e-17 9.782171260204763e-17 0.4733310136473045 -0.8808846414369162
12649378666.666666 0.46452854933297055 -0.8855581442539143 -1.8751323478450264e-17 9.799609853340013e-17 -1.8751323478450264e-17 9.799609853340013e-17 0.46452913116624645 -0.8855578390470954
12649996000.0 0.4556805305942432 -0.8901433895935974 -1.7761645984780484e-17 9.816050935571778e-17 -1.7761645984780484e-17 9.816050935571778e-17 0.4556811154115985 -0.8901430902147535
12650613333.333334 0.44678725735365554 -0.89464023309162 -1.677055915899695e-17 9.831493234480065e-17 -1.677055915899695e-17 9.831493234480065e-17 0.44678784509672237 -0.8946399395699125
12651230666.666666 0.4378496128192462 -0.8990482281579039 -1.5778163727521463e-17 9.84593557907677e-17 -1.5778163727521463e-17 9.84593557907677e-17 0.43785020342937186 -0.8990479405219095
12651848000.0 0.42886848460557453 -0.9033669370261169 -1.478456050968834e-17 9.859376899884618e-17 -1.478456050968834e-17 9.859376899884618e-17 0.42886907802382745 -0.903366655303826
12652465333.333334 0.4198447646456456 -0.9075959307971101 -1.3789850407543952e-17 9.871816229005291e-17 -1.3789850407543952e-17 9.871816229005291e-17 0.4198453608128213 -0.9075956550159224
12653082666.666666 0.41077934910243435 -0.9117347894814646 -1.2794134395619355e-17 9.883252700177571e-17 -1.2794134395619355e-17 9.883252700177571e-17 0.4107799479590609 -0.9117345196681874
12653700000.0 0.4016731382796018 -0.9157831020413324 -1.1797513510671545e-17 9.893685548825566e-17 -1.1797513510671545e-17 9.893685548825566e-17 0.40167373976594617 -0.9157828382221781
12654317333.333334 0.3925270365324463 -0.9197404664310939 -1.080008884148705e-17 9.903114112095818e-17 -1.080008884148705e-17 9.903114112095818e-17 0.3925276405885198 -0.919740208631676
12654934666.666666 0.38334195217780453 -0.9236064896374101 -9.801961518630821e-18 9.911537828884794e-17 -9.801961518630821e-18 9.911537828884794e-17 0.3833425587433699 -0.9236062378827439
12655552000.0 0.37411879740395004 -0.9273807877182124 -8.803232704194898e-18 9.918956239856026e-17 -8.803232704194898e-18 9.918956239856026e-17 0.3741194064185258 -0.9273805420327081
12656169333.333334 0.3648584881800793 -0.9310629858407952 -7.804003581601416e-18 9.925368987446485e-17 -7.804003581601416e-18 9.925368987446485e-17 0.3648590995829472 -0.9310627462482594
12656786666.666666 0.3555619441651885 -0.9346527183191096 -6.804375345339766e-18 9.93077581586324e-17 -6.804375345339766e-18 9.93077581586324e-17 0.35556255789539887 -0.9346524848427411
12657404000.0 0.3462300886168454 -0.9381496286500367 -5.8044491907517935e-18 9.935176571069517e-17 -5.8044491907517935e-18 9.935176571069517e-17 0.3462307046132236 -0.9381494013124244
12658021333.333334 0.3368638482994454 -0.9415533695488105 -4.804326303801098e-18 9.938571200760531e-17 -4.804326303801098e-18 9.938571200760531e-17 0.33686446650059737 -0.9415531483719322
12658638666.666666 0.32746415339228 -0.9448636029834718 -3.804107850867125e-18 9.940959754329109e-17 -3.804107850867125e-18 9.940959754329109e-17 0.3274647737365991 -0.9448633879886907
12659256000.0 0.318031937396999 -0.948080000208496 -2.8038949684999242e-18 9.942342382821077e-17 -2.8038949684999242e-18 9.942342382821077e-17 0.3180325598226718 -0.9480797914165607
12659873333.333334 0.30856813704498154 -0.9512022417974102 -1.8037887532497754e-18 9.94271933888022e-17 -1.8037887532497754e-18 9.94271933888022e-17 0.30856876148999385 -0.95120203922845
12660490666.666666 0.2990736922044174 -0.9542300176744846 -8.038902514511448e-19 9.942090976683248e-17 -8.038902514511448e-19 9.942090976683248e-17 0.29907431860656014 -0.9542298213480086
12661108000.0 0.2895495457866676 -0.9571630271456193 1.9569955098433693e-19 9.940457751864315e-17 1.9569955098433693e-19 9.940457751864315e-17 0.2895501740835436 -0.9571628370805146
12661725333.333334 0.27999664365300175 -0.9600009789280863 1.194879738711094e-18 9.937820221429487e-17 1.194879738711094e-18 9.937820221429487e-17 0.2799972737820324 -0.9600007951426185
12662342666.666666 0.27041593452033885 -0.9627435911795635 2.1935494771495685e-18 9.934179043660857e-17 2.1935494771495685e-18 9.934179043660857e-17 0.27041656641876893 -0.9627434136913706
12662960000.0 0.2608083698672708 -0.9653905915260456 3.1916080226288356e-18 9.929534978010566e-17 3.1916080226288356e-18 9.929534978010566e-17 0.2608090034721759 -0.9653904203521396
12663577333.333334 0.2511749038393797 -0.9679417170889519 4.188954732535855e-18 9.923888884984606e-17 4.188954732535855e-18 9.923888884984606e-17 0.2511755390876721 -0.9679415522457167
12664194666.666666 0.24151649315458912 -0.9703967145112042 5.185489075433612e-18 9.917241726016484e-17 5.185489075433612e-18 9.917241726016484e-17 0.24151712998302385 -0.970396556014392
12664812000.0 0.23183409700812252 -0.9727553399823917 6.18111064119232e-18 9.909594563330692e-17 6.18111064119232e-18 9.909594563330692e-17 0.23183473535330407 -0.9727551878471241
12665429333.333334 0.2221286769772168 -0.9750173592629938 7.175719151078996e-18 9.900948559796082e-17 7.175719151078996e-18 9.900948559796082e-17 0.22212931677560502 -0.9750172135037585
12666046666.666666 0.21240119692573634 -0.9771825477076153 8.169214467827076e-18 9.89130497876924e-17 8.169214467827076e-18 9.89130497876924e-17 0.21240183811365304 -0.9771824083382653
12666664000.0 0.20265262290825634 -0.9792506902873414 9.161496605729937e-18 9.880665183927358e-17 9.161496605729937e-18 9.880665183927358e-17 0.20265326542189166 -0.9792505573210949
12667281333.333334 0.19288392307434427 -0.981221581611046 1.0152465740645003e-17 9.869030639091758e-17 1.0152465740645003e-17 9.869030639091758e-17 0.19288456684976266 -0.9812214550604821
12667898666.666666 0.18309606757224353 -0.9830950259458198 1.1142022220044935e-17 9.856402908040621e-17 1.1142022220044935e-17 9.856402908040621e-17 0.1830967125453908 -0.9830949058228821
12668516000.0 0.1732900284524989 -0.9848708372364179 1.2130066573022346e-17 9.842783654311992e-17 1.2130066573022346e-17 9.842783654311992e-17 0.17329067455920796 -0.9848707235524088
12669133333.333334 0.16346677957167122 -0.986548839123688 1.3116499520233073e-17 9.828174640997248e-17 1.3116499520233073e-17 9.828174640997248e-17 0.1634674267476685 -0.9865487318892694
12669750666.666666 0.15362729649531462 -0.9881288649621423 1.410122198389741e-17 9.81257773052361e-17 1.410122198389741e-17 9.81257773052361e-17 0.15362794467622679 -0.9881287641873343
12670368000.0 0.1437725564013146 -0.9896107578364639 1.5084135097709777e-17 9.795994884427469e-17 1.5084135097709777e-17 9.795994884427469e-17 0.14377320552267484 -0.9896106635306458
12670985333.333334 0.1339035379827597 -0.9909943705771144 1.6065140216740327e-17 9.778428163117757e-17 1.6065140216740327e-17 9.778428163117757e-17 0.13390418798001386 -0.9909942827490195
