! Parameters = {f0=12700.012000; bw=77.238000; Q=6100.000000; N=10; m_0_1=1.236732; m_1_1=-0.213770; m_1_2=1.071544; m_2_2=-0.214419; m_2_3=0.708507; m_2_8=-0.001100; m_2_9=0.035604; m_3_3=-0.216356; m_3_4=0.597036; m_3_7=-0.000500; m_3_8=-0.097588; m_3_9=-0.001100; m_4_4=-0.219281; m_4_5=0.433371; m_4_6=0.003017; m_4_7=-0.118137; m_4_8=-0.000500; m_5_5=-0.218899; m_5_6=0.840726; m_5_7=0.003017; m_6_6=-0.218900; m_6_7=0.433713; m_7_7=-0.219267; m_7_8=0.597154; m_8_8=-0.216358; m_8_9=0.708820; m_9_9=-0.214424; m_9_10=1.072622; m_10_10=-0.213780; m_10_11=1.237527}
!
! Created with skrf (http://scikit-rf.org).
# Hz S RI R 50.0 
!freq ReS11 ImS11 ReS21 ImS21 ReS12 ImS12 ReS22 ImS22
12607400000.0 -0.4297922133001214 0.9029278229107883 1.467410539716232e-17 -9.314658992318252e-17 1.467410539716232e-17 -9.314658992318252e-17 -0.4297928016867527 0.9029275428394482
12608017333.333334 -0.4211593539074203 0.9069866584554142 1.3773912837926287e-17 -9.32652853667985e-17 1.3773912837926287e-17 -9.32652853667985e-17 -0.42115994491002573 0.906986384023055
12608634666.666666 -0.4124881688442 0.9109629578437266 1.2872795843832536e-17 -9.337528761300702e-17 1.2872795843832536e-17 -9.337528761300702e-17 -0.4124887624087446 0.9109626890747691
12609252000.0 -0.4037794471918874 0.9148563592309158 1.1970838303075694e-17 -9.347658987035191e-17 1.1970838303075694e-17 -9.347658987035191e-17 -0.4037800432641083 0.9148560961492616
12609869333.333334 -0.3950339814476491 0.9186665083159677 1.1068124148876324e-17 -9.356918615628892e-17 1.1068124148876324e-17 -9.356918615628892e-17 -0.39503457997306035 0.918666250944999
12610486666.666666 -0.38625256745258557 0.9223930583737706 1.0164737351721184e-17 -9.365307129741952e-17 1.0164737351721184e-17 -9.365307129741952e-17 -0.38625316837648405 0.9223928067363489
12611104000.0 -0.377436004318816 0.926035670286885 9.26076191151789e-18 -9.37282409296585e-17 9.26076191151789e-18 -9.37282409296585e-17 -0.3774366075862848 0.926035424405346
12611721333.333334 -0.36858509435733045 0.9295940125761515 8.356281849859113e-18 -9.37946914983156e-17 8.356281849859113e-18 -9.37946914983156e-17 -0.3685856999132456 0.9295937724723069
12612338666.666666 -0.359700643004512 0.9330677614310623 7.45138120218125e-18 -9.385242025811255e-17 7.45138120218125e-18 -9.385242025811255e-17 -0.35970125079354587 0.9330675271261937
12612956000.0 -0.3507834587490469 0.9364566007391314 6.546144009994115e-18 -9.390142527311809e-17 6.546144009994115e-18 -9.390142527311809e-17 -0.35078406871567497 0.936456372253993
12613573333.333334 -0.34183435305838156 0.9397602221146574 5.640654313094574e-18 -9.394170541661108e-17 5.640654313094574e-18 -9.394170541661108e-17 -0.34183496514688627 0.9397599994694711
12614190666.666666 -0.3328541403047988 0.9429783249268168 4.734996141775226e-18 -9.397326037086764e-17 4.734996141775226e-18 -9.397326037086764e-17 -0.33285475445927465 0.9429781081412699
12614808000.0 -0.32384363769136276 0.9461106163270018 3.829253509034478e-18 -9.399609062687499e-17 3.829253509034478e-18 -9.399609062687499e-17 -0.3238442538557217 0.9461104054202467
12615425333.333334 -0.3148036651774441 0.9491568112755024 2.9235104028178756e-18 -9.401019748396782e-17 2.9235104028178756e-18 -9.401019748396782e-17 -0.31480428329542154 0.9491566062661574
12616042666.666666 -0.305735045404295 0.9521166325673897 2.0178507782247996e-18 -9.401558304939276e-17 2.0178507782247996e-18 -9.401558304939276e-17 -0.305735665419453 0.9521164334735311
12616660000.0 -0.2966386036199697 0.9549898108578059 1.1123585497639494e-18 -9.401225023779604e-17 1.1123585497639494e-18 -9.401225023779604e-17 -0.2966392254757037 0.9549896176969713
12617277333.333334 -0.2875151676044164 0.9577760846864138 2.0711758357022745e-19 -9.400020277063769e-17 2.0711758357022745e-19 -9.400020277063769e-17 -0.2875157912439603 0.9577758974756007
12617894666.666666 -0.27836556759406994 0.9604752005012233 -6.977883103120853e-19 -9.397944517553117e-17 -6.977883103120853e-19 -9.397944517553117e-17 -0.2783661929605001 0.9604750192568834
12618512000.0 -0.26919063620621503 0.9630869126816787 -1.6022753857234168e-18 -9.39499827855076e-17 -1.6022753857234168e-18 -9.39499827855076e-17 -0.2691912632424568 0.9630867374197214
12619129333.333334 -0.25999120836338324 0.9656109835609684 -2.5062599680645133e-18 -9.39118217382074e-17 -2.5062599680645133e-18 -9.39118217382074e-17 -0.2599918370122157 0.9656108142967569
12619746666.666666 -0.2507681212173208 0.9680471834476708 -3.4096584620692514e-18 -9.386496897499622e-17 -3.4096584620692514e-18 -9.386496897499622e-17 -0.2507687514213815 0.9680470201960204
12620364000.0 -0.2415222140725858 0.9703952906467086 -4.312387359497591e-18 -9.380943224000659e-17 -4.312387359497591e-18 -9.380943224000659e-17 -0.24152284577437652 0.9703951334218859
12620981333.333334 -0.2322543283106121 0.9726550914794103 -5.214363246836214e-18 -9.374522007910762e-17 -5.214363246836214e-18 -9.374522007910762e-17 -0.2322549614525041 0.9726549402951329
12621598666.666666 -0.22296530731278594 0.974826380303051 -6.115502812995342e-18 -9.367234183879883e-17 -6.115502812995342e-18 -9.367234183879883e-17 -0.22296594183702498 0.974826235172485
12622216000.0 -0.21365599638375188 0.9769089595295455 -7.015722856995694e-18 -9.359080766503029e-17 -7.015722856995694e-18 -9.359080766503029e-17 -0.21365663223246364 0.9769088204653056
12622833333.333334 -0.2043272426746284 0.9789026396433999 -7.91494029562094e-18 -9.350062850195045e-17 -7.91494029562094e-18 -9.350062850195045e-17 -0.2043278797898237 0.9789025066575469
12623450666.666666 -0.19497989510580627 0.980807239218982 -8.813072171066974e-18 -9.340181609058073e-17 -8.813072171066974e-18 -9.340181609058073e-17 -0.19498053342938618 0.9808071123230219
12624068000.0 -0.18561480428977956 0.982622584937014 -9.710035658597747e-18 -9.329438296741391e-17 -9.710035658597747e-18 -9.329438296741391e-17 -0.18561544376354114 0.9826224641418987
12624685333.333334 -0.17623282245348862 0.9843485116003929 -1.0605748074164498e-17 -9.317834246294122e-17 -1.0605748074164498e-17 -9.317834246294122e-17 -0.17623346301912987 0.9843483969165175
12625302666.666666 -0.16683480336126996 0.9859848621491301 -1.1500126881979956e-17 -9.305370870011069e-17 -1.1500126881979956e-17 -9.305370870011069e-17 -0.16683544496039507 0.9859847535863321
12625920000.0 -0.15742160223651983 0.9875314876747584 -1.2393089702152538e-17 -9.292049659270293e-17 -1.2393089702152538e-17 -9.292049659270293e-17 -0.15742224481064473 0.9875313852423175
12626537333.333334 -0.1479940756844562 0.9889882474337786 -1.328455431822908e-17 -9.277872184364392e-17 -1.328455431822908e-17 -9.277872184364392e-17 -0.14799471917501414 0.9889881511404178
12627154666.666666 -0.13855308161391666 0.9903550088605199 -1.4174438684745943e-17 -9.26284009432418e-17 -1.4174438684745943e-17 -9.26284009432418e-17 -0.1385537259622629 0.9903549187144005
12627772000.0 -0.12909947915903405 0.9916316475792302 -1.5062660934800802e-17 -9.246955116734546e-17 -1.5062660934800802e-17 -9.246955116734546e-17 -0.12910012430645168 0.9916315635879547
12628389333.333334 -0.11963412860164584 0.9928180474153147 -1.5949139387510178e-17 -9.230219057544571e-17 -1.5949139387510178e-17 -9.230219057544571e-17 -0.11963477448935082 0.9928179695859232
12629006666.666666 -0.11015789129236048 0.9939141004059926 -1.6833792555565127e-17 -9.212633800868555e-17 -1.6833792555565127e-17 -9.212633800868555e-17 -0.11015853786150728 0.9939140287449652
12629624000.0 -0.1006716295727099 0.994919706810056 -1.771653915265582e-17 -9.194201308781755e-17 -1.771653915265582e-17 -9.194201308781755e-17 -0.10067227676439679 0.9949196413233108
12630241333.333334 -0.09117620669628097 0.9958347751169926 -1.8597298100961035e-17 -9.174923621107421e-17 -1.8597298100961035e-17 -9.174923621107421e-17 -0.09117685445155516 0.9958347158098841
12630858666.666666 -0.08167248675055439 0.9966592220552687 -1.947598853854225e-17 -9.15480285519814e-17 -1.947598853854225e-17 -9.15480285519814e-17 -0.0816731350104178 0.9966591689325911
12631476000.0 -0.07216133457773549 0.9973929725999646 -2.035252982680083e-17 -9.133841205708286e-17 -2.035252982680083e-17 -9.133841205708286e-17 -0.07216198328314972 0.9973929256659462
12632093333.333334 -0.06264361569661872 0.9980359599795425 -2.122684155780757e-17 -9.112040944361637e-17 -2.122684155780757e-17 -9.112040944361637e-17 -0.06264426478851065 0.9980359192378496
12632710666.666666 -0.053120196223570955 0.9985881256819565 -2.2098843561699022e-17 -9.089404419710002e-17 -2.2098843561699022e-17 -9.089404419710002e-17 -0.05312084564283805 0.998588091135691
12633328000.0 -0.043591942793486965 0.9990494194599797 -2.2968455914004488e-17 -9.06593405688567e-17 -2.2968455914004488e-17 -9.06593405688567e-17 -0.04359259248100271 0.9990493911116798
12633945333.333334 -0.034059722481379597 0.9994197993357572 -2.3835598942952925e-17 -9.041632357346913e-17 -2.3835598942952925e-17 -9.041632357346913e-17 -0.034060372377998846 0.9994197771873964
12634562666.666666 -0.024524402723106485 0.9996992316046402 -2.4700193236748293e-17 -9.016501898616545e-17 -2.4700193236748293e-17 -9.016501898616545e-17 -0.02452505276967084 0.9996992156576285
12635180000.0 -0.01498685123668866 0.9998876908382476 -2.556215965084366e-17 -8.990545334012906e-17 -2.556215965084366e-17 -8.990545334012906e-17 -0.014987501374031846 0.99988768109343
12635797333.333334 -0.005447935943092114 0.9999851598867828 -2.6421419315151825e-17 -8.963765392374871e-17 -2.6421419315151825e-17 -8.963765392374871e-17 -0.005448586112045393 0.9999851563444395
12636414666.666666 0.0040914751124123015 0.9999916298805891 -2.7277893641255955e-17 -8.936164877779249e-17 -2.7277893641255955e-17 -8.936164877779249e-17 0.004090824971014763 0.9999916325404375
12637032000.0 0.013630513839639237 0.9999071002309671 -2.8131504329575837e-17 -8.907746669251687e-17 -2.8131504329575837e-17 -8.907746669251687e-17 0.013629863784954987 0.9999071090921581
12637649333.333334 0.023168312182144362 0.9997315786302162 -2.8982173376519833e-17 -8.878513720470314e-17 -2.8982173376519833e-17 -8.878513720470314e-17 0.023167662273317277 0.999731593691338
12638266666.666666 0.03270400219647364 0.9994650810509423 -2.982982308157895e-17 -8.848469059463485e-17 -2.982982308157895e-17 -8.848469059463485e-17 0.03270335249262855 0.9994651023100185
12638884000.0 0.04223671613094757 0.9991076317446019 -3.067437605442764e-17 -8.817615788299473e-17 -3.067437605442764e-17 -8.817615788299473e-17 0.042236066691184876 0.9991076591990928
12639501333.333334 0.05176558650474067 0.9986592632392958 -3.151575522195558e-17 -8.78595708277074e-17 -3.151575522195558e-17 -8.78595708277074e-17 0.05176493738813098 0.9986592968860981
12640118666.666666 0.0612897461867374 0.9981200163368126 -3.235388383529001e-17 -8.753496192070746e-17 -3.235388383529001e-17 -8.753496192070746e-17 0.06128909745231612 0.9981200561722591
12640736000.0 0.07080832847469674 0.9974899401088981 -3.318868547680207e-17 -8.72023643846329e-17 -3.318868547680207e-17 -8.72023643846329e-17 0.07080768018145875 0.9974899861287599
12641353333.333334 0.08032046717366849 0.9967690918928198 -3.402008406700606e-17 -8.686181216948206e-17 -3.402008406700606e-17 -8.686181216948206e-17 0.08031981938056278 0.9967691440923051
12641970666.666666 0.08982529667518649 0.995957537286128 -3.4848003871535687e-17 -8.651333994916088e-17 -3.4848003871535687e-17 -8.651333994916088e-17 0.08982464944111074 0.9959575956598831
12642588000.0 0.09932195203598192 0.9950553501406828 -3.567236950798414e-17 -8.615698311800339e-17 -3.567236950798414e-17 -8.615698311800339e-17 0.0993213054197772 0.9950554146827927
12643205333.333334 0.10880956905649575 0.9940626125559561 -3.6493105952773423e-17 -8.579277778720254e-17 -3.6493105952773423e-17 -8.579277778720254e-17 0.10880892311694129 0.9940626832599465
12643822666.666666 0.11828728435986087 0.992979414871529 -3.731013854795544e-17 -8.542076078118799e-17 -3.731013854795544e-17 -8.542076078118799e-17 0.11828663915566835 0.9929794917303628
12644440000.0 0.12775423547010142 0.9918058556589007 -3.812339300799381e-17 -8.504096963393253e-17 -3.812339300799381e-17 -8.504096963393253e-17 0.12775359105991008 0.991805938664984
12645057333.333334 0.13720956089087358 0.9905420417125 -3.893279542648444e-17 -8.465344258520513e-17 -3.893279542648444e-17 -8.465344258520513e-17 0.13720891733324467 0.9905421308576794
12645674666.666666 0.14665240018366435 0.9891880880399864 -3.973827228287436e-17 -8.425821857674324e-17 -3.973827228287436e-17 -8.425821857674324e-17 0.14665175753707574 0.989188183315551
12646292000.0 0.15608189404637351 0.987744117851749 -4.053975044912046e-17 -8.385533724837157e-17 -4.053975044912046e-17 -8.385533724837157e-17 0.1560812523692145 0.98774421924843
12646909333.333334 0.16549718439122882 0.986210262549731 -4.133715719630004e-17 -8.344483893406264e-17 -4.133715719630004e-17 -8.344483893406264e-17 0.16549654374179482 0.9862103700577046
12647526666.666666 0.17489741442295711 0.9845866617154627 -4.2130420201198134e-17 -8.302676465792609e-17 -4.2130420201198134e-17 -8.302676465792609e-17 0.17489677485944413 0.9845867753243485
12648144000.0 0.18428172871694867 0.9828734630973237 -4.291946755286675e-17 -8.260115613012995e-17 -4.291946755286675e-17 -8.260115613012995e-17 0.18428109029744863 0.9828735827961893
12648761333.333334 0.19364927329676593 0.9810708225971602 -4.3704227759098305e-17 -8.216805574278244e-17 -4.3704227759098305e-17 -8.216805574278244e-17 0.19364863607926056 0.9810709483745178
12649378666.666666 0.20299919571207853 0.9791789042560518 -4.4484629752905175e-17 -8.172750656572861e-17 -4.4484629752905175e-17 -8.172750656572861e-17 0.2029985597544349 0.9791790360998641
12649996000.0 0.21233064511615407 0.9771978802394073 -4.526060289893104e-17 -8.127955234229839e-17 -4.526060289893104e-17 -8.127955234229839e-17 0.2123300104761187 0.9771980181370843
12650613333.333334 0.22164277234342358 0.9751279308212615 -4.603207699983869e-17 -8.082423748498463e-17 -4.603207699983869e-17 -8.082423748498463e-17 0.22164213907861754 0.975128074759664
12651230666.666666 0.2309347299864506 0.9729692443679392 -4.679898230261538e-17 -8.036160707108221e-17 -4.679898230261538e-17 -8.036160707108221e-17 0.23093409815436425 0.9729693943333803
12651848000.0 0.24020567247340674 0.970722017320835 -4.756124950490359e-17 -7.989170683822855e-17 -4.756124950490359e-17 -7.989170683822855e-17 0.2402050421313944 0.97072217329908
12652465333.333334 0.2494547561448521 0.9683864541785717 -4.8318809761207225e-17 -7.941458317993018e-17 -4.8318809761207225e-17 -7.941458317993018e-17 0.24945412735012681 0.9683866161548399
12653082666.666666 0.2586811393303155 0.9659627674784387 -4.907159468911064e-17 -7.89302831409984e-17 -4.907159468911064e-17 -7.89302831409984e-17 0.25868051213994425 0.9659629354374061
12653700000.0 0.2678839824253833 0.9634511777769282 -4.981953637543772e-17 -7.843885441293219e-17 -4.981953637543772e-17 -7.843885441293219e-17 0.26788335689628134 0.9634513517027279
12654317333.333334 0.2770624479674987 0.9608519136298217 -5.056256738234832e-17 -7.794034532925653e-17 -5.056256738234832e-17 -7.794034532925653e-17 0.27706182415642444 0.9608520935060445
12654934666.666666 0.2862157007126648 0.958165211571257 -5.130062075340509e-17 -7.743480486079007e-17 -5.130062075340509e-17 -7.743480486079007e-17 0.28621507867621493 0.9581653973809543
12655552000.0 0.29534290771123306 0.9553913160922642 -5.203363001960727e-17 -7.692228261084762e-17 -5.203363001960727e-17 -7.692228261084762e-17 0.2953422875058371 0.9553915078179486
12656169333.333334 0.30444323838367415 0.9525304796185239 -5.276152920532161e-17 -7.640282881042247e-17 -5.276152920532161e-17 -7.640282881042247e-17 0.30444262006559 0.9525306772421731
12656786666.666666 0.3135158645962177 0.9495829624873854 -5.348425283424219e-17 -7.587649431326057e-17 -5.348425283424219e-17 -7.587649431326057e-17 0.3135152482215256 0.9495831659904407
12657404000.0 0.32255996073629234 0.9465490329241459 -5.4201735935233935e-17 -7.534333059092539e-17 -5.4201735935233935e-17 -7.534333059092539e-17 0.32255934636089 0.9465492422875154
12658021333.333334 0.33157470378752046 0.9434289670176825 -5.4913914048176664e-17 -7.480338972777221e-17 -5.4913914048176664e-17 -7.480338972777221e-17 0.3315740914671189 0.9434291822217438
12658638666.666666 0.34055927340456293 0.9402230486953568 -5.562072322971084e-17 -7.425672441590401e-17 -5.562072322971084e-17 -7.425672441590401e-17 0.3405586631946801 0.9402232697199567
12659256000.0 0.34951285198811616 0.9369315696970445 -5.632210005899824e-17 -7.370338795002334e-17 -5.632210005899824e-17 -7.370338795002334e-17 0.34951224394407304 0.9369317965215038
12659873333.333334 0.3584346247588871 0.9335548295487461 -5.70179816433608e-17 -7.314343422228492e-17 -5.70179816433608e-17 -7.314343422228492e-17 0.35843401893580235 0.9335550621518598
12660490666.666666 0.36732377983195336 0.9300931355352535 -5.770830562390837e-17 -7.257691771706489e-17 -5.770830562390837e-17 -7.257691771706489e-17 0.3673231762847375 0.930093373895291
12661108000.0 0.3761795082906961 0.9265468026721612 -5.839301018113463e-17 -7.200389350565963e-17 -5.839301018113463e-17 -7.200389350565963e-17 0.37617890707404716 0.9265470467668704
12661725333.333334 0.3850010042602524 0.9229161536772617 -5.907203404039185e-17 -7.142441724098957e-17 -5.907203404039185e-17 -7.142441724098957e-17 0.385000405428652 0.9229164034838733
12662342666.666666 0.3937874649809327 0.9192015189411541 -5.974531647739421e-17 -7.083854515218383e-17 -5.974531647739421e-17 -7.083854515218383e-17 0.3937868685886392 0.9192017744363791
12662960000.0 0.4025380908813474 0.915403236497137 -6.041279732360319e-17 -7.024633403916776e-17 -6.041279732360319e-17 -7.024633403916776e-17 0.4025374969823926 0.9154034976571723
12663577333.333334 0.41125208565101357 0.9115216519905194 -6.107441697160371e-17 -6.96478412671621e-17 -6.107441697160371e-17 -6.96478412671621e-17 0.41125149429919633 0.911521918791047
12664194666.666666 0.4199286563128965 0.9075571186471296 -6.17301163803923e-17 -6.904312476116126e-17 -6.17301163803923e-17 -6.904312476116126e-17 0.4199280675617793 0.9075573910633223
12664812000.0 0.4285670132956487 0.903509997241138 -6.23798370806423e-17 -6.843224300033417e-17 -6.23798370806423e-17 -6.843224300033417e-17 0.42856642719855215 0.90351027524766
12665429333.333334 0.4371663705053073 0.8993806560622986 -6.302352117988461e-17 -6.781525501240212e-17 -6.302352117988461e-17 -6.781525501240212e-17 0.43716578711530485 0.8993809396333069
12666046666.666666 0.44572594539690547 0.8951694708823968 -6.36611113676527e-17 -6.719222036795051e-17 -6.36611113676527e-17 -6.719222036795051e-17 0.44572536476681907 0.8951697599915448
12666664000.0 0.45424495904575946 0.8908768249210157 -6.429255092057123e-17 -6.656319917469213e-17 -6.429255092057123e-17 -6.656319917469213e-17 0.4542443812281559 0.890877119541457
12667281333.333334 0.462722636218202 0.8865031088107431 -6.491778370737163e-17 -6.592825207169978e-17 -6.491778370737163e-17 -6.592825207169978e-17 0.46272206126538556 0.8865034089151301
12667898666.666666 0.4711582054421758 0.8820487205615932 -6.553675419386555e-17 -6.528744022357662e-17 -6.553675419386555e-17 -6.528744022357662e-17 0.4711576334061859 0.8820490261220836
12668516000.0 0.4795508990776414 0.8775140655246844 -6.614940744787256e-17 -6.464082531456952e-17 -6.614940744787256e-17 -6.464082531456952e-17 0.479550330010247 0.8775143765129418
12669133333.333334 0.48789995338600595 0.8728995563555797 -6.675568914404376e-17 -6.398846954268307e-17 -6.675568914404376e-17 -6.398846954268307e-17 0.4878993873387002 0.8728998727427764
12669750666.666666 0.49620460860007276 0.8682056129764899 -6.735554556869156e-17 -6.333043561368229e-17 -6.735554556869156e-17 -6.333043561368229e-17 0.49620404562406967 0.8682059347333101
12670368000.0 0.5044641089929074 0.8634326625382123 -6.794892362450624e-17 -6.266678673510767e-17 -6.794892362450624e-17 -6.266678673510767e-17 0.5044635491391358 0.8634329896348534
