! Parameters = {f0=12700.012000; bw=77.238000; Q=6100.000000; N=10; m_0_1=1.264960; m_1_1=0.209654; m_1_2=1.099772; m_2_2=0.209005; m_2_3=0.736735; m_2_8=0.000312; m_2_9=0.037016; m_3_3=0.207068; m_3_4=0.625264; m_3_7=0.000912; m_3_8=-0.096176; m_3_9=0.000312; m_4_4=0.204143; m_4_5=0.461599; m_4_6=0.004429; m_4_7=-0.116725; m_4_8=0.000912; m_5_5=0.204525; m_5_6=0.868954; m_5_7=0.004429; m_6_6=0.204524; m_6_7=0.461941; m_7_7=0.204157; m_7_8=0.625382; m_8_8=0.207066; m_8_9=0.737048; m_9_9=0.209000; m_9_10=1.100850; m_10_10=0.209644; m_10_11=1.265755}
!
! Created with skrf (http://scikit-rf.org).
# Hz S RI R 50.0 
!freq ReS11 ImS11 ReS21 ImS21 ReS12 ImS12 ReS22 ImS22
12607400000.0 -0.7842505910305874 -0.6204442041537652 1.0024246660900325e-16 4.0189289882551095e-17 1.0024246660900325e-16 4.0189289882551095e-17 -0.7842501775258802 -0.6204447268294337
12608017333.333334 -0.7906447331796173 -0.6122751880446876 1.0063774632265212e-16 3.913064412986305e-17 1.0063774632265212e-16 3.913064412986305e-17 -0.7906443251392534 -0.6122757149560316
12608634666.666666 -0.7969537878186649 -0.6040402801811375 1.0102185410939285e-16 3.80681292083639e-17 1.0102185410939285e-16 3.80681292083639e-17 -0.7969533852860206 -0.6040408112710407
12609252000.0 -0.8031770759807386 -0.59574036678645 1.0139475230242406e-16 3.700186292981634e-17 1.0139475230242406e-16 3.700186292981634e-17 -0.8031766789985921 -0.5957409019973512
12609869333.333334 -0.8093139279288206 -0.5873763410797621 1.0175640447641631e-16 3.593196347036993e-17 1.0175640447641631e-16 3.593196347036993e-17 -0.8093135365393475 -0.5873768803536614
12610486666.666666 -0.8153636832279563 -0.5789491031798621 1.0210677545100683e-16 3.4858549357502754e-17 1.0210677545100683e-16 3.4858549357502754e-17 -0.815363297472728 -0.5789496464583297
12611104000.0 -0.8213256908164497 -0.5704595600081618 1.024458312941725e-16 3.378173945687999e-17 1.024458312941725e-16 3.378173945687999e-17 -0.8213253107364279 -0.5704601072323425
12611721333.333334 -0.8271993090757149 -0.5619086251913966 1.0277353932543679e-16 3.2701652959268254e-17 1.0277353932543679e-16 3.2701652959268254e-17 -0.8271989347112438 -0.5619091763020149
12612338666.666666 -0.8329839058994843 -0.553297218963067 1.0308986811897074e-16 3.1618409367320426e-17 1.0308986811897074e-16 3.1618409367320426e-17 -0.8329835372902914 -0.5532977739004367
12612956000.0 -0.838678858761854 -0.5446262680643845 1.0339478750653562e-16 3.053212848238941e-17 1.0339478750653562e-16 3.053212848238941e-17 -0.8386784959470432 -0.5446268267684128
12613573333.333334 -0.844283554784072 -0.5358967056448436 1.0368826858028532e-16 2.944293039132687e-17 1.0368826858028532e-16 2.944293039132687e-17 -0.8442831978021191 -0.5358972680550376
12614190666.666666 -0.849797390800746 -0.5271094711614178 1.0397028369544396e-16 2.835093545320249e-17 1.0397028369544396e-16 2.835093545320249e-17 -0.849797039689496 -0.5271100372168928
12614808000.0 -0.855219773424614 -0.5182655102776732 1.0424080647283204e-16 2.7256264286042984e-17 1.0424080647283204e-16 2.7256264286042984e-17 -0.8552194282212766 -0.5182660799171577
12615425333.333334 -0.8605501191104352 -0.5093657747619494 1.0449981180125832e-16 2.615903775353038e-17 1.0449981180125832e-16 2.615903775353038e-17 -0.8605497798515803 -0.5093663479237922
12616042666.666666 -0.8657878542177888 -0.5004112223849315 1.0474727583977152e-16 2.5059376951678354e-17 1.0474727583977152e-16 2.5059376951678354e-17 -0.8657875209393435 -0.5004117990071086
12616660000.0 -0.8709324150728235 -0.4914028168165544 1.0498317601976899e-16 2.395740319550353e-17 1.0498317601976899e-16 2.395740319550353e-17 -0.8709320878100671 -0.4914033968366751
12617277333.333334 -0.8759832480288741 -0.4823415275223654 1.0520749104697275e-16 2.2853238005645046e-17 1.0520749104697275e-16 2.2853238005645046e-17 -0.8759829268164359 -0.48234211087768
12617894666.666666 -0.8809398095260624 -0.4732283296591721 1.0542020090325527e-16 2.1747003095014817e-17 1.0542020090325527e-16 2.1747003095014817e-17 -0.8809394943979163 -0.47322891628657743
12618512000.0 -0.8858015661498853 -0.46406420396991976 1.0562128684833686e-16 2.0638820355368887e-17 1.0562128684833686e-16 2.0638820355368887e-17 -0.8858012571393482 -0.46406479380596755
12619129333.333334 -0.8905679946884457 -0.4548501366784727 1.0581073142132859e-16 1.952881184394271e-17 1.0581073142132859e-16 1.952881184394271e-17 -0.8905676918281726 -0.4548507296593752
12619746666.666666 -0.8952385821888943 -0.4455871193832283 1.0598851844214757e-16 1.8417099770001357e-17 1.0598851844214757e-16 1.8417099770001357e-17 -0.8952382855108748 -0.44558771544486553
12620364000.0 -0.8998128260126409 -0.436276148950376 1.0615463301278595e-16 1.7303806481405257e-17 1.0615463301278595e-16 1.7303806481405257e-17 -0.8998125355481961 -0.4362767480283025
12620981333.333334 -0.9042902338892835 -0.4269182274069475 1.063090615184338e-16 1.6189054451208578e-17 1.063090615184338e-16 1.6189054451208578e-17 -0.9042899496690642 -0.4269188294364004
12621598666.666666 -0.9086703239697899 -0.4175143618325746 1.06451791628474e-16 1.507296626416142e-17 1.06451791628474e-16 1.507296626416142e-17 -0.9086700460237704 -0.4175149667484791
12622216000.0 -0.9129526248782371 -0.4080655642513382 1.065828122973245e-16 1.3955664603280523e-17 1.065828122973245e-16 1.3955664603280523e-17 -0.912952353235714 -0.4080661719883151
12622833333.333334 -0.9171366757625754 -0.3985728515227774 1.0670211376514575e-16 1.2837272236378394e-17 1.0670211376514575e-16 1.2837272236378394e-17 -0.9171364104521649 -0.3985734620151509
12623450666.666666 -0.9212220263441937 -0.38903724523253846 1.068096875584039e-16 1.1717912002609497e-17 1.068096875584039e-16 1.1717912002609497e-17 -0.9212217673938271 -0.3890378584143424
12624068000.0 -0.9252082369663889 -0.3794597715824071 1.069055264902972e-16 1.0597706798986707e-17 1.069055264902972e-16 1.0597706798986707e-17 -0.92520798440331 -0.3794603873873921
12624685333.333334 -0.9290948786417526 -0.3698414612796852 1.0698962466103798e-16 9.476779566905586e-18 1.0698962466103798e-16 9.476779566905586e-18 -0.929094632492516 -0.3698420796413265
12625302666.666666 -0.9328815330981923 -0.36018334942663915 1.0706197745799241e-16 8.355253278718026e-18 1.0706197745799241e-16 8.355253278718026e-18 -0.9328812933886597 -0.3601839702781432
12625920000.0 -0.9365677928241107 -0.3504864754086803 1.071225815556866e-16 7.233250924201077e-18 1.071225815556866e-16 7.233250924201077e-18 -0.9365675595794485 -0.35048709868299227
12626537333.333334 -0.9401532611121262 -0.34075188278285257 1.0717143491566235e-16 6.110895497147898e-18 1.0717143491566235e-16 6.110895497147898e-18 -0.9401530343568021 -0.3407525084126634
12627154666.666666 -0.943637552101792 -0.3309806191654766 1.0720853678619935e-16 4.9883099818874636e-18 1.0720853678619935e-16 4.9883099818874636e-18 -0.9436373318595734 -0.3309812470832303
12627772000.0 -0.9470202908212336 -0.32117373611908473 1.0723388770189396e-16 3.865617339813511e-18 1.0723388770189396e-16 3.865617339813511e-18 -0.9470200771151839 -0.3211743662569856
12628389333.333334 -0.9503011132273307 -0.31133228903973653 1.0724748948309682e-16 2.7429404959823146e-18 1.0724748948309682e-16 2.7429404959823146e-18 -0.9503009060798082 -0.3113329213297566
12629006666.666666 -0.9534796662450444 -0.30145733704300953 1.0724934523521202e-16 1.6204023256281606e-18 1.0724934523521202e-16 1.6204023256281606e-18 -0.9534794656777011 -0.3014579714168965
12629624000.0 -0.9565556078053187 -0.291549942850317 1.072394593478535e-16 4.981256407840802e-19 1.072394593478535e-16 4.981256407840802e-19 -0.956555413839093 -0.29155057923960004
12630241333.333334 -0.9595286068819439 -0.28161117267434815 1.0721783749386388e-16 -6.237668231675759e-19 1.0721783749386388e-16 -6.237668231675759e-19 -0.9595284195370649 -0.281611811010347
12630858666.666666 -0.9623983435271097 -0.27164209610459916 1.0718448662819178e-16 -1.7451524208638886e-18 1.0718448662819178e-16 -1.7451524208638886e-18 -0.9623981628230908 -0.2716427363184304
12631476000.0 -0.9651645089059693 -0.26164378599180166 1.0713941498662841e-16 -2.8659086103820547e-18 1.0713941498662841e-16 -2.8659086103820547e-18 -0.9651643348616076 -0.26164442801438687
12632093333.333334 -0.9678268053297402 -0.2516173183329292 1.070826320844073e-16 -3.985912966570418e-18 1.070826320844073e-16 -3.985912966570418e-18 -0.9678266379631134 -0.25161796209500165
12632710666.666666 -0.9703849462877976 -0.2415637721552095 1.0701414871466281e-16 -5.105043194404167e-18 1.0701414871466281e-16 -5.105043194404167e-18 -0.9703847856162642 -0.24156441758732225
12633328000.0 -0.9728386564785428 -0.23148422939986385 1.0693397694674792e-16 -6.223177142348914e-18 1.0693397694674792e-16 -6.223177142348914e-18 -0.9728385025187392 -0.2314848764323972
12633945333.333334 -0.9751876718389741 -0.22137977480589152 1.0684213012441692e-16 -7.340192815630384e-18 1.0684213012441692e-16 -7.340192815630384e-18 -0.9751875246068114 -0.22138042336906
12634562666.666666 -0.9774317395731107 -0.21125149579330466 1.0673862286386621e-16 -8.455968389539526e-18 1.0673862286386621e-16 -8.455968389539526e-18 -0.9774315990837766 -0.21125214581716537
12635180000.0 -0.9795706181792335 -0.20110048234596467 1.066234710516378e-16 -9.570382222692547e-18 1.066234710516378e-16 -9.570382222692547e-18 -0.9795704844471878 -0.20110113376042407
12635797333.333334 -0.981604077475854 -0.19092782689436305 1.0649669184238447e-16 -1.0683312870271771e-17 1.0649669184238447e-16 -1.0683312870271771e-17 -0.9816039505148265 -0.19092847962918472
12636414666.666666 -0.9835318986264676 -0.18073462419813988 1.0635830365649827e-16 -1.1794639097224704e-17 1.0635830365649827e-16 -1.1794639097224704e-17 -0.9835317784494593 -0.1807352781829522
12637032000.0 -0.9853538741631442 -0.17052197122807294 1.0620832617759831e-16 -1.2904239891468252e-17 1.0620832617759831e-16 -1.2904239891468252e-17 -0.9853537607824264 -0.1705226263923771
12637649333.333334 -0.9870698080088164 -0.16029096704824825 1.0604678034988602e-16 -1.4011994477018044e-17 1.0604678034988602e-16 -1.4011994477018044e-17 -0.9870697014359261 -0.16029162332142508
12638266666.666666 -0.9886795154984125 -0.15004271269758457 1.0587368837535842e-16 -1.5117782327132098e-17 1.0587368837535842e-16 -1.5117782327132098e-17 -0.9886794157441521 -0.15004337000890217
12638884000.0 -0.9901828233987086 -0.13977831107145358 1.0568907371088893e-16 -1.6221483177388905e-17 1.0568907371088893e-16 -1.6221483177388905e-17 -0.9901827304731468 -0.13977896935007567
12639501333.333334 -0.9915795699269839 -0.12949886680293335 1.054929610651697e-16 -1.7322977038749772e-17 1.054929610651697e-16 -1.7322977038749772e-17 -0.991579483839454 -0.1294995259779263
12640118666.666666 -0.9928696047684084 -0.1192054861440986 1.0528537639552198e-16 -1.8422144210561958e-17 1.0528537639552198e-16 -1.8422144210561958e-17 -0.9928695255275066 -0.11920614614443933
12640736000.0 -0.9940527890922787 -0.10889927684648897 1.050663469045597e-16 -1.9518865293590994e-17 1.050663469045597e-16 -1.9518865293590994e-17 -0.9940527167058637 -0.10889993760107256
12641353333.333334 -0.9951289955668622 -0.09858134804268502 1.0483590103673914e-16 -2.0613021202898387e-17 1.0483590103673914e-16 -2.0613021202898387e-17 -0.9951289300420554 -0.09858200948033237
12641970666.666666 -0.9960981083731955 -0.08825281012618423 1.0459406847475212e-16 -2.1704493180799354e-17 1.0459406847475212e-16 -2.1704493180799354e-17 -0.9960980497163756 -0.08825347217564936
12642588000.0 -0.996960023217493 -0.07791477463229694 1.0434088013579682e-16 -2.2793162809717062e-17 1.0434088013579682e-16 -2.2793162809717062e-17 -0.9969599714343037 -0.07791543722227541
12643205333.333334 -0.9977146473423882 -0.06756835411847013 1.0407636816771457e-16 -2.3878912024997573e-17 1.0407636816771457e-16 -2.3878912024997573e-17 -0.9977146024377305 -0.06756901717760605
12643822666.666666 -0.9983618995369195 -0.057214662044442144 1.0380056594498825e-16 -2.496162312770493e-17 1.0380056594498825e-16 -2.496162312770493e-17 -0.998361861514953 -0.057215325501336144
12644440000.0 -0.9989017101452586 -0.046854812652528124 1.0351350806461498e-16 -2.6041178797341685e-17 1.0351350806461498e-16 -2.6041178797341685e-17 -0.9989016790094036 -0.046855476435745065
12645057333.333334 -0.9993340210742092 -0.03648992084779292 1.03215230341842e-16 -2.711746210454374e-17 1.03215230341842e-16 -2.711746210454374e-17 -0.9993339968271433 -0.036490584885869454
12645674666.666666 -0.9996587857994658 -0.026121102077897074 1.0290576980577535e-16 -2.819035652370987e-17 1.0290576980577535e-16 -2.819035652370987e-17 -0.9996587684431263 -0.026121766299349473
12646292000.0 -0.9998759693706212 -0.01574947221296937 1.0258516469484356e-16 -2.9259745945631673e-17 1.0258516469484356e-16 -2.9259745945631673e-17 -0.9998759589062028 -0.015750136546301106
12646909333.333334 -0.9999855484149166 -0.005376147425860144 1.0225345445215572e-16 -3.032551468998566e-17 1.0225345445215572e-16 -3.032551468998566e-17 -0.9999855448428732 -0.005376811799569656
12647526666.666666 -0.9999875111397678 0.0049977559282629 1.0191067972070618e-16 -3.138754751785505e-17 1.0191067972070618e-16 -3.138754751785505e-17 -0.9999875144598107 0.0049970915856745604
12648144000.0 -0.999881857334029 0.015371121432054557 1.0155688233845952e-16 -3.244572964416341e-17 1.0155688233845952e-16 -3.244572964416341e-17 -0.9998818675451279 0.015370457192075995
12648761333.333334 -0.9996685983680148 0.025742832725911144 1.0119210533331e-16 -3.349994675004515e-17 1.0119210533331e-16 -3.349994675004515e-17 -0.9996686154683987 0.02574216866001296
12649378666.666666 -0.9993477571922832 0.036111773628281385 1.0081639291790943e-16 -3.455008499517204e-17 1.0081639291790943e-16 -3.455008499517204e-17 -0.9993477811794387 0.03611110980790844
12649996000.0 -0.9989193683351556 0.046476828255815755 1.0042979048436105e-16 -3.559603103003937e-17 1.0042979048436105e-16 -3.559603103003937e-17 -0.9989193992058296 0.04647616475237955
12650613333.333334 -0.9983834778990054 0.05683688114342708 1.0003234459879931e-16 -3.663767200815654e-17 1.0003234459879931e-16 -3.663767200815654e-17 -0.9983835156492047 0.05683621802829806
12651230666.666666 -0.997740143555309 0.06719081736410756 9.962410299583483e-17 -3.767489559820379e-17 9.962410299583483e-17 -3.767489559820379e-17 -0.9977401881802993 0.06719015470860736
12651848000.0 -0.9969894345384135 0.07753752264936883 9.920511457286889e-17 -3.8707589996138804e-17 9.920511457286889e-17 -3.8707589996138804e-17 -0.9969894860327212 0.07753686052476266
12652465333.333334 -0.996131431638103 0.08787588350878811 9.877542938429754e-17 -3.97356439372013e-17 9.877542938429754e-17 -3.97356439372013e-17 -0.9961314899955167 0.08787522198627715
12653082666.666666 -0.9951662271909114 0.09820478734986851 9.833509863558431e-17 -4.075894670787704e-17 9.833509863558431e-17 -4.075894670787704e-17 -0.9951662924044823 0.09820412650058225
12653700000.0 -0.9940939250701581 0.10852312259805694 9.788417467719472e-17 -4.1777388157826955e-17 9.788417467719472e-17 -4.1777388157826955e-17 -0.9940939971321985 0.10852246249304534
12654317333.333334 -0.9929146406747991 0.1188297788160011 9.742271099844332e-17 -4.2790858711669644e-17 9.742271099844332e-17 -4.2790858711669644e-17 -0.9929147195768867 0.11882911952622728
12654934666.666666 -0.991628500917 0.12912364682322297 9.695076222117724e-17 -4.379924938079061e-17 9.695076222117724e-17 -4.379924938079061e-17 -0.9916285866499761 0.1291229884195552
12655552000.0 -0.9902356442084506 0.13940361881565494 9.646838409336222e-17 -4.480245177502717e-17 9.646838409336222e-17 -4.480245177502717e-17 -0.9902357367624228 0.13940296136885935
12656169333.333334 -0.9887362204455169 0.14966858848449294 9.597563348255427e-17 -4.5800358114272795e-17 9.597563348255427e-17 -4.5800358114272795e-17 -0.9887363198098595 0.1496679320652257
12656786666.666666 -0.9871303909930697 0.15991745113556513 9.547256836922716e-17 -4.679286124005909e-17 9.547256836922716e-17 -4.679286124005909e-17 -0.9871304971564259 0.15991679581436505
12657404000.0 -0.9854183286671369 0.17014910380807574 9.495924784000113e-17 -4.777985462702461e-17 9.495924784000113e-17 -4.777985462702461e-17 -0.9854184416174198 0.17014844965535672
12658021333.333334 -0.9836002177162951 0.18036244539338814 9.443573208074204e-17 -4.8761232394331443e-17 9.443573208074204e-17 -4.8761232394331443e-17 -0.9836003374406866 0.18036179247943102
12658638666.666666 -0.9816762538018792 0.19055637675327072 9.390208236955989e-17 -4.973688931697472e-17 9.390208236955989e-17 -4.973688931697472e-17 -0.9816763802868355 0.19055572514821664
12659256000.0 -0.9796466439768516 0.20072980083863246 9.335836106965522e-17 -5.0706720837082753e-17 9.335836106965522e-17 -5.0706720837082753e-17 -0.9796467772081018 0.20072915061247462
12659873333.333334 -0.9775116066635826 0.21088162280722103 9.280463162209117e-17 -5.1670623075062604e-17 9.280463162209117e-17 -5.1670623075062604e-17 -0.9775117466261314 0.21088097402979758
12660490666.666666 -0.9752713716303419 0.2210107501414761 9.22409585384298e-17 -5.2628492840704136e-17 9.22409585384298e-17 -5.2628492840704136e-17 -0.9752715183084707 0.22101010288246226
12661108000.0 -0.9729261799665112 0.2311160927663809 9.166740739324125e-17 -5.3580227644228076e-17 9.166740739324125e-17 -5.3580227644228076e-17 -0.972926333343781 0.23111544709528187
12661725333.333334 -0.9704762840567183 0.24119656316641355 9.108404481653541e-17 -5.4525725707190316e-17 9.108404481653541e-17 -5.4525725707190316e-17 -0.970476444115971 0.2411959191525571
12662342666.666666 -0.9679219475536348 0.2512510765027777 9.049093848604313e-17 -5.546488597336925e-17 9.049093848604313e-17 -5.546488597336925e-17 -0.9679221142769938 0.25125043421530596
12662960000.0 -0.965263445349592 0.26127855073017714 8.988815711940841e-17 -5.639760811953074e-17 8.988815711940841e-17 -5.639760811953074e-17 -0.9652636187184662 0.2612779102380402
12663577333.333334 -0.9625010635470181 0.2712779067131807 8.927577046626923e-17 -5.732379256611181e-17 8.927577046626923e-17 -5.732379256611181e-17 -0.9625012435421035 0.2712772680851286
12664194666.666666 -0.9596350994276436 0.2812480683423843 8.865384930021376e-17 -5.824334048784148e-17 8.865384930021376e-17 -5.824334048784148e-17 -0.9596352860289241 0.2812474316469597
12664812000.0 -0.9566658614205074 0.2911879626502196 8.802246541064351e-17 -5.915615382424939e-17 8.802246541064351e-17 -5.915615382424939e-17 -0.9566660546072576 0.29118732795575036
12665429333.333334 -0.9535936690687447 0.301096519926478 8.738169159451912e-17 -6.006213529010204e-17 8.738169159451912e-17 -6.006213529010204e-17 -0.9535938688195341 0.30109588730107045
12666046666.666666 -0.9504188529952804 0.31097267383318755 8.673160164801123e-17 -6.096118838573295e-17 8.673160164801123e-17 -6.096118838573295e-17 -0.9504190592879737 0.3109720433447185
12666664000.0 -0.9471417548670983 0.32081536151983014 8.607227035801518e-17 -6.185321740732412e-17 8.607227035801518e-17 -6.185321740732412e-17 -0.947141967678858 0.32081473323593984
12667281333.333334 -0.9437627273586303 0.3306235237372361 8.54037734936137e-17 -6.273812745702353e-17 8.54037734936137e-17 -6.273812745702353e-17 -0.9437629466659193 0.3306228977253207
12667898666.666666 -0.9402821341137021 0.34039610495187506 8.472618779737534e-17 -6.361582445305311e-17 8.472618779737534e-17 -6.361582445305311e-17 -0.9402823598922878 0.34039548127908037
12668516000.0 -0.9367003497063914 0.3501320534594777 8.403959097658519e-17 -6.448621513967508e-17 8.403959097658519e-17 -6.448621513967508e-17 -0.9367005819313461 0.3501314321926905
12669133333.333334 -0.9330177596008383 0.3598303214978687 8.334406169438083e-17 -6.534920709705409e-17 8.334406169438083e-17 -6.534920709705409e-17 -0.9330179982465432 0.3598297027037105
12669750666.666666 -0.9292347601096093 0.36948986536015266 8.26396795607546e-17 -6.620470875106796e-17 8.26396795607546e-17 -6.620470875106796e-17 -0.9292350051497579 0.369489249104973
