! Parameters = {f0=12700.012000; bw=77.238000; Q=6100.000000; N=10; m_0_1=1.321817; m_1_1=1.062507; m_1_2=1.156629; m_2_2=1.061858; m_2_3=0.793592; m_2_8=0.003155; m_2_9=0.039859; m_3_3=1.059921; m_3_4=0.682121; m_3_7=0.003755; m_3_8=-0.093333; m_3_9=0.003155; m_4_4=1.056996; m_4_5=0.518456; m_4_6=0.007272; m_4_7=-0.113882; m_4_8=0.003755; m_5_5=1.057378; m_5_6=0.925811; m_5_7=0.007272; m_6_6=1.057377; m_6_7=0.518798; m_7_7=1.057010; m_7_8=0.682239; m_8_8=1.059919; m_8_9=0.793905; m_9_9=1.061853; m_9_10=1.157707; m_10_10=1.062497; m_10_11=1.322612}
!
! Created with skrf (http://scikit-rf.org).
# Hz S RI R 50.0 
!freq ReS11 ImS11 ReS21 ImS21 ReS12 ImS12 ReS22 ImS22
12607400000.0 0.6390709068413352 0.769147824562224 -1.1666909007185389e-16 -7.803157969832631e-17 -1.1666909007185389e-16 -7.803157969832631e-17 0.639070371273124 0.7691482695557732
12608017333.333334 0.648296163010981 0.7613882616806276 -1.1758501111753555e-16 -7.659409243311521e-17 -1.1758501111753555e-16 -7.659409243311521e-17 0.6482956328718109 0.7613887130757504
12608634666.666666 0.6574272112647175 0.7535180567766808 -1.1848323419314011e-16 -7.514587330722645e-17 -1.1848323419314011e-16 -7.514587330722645e-17 0.6574266866310903 0.7535185145071587
12609252000.0 0.6664627247136727 0.7455383535184726 -1.1936363379204214e-16 -7.368714005260932e-17 -1.1936363379204214e-16 -7.368714005260932e-17 0.6664622056612843 0.7455388175171733
12609869333.333334 0.6754013903517716 0.7374503114859349 -1.2022608708436812e-16 -7.221811186598142e-17 -1.2022608708436812e-16 -7.221811186598142e-17 0.6754008769554979 0.7374507816848208
12610486666.666666 0.6842419092463444 0.7292551060025051 -1.2107047393403664e-16 -7.073900937597589e-17 -1.2107047393403664e-16 -7.073900937597589e-17 0.6842414015802334 0.7292555823326461
12611104000.0 0.6929829967272433 0.7209539279640128 -1.2189667691544603e-16 -6.925005461000033e-17 -1.2189667691544603e-16 -6.925005461000033e-17 0.6929824948645015 0.7209544103555923
12611721333.333334 0.7016233825731436 0.7125479836659618 -1.2270458132968653e-16 -6.77514709610236e-17 -1.2270458132968653e-16 -6.77514709610236e-17 0.7016228865861296 0.7125484720482921
12612338666.666666 0.7101618111963651 0.7040384946280334 -1.2349407522040186e-16 -6.624348315407394e-17 -1.2349407522040186e-16 -6.624348315407394e-17 0.7101613211565743 0.7040389889295606
12612956000.0 0.7185970418253368 0.6954266974165457 -1.2426504938921742e-16 -6.472631721259156e-17 -1.2426504938921742e-16 -6.472631721259156e-17 0.7185965578033946 0.6954271975648648
12613573333.333334 0.7269278486846488 0.6867138434650321 -1.2501739741074128e-16 -6.320020042463569e-17 -1.2501739741074128e-16 -6.320020042463569e-17 0.7269273707502992 0.6867143493868946
12614190666.666666 0.7351530211734943 0.6779011988920607 -1.2575101564718581e-16 -6.16653613088469e-17 -1.2575101564718581e-16 -6.16653613088469e-17 0.7351525493955892 0.6779017105133861
12614808000.0 0.7432713640414081 0.6689900443174275 -1.264658032625373e-16 -6.0122029580313e-17 -1.264658032625373e-16 -6.0122029580313e-17 0.7432708984878993 0.6689905615633153
12615425333.333334 0.7512816975619989 0.6599816746760246 -1.2716166223633567e-16 -5.857043611621467e-17 -1.2716166223633567e-16 -5.857043611621467e-17 0.751281238299926 0.6599821974707638
12616042666.666666 0.7591828577043807 0.6508773990296626 -1.2783849737701365e-16 -5.701081292135243e-17 -1.2783849737701365e-16 -5.701081292135243e-17 0.7591824047998635 0.6508779272967439
12616660000.0 0.7669736963023256 0.6416785403768444 -1.2849621633482353e-16 -5.5443393093503336e-17 -1.2849621633482353e-16 -5.5443393093503336e-17 0.7669732498205525 0.6416790740389694
12617277333.333334 0.7746530812211463 0.6323864354604658 -1.2913472961433895e-16 -5.3868410788629723e-17 -1.2913472961433895e-16 -5.3868410788629723e-17 0.7746526412263669 0.6323869744395613
12617894666.666666 0.7822198965220523 0.6230024345737655 -1.2975395058652305e-16 -5.2286101185968075e-17 -1.2975395058652305e-16 -5.2286101185968075e-17 0.7822194630775678 0.623002978790993
12618512000.0 0.7896730426246201 0.6135279013637306 -1.303537955003933e-16 -5.069670045291753e-17 -1.303537955003933e-16 -5.069670045291753e-17 0.789672615792773 0.613528450739498
12619129333.333334 0.7970114364662566 0.6039642126333338 -1.3093418349421516e-16 -4.9100445709907853e-17 -1.3093418349421516e-16 -4.9100445709907853e-17 0.7970110163084222 0.6039647670873066
12619746666.666666 0.804234011659782 0.5943127581412182 -1.3149503660631392e-16 -4.749757499501465e-17 -1.3149503660631392e-16 -4.749757499501465e-17 0.8042335982363604 0.594313317592333
12620364000.0 0.8113397186484069 0.5845749403997172 -1.3203627978542532e-16 -4.588832722852685e-17 -1.3203627978542532e-16 -4.588832722852685e-17 0.8113393120188133 0.5845755047661916
12620981333.333334 0.8183275248580298 0.5747521744713449 -1.3255784090061032e-16 -4.4272942177413954e-17 -1.3255784090061032e-16 -4.4272942177413954e-17 0.8183271250806871 0.5747527436706907
12621598666.666666 0.8251964148475595 0.5648458877627989 -1.330596507507575e-16 -4.2651660419614354e-17 -1.330596507507575e-16 -4.2651660419614354e-17 0.8251960219798878 0.5648464617118331
12622216000.0 0.8319453904563187 0.5548575198177393 -1.3354164307363115e-16 -4.102472330827451e-17 -1.3354164307363115e-16 -4.102472330827451e-17 0.8319450045547303 0.554858098432598
12622833333.333334 0.8385734709491468 0.5447885221075326 -1.340037545544927e-16 -3.939237293585789e-17 -1.340037545544927e-16 -3.939237293585789e-17 0.8385730920690357 0.5447891053036815
12623450666.666666 0.8450796931588678 0.5346403578203986 -1.3444592483427178e-16 -3.7754852098200636e-17 -1.3444592483427178e-16 -3.7754852098200636e-17 0.8450793213546013 0.5346409455126457
12624068000.0 0.8514631116262545 0.5244145016487877 -1.3486809651731958e-16 -3.61124042584053e-17 -1.3486809651731958e-16 -3.61124042584053e-17 0.8514627469511674 0.5244150937512964
12624685333.333334 0.857722798737601 0.5141124395747942 -1.3527021517870654e-16 -3.4465273510703645e-17 -1.3527021517870654e-16 -3.4465273510703645e-17 0.8577224412439873 0.5141130360010958
12625302666.666666 0.8638578448591596 0.5037356686547989 -1.3565222937107395e-16 -3.28137045442637e-17 -1.3565222937107395e-16 -3.28137045442637e-17 0.8638574945982638 0.503736269317804
12625920000.0 0.8698673584697109 0.49328569680129214 -1.3601409063106794e-16 -3.11579426068311e-17 -1.3601409063106794e-16 -3.11579426068311e-17 0.8698670154917223 0.49328630161330517
12626537333.333334 0.8757504662898523 0.4827640425641877 -1.363557534853039e-16 -2.949823346841011e-17 -1.363557534853039e-16 -2.949823346841011e-17 0.8757501306438957 0.4827646514369177
12627154666.666666 0.8815063134089313 0.4721722349101062 -1.3667717545590182e-16 -2.7834823384827987e-17 -1.3667717545590182e-16 -2.7834823384827987e-17 0.8815059851430637 0.4721728477546822
12627772000.0 0.8871340634095143 0.46151181299976973 -1.3697831706559007e-16 -2.616795906117974e-17 -1.3697831706559007e-16 -2.616795906117974e-17 0.887133742570713 0.461512429726751
12628389333.333334 0.8926328984885443 0.45078432596503226 -1.3725914184232924e-16 -2.4497887615395734e-17 -1.3725914184232924e-16 -2.4497887615395734e-17 0.8926325851227057 0.450784946484424
12629006666.666666 0.8980020195765382 0.4399913326831188 -1.3751961632353274e-16 -2.2824856541552783e-17 -1.3751961632353274e-16 -2.2824856541552783e-17 0.8980017137284655 0.4399919569043827
12629624000.0 0.9032406464534845 0.42913440155049337 -1.3775971005981163e-16 -2.1149113673307684e-17 -1.3775971005981163e-16 -2.1149113673307684e-17 0.9032403481668853 0.42913502938256254
12630241333.333334 0.9083480178623164 0.418215110254771 -1.3797939561828942e-16 -1.947090714720523e-17 -1.3797939561828942e-16 -1.947090714720523e-17 0.9083477271797955 0.4182157416060629
12630858666.666666 0.9133233916194616 0.40723504554560763 -1.3817864858546344e-16 -1.779048536600685e-17 -1.3817864858546344e-16 -1.779048536600685e-17 0.9133231085825145 0.40723568032403723
12631476000.0 0.918166044722835 0.3961958030038098 -1.3835744756962847e-16 -1.6108096961927593e-17 -1.3835744756962847e-16 -1.6108096961927593e-17 0.9181657693718432 0.39619644111680324
12632093333.333334 0.9228752734567058 0.3850989868099118 -1.3851577420284348e-16 -1.4423990759944058e-17 -1.3851577420284348e-16 -1.4423990759944058e-17 0.9228750058309277 0.3850996281644192
12632710666.666666 0.9274503934940946 0.3739462095107502 -1.3865361314245824e-16 -1.2738415741033209e-17 -1.3865361314245824e-16 -1.2738415741033209e-17 0.9274501336316653 0.3739468540132608
12633328000.0 0.931890739996231 0.36273909178510894 -1.387709520721965e-16 -1.1051621005367093e-17 -1.387709520721965e-16 -1.1051621005367093e-17 0.9318904879341517 0.36273973934166287
12633945333.333334 0.9361956677090723 0.35147926220841635 -1.3886778170278432e-16 -9.363855735598955e-18 -1.3886778170278432e-16 -9.363855735598955e-18 0.9361954234832078 0.35147991272461926
12634562666.666666 0.9403645510571275 0.3401683570159572 -1.3894409577213796e-16 -7.675369160076599e-18 -1.3894409577213796e-16 -7.675369160076599e-18 0.9403643147022007 0.3401690103969942
12635180000.0 0.9443967842343604 0.32880801986509994 -1.3899989104510377e-16 -5.986410516091069e-18 -1.3899989104510377e-16 -5.986410516091069e-18 0.9443965557839464 0.3288086760157488
12635797333.333334 0.9482917812921954 0.31739990159652715 -1.3903516731275264e-16 -4.297229013126471e-18 -1.3903516731275264e-16 -4.297229013126471e-18 0.9482915607787173 0.31740056042117243
12636414666.666666 0.9520489762246838 0.3059456599942884 -1.3904992739122737e-16 -2.6080737961678046e-18 -1.3904992739122737e-16 -2.6080737961678046e-18 0.95204876367941 0.30594632139693606
12637032000.0 0.9556678230507745 0.29444695954484434 -1.390441771201469e-16 -9.191939089535743e-19 -1.390441771201469e-16 -9.191939089535743e-19 0.9556676185038105 0.29444762342913444
12637649333.333334 0.959147795893622 0.2829054711952689 -1.3901792536056312e-16 7.691617426632775e-19 -1.3901792536056312e-16 7.691617426632775e-19 0.9591475993739091 0.28290613746449067
12638266666.666666 0.9624883890570242 0.2713228721103804 -1.389711839924747e-16 2.4567444273593055e-18 -1.389711839924747e-16 2.4567444273593055e-18 0.9624882005923339 0.2713235406674858
12638884000.0 0.965689117098875 0.2597008454291315 -1.389039679118967e-16 4.143305624936576e-18 -1.389039679118967e-16 4.143305624936576e-18 0.9656889367158078 0.25970151617675014
12639501333.333334 0.9687495149017655 0.2480410800198311 -1.3881629502748547e-16 5.828597062877171e-18 -1.3881629502748547e-16 5.828597062877171e-18 0.9687493426257424 0.24804175286028296
12640118666.666666 0.971669137740495 0.23634527023499793 -1.3870818625672486e-16 7.51237075281939e-18 -1.3870818625672486e-16 7.51237075281939e-18 0.9716689735957574 0.23634594507030893
12640736000.0 0.974447561346815 0.22461511566467568 -1.3857966552166182e-16 9.194379027068354e-18 -1.3857966552166182e-16 9.194379027068354e-18 0.9744474053564213 0.22461579239659135
12641353333.333334 0.9770843819709287 0.21285232089009 -1.3843075974421508e-16 1.0874374574867917e-17 -1.3843075974421508e-16 1.0874374574867917e-17 0.9770842341567495 0.21285299942008992
12641970666.666666 0.9795792164402773 0.20105859523547626 -1.3826149884102723e-16 1.2552110478822356e-17 -1.3826149884102723e-16 1.2552110478822356e-17 0.9795790768229917 0.20105927546478805
12642588000.0 0.9819317022151882 0.18923565251979615 -1.3807191571788908e-16 1.422734025108441e-17 -1.3807191571788908e-16 1.422734025108441e-17 0.9819315708142845 0.1892363343494106
12643205333.333334 0.984141497441547 0.17738521080777686 -1.3786204626372175e-16 1.5899817869528945e-17 -1.3786204626372175e-16 1.5899817869528945e-17 0.9841413742753163 0.17738589413846156
12643822666.666666 0.9862082810004973 0.16550899216010836 -1.3763192934411928e-16 1.7569297813851576e-17 -1.3763192934411928e-16 1.7569297813851576e-17 0.986208166086033 0.16550967689242266
12644440000.0 0.9881317525550778 0.15360872238333953 -1.3738160679445955e-16 1.923553510154395e-17 -1.3738160679445955e-16 1.923553510154395e-17 0.9881316459082715 0.15360940841764864
12645057333.333334 0.9899116325938784 0.14168613077903514 -1.3711112341257726e-16 2.089828532380325e-17 -1.3711112341257726e-16 2.089828532380325e-17 0.9899115342294208 0.14168681801552513
12645674666.666666 0.9915476624716395 0.1297429498926214 -1.3682052695100645e-16 2.255730468131967e-17 -1.3682052695100645e-16 2.255730468131967e-17 0.991547572403015 0.12974363823131313
12646292000.0 0.9930396044469043 0.11778091526111178 -1.3650986810877902e-16 2.421235002002612e-17 -1.3650986810877902e-16 2.421235002002612e-17 0.9930395226863918 0.11778160460187599
12646909333.333334 0.9943872417164688 0.10580176516166657 -1.36179200522813e-16 2.5863178866622433e-17 -1.36179200522813e-16 2.5863178866622433e-17 0.9943871682751365 0.10580245540423776
12647526666.666666 0.9955903784469559 0.09380724035840027 -1.358285807588508e-16 2.7509549464093908e-17 -1.358285807588508e-16 2.7509549464093908e-17 0.995590313334664 0.09380793140239198
12648144000.0 0.9966488398032574 0.08179908384959035 -1.3545806830197923e-16 2.9151220807064024e-17 -1.3545806830197923e-16 2.9151220807064024e-17 0.9966487830286543 0.08179977559450938
12648761333.333334 0.9975624719739283 0.06977904061447579 -1.3506772554672363e-16 3.07879526770108e-17 -1.3506772554672363e-16 3.07879526770108e-17 0.9975624235444509 0.06977973295973701
12649378666.666666 0.998331142193543 0.05774885735965546 -1.3465761778671622e-16 3.2419505677369266e-17 -1.3465761778671622e-16 3.2419505677369266e-17 0.9983311021154138 0.05774955020459617
12649996000.0 0.9989547387619938 0.04571028226523512 -1.342278132039338e-16 3.4045641268521735e-17 -1.342278132039338e-16 3.4045641268521735e-17 0.9989547070402212 0.045710975509129906
12650613333.333334 0.9994331710607209 0.03366506473070323 -1.3377838285752653e-16 3.566612180259838e-17 -1.3377838285752653e-16 3.566612180259838e-17 0.9994331476990989 0.03366575827277852
12651230666.666666 0.9997663695658751 0.02161495512094215 -1.333094006722194e-16 3.728071055816752e-17 -1.333094006722194e-16 3.728071055816752e-17 0.9997663545669832 0.021615648860390923
12651848000.0 0.9999542858584307 0.009561704511559485 -1.3282094342628958e-16 3.8889171774790435e-17 -1.3282094342628958e-16 3.8889171774790435e-17 0.9999542792236317 0.009562398347555817
12652465333.333334 0.9999968926312105 -0.0024929355653444335 -1.3231309073914478e-16 4.04912706873684e-17 -1.3231309073914478e-16 4.04912706873684e-17 0.9999968943606531 -0.0024922417336306164
12653082666.666666 0.9998941836928629 -0.014547213375560192 -1.317859250584782e-16 4.208677356035996e-17 -1.317859250584782e-16 4.208677356035996e-17 0.9998941937854791 -0.014546519648948514
12653700000.0 0.9996461739687523 -0.026599377237921433 -1.312395316469981e-16 4.3675447721873874e-17 -1.312395316469981e-16 4.3675447721873874e-17 0.9996461924222599 -0.026598683717206417
12654317333.333334 0.9992528994988025 -0.03864767577805674 -1.3067399856878409e-16 4.5257061597484095e-17 -1.3067399856878409e-16 4.5257061597484095e-17 0.9992529263097049 -0.038646982563993175
12654934666.666666 0.9987144174322506 -0.05069035818348949 -1.3008941667519412e-16 4.6831384743992676e-17 -1.3008941667519412e-16 4.6831384743992676e-17 0.998714452595836 -0.050689665376777715
12655552000.0 0.9980308060193384 -0.06272567445791682 -1.294858795903826e-16 4.839818788296009e-17 -1.294858795903826e-16 4.839818788296009e-17 0.9980308495296822 -0.06272498215918819
12656169333.333334 0.9972021645999564 -0.07475187567528549 -1.288634836964434e-16 4.995724293398159e-17 -1.288634836964434e-16 4.995724293398159e-17 0.9972022164499221 -0.07475118398508775
12656786666.666666 0.996228613589189 -0.08676721423425106 -1.2822232811809822e-16 5.150832304791326e-17 -1.2822232811809822e-16 5.150832304791326e-17 0.9962286737704306 -0.08676652325303383
12657404000.0 0.9951102944598393 -0.09876994411187791 -1.2756251470703033e-16 5.3051202639794034e-17 -1.2756251470703033e-16 5.3051202639794034e-17 0.9951103629627972 -0.09876925393997774
12658021333.333334 0.9938473697218418 -0.11075832111759037 -1.268841480258002e-16 5.4585657421619017e-17 -1.268841480258002e-16 5.4585657421619017e-17 0.9938474465357519 -0.11075763185521668
12658638666.666666 0.9924400228986825 -0.12273060314637808 -1.2618733533139179e-16 5.611146443485912e-17 -1.2618733533139179e-16 5.611146443485912e-17 0.9924401080115716 -0.12272991489359818
12659256000.0 0.9908884585006882 -0.13468505043226217 -1.2547218655831753e-16 5.762840208288286e-17 -1.2547218655831753e-16 5.762840208288286e-17 0.9908885518993797 -0.134684363288987
12659873333.333334 0.9891929019953355 -0.14661992580088545 -1.2473881430140615e-16 5.913625016300733e-17 -1.2473881430140615e-16 5.913625016300733e-17 0.9891930036654502 -0.14661923986685504
12660490666.666666 0.987353599774512 -0.15853349492181204 -1.239873337981506e-16 6.06347898984529e-17 -1.239873337981506e-16 6.06347898984529e-17 0.9873537097004692 -0.15853281029658084
12661108000.0 0.9853708191186189 -0.17042402656114328 -1.2321786291068143e-16 6.21238039700533e-17 -1.2321786291068143e-16 6.21238039700533e-17 0.9853709372836408 -0.17042334334406598
12661725333.333334 0.9832448481578563 -0.1822897928323081 -1.2243052210739332e-16 6.360307654767559e-17 -1.2243052210739332e-16 6.360307654767559e-17 0.9832449745439689 -0.18228911112252508
12662342666.666666 0.9809759958302516 -0.19412906944776986 -1.2162543444415108e-16 6.507239332149237e-17 -1.2162543444415108e-16 6.507239332149237e-17 0.9809761304182886 -0.19412838934419277
12662960000.0 0.978564591836815 -0.20594013596931318 -1.208027255451509e-16 6.653154153296188e-17 -1.208027255451509e-16 6.653154153296188e-17 0.9785647346064197 -0.2059394575706106
12663577333.333334 0.9760109865936141 -0.21772127605810668 -1.1996252358339738e-16 6.798031000559166e-17 -1.1996252358339738e-16 6.798031000559166e-17 0.9760111375232441 -0.21772059946269015
12664194666.666666 0.9733155511808531 -0.22947077772414365 -1.1910495926082416e-16 6.941848917543646e-17 -1.1910495926082416e-16 6.941848917543646e-17 0.9733157102477805 -0.22947010303015264
12664812000.0 0.9704786772889671 -0.24118693357490967 -1.1823016578803055e-16 7.084587112138097e-17 -1.1823016578803055e-16 7.084587112138097e-17 0.9704788444692856 -0.24118626088019807
12665429333.333334 0.9675007771616638 -0.25286804106368915 -1.1733827886367287e-16 7.226224959513746e-17 -1.1733827886367287e-16 7.226224959513746e-17 0.9675009524302894 -0.2528673704658108
12666046666.666666 0.964382283536076 -0.2645124027367243 -1.1642943665350073e-16 7.366742005098272e-17 -1.1642943665350073e-16 7.366742005098272e-17 0.9643824668667519 -0.2645117343329185
12666664000.0 0.9611236495797918 -0.2761183264802118 -1.155037797690055e-16 7.506117967528141e-17 -1.155037797690055e-16 7.506117967528141e-17 0.9611238409450936 -0.2761176603673902
12667281333.333334 0.9577253488250982 -0.2876841257658382 -1.1456145124576795e-16 7.644332741566417e-17 -1.1456145124576795e-16 7.644332741566417e-17 0.9577255481964354 -0.28768346204056977
12667898666.666666 0.9541878751001363 -0.2992081198959982 -1.136025965214189e-16 7.78136640099938e-17 -1.136025965214189e-16 7.78136640099938e-17 0.954188082447758 -0.29920745865449544
12668516000.0 0.9505117424570422 -0.31068863424832366 -1.1262736341323964e-16 7.917199201507475e-17 -1.1262736341323964e-16 7.917199201507475e-17 0.9505119577500419 -0.310687975586429
12669133333.333334 0.9466974850974441 -0.32212400051841045 -1.1163590209549752e-16 8.051811583497472e-17 -1.1163590209549752e-16 8.051811583497472e-17 0.9466977083037638 -0.3221233445315822
12669750666.666666 0.9427456572946564 -0.3335125569628197 -1.1062836507634348e-16 8.185184174920385e-17 -1.1062836507634348e-16 8.185184174920385e-17 0.9427458883810904 -0.3335119037461177
12670368000.0 0.9386568333131954 -0.3448526486403363 -1.0960490717444194e-16 8.317297794051003e-17 -1.0960490717444194e-16 8.317297794051003e-17 0.9386570722453976 -0.3448519982884094
