! Parameters = {f0=12700.012000; bw=77.238000; Q=6100.000000; N=10; m_0_1=1.263358; m_1_1=0.185630; m_1_2=1.098170; m_2_2=0.184981; m_2_3=0.735133; m_2_8=0.000232; m_2_9=0.036936; m_3_3=0.183044; m_3_4=0.623662; m_3_7=0.000832; m_3_8=-0.096256; m_3_9=0.000232; m_4_4=0.180119; m_4_5=0.459997; m_4_6=0.004349; m_4_7=-0.116805; m_4_8=0.000832; m_5_5=0.180501; m_5_6=0.867352; m_5_7=0.004349; m_6_6=0.180500; m_6_7=0.460339; m_7_7=0.180133; m_7_8=0.623780; m_8_8=0.183042; m_8_9=0.735446; m_9_9=0.184976; m_9_10=1.099248; m_10_10=0.185620; m_10_11=1.264153}
!
! Created with skrf (http://scikit-rf.org).
# Hz S RI R 50.0 
!freq ReS11 ImS11 ReS21 ImS21 ReS12 ImS12 ReS22 ImS22
12607400000.0 0.06605108700417735 -0.997816242554405 2.358991165231767e-17 1.0455332834938712e-16 2.358991165231767e-17 1.0455332834938712e-16 0.06605175117498344 -0.9978161985889701
12608017333.333334 0.055743696501075884 -0.9984451113106919 2.4672733061668468e-17 1.0428154033422576e-16 2.4672733061668468e-17 1.0428154033422576e-16 0.05574436105793495 -0.9984450742079245
12608634666.666666 0.04543036161677571 -0.998967508101837 2.5752453799867384e-17 1.0399854579314694e-16 2.5752453799867384e-17 1.0399854579314694e-16 0.04543102648878651 -0.9989674778650203
12609252000.0 0.03511218214233529 -0.999383377220688 2.6828957968640542e-17 1.0370437981022325e-16 2.6828957968640542e-17 1.0370437981022325e-16 0.03511284725857 -0.999383353852375
12609869333.333334 0.024790258385428064 -0.9996926743199678 2.790213006393259e-17 1.0339907866728997e-16 2.790213006393259e-17 1.0339907866728997e-16 0.024790923674939708 -0.9996926578219769
12610486666.666666 0.01446569105309326 -0.9998953664169971 2.8971854988261464e-17 1.0308267983954589e-16 2.8971854988261464e-17 1.0308267983954589e-16 0.014466356444923376 -0.999895356790416
12611104000.0 0.004139581134160174 -0.9999914318972234 3.003801806307396e-17 1.027552219910127e-16 3.003801806307396e-17 1.027552219910127e-16 0.004140246557346298 -0.9999914291424048
12611721333.333334 -0.006186970217931642 -0.9999808605165142 3.110050504096341e-17 1.024167449698927e-16 3.110050504096341e-17 1.024167449698927e-16 -0.006186304834348345 -0.9999808646330797
12612338666.666666 -0.016512861802727347 -0.9998636534022576 3.215920211793515e-17 1.0206728980377045e-16 3.215920211793515e-17 1.0206728980377045e-16 -0.01651219652969455 -0.9998636643890955
12612956000.0 -0.026836992490214803 -0.9996398230532363 3.3213995945560467e-17 1.017068986947058e-16 3.3213995945560467e-17 1.017068986947058e-16 -0.026836327398661448 -0.9996398409085027
12613573333.333334 -0.037158261338019354 -0.9993093933383002 3.4264773643065416e-17 1.013356150142061e-16 3.4264773643065416e-17 1.013356150142061e-16 -0.03715759649884809 -0.9993094180594189
12614190666.666666 -0.047475567708976256 -0.9988723994938171 3.531142280941863e-17 1.0095348329805469e-16 3.531142280941863e-17 1.0095348329805469e-16 -0.04747490319305588 -0.9988724310774799
12614808000.0 -0.057787811388528766 -0.9983288881199172 3.635383153530513e-17 1.0056054924103548e-16 3.635383153530513e-17 1.0056054924103548e-16 -0.057787147266686656 -0.9983289265620842
12615425333.333334 -0.06809389270196707 -0.9976789171755204 3.739188841508779e-17 1.0015685969151733e-16 3.739188841508779e-17 1.0015685969151733e-16 -0.0680932290449817 -0.9976789624714221
12616042666.666666 -0.07839271263172384 -0.9969225559721608 3.842548255867827e-17 9.974246264592712e-17 3.842548255867827e-17 9.974246264592712e-17 -0.07839204951031713 -0.9969226081162954
12616660000.0 -0.08868317293459914 -0.9960598851665888 3.9454503603361606e-17 9.93174072430954e-17 3.9454503603361606e-17 9.93174072430954e-17 -0.08868251041942904 -0.9960599441527268
12617277333.333334 -0.09896417625878969 -0.9950909967521792 4.0478841725561474e-17 9.888174375847816e-17 4.0478841725561474e-17 9.888174375847816e-17 -0.09896351442044254 -0.9950910625733608
12617894666.666666 -0.10923462626093651 -0.9940159940491191 4.149838765251221e-17 9.843552359827218e-17 4.149838765251221e-17 9.843552359827218e-17 -0.10923396516991966 -0.9940160666976574
12618512000.0 -0.11949342772323458 -0.992834991693372 4.251303267393864e-17 9.797879929337798e-17 4.251303267393864e-17 9.797879929337798e-17 -0.11949276744996865 -0.9928350711608513
12619129333.333334 -0.12973948666988455 -0.9915481156244818 4.352266865357314e-17 9.751162449328573e-17 4.352266865357314e-17 9.751162449328573e-17 -0.1297388272846962 -0.991548201901762
12619746666.666666 -0.1399717104839224 -0.9901555030721337 4.452718804068641e-17 9.703405395980709e-17 4.452718804068641e-17 9.703405395980709e-17 -0.13997105205703678 -0.9901555961493487
12620364000.0 -0.1501890080239023 -0.9886573025414936 4.5526483881522343e-17 9.654614356070028e-17 4.5526483881522343e-17 9.654614356070028e-17 -0.15018835062543523 -0.988657402408052
12620981333.333334 -0.1603902897398868 -0.9870536737974183 4.652044983062572e-17 9.604795026319735e-17 4.652044983062572e-17 9.604795026319735e-17 -0.16038963343983792 -0.9870537804420082
12621598666.666666 -0.17057446778994484 -0.9853447878473822 4.750898016217874e-17 9.5539532127376e-17 4.750898016217874e-17 9.5539532127376e-17 -0.17057381265818947 -0.9853449012579679
12622216000.0 -0.18074045615604273 -0.9835308269232497 4.849196978119728e-17 9.502094829944806e-17 4.849196978119728e-17 9.502094829944806e-17 -0.18073980226232508 -0.9835309470870763
12622833333.333334 -0.19088717075979997 -0.9816119844618569 4.946931423468765e-17 9.449225900491812e-17 4.946931423468765e-17 9.449225900491812e-17 -0.19088651817372526 -0.9816121113654506
12623450666.666666 -0.20101352957814825 -0.9795884650843741 5.044090972271304e-17 9.395352554163511e-17 5.044090972271304e-17 9.395352554163511e-17 -0.20101287836917564 -0.9795885987135442
12624068000.0 -0.21111845275874483 -0.9774604845744812 5.1406653109395294e-17 9.340481027272523e-17 5.1406653109395294e-17 9.340481027272523e-17 -0.21111780299617952 -0.9774606249143195
12624685333.333334 -0.22120086273520728 -0.9752282698553331 5.236644193385645e-17 9.284617661940269e-17 5.236644193385645e-17 9.284617661940269e-17 -0.22120021448819374 -0.9752284168902192
12625302666.666666 -0.23125968434163502 -0.97289205896545 5.33201744210276e-17 9.227768905370069e-17 5.33201744210276e-17 9.227768905370069e-17 -0.23125903767914943 -0.9728922126790509
12625920000.0 -0.24129384492784542 -0.9704521010332051 5.426774949245741e-17 9.169941309104496e-17 5.426774949245741e-17 9.169941309104496e-17 -0.241293199918688 -0.9704522614084766
12626537333.333334 -0.25130227447325937 -0.9679086562503685 5.5209066776965627e-17 9.11114152827623e-17 5.5209066776965627e-17 9.11114152827623e-17 -0.2513016311860472 -0.9679088232695567
12627154666.666666 -0.26128390570119947 -0.9652619958443155 5.614402662125484e-17 9.051376320845666e-17 5.614402662125484e-17 9.051376320845666e-17 -0.26128326420436004 -0.9652621694889634
12627772000.0 -0.27123767419289674 -0.9625124020490611 5.707253010046559e-17 8.990652546826013e-17 5.707253010046559e-17 8.990652546826013e-17 -0.27123703455465903 -0.962512582300003
12628389333.333334 -0.2811625185005003 -0.9596601680752841 5.79944790285716e-17 8.928977167502477e-17 5.79944790285716e-17 8.928977167502477e-17 -0.2811618807888889 -0.9596603549126538
12629006666.666666 -0.29105738026084516 -0.9567055980789071 5.890977596877752e-17 8.866357244635227e-17 5.890977596877752e-17 8.866357244635227e-17 -0.2910567445436728 -0.9567057914821385
12629624000.0 -0.30092120430790387 -0.9536490071287794 5.981832424376312e-17 8.802799939656284e-17 5.981832424376312e-17 8.802799939656284e-17 -0.3009205706527636 -0.953649207076607
12630241333.333334 -0.31075293878552335 -0.9504907211730091 6.072002794588632e-17 8.73831251285283e-17 6.072002794588632e-17 8.73831251285283e-17 -0.31075230725978176 -0.9504909276434723
12630858666.666666 -0.3205515352593228 -0.9472310770042948 6.161479194725641e-17 8.672902322543111e-17 6.161479194725641e-17 8.672902322543111e-17 -0.32055090593011326 -0.9472312899747397
12631476000.0 -0.3303159488289568 -0.9438704222238623 6.250252190978569e-17 8.606576824237263e-17 6.250252190978569e-17 8.606576824237263e-17 -0.3303153217631712 -0.9438706416709435
12632093333.333334 -0.34004513823907945 -0.9404091152045426 6.338312429506769e-17 8.539343569793941e-17 6.338312429506769e-17 8.539343569793941e-17 -0.3400445135033626 -0.9404093411042277
12632710666.666666 -0.3497380659905743 -0.9368475250525021 6.425650637422408e-17 8.471210206562617e-17 6.425650637422408e-17 8.471210206562617e-17 -0.34973744365131526 -0.9368477573800713
12633328000.0 -0.3593936984513473 -0.9331860315678153 6.512257623765417e-17 8.402184476516089e-17 6.512257623765417e-17 8.402184476516089e-17 -0.35939307857467373 -0.9331862702978672
12633945333.333334 -0.36901100596620673 -0.9294250252040953 6.598124280466131e-17 8.332274215375569e-17 6.598124280466131e-17 8.332274215375569e-17 -0.36901038861797697 -0.929425270310548
12634562666.666666 -0.3785889629669554 -0.9255649070267474 6.683241583300677e-17 8.261487351724226e-17 6.683241583300677e-17 8.261487351724226e-17 -0.37858834821275167 -0.9255651584828408
12635180000.0 -0.3881265480816213 -0.9216060886702471 6.767600592837875e-17 8.189831906110296e-17 6.767600592837875e-17 8.189831906110296e-17 -0.38812593598674305 -0.9216063464485477
12635797333.333334 -0.3976227442434544 -0.9175489922942155 6.851192455374655e-17 8.117315990142034e-17 6.851192455374655e-17 8.117315990142034e-17 -0.39762213487291115 -0.9175492563666185
12636414666.666666 -0.4070765387991746 -0.9133940505384899 6.934008403861866e-17 8.043947805573218e-17 6.934008403861866e-17 8.043947805573218e-17 -0.40707593221767907 -0.9133943208762215
12637032000.0 -0.4164869236172735 -0.9091417064768534 7.016039758822579e-17 7.969735643377225e-17 7.016039758822579e-17 7.969735643377225e-17 -0.41648631988923407 -0.909141983050474
12637649333.333334 -0.4258528951953084 -0.9047924135698752 7.097277929257158e-17 7.894687882814785e-17 7.097277929257158e-17 7.894687882814785e-17 -0.42585229438482347 -0.904792696349284
12638266666.666666 -0.4351734547669666 -0.9003466356165318 7.177714413541776e-17 7.818812990489572e-17 7.177714413541776e-17 7.818812990489572e-17 -0.4351728569378176 -0.90034692457097
12638884000.0 -0.44444760840859876 -0.8958048467047397 7.257340800314382e-17 7.74211951939683e-17 7.257340800314382e-17 7.74211951939683e-17 -0.44444701362424205 -0.8958051418027912
12639501333.333334 -0.453674367145129 -0.891167531160832 7.336148769351906e-17 7.664616107961846e-17 7.336148769351906e-17 7.664616107961846e-17 -0.45367377546869037 -0.8911678323704295
12640118666.666666 -0.4628527470555204 -0.886435183497916 7.414130092435518e-17 7.586311479071197e-17 7.414130092435518e-17 7.586311479071197e-17 -0.4628521585497887 -0.8864354907863443
12640736000.0 -0.4719817693779999 -0.8816083083629814 7.49127663421044e-17 7.507214439090319e-17 7.49127663421044e-17 7.507214439090319e-17 -0.4719811841054193 -0.8816086216968799
12641353333.333334 -0.481060460613876 -0.8766874204833736 7.567580353025849e-17 7.427333876882045e-17 7.567580353025849e-17 7.427333876882045e-17 -0.48105987863653943 -0.8766877398287397
12641970666.666666 -0.4900878526317793 -0.8716730446116807 7.643033301775928e-17 7.346678762804809e-17 7.643033301775928e-17 7.346678762804809e-17 -0.4900872740114231 -0.8716733699338753
12642588000.0 -0.49906298277080124 -0.866565715469829 7.717627628721626e-17 7.265258147711134e-17 7.717627628721626e-17 7.265258147711134e-17 -0.4990624075687972 -0.8665660467335782
12643205333.333334 -0.5079848939430751 -0.8613659776921008 7.791355578305228e-17 7.18308116193446e-17 7.791355578305228e-17 7.18308116193446e-17 -0.5079843222204244 -0.8613663148615005
12643822666.666666 -0.5168526347359605 -0.8560743857669856 7.864209491954668e-17 7.10015701426697e-17 7.864209491954668e-17 7.10015701426697e-17 -0.5168520665532883 -0.8560747288055067
12644440000.0 -0.5256652595134021 -0.8506915039781073 7.936181808874257e-17 7.016494990932478e-17 7.936181808874257e-17 7.016494990932478e-17 -0.5256646949309488 -0.8506918528485966
12645057333.333334 -0.5344218285166973 -0.8452179063440953 8.007265066827723e-17 6.932104454547761e-17 8.007265066827723e-17 6.932104454547761e-17 -0.5344212675943146 -0.8452182610087834
12645674666.666666 -0.5431214079648575 -0.8396541765572878 8.077451902908018e-17 6.846994843078453e-17 8.077451902908018e-17 6.846994843078453e-17 -0.5431208507620007 -0.8396545369777898
12646292000.0 -0.5517630701542536 -0.8340009079214354 8.146735054298407e-17 6.761175668784426e-17 8.146735054298407e-17 6.761175668784426e-17 -0.5517625167299754 -0.8340012740587568
12646909333.333334 -0.5603458935572813 -0.8282587032886036 8.215107359018599e-17 6.674656517162188e-17 8.215107359018599e-17 6.674656517162188e-17 -0.5603453439702256 -0.828259075103144
12647526666.666666 -0.5688689629207746 -0.8224281749947944 8.282561756663045e-17 6.587447045875552e-17 8.282561756663045e-17 6.587447045875552e-17 -0.5688684172291716 -0.8224285524463527
12648144000.0 -0.5773313693637261 -0.8165099447945701 8.349091289127794e-17 6.49955698367914e-17 8.349091289127794e-17 6.49955698367914e-17 -0.5773308276253831 -0.8165103278423467
12648761333.333334 -0.5857322104740139 -0.8105046437948712 8.414689101323454e-17 6.410996129337607e-17 8.414689101323454e-17 6.410996129337607e-17 -0.5857316727463128 -0.8105050323974752
12649378666.666666 -0.5940705904046644 -0.8044129123877115 8.4793484418785e-17 6.321774350535668e-17 8.4793484418785e-17 6.321774350535668e-17 -0.5940700567445524 -0.8044133065031625
12649996000.0 -0.6023456199695159 -0.79823540018178 8.543062663831881e-17 6.231901582779804e-17 8.543062663831881e-17 6.231901582779804e-17 -0.6023450904335016 -0.7982357997675141
12650613333.333334 -0.6105564167378817 -0.7919727659332901 8.605825225311696e-17 6.141387828296173e-17 8.605825225311696e-17 6.141387828296173e-17 -0.6105558913820284 -0.7919731709461646
12651230666.666666 -0.6187021051286962 -0.7856256774756963 8.667629690203919e-17 6.050243154919621e-17 8.667629690203919e-17 6.050243154919621e-17 -0.6187015840086164 -0.7856260878719951
12651848000.0 -0.62678181650402 -0.7791948116483757 8.728469728809927e-17 5.958477694974899e-17 8.728469728809927e-17 5.958477694974899e-17 -0.6267812996748686 -0.7791952273838112
12652465333.333334 -0.6347946892615103 -0.7726808542245684 8.788339118489937e-17 5.866101644154879e-17 8.788339118489937e-17 5.866101644154879e-17 -0.6347941767779796 -0.7726812752542891
12653082666.666666 -0.6427398689262155 -0.7660844998383264 8.847231744295964e-17 5.773125260390345e-17 8.847231744295964e-17 5.773125260390345e-17 -0.6427393608425283 -0.7660849261169193
12653700000.0 -0.6506165082420438 -0.7594064519101463 8.905141599594567e-17 5.679558862710651e-17 8.905141599594567e-17 5.679558862710651e-17 -0.6506160046119494 -0.7594068833916446
12654317333.333334 -0.658423767261721 -0.7526474225722892 8.962062786673019e-17 5.585412830105613e-17 8.962062786673019e-17 5.585412830105613e-17 -0.6584232681384882 -0.7526478592101751
12654934666.666666 -0.6661608134365995 -0.7458081325926363 9.017989517338794e-17 5.4906976003726485e-17 9.017989517338794e-17 5.4906976003726485e-17 -0.6661603188730112 -0.7458085743398467
12655552000.0 -0.673826821705457 -0.7388893112978077 9.072916113503764e-17 5.395423668963084e-17 9.072916113503764e-17 5.395423668963084e-17 -0.6738263317538056 -0.7388897581067402
12656169333.333334 -0.6814209745822079 -0.7318916964956361 9.126837007755733e-17 5.2996015878237614e-17 9.126837007755733e-17 5.2996015878237614e-17 -0.6814204892942879 -0.7318921483181523
12656786666.666666 -0.6889424622434126 -0.7248160343961839 9.179746743920517e-17 5.203241964227987e-17 9.179746743920517e-17 5.203241964227987e-17 -0.6889419816705167 -0.7248164911836157
12657404000.0 -0.6963904826144478 -0.7176630795323413 9.231639977608861e-17 5.106355459606203e-17 9.231639977608861e-17 5.106355459606203e-17 -0.6963900068073604 -0.7176635412354956
12658021333.333334 -0.7037642414551183 -0.7104335946792834 9.28251147675341e-17 5.008952788366733e-17 9.28251147675341e-17 5.008952788366733e-17 -0.7037637704641115 -0.7104340612484487
12658638666.666666 -0.7110629524441743 -0.7031283507733141 9.332356122130997e-17 4.911044716715796e-17 9.332356122130997e-17 4.911044716715796e-17 -0.7110624863190012 -0.7031288221582641
12659256000.0 -0.7182858372634829 -0.695748126829332 9.381168907875111e-17 4.8126420614669776e-17 9.381168907875111e-17 4.8126420614669776e-17 -0.7182853760533727 -0.6957486029793316
12659873333.333334 -0.7254321256807652 -0.6882937098580181 9.428944941973426e-17 4.713755688850803e-17 9.428944941973426e-17 4.713755688850803e-17 -0.7254316694344191 -0.68829419072183
12660490666.666666 -0.7325010556317539 -0.6807658947818936 9.475679446753269e-17 4.6143965133183384e-17 9.475679446753269e-17 4.6143965133183384e-17 -0.7325006043973386 -0.6807663803077826
12661108000.0 -0.7394918733016741 -0.6731654843503249 9.521367759357155e-17 4.514575496334642e-17 9.521367759357155e-17 4.514575496334642e-17 -0.7394914271268168 -0.673165974486063
12661725333.333334 -0.7464038332052761 -0.6654932890542902 9.566005332201281e-17 4.4143036451767745e-17 9.566005332201281e-17 4.4143036451767745e-17 -0.7464033921370602 -0.6654937837471635
12662342666.666666 -0.7532361982666638 -0.6577501270396002 9.609587733425139e-17 4.3135920117191646e-17 9.609587733425139e-17 4.3135920117191646e-17 -0.7532357623516238 -0.657750626236414
12662960000.0 -0.7599882398977191 -0.6499368240198379 9.65211064732632e-17 4.2124516912192685e-17 9.65211064732632e-17 4.2124516912192685e-17 -0.7599878091818353 -0.6499373276669226
12663577333.333334 -0.7666592380758371 -0.6420542131882667 9.693569874783394e-17 4.1108938210970583e-17 9.693569874783394e-17 4.1108938210970583e-17 -0.7666588126045307 -0.642054721231483
12664194666.666666 -0.773248481420724 -0.6341031351289566 9.733961333665276e-17 4.0089295797120864e-17 9.733961333665276e-17 4.0089295797120864e-17 -0.7732480612388531 -0.6341036475137023
12664812000.0 -0.7797552672701858 -0.6260844377272351 9.773281059228928e-17 3.9065701851338163e-17 9.773281059228928e-17 3.9065701851338163e-17 -0.7797548524220401 -0.62608495439845
12665429333.333334 -0.7861789017551857 -0.6179989760791167 9.81152520450311e-17 3.8038268939106237e-17 9.81152520450311e-17 3.8038268939106237e-17 -0.7861784922844816 -0.6179994969812892
12666046666.666666 -0.7925186998736748 -0.609847612400317 9.848690040659179e-17 3.700710999835389e-17 9.848690040659179e-17 3.700710999835389e-17 -0.7925182958235505 -0.609848137477489
12666664000.0 -0.798773985563867 -0.6016312159340154 9.884771957370562e-17 3.597233832703051e-17 9.884771957370562e-17 3.597233832703051e-17 -0.7987735869768792 -0.6016317451297898
12667281333.333334 -0.8049440917760224 -0.5933506628585681 9.9197674631562e-17 3.493406757073174e-17 9.9197674631562e-17 3.493406757073174e-17 -0.8049436986941408 -0.593351196116114
12667898666.666666 -0.8110283605438534 -0.5850068361937117 9.953673185714387e-17 3.389241171019653e-17 9.953673185714387e-17 3.389241171019653e-17 -0.8110279730084572 -0.5850073734557707
12668516000.0 -0.8170261430546215 -0.5766006257064912 9.986485872241554e-17 3.284748504882906e-17 9.986485872241554e-17 3.284748504882906e-17 -0.8170257611064937 -0.5766011669153832
12669133333.333334 -0.8229367997181882 -0.5681329278165583 1.0018202389737639e-16 3.179940220020202e-17 1.0018202389737639e-16 3.179940220020202e-17 -0.8229364233975126 -0.5681334729141884
12669750666.666666 -0.8287597002354055 -0.5596046455003284 1.0048819725299993e-16 3.074827807548002e-17 1.0048819725299993e-16 3.074827807548002e-17 -0.828759329581762 -0.5596051944281925
12670368000.0 -0.8344942236651972 -0.551016688194874 1.0078334986403007e-16 2.9694227870852545e-17 1.0078334986403007e-16 2.9694227870852545e-17 -0.8344938587175572 -0.5510172408940651
