! Parameters = {f0=12700.012000; bw=77.238000; Q=6100.000000; N=10; m_0_1=1.153448; m_1_1=-1.463019; m_1_2=0.988260; m_2_2=-1.463668; m_2_3=0.625223; m_2_8=-0.005264; m_2_9=0.031440; m_3_3=-1.465605; m_3_4=0.513752; m_3_7=-0.004664; m_3_8=-0.101752; m_3_9=-0.005264; m_4_4=-1.468530; m_4_5=0.350087; m_4_6=-0.001147; m_4_7=-0.122301; m_4_8=-0.004664; m_5_5=-1.468148; m_5_6=0.757442; m_5_7=-0.001147; m_6_6=-1.468149; m_6_7=0.350429; m_7_7=-1.468516; m_7_8=0.513870; m_8_8=-1.465607; m_8_9=0.625536; m_9_9=-1.463673; m_9_10=0.989338; m_10_10=-1.463029; m_10_11=1.154243}
!
! Created with skrf (http://scikit-rf.org).
# Hz S RI R 50.0 
!freq ReS11 ImS11 ReS21 ImS21 ReS12 ImS12 ReS22 ImS22
12607400000.0 -0.4735215842497694 0.8807822144261551 1.2570487905599223e-17 -6.037454627927919e-17 1.2570487905599223e-17 -6.037454627927919e-17 -0.4735221196775417 0.8807819265720327
12608017333.333334 -0.4672761496176509 0.8841114183169206 1.2135143346452912e-17 -6.045123219922167e-17 1.2135143346452912e-17 -6.045123219922167e-17 -0.46727668704292663 0.8841111342733113
12608634666.666666 -0.4610073095679417 0.8873963379036353 1.1699345930770594e-17 -6.052478263992091e-17 1.1699345930770594e-17 -6.052478263992091e-17 -0.46100784896360747 0.8873960576843928
12609252000.0 -0.45471537810086904 0.8906368086478562 1.126311821495892e-17 -6.059519505283434e-17 1.126311821495892e-17 -6.059519505283434e-17 -0.45471591943971557 0.8906365322666416
12609869333.333334 -0.4484006703733369 0.8938326682375155 1.0826482768675715e-17 -6.06624670515011e-17 1.0826482768675715e-17 -6.06624670515011e-17 -0.4484012136280598 0.8938323957077954
12610486666.666666 -0.44206350268316663 0.8969837565950372 1.0389462173668414e-17 -6.07265964116009e-17 1.0389462173668414e-17 -6.07265964116009e-17 -0.4420640478263686 0.8969834879300846
12611104000.0 -0.4357041924530246 0.9000899158854704 9.952079022601833e-18 -6.078758107100551e-17 9.952079022601833e-18 -6.078758107100551e-17 -0.43570473945721616 0.9000896510983633
12611721333.333334 -0.429323058214777 0.9031509905242675 9.514355917913725e-18 -6.084541912981866e-17 9.514355917913725e-18 -6.084541912981866e-17 -0.42932360705237893 0.9031507296278893
12612338666.666666 -0.42292041959343485 0.9061668271851314 9.076315470628586e-18 -6.090010885041306e-17 9.076315470628586e-18 -6.090010885041306e-17 -0.4229209702367777 0.9061665701921677
12612956000.0 -0.41649659729103833 0.9091372748077383 8.637980299204429e-18 -6.095164865745445e-17 8.637980299204429e-18 -6.095164865745445e-17 -0.4164971497123657 0.9091370217306793
12613573333.333334 -0.4100519130708796 0.912062184605177 8.199373028377925e-18 -6.100003713791779e-17 8.199373028377925e-18 -6.100003713791779e-17 -0.4100524672423482 0.9120619354563141
12614190666.666666 -0.4035866897410218 0.9149414100715628 7.760516287987119e-18 -6.104527304109812e-17 7.760516287987119e-18 -6.104527304109812e-17 -0.4035872456347038 0.9149411648629913
12614808000.0 -0.3971012511384166 0.9177748069892526 7.321432711809961e-18 -6.10873552786109e-17 7.321432711809961e-18 -6.10873552786109e-17 -0.3971018087263008 0.9177745657328683
12615425333.333334 -0.3905959221125528 0.9205622334361212 6.8821449364099834e-18 -6.112628292438304e-17 6.8821449364099834e-18 -6.112628292438304e-17 -0.39059648136654546 0.920561996143621
12616042666.666666 -0.3840710285092111 0.9233035497926627 6.442675599966744e-18 -6.116205521463789e-17 6.442675599966744e-18 -6.116205521463789e-17 -0.38407158940113817 0.9233033164755434
12616660000.0 -0.37752689715416937 0.92599861874897 6.0030473411170114e-18 -6.119467154787041e-17 6.0030473411170114e-18 -6.119467154787041e-17 -0.3775274596557772 0.9259983894185287
12617277333.333334 -0.37096385583670033 0.9286473053116686 5.563282797784228e-18 -6.122413148481549e-17 5.563282797784228e-18 -6.122413148481549e-17 -0.37096441991965756 0.9286470799790014
12617894666.666666 -0.36438223329344244 0.9312494768105581 5.123404606036288e-18 -6.1250434748405e-17 5.123404606036288e-18 -6.1250434748405e-17 -0.36438279892934156 0.9312492554865606
12618512000.0 -0.3577823591915655 0.9338050029054098 4.683435398900366e-18 -6.127358122372066e-17 4.683435398900366e-18 -6.127358122372066e-17 -0.35778292635192366 0.9338047856007745
12619129333.333334 -0.3511645641125473 0.9363137555923756 4.243397805221891e-18 -6.129357095793515e-17 4.243397805221891e-18 -6.129357095793515e-17 -0.35116513276880806 0.9363135423175932
12619746666.666666 -0.3445291795355106 0.9387756092104454 3.803314448498033e-18 -6.13104041602464e-17 3.803314448498033e-18 -6.13104041602464e-17 -0.3445297496590454 0.9387753999758032
12620364000.0 -0.3378765378205115 0.9411904404477763 3.3632079457119448e-18 -6.132408120180408e-17 3.3632079457119448e-18 -6.132408120180408e-17 -0.3378771093826215 0.9411902352633598
12620981333.333334 -0.3312069721921601 0.9435581283477754 2.9231009061939322e-18 -6.133460261562603e-17 2.9231009061939322e-18 -6.133460261562603e-17 -0.33120754516407674 0.9435579272234644
12621598666.666666 -0.32452081672268857 0.9458785543152433 2.4830159304398794e-18 -6.134196909650888e-17 2.4830159304398794e-18 -6.134196909650888e-17 -0.32452139107557565 0.9458783572607145
12622216000.0 -0.317818406315244 0.9481516021223053 2.0429756089741636e-18 -6.134618150092796e-17 2.0429756089741636e-18 -6.134618150092796e-17 -0.3178189820201989 0.9481514091470298
12622833333.333334 -0.311100076687221 0.950377157914194 1.6030025211856525e-18 -6.134724084693061e-17 1.6030025211856525e-18 -6.134724084693061e-17 -0.3111006537152766 0.950376969027439
12623450666.666666 -0.30436616435347386 0.9525551102149474 1.1631192341751785e-18 -6.13451483140209e-17 1.1631192341751785e-18 -6.13451483140209e-17 -0.3043667426755991 0.9525549254257727
12624068000.0 -0.29761700660924356 0.9546853499330593 7.23348301604083e-19 -6.133990524303523e-17 7.23348301604083e-19 -6.133990524303523e-17 -0.2976175861963462 0.9546851692503214
12624685333.333334 -0.2908529415133995 0.9567677703669047 2.83712262533462e-19 -6.13315131360111e-17 2.83712262533462e-19 -6.13315131360111e-17 -0.2908535223363258 0.9567675937992501
12625302666.666666 -0.2840743078716676 0.9588022672100265 -1.5576635970750846e-19 -6.131997365604656e-17 -1.5576635970750846e-19 -6.131997365604656e-17 -0.28407488990120544 0.9588020947658971
12625920000.0 -0.27728144521928116 0.9607887385564851 -5.950650586955689e-19 -6.130528862715188e-17 -5.950650586955689e-19 -6.130528862715188e-17 -0.27728202842616034 0.9607885702441138
12626537333.333334 -0.2704746938043804 0.9627270849058319 -1.0341613460442169e-18 -6.12874600340932e-17 -1.0341613460442169e-18 -6.12874600340932e-17 -0.2704752781592752 0.9627269207332457
12627154666.666666 -0.26365439457069934 0.9646172091681822 -1.4730327525506144e-18 -6.126649002222774e-17 -1.4730327525506144e-18 -6.126649002222774e-17 -0.2636549800442289 0.9646170491431981
12627772000.0 -0.25682088914048584 0.9664590166690702 -1.9116568293567265e-18 -6.124238089733055e-17 -1.9116568293567265e-18 -6.124238089733055e-17 -0.25682147570321645 0.966458860799298
12628389333.333334 -0.24997451979766513 0.9682524151541178 -2.3500111490741443e-18 -6.121513512541401e-17 -2.3500111490741443e-18 -6.121513512541401e-17 -0.24997510742011134 0.9682522634469584
12629006666.666666 -0.2431156294703111 0.9699973147937619 -2.7880733069421712e-18 -6.118475533253789e-17 -2.7880733069421712e-18 -6.118475533253789e-17 -0.24311621812293746 0.9699971672564072
12629624000.0 -0.236244561713799 0.9716936281876649 -3.225820921956465e-18 -6.115124430461267e-17 -3.225820921956465e-18 -6.115124430461267e-17 -0.23624515136702112 0.9716934848270966
12630241333.333334 -0.22936166069332156 0.9733412703691624 -3.6632316380151596e-18 -6.111460498719383e-17 -3.6632316380151596e-18 -6.111460498719383e-17 -0.2293622513175077 0.9733411311921522
12630858666.666666 -0.22246727116698095 0.9749401588094375 -4.100283125052811e-18 -6.107484048526827e-17 -4.100283125052811e-18 -6.107484048526827e-17 -0.2224678627324538 0.9749400238225469
12631476000.0 -0.21556173846813365 0.9764902134217472 -4.536953080184723e-18 -6.103195406303198e-17 -4.536953080184723e-18 -6.103195406303198e-17 -0.21556233094517188 0.9764900826313284
12632093333.333334 -0.20864540848837002 0.977991356565372 -4.973219228823418e-18 -6.098594914366177e-17 -4.973219228823418e-18 -6.098594914366177e-17 -0.20864600184720902 0.977991229977564
12632710666.666666 -0.20171862766018817 0.9794435130494995 -5.409059325826175e-18 -6.093682930907619e-17 -5.409059325826175e-18 -6.093682930907619e-17 -0.2017192218710227 0.9794433906702336
12633328000.0 -0.19478174293939257 0.9808466101370522 -5.84445115662322e-18 -6.08845982996895e-17 -5.84445115662322e-18 -6.08845982996895e-17 -0.1947823379723773 0.980846491972046
12633945333.333334 -0.18783510178799284 0.9822005775482674 -6.279372538337075e-18 -6.0829260014159e-17 -6.279372538337075e-18 -6.0829260014159e-17 -0.187835697613244 0.9822004636030265
12634562666.666666 -0.18087905215668793 0.9835053474642389 -6.713801320913585e-18 -6.077081850912212e-17 -6.713801320913585e-18 -6.077081850912212e-17 -0.18087964874428553 0.9835052377440595
12635180000.0 -0.17391394246735484 0.9847608545303355 -7.147715388250921e-18 -6.07092779989264e-17 -7.147715388250921e-18 -6.07092779989264e-17 -0.1739145397873432 0.9847607490402995
12635797333.333334 -0.1669401215957354 0.985967035859443 -7.581092659312465e-18 -6.064464285535208e-17 -7.581092659312465e-18 -6.064464285535208e-17 -0.16694071961812523 0.9859669346044208
12636414666.666666 -0.15995793885398993 0.9871238310351127 -8.013911089244508e-18 -6.057691760732696e-17 -8.013911089244508e-18 -6.057691760732696e-17 -0.1599585375487596 0.9871237340197616
12637032000.0 -0.15296774397294827 0.9882311821146317 -8.446148670508767e-18 -6.050610694063023e-17 -8.446148670508767e-18 -6.050610694063023e-17 -0.1529683433100455 0.9882310893433962
12637649333.333334 -0.14596988708487205 0.9892890336318729 -8.877783433979858e-18 -6.043221569759293e-17 -8.877783433979858e-18 -6.043221569759293e-17 -0.1459704870342153 0.9892889451089854
12638266666.666666 -0.1389647187057773 0.990297332600103 -9.308793450066222e-18 -6.035524887678741e-17 -9.308793450066222e-18 -6.035524887678741e-17 -0.13896531923725738 0.9902972483295821
12638884000.0 -0.1319525897179051 0.9912560285146281 -9.739156829816522e-18 -6.027521163271014e-17 -9.739156829816522e-18 -6.027521163271014e-17 -0.1319531908013865 0.9912559485002791
12639501333.333334 -0.12493385135214624 0.9921650733553238 -1.0168851726035506e-17 -6.019210927545469e-17 -1.0168851726035506e-17 -6.019210927545469e-17 -0.12493445295746881 0.9921649976007382
12640118666.666666 -0.11790885517050496 0.9930244215890344 -1.0597856334368251e-17 -6.010594727038231e-17 -1.0597856334368251e-17 -6.010594727038231e-17 -0.11790945726748533 0.9930243500975905
12640736000.0 -0.11087795304820718 0.9938340301718871 -1.1026148894434676e-17 -6.001673123777458e-17 -1.1026148894434676e-17 -6.001673123777458e-17 -0.11087855560664034 0.9938339629467492
12641353333.333334 -0.10384149715666822 0.9945938585513777 -1.1453707690893204e-17 -5.992446695249149e-17 -1.1453707690893204e-17 -5.992446695249149e-17 -0.10384210014632898 0.994593795595496
12641970666.666666 -0.09679983994517528 0.9953038686684802 -1.1880511054562962e-17 -5.982916034360956e-17 -1.1880511054562962e-17 -5.982916034360956e-17 -0.09680044333581987 0.9953038099845916
12642588000.0 -0.08975333412368569 0.9959640249595048 -1.230653736350748e-17 -5.973081749405943e-17 -1.230653736350748e-17 -5.973081749405943e-17 -0.08975393788505306 0.9959639705501303
12643205333.333334 -0.0827023326450183 0.9965742943578907 -1.2731765044125756e-17 -5.962944464025385e-17 -1.2731765044125756e-17 -5.962944464025385e-17 -0.08270293674683196 0.9965742442253387
12643822666.666666 -0.07564718868708985 0.9971346462958728 -1.31561725722454e-17 -5.952504817170606e-17 -1.31561725722454e-17 -5.952504817170606e-17 -0.07564779309905907 0.9971346004422359
12644440000.0 -0.06858825563539424 0.9976450527059962 -1.3579738474206172e-17 -5.941763463064298e-17 -1.3579738474206172e-17 -5.941763463064298e-17 -0.0685888603272158 0.9976450111331532
12645057333.333334 -0.06152588706516031 0.9981054880225336 -1.4002441327933665e-17 -5.930721071161146e-17 -1.4002441327933665e-17 -5.930721071161146e-17 -0.06152649200651995 0.9981054507321495
12645674666.666666 -0.05446043672381183 0.9985159291827587 -1.4424259764023516e-17 -5.919378326107442e-17 -1.4424259764023516e-17 -5.919378326107442e-17 -0.054461041884385664 0.9985158961762812
12646292000.0 -0.04739225851296461 0.9988763556281102 -1.4845172466834103e-17 -5.907735927699562e-17 -1.4845172466834103e-17 -5.907735927699562e-17 -0.047392863862420864 0.9988763269067764
12646909333.333334 -0.04032170647098404 0.9991867493052156 -1.5265158175527483e-17 -5.895794590842976e-17 -1.5265158175527483e-17 -5.895794590842976e-17 -0.04032231197898431 0.9991867248700437
12647526666.666666 -0.03324913475513778 0.9994470946667917 -1.568419568516243e-17 -5.883555045509054e-17 -1.568419568516243e-17 -5.883555045509054e-17 -0.03324974039133876 0.999447074518588
12648144000.0 -0.026174897623771353 0.999657378672433 -1.6102263847755595e-17 -5.871018036691817e-17 -1.6102263847755595e-17 -5.871018036691817e-17 -0.026175503357826292 0.9996573628117884
12648761333.333334 -0.019099349418705686 0.999817590789258 -1.6519341573344566e-17 -5.858184324363894e-17 -1.6519341573344566e-17 -5.858184324363894e-17 -0.01909995522026586 0.9998175792165482
12649378666.666666 -0.012022844547516849 0.9999277229924378 -1.693540783103732e-17 -5.845054683431924e-17 -1.693540783103732e-17 -5.845054683431924e-17 -0.012023450386233096 0.9999277157078229
12649996000.0 -0.004945737465528354 0.9999877697655997 -1.7350441650081687e-17 -5.831629903690592e-17 -1.7350441650081687e-17 -5.831629903690592e-17 -0.004946343311052658 0.9999877667690262
12650613333.333334 0.0021316173416873678 0.9999977281011008 -1.7764422120917887e-17 -5.817910789776268e-17 -1.7764422120917887e-17 -5.817910789776268e-17 0.002131011519700416 0.9999977293923012
12651230666.666666 0.009208865376064825 0.9999575975001846 -1.81773283962111e-17 -5.803898161120456e-17 -1.81773283962111e-17 -5.803898161120456e-17 0.009208259607956494 0.9999576030786745
12651848000.0 0.01628565214502931 0.9998673799729978 -1.8589139691919986e-17 -5.789592851901218e-17 -1.8589139691919986e-17 -5.789592851901218e-17 0.016285046461135204 0.9998673898380793
12652465333.333334 0.023361623179110964 0.999727080038494 -1.8999835288320337e-17 -5.774995710995197e-17 -1.8999835288320337e-17 -5.774995710995197e-17 0.023361017609759522 0.9997270941892552
12653082666.666666 0.03043642404952934 0.9995367047242097 -1.940939453104987e-17 -5.760107601928139e-17 -1.940939453104987e-17 -5.760107601928139e-17 0.030435818625040308 0.999536723159524
12653700000.0 0.03750970038634428 0.9992962635659073 -1.981779683214893e-17 -5.74492940282458e-17 -1.981779683214893e-17 -5.74492940282458e-17 0.03750909513702713 0.9992962862844316
12654317333.333334 0.0445810978957512 0.9990057686071019 -2.0225021671073183e-17 -5.729462006357761e-17 -2.0225021671073183e-17 -5.729462006357761e-17 0.04458049285190374 0.999005795607281
12654934666.666666 0.051650262378225203 0.9986652343984526 -2.063104859574142e-17 -5.713706319697375e-17 -2.063104859574142e-17 -5.713706319697375e-17 0.05164965757013201 0.998665265678517
12655552000.0 0.05871683974609215 0.998274677997037 -2.1035857223548496e-17 -5.697663264457692e-17 -2.1035857223548496e-17 -5.697663264457692e-17 0.05871623520402298 0.9982747135550019
12656169333.333334 0.06578047604112247 0.9978341189655019 -2.143942724237606e-17 -5.681333776644948e-17 -2.143942724237606e-17 -5.681333776644948e-17 0.06577987179533085 0.997834158799169
12656786666.666666 0.07284081745248798 0.9973435793710757 -2.1841738411620332e-17 -5.664718806603224e-17 -2.1841738411620332e-17 -5.664718806603224e-17 0.0728402135332096 0.9973436234780327
12657404000.0 0.07989751033445519 0.9968030837844611 -2.2242770563201086e-17 -5.647819318960115e-17 -2.2242770563201086e-17 -5.647819318960115e-17 0.07989690677190645 0.9968031321620816
12658021333.333334 0.08695020122398583 0.9962126592786122 -2.264250360256183e-17 -5.630636292571923e-17 -2.264250360256183e-17 -5.630636292571923e-17 0.08694959804836233 0.9962127119240568
12658638666.666666 0.0939985368584132 0.9955723354273832 -2.304091750967075e-17 -5.613170720467952e-17 -2.304091750967075e-17 -5.613170720467952e-17 0.09399793409988817 0.9955723923375981
12659256000.0 0.10104216419339151 0.9948821443040236 -2.343799234003152e-17 -5.595423609793468e-17 -2.343799234003152e-17 -5.595423609793468e-17 0.10104156188211447 0.9948822054757427
12659873333.333334 0.1080807304202967 0.9941421204795978 -2.3833708225669463e-17 -5.577395981752875e-17 -2.3833708225669463e-17 -5.577395981752875e-17 0.1080801285863917 0.9941421859093417
12660490666.666666 0.11511388298401115 0.993352301021243 -2.422804537611158e-17 -5.559088871552215e-17 -2.422804537611158e-17 -5.559088871552215e-17 0.11511328165757553 0.9933523707053195
12661108000.0 0.12214126960069628 0.992512725490301 -2.4620984079392392e-17 -5.540503328339691e-17 -2.4620984079392392e-17 -5.540503328339691e-17 0.12214066881179882 0.9925127994248041
12661725333.333334 0.129162538275155 0.9916234359403645 -2.501250470301752e-17 -5.521640415147169e-17 -2.501250470301752e-17 -5.521640415147169e-17 0.12916193805383486 0.9916235141211771
12662342666.666666 0.13617733731871792 0.9906844769151485 -2.5402587694947883e-17 -5.502501208829847e-17 -2.5402587694947883e-17 -5.502501208829847e-17 0.1361767376949826 0.9906845593379395
12662960000.0 0.1431853153668294 0.9896958954462511 -2.5791213584570044e-17 -5.4830868000056814e-17 -2.5791213584570044e-17 -5.4830868000056814e-17 0.14318471637065394 0.9896959821064801
12663577333.333334 0.15018612139650772 0.988657741050829 -2.6178362983662072e-17 -5.463398292994137e-17 -2.6178362983662072e-17 -5.463398292994137e-17 0.15018552305783264 0.988657831943742
12664194666.666666 0.1571794047440391 0.9875700657290928 -2.6564016587362404e-17 -5.4434368057538655e-17 -2.6564016587362404e-17 -5.4434368057538655e-17 0.15717880709276885 0.9875701608497237
12664812000.0 0.16416481512248624 0.9864329239617134 -2.6948155175118667e-17 -5.4232034698204706e-17 -2.6948155175118667e-17 -5.4232034698204706e-17 0.16416421818848823 0.9864330233048861
12665429333.333334 0.17114200263937393 0.9852463727070703 -2.7330759611647237e-17 -5.4026994302428456e-17 -2.7330759611647237e-17 -5.4026994302428456e-17 0.1711414064524766 0.9852464762673975
12666046666.666666 0.1781106178139069 0.9840104713984518 -2.77118108478789e-17 -5.38192584551932e-17 -2.77118108478789e-17 -5.38192584551932e-17 0.1781100224038984 0.984010579170335
12666664000.0 0.18507031159489468 0.982725281941003 -2.8091289921910184e-17 -5.360883887532532e-17 -2.8091289921910184e-17 -5.360883887532532e-17 0.18506971699152128 0.9827253939186336
12667281333.333334 0.1920207353777877 0.981390868708706 -2.8469177959927297e-17 -5.3395747414849156e-17 -2.8469177959927297e-17 -5.3395747414849156e-17 0.19202014161075248 0.9813909848860657
12667898666.666666 0.19896154102253016 0.980007298541085 -2.8845456177153824e-17 -5.317999605831938e-17 -2.8845456177153824e-17 -5.317999605831938e-17 0.19896094812149134 0.9800074189119452
12668516000.0 0.20589238087082967 0.9785746407398855 -2.9220105878778423e-17 -5.2961596922155157e-17 -2.9220105878778423e-17 -5.2961596922155157e-17 0.20589178886539922 0.9785747652978084
12669133333.333334 0.21281290776343278 0.9770929670656363 -2.959310846087159e-17 -5.27405622539713e-17 -2.959310846087159e-17 -5.27405622539713e-17 0.21281231668317485 0.9770930958039749
12669750666.666666 0.21972277505773588 0.9755623517340056 -2.996444541131071e-17 -5.251690443189504e-17 -2.996444541131071e-17 -5.251690443189504e-17 0.21972218493216553 0.9755624846459042
