! Parameters = {f0=12700.012000; bw=77.238000; Q=6100.000000; N=10; m_0_1=1.175671; m_1_1=-1.129686; m_1_2=1.010483; m_2_2=-1.130335; m_2_3=0.647446; m_2_8=-0.004153; m_2_9=0.032551; m_3_3=-1.132272; m_3_4=0.535975; m_3_7=-0.003553; m_3_8=-0.100641; m_3_9=-0.004153; m_4_4=-1.135197; m_4_5=0.372310; m_4_6=-0.000036; m_4_7=-0.121190; m_4_8=-0.003553; m_5_5=-1.134815; m_5_6=0.779665; m_5_7=-0.000036; m_6_6=-1.134816; m_6_7=0.372652; m_7_7=-1.135183; m_7_8=0.536093; m_8_8=-1.132274; m_8_9=0.647759; m_9_9=-1.130340; m_9_10=1.011561; m_10_10=-1.129696; m_10_11=1.176466}
!
! Created with skrf (http://scikit-rf.org).
# Hz S RI R 50.0 
!freq ReS11 ImS11 ReS21 ImS21 ReS12 ImS12 ReS22 ImS22
12607400000.0 0.3575185998615892 0.9339060181586027 -4.215758126127936e-17 -5.504103510503291e-17 -4.215758126127936e-17 -5.504103510503291e-17 0.3575180212377167 0.933906239667621
12608017333.333334 0.3647309663075409 0.9311129481519492 -4.2578531707239144e-17 -5.469883859063705e-17 -4.2578531707239144e-17 -5.469883859063705e-17 0.36473038944243247 0.9311131741184951
12608634666.666666 0.37192151473839874 0.9282641794632294 -4.299671077660932e-17 -5.4353427673828074e-17 -4.299671077660932e-17 -5.4353427673828074e-17 0.3719209396663881 0.9282644098733501
12609252000.0 0.3790898150194137 0.9253598825043133 -4.3412093963833677e-17 -5.4004824751881406e-17 -4.3412093963833677e-17 -5.4004824751881406e-17 0.3790892417747236 0.9253601173437904
12609869333.333334 0.38623543834670854 0.9224002310087386 -4.382465694399853e-17 -5.365305240858016e-17 -4.382465694399853e-17 -5.365305240858016e-17 0.38623486696345066 0.922400470263093
12610486666.666666 0.3933579572728537 0.9193854020213595 -4.423437557425125e-17 -5.329813341275976e-17 -4.423437557425125e-17 -5.329813341275976e-17 0.3933573877850231 0.9193856456758461
12611104000.0 0.4004569457326159 0.9163155758876702 -4.464122589521586e-17 -5.294009071683388e-17 -4.464122589521586e-17 -5.294009071683388e-17 0.40045637817409224 0.9163158239272844
12611721333.333334 0.4075319790682397 0.9131909362431129 -4.5045184132368626e-17 -5.257894745533424e-17 -4.5045184132368626e-17 -5.257894745533424e-17 0.40753141347278277 0.9131911886525871
12612338666.666666 0.4145826340550293 0.910011670002007 -4.544622669742844e-17 -5.221472694341653e-17 -4.544622669742844e-17 -5.221472694341653e-17 0.41458207045627954 0.9100119267658164
12612956000.0 0.42160848892659136 0.9067779673464089 -4.5844330189735666e-17 -5.18474526753562e-17 -4.5844330189735666e-17 -5.18474526753562e-17 0.42160792735806546 0.9067782284487678
12613573333.333334 0.42860912339998364 0.9034900217147648 -4.623947139759036e-17 -5.147714832305821e-17 -4.623947139759036e-17 -5.147714832305821e-17 0.42860856389507396 0.9034902871396303
12614190666.666666 0.4355841187010136 0.9001480297902723 -4.663162729961565e-17 -5.1103837734524076e-17 -4.663162729961565e-17 -5.1103837734524076e-17 0.43558356129298603 0.9001482995213449
12614808000.0 0.4425330575892109 0.8967521914891496 -4.702077506607795e-17 -5.072754493233623e-17 -4.702077506607795e-17 -5.072754493233623e-17 0.442532502311202 0.8967524655098725
12615425333.333334 0.44945552438270964 0.8933027099487121 -4.7406892060218367e-17 -5.034829411211125e-17 -4.7406892060218367e-17 -5.034829411211125e-17 0.4494549712677256 0.8933029882422744
12616042666.666666 0.4563511049832673 0.8897997915151478 -4.778995583955718e-17 -4.996610964095631e-17 -4.778995583955718e-17 -4.996610964095631e-17 0.456350554064182 0.8898000740644849
12616660000.0 0.46321938690095976 0.8862436457312101 -4.816994415718596e-17 -4.95810160559157e-17 -4.816994415718596e-17 -4.95810160559157e-17 0.4632188382105131 0.8862439325190057
12617277333.333334 0.47005995927880706 0.8826344853237129 -4.8546834963061734e-17 -4.91930380623944e-17 -4.8546834963061734e-17 -4.91930380623944e-17 0.47005941284960034 0.8826347763323953
12617894666.666666 0.4768724129173723 0.8789725261907859 -4.8920606405265745e-17 -4.8802200532593435e-17 -4.8920606405265745e-17 -4.8802200532593435e-17 0.47687186878187066 0.8789728214025366
12618512000.0 0.4836563402994197 0.875257987388873 -4.929123683127876e-17 -4.840852850390663e-17 -4.929123683127876e-17 -4.840852850390663e-17 0.4836557984899467 0.8752582867856216
12619129333.333334 0.49041133561398836 0.8714910911197848 -4.9658704789209705e-17 -4.8012047177343204e-17 -4.9658704789209705e-17 -4.8012047177343204e-17 0.4904107961627254 0.8714913946832122
12619746666.666666 0.4971369947808197 0.8676720627173288 -5.002298902903703e-17 -4.7612781915913713e-17 -5.002298902903703e-17 -4.7612781915913713e-17 0.49713645771980447 0.8676723704288701
12620364000.0 0.5038329154746769 0.863801130633745 -5.038406850383753e-17 -4.721075824300714e-17 -5.038406850383753e-17 -4.721075824300714e-17 0.5038323808358004 0.8638014424745877
12620981333.333334 0.5104986971491146 0.8598785264262067 -5.074192237097798e-17 -4.680600184078423e-17 -5.074192237097798e-17 -4.680600184078423e-17 0.5104981649641204 0.8598788423772938
12621598666.666666 0.5171339410606143 0.8559044847428748 -5.109652999331917e-17 -4.6398538548534654e-17 -5.109652999331917e-17 -4.6398538548534654e-17 0.5171334113610951 0.8559048047849044
12622216000.0 0.5237382502924582 0.8518792433088411 -5.1447870940398914e-17 -4.598839436103372e-17 -5.1447870940398914e-17 -4.598839436103372e-17 0.5237377231098562 0.8518795674222694
12622833333.333334 0.5303112297784259 0.8478030429119388 -5.179592498959797e-17 -4.557559542689458e-17 -5.179592498959797e-17 -4.557559542689458e-17 0.5303107051440291 0.8478033710769803
12623450666.666666 0.5368524863263776 0.8436761273883688 -5.214067212729314e-17 -4.516016804691191e-17 -5.214067212729314e-17 -4.516016804691191e-17 0.5368519642713184 0.8436764595849977
12624068000.0 0.5433616286417999 0.8394987436081007 -5.248209255000056e-17 -4.474213867239226e-17 -5.248209255000056e-17 -4.474213867239226e-17 0.5433611091970533 0.8394990798160512
12624685333.333334 0.5498382673513795 0.8352711414599944 -5.282016666551359e-17 -4.432153390346703e-17 -5.282016666551359e-17 -4.432153390346703e-17 0.5498377505477617 0.8352714816587635
12625302666.666666 0.5562820150259855 0.8309935738370541 -5.3154875094002085e-17 -4.389838048742697e-17 -5.3154875094002085e-17 -4.389838048742697e-17 0.5562815008941514 0.8309939180059017
12625920000.0 0.5626924862041291 0.8266662966211128 -5.3486198669129223e-17 -4.347270531701039e-17 -5.3486198669129223e-17 -4.347270531701039e-17 0.5626919747745713 0.826666644739064
12626537333.333334 0.5690692974148356 0.8222895686676536 -5.3814118439130764e-17 -4.304453542871419e-17 -5.3814118439130764e-17 -4.304453542871419e-17 0.5690687887178815 0.8222899207134987
12627154666.666666 0.5754120672006505 0.8178636517902748 -5.413861566789229e-17 -4.261389800108067e-17 -5.413861566789229e-17 -4.261389800108067e-17 0.5754115612664619 0.8178640077425722
12627772000.0 0.5817204161405315 0.8133888107449824 -5.4459671836019134e-17 -4.218082035296899e-17 -5.4459671836019134e-17 -4.218082035296899e-17 0.581719912999101 0.8133891705820577
12628389333.333334 0.5879939668723565 0.8088653132144812 -5.477726864186891e-17 -4.174532994184988e-17 -5.477726864186891e-17 -4.174532994184988e-17 0.5879934665535069 0.8088656769144301
12629006666.666666 0.5942323441157751 0.8042934297919632 -5.5091388002598476e-17 -4.130745436205478e-17 -5.5091388002598476e-17 -4.130745436205478e-17 0.5942318466491587 0.8042937973326537
12629624000.0 0.6004351746943383 0.7996734339651588 -5.5402012055178474e-17 -4.086722134304263e-17 -5.5402012055178474e-17 -4.086722134304263e-17 0.600434680109432 0.7996738053242292
12630241333.333334 0.6066020875580911 0.7950056020997677 -5.570912315740212e-17 -4.042465874764793e-17 -5.570912315740212e-17 -4.042465874764793e-17 0.6066015958841986 0.7950059772546324
12630858666.666666 0.6127327138055711 0.7902902134230881 -5.60127038888734e-17 -3.997979457033099e-17 -5.60127038888734e-17 -3.997979457033099e-17 0.6127322250718166 0.790290592350934
12631476000.0 0.6188266867060478 0.7855275500071678 -5.631273705199333e-17 -3.9532656935402945e-17 -5.631273705199333e-17 -3.9532656935402945e-17 0.6188262009413793 0.7855279326849613
12632093333.333334 0.6248836417213117 0.7807178967520597 -5.660920567291712e-17 -3.908327409526642e-17 -5.660920567291712e-17 -3.908327409526642e-17 0.6248831589544953 0.780718283156543
12632710666.666666 0.6309032165275206 0.7758615413687404 -5.690209300250789e-17 -3.86316744286326e-17 -5.690209300250789e-17 -3.86316744286326e-17 0.6309027367871404 0.7758619314764356
12633328000.0 0.6368850510370293 0.7709587743617751 -5.71913825172755e-17 -3.817788643873303e-17 -5.71913825172755e-17 -3.817788643873303e-17 0.6368845743514862 0.7709591681489854
12633945333.333334 0.6428287874196437 0.7660098890121723 -5.747705792029534e-17 -3.772193875153252e-17 -5.747705792029534e-17 -3.772193875153252e-17 0.6428283138171526 0.7660102864549833
12634562666.666666 0.6487340701242673 0.7610151813596437 -5.775910314211791e-17 -3.726386011392894e-17 -5.775910314211791e-17 -3.726386011392894e-17 0.6487335996328566 0.7610155824339248
12635180000.0 0.6546005459000839 0.7559749501849666 -5.803750234166341e-17 -3.680367939194603e-17 -5.803750234166341e-17 -3.680367939194603e-17 0.654600078547592 0.7559753548663711
12635797333.333334 0.6604278638176418 0.7508894969921451 -5.831223990709809e-17 -3.634142556892639e-17 -5.831223990709809e-17 -3.634142556892639e-17 0.6604273996317178 0.7508899052561145
12636414666.666666 0.6662156752898943 0.7457591259903422 -5.858330045670202e-17 -3.5877127743709964e-17 -5.858330045670202e-17 -3.5877127743709964e-17 0.6662152142979952 0.7457595378121059
12637032000.0 0.6719636340930931 0.7405841440756435 -5.885066883972127e-17 -3.5410815128805535e-17 -5.885066883972127e-17 -3.5410815128805535e-17 0.6719631763224807 0.7405845594302192
12637649333.333334 0.6776713963874533 0.7353648608127328 -5.911433013720267e-17 -3.494251704856338e-17 -5.911433013720267e-17 -3.494251704856338e-17 0.6776709418651955 0.7353652796749299
12638266666.666666 0.6833386207376618 0.7301015884164332 -5.937426966281225e-17 -3.447226293734288e-17 -5.937426966281225e-17 -3.447226293734288e-17 0.6833381694906299 0.7301020107608556
12638884000.0 0.6889649681334289 0.72479464173292 -5.963047296364886e-17 -3.40000823376595e-17 -5.963047296364886e-17 -3.40000823376595e-17 0.6889645201882943 0.7247950675339634
12639501333.333334 0.6945501020097016 0.7194443382209378 -5.988292582103353e-17 -3.3526004898340596e-17 -5.988292582103353e-17 -3.3526004898340596e-17 0.6945496573929357 0.719444767452794
12640118666.666666 0.7000936882667148 0.7140509979328908 -6.013161425128402e-17 -3.305006037267757e-17 -6.013161425128402e-17 -3.305006037267757e-17 0.7000932470045887 0.7140514305695503
12640736000.0 0.705595395290226 0.7086149434954645 -6.037652450648916e-17 -3.257227861654465e-17 -6.037652450648916e-17 -3.257227861654465e-17 0.705594957408806 0.708615379510715
12641353333.333334 0.7110548939709804 0.7031365000906772 -6.061764307524119e-17 -3.209268958656399e-17 -6.061764307524119e-17 -3.209268958656399e-17 0.7110544594961298 0.7031369394581087
12641970666.666666 0.7164718577247702 0.6976159954360756 -6.085495668338516e-17 -3.161132333820486e-17 -6.085495668338516e-17 -3.161132333820486e-17 0.716471426682144 0.6976164381290784
12642588000.0 0.7218459625117011 0.692053759765386 -6.108845229473064e-17 -3.112821002392055e-17 -6.108845229473064e-17 -3.112821002392055e-17 0.7218455349267476 0.6920542057571549
12643205333.333334 0.7271768868557206 0.6864501258086217 -6.13181171117535e-17 -3.0643379891271756e-17 -6.13181171117535e-17 -3.0643379891271756e-17 0.7271764627536795 0.6864505750721576
12643822666.666666 0.7324643118638672 0.6808054287721567 -6.154393857629409e-17 -3.0156863281022054e-17 -6.154393857629409e-17 -3.0156863281022054e-17 0.7324638912697667 0.6808058812802665
12644440000.0 0.7377079212451891 0.6751200063188406 -6.176590437022392e-17 -2.9668690625261555e-17 -6.176590437022392e-17 -2.9668690625261555e-17 0.7377075041838445 0.6751204620441394
12645057333.333334 0.7429074013298 0.6693941985476519 -6.198400241610788e-17 -2.91788924455049e-17 -6.198400241610788e-17 -2.91788924455049e-17 0.7429069878258137 0.6693946574625659
12645674666.666666 0.748062441087569 0.6636283479734404 -6.219822087784565e-17 -2.8687499350796685e-17 -6.219822087784565e-17 -2.8687499350796685e-17 0.7480620311653275 0.6636288100502071
12646292000.0 0.7531727321468935 0.6578227995062458 -6.240854816131163e-17 -2.819454203578219e-17 -6.240854816131163e-17 -2.819454203578219e-17 0.7531723258305675 0.6578232647169168
12646909333.333334 0.7582379688128259 0.6519779004310263 -6.261497291495616e-17 -2.770005127882701e-17 -6.261497291495616e-17 -2.770005127882701e-17 0.7582375661263686 0.6519783687474692
12647526666.666666 0.7632578480856643 0.6460940003865464 -6.281748403041435e-17 -2.7204057940080533e-17 -6.281748403041435e-17 -2.7204057940080533e-17 0.7632574490528075 0.6460944717804438
12648144000.0 0.7682320696789958 0.6401714513445413 -6.301607064308651e-17 -2.670659295956553e-17 -6.301607064308651e-17 -2.670659295956553e-17 0.7682316743232519 0.6401719257873958
12648761333.333334 0.7731603360375345 0.6342106075888169 -6.3210722132709e-17 -2.6207687355251187e-17 -6.3210722132709e-17 -2.6207687355251187e-17 0.7731599443821936 0.6342110850519516
12649378666.666666 0.7780423523550327 0.6282118256939272 -6.340142812390624e-17 -2.570737222113106e-17 -6.340142812390624e-17 -2.570737222113106e-17 0.7780419644231606 0.6282123061484867
12649996000.0 0.7828778265919305 0.6221754645038206 -6.358817848673087e-17 -2.5205678725288075e-17 -6.358817848673087e-17 -2.5205678725288075e-17 0.7828774424063685 0.6221759479207736
12650613333.333334 0.7876664694928097 0.6161018851103963 -6.377096333718981e-17 -2.470263810795399e-17 -6.377096333718981e-17 -2.470263810795399e-17 0.7876660890761724 0.6161023714605373
12651230666.666666 0.7924079946035524 0.6099914508320813 -6.394977303774692e-17 -2.4198281679585113e-17 -6.394977303774692e-17 -2.4198281679585113e-17 0.7924076179782272 0.6099919400860322
12651848000.0 0.797102118288763 0.6038445271917416 -6.412459819782457e-17 -2.369264081889818e-17 -6.412459819782457e-17 -2.369264081889818e-17 0.7971017454769087 0.6038450193199537
12652465333.333334 0.8017485597485187 0.5976614818950826 -6.429542967427252e-17 -2.3185746970948208e-17 -6.429542967427252e-17 -2.3185746970948208e-17 0.8017481907720637 0.5976619768678382
12653082666.666666 0.8063470410351221 0.591442684808725 -6.446225857183494e-17 -2.2677631645168722e-17 -6.446225857183494e-17 -2.2677631645168722e-17 0.8063466759157629 0.5914431825961389
12653700000.0 0.8108972870699975 0.5851885079377133 -6.46250762436011e-17 -2.216832641340833e-17 -6.46250762436011e-17 -2.216832641340833e-17 0.8108969258291979 0.5851890085097349
12654317333.333334 0.8153990256598421 0.5788993254036752 -6.478387429142985e-17 -2.1657862907997612e-17 -6.478387429142985e-17 -2.1657862907997612e-17 0.815398668318831 0.5788998287300896
12654934666.666666 0.819851987513109 0.5725755134221652 -6.493864456636979e-17 -2.1146272819779853e-17 -6.493864456636979e-17 -2.1146272819779853e-17 0.8198516340928808 0.5725760194725967
12655552000.0 0.8242559062560484 0.5662174502802514 -6.508937916906404e-17 -2.0633587896138947e-17 -6.508937916906404e-17 -2.0633587896138947e-17 0.8242555567773623 0.5662179590241646
12656169333.333334 0.8286105184486 0.5598255163139606 -6.523607045012835e-17 -2.0119839939059797e-17 -6.523607045012835e-17 -2.0119839939059797e-17 0.8286101729319743 0.5598260277206605
12656786666.666666 0.8329155636002539 0.5534000938853563 -6.53787110105281e-17 -1.960506080313972e-17 -6.53787110105281e-17 -1.960506080313972e-17 0.8329152220659706 0.553400607923993
12657404000.0 0.8371707841855152 0.5469415673598605 -6.551729370192812e-17 -1.908928239363649e-17 -6.551729370192812e-17 -1.908928239363649e-17 0.8371704466536142 0.5469420839994287
12658021333.333334 0.841375925659428 0.5404503230830675 -6.565181162703646e-17 -1.8572536664482377e-17 -6.565181162703646e-17 -1.8572536664482377e-17 0.8413755921497094 0.5404508422924101
12658638666.666666 0.8455307364726825 0.5339267493578256 -6.57822581399241e-17 -1.8054855616325855e-17 -6.57822581399241e-17 -1.8054855616325855e-17 0.8455304070047036 0.5339272711056349
12659256000.0 0.8496349680867683 0.5273712364208412 -6.590862684633655e-17 -1.7536271294543077e-17 -6.590862684633655e-17 -1.7536271294543077e-17 0.8496346426798423 0.5273717606756603
12659873333.333334 0.8536883749887958 0.5207841764194067 -6.603091160398561e-17 -1.7016815787266273e-17 -6.603091160398561e-17 -1.7016815787266273e-17 0.8536880536619914 0.520784703149632
12660490666.666666 0.8576907147061373 0.5141659633880142 -6.61491065228247e-17 -1.6496521223412094e-17 -6.61491065228247e-17 -1.6496521223412094e-17 0.8576903974782778 0.5141664925618973
12661108000.0 0.8616417478210386 0.5075169932246175 -6.62632059653157e-17 -1.5975419770680022e-17 -6.62632059653157e-17 -1.5975419770680022e-17 0.8616414347106983 0.507517524810266
12661725333.333334 0.8655412379848174 0.5008376636671406 -6.637320454666922e-17 -1.5453543633594375e-17 -6.637320454666922e-17 -1.5453543633594375e-17 0.8655409290103249 0.5008381976325221
12662342666.666666 0.8693889519321105 0.49412837426951806 -6.647909713507881e-17 -1.493092505150721e-17 -6.647909713507881e-17 -1.493092505150721e-17 0.869388647111544 0.4941289105824606
12662960000.0 0.8731846594947781 0.48738952637786404 -6.658087885193617e-17 -1.4407596296611086e-17 -6.658087885193617e-17 -1.4407596296611086e-17 0.8731843588459658 0.48739006500605814
12663577333.333334 0.8769281336156342 0.4806215231065405 -6.667854507203006e-17 -1.3883589671956323e-17 -6.667854507203006e-17 -1.3883589671956323e-17 0.876927837156153 0.48062206401754154
12664194666.666666 0.8806191503621104 0.47382476931389333 -6.677209142372912e-17 -1.3358937509469009e-17 -6.677209142372912e-17 -1.3358937509469009e-17 0.8806188581092851 0.47382531247512333
12664812000.0 0.884257488939612 0.466999671578109 -6.686151378915275e-17 -1.283367216795103e-17 -6.686151378915275e-17 -1.283367216795103e-17 0.8842572009105139 0.4670002169568584
12665429333.333334 0.8878429317046956 0.46014663817294243 -6.694680830432262e-17 -1.2307826031096213e-17 -6.694680830432262e-17 -1.2307826031096213e-17 0.8878426479161418 0.46014718573637237
12666046666.666666 0.8913752641781065 0.4532660790432707 -6.702797135929926e-17 -1.1781431505505812e-17 -6.702797135929926e-17 -1.1781431505505812e-17 0.8913749846466589 0.45326662875841484
12666664000.0 0.8948542750576971 0.44635840578039265 -6.710499959830559e-17 -1.1254521018684234e-17 -6.710499959830559e-17 -1.1254521018684234e-17 0.8948539997996608 0.44635895761415906
12667281333.333334 0.8982797562309106 0.43942403159771104 -6.71778899198312e-17 -1.072712701706303e-17 -6.71778899198312e-17 -1.072712701706303e-17 0.8982794852623344 0.43942458551688446
12667898666.666666 0.9016515027873112 0.4324633713058638 -6.72466394767244e-17 -1.0199281963995654e-17 -6.72466394767244e-17 -1.0199281963995654e-17 0.9016512361239852 0.4324639272771074
12668516000.0 0.9049693130309137 0.42547684128775565 -6.731124567626641e-17 -9.671018337771212e-18 -6.731124567626641e-17 -9.671018337771212e-18 0.9049690506883692 0.4254773992776132
12669133333.333334 0.9082329884921001 0.4184648594739575 -6.737170618023026e-17 -9.1423686296281e-18 -6.737170618023026e-17 -9.1423686296281e-18 0.9082327304856083 0.4184654194488551
12669750666.666666 0.9114423339395793 0.41142784531752713 -6.742801890492575e-17 -8.613365341750282e-18 -6.742801890492575e-17 -8.613365341750282e-18 0.9114420802841503 0.4114284072437754
12670368000.0 0.9145971573920888 0.40436621976886555 -6.748018202122702e-17 -8.084040985280987e-18 -6.748018202122702e-17 -8.084040985280987e-18 0.9145969081024712 0.4043667836126618
