! Parameters = {f0=12700.012000; bw=77.238000; Q=6100.000000; N=10; m_0_1=1.275971; m_1_1=0.374819; m_1_2=1.110783; m_2_2=0.374170; m_2_3=0.747746; m_2_8=0.000862; m_2_9=0.037566; m_3_3=0.372233; m_3_4=0.636275; m_3_7=0.001462; m_3_8=-0.095626; m_3_9=0.000862; m_4_4=0.369308; m_4_5=0.472610; m_4_6=0.004979; m_4_7=-0.116175; m_4_8=0.001462; m_5_5=0.369690; m_5_6=0.879965; m_5_7=0.004979; m_6_6=0.369689; m_6_7=0.472952; m_7_7=0.369322; m_7_8=0.636393; m_8_8=0.372231; m_8_9=0.748059; m_9_9=0.374165; m_9_10=1.111861; m_10_10=0.374809; m_10_11=1.276766}
!
! Created with skrf (http://scikit-rf.org).
# Hz S RI R 50.0 
!freq ReS11 ImS11 ReS21 ImS21 ReS12 ImS12 ReS22 ImS22
12607400000.0 -0.9552369095169402 -0.29584192856379765 1.1374259615824325e-16 1.402257794635397e-18 1.1374259615824325e-16 1.402257794635397e-18 -0.9552367106380435 -0.2958425707183338
12608017333.333334 -0.9583475228446167 -0.2856046663789103 1.1372882919372809e-16 1.750932328383862e-19 1.1372882919372809e-16 1.750932328383862e-19 -0.9583473308570825 -0.28560531059300487
12608634666.666666 -0.9613484269887327 -0.27533470890193185 1.1370183082723876e-16 -1.051611141521293e-18 1.1370183082723876e-16 -1.051611141521293e-18 -0.9613482419138634 -0.27533535510163876
12609252000.0 -0.9642392784135065 -0.2650332318114519 1.1366160938228352e-16 -2.2777127571850905e-18 1.1366160938228352e-16 -2.2777127571850905e-18 -0.964239100271811 -0.2650338799226049
12609869333.333334 -0.9670197461817197 -0.2547014143943162 1.136081747176257e-16 -3.503069168863028e-18 1.136081747176257e-16 -3.503069168863028e-18 -0.9670195749929114 -0.25470206434253784
12610486666.666666 -0.9696895119925648 -0.24434043941076242 1.1354153822553651e-16 -4.7275380737391125e-18 1.1354153822553651e-16 -4.7275380737391125e-18 -0.9696893477755595 -0.2443410911214721
12611104000.0 -0.9722482702181626 -0.23395149295871812 1.1346171282986723e-16 -5.950977328005346e-18 1.1346171282986723e-16 -5.950977328005346e-18 -0.9722481129910763 -0.23395214635714082
12611721333.333334 -0.974695727938451 -0.22353576433840472 1.1336871298394883e-16 -7.173244963290129e-18 1.1336871298394883e-16 -7.173244963290129e-18 -0.9746955777185974 -0.22353641934957946
12612338666.666666 -0.9770316049747887 -0.21309444591591412 1.1326255466830992e-16 -8.394199203137225e-18 1.1326255466830992e-16 -8.394199203137225e-18 -0.9770314617786777 -0.21309510246470267
12612956000.0 -0.979255633922023 -0.2026287329867084 1.1314325538821877e-16 -9.613698479423626e-18 1.1314325538821877e-16 -9.613698479423626e-18 -0.9792554977653587 -0.20262939099780383
12613573333.333334 -0.9813675601790505 -0.19213982363903606 1.1301083417105338e-16 -1.083160144871796e-17 1.1301083417105338e-16 -1.083160144871796e-17 -0.9813674310767301 -0.19214048303697148
12614190666.666666 -0.9833671419780219 -0.1816289186164996 1.1286531156348894e-16 -1.2047767008667348e-17 1.1286531156348894e-16 -1.2047767008667348e-17 -0.9833670199441339 -0.1816295793256569
12614808000.0 -0.98525415041199 -0.171097221180737 1.1270670962851383e-16 -1.3262054314301596e-17 1.1270670962851383e-16 -1.3262054314301596e-17 -0.9852540354598116 -0.1710978831253551
12615425333.333334 -0.987028369461119 -0.16054593697364697 1.1253505194227036e-16 -1.447432279431723e-17 1.1253505194227036e-16 -1.447432279431723e-17 -0.9870282616031166 -0.1605466000778311
12616042666.666666 -0.9886895960174169 -0.14997627387937082 1.1235036359071757e-16 -1.5684432167336013e-17 1.1235036359071757e-16 -1.5684432167336013e-17 -0.9886894952652419 -0.1499769380671005
12616660000.0 -0.9902376399079804 -0.13938944188601593 1.121526711661247e-16 -1.6892242458091446e-17 1.121526711661247e-16 -1.6892242458091446e-17 -0.9902375462724724 -0.1393901070811547
12617277333.333334 -0.9916723239167777 -0.1287866529471126 1.119420027633852e-16 -1.8097614013611617e-17 1.119420027633852e-16 -1.8097614013611617e-17 -0.9916722374079574 -0.12878731907341548
12617894666.666666 -0.9929934838049101 -0.11816912084301232 1.1171838797616666e-16 -1.9300407519304253e-17 1.1171838797616666e-16 -1.9300407519304253e-17 -0.9929934044319836 -0.11816978782413551
12618512000.0 -0.9942009683294563 -0.10753806104162783 1.1148185789286927e-16 -2.0500484015097557e-17 1.1148185789286927e-16 -2.0500484015097557e-17 -0.9942008961008123 -0.10753872880113731
12619129333.333334 -0.9952946392607395 -0.0968946905596845 1.1123244509243834e-16 -2.1697704911390808e-17 1.1123244509243834e-16 -2.1697704911390808e-17 -0.9952945741839453 -0.09689535902106423
12619746666.666666 -0.99627437139818 -0.08624022782311654 1.1097018363998247e-16 -2.2891932005079337e-17 1.1097018363998247e-16 -2.2891932005079337e-17 -0.9962743134799869 -0.08624089690977797
12620364000.0 -0.9971400525846308 -0.07557589252758497 1.1069510908222894e-16 -2.408302749547738e-17 1.1069510908222894e-16 -2.408302749547738e-17 -0.9971400018309686 -0.07557656216287535
12620981333.333334 -0.9978915837191921 -0.06490290549910466 1.1040725844281556e-16 -2.527085400016294e-17 1.1040725844281556e-16 -2.527085400016294e-17 -0.997891540135168 -0.06490357560631582
12621598666.666666 -0.9985288787685778 -0.05422248855400377 1.1010667021739839e-16 -2.6455274570827463e-17 1.1010667021739839e-16 -2.6455274570827463e-17 -0.9985288423584814 -0.05422315905638124
12622216000.0 -0.99905186477696 -0.043535864359195604 1.097933843686015e-16 -2.7636152709021763e-17 1.097933843686015e-16 -2.7636152709021763e-17 -0.9990518355442563 -0.04353653517994702
12622833333.333334 -0.9994604818743162 -0.03284425629212501 1.094674423207922e-16 -2.8813352381865294e-17 1.094674423207922e-16 -2.8813352381865294e-17 -0.9994604598216502 -0.032844927354429156
12623450666.666666 -0.9997546832832813 -0.0221488883009469 1.091288869546938e-16 -2.998673803767654e-17 1.091288869546938e-16 -2.998673803767654e-17 -0.999754668412476 -0.02214955952796244
12624068000.0 -0.9999344353245138 -0.011450984764127727 1.0877776260182364e-16 -3.1156174621569374e-17 1.0877776260182364e-16 -3.1156174621569374e-17 -0.9999344276365679 -0.011451656079001919
12624685333.333334 -0.9999997174205416 -0.0007517703502246048 1.0841411503876643e-16 -3.232152759097269e-17 1.0841411503876643e-16 -3.232152759097269e-17 -0.9999997169156335 -0.0007524416761022078
12625302666.666666 -0.9999505220981183 0.009947530121743034 1.0803799148129411e-16 -3.348266293105101e-17 1.0803799148129411e-16 -3.348266293105101e-17 -0.9999505287756029 0.009946858861711016
12625920000.0 -0.9997868549890805 0.02064569182336024 1.0764944057829532e-16 -3.463944717013418e-17 1.0764944057829532e-16 -3.463944717013418e-17 -0.9997868688474915 0.020645020706007756
12626537333.333334 -0.9995087348297051 0.03134149005620761 1.0724851240556915e-16 -3.579174739498901e-17 1.0724851240556915e-16 -3.579174739498901e-17 -0.9995087558667539 0.03134081915834475
12627154666.666666 -0.9991161934585648 0.042033700392544844 1.0683525845943662e-16 -3.693943126608154e-17 1.0683525845943662e-16 -3.693943126608154e-17 -0.9991162216711407 0.04203302979094906
12627772000.0 -0.9986092758128721 0.052721098815508294 1.0640973165018699e-16 -3.8082367032765734e-17 1.0640973165018699e-16 -3.8082367032765734e-17 -0.998609311197044 0.05272042858691562
12628389333.333334 -0.9979880399233536 0.06340246185886415 1.059719862953854e-16 -3.922042354833788e-17 1.059719862953854e-16 -3.922042354833788e-17 -0.9979880824743711 0.0634017920799605
12629006666.666666 -0.9972525569075926 0.07407656674746553 1.0552207811298705e-16 -4.035347028510211e-17 1.0552207811298705e-16 -4.035347028510211e-17 -0.9972526066198828 0.07407589749487767
12629624000.0 -0.996402910961888 0.08474219153703334 1.050600642143203e-16 -4.148137734927976e-17 1.050600642143203e-16 -4.148137734927976e-17 -0.9964029678290607 0.08474152288732044
12630241333.333334 -0.9954391993516198 0.09539811525406999 1.045860030968908e-16 -4.260401549589023e-17 1.045860030968908e-16 -4.260401549589023e-17 -0.9954392633664665 0.09539744728371474
12630858666.666666 -0.9943615324001354 0.10604311803543565 1.0409995463704236e-16 -4.372125614351498e-17 1.0409995463704236e-16 -4.372125614351498e-17 -0.9943616035546292 0.10604245082083544
12631476000.0 -0.9931700334760578 0.11667598126858847 1.0360198008243785e-16 -4.483297138902842e-17 1.0360198008243785e-16 -4.483297138902842e-17 -0.9931701117613557 0.11667531488604672
12632093333.333334 -0.991864838979244 0.12729548773032545 1.0309214204441514e-16 -4.593903402217385e-17 1.0309214204441514e-16 -4.593903402217385e-17 -0.9918649243856869 0.1272948222560428
12632710666.666666 -0.990446098325117 0.13790042172660694 1.0257050449016253e-16 -4.703931754010883e-17 1.0257050449016253e-16 -4.703931754010883e-17 -0.9904461908422331 0.1378997572366728
12633328000.0 -0.9889139739275599 0.14848956923172646 1.0203713273474055e-16 -4.81336961618594e-17 1.0203713273474055e-16 -4.81336961618594e-17 -0.9889140735440638 0.14848890580211002
12633945333.333334 -0.9872686411803536 0.1590617180270634 1.0149209343296875e-16 -4.922204484264401e-17 1.0149209343296875e-16 -4.922204484264401e-17 -0.9872687478841478 0.15906105573360504
12634562666.666666 -0.9855102884370761 0.16961565783999574 1.0093545457114196e-16 -5.030423928814725e-17 1.0093545457114196e-16 -5.030423928814725e-17 -0.9855104022152537 0.1696149967583984
12635180000.0 -0.9836391169895464 0.18015018048242057 1.0036728545860127e-16 -5.138015596868261e-17 1.0036728545860127e-16 -5.138015596868261e-17 -0.9836392378283915 0.1801495206882411
12635797333.333334 -0.9816553410447764 0.19066407998909288 9.978765671915332e-17 -5.2449672133267123e-17 9.978765671915332e-17 -5.2449672133267123e-17 -0.9816554689297666 0.1906634215577333
12636414666.666666 -0.979559187700468 0.2011561527555689 9.91966402823468e-17 -5.3512665823585694e-17 9.91966402823468e-17 -5.3512665823585694e-17 -0.9795593226162762 0.20115549576226802
12637032000.0 -0.9773508969189874 0.21162519767616012 9.859430937458509e-17 -5.4569015887885626e-17 9.859430937458509e-17 -5.4569015887885626e-17 -0.9773510388494823 0.21162454219598464
12637649333.333334 -0.9750307214999112 0.2220700162813203 9.798073851010737e-17 -5.561860199474424e-17 9.798073851010737e-17 -5.561860199474424e-17 -0.9750308704281603 0.22206936238915642
12638266666.666666 -0.9725989270510849 0.2324894128748715 9.735600348181506e-17 -5.666130464674918e-17 9.735600348181506e-17 -5.666130464674918e-17 -0.972599082959356 0.23248876064541626
12638884000.0 -0.9700557919582141 0.24288219467088398 9.67201813519556e-17 -5.76970051940742e-17 9.67201813519556e-17 -5.76970051940742e-17 -0.9700559548279797 0.24288154417863714
12639501333.333334 -0.9674016073529922 0.25324717193025176 9.607335044265949e-17 -5.872558584795318e-17 9.607335044265949e-17 -5.872558584795318e-17 -0.9674017771649269 0.25324652324950636
12640118666.666666 -0.9646366770798116 0.26358315809672467 9.541559032634947e-17 -5.974692969402782e-17 9.541559032634947e-17 -5.974692969402782e-17 -0.9646368538137995 0.2635825113015597
12640736000.0 -0.961761317660865 0.2738889699331825 9.474698181595836e-17 -6.0760920705663e-17 9.474698181595836e-17 -6.0760920705663e-17 -0.9617615012959989 0.27388832509745364
12641353333.333334 -0.9587758582600898 0.2841634276564304 9.406760695510242e-17 -6.17674437570063e-17 9.406760695510242e-17 -6.17674437570063e-17 -0.9587760487746744 0.28416278485376173
12641970666.666666 -0.9556806406453265 0.29440535507283283 9.337754900800269e-17 -6.276638463611234e-17 9.337754900800269e-17 -6.276638463611234e-17 -0.9556808380168819 0.2944047143766088
12642588000.0 -0.9524760191492717 0.3046135797126877 9.267689244934779e-17 -6.37576300578318e-17 9.267689244934779e-17 -6.37576300578318e-17 -0.9524762233545349 0.3046129411960443
12643205333.333334 -0.9491623606289081 0.31478693296447546 9.196572295399278e-17 -6.474106767663112e-17 9.196572295399278e-17 -6.474106767663112e-17 -0.9491625716438351 0.3147862967002918
12643822666.666666 -0.9457400444234703 0.3249242502087456 9.12441273865085e-17 -6.571658609931544e-17 9.12441273865085e-17 -6.571658609931544e-17 -0.9457402622232411 0.3249236162696361
12644440000.0 -0.9422094623110641 0.3350243709513056 9.051219379063253e-17 -6.668407489758682e-17 9.051219379063253e-17 -6.668407489758682e-17 -0.9422096868700846 0.3350237394096115
12645057333.333334 -0.9385710184638104 0.345086138956098 8.977001137855507e-17 -6.764342462052923e-17 8.977001137855507e-17 -6.764342462052923e-17 -0.9385712497557153 0.34508550988387926
12645674666.666666 -0.9348251294015772 0.3551084023775648 8.901767052009627e-17 -6.85945268069444e-17 8.901767052009627e-17 -6.85945268069444e-17 -0.9348253673992322 0.3551077758465909
12646292000.0 -0.930972223944225 0.3650900138926918 8.825526273170592e-17 -6.953727399762812e-17 8.825526273170592e-17 -6.953727399762812e-17 -0.9309724686197317 0.36508938997443524
12646909333.333334 -0.9270127431626481 0.3750298308320073 8.748288066542444e-17 -7.047155974740945e-17 8.748288066542444e-17 -7.047155974740945e-17 -0.9270129944873458 0.37502920959763386
12647526666.666666 -0.9229471403281833 0.3849267153106574 8.670061809761211e-17 -7.139727863720063e-17 8.670061809761211e-17 -7.139727863720063e-17 -0.9229473982726533 0.38492609683101886
12648144000.0 -0.9187758808607233 0.39477953435863966 8.590856991762374e-17 -7.231432628582947e-17 8.590856991762374e-17 -7.231432628582947e-17 -0.9187761453947929 0.39477891870426607
12648761333.333334 -0.9144994422754865 0.40458716005039913 8.510683211633455e-17 -7.322259936178014e-17 8.510683211633455e-17 -7.322259936178014e-17 -0.9144997133682299 0.40458654729148946
12649378666.666666 -0.9101183141283481 0.41434846963394967 8.429550177454504e-17 -7.412199559480148e-17 8.429550177454504e-17 -7.412199559480148e-17 -0.9101185917480931 0.4143478598403651
12649996000.0 -0.905632997959745 0.4240623456595352 8.347467705125165e-17 -7.501241378740216e-17 8.347467705125165e-17 -7.501241378740216e-17 -0.905633282074075 0.42406173890079063
12650613333.333334 -0.9010440072372898 0.4337276761074729 8.264445717181288e-17 -7.589375382619694e-17 8.264445717181288e-17 -7.589375382619694e-17 -0.9010442978130481 0.43372707245272896
12651230666.666666 -0.8963518672970431 0.44334335451535284 8.180494241599896e-17 -7.676591669312088e-17 8.180494241599896e-17 -7.676591669312088e-17 -0.8963521643003359 0.44334275403340806
12651848000.0 -0.8915571152832503 0.4529082801049592 8.095623410589244e-17 -7.762880447654363e-17 8.095623410589244e-17 -7.762880447654363e-17 -0.8915574186794513 0.45290768286424166
12652465333.333334 -0.8866603000869587 0.46242135790805206 8.009843459371431e-17 -7.848232038220716e-17 8.009843459371431e-17 -7.848232038220716e-17 -0.8866606098407147 0.46242076397661347
12653082666.666666 -0.8816619822831911 0.471881498891722 7.923164724951541e-17 -7.932636874405042e-17 7.923164724951541e-17 -7.932636874405042e-17 -0.8816622983584226 0.4718809083372272
12653700000.0 -0.8765627340666327 0.4812876200833066 7.8355976448731e-17 -8.01608550349198e-17 7.8355976448731e-17 -8.01608550349198e-17 -0.8765630564265424 0.4812870329730288
12654317333.333334 -0.8713631391863207 0.490638644694019 7.747152755967838e-17 -8.09856858770905e-17 7.747152755967838e-17 -8.09856858770905e-17 -0.8713634677933942 0.49063806109482955
12654934666.666666 -0.866063792878681 0.49993350224246447 7.657840693088892e-17 -8.180076905270295e-17 7.657840693088892e-17 -8.180076905270295e-17 -0.8660641276946922 0.4999329222208264
12655552000.0 -0.8606653017993839 0.5091711286771847 7.56767218783533e-17 -8.260601351403752e-17 7.56767218783533e-17 -8.260601351403752e-17 -0.8606656427854006 0.5091705522991453
12656169333.333334 -0.8551682839540259 0.5183504664982476 7.476658067268135e-17 -8.340132939363084e-17 7.476658067268135e-17 -8.340132939363084e-17 -0.8551686310704117 0.51834989382943
12656786666.666666 -0.8495733686272359 0.5274704648785508 7.384809252611034e-17 -8.418662801429073e-17 7.384809252611034e-17 -8.418662801429073e-17 -0.8495737218336588 0.5274698959841482
12657404000.0 -0.8438811963107132 0.5365300797839985 7.292136757944495e-17 -8.496182189893756e-17 7.292136757944495e-17 -8.496182189893756e-17 -0.8438815555661466 0.5365295147287649
12658021333.333334 -0.8380924186298704 0.5455282740930641 7.198651688887675e-17 -8.572682478031606e-17 7.198651688887675e-17 -8.572682478031606e-17 -0.8380927838926002 0.5455277129413083
12658638666.666666 -0.8322076982693193 0.5544640177154019 7.104365241272077e-17 -8.648155161054965e-17 7.104365241272077e-17 -8.648155161054965e-17 -0.8322080694969466 0.5544634605309788
12659256000.0 -0.8262277088968483 0.563336287710004 7.009288699801382e-17 -8.722591857057766e-17 7.009288699801382e-17 -8.722591857057766e-17 -0.8262280860462968 0.563335734556309
12659873333.333334 -0.8201531350864462 0.5721440684020914 6.913433436706282e-17 -8.795984307940959e-17 6.913433436706282e-17 -8.795984307940959e-17 -0.8201535181139652 0.5721435193420519
12660490666.666666 -0.8139846722399344 0.5808863514993876 6.816810910387394e-17 -8.868324380324881e-17 6.816810910387394e-17 -8.868324380324881e-17 -0.8139850611011049 0.5808858065954564
12661108000.0 -0.8077230265071966 0.5895621362077776 6.719432664046135e-17 -8.93960406644872e-17 6.719432664046135e-17 -8.93960406644872e-17 -0.8077234211569357 0.5895615955219253
12661725333.333334 -0.8013689147055694 0.5981704293455503 6.621310324312369e-17 -9.0098154850504e-17 6.621310324312369e-17 -9.0098154850504e-17 -0.8013693150981372 0.5981698929392595
12662342666.666666 -0.7949230642376038 0.6067102454573534 6.522455599856516e-17 -9.078950882236181e-17 6.522455599856516e-17 -9.078950882236181e-17 -0.7949234703266058 0.6067097133916095
12662960000.0 -0.7883862130078713 0.615180606926884 6.422880279996733e-17 -9.147002632332045e-17 6.422880279996733e-17 -9.147002632332045e-17 -0.7883866247462674 0.6151800792621712
12663577333.333334 -0.7817591093384816 0.6235805440888346 6.322596233295758e-17 -9.213963238721032e-17 6.322596233295758e-17 -9.213963238721032e-17 -0.7817595266785874 0.6235800208851259
12664194666.666666 -0.7750425118834091 0.6319090953398908 6.221615406149289e-17 -9.279825334664974e-17 6.221615406149289e-17 -9.279825334664974e-17 -0.7750429347769052 0.6319085766566437
12664812000.0 -0.7682371895416487 0.6401653072488175 6.119949821365908e-17 -9.344581684110863e-17 6.119949821365908e-17 -9.344581684110863e-17 -0.7682376179395843 0.6401647931449658
12665429333.333334 -0.7613439213691741 0.6483482346656249 6.017611576738372e-17 -9.408225182481821e-17 6.017611576738372e-17 -9.408225182481821e-17 -0.7613443552219734 0.6483477251995728
12666046666.666666 -0.7543634964898469 0.6564569408296603 5.914612843608376e-17 -9.470748857451541e-17 5.914612843608376e-17 -9.470748857451541e-17 -0.7543639357473142 0.6564564360592755
12666664000.0 -0.7472967140048746 0.6644904974770821 5.810965865418984e-17 -9.532145869705607e-17 5.810965865418984e-17 -9.532145869705607e-17 -0.7472971586162004 0.6644899974596885
12667281333.333334 -0.7401443829015922 0.672447984946824 5.706682956266004e-17 -9.592409513682976e-17 5.706682956266004e-17 -9.592409513682976e-17 -0.7401448328153594 0.6724474897391967
12667898666.666666 -0.7329073219606671 0.6803284922860915 5.6017764994355e-17 -9.651533218305425e-17 5.6017764994355e-17 -9.651533218305425e-17 -0.732907777124856 0.6803280019444486
12668516000.0 -0.7255863596623601 0.688131117354641 5.4962589459348446e-17 -9.709510547690265e-17 5.4962589459348446e-17 -9.709510547690265e-17 -0.725586820024356 0.6881306319346392
12669133333.333334 -0.7181823340918628 0.6958549669278699 5.390142813023121e-17 -9.766335201843399e-17 5.390142813023121e-17 -9.766335201843399e-17 -0.7181827995984607 0.6958544864845961
12669750666.666666 -0.7106960928431578 0.7034991567992757 5.283440682723612e-17 -9.822001017342356e-17 5.283440682723612e-17 -9.822001017342356e-17 -0.710696563440569 0.7034986813872426
12670368000.0 -0.7031284929220686 0.7110628118815977 5.176165200337364e-17 -9.876501967998673e-17 5.176165200337364e-17 -9.876501967998673e-17 -0.703128968555926 0.7110623415547355
