! Parameters = {f0=12700.012000; bw=77.238000; Q=6100.000000; N=10; m_0_1=1.343038; m_1_1=1.380825; m_1_2=1.177850; m_2_2=1.380176; m_2_3=0.814813; m_2_8=0.004216; m_2_9=0.040920; m_3_3=1.378239; m_3_4=0.703342; m_3_7=0.004816; m_3_8=-0.092272; m_3_9=0.004216; m_4_4=1.375314; m_4_5=0.539677; m_4_6=0.008333; m_4_7=-0.112821; m_4_8=0.004816; m_5_5=1.375696; m_5_6=0.947032; m_5_7=0.008333; m_6_6=1.375695; m_6_7=0.540019; m_7_7=1.375328; m_7_8=0.703460; m_8_8=1.378237; m_8_9=0.815126; m_9_9=1.380171; m_9_10=1.178928; m_10_10=1.380815; m_10_11=1.343833}
!
! Created with skrf (http://scikit-rf.org).
# Hz S RI R 50.0 
!freq ReS11 ImS11 ReS21 ImS21 ReS12 ImS12 ReS22 ImS22
12607400000.0 0.8119237159461488 0.5837635475806968 -1.456391035081289e-16 -5.0756765944377894e-17 -1.456391035081289e-16 -5.0756765944377894e-17 0.8119233029612904 0.5837641219775596
12608017333.333334 0.8192615979963471 0.5734199456317108 -1.4624677590959616e-16 -4.8883172144971394e-17 -1.4624677590959616e-16 -4.8883172144971394e-17 0.8192611923489469 0.5734205251914029
12608634666.666666 0.8264677144218727 0.5629841179092784 -1.4683035918068793e-16 -4.7002339636973506e-17 -1.4683035918068793e-16 -4.7002339636973506e-17 0.8264673161764512 0.5629847025380859
12609252000.0 0.8335409062298266 0.5524577428558326 -1.4738976758877457e-16 -4.5114577961244466e-17 -1.4738976758877457e-16 -4.5114577961244466e-17 0.8335405154497075 0.5524583324592349
12609869333.333334 0.8404800358062253 0.541842513476904 -1.479249193765158e-16 -4.3220197667249153e-17 -1.479249193765158e-16 -4.3220197667249153e-17 0.8404796525535254 0.5418431079595901
12610486666.666666 0.8472839870989021 0.5311401370689198 -1.4843573677362379e-16 -4.131951026206662e-17 -1.4843573677362379e-16 -4.131951026206662e-17 0.8472836114345218 0.5311407363348034
12611104000.0 0.8539516657971301 0.5203523349444201 -1.4892214600800752e-16 -3.941282815913707e-17 -1.4892214600800752e-16 -3.941282815913707e-17 0.8539512977807439 0.5203529388966552
12611721333.333334 0.8604819995074428 0.5094808421554994 -1.4938407731620182e-16 -3.7500464627092066e-17 -1.4938407731620182e-16 -3.7500464627092066e-17 0.8604816391974885 0.5094814506964954
12612338666.666666 0.8668739379262045 0.4985274072146067 -1.4982146495319707e-16 -3.55827337382542e-17 -1.4982146495319707e-16 -3.55827337382542e-17 0.8668735853798762 0.49852802024604526
12612956000.0 0.8731264530086198 0.4874937918131765 -1.5023424720157308e-16 -3.365995031716108e-17 -1.5023424720157308e-16 -3.365995031716108e-17 0.8731261082818568 0.4874944092360263
12613573333.333334 0.8792385391339081 0.476381770538582 -1.506223663799872e-16 -3.173242988893636e-17 -1.506223663799872e-16 -3.173242988893636e-17 0.8792382022813855 0.4763823922531148
12614190666.666666 0.8852092132671533 0.4651931305885229 -1.5098576885099977e-16 -2.980048862756639e-17 -1.5098576885099977e-16 -2.980048862756639e-17 0.8852088843422756 0.46519375649433053
12614808000.0 0.8910375151173592 0.453929671483683 -1.5132440502822868e-16 -2.786444330413416e-17 -1.5132440502822868e-16 -2.786444330413416e-17 0.8910371941722512 0.45393030147969327
12615425333.333334 0.8967225072920004 0.44259320477810304 -1.5163822938285933e-16 -2.5924611234890848e-17 -1.5163822938285933e-16 -2.5924611234890848e-17 0.8967221943774967 0.44259383876259484
12616042666.666666 0.9022632754476283 0.43118555376812073 -1.519272004494714e-16 -2.3981310229344066e-17 -1.519272004494714e-16 -2.3981310229344066e-17 0.9022629706132689 0.43118619163874256
12616660000.0 0.9076589284370129 0.419708553198974 -1.5219128083121133e-16 -2.2034858538243483e-17 -1.5219128083121133e-16 -2.2034858538243483e-17 0.9076586317310331 0.41970919485275915
12617277333.333334 0.9129085984525638 0.40816404896950204 -1.5243043720429765e-16 -2.0085574801514574e-17 -1.5243043720429765e-16 -2.0085574801514574e-17 0.9129083099218865 0.4081646943028853
12617894666.666666 0.9180114411656393 0.3965538978358285 -1.526446403218547e-16 -1.8133777996201437e-17 -1.526446403218547e-16 -1.8133777996201437e-17 0.9180111608558676 0.3965545467446627
12618512000.0 0.9229666358626752 0.38487996711200656 -1.5283386501709743e-16 -1.6179787384236264e-17 -1.5283386501709743e-16 -1.6179787384236264e-17 0.9229663638180866 0.3848806194915801
12619129333.333334 0.9277733855769259 0.3731441343702603 -1.5299809020582352e-16 -1.4223922460399635e-17 -1.5299809020582352e-16 -1.4223922460399635e-17 0.9277731218404643 0.37314479011531393
12619746666.666666 0.9324309172167436 0.3613482871388011 -1.5313729888826444e-16 -1.2266502900046285e-17 -1.5313729888826444e-16 -1.2266502900046285e-17 0.9324306618300113 0.36134894614354374
12620364000.0 0.9369384816899713 0.34949432259808505 -1.5325147815025443e-16 -1.0307848506952042e-17 -1.5325147815025443e-16 -1.0307848506952042e-17 0.9369382346932255 0.34949498475621277
12620981333.333334 0.9412953540243033 0.3375841472760007 -1.5334061916373674e-16 -8.348279161151757e-18 -1.5334061916373674e-16 -8.348279161151757e-18 0.9412951154564468 0.3375848124807122
12621598666.666666 0.9455008334839484 0.32561967674107417 -1.534047171866077e-16 -6.388114766706733e-18 -1.534047171866077e-16 -6.388114766706733e-18 0.9455006033825252 0.3256203448850888
12622216000.0 0.9495542436823874 0.3136028352942183 -1.5344377156188922e-16 -4.427675199575761e-18 -1.5344377156188922e-16 -4.427675199575761e-18 0.9495540220835753 0.313603506269793
12622833333.333334 0.9534549326910446 0.3015355556595594 -1.5345778571623873e-16 -2.467280255458894e-18 -1.5345778571623873e-16 -2.467280255458894e-18 0.9534547196296513 0.3015362293585065
12623450666.666666 0.9572022731442177 0.2894197786733746 -1.5344676715779266e-16 -5.072495977269998e-19 -1.5344676715779266e-16 -5.072495977269998e-19 0.9572020686536752 0.28942045498707925
12624068000.0 0.9607956623399463 0.2772574529720466 -1.5341072747334745e-16 1.4520972946939619e-18 -1.5341072747334745e-16 1.4520972946939619e-18 0.9607954664523035 0.2772581317914837
12624685333.333334 0.9642345223370082 0.26505053467843653 -1.533496823248739e-16 3.410441179301e-18 -1.533496823248739e-16 3.410441179301e-18 0.9642343350829276 0.26505121589418845
12625302666.666666 0.9675183000477616 0.2528009870876536 -1.5326365144537105e-16 5.367463101976895e-18 -1.5326365144537105e-16 5.367463101976895e-18 0.9675181214565151 0.2528016705899287
12625920000.0 0.9706464673272415 0.24051078035079787 -1.5315265863405633e-16 7.322844448885644e-18 -1.5315265863405633e-16 7.322844448885644e-18 0.9706462974267038 0.2405114660294469
12626537333.333334 0.9736185210579374 0.22818189115869422 -1.5301673175089674e-16 9.276266998257327e-18 -1.5301673175089674e-16 9.276266998257327e-18 0.973618359874584 0.22818257890322904
12627154666.666666 0.9764339832308486 0.21581630242347896 -1.5285590271047944e-16 1.1227412972123715e-17 -1.5285590271047944e-16 1.1227412972123715e-17 0.9764338307897495 0.21581699212308986
12627772000.0 0.9790924010223401 0.20341600295973156 -1.52670207475218e-16 1.3175965088013248e-17 -1.52670207475218e-16 1.3175965088013248e-17 0.9790922573471571 0.20341669450330524
12628389333.333334 0.981593346866899 0.1909829871649375 -1.5245968604791698e-16 1.5121606610362817e-17 -1.5245968604791698e-16 1.5121606610362817e-17 0.9815932119798834 0.19098368044107525
12629006666.666666 0.9839364185260011 0.17851925469827623 -1.522243824636587e-16 1.7064021402071848e-17 -1.522243824636587e-16 1.7064021402071848e-17 0.9839362924479871 0.1785199495953113
12629624000.0 0.9861212391527214 0.16602681015939602 -1.5196434478105598e-16 1.9002893975721933e-17 -1.5196434478105598e-16 1.9002893975721933e-17 0.9861211219031237 0.1660275065654118
12630241333.333334 0.9881474573523884 0.15350766276578187 -1.5167962507284438e-16 2.0937909544765968e-17 -1.5167962507284438e-16 2.0937909544765968e-17 0.9881473489492012 0.15350836056863015
12630858666.666666 0.9900147472390834 0.14096382602971624 -1.5137027941581809e-16 2.286875407461749e-17 -1.5137027941581809e-16 2.286875407461749e-17 0.9900146476988773 0.14096452511703533
12631476000.0 0.9917228084880887 0.12839731743421173 -1.510363678801247e-16 2.4795114333528142e-17 -1.510363678801247e-16 2.4795114333528142e-17 0.9917227178260045 0.12839801769344392
12632093333.333334 0.9932713663841392 0.11581015810880979 -1.506779545179151e-16 2.6716677943323503e-17 -1.506779545179151e-16 2.6716677943323503e-17 0.9932712846138926 0.1158108594272204
12632710666.666666 0.9946601718656177 0.10320437250457218 -1.5029510735134347e-16 2.8633133430005586e-17 -1.5029510735134347e-16 2.8633133430005586e-17 0.994660098999489 0.10320507476926677
12633328000.0 0.9958890015646558 0.09058198806802607 -1.4988789835991554e-16 3.0544170274230694e-17 -1.4988789835991554e-16 3.0544170274230694e-17 0.9958889376134943 0.09058269116596929
12633945333.333334 0.9969576578430179 0.07794503491541928 -1.494564034672221e-16 3.244947896148381e-17 -1.494564034672221e-16 3.244947896148381e-17 0.9969576028162382 0.07794573873345279
12634562666.666666 0.9978659688238908 0.06529554550626451 -1.4900070252701178e-16 3.4348751032189325e-17 -1.4900070252701178e-16 3.4348751032189325e-17 0.9978659227294697 0.06529624993112511
12635180000.0 0.9986137884195351 0.05263555431633619 -1.485208793086358e-16 3.624167913158728e-17 -1.485208793086358e-16 3.624167913158728e-17 0.9986137512640128 0.0526362592346742
12635797333.333334 0.9992009963547933 0.03996709751022921 -1.4801702148186908e-16 3.812795705937621e-17 -1.4801702148186908e-16 3.812795705937621e-17 0.9992009681432732 0.03996780280862678
12636414666.666666 0.9996274981864034 0.027292212614497765 -1.4748922060107952e-16 4.000727981924173e-17 -1.4748922060107952e-16 4.000727981924173e-17 0.9996274789225492 0.027292918179486914
12637032000.0 0.9998932253182257 0.014612938189155582 -1.4693757208880058e-16 4.1879343668042526e-17 -1.4693757208880058e-16 4.1879343668042526e-17 0.9998932150042604 0.014613643907236505
12637649333.333334 0.9999981350122445 0.0019313135004294618 -1.4636217521864757e-16 4.374384616489924e-17 -1.4636217521864757e-16 4.374384616489924e-17 0.9999981336489532 0.001932019258088875
12638266666.666666 0.9999422103954593 -0.010750621807452263 -1.4576313309763785e-16 4.560048621995961e-17 -1.4576313309763785e-16 4.560048621995961e-17 0.9999422179821875 -0.010749916123722942
12638884000.0 0.9997254604625915 -0.023430828040475776 -1.4514055264788088e-16 4.744896414296616e-17 -1.4514055264788088e-16 4.744896414296616e-17 0.999725476997245 -0.02343012254416216
12639501333.333334 0.9993479200746416 -0.03610726578255414 -1.4449454458765395e-16 4.9288981691576596e-17 -1.4449454458765395e-16 4.9288981691576596e-17 0.9993479455536862 -0.03610656058710058
12640118666.666666 0.9988096499532793 -0.048777896223706436 -1.438252234118826e-16 5.11202421193802e-17 -1.438252234118826e-16 5.11202421193802e-17 0.9988096843717454 -0.04877719144249791
12640736000.0 0.9981107366710718 -0.06144068148819628 -1.4313270737196756e-16 5.2942450223782367e-17 -1.4313270737196756e-16 5.2942450223782367e-17 0.9981107800225496 -0.061439977234539936
12641353333.333334 0.997251292637584 -0.074093584961668 -1.4241711845508026e-16 5.4755312393414915e-17 -1.4241711845508026e-16 5.4755312393414915e-17 0.9972513449142296 -0.07409288134877517
12641970666.666666 0.9962314560812592 -0.0867345716194995 -1.416785823627798e-16 5.655853665547997e-17 -1.416785823627798e-16 5.655853665547997e-17 0.996231517273794 -0.08673386876046749
12642588000.0 0.995051391027224 -0.09936160835348043 -1.4091722848909662e-16 5.83518327226379e-17 -1.4091722848909662e-16 5.83518327226379e-17 0.9950514611249356 -0.09936090636127407
12643205333.333334 0.9937112872708957 -0.11197266429903358 -1.4013318989797735e-16 6.013491203972384e-17 -1.4013318989797735e-16 6.013491203972384e-17 0.993711366261641 -0.11197196328646734
12643822666.666666 0.9922113603474412 -0.12456571116196082 -1.3932660330015607e-16 6.190748783011414e-17 -1.3932660330015607e-16 6.190748783011414e-17 0.9922114482176485 -0.12456501124168072
12644440000.0 0.990551851497114 -0.13713872354460627 -1.384976090294566e-16 6.366927514175387e-17 -1.384976090294566e-16 6.366927514175387e-17 0.9905519482317849 -0.1371380248290716
12645057333.333334 0.9887330276265013 -0.14968967927127216 -1.3764635101849577e-16 6.541999089290859e-17 -1.3764635101849577e-16 6.541999089290859e-17 0.9887331332092126 -0.14968898187273744
12645674666.666666 0.9867551812655401 -0.16221655971390628 -1.3677297677381386e-16 6.715935391758603e-17 -1.3677297677381386e-16 6.715935391758603e-17 0.9867552956784477 -0.16221586374440333
12646292000.0 0.9846186305204667 -0.17471735011670952 -1.3587763735040255e-16 6.888708501068037e-17 -1.3587763735040255e-16 6.888708501068037e-17 0.9846187537443082 -0.17471665568802944
12646909333.333334 0.9823237190227018 -0.1871900399198979 -1.349604873257443e-16 7.060290697262606e-17 -1.349604873257443e-16 7.060290697262606e-17 0.9823238510367986 -0.1871893471435728
12647526666.666666 0.9798708158735558 -0.19963262308323879 -1.3402168477319275e-16 7.230654465389162e-17 -1.3402168477319275e-16 7.230654465389162e-17 0.9798709566558207 -0.19963193207052476
12648144000.0 0.9772603155848362 -0.21204309840885963 -1.3306139123485706e-16 7.399772499899915e-17 -1.3306139123485706e-16 7.399772499899915e-17 0.97726046511177 -0.21204240927071757
12648761333.333334 0.9744926380154526 -0.22441946986277353 -1.3207977169390262e-16 7.567617709023852e-17 -1.3207977169390262e-16 7.567617709023852e-17 0.9744927962621537 -0.2244187827098522
12649378666.666666 0.97156822830385 -0.23675974689613433 -1.3107699454632853e-16 7.734163219097137e-17 -1.3107699454632853e-16 7.734163219097137e-17 0.9715683952440185 -0.23675906183875292
12649996000.0 0.9684875567964428 -0.2490619447652758 -1.3005323157215553e-16 7.899382378863736e-17 -1.3005323157215553e-16 7.899382378863736e-17 0.9684877324023811 -0.24906126191340522
12650613333.333334 0.9652511189718899 -0.261324084851201 -1.2900865790611178e-16 8.063248763731295e-17 -1.2900865790611178e-16 8.063248763731295e-17 0.9652513032145109 -0.26132340431444706
12651230666.666666 0.9618594353615683 -0.27354419497720867 -1.2794345200779086e-16 8.225736179987886e-17 -1.2794345200779086e-16 8.225736179987886e-17 0.9618596282103976 -0.2735435168647939
12651848000.0 0.9583130514656603 -0.28572030972680157 -1.2685779563120778e-16 8.386818668990262e-17 -1.2685779563120778e-16 8.386818668990262e-17 0.9583132528888426 -0.28571963414754786
12652465333.333334 0.9546125376655031 -0.29785047075946214 -1.2575187379394764e-16 8.546470511294068e-17 -1.2575187379394764e-16 8.546470511294068e-17 0.9546127476298082 -0.2978497978217737
12653082666.666666 0.950758489131974 -0.309932727125243 -1.246258747456769e-16 8.704666230761562e-17 -1.246258747456769e-16 8.704666230761562e-17 0.9507587076028013 -0.30993205693708875
12653700000.0 0.9467515257294614 -0.3219651355795243 -1.2347998993620942e-16 8.861380598617126e-17 -1.2347998993620942e-16 8.861380598617126e-17 0.9467517526708442 -0.3219644682484199
12654317333.333334 0.9425922919165476 -0.3339457608943621 -1.2231441398306176e-16 9.016588637461809e-17 -1.2231441398306176e-16 9.016588637461809e-17 0.9425925272911618 -0.33394509652735377
12654934666.666666 0.9382814566420424 -0.34587267617071416 -1.211293446384632e-16 9.170265625250877e-17 -1.211293446384632e-16 9.170265625250877e-17 0.9382817004112113 -0.3458720148743608
12655552000.0 0.933819713237511 -0.3577439631479712 -1.199249827558865e-16 9.322387099225234e-17 -1.199249827558865e-16 9.322387099225234e-17 0.9338199653612108 -0.35774330502832735
12656169333.333334 0.9292077793058893 -0.369557712512163 -1.187015322561405e-16 9.47292885979237e-17 -1.187015322561405e-16 9.47292885979237e-17 0.9292080397427567 -0.3695570576747621
12656786666.666666 0.9244463966058049 -0.38131202420373306 -1.1745920009287532e-16 9.62186697437584e-17 -1.1745920009287532e-16 9.62186697437584e-17 0.9244466653131437 -0.38131137275357013
12657404000.0 0.9195363309324995 -0.3930050077225485 -1.1619819621768022e-16 9.769177781210095e-17 -1.1619819621768022e-16 9.769177781210095e-17 0.9195366078662893 -0.3930043597640645
12658021333.333334 0.9144783719945654 -0.4046347824322265 -1.1491873354470184e-16 9.914837893090488e-17 -1.1491873354470184e-16 9.914837893090488e-17 0.9144786571094632 -0.404634138069289
12658638666.666666 0.9092733332869661 -0.41619947786249545 -1.136210279147447e-16 1.0058824201083076e-16 -1.136210279147447e-16 1.0058824201083076e-16 0.9092736265363223 -0.4161988371983857
12659256000.0 0.9039220519601177 -0.427697234010245 -1.1230529805896224e-16 1.020111387818086e-16 -1.1230529805896224e-16 1.020111387818086e-16 0.903922353295976 -0.42769659714763786
12659873333.333334 0.8984253886853759 -0.4391262016383624 -1.1097176556205805e-16 1.0341684382916645e-16 -1.1097176556205805e-16 1.0341684382916645e-16 0.8984256980584843 -0.4391255686793114
12660490666.666666 0.8927842275165468 -0.45048454257331305 -1.0962065482507793e-16 1.0480513462923586e-16 -1.0962065482507793e-16 1.0480513462923586e-16 0.8927845448763673 -0.45048391361923495
12661108000.0 0.8869994757476228 -0.46177043000093426 -1.0825219302766096e-16 1.0617579158457066e-16 -1.0825219302766096e-16 1.0617579158457066e-16 0.8869998010423354 -0.4617698051525907
12661725333.333334 0.8810720637670064 -0.4729820487599426 -1.0686661009000298e-16 1.0752859805852119e-16 -1.0686661009000298e-16 1.0752859805852119e-16 0.8810723969435229 -0.4729814281174262
12662342666.666666 0.875002944907776 -0.48411759563408135 -1.054641386342372e-16 1.0886334040946568e-16 -1.054641386342372e-16 1.0886334040946568e-16 0.8750032859117437 -0.48411697929679776
12662960000.0 0.8687930952944062 -0.49517527964203767 -1.0404501394548604e-16 1.1017980802444239e-16 -1.0404501394548604e-16 1.1017980802444239e-16 0.868793444070219 -0.49517466770869045
12663577333.333334 0.8624435136856612 -0.506153322325692 -1.0260947393245171e-16 1.1147779335231712e-16 -1.0260947393245171e-16 1.1147779335231712e-16 0.8624438701764694 -0.5061527148942675
12664194666.666666 0.8559552213141298 -0.5170499580358602 -1.0115775908763218e-16 1.1275709193640371e-16 -1.0115775908763218e-16 1.1275709193640371e-16 0.855955585461848 -0.5170493552036105
12664812000.0 0.8493292617218915 -0.5278634342164191 -9.969011244706777e-17 1.1401750244662573e-16 -9.969011244706777e-17 1.1401750244662573e-16 0.8493296334672092 -0.527862836079848
12665429333.333334 0.8425667005925593 -0.5385920116863718 -9.820677954974579e-17 1.152588267111024e-16 -9.820677954974579e-17 1.152588267111024e-16 0.8425670798749498 -0.538591418341218
12666046666.666666 0.8356686255802112 -0.5492339649190371 -9.670800839662117e-17 1.1648086974720483e-16 -9.670800839662117e-17 1.1648086974720483e-16 0.8356690123379399 -0.5492333764602588
12666664000.0 0.828636146134031 -0.5597875823202455 -9.519404940915166e-17 1.1768343979216096e-16 -9.519404940915166e-17 1.1768343979216096e-16 0.8286365403041693 -0.559786998842007
12667281333.333334 0.82147039332021 -0.570251166503098 -9.366515538762089e-17 1.1886634833298768e-16 -9.366515538762089e-17 1.1886634833298768e-16 0.8214707948386427 -0.5702505880987531
12667898666.666666 0.8141725196399096 -0.5806230345611557 -9.212158146892367e-17 1.2002941013601804e-16 -9.212158146892367e-17 1.2002941013601804e-16 0.8141729284413451 -0.5806224613232325
12668516000.0 0.8067436988437993 -0.5909015183392484 -9.056358508409269e-17 1.2117244327579385e-16 -9.056358508409269e-17 1.2117244327579385e-16 0.8067441148617821 -0.5909009503594356
12669133333.333334 0.7991851257434733 -0.6010849647014915 -8.899142591542229e-17 1.2229526916344797e-16 -8.899142591542229e-17 1.2229526916344797e-16 0.7991855489103933 -0.601084402070623
12669750666.666666 0.7914980160191867 -0.6111717357973091 -8.740536585328181e-17 1.2339771257449833e-16 -8.740536585328181e-17 1.2339771257449833e-16 0.7914984462662906 -0.6111711786053496
