! Parameters = {f0=12700.012000; bw=77.238000; Q=6100.000000; N=10; m_0_1=1.195891; m_1_1=-0.826382; m_1_2=1.030703; m_2_2=-0.827031; m_2_3=0.667666; m_2_8=-0.003142; m_2_9=0.033562; m_3_3=-0.828968; m_3_4=0.556195; m_3_7=-0.002542; m_3_8=-0.099630; m_3_9=-0.003142; m_4_4=-0.831893; m_4_5=0.392530; m_4_6=0.000975; m_4_7=-0.120179; m_4_8=-0.002542; m_5_5=-0.831511; m_5_6=0.799885; m_5_7=0.000975; m_6_6=-0.831512; m_6_7=0.392872; m_7_7=-0.831879; m_7_8=0.556313; m_8_8=-0.828970; m_8_9=0.667979; m_9_9=-0.827036; m_9_10=1.031781; m_10_10=-0.826392; m_10_11=1.196686}
!
! Created with skrf (http://scikit-rf.org).
# Hz S RI R 50.0 
!freq ReS11 ImS11 ReS21 ImS21 ReS12 ImS12 ReS22 ImS22
12607400000.0 0.0150196263286481 0.999887199050368 -2.2958568190016052e-17 -7.343017102155051e-17 -2.2958568190016052e-17 -7.343017102155051e-17 0.015018996205096714 0.999887208515458
12608017333.333334 0.02335015558910229 0.9997273479473334 -2.3571468028579073e-17 -7.32198967265128e-17 -2.3571468028579073e-17 -7.32198967265128e-17 0.023349525597138963 0.999727362661557
12608634666.666666 0.03167906380312598 0.9994980925026326 -2.418245602116082e-17 -7.300451175190902e-17 -2.418245602116082e-17 -7.300451175190902e-17 0.03167843398647181 0.999498112464455
12609252000.0 0.04000577275070498 0.9991994486319852 -2.479148959471923e-17 -7.278403337150249e-17 -2.479148959471923e-17 -7.278403337150249e-17 0.04000514315306457 0.9991994738395065
12609869333.333334 0.04832970436444921 0.9988314370682815 -2.5398526331433178e-17 -7.255847921333721e-17 -2.5398526331433178e-17 -7.255847921333721e-17 0.04832907502950771 0.9988314675192387
12610486666.666666 0.05665028076975271 0.9983940833601485 -2.6003523971627286e-17 -7.232786725835775e-17 -2.6003523971627286e-17 -7.232786725835775e-17 0.05664965174117277 0.9983941190519143
12611104000.0 0.06496692432511018 0.997887417870162 -2.6606440416749835e-17 -7.209221583898004e-17 -2.6606440416749835e-17 -7.209221583898004e-17 0.06496629564652881 0.9978874587997439
12611721333.333334 0.07327905766184961 0.9973114757727571 -2.720723373223566e-17 -7.18515436376758e-17 -2.720723373223566e-17 -7.18515436376758e-17 0.07327842937687541 0.9973115219368028
12612338666.666666 0.08158610372449927 0.9966662970517763 -2.780586215045873e-17 -7.160586968549475e-17 -2.780586215045873e-17 -7.160586968549475e-17 0.08158547587670908 0.9966663484465673
12612956000.0 0.08988748581084813 0.9959519264976844 -2.8402284073606143e-17 -7.135521336058683e-17 -2.8402284073606143e-17 -7.135521336058683e-17 0.08988685844378431 0.9959519831191415
12613573333.333334 0.09818262761175611 0.9951684137044817 -2.8996458076563774e-17 -7.109959438669193e-17 -2.8996458076563774e-17 -7.109959438669193e-17 0.0981820007689234 0.9951684755481629
12614190666.666666 0.10647095325133361 0.9943158130662495 -2.9588342909784176e-17 -7.083903283160659e-17 -2.9588342909784176e-17 -7.083903283160659e-17 0.10647032697619592 0.9943158801273494
12614808000.0 0.11475188732694805 0.9933941837733632 -3.017789750214105e-17 -7.057354910562697e-17 -3.017789750214105e-17 -7.057354910562697e-17 0.1147512616629259 0.993394256046717
12615425333.333334 0.12302485494908649 0.9924035898084007 -3.0765080963769946e-17 -7.030316395996862e-17 -3.0765080963769946e-17 -7.030316395996862e-17 0.12302422993955342 0.9924036672884796
12616042666.666666 0.13128928178129354 0.9913440999416886 -3.13498525888951e-17 -7.002789848516226e-17 -3.13498525888951e-17 -7.002789848516226e-17 0.13128865746957366 0.9913441826226049
12616660000.0 0.1395445940800443 0.9902157877265333 -3.1932171858641896e-17 -6.974777410942648e-17 -3.1932171858641896e-17 -6.974777410942648e-17 0.139543970509409 0.990215875602039
12617277333.333334 0.14779021873460366 0.9890187314941118 -3.2511998443839164e-17 -6.946281259701495e-17 -3.2511998443839164e-17 -6.946281259701495e-17 0.1477895959482685 0.9890188245575972
12617894666.666666 0.15602558330670058 0.9877530143480442 -3.30892922077871e-17 -6.917303604655014e-17 -3.30892922077871e-17 -6.917303604655014e-17 0.15602496134782257 0.9877531125925415
12618512000.0 0.1642501160704658 0.9864187241586011 -3.366401320904992e-17 -6.887846688931503e-17 -3.366401320904992e-17 -6.887846688931503e-17 0.1642494949821403 0.9864188275767831
12619129333.333334 0.17246324605189803 0.985015953556634 -3.4236121704194183e-17 -6.857912788754095e-17 -3.4236121704194183e-17 -6.857912788754095e-17 0.1724626258771558 0.9850160621408157
12619746666.666666 0.18066440306867187 0.9835447999271225 -3.480557815053171e-17 -6.827504213266294e-17 -3.480557815053171e-17 -6.827504213266294e-17 0.18066378385047582 0.9835449136692598
12620364000.0 0.188853017769748 0.9820053654024007 -3.537234320884316e-17 -6.796623304355441e-17 -3.537234320884316e-17 -6.796623304355441e-17 0.18885239955099076 0.9820054842940934
12620981333.333334 0.19702852167464938 0.9803977568551172 -3.5936377746086395e-17 -6.76527243647396e-17 -3.5936377746086395e-17 -6.76527243647396e-17 0.19702790449814964 0.9803978808876076
12621598666.666666 0.20519034721320545 0.9787220858907635 -3.6497642838088917e-17 -6.733454016458335e-17 -3.6497642838088917e-17 -6.733454016458335e-17 0.20518973112170566 0.9787222150549386
12622216000.0 0.21333792776481575 0.9769784688399522 -3.705609977222453e-17 -6.701170483345865e-17 -3.705609977222453e-17 -6.701170483345865e-17 0.21333731280097867 0.976978603126343
12622833333.333334 0.22147069769784145 0.9751670267503276 -3.761171005007781e-17 -6.668424308189014e-17 -3.761171005007781e-17 -6.668424308189014e-17 0.22147008390424766 0.9751671661491116
12623450666.666666 0.22958809240879105 0.9732878853781837 -3.816443539007337e-17 -6.635217993868617e-17 -3.816443539007337e-17 -6.635217993868617e-17 0.22958747982793531 0.9732880298791827
12624068000.0 0.237689548361544 0.971341175179725 -3.8714237730126694e-17 -6.601554074902792e-17 -3.8714237730126694e-17 -6.601554074902792e-17 0.2376889370358331 0.9713413247724095
12624685333.333334 0.24577450312666715 0.9693270313019658 -3.9261079230240183e-17 -6.567435117255758e-17 -3.9261079230240183e-17 -6.567435117255758e-17 0.2457738930984166 0.9693271859754534
12625302666.666666 0.25384239542007425 0.967245593573443 -3.980492227510207e-17 -6.532863718143546e-17 -3.980492227510207e-17 -6.532863718143546e-17 0.25384178673150504 0.9672457533164986
12625920000.0 0.26189266514243176 0.9650970064943923 -4.0345729476663627e-17 -6.497842505837643e-17 -4.0345729476663627e-17 -6.497842505837643e-17 0.2618920578356681 0.965097171295431
12626537333.333334 0.2699247534176591 0.9628814192268221 -4.0883463676704077e-17 -6.462374139466419e-17 -4.0883463676704077e-17 -6.462374139466419e-17 0.2699241475347249 0.9628815890739088
12627154666.666666 0.2779381026318919 0.9605989855841135 -4.1418087949355203e-17 -6.426461308815744e-17 -4.1418087949355203e-17 -6.426461308815744e-17 0.27793749821470815 0.9605991604649633
12627772000.0 0.28593215647235737 0.9582498640202936 -4.1949565603667636e-17 -6.390106734123798e-17 -4.1949565603667636e-17 -6.390106734123798e-17 0.2859315535627394 0.9582500439222749
12628389333.333334 0.29390635996564046 0.9558342176191388 -4.2477860186064565e-17 -6.353313165879961e-17 -4.2477860186064565e-17 -6.353313165879961e-17 0.29390575860529483 0.9558344025292717
12629006666.666666 0.30186015951651174 0.9533522140827644 -4.3002935482886416e-17 -6.316083384614442e-17 -4.3002935482886416e-17 -6.316083384614442e-17 0.3018595597470335 0.9533524039877231
12629624000.0 0.3097930029462241 0.9508040257200242 -4.352475552282381e-17 -6.278420200692167e-17 -4.352475552282381e-17 -6.278420200692167e-17 0.3097924048090931 0.9508042206061362
12630241333.333334 0.31770433953089977 0.9481898294345272 -4.404328457939347e-17 -6.240326454100474e-17 -4.404328457939347e-17 -6.240326454100474e-17 0.31770374306747956 0.9481900292877777
12630858666.666666 0.32559362003963027 0.9455098067124066 -4.4558487173356425e-17 -6.201805014237513e-17 -4.4558487173356425e-17 -6.201805014237513e-17 0.3255930252911633 0.9455100115184351
12631476000.0 0.33346029677290084 0.9427641436096166 -4.50703280751569e-17 -6.162858779695898e-17 -4.50703280751569e-17 -6.162858779695898e-17 0.3334597037805067 0.9427643533537212
12632093333.333334 0.3413038236002632 0.9399530307391343 -4.557877230731069e-17 -6.123490678046625e-17 -4.557877230731069e-17 -6.123490678046625e-17 0.3413032324049361 0.9399532454062731
12632710666.666666 0.34912365599844075 0.9370766632576689 -4.6083785146771495e-17 -6.083703665621334e-17 -4.6083785146771495e-17 -6.083703665621334e-17 0.3491230666410454 0.9370768828324577
12633328000.0 0.3569192510891543 0.9341352408520945 -4.6585332127326564e-17 -6.043500727288921e-17 -4.6585332127326564e-17 -6.043500727288921e-17 0.35691866361042446 0.9341354653188113
12633945333.333334 0.36469006767673273 0.9311289677256229 -4.708337904190448e-17 -6.002884876235494e-17 -4.708337904190448e-17 -6.002884876235494e-17 0.36468948211726737 0.9311291970682066
12634562666.666666 0.37243556628570995 0.9280580525836127 -4.757789194491513e-17 -5.961859153738452e-17 -4.757789194491513e-17 -5.961859153738452e-17 0.37243498268597075 0.9280582867856655
12635180000.0 0.3801552091982768 0.9249227086190814 -4.806883715454949e-17 -5.920426628940227e-17 -4.806883715454949e-17 -5.920426628940227e-17 0.380154627598586 0.9249229476638712
12635797333.333334 0.3878484604916392 0.9217231534978979 -4.855618125506706e-17 -5.878590398619642e-17 -4.855618125506706e-17 -5.878590398619642e-17 0.3878478809321756 0.921723397368356
12636414666.666666 0.39551478607511664 0.9184596093437092 -4.9039891099046405e-17 -5.836353586962737e-17 -4.9039891099046405e-17 -5.836353586962737e-17 0.39551420859591396 0.9184598580224348
12637032000.0 0.40315365372740536 0.9151323027224466 -4.951993380964936e-17 -5.793719345329008e-17 -4.951993380964936e-17 -5.793719345329008e-17 0.403153078368349 0.915132556191707
12637649333.333334 0.4107645331333173 0.9117414646266855 -4.999627678283165e-17 -5.750690852018542e-17 -4.999627678283165e-17 -5.750690852018542e-17 0.41076395993414105 0.9117417228684159
12638266666.666666 0.41834689592077773 0.9082873304595268 -5.0468887689550426e-17 -5.70727131203601e-17 -5.0468887689550426e-17 -5.70727131203601e-17 0.41834632492106255 0.9082875934553354
12638884000.0 0.42590021569740566 0.9047701400183079 -5.0937734477947596e-17 -5.66346395685308e-17 -5.0937734477947596e-17 -5.66346395685308e-17 0.42589964693657467 0.9047704077494712
12639501333.333334 0.43342396808710476 0.9011901374779208 -5.1402785375516174e-17 -5.619272044168774e-17 -5.1402785375516174e-17 -5.619272044168774e-17 0.433423401604423 0.9011904099253911
12640118666.666666 0.44091763076631735 0.8975475713739425 -5.186400889122694e-17 -5.574698857669863e-17 -5.186400889122694e-17 -5.574698857669863e-17 0.4409170666008876 0.8975478485183463
12640736000.0 0.44838068350069327 0.8938426945851796 -5.232137381768466e-17 -5.529747706784702e-17 -5.232137381768466e-17 -5.529747706784702e-17 0.44838012169145336 0.8938429764068188
12641353333.333334 0.4558126081805943 0.8900757643164139 -5.2774849233185034e-17 -5.484421926442854e-17 -5.2774849233185034e-17 -5.484421926442854e-17 0.4558120487663145 0.8900760507952666
12641970666.666666 0.4632128888576226 0.886247042080266 -5.3224404503828684e-17 -5.438724876825482e-17 -5.3224404503828684e-17 -5.438724876825482e-17 0.46321233187690375 0.886247333195991
12642588000.0 0.47058101178008455 0.8823567936792222 -5.367000928556401e-17 -5.392659943118857e-17 -5.367000928556401e-17 -5.392659943118857e-17 0.47058045727135417 0.8823570894111565
12643205333.333334 0.4779164654288341 0.8784052891870893 -5.411163352622746e-17 -5.3462305352643944e-17 -5.411163352622746e-17 -5.3462305352643944e-17 0.47791591343034523 0.8784055895142534
12643822666.666666 0.485218740552785 0.8743928029302466 -5.454924746755927e-17 -5.2994400877073404e-17 -5.454924746755927e-17 -5.2994400877073404e-17 0.4852181911026118 0.8743931078313426
12644440000.0 0.4924873302041611 0.8703196134686508 -5.498282164719739e-17 -5.252292059143797e-17 -5.498282164719739e-17 -5.252292059143797e-17 0.49248678334019746 0.8703199229220655
12645057333.333334 0.4997217297737183 0.8661860035764868 -5.541232690065289e-17 -5.2047899322658455e-17 -5.541232690065289e-17 -5.2047899322658455e-17 0.49972118553367517 0.866186317560294
12645674666.666666 0.506921437025778 0.8619922602225412 -5.583773436324565e-17 -5.156937213506942e-17 -5.583773436324565e-17 -5.156937213506942e-17 0.5069208954471793 0.8619925787145004
12646292000.0 0.5140859521332601 0.8577386745501705 -5.62590154720648e-17 -5.108737432780646e-17 -5.62590154720648e-17 -5.108737432780646e-17 0.5140854132534434 0.8577389975277334
12646909333.333334 0.5212147777120947 0.8534255418572703 -5.667614196783455e-17 -5.060194143225783e-17 -5.667614196783455e-17 -5.060194143225783e-17 0.521214241568205 0.8534258692975771
12647526666.666666 0.528307418855896 0.8490531615756841 -5.708908589682707e-17 -5.0113109209423757e-17 -5.708908589682707e-17 -5.0113109209423757e-17 0.5283068854848851 0.8490534934555682
12648144000.0 0.5353633831704412 0.8446218372503419 -5.74978196127212e-17 -4.9620913647295414e-17 -5.74978196127212e-17 -4.9620913647295414e-17 0.5353628526090652 0.8446221735463312
12648761333.333334 0.5423821808076612 0.8401318765183061 -5.790231577843012e-17 -4.912539095822909e-17 -5.790231577843012e-17 -4.912539095822909e-17 0.5423816530924769 0.8401322172066232
12649378666.666666 0.5493633244996712 0.8355835910873989 -5.83025473679181e-17 -4.8626577576292366e-17 -5.83025473679181e-17 -4.8626577576292366e-17 0.5493627996670349 0.835583936143965
12649996000.0 0.5563063295927194 0.8309772967144893 -5.869848766800835e-17 -4.812451015457924e-17 -5.869848766800835e-17 -4.812451015457924e-17 0.556305807678784 0.8309776461149245
12650613333.333334 0.5632107140807608 0.8263133131836149 -5.909011028014516e-17 -4.761922556253668e-17 -5.909011028014516e-17 -4.761922556253668e-17 0.5632101951214723 0.8263136669032395
12651230666.666666 0.570075998638849 0.8215919642838307 -5.947738912213155e-17 -4.7110760883281234e-17 -5.947738912213155e-17 -4.7110760883281234e-17 0.5700754826699445 0.8215923222976673
12651848000.0 0.5769017066565522 0.8168135777866339 -5.986029842988068e-17 -4.659915341085362e-17 -5.986029842988068e-17 -4.659915341085362e-17 0.5769011937135589 0.816813940069411
12652465333.333334 0.5836873642709735 0.8119784854232579 -6.023881275909328e-17 -4.6084440647523923e-17 -6.023881275909328e-17 -4.6084440647523923e-17 0.5836868543892044 0.8119788519494088
12653082666.666666 0.590432500399553 0.8070870228617081 -6.061290698693656e-17 -4.556666030105299e-17 -6.061290698693656e-17 -4.556666030105299e-17 0.5904319936141057 0.8070873936053748
12653700000.0 0.5971366467730275 0.8021395296832768 -6.098255631372477e-17 -4.504585028190544e-17 -6.098255631372477e-17 -4.504585028190544e-17 0.5971361431187802 0.8021399046183104
12654317333.333334 0.6037993379676152 0.7971363493592006 -6.134773626451432e-17 -4.4522048700532216e-17 -6.134773626451432e-17 -4.4522048700532216e-17 0.6037988374792264 0.7971367284591644
12654934666.666666 0.6104201114375593 0.79207782922665 -6.170842269074003e-17 -4.39952938645539e-17 -6.170842269074003e-17 -4.39952938645539e-17 0.6104196141494632 0.79207821246482
12655552000.0 0.6169985075472568 0.7869643204645944 -6.206459177178585e-17 -4.346562427598606e-17 -6.206459177178585e-17 -4.346562427598606e-17 0.6169980134936641 0.7869647078139634
12656169333.333334 0.6235340696028804 0.7817961780696514 -6.241622001654804e-17 -4.293307862843173e-17 -6.241622001654804e-17 -4.293307862843173e-17 0.6235335788177716 0.7817965695029278
12656786666.666666 0.6300263438844389 0.7765737608311597 -6.276328426497079e-17 -4.239769580426437e-17 -6.276328426497079e-17 -4.239769580426437e-17 0.6300258564015655 0.776574156320772
12657404000.0 0.6364748796770751 0.77129743130643 -6.310576168955861e-17 -4.185951487179865e-17 -6.310576168955861e-17 -4.185951487179865e-17 0.636474395529956 0.7712978308245276
12658021333.333334 0.6428792293024242 0.7659675557955217 -6.344362979686652e-17 -4.131857508244591e-17 -6.344362979686652e-17 -4.131857508244591e-17 0.6428787485243437 0.765967959313977
12658638666.666666 0.6492389481495826 0.760584504315903 -6.377686642895203e-17 -4.077491586787886e-17 -6.377686642895203e-17 -4.077491586787886e-17 0.6492384707735872 0.7605849118063137
12659256000.0 0.6555535947061918 0.7551486505765825 -6.410544976483795e-17 -4.022857683713099e-17 -6.410544976483795e-17 -4.022857683713099e-17 0.6555531207650896 0.7551490620102738
12659873333.333334 0.6618227305888952 0.7496603719523284 -6.442935832190595e-17 -3.9679597773752634e-17 -6.442935832190595e-17 -3.9679597773752634e-17 0.6618222601152515 0.7496607873003527
12660490666.666666 0.6680459205737921 0.744120049457451 -6.474857095728778e-17 -3.912801863292408e-17 -6.474857095728778e-17 -3.912801863292408e-17 0.6680454535999292 0.744120468690594
12661108000.0 0.6742227326267834 0.7385280677192423 -6.506306686925283e-17 -3.8573879538520045e-17 -6.506306686925283e-17 -3.8573879538520045e-17 0.6742222691847772 0.7385284908080217
12661725333.333334 0.6803527379333929 0.7328848149514218 -6.537282559851858e-17 -3.801722078025222e-17 -6.537282559851858e-17 -3.801722078025222e-17 0.6803522780550713 0.7328852418660913
12662342666.666666 0.6864355109286864 0.7271906829270557 -6.567782702959075e-17 -3.745808281070862e-17 -6.567782702959075e-17 -3.745808281070862e-17 0.6864350546456262 0.7271911136376052
12662960000.0 0.6924706293267294 0.7214460669514308 -6.597805139204418e-17 -3.689650624244194e-17 -6.597805139204418e-17 -3.689650624244194e-17 0.6924701766702553 0.7214465014275906
12663577333.333334 0.6984576741499259 0.7156513658345947 -6.627347926179085e-17 -3.633253184502513e-17 -6.627347926179085e-17 -3.633253184502513e-17 0.6984572251511073 0.7156518040458361
12664194666.666666 0.7043962297581055 0.7098069818636692 -6.656409156232201e-17 -3.5766200542101264e-17 -6.656409156232201e-17 -3.5766200542101264e-17 0.7043957844477554 0.7098074237792075
12664812000.0 0.7102858838773977 0.7039133207749008 -6.684986956592413e-17 -3.5197553408423136e-17 -6.684986956592413e-17 -3.5197553408423136e-17 0.7102854422860704 0.7039137663636975
12665429333.333334 0.7161262276287934 0.697970791725554 -6.713079489487192e-17 -3.4626631666879657e-17 -6.713079489487192e-17 -3.4626631666879657e-17 0.7161257897867817 0.6979712409563184
12666046666.666666 0.7219168555565536 0.6919798072654892 -6.740684952258481e-17 -3.405347668553601e-17 -6.740684952258481e-17 -3.405347668553601e-17 0.7219164214938852 0.6919802601066792
12666664000.0 0.7276573656564889 0.6859407833083722 -6.767801577478841e-17 -3.3478129974603155e-17 -6.767801577478841e-17 -3.3478129974603155e-17 0.7276569354029295 0.6859412397282012
12667281333.333334 0.7333473594036201 0.6798541391030747 -6.794427633060302e-17 -3.2900633183494504e-17 -6.794427633060302e-17 -3.2900633183494504e-17 0.7333469329886657 0.6798545990695083
12667898666.666666 0.7389864417800353 0.673720297204357 -6.820561422365422e-17 -3.2321028097777803e-17 -6.820561422365422e-17 -3.2321028097777803e-17 0.7389860192329141 0.6737207606851195
12668516000.0 0.7445742213023158 0.6675396834435354 -6.846201284312738e-17 -3.173935663618001e-17 -6.846201284312738e-17 -3.173935663618001e-17 0.7445738026519834 0.6675401504061088
12669133333.333334 0.7501103100485385 0.6613127268991056 -6.871345593480835e-17 -3.1155660847561015e-17 -6.871345593480835e-17 -3.1155660847561015e-17 0.7501098953236778 0.6613131973107341
12669750666.666666 0.7555943236854196 0.6550398598667252 -6.895992760209611e-17 -3.056998290788295e-17 -6.895992760209611e-17 -3.056998290788295e-17 0.7555939129144382 0.6550403336944168
12670368000.0 0.761025881494843 0.6487215178293709 -6.920141230699158e-17 -2.998236511716783e-17 -6.920141230699158e-17 -2.998236511716783e-17 0.7610254747058712 0.6487219950398998
