! Parameters = {f0=12700.012000; bw=77.238000; Q=6100.000000; N=10; m_0_1=1.154850; m_1_1=-1.441998; m_1_2=0.989662; m_2_2=-1.442647; m_2_3=0.626625; m_2_8=-0.005194; m_2_9=0.031510; m_3_3=-1.444584; m_3_4=0.515154; m_3_7=-0.004594; m_3_8=-0.101682; m_3_9=-0.005194; m_4_4=-1.447509; m_4_5=0.351489; m_4_6=-0.001077; m_4_7=-0.122231; m_4_8=-0.004594; m_5_5=-1.447127; m_5_6=0.758844; m_5_7=-0.001077; m_6_6=-1.447128; m_6_7=0.351831; m_7_7=-1.447495; m_7_8=0.515272; m_8_8=-1.444586; m_8_9=0.626938; m_9_9=-1.442652; m_9_10=0.990740; m_10_10=-1.442008; m_10_11=1.155645}
!
! Created with skrf (http://scikit-rf.org).
# Hz S RI R 50.0 
!freq ReS11 ImS11 ReS21 ImS21 ReS12 ImS12 ReS22 ImS22
12607400000.0 0.3460461431261727 0.93821749441553 -3.717271606672674e-17 -4.978506182978175e-17 -3.717271606672674e-17 -4.978506182978175e-17 0.3460455720925983 0.9382177050317052
12608017333.333334 0.3527163065679384 0.9357303068090328 -3.7523221156357826e-17 -4.950614934939816e-17 -3.7523221156357826e-17 -4.950614934939816e-17 0.3527157370760487 0.9357305214744005
12608634666.666666 0.3593685953390768 0.9331956990277407 -3.787163899847269e-17 -4.922477347362259e-17 -3.787163899847269e-17 -4.922477347362259e-17 0.3593680274175794 0.933195917731026
12609252000.0 0.3660026723203521 0.9306137995184768 -3.8217952311476363e-17 -4.894094978423308e-17 -3.8217952311476363e-17 -4.894094978423308e-17 0.3660021059978726 0.9306140222482012
12609869333.333334 0.37261820131545126 0.9279847391246757 -3.856214392983114e-17 -4.8654693984010686e-17 -3.856214392983114e-17 -4.8654693984010686e-17 0.37261763662053127 0.9279849658691585
12610486666.666666 0.37921484706799524 0.9253086510797633 -3.890419680489426e-17 -4.836602189588403e-17 -3.890419680489426e-17 -4.836602189588403e-17 0.3792142840290912 0.9253088818271211
12611104000.0 0.3857922752786604 0.9225856710003518 -3.924409400577033e-17 -4.807494946204929e-17 -3.924409400577033e-17 -4.807494946204929e-17 0.38579171392414185 0.9225859057384997
12611721333.333334 0.39235015262185585 0.919815936879472 -3.9581818720130724e-17 -4.7781492743107375e-17 -3.9581818720130724e-17 -4.7781492743107375e-17 0.3923495929800044 0.9198161755961237
12612338666.666666 0.3988881467628543 0.9169995890794883 -3.9917354255045206e-17 -4.7485667917179315e-17 -3.9917354255045206e-17 -4.7485667917179315e-17 0.3988875888618619 0.9169998317621574
12612956000.0 0.40540592637463074 0.9141367703249784 -4.0250684037806904e-17 -4.718749127901577e-17 -4.0250684037806904e-17 -4.718749127901577e-17 0.4054053702425984 0.9141370169609785
12613573333.333334 0.4119031611543942 0.9112276256956173 -4.058179161673231e-17 -4.688697923911711e-17 -4.058179161673231e-17 -4.688697923911711e-17 0.41190260681933044 0.9112278762720634
12614190666.666666 0.41837952184069016 0.9082723026186643 -4.0910660661981195e-17 -4.658414832282477e-17 -4.0910660661981195e-17 -4.658414832282477e-17 0.41837896933050994 0.9082725571224725
12614808000.0 0.4248346802298009 0.9052709508616175 -4.1237274966348405e-17 -4.6279015169425205e-17 -4.1237274966348405e-17 -4.6279015169425205e-17 0.42483412957232386 0.9052712092795066
12615425333.333334 0.4312683091925083 0.9022237225245683 -4.1561618446063944e-17 -4.59715965312359e-17 -4.1561618446063944e-17 -4.59715965312359e-17 0.4312677604154575 0.90222398484306
12616042666.666666 0.43768008269064496 0.899130772032503 -4.188367514157146e-17 -4.566190927269836e-17 -4.188367514157146e-17 -4.566190927269836e-17 0.43767953582164526 0.899131038237922
12616660000.0 0.4440696757936172 0.8959922561274769 -4.220342921831344e-17 -4.5349970369454296e-17 -4.220342921831344e-17 -4.5349970369454296e-17 0.44406913086019434 0.8959925262059532
12617277333.333334 0.45043676469487226 0.8928083338606733 -4.252086496750275e-17 -4.5035796907421874e-17 -4.252086496750275e-17 -4.5035796907421874e-17 0.45043622172445097 0.8928086077981413
12617894666.666666 0.4567810267282815 0.8895791665843535 -4.283596680688915e-17 -4.471940608186596e-17 -4.283596680688915e-17 -4.471940608186596e-17 0.45678048574818464 0.8895794443665539
12618512000.0 0.46310214038461933 0.8863049179436158 -4.3148719281518015e-17 -4.440081519646214e-17 -4.3148719281518015e-17 -4.440081519646214e-17 0.4631016014220664 0.8863051995560965
12619129333.333334 0.4693997853276037 0.8829857538682337 -4.3459107064483424e-17 -4.408004166235673e-17 -4.3459107064483424e-17 -4.408004166235673e-17 0.46939924840970926 0.8829860392963498
12619746666.666666 0.4756736424103581 0.8796218425641311 -4.3767114957672025e-17 -4.375710299722179e-17 -4.3767114957672025e-17 -4.375710299722179e-17 0.4756731075641295 0.8796221317930437
12620364000.0 0.4819233936915814 0.8762133545048507 -4.40727278925076e-17 -4.343201682429776e-17 -4.40727278925076e-17 -4.343201682429776e-17 0.48192286094391923 0.8762136475195316
12620981333.333334 0.48814872245143814 0.8727604624230428 -4.4375930930669363e-17 -4.310480087145143e-17 -4.4375930930669363e-17 -4.310480087145143e-17 0.48814819182913394 0.872760759208273
12621598666.666666 0.49434931320783276 0.8692633413015868 -4.4676709264833356e-17 -4.277547297019701e-17 -4.4676709264833356e-17 -4.277547297019701e-17 0.4943487847375677 0.8692636418419581
12622216000.0 0.5005248517323717 0.8657221683647373 -4.497504821937636e-17 -4.2444051054743734e-17 -4.497504821937636e-17 -4.2444051054743734e-17 0.5005243254407153 0.8657224726446525
12622833333.333334 0.5066750250661884 0.8621371230691968 -4.5270933251093424e-17 -4.2110553161017103e-17 -4.5270933251093424e-17 -4.2110553161017103e-17 0.5066745009795974 0.8621374310728712
12623450666.666666 0.5127995215358052 0.8585083870950263 -4.556434994989528e-17 -4.1774997425689665e-17 -4.556434994989528e-17 -4.1774997425689665e-17 0.5127989996806217 0.8585086988064873
12624068000.0 0.5188980307690244 0.8548361443363771 -4.5855284039509715e-17 -4.143740208519311e-17 -4.5855284039509715e-17 -4.143740208519311e-17 0.5188975111714749 0.8548364597394658
12624685333.333334 0.5249702437106815 0.8511205808921566 -4.614372137817057e-17 -4.109778547473294e-17 -4.614372137817057e-17 -4.109778547473294e-17 0.5249697263968754 0.8511208999705292
12625302666.666666 0.5310158526380648 0.8473618850567468 -4.64296479592922e-17 -4.075616602730587e-17 -4.64296479592922e-17 -4.075616602730587e-17 0.5310153376339939 0.8473622077938746
12625920000.0 0.537034551176849 0.8435602473102524 -4.6713049912153785e-17 -4.041256227269268e-17 -4.6713049912153785e-17 -4.041256227269268e-17 0.5370340385083848 0.8435605736894232
12626537333.333334 0.543026034316379 0.8397158603089984 -4.6993913502555065e-17 -4.006699283647205e-17 -4.6993913502555065e-17 -4.006699283647205e-17 0.5430255240092722 0.8397161903133159
12627154666.666666 0.5489899984251282 0.835828918875766 -4.727222513348141e-17 -3.97194764390094e-17 -4.727222513348141e-17 -3.97194764390094e-17 0.5489894905050079 0.8358292524881538
12627772000.0 0.554926141266325 0.8318996199897686 -4.7547971345761384e-17 -3.9370031894441255e-17 -4.7547971345761384e-17 -3.9370031894441255e-17 0.5549256357586961 0.8318999571929674
12628389333.333334 0.5608341620129106 0.8279281627768986 -4.782113881870078e-17 -3.9018678109675774e-17 -4.782113881870078e-17 -3.9018678109675774e-17 0.5608336589431538 0.8279285035534698
12629006666.666666 0.566713761263142 0.8239147484994049 -4.8091714370729386e-17 -3.866543408336241e-17 -4.8091714370729386e-17 -3.866543408336241e-17 0.566713260656512 0.8239150928317305
12629624000.0 0.5725646410555025 0.8198595805458634 -4.835968496002326e-17 -3.831031890487957e-17 -4.835968496002326e-17 -3.831031890487957e-17 0.5725641429371259 0.819859928416146
12630241333.333334 0.5783865048839205 0.8157628644207927 -4.862503768513257e-17 -3.7953351753301257e-17 -4.862503768513257e-17 -3.7953351753301257e-17 0.578386009278797 0.8157632158110596
12630858666.666666 0.5841790577127509 0.8116248077342744 -4.888775978559016e-17 -3.759455189637507e-17 -4.888775978559016e-17 -3.759455189637507e-17 0.5841785646457487 0.8116251626263736
12631476000.0 0.5899420059918375 0.8074456201913427 -4.9147838642528846e-17 -3.723393868947288e-17 -4.9147838642528846e-17 -3.723393868947288e-17 0.5899415154876945 0.807445978566948
12632093333.333334 0.5956750576711856 0.8032255135815125 -4.9405261779272186e-17 -3.6871531574564904e-17 -4.9405261779272186e-17 -3.6871531574564904e-17 0.5956745697545076 0.8032258754221232
12632710666.666666 0.6013779222158772 0.7989647017679621 -4.966001686192622e-17 -3.650735007917643e-17 -4.966001686192622e-17 -3.650735007917643e-17 0.6013774369111363 0.7989650670549032
12633328000.0 0.6070503106209074 0.7946634006766098 -4.991209169997324e-17 -3.614141381532801e-17 -4.991209169997324e-17 -3.614141381532801e-17 0.6070498279524409 0.7946637693910334
12633945333.333334 0.6126919354256032 0.7903218282853408 -5.016147424683813e-17 -3.577374247849847e-17 -5.016147424683813e-17 -3.577374247849847e-17 0.6126914554176123 0.7903222004082272
12634562666.666666 0.618302510728393 0.7859402046128058 -5.040815260046176e-17 -3.5404355846564433e-17 -5.040815260046176e-17 -3.5404355846564433e-17 0.6183020334049426 0.7859405801249655
12635180000.0 0.6238817522011427 0.781518751707396 -5.065211500386517e-17 -3.503327377873704e-17 -5.065211500386517e-17 -3.503327377873704e-17 0.623881277586158 0.7815191305894679
12635797333.333334 0.6294293771036696 0.7770576936358973 -5.089334984569804e-17 -3.4660516214506385e-17 -5.089334984569804e-17 -3.4660516214506385e-17 0.6294289052209372 0.7770580758683528
12636414666.666666 0.6349451042979671 0.7725572564722293 -5.113184566078465e-17 -3.4286103172575194e-17 -5.113184566078465e-17 -3.4286103172575194e-17 0.634944635171132 0.7725576420353707
12637032000.0 0.6404286542625794 0.7680176682858785 -5.1367591130666884e-17 -3.3910054749781544e-17 -5.1367591130666884e-17 -3.3910054749781544e-17 0.6404281879151449 0.7680180571598417
12637649333.333334 0.6458797491066579 0.763439159130428 -5.160057508412916e-17 -3.3532391120032146e-17 -5.160057508412916e-17 -3.3532391120032146e-17 0.6458792855619855 0.7634395512951849
12638266666.666666 0.6512981125841563 0.7588219610318158 -5.183078649772604e-17 -3.3153132533217987e-17 -5.183078649772604e-17 -3.3153132533217987e-17 0.6512976518654612 0.7588223564671712
12638884000.0 0.6566834701076942 0.7541663079766769 -5.205821449629054e-17 -3.2772299314142e-17 -5.205821449629054e-17 -3.2772299314142e-17 0.6566830122380475 0.7541667066622729
12639501333.333334 0.6620355487625844 0.7494724359003988 -5.2282848353445645e-17 -3.238991186142758e-17 -5.2282848353445645e-17 -3.238991186142758e-17 0.6620350937649103 0.7494728378157145
12640118666.666666 0.6673540773205143 0.7447405826752964 -5.250467749209665e-17 -3.200599064644129e-17 -5.250467749209665e-17 -3.200599064644129e-17 0.6673536252175886 0.7447409877996489
12640736000.0 0.6726387862536055 0.7399709880982708 -5.2723691484934916e-17 -3.162055621217908e-17 -5.2723691484934916e-17 -3.162055621217908e-17 0.6726383370680556 0.7399713964108172
12641353333.333334 0.6778894077476533 0.7351638938790381 -5.2939880054903394e-17 -3.123362917220234e-17 -5.2939880054903394e-17 -3.123362917220234e-17 0.6778889615019572 0.7351643053587764
12641970666.666666 0.6831056757160147 0.7303195436275967 -5.3153233075684147e-17 -3.0845230209517426e-17 -5.3153233075684147e-17 -3.0845230209517426e-17 0.6831052324324981 0.7303199582533653
12642588000.0 0.688287325812965 0.7254381828419929 -5.336374057215997e-17 -3.0455380075483973e-17 -5.336374057215997e-17 -3.0455380075483973e-17 0.6882868855138012 0.7254386005924731
12643205333.333334 0.6934340954470949 0.7205200588958812 -5.35713927208733e-17 -3.0064099588711186e-17 -5.35713927208733e-17 -3.0064099588711186e-17 0.6934336581543051 0.7205204797495989
12643822666.666666 0.6985457237947021 0.7155654210259125 -5.3776179850479994e-17 -2.96714096339446e-17 -5.3776179850479994e-17 -2.96714096339446e-17 0.6985452895301522 0.7155658449612377
12644440000.0 0.7036219518129037 0.7105745203191965 -5.397809244218704e-17 -2.9277331160965385e-17 -5.397809244218704e-17 -2.9277331160965385e-17 0.7036215205983037 0.7105749473143453
12645057333.333334 0.7086625222527649 0.7055476097005815 -5.417712113019123e-17 -2.88818851834698e-17 -5.417712113019123e-17 -2.88818851834698e-17 0.7086620941096701 0.7055480397336185
12645674666.666666 0.7136671796724204 0.700484943919759 -5.4373256702100753e-17 -2.848509277796272e-17 -5.4373256702100753e-17 -2.848509277796272e-17 0.7136667546222257 0.7004853769685947
12646292000.0 0.7186356704500336 0.6953867795383276 -5.4566490099362025e-17 -2.808697508262188e-17 -5.4566490099362025e-17 -2.808697508262188e-17 0.7186352485139761 0.6953872155807225
12646909333.333334 0.723567742796471 0.6902533749169757 -5.475681241765819e-17 -2.7687553296199937e-17 -5.475681241765819e-17 -2.7687553296199937e-17 0.7235673239956288 0.690253813930542
12647526666.666666 0.7284631467682455 0.6850849902022088 -5.494421490732279e-17 -2.7286848676876994e-17 -5.494421490732279e-17 -2.7286848676876994e-17 0.7284627311235345 0.6850854321644088
12648144000.0 0.7333216342801577 0.6798818873131817 -5.5128688973724075e-17 -2.6884882541152597e-17 -5.5128688973724075e-17 -2.6884882541152597e-17 0.7333212218123326 0.6798823322013314
12648761333.333334 0.7381429591177906 0.6746443299285088 -5.531022617765843e-17 -2.6481676262700843e-17 -5.531022617765843e-17 -2.6481676262700843e-17 0.7381425498474434 0.6746447777197785
12649378666.666666 0.7429268769499716 0.669372583472925 -5.5488818235719377e-17 -2.6077251271255825e-17 -5.5488818235719377e-17 -2.6077251271255825e-17 0.7429264708975286 0.6693730341443386
12649996000.0 0.7476731453413227 0.6640669151036429 -5.566445702067421e-17 -2.5671629051461592e-17 -5.566445702067421e-17 -2.5671629051461592e-17 0.7476727425270475 0.6640673686320826
12650613333.333334 0.7523815237643777 0.6587275936970063 -5.583713456182108e-17 -2.5264831141743332e-17 -5.583713456182108e-17 -2.5264831141743332e-17 0.7523811242083666 0.6587280500592102
12651230666.666666 0.7570517736117715 0.6533548898348625 -5.600684304534188e-17 -2.485687913316839e-17 -5.600684304534188e-17 -2.485687913316839e-17 0.7570513773339537 0.6533553490074284
12651848000.0 0.7616836582085006 0.6479490757906605 -5.617357481464914e-17 -2.4447794668298535e-17 -5.617357481464914e-17 -2.4447794668298535e-17 0.7616832652286369 0.6479495377500452
12652465333.333334 0.7662769428237461 0.6425104255158413 -5.633732237071862e-17 -2.4037599440054323e-17 -5.633732237071862e-17 -2.4037599440054323e-17 0.7662765531614295 0.6425108902383635
12653082666.666666 0.7708313946827762 0.6370392146259607 -5.649807837241665e-17 -2.3626315190571137e-17 -5.649807837241665e-17 -2.3626315190571137e-17 0.7708310083574279 0.6370396820878004
12653700000.0 0.7753467829789011 0.6315357203865224 -5.665583563682535e-17 -2.3213963710036775e-17 -5.665583563682535e-17 -2.3213963710036775e-17 0.7753464000097732 0.6315361905637241
12654317333.333334 0.7798228788849908 0.6260002216991458 -5.681058713954724e-17 -2.2800566835557767e-17 -5.681058713954724e-17 -2.2800566835557767e-17 0.779822499291162 0.6260006945676184
12654934666.666666 0.7842594555651438 0.6204329990873467 -5.696232601501054e-17 -2.2386146450001005e-17 -5.696232601501054e-17 -2.2386146450001005e-17 0.7842590793655205 0.6204334746228648
12655552000.0 0.7886562881862516 0.6148343346822289 -5.711104555676597e-17 -2.1970724480833476e-17 -5.711104555676597e-17 -2.1970724480833476e-17 0.7886559153995668 0.6148348128604352
12656169333.333334 0.7930131539292176 0.6092045122084125 -5.725673921776681e-17 -2.1554322898982903e-17 -5.725673921776681e-17 -2.1554322898982903e-17 0.7930127845740291 0.6092049930048172
12656786666.666666 0.7973298320004248 0.6035438169694298 -5.739940061065245e-17 -2.1136963717664007e-17 -5.739940061065245e-17 -2.1136963717664007e-17 0.797329466095115 0.6035443003594136
12657404000.0 0.8016061036428204 0.5978525358334035 -5.75390235080141e-17 -2.0718668991229104e-17 -5.75390235080141e-17 -2.0718668991229104e-17 0.8016057412055941 0.5978530217922172
12658021333.333334 0.8058417521471019 0.5921309572183704 -5.767560184265894e-17 -2.0299460813997317e-17 -5.767560184265894e-17 -2.0299460813997317e-17 0.8058413931959876 0.5921314457211377
12658638666.666666 0.8100365628625164 0.5863793710779188 -5.780912970785675e-17 -1.9879361319110347e-17 -5.780912970785675e-17 -1.9879361319110347e-17 0.8100362074153638 0.5863798620996369
12659256000.0 0.8141903232079728 0.5805980688861724 -5.793960135759107e-17 -1.9458392677345145e-17 -5.793960135759107e-17 -1.9458392677345145e-17 0.8141899712824516 0.580598562401713
12659873333.333334 0.8183028226826459 0.5747873436232486 -5.806701120678972e-17 -1.903657709596498e-17 -5.806701120678972e-17 -1.903657709596498e-17 0.8183024742962465 0.5747878396073597
12660490666.666666 0.8223738528766467 0.568947489760413 -5.819135383155177e-17 -1.861393681755243e-17 -5.819135383155177e-17 -1.861393681755243e-17 0.8223735080466789 0.5689479881877201
12661108000.0 0.8264032074817314 0.563078803244946 -5.831262396937109e-17 -1.819049411882612e-17 -5.831262396937109e-17 -1.819049411882612e-17 0.8264028662253227 0.5630793040899534
12661725333.333334 0.8303906823015941 0.5571815814853798 -5.843081651934119e-17 -1.7766271309487594e-17 -5.843081651934119e-17 -1.7766271309487594e-17 0.8303903446356878 0.5571820847224709
12662342666.666666 0.8343360752622905 0.5512561233363056 -5.854592654235945e-17 -1.7341290731042024e-17 -5.854592654235945e-17 -1.7341290731042024e-17 0.8343357412036488 0.5512566289397465
12662960000.0 0.8382391864224711 0.545302729083258 -5.865794926132021e-17 -1.691557475562787e-17 -5.865794926132021e-17 -1.691557475562787e-17 0.8382388559876695 0.5453032370271957
12663577333.333334 0.8420998179835062 0.539321700427492 -5.876688006129917e-17 -1.6489145784843468e-17 -5.876688006129917e-17 -1.6489145784843468e-17 0.8420994911889363 0.5393222106859588
12664194666.666666 0.8459177742995138 0.5333133404706959 -5.887271448972939e-17 -1.6062026248574452e-17 -5.887271448972939e-17 -1.6062026248574452e-17 0.845917451161381 0.5333138530176088
12664812000.0 0.8496928618872733 0.5272779536996317 -5.89754482565711e-17 -1.563423860381171e-17 -5.89754482565711e-17 -1.563423860381171e-17 0.8496925424215956 0.5272784685087945
12665429333.333334 0.8534248894360302 0.5212158459707031 -5.907507723446824e-17 -1.5205805333483397e-17 -5.907507723446824e-17 -1.5205805333483397e-17 0.853424573658639 0.5212163630158074
12666046666.666666 0.8571136678171769 0.5151273244944806 -5.917159745889938e-17 -1.47767489452795e-17 -5.917159745889938e-17 -1.47767489452795e-17 0.8571133557437142 0.5151278437491074
12666664000.0 0.8607590100939113 0.5090126978200114 -5.926500512832389e-17 -1.434709197045699e-17 -5.926500512832389e-17 -1.434709197045699e-17 0.8607587017398297 0.5090132192576315
12667281333.333334 0.8643607315305617 0.5028722758194251 -5.935529660430983e-17 -1.391685696268634e-17 -5.935529660430983e-17 -1.391685696268634e-17 0.8643604269111251 0.5028727994134029
12667898666.666666 0.8679186496020834 0.4967063696720136 -5.944246841166448e-17 -1.3486066496848377e-17 -5.944246841166448e-17 -1.3486066496848377e-17 0.8679183487323645 0.4967068953956057
12668516000.0 0.8714325840033047 0.49051529184845866 -5.952651723854892e-17 -1.3054743167864334e-17 -5.952651723854892e-17 -1.3054743167864334e-17 0.8714322868981834 0.49051581967481617
12669133333.333334 0.8749023566579375 0.4842993560952184 -5.960743993658435e-17 -1.2622909589523612e-17 -5.960743993658435e-17 -1.2622909589523612e-17 0.8749020633321031 0.4842998859973891
12669750666.666666 0.8783277917277282 0.4780588774184066 -5.96852335209551e-17 -1.2190588393287321e-17 -5.96852335209551e-17 -1.2190588393287321e-17 0.8783275021956769 0.4780594093693358
12670368000.0 0.8817087156213711 0.47179417206782875 -5.975989517049789e-17 -1.1757802227115073e-17 -5.975989517049789e-17 -1.1757802227115073e-17 0.8817084298974041 0.4717947060403598
