! Parameters = {f0=12700.012000; bw=77.238000; Q=6100.000000; N=10; m_0_1=1.206501; m_1_1=-0.667223; m_1_2=1.041313; m_2_2=-0.667872; m_2_3=0.678276; m_2_8=-0.002611; m_2_9=0.034093; m_3_3=-0.669809; m_3_4=0.566805; m_3_7=-0.002011; m_3_8=-0.099099; m_3_9=-0.002611; m_4_4=-0.672734; m_4_5=0.403140; m_4_6=0.001506; m_4_7=-0.119648; m_4_8=-0.002011; m_5_5=-0.672352; m_5_6=0.810495; m_5_7=0.001506; m_6_6=-0.672353; m_6_7=0.403482; m_7_7=-0.672720; m_7_8=0.566923; m_8_8=-0.669811; m_8_9=0.678589; m_9_9=-0.667877; m_9_10=1.042391; m_10_10=-0.667233; m_10_11=1.207296}
!
! Created with skrf (http://scikit-rf.org).
# Hz S RI R 50.0 
!freq ReS11 ImS11 ReS21 ImS21 ReS12 ImS12 ReS22 ImS22
12607400000.0 0.14161853711825045 0.9899213049249554 -3.3849637488286915e-17 -7.378691668547508e-17 -3.3849637488286915e-17 -7.378691668547508e-17 0.14161790775846878 0.989921394961213
12608017333.333334 0.15017176399027088 0.988659921965026 -3.448607054878078e-17 -7.347405417716852e-17 -3.448607054878078e-17 -7.347405417716852e-17 0.1501711354632135 0.9886600174344713
12608634666.666666 0.1587137657043252 0.9873246378855302 -3.511962290801295e-17 -7.315570784574751e-17 -3.511962290801295e-17 -7.315570784574751e-17 0.15871313805689002 0.9873247387804962
12609252000.0 0.1672439037562711 0.985915552497375 -3.57502473639325e-17 -7.28319041242485e-17 -3.57502473639325e-17 -7.28319041242485e-17 0.16724327703528544 0.9859156588097883
12609869333.333334 0.1757615405287051 0.9844327711280328 -3.637789695627844e-17 -7.25026698515642e-17 -3.637789695627844e-17 -7.25026698515642e-17 0.17576091478092265 0.9844328828494168
12610486666.666666 0.184266039338652 0.9828764046136655 -3.7002524970057415e-17 -7.216803227024275e-17 -3.7002524970057415e-17 -7.216803227024275e-17 0.1842654146107492 0.9828765217351408
12611104000.0 0.1927567644853523 0.981246569290807 -3.762408493902371e-17 -7.182801902424458e-17 -3.762408493902371e-17 -7.182801902424458e-17 0.19275614082392456 0.98124669180309
12611721333.333334 0.20123308129744363 0.9795433869877215 -3.8242530649108446e-17 -7.148265815668639e-17 -3.8242530649108446e-17 -7.148265815668639e-17 0.20123245874900206 0.9795435148811269
12612338666.666666 0.20969435618057009 0.9777669850152727 -3.8857816141856793e-17 -7.113197810754007e-17 -3.8857816141856793e-17 -7.113197810754007e-17 0.2096937347915383 0.9777671182797147
12612956000.0 0.21813995666490962 0.9759174961573709 -3.9469895717833814e-17 -7.077600771130754e-17 -3.9469895717833814e-17 -7.077600771130754e-17 0.21813933648161987 0.9759176347823624
12613573333.333334 0.22656925145208823 0.9739950586611209 -4.007872393999151e-17 -7.041477619467678e-17 -4.007872393999151e-17 -7.041477619467678e-17 0.22656863252077816 0.9739952026357758
12614190666.666666 0.23498161046270283 0.971999816226421 -4.06842556370425e-17 -7.00483131741331e-17 -4.06842556370425e-17 -7.00483131741331e-17 0.23498099282951176 0.9719999655394532
12614808000.0 0.24337640488316836 0.9699319179952708 -4.128644590680215e-17 -6.96766486535472e-17 -4.128644590680215e-17 -6.96766486535472e-17 0.2433757885941346 0.9699320726349987
12615425333.333334 0.251753007212916 0.9677915185405864 -4.188525011950079e-17 -6.929981302173921e-17 -4.188525011950079e-17 -6.929981302173921e-17 0.25175239231397245 0.9677916784949296
12616042666.666666 0.26011079131118586 0.965578777854665 -4.248062392108192e-17 -6.891783705000977e-17 -4.248062392108192e-17 -6.891783705000977e-17 0.2601101778481573 0.9655789431111479
12616660000.0 0.26844913244385965 0.9632938613372248 -4.307252323647819e-17 -6.853075188964301e-17 -4.307252323647819e-17 -6.853075188964301e-17 0.2684485204624585 0.963294031882975
12617277333.333334 0.2767674073302114 0.9609369397830198 -4.366090427285658e-17 -6.813858906938587e-17 -4.366090427285658e-17 -6.813858906938587e-17 0.27676679687603545 0.960937115604773
12617894666.666666 0.28506499418925196 0.9585081893691478 -4.4245723522849454e-17 -6.774138049289593e-17 -4.4245723522849454e-17 -6.774138049289593e-17 0.28506438530778055 0.9585083704532465
12618512000.0 0.2933412727866721 0.9560077916417498 -4.4826937767773056e-17 -6.733915843615253e-17 -4.4826937767773056e-17 -6.733915843615253e-17 0.29334066552326216 0.9560079779741435
12619129333.333334 0.3015956244807109 0.9534359335025772 -4.5404504080785196e-17 -6.69319555448671e-17 -4.5404504080785196e-17 -6.69319555448671e-17 0.3015950188805938 0.9534361250688245
12619746666.666666 0.30982743226872617 0.9507928071949264 -4.597837983006493e-17 -6.651980483183506e-17 -4.597837983006493e-17 -6.651980483183506e-17 0.3098268283770049 0.9507930039801968
12620364000.0 0.318036080833206 0.9480786102893023 -4.654852268193984e-17 -6.610273967427998e-17 -4.654852268193984e-17 -6.610273967427998e-17 0.3180354786948515 0.9480788122783766
12620981333.333334 0.32622095658768213 0.9452935456686768 -4.711489060399186e-17 -6.568079381117046e-17 -4.711489060399186e-17 -6.568079381117046e-17 0.3262203562475295 0.9452937528459477
12621598666.666666 0.33438144772275585 0.9424378215132679 -4.767744186815523e-17 -6.52540013404979e-17 -4.767744186815523e-17 -6.52540013404979e-17 0.334380849225502 0.9424380338627429
12622216000.0 0.34251694425172396 0.9395116512850196 -4.823613505377158e-17 -6.482239671654143e-17 -4.823613505377158e-17 -6.482239671654143e-17 0.3425163476419229 0.9395118687903196
12622833333.333334 0.35062683805625167 0.9365152537116076 -4.879092905063145e-17 -6.438601474709877e-17 -4.879092905063145e-17 -6.438601474709877e-17 0.35062624337831283 0.9365154763559718
12623450666.666666 0.35871052293161915 0.9334488527701796 -4.9341783061982004e-17 -6.394489059069826e-17 -4.9341783061982004e-17 -6.394489059069826e-17 0.35870993022980296 0.9334490805364641
12624068000.0 0.36676739463232594 0.9303126776705005 -4.988865660751682e-17 -6.349905975377947e-17 -4.988865660751682e-17 -6.349905975377947e-17 0.3667668039507404 0.9303129105411794
12624685333.333334 0.3747968509171762 0.927106962837843 -5.0431509526350933e-17 -6.304855808783964e-17 -5.0431509526350933e-17 -6.304855808783964e-17 0.37479626229977414 0.9271072007950104
12625302666.666666 0.3827982915940852 0.9238319478955531 -5.097030197993326e-17 -6.259342178658566e-17 -5.097030197993326e-17 -6.259342178658566e-17 0.3827977050846612 0.9238321909209258
12625920000.0 0.39077111856523333 0.9204878776470214 -5.1504994454986175e-17 -6.213368738301687e-17 -5.1504994454986175e-17 -6.213368738301687e-17 0.3907705342074201 0.9204881257219394
12626537333.333334 0.39871473587156264 0.9170750020574714 -5.203554776636828e-17 -6.166939174652614e-17 -5.203554776636828e-17 -6.166939174652614e-17 0.3987141537088275 0.917075255162898
12627154666.666666 0.4066285497373768 0.913593576235253 -5.2561923059937276e-17 -6.120057207995416e-17 -5.2561923059937276e-17 -6.120057207995416e-17 0.4066279698130188 0.9135938343517777
12627772000.0 0.4145119686149068 0.9100438604126921 -5.308408181540393e-17 -6.072726591660465e-17 -5.308408181540393e-17 -6.072726591660465e-17 0.41451139097205386 0.9100441235205325
12628389333.333334 0.422364403228191 0.90642611992679 -5.360198584910716e-17 -6.024951111727998e-17 -5.360198584910716e-17 -6.024951111727998e-17 0.4223638279097958 0.9064263880057916
12629006666.666666 0.4301852666174077 0.90274062519926 -5.4115597316821484e-17 -5.976734586724241e-17 -5.4115597316821484e-17 -5.976734586724241e-17 0.43018469366624534 0.9027408982288992
12629624000.0 0.43797397418262085 0.8989876517163746 -5.462487871649252e-17 -5.928080867319082e-17 -5.462487871649252e-17 -5.928080867319082e-17 0.4379734036412852 0.8989879296757598
12630241333.333334 0.44572994372752917 0.8951674800083476 -5.5129792890966055e-17 -5.878993836019596e-17 -5.5129792890966055e-17 -5.878993836019596e-17 0.4457293756384295 0.8951677628762201
12630858666.666666 0.45345259550288186 0.8912803956284138 -5.563030303068644e-17 -5.829477406861586e-17 -5.563030303068644e-17 -5.829477406861586e-17 0.4534520299082405 0.8912806833831513
12631476000.0 0.46114135224999364 0.8873266891313982 -5.61263726763785e-17 -5.779535525097686e-17 -5.61263726763785e-17 -5.779535525097686e-17 0.46114078919184226 0.8873269817510149
12632093333.333334 0.46879563924371587 0.8833066560520858 -5.661796572167112e-17 -5.729172166886281e-17 -5.661796572167112e-17 -5.729172166886281e-17 0.46879507876389226 0.8833069535142337
12632710666.666666 0.4764148843354474 0.879220596883105 -5.710504641572339e-17 -5.678391338975107e-17 -5.710504641572339e-17 -5.678391338975107e-17 0.476414326475593 0.8792208991650778
12633328000.0 0.48399851799607807 0.8750688170523745 -5.758757936581338e-17 -5.627197078383658e-17 -5.758757936581338e-17 -5.627197078383658e-17 0.4839979627976337 0.8750691241311064
12633945333.333334 0.491545973358233 0.8708516269004432 -5.806552953989146e-17 -5.575593452083992e-17 -5.806552953989146e-17 -5.575593452083992e-17 0.4915454208624373 0.8708519387525129
12634562666.666666 0.49905668625892236 0.8665693416571483 -5.853886226911228e-17 -5.523584556678792e-17 -5.853886226911228e-17 -5.523584556678792e-17 0.4990561365068076 0.8665696582587803
12635180000.0 0.5065300952815868 0.8622222814181197 -5.90075432503363e-17 -5.471174518077437e-17 -5.90075432503363e-17 -5.471174518077437e-17 0.5065295483139757 0.8622226027451848
12635797333.333334 0.5139656417981096 0.8578107711208215 -5.94715385486034e-17 -5.418367491169755e-17 -5.94715385486034e-17 -5.418367491169755e-17 0.5139650976556132 0.8578110971488403
12636414666.666666 0.5213627700105022 0.8533351405203097 -5.993081459957222e-17 -5.365167659498444e-17 -5.993081459957222e-17 -5.365167659498444e-17 0.5213622287335169 0.8533354712244541
12637032000.0 0.5287209269924995 0.8487957241645561 -6.038533821193732e-17 -5.311579234928534e-17 -6.038533821193732e-17 -5.311579234928534e-17 0.5287203886212025 0.84879605951965
12637649333.333334 0.5360395627309359 0.8441928613694071 -6.083507656981728e-17 -5.257606457314842e-17 -6.083507656981728e-17 -5.257606457314842e-17 0.5360390273052846 0.844193201349931
12638266666.666666 0.543318130166788 0.8395268961932698 -6.127999723510532e-17 -5.2032535941682637e-17 -6.127999723510532e-17 -5.2032535941682637e-17 0.5433175977265147 0.8395272407733593
12638884000.0 0.5505560852361128 0.8347981774113592 -6.172006814979663e-17 -5.148524940319416e-17 -6.172006814979663e-17 -5.148524940319416e-17 0.550555555820723 0.8347985265648087
12639501333.333334 0.5577528869106443 0.8300070584896748 -6.215525763828708e-17 -5.093424817580144e-17 -6.215525763828708e-17 -5.093424817580144e-17 0.5577523605594141 0.8300074121899409
12640118666.666666 0.564907997238238 0.8251538975585851 -6.258553440962442e-17 -5.0379575744052214e-17 -6.258553440962442e-17 -5.0379575744052214e-17 0.5649074739902096 0.8251542557787855
12640736000.0 0.5720208813833608 0.82023905738586 -6.301086755977519e-17 -4.98212758554646e-17 -6.301086755977519e-17 -4.98212758554646e-17 0.5720203612773418 0.8202394200987783
12641353333.333334 0.5790910076665312 0.815262905349926 -6.343122657379053e-17 -4.9259392517139115e-17 -6.343122657379053e-17 -4.9259392517139115e-17 0.5790904907410903 0.8152632725280126
12641970666.666666 0.5861178476045767 0.8102258134120501 -6.384658132801136e-17 -4.869396999226201e-17 -6.384658132801136e-17 -4.869396999226201e-17 0.5861173338980407 0.810226185027424
12642588000.0 0.593100875949811 0.8051281580887651 -6.425690209219992e-17 -4.8125052796646665e-17 -6.425690209219992e-17 -4.8125052796646665e-17 0.5931003655002623 0.8051285341132163
12643205333.333334 0.6000395707294576 0.799970320423608 -6.466215953164897e-17 -4.755268569524631e-17 -6.466215953164897e-17 -4.755268569524631e-17 0.6000390635747315 0.7999707008285994
12643822666.666666 0.6069334132846648 0.7947526859586369 -6.506232470927717e-17 -4.6976913698624893e-17 -6.506232470927717e-17 -4.6976913698624893e-17 0.6069329094623472 0.7947530707153078
12644440000.0 0.6137818883092083 0.7894756447056644 -6.545736908766825e-17 -4.639778205944608e-17 -6.545736908766825e-17 -4.639778205944608e-17 0.6137813878566322 0.789476033784831
12645057333.333334 0.6205844838879409 0.784139591117155 -6.584726453109345e-17 -4.5815336268924563e-17 -6.584726453109345e-17 -4.5815336268924563e-17 0.6205839868421834 0.7841399844893138
12645674666.666666 0.627340691535195 0.7787449240566412 -6.623198330750134e-17 -4.522962205326255e-17 -6.623198330750134e-17 -4.522962205326255e-17 0.6273401979330757 0.7787453216919705
12646292000.0 0.6340500062328558 0.7732920467688501 -6.661149809047797e-17 -4.464068537006556e-17 -6.661149809047797e-17 -4.464068537006556e-17 0.6340495161109322 0.7732924486372117
12646909333.333334 0.6407119264678428 0.7677813668497738 -6.69857819611636e-17 -4.4048572404761495e-17 -6.69857819611636e-17 -4.4048572404761495e-17 0.6407114398624096 0.7677817729207173
12647526666.666666 0.647325954269844 0.7622132962160113 -6.73548084101535e-17 -4.3453329566978707e-17 -6.73548084101535e-17 -4.3453329566978707e-17 0.6473254712169292 0.7622137064587741
12648144000.0 0.6538915952484261 0.7565882510740628 -6.771855133935892e-17 -4.285500348691971e-17 -6.771855133935892e-17 -4.285500348691971e-17 0.6538911157837891 0.7565886654575744
12648761333.333334 0.6604083586300342 0.7509066518891846 -6.807698506383294e-17 -4.2253641011725476e-17 -6.807698506383294e-17 -4.2253641011725476e-17 0.6604078827891617 0.750907070382067
12649378666.666666 0.6668757572945893 0.7451689233540333 -6.843008431356283e-17 -4.164928920182663e-17 -6.843008431356283e-17 -4.164928920182663e-17 0.6668752851126947 0.7451693459246054
12649996000.0 0.673293307812051 0.7393754943567903 -6.877782423524778e-17 -4.1041995327250524e-17 -6.877782423524778e-17 -4.1041995327250524e-17 0.6732928393240702 0.7393759209730689
12650613333.333334 0.6796605304784038 0.7335267979492343 -6.91201803940228e-17 -4.04318068639488e-17 -6.91201803940228e-17 -4.04318068639488e-17 0.6796600657189933 0.7335272285789366
12651230666.666666 0.6859769493515575 0.7276232713143345 -6.945712877515535e-17 -3.9818771490103213e-17 -6.945712877515535e-17 -3.9818771490103213e-17 0.6859764883550917 0.7276237059248813
12651848000.0 0.692242092287047 0.7216653557334538 -6.978864578572442e-17 -3.9202937082389445e-17 -6.978864578572442e-17 -3.9202937082389445e-17 0.6922416350876169 0.7216657942919729
12652465333.333334 0.6984554909731611 0.7156534965535227 -7.01147082562404e-17 -3.858435171227499e-17 -7.01147082562404e-17 -3.858435171227499e-17 0.6984550376045685 0.7156539390268472
12653082666.666666 0.7046166809659644 0.7095881431537243 -7.04352934422532e-17 -3.796306364226607e-17 -7.04352934422532e-17 -3.796306364226607e-17 0.7046162314617235 0.7095885895084003
12653700000.0 0.7107252017241416 0.703469748911792 -7.075037902592654e-17 -3.733912132214091e-17 -7.075037902592654e-17 -3.733912132214091e-17 0.710724756117473 0.7034701991140777
12654317333.333334 0.7167805966432578 0.6972987711702763 -7.10599431175598e-17 -3.671257338520888e-17 -7.10599431175598e-17 -3.671257338520888e-17 0.716780154967088 0.6972992251861455
12654934666.666666 0.7227824130900098 0.6910756712022386 -7.136396425710102e-17 -3.6083468644508377e-17 -7.136396425710102e-17 -3.6083468644508377e-17 0.7227819753769685 0.6910761289973839
12655552000.0 0.7287302024360987 0.6848009141767296 -7.16624214156115e-17 -3.545185608902298e-17 -7.16624214156115e-17 -3.545185608902298e-17 0.7287297687185164 0.6848013757165645
12656169333.333334 0.734623520091509 0.678474969124287 -7.195529399669797e-17 -3.4817784879883696e-17 -7.195529399669797e-17 -3.4817784879883696e-17 0.7346230904014142 0.6784754343739482
12656786666.666666 0.7404619255380557 0.6720983089015455 -7.224256183792004e-17 -3.4181304346541073e-17 -7.224256183792004e-17 -3.4181304346541073e-17 0.7404614999071722 0.6720987778258958
12657404000.0 0.7462449823621343 0.6656714101560769 -7.252420521215449e-17 -3.35424639829466e-17 -7.252420521215449e-17 -3.35424639829466e-17 0.7462445608218804 0.665671882719708
12658021333.333334 0.7519722582874216 0.6591947532906783 -7.280020482893105e-17 -3.2901313443710505e-17 -7.280020482893105e-17 -3.2901313443710505e-17 0.7519718408689056 0.6591952294579132
12658638666.666666 0.757643325207015 0.6526688224276532 -7.307054183572953e-17 -3.225790254026149e-17 -7.307054183572953e-17 -3.225790254026149e-17 0.7576429119410358 0.6526693021625495
12659256000.0 0.763257759215739 0.6460941053722843 -7.333519781925162e-17 -3.1612281236975025e-17 -7.333519781925162e-17 -3.1612281236975025e-17 0.7632573501327803 0.6460945886386358
12659873333.333334 0.7688151406415795 0.639471093576645 -7.359415480665083e-17 -3.096449964731033e-17 -7.359415480665083e-17 -3.096449964731033e-17 0.7688147357718115 0.6394715803379862
12660490666.666666 0.774315054077102 0.632800282102827 -7.384739526672775e-17 -3.031460802993967e-17 -7.384739526672775e-17 -3.031460802993967e-17 0.7743146534503749 0.6328007723224335
12661108000.0 0.7797570884106036 0.6260821695857989 -7.409490211110342e-17 -2.966265678483638e-17 -7.409490211110342e-17 -2.966265678483638e-17 0.7797566920564485 0.6260826632266918
12661725333.333334 0.7851408368567032 0.6193172581963131 -7.433665869533904e-17 -2.900869644940444e-17 -7.433665869533904e-17 -2.900869644940444e-17 0.7851404448043291 0.6193177552212614
12662342666.666666 0.7904658969868723 0.6125060536032123 -7.45726488200374e-17 -2.835277769455671e-17 -7.45726488200374e-17 -2.835277769455671e-17 0.7904655092651639 0.6125065539747362
12662960000.0 0.7957318707594457 0.6056490649357226 -7.480285673190544e-17 -2.7694951320797295e-17 -7.480285673190544e-17 -2.7694951320797295e-17 0.7957314873969608 0.6056495686160952
12663577333.333334 0.8009383645494064 0.5987468047453478 -7.502726712477881e-17 -2.7035268254303888e-17 -7.502726712477881e-17 -2.7035268254303888e-17 0.8009379855743746 0.5987473116965991
12664194666.666666 0.8060849891777448 0.5917997889676518 -7.524586514061543e-17 -2.6373779542993777e-17 -7.524586514061543e-17 -2.6373779542993777e-17 0.8060846146180646 0.5918002991515704
12664812000.0 0.8111713599406476 0.5848085368835542 -7.545863637045411e-17 -2.5710536352581856e-17 -7.545863637045411e-17 -2.5710536352581856e-17 0.8111709898238848 0.584809050261691
12665429333.333334 0.8161970966382038 0.5777735710805821 -7.566556685533613e-17 -2.504558996264002e-17 -7.566556685533613e-17 -2.504558996264002e-17 0.8161967309915905 0.5777740876142538
12666046666.666666 0.8211618236027769 0.5706954174138802 -7.586664308719501e-17 -2.4378991762640764e-17 -7.586664308719501e-17 -2.4378991762640764e-17 0.8211614624532074 0.5706959370641705
12666664000.0 0.8260651697271995 0.5635746049667386 -7.606185200971478e-17 -2.3710793247980753e-17 -7.606185200971478e-17 -2.3710793247980753e-17 0.8260648131012288 0.563575127694502
12667281333.333334 0.8309067684923797 0.5564116660112308 -7.625118101914115e-17 -2.3041046016041417e-17 -7.625118101914115e-17 -2.3041046016041417e-17 0.830906416416223 0.5564121917770959
12667898666.666666 0.8356862579948005 0.5492071359682891 -7.643461796507318e-17 -2.23698017621912e-17 -7.643461796507318e-17 -2.23698017621912e-17 0.8356859104943308 0.5492076647326617
12668516000.0 0.8404032809735816 0.5419615533676552 -7.661215115120998e-17 -2.1697112275814312e-17 -7.661215115120998e-17 -2.1697112275814312e-17 0.8404029380743268 0.5419620850907204
12669133333.333334 0.8450574848370617 0.5346754598078177 -7.678376933606417e-17 -2.1023029436331992e-17 -7.678376933606417e-17 -2.1023029436331992e-17 0.8450571465642034 0.5346759944495436
12669750666.666666 0.8496485216892476 0.5273493999153858 -7.694946173364516e-17 -2.034760520919866e-17 -7.694946173364516e-17 -2.034760520919866e-17 0.8496481880676194 0.527349937435526
12670368000.0 0.8541760483558498 0.51998392130433 -7.710921801410187e-17 -1.967089164191259e-17 -7.710921801410187e-17 -1.967089164191259e-17 0.8541757194099339 0.5199844616624265
12670985333.333334 0.8586397264098249 0.5125795745352169 -7.726302830433182e-17 -1.8992940860019997e-17 -7.726302830433182e-17 -1.8992940860019997e-17 0.8586394021637537 0.5125801176906043
