! Parameters = {f0=12700.012000; bw=77.238000; Q=6100.000000; N=10; m_0_1=1.252147; m_1_1=0.017462; m_1_2=1.086959; m_2_2=0.016813; m_2_3=0.723922; m_2_8=-0.000329; m_2_9=0.036375; m_3_3=0.014876; m_3_4=0.612451; m_3_7=0.000271; m_3_8=-0.096817; m_3_9=-0.000329; m_4_4=0.011951; m_4_5=0.448786; m_4_6=0.003788; m_4_7=-0.117366; m_4_8=0.000271; m_5_5=0.012333; m_5_6=0.856141; m_5_7=0.003788; m_6_6=0.012332; m_6_7=0.449128; m_7_7=0.011965; m_7_8=0.612569; m_8_8=0.014874; m_8_9=0.724235; m_9_9=0.016808; m_9_10=1.088037; m_10_10=0.017452; m_10_11=1.252942}
!
! Created with skrf (http://scikit-rf.org).
# Hz S RI R 50.0 
!freq ReS11 ImS11 ReS21 ImS21 ReS12 ImS12 ReS22 ImS22
12607400000.0 0.5278097739478325 -0.8493626095637646 -2.690421180265746e-17 9.796969307086284e-17 -2.690421180265746e-17 9.796969307086284e-17 0.5278103343043109 -0.849362261347536
12608017333.333334 0.5192940270491568 -0.8545956432552753 -2.5909873093782204e-17 9.821676729204983e-17 -2.5909873093782204e-17 9.821676729204983e-17 0.5192945908304617 -0.854595300673981
12608634666.666666 0.5107264013360048 -0.859743300630021 -2.4913288967557607e-17 9.845375687488229e-17 -2.4913288967557607e-17 9.845375687488229e-17 0.5107269684854794 -0.8597429637173313
12609252000.0 0.5021077527363365 -0.864805067423806 -2.3914561629110732e-17 9.868064167356057e-17 -2.3914561629110732e-17 9.868064167356057e-17 0.5021083231969944 -0.8648047362128233
12609869333.333334 0.49343894227550333 -0.8697804379530852 -2.291379346139171e-17 9.889740257736847e-17 -2.291379346139171e-17 9.889740257736847e-17 0.49343951599003255 -0.8697801124763378
12610486666.666666 0.48472083599015553 -0.8746689151655228 -2.191108701473506e-17 9.910402151220197e-17 -2.191108701473506e-17 9.910402151220197e-17 0.4847214129009248 -0.874668595454964
12611104000.0 0.4759543048416488 -0.8794700106896944 -2.0906544996317847e-17 9.930048144201163e-17 -2.0906544996317847e-17 9.930048144201163e-17 0.47595488489071297 -0.8794696967766977
12611721333.333334 0.46714022462918053 -0.8841832448837899 -1.990027025972176e-17 9.948676637011468e-17 -1.990027025972176e-17 9.948676637011468e-17 0.4671408077582868 -0.8841829367991468
12612338666.666666 0.458279475902247 -0.8888081468835611 -1.8892365794371524e-17 9.966286134042431e-17 -1.8892365794371524e-17 9.966286134042431e-17 0.45828006205284094 -0.8888078446574788
12612956000.0 0.44937294387247323 -0.8933442546494692 -1.7882934715036856e-17 9.982875243855725e-17 -1.7882934715036856e-17 9.982875243855725e-17 0.4493735329857036 -0.8933439583115651
12613573333.333334 0.4404215183256049 -0.8977911150126169 -1.6872080251306394e-17 9.998442679284041e-17 -1.6872080251306394e-17 9.998442679284041e-17 0.44042211034233075 -0.8977908245919183
12614190666.666666 0.4314260935321629 -0.9021482837202575 -1.5859905737045247e-17 1.001298725752113e-16 -1.5859905737045247e-17 1.001298725752113e-16 0.43142668839295895 -0.9021479992451975
12614808000.0 0.42238756815840706 -0.9064153254800225 -1.4846514599843347e-17 1.0026507900201303e-16 -1.4846514599843347e-17 1.0026507900201303e-16 0.4223881658035699 -0.9064150469784383
12615425333.333334 0.4133068451764563 -0.9105918140034606 -1.3832010350486891e-17 1.0039003633467863e-16 -1.3832010350486891e-17 1.0039003633467863e-16 0.41330744554600984 -0.9105915415025885
12616042666.666666 0.4041848317740007 -0.9146773320486583 -1.2816496572382663e-17 1.0050473588031487e-16 -1.2816496572382663e-17 1.0050473588031487e-16 0.4041854348077028 -0.9146770655751333
12616660000.0 0.39502243926385255 -0.9186714714618412 -1.1800076911024745e-17 1.0060916999217317e-16 -1.1800076911024745e-17 1.0060916999217317e-16 0.39502304490120094 -0.9186712110416939
12617277333.333334 0.38582058299267025 -0.9225738332182551 -1.0782855063410566e-17 1.0070333207002073e-16 -1.0782855063410566e-17 1.0070333207002073e-16 0.38582119117290814 -0.9225735788769083
12617894666.666666 0.37658018224985185 -0.926384027461882 -9.764934767518705e-18 1.0078721656039763e-16 -9.764934767518705e-18 1.0078721656039763e-16 0.3765807929119749 -0.926383779224149
12618512000.0 0.36730216017519846 -0.9301016735445974 -8.746419791695048e-18 1.0086081895677676e-16 -8.746419791695048e-18 1.0086081895677676e-16 0.36730277325795996 -0.9301014314346796
12619129333.333334 0.35798744366726754 -0.9337264000639603 -7.727413924157503e-18 1.009241357996066e-16 -7.727413924157503e-18 1.009241357996066e-16 0.3579880591091851 -0.9337261641054442
12619746666.666666 0.3486369632903 -0.9372578449005095 -6.708020962388136e-18 1.009771646762575e-16 -6.708020962388136e-18 1.009771646762575e-16 0.34863758102966136 -0.9372576151163643
12620364000.0 0.33925165318146333 -0.9406956552538505 -5.688344702603012e-18 1.010199042208547e-16 -5.688344702603012e-18 1.010199042208547e-16 0.33925227315633344 -0.9406954316664287
12620981333.333334 0.3298324509575596 -0.9440394876779029 -4.668488929206337e-18 1.0105235411400852e-16 -4.668488929206337e-18 1.0105235411400852e-16 0.32983307310578525 -0.9440392703089325
12621598666.666666 0.320380297621298 -0.9472890081152198 -3.648557404241184e-18 1.0107451508243677e-16 -3.648557404241184e-18 1.0107451508243677e-16 0.32038092188051565 -0.947288796985808
12622216000.0 0.31089613746720807 -0.9504438919303964 -2.6286538568438306e-18 1.0108638889848255e-16 -2.6286538568438306e-18 1.0108638889848255e-16 0.31089676377484915 -0.9504436870610241
12622833333.333334 0.3013809179874626 -0.9535038239424436 -1.608881972731364e-18 1.010879783795238e-16 -1.608881972731364e-18 1.010879783795238e-16 0.3013815462807601 -0.9535036253529644
12623450666.666666 0.2918355897771134 -0.9564684984563125 -5.893453836691265e-19 1.0107928738727918e-16 -5.893453836691265e-19 1.0107928738727918e-16 0.2918362199931079 -0.9564683061659508
12624068000.0 0.2822611064392052 -0.9593376192934083 4.2985234303216554e-19 1.0106032082700624e-16 4.2985234303216554e-19 1.0106032082700624e-16 0.28226173851475156 -0.9593374333207573
12624685333.333334 0.2726584244892638 -0.962110899821253 1.4486077150430777e-18 1.0103108464659494e-16 1.4486077150430777e-18 1.0103108464659494e-16 0.2726590583610373 -0.9621107201842732
12625302666.666666 0.26302850326022803 -0.964788062981976 2.4668173254528653e-18 1.0099158583555594e-16 2.4668173254528653e-18 1.0099158583555594e-16 0.2630291388647308 -0.9647878896979932
12625920000.0 0.2533723048059817 -0.9673688413201726 3.484377863308947e-18 1.0094183242390109e-16 3.484377863308947e-18 1.0094183242390109e-16 0.25337294207954886 -0.9673686744058764
12626537333.333334 0.24369079380584444 -0.969852977009457 4.501186124030565e-18 1.0088183348092211e-16 4.501186124030565e-18 1.0088183348092211e-16 0.24369143268465038 -0.9698528164808985
12627154666.666666 0.23398493746781332 -0.9722402218783234 5.5171390198649874e-18 1.0081159911386223e-16 5.5171390198649874e-18 1.0081159911386223e-16 0.23398557788787883 -0.9722400677509151
12627772000.0 0.22425570543199191 -0.9745303374349247 6.532133590356351e-18 1.0073114046648076e-16 6.532133590356351e-18 1.0073114046648076e-16 0.22425634732918956 -0.9745301897234372
12628389333.333334 0.21450406967388505 -0.976723094890855 7.546067012697227e-18 1.0064046971751896e-16 7.546067012697227e-18 1.0064046971751896e-16 0.2145047129839465 -0.9767229536094171
12629006666.666666 0.2047310044071033 -0.9788182751840542 8.55883661219101e-18 1.0053960007905312e-16 8.55883661219101e-18 1.0053960007905312e-16 0.20473164906562524 -0.9788181403461513
12629624000.0 0.19493748598611946 -0.9808156690006744 9.570339872574945e-18 1.0042854579475166e-16 9.570339872574945e-18 1.0042854579475166e-16 0.19493813192857 -0.9808155406191461
12630241333.333334 0.18512449280878318 -0.9827150767959753 1.0580474446417442e-17 1.00307322138021e-16 1.0580474446417442e-17 1.00307322138021e-16 0.1851251399705089 -0.9827149548830161
12630858666.666666 0.17529300521852217 -0.9845163088142769 1.1589138165414166e-17 1.0017594541005436e-16 1.1589138165414166e-17 1.0017594541005436e-16 0.17529365353475368 -0.9845161933814324
12631476000.0 0.1654440054063182 -0.9862191851079268 1.2596229050755943e-17 1.0003443293776698e-16 1.2596229050755943e-17 1.0003443293776698e-16 0.1654446548121775 -0.986219076166096
12632093333.333334 0.15557847731272412 -0.9878235355552542 1.3601645323359556e-17 9.98828030716415e-17 1.3601645323359556e-17 9.98828030716415e-17 0.1555791277432306 -0.9878234331146859
12632710666.666666 0.14569740652959398 -0.9893291998775628 1.4605285414173786e-17 9.972107518345797e-17 1.4605285414173786e-17 9.972107518345797e-17 0.14569805791967086 -0.9893291039478546
12633328000.0 0.13580178020139505 -0.9907360276551778 1.560704797441165e-17 9.954926966392617e-17 1.560704797441165e-17 9.954926966392617e-17 0.13580243248587617 -0.9907359382452761
12633945333.333334 0.12589258692675773 -0.9920438783424437 1.6606831885762054e-17 9.936740792021566e-17 1.6606831885762054e-17 9.936740792021566e-17 0.12589324004039407 -0.9920437954606443
12634562666.666666 0.11597081665976913 -0.9932526212817643 1.7604536270568397e-17 9.917551237338432e-17 1.7604536270568397e-17 9.917551237338432e-17 0.11597147053723499 -0.9932525449357077
12635180000.0 0.10603746061087589 -0.9943621357166743 1.860006050200693e-17 9.897360645569959e-17 1.860006050200693e-17 9.897360645569959e-17 0.10603811518677585 -0.9943620659133496
12635797333.333334 0.09609351114805802 -0.9953723108038856 1.959330421419613e-17 9.876171460786537e-17 1.959330421419613e-17 9.876171460786537e-17 0.09609416635693316 -0.995372247549626
12636414666.666666 0.08613996169757536 -0.9962830456243695 2.0584167312306773e-17 9.853986227614214e-17 2.0584167312306773e-17 9.853986227614214e-17 0.08614061747391007 -0.9962829889248553
12637032000.0 0.07617780664477838 -0.9970942491934345 2.157254998262333e-17 9.830807590936804e-17 2.157254998262333e-17 9.830807590936804e-17 0.07617846292300663 -0.9970941990536892
12637649333.333334 0.06620804123465347 -0.9978058404698275 2.255835270259002e-17 9.806638295587753e-17 2.255835270259002e-17 9.806638295587753e-17 0.06620869794916547 -0.997805796894218
12638266666.666666 0.05623166147259324 -0.9984177483638101 2.3541476250792326e-17 9.781481186032467e-17 2.3541476250792326e-17 9.781481186032467e-17 0.05623231855774209 -0.9984177113560485
12638884000.0 0.0462496640246666 -0.9989299117442796 2.4521821716945996e-17 9.755339206039805e-17 2.4521821716945996e-17 9.755339206039805e-17 0.04625032141477484 -0.9989298813074217
12639501333.333334 0.0362630461182477 -0.9993422794448635 2.5499290511808758e-17 9.72821539834454e-17 2.5499290511808758e-17 9.72821539834454e-17 0.03626370374761376 -0.9993422555813074
12640118666.666666 0.02627280544233357 -0.9996548102690347 2.6473784377077867e-17 9.700112904299433e-17 2.6473784377077867e-17 9.700112904299433e-17 0.026273463245238417 -0.9996547929805223
12640736000.0 0.016279940047645228 -0.9998674729942332 2.7445205395282877e-17 9.671034963516367e-17 2.7445205395282877e-17 9.671034963516367e-17 0.016280597958358935 -0.9998674622818506
12641353333.333334 0.006285448247374365 -0.9999802463749772 2.841345599953307e-17 9.640984913500797e-17 2.841345599953307e-17 9.640984913500797e-17 0.0062861062001626 -0.9999802422391503
12641970666.666666 -0.0037096714829201573 -0.9999931191449865 2.937843898335961e-17 9.609966189272409e-17 2.937843898335961e-17 9.609966189272409e-17 -0.0037090135537894585 -0.9999931215854876
12642588000.0 -0.013704420605005655 -0.9999060900183125 3.0340057510435273e-17 9.577982322978522e-17 3.0340057510435273e-17 9.577982322978522e-17 -0.013703762765255803 -0.9999060990342558
12643205333.333334 -0.023697800617533356 -0.999719167689467 3.1298215124255465e-17 9.545036943497687e-17 3.1298215124255465e-17 9.545036943497687e-17 -0.0236971429328723 -0.999719183279309
12643822666.666666 -0.0336888131561322 -0.9994323708325447 3.2252815757822876e-17 9.511133776032028e-17 3.2252815757822876e-17 9.511133776032028e-17 -0.03368815569224597 -0.9994323929940857
12644440000.0 -0.0436764600927786 -0.9990457280993666 3.320376374323766e-17 9.476276641691807e-17 3.320376374323766e-17 9.476276641691807e-17 -0.04367580291532479 -0.9990457568297516
12645057333.333334 -0.05365974363576777 -0.9985592781166142 3.415096382126195e-17 9.44046945706968e-17 3.415096382126195e-17 9.44046945706968e-17 -0.05365908681036895 -0.9985593134123317
12645674666.666666 -0.06363766642916859 -0.9979730694819774 3.509432115084748e-17 9.403716233805196e-17 3.509432115084748e-17 9.403716233805196e-17 -0.0636370100214057 -0.9979731113388604
12646292000.0 -0.07360923165288756 -0.9972871607592775 3.603374131863534e-17 9.366021078139009e-17 3.603374131863534e-17 9.366021078139009e-17 -0.07360857572829349 -0.9972872091725041
12646909333.333334 -0.08357344312165815 -0.9965016204726515 3.6969130348344634e-17 9.32738819046014e-17 3.6969130348344634e-17 9.32738819046014e-17 -0.08357278774571109 -0.9965016754367448
12647526666.666666 -0.09352930538507266 -0.9956165270996741 3.7900394710171825e-17 9.28782186484159e-17 3.7900394710171825e-17 9.28782186484159e-17 -0.09352865062318956 -0.9956165886085041
12648144000.0 -0.10347582382677498 -0.9946319690635328 3.8827441330137956e-17 9.247326488566667e-17 3.8827441330137956e-17 9.247326488566667e-17 -0.1034751697443051 -0.9946320371103157
12648761333.333334 -0.11341200476393869 -0.9935480447241865 3.975017759933879e-17 9.20590654164802e-17 3.975017759933879e-17 9.20590654164802e-17 -0.11341135142615714 -0.9935481193014872
12649378666.666666 -0.12333685554631257 -0.9923648623685631 4.0668511383196464e-17 9.16356659633522e-17 4.0668511383196464e-17 9.16356659633522e-17 -0.1233362030184136 -0.9923649434682938
12649996000.0 -0.1332493846557561 -0.9910825401997008 4.1582351030630605e-17 9.120311316614394e-17 4.1582351030630605e-17 9.120311316614394e-17 -0.13324873300284665 -0.9910826278131231
12650613333.333334 -0.14314860180501196 -0.9897012063249693 4.2491605383197396e-17 9.076145457697778e-17 4.2491605383197396e-17 9.076145457697778e-17 -0.14314795109210532 -0.9897013004426952
12651230666.666666 -0.15303351803661114 -0.9882209987432814 4.339618378413124e-17 9.031073865506277e-17 4.339618378413124e-17 9.031073865506277e-17 -0.15303286832862018 -0.9882210993552731
12651848000.0 -0.16290314582203716 -0.9866420653312497 4.429599608740913e-17 8.98510147613933e-17 4.429599608740913e-17 8.98510147613933e-17 -0.16290249718376826 -0.9866421724268236
12652465333.333334 -0.17275649915993355 -0.9849645638284827 4.5190952666669585e-17 8.938233315340127e-17 4.5190952666669585e-17 8.938233315340127e-17 -0.17275585165607985 -0.9849646773963076
12653082666.666666 -0.18259259367483258 -0.9831886618217924 4.6080964424139607e-17 8.890474497948855e-17 4.6080964424139607e-17 8.890474497948855e-17 -0.18259194736996745 -0.9831887818498909
12653700000.0 -0.19241044671555269 -0.9813145367284396 4.69659427994887e-17 8.841830227347785e-17 4.69659427994887e-17 8.841830227347785e-17 -0.1924098016741234 -0.9813146632041906
12654317333.333334 -0.2022090774531996 -0.9793423757784385 4.7845799778604863e-17 8.792305794898675e-17 4.7845799778604863e-17 8.792305794898675e-17 -0.20220843373952124 -0.9793425086885791
12654934666.666666 -0.21198750697921095 -0.9772723759958476 4.87204479023319e-17 8.741906579370393e-17 4.87204479023319e-17 8.741906579370393e-17 -0.2119868646574594 -0.977272515326472
12655552000.0 -0.22174475840337293 -0.9751047441790341 4.958980027516142e-17 8.690638046357005e-17 4.958980027516142e-17 8.690638046357005e-17 -0.22174411753757892 -0.9751048899155976
12656169333.333334 -0.2314798569509425 -0.9728396968801188 5.045377057380259e-17 8.638505747690803e-17 5.045377057380259e-17 8.638505747690803e-17 -0.23147921760498497 -0.9728398490074375
12656786666.666666 -0.24119183006052916 -0.9704774603832298 5.131227305577657e-17 8.585515320841826e-17 5.131227305577657e-17 8.585515320841826e-17 -0.2411911922981291 -0.970477618885483
12657404000.0 -0.25087970748089616 -0.9680182706819792 5.216522256787262e-17 8.531672488313368e-17 5.216522256787262e-17 8.531672488313368e-17 -0.25087907136561016 -0.9680184355427116
12658021333.333334 -0.26054252136816786 -0.9654623734558215 5.3012534554596866e-17 8.476983057025711e-17 5.3012534554596866e-17 8.476983057025711e-17 -0.2605418869633816 -0.965462544657943
12658638666.666666 -0.2701793063821607 -0.9628100240455975 5.38541250665016e-17 8.421452917694961e-17 5.38541250665016e-17 8.421452917694961e-17 -0.270178673751083 -0.9628102015713873
12659256000.0 -0.27978909978331934 -0.9600614874278984 5.4689910768524335e-17 8.365088044198924e-17 5.4689910768524335e-17 8.365088044198924e-17 -0.27978846898897564 -0.9600616712590054
12659873333.333334 -0.2893709415284293 -0.9572170381887181 5.55198089481771e-17 8.307894492940106e-17 5.55198089481771e-17 8.307894492940106e-17 -0.2893703126336549 -0.9572172283061614
12660490666.666666 -0.2989238743667465 -0.9542769604959574 5.634373752372928e-17 8.24987840219676e-17 5.634373752372928e-17 8.24987840219676e-17 -0.2989232474341821 -0.9542771568801341
12661108000.0 -0.30844694393568567 -0.9512415480710278 5.716161505230845e-17 8.191045991466736e-17 5.716161505230845e-17 8.191045991466736e-17 -0.3084463190277686 -0.9512417507017074
12661725333.333334 -0.3179391988559979 -0.9481111041595478 5.797336073791477e-17 8.131403560804682e-17 5.797336073791477e-17 8.131403560804682e-17 -0.31793857603495757 -0.9481113130158783
12662342666.666666 -0.32739969082689885 -0.9448859415010269 5.877889443938725e-17 8.070957490149806e-17 5.877889443938725e-17 8.070957490149806e-17 -0.32739907015475017 -0.9448861565615375
12662960000.0 -0.3368274747208864 -0.9415663822975947 5.957813667830044e-17 8.009714238645796e-17 5.957813667830044e-17 8.009714238645796e-17 -0.33682685625942393 -0.9415666035401972
12663577333.333334 -0.34622160867797486 -0.9381527581818787 6.037100864676784e-17 7.947680343954665e-17 6.037100864676784e-17 7.947680343954665e-17 -0.34622099248876537 -0.9381529855838671
12664194666.666666 -0.35558115420000036 -0.9346454101837904 6.115743221520578e-17 7.884862421560444e-17 6.115743221520578e-17 7.884862421560444e-17 -0.35558054034437875 -0.9346456437218488
12664812000.0 -0.364905176244169 -0.9310446886965426 6.193732994000283e-17 7.821267164066995e-17 6.193732994000283e-17 7.821267164066995e-17 -0.36490456478323036 -0.9310449283467421
12665429333.333334 -0.3741927433167073 -0.927350953441547 6.271062507111903e-17 7.756901340488103e-17 6.271062507111903e-17 7.756901340488103e-17 -0.3741921343113018 -0.9273511991793517
12666046666.666666 -0.38344292756557774 -0.9235645734326157 6.347724155962038e-17 7.691771795529375e-17 6.347724155962038e-17 7.691771795529375e-17 -0.383442321076304 -0.923564825232883
12666664000.0 -0.39265480487367355 -0.9196859269388916 6.42371040651409e-17 7.625885448862466e-17 6.42371040651409e-17 7.625885448862466e-17 -0.3926542009608734 -0.9196861847758764
12667281333.333334 -0.401827454950563 -0.9157154014472969 6.499013796325107e-17 7.559249294393727e-17 6.499013796325107e-17 7.559249294393727e-17 -0.4018268536743147 -0.9157156652946535
12667898666.666666 -0.4109599614249005 -0.9116533936236267 6.573626935276726e-17 7.491870399524047e-17 6.573626935276726e-17 7.491870399524047e-17 -0.41095936284501333 -0.9116536634544118
12668516000.0 -0.42005141193576473 -0.9075003092730056 6.647542506299766e-17 7.423755904400403e-17 6.647542506299766e-17 7.423755904400403e-17 -0.42005081611177286 -0.907500585059681
12669133333.333334 -0.4291008982237803 -0.9032565632993621 6.720753266085844e-17 7.354913021165025e-17 6.720753266085844e-17 7.354913021165025e-17 -0.4291003052149365 -0.9032568450137964
12669750666.666666 -0.4381075162219333 -0.8989225796639431 6.793252045798573e-17 7.285349033190916e-17 6.793252045798573e-17 7.285349033190916e-17 -0.43810692608720353 -0.8989228672774164
12670368000.0 -0.4470703661458637 -0.89449879134297 6.865031751770625e-17 7.215071294316118e-17 6.865031751770625e-17 7.215071294316118e-17 -0.44706977894392064 -0.8944990848261748
