! Parameters = {f0=12700.012000; bw=77.238000; Q=6100.000000; N=10; m_0_1=1.297993; m_1_1=0.705149; m_1_2=1.132805; m_2_2=0.704500; m_2_3=0.769768; m_2_8=0.001963; m_2_9=0.038667; m_3_3=0.702563; m_3_4=0.658297; m_3_7=0.002563; m_3_8=-0.094525; m_3_9=0.001963; m_4_4=0.699638; m_4_5=0.494632; m_4_6=0.006080; m_4_7=-0.115074; m_4_8=0.002563; m_5_5=0.700020; m_5_6=0.901987; m_5_7=0.006080; m_6_6=0.700019; m_6_7=0.494974; m_7_7=0.699652; m_7_8=0.658415; m_8_8=0.702561; m_8_9=0.770081; m_9_9=0.704495; m_9_10=1.133883; m_10_10=0.705139; m_10_11=1.298788}
!
! Created with skrf (http://scikit-rf.org).
# Hz S RI R 50.0 
!freq ReS11 ImS11 ReS21 ImS21 ReS12 ImS12 ReS22 ImS22
12607400000.0 -0.9057681822716274 0.4237735244020899 9.424555544418412e-17 -8.360090368411026e-17 9.424555544418412e-17 -8.360090368411026e-17 -0.9057684720510321 0.42377290503069465
12608017333.333334 -0.9008999007635016 0.4340269217504008 9.326481786873259e-17 -8.465692198841643e-17 9.326481786873259e-17 -8.465692198841643e-17 -0.9009001975397303 0.43402630573813217
12608634666.666666 -0.8959155542304504 0.4442244024001398 9.227226002039789e-17 -8.57014488566356e-17 9.227226002039789e-17 -8.57014488566356e-17 -0.8959158579645844 0.44422378982602667
12609252000.0 -0.890815784817466 0.454364652586287 9.126801639167385e-17 -8.673435212558525e-17 9.126801639167385e-17 -8.673435212558525e-17 -0.8908160954696964 0.454364043528909
12609869333.333334 -0.8856012495397647 0.46444636591690786 9.025222295109863e-17 -8.775550120441902e-17 9.025222295109863e-17 -8.775550120441902e-17 -0.8856015670693934 0.4644457604543827
12610486666.666666 -0.8802726201981677 0.4744682435414075 8.922501712489728e-17 -8.876476709108701e-17 8.922501712489728e-17 -8.876476709108701e-17 -0.880272944563615 0.4744676417513824
12611104000.0 -0.8748305832923639 0.48442899431821596 8.818653777842224e-17 -8.97620223885991e-17 8.818653777842224e-17 -8.97620223885991e-17 -0.8748309144511744 0.48442839627785783
12611721333.333334 -0.8692758399327364 0.4943273349806286 8.713692519745546e-17 -9.074714132103302e-17 8.713692519745546e-17 -9.074714132103302e-17 -0.8692761778415837 0.4943267407666138
12612338666.666666 -0.863609105749864 0.5041619903024586 8.607632106926929e-17 -9.171999974938316e-17 8.607632106926929e-17 -9.171999974938316e-17 -0.8636094503645548 0.5041613999909621
12612956000.0 -0.8578311108022729 0.5139316932623966 8.500486846356001e-17 -9.268047518714156e-17 8.500486846356001e-17 -9.268047518714156e-17 -0.8578314620777563 0.5139311069290846
12613573333.333334 -0.8519425994826022 0.5236351852068781 8.392271181321025e-17 -9.362844681565857e-17 8.392271181321025e-17 -9.362844681565857e-17 -0.8519429573729728 0.5236346029268961
12614190666.666666 -0.8459443304214987 0.5332712160125821 8.282999689482847e-17 -9.456379549932361e-17 8.282999689482847e-17 -9.456379549932361e-17 -0.8459446948800035 0.5332706378605461
12614808000.0 -0.8398370763899814 0.542838544247314 8.172687080918764e-17 -9.548640380046054e-17 8.172687080918764e-17 -9.548640380046054e-17 -0.8398374473690261 0.5428379702973014
12615425333.333334 -0.8336216241998116 0.5523359373300667 8.061348196144228e-17 -9.639615599404529e-17 8.061348196144228e-17 -9.639615599404529e-17 -0.8336220016509661 0.5523353676556058
12616042666.666666 -0.8272987746022288 0.5617621716896446 7.948998004122528e-17 -9.729293808215565e-17 7.948998004122528e-17 -9.729293808215565e-17 -0.8272991584762344 0.5617616063637058
12616660000.0 -0.8208693421846678 0.5711160329224935 7.835651600255815e-17 -9.817663780821332e-17 7.835651600255815e-17 -9.817663780821332e-17 -0.8208697324314425 0.5711154720174796
12617277333.333334 -0.8143341552659045 0.5803963159490099 7.721324204360003e-17 -9.904714467099412e-17 7.721324204360003e-17 -9.904714467099412e-17 -0.8143345518345506 0.5803957595367475
12617894666.666666 -0.8076940557893778 0.5896018251687504 7.606031158628739e-17 -9.990434993836845e-17 7.606031158628739e-17 -9.990434993836845e-17 -0.8076944586281893 0.589601273320481
12618512000.0 -0.8009498992144901 0.598731374614788 7.489787925573363e-17 -1.0074814666087191e-16 7.489787925573363e-17 -1.0074814666087191e-16 -0.8009503082709576 0.5987308274011575
12619129333.333334 -0.7941025544067261 0.6077837881060408 7.372610085959335e-17 -1.0157842968495172e-16 7.372610085959335e-17 -1.0157842968495172e-16 -0.7941029696275435 0.6077832455970907
12619746666.666666 -0.7871529035254988 0.6167578993991013 7.254513336718308e-17 -1.0239509566604582e-16 7.254513336718308e-17 -1.0239509566604582e-16 -0.7871533248565721 0.6167573616642608
12620364000.0 -0.7801018419104463 0.6256525523385527 7.135513488848628e-17 -1.0319804308139819e-16 7.135513488848628e-17 -1.0319804308139819e-16 -0.7801022692968992 0.6256520194466285
12620981333.333334 -0.7729502779663396 0.6344666010055796 7.01562646530701e-17 -1.0398717224259442e-16 7.01562646530701e-17 -1.0398717224259442e-16 -0.772950711352522 0.6344660730247494
12621598666.666666 -0.7656991330458134 0.6431989098659185 6.894868298878254e-17 -1.0476238530791e-16 6.894868298878254e-17 -1.0476238530791e-16 -0.7656995723753062 0.6431983868637188
12622216000.0 -0.7583493413307821 0.6518483539159896 6.773255130035749e-17 -1.0552358629438104e-16 6.773255130035749e-17 -1.0552358629438104e-16 -0.758349786546407 0.6518478359593097
12622833333.333334 -0.7509018497119818 0.6604138188279675 6.65080320478938e-17 -1.0627068108962359e-16 6.65080320478938e-17 -1.0627068108962359e-16 -0.7509023007558084 0.660413305983041
12623450666.666666 -0.7433576176671653 0.6688942010931271 6.527528872519318e-17 -1.0700357746341242e-16 6.527528872519318e-17 -1.0700357746341242e-16 -0.7433580744805168 0.6688936934255211
12624068000.0 -0.7357176171373394 0.6772884081641811 6.403448583796175e-17 -1.0772218507901387e-16 6.403448583796175e-17 -1.0772218507901387e-16 -0.7357180796608026 0.6772879057387906
12624685333.333334 -0.7279828324014734 0.6855953585961224 6.278578888188154e-17 -1.0842641550426985e-16 6.278578888188154e-17 -1.0842641550426985e-16 -0.727983300574904 0.6855948614771595
12625302666.666666 -0.7201542599499923 0.6938139821852068 6.152936432062903e-17 -1.0911618222238962e-16 6.152936432062903e-17 -1.0911618222238962e-16 -0.7201547337125259 0.6938134904361956
12625920000.0 -0.7122329083560593 0.7019432201072144 6.026537956365225e-17 -1.0979140064255776e-16 6.026537956365225e-17 -1.0979140064255776e-16 -0.7122333876461163 0.7019427337909793
12626537333.333334 -0.7042197981458427 0.7099820250536238 5.899400294396868e-17 -1.1045198811020813e-16 5.899400294396868e-17 -1.1045198811020813e-16 -0.7042202829011374 0.7099815442322838
12627154666.666666 -0.6961159616670477 0.7179293613665461 5.771540369575906e-17 -1.1109786391709475e-16 5.771540369575906e-17 -1.1109786391709475e-16 -0.6961164518245971 0.7179288861015064
12627772000.0 -0.6879224429557123 0.7257842051723502 5.642975193185002e-17 -1.117289493111005e-16 5.642975193185002e-17 -1.117289493111005e-16 -0.6879229384518427 0.7257837355242941
12628389333.333334 -0.6796402976020268 0.7335455445132526 5.513721862118369e-17 -1.1234516750574145e-16 5.513721862118369e-17 -1.1234516750574145e-16 -0.6796407983723839 0.7335450805421337
12629006666.666666 -0.6712705926139505 0.7412123794780628 5.3837975566062986e-17 -1.1294644368947013e-16 5.3837975566062986e-17 -1.1294644368947013e-16 -0.6712710985935059 0.7412119212430976
12629624000.0 -0.6628144062801176 0.748783722330655 5.2532195379379695e-17 -1.1353270503467638e-16 5.2532195379379695e-17 -1.1353270503467638e-16 -0.6628149174031789 0.7487832698903154
12630241333.333334 -0.6542728280306271 0.7562585976374886 5.122005146171993e-17 -1.1410388070643715e-16 5.122005146171993e-17 -1.1410388070643715e-16 -0.6542733442308464 0.756258151049495
12630858666.666666 -0.6456469582969655 0.7636360423930312 4.9901717978385393e-17 -1.1465990187099886e-16 4.9901717978385393e-17 -1.1465990187099886e-16 -0.6456474795073461 0.7636356017143433
12631476000.0 -0.6369379083699135 0.7709151061441047 4.857736983626809e-17 -1.152007017040181e-16 4.857736983626809e-17 -1.152007017040181e-16 -0.6369384345228195 0.7709146714309151
12632093333.333334 -0.6281468002566973 0.7780948511120536 4.724718266074468e-17 -1.157262153984898e-16 4.724718266074468e-17 -1.157262153984898e-16 -0.6281473312838645 0.7780944224197829
12632710666.666666 -0.6192747665362258 0.7851743523137513 4.59113327723949e-17 -1.1623638017244882e-16 4.59113327723949e-17 -1.1623638017244882e-16 -0.6192753023687673 0.7851739296970373
12633328000.0 -0.610322950213217 0.7921526976807252 4.456999716364039e-17 -1.1673113527639967e-16 4.456999716364039e-17 -1.1673113527639967e-16 -0.6103234907816343 0.7921522811934182
12633945333.333334 -0.6012925045709652 0.7990289881766447 4.322335347538476e-17 -1.1721042200044802e-16 4.322335347538476e-17 -1.1721042200044802e-16 -0.6012930498051555 0.7990285778717996
12634562666.666666 -0.592184593022804 0.8058023379131088 4.187157997348164e-17 -1.1767418368119874e-16 4.187157997348164e-17 -1.1767418368119874e-16 -0.5921851428520721 0.8058019338429807
12635180000.0 -0.5830003889621814 0.8124718742638188 4.051485552520009e-17 -1.1812236570835815e-16 4.051485552520009e-17 -1.1812236570835815e-16 -0.5830009433152451 0.812471476479852
12635797333.333334 -0.5737410756113901 0.8190367379770587 3.915335957558048e-17 -1.1855491553107933e-16 3.915335957558048e-17 -1.1855491553107933e-16 -0.5737416344163931 0.819036346529885
12636414666.666666 -0.5644078458693673 0.8254960832862369 3.7787272123740926e-17 -1.189717826640301e-16 3.7787272123740926e-17 -1.189717826640301e-16 -0.5644084090538852 0.8254956982256648
12637032000.0 -0.5550019021577732 0.8318490780190063 3.641677369911675e-17 -1.1937291869318877e-16 3.641677369911675e-17 -1.1937291869318877e-16 -0.5550024696488259 0.8318486993940182
12637649333.333334 -0.5455244562662251 0.8380949037043816 3.50420453376438e-17 -1.1975827728136662e-16 3.50420453376438e-17 -1.1975827728136662e-16 -0.5455250279902845 0.838094531563126
12638266666.666666 -0.5359767291960584 0.8442327556782621 3.366326855786741e-17 -1.2012781417346131e-16 3.366326855786741e-17 -1.2012781417346131e-16 -0.5359773050790576 0.8442323900680468
12638884000.0 -0.5263599510031661 0.8502618431870054 3.2280625337031943e-17 -1.2048148720142612e-16 3.2280625337031943e-17 -1.2048148720142612e-16 -0.5263605309705099 0.8502614841542918
12639501333.333334 -0.5166753606394301 0.8561813894893603 3.089429808708526e-17 -1.2081925628897347e-16 3.089429808708526e-17 -1.2081925628897347e-16 -0.5166759446160057 0.8561810370797605
12640118666.666666 -0.5069242057931826 0.8619906319565014 2.950446963066014e-17 -1.2114108345599826e-16 2.950446963066014e-17 -1.2114108345599826e-16 -0.5069247937033663 0.8619902862147666
12640736000.0 -0.49710774272821207 0.8676888221704127 2.8111323176965945e-17 -1.2144693282273334e-16 2.8111323176965945e-17 -1.2144693282273334e-16 -0.497108334495882 0.8676884831404333
12641353333.333334 -0.4872272361224353 0.8732752260200157 2.671504229774679e-17 -1.2173677061360682e-16 2.671504229774679e-17 -1.2173677061360682e-16 -0.48722783167097944 0.8732748937448116
12641970666.666666 -0.4772839589043742 0.8787491237960839 2.531581090304576e-17 -1.2201056516085582e-16 2.531581090304576e-17 -1.2201056516085582e-16 -0.47728455815670096 0.8787487983178008
12642588000.0 -0.46727919208955593 0.8841098102837396 2.3913813217076354e-17 -1.222682869078327e-16 2.3913813217076354e-17 -1.222682869078327e-16 -0.46727979496810446 0.8841094916436439
12643205333.333334 -0.45721422461537947 0.8893565948533662 2.250923375397222e-17 -1.2250990841205325e-16 2.250923375397222e-17 -1.2250990841205325e-16 -0.45721483104212945 0.88935628309184
12643822666.666666 -0.44709035317488194 0.8944888015496767 2.1102257293553407e-17 -1.227354043479571e-16 2.1102257293553407e-17 -1.227354043479571e-16 -0.4470909630713632 0.8944884967062108
12644440000.0 -0.4369088820499583 0.8995057691786489 1.9693068857043175e-17 -1.229447515093961e-16 1.9693068857043175e-17 -1.229447515093961e-16 -0.43690949533726164 0.89950547129184
12645057333.333334 -0.426671122943204 0.9044068513927804 1.8281853682793954e-17 -1.2313792881183781e-16 1.8281853682793954e-17 -1.2313792881183781e-16 -0.42667173954199106 0.9044065605003249
12645674666.666666 -0.41637839480897576 0.9091914167743325 1.6868797201959677e-17 -1.2331491729429858e-16 1.6868797201959677e-17 -1.2331491729429858e-16 -0.4163790146394894 0.9091911329130223
12646292000.0 -0.4060320236831845 0.9138588489168092 1.5454085014148527e-17 -1.2347570012099501e-16 1.5454085014148527e-17 -1.2347570012099501e-16 -0.40603264666525857 0.9138585721225262
12646909333.333334 -0.39563334251294796 0.9184085465041419 1.403790286311254e-17 -1.2362026258271337e-16 1.403790286311254e-17 -1.2362026258271337e-16 -0.3956339685660186 0.9184082768118543
12647526666.666666 -0.38518369098452987 0.9228399233883151 1.2620436612385644e-17 -1.2374859209790443e-16 1.2620436612385644e-17 -1.2374859209790443e-16 -0.3851843200276456 0.9228396608320739
12648144000.0 -0.37468441535069125 0.9271524086649011 1.120187222090138e-17 -1.2386067821350044e-16 1.120187222090138e-17 -1.2386067821350044e-16 -0.37468504730252294 0.9271521532778332
12648761333.333334 -0.36413686825750985 0.9313454467464961 9.78239571867112e-18 -1.239565126054481e-16 9.78239571867112e-18 -1.239565126054481e-16 -0.36413750303636183 0.9313451985608027
12649378666.666666 -0.3535424085700396 0.9354184974343371 8.362193182409613e-18 -1.2403608907896745e-16 8.362193182409613e-18 -1.2403608907896745e-16 -0.3535430460938597 0.9354182564812876
12649996000.0 -0.34290240119703214 0.9393710359879778 6.94145071116752e-18 -1.2409940356853213e-16 6.94145071116752e-18 -1.2409940356853213e-16 -0.34290304138342315 0.939370802297908
12650613333.333334 -0.3322182169153308 0.9432025531927988 5.520354401977481e-18 -1.2414645413756956e-16 5.520354401977481e-18 -1.2414645413756956e-16 -0.3322188596815601 0.9432023267951053
12651230666.666666 -0.3214912321932988 0.946912555425606 4.099090325552363e-18 -1.2417724097788165e-16 4.099090325552363e-18 -1.2417724097788165e-16 -0.3214918774563096 0.9469123363487428
12651848000.0 -0.31072282901313525 0.9505005647183438 2.6778445018940935e-18 -1.241917664087918e-16 2.6778445018940935e-18 -1.241917664087918e-16 -0.3107234766895572 0.9505003529898194
12652465333.333334 -0.2999143946932352 0.9539661188195355 1.256802876038603e-18 -1.2419003487600832e-16 1.256802876038603e-18 -1.2419003487600832e-16 -0.29991504469939506 0.9539659144659084
12653082666.666666 -0.28906732170937777 0.9573087712538645 -1.638487062469706e-19 -1.2417205295021525e-16 -1.638487062469706e-19 -1.2417205295021525e-16 -0.28906797396131073 0.9573085743007421
12653700000.0 -0.27818300751497826 0.9605280913798087 -1.583924522779941e-18 -1.2413782932538228e-16 -1.583924522779941e-18 -1.2413782932538228e-16 -0.2781836619284384 0.9605279018518419
12654317333.333334 -0.2672628543615935 0.9636236644449485 -3.0032389991356143e-18 -1.2408737481680028e-16 -3.0032389991356143e-18 -1.2408737481680028e-16 -0.26726351085206407 0.9636234823658283
12654934666.666666 -0.2563082691179132 0.9665950916395117 -4.421606732908523e-18 -1.2402070235883809e-16 -4.421606732908523e-18 -1.2402070235883809e-16 -0.2563089276006187 0.9665949170319682
12655552000.0 -0.24532066308842704 0.9694419901477717 -5.838842517906368e-18 -1.2393782700242295e-16 -5.838842517906368e-18 -1.2393782700242295e-16 -0.2453213234783433 0.9694418230335698
12656169333.333334 -0.23430145183201395 0.9721639931972523 -7.254761368245475e-18 -1.238387659122487e-16 -7.254761368245475e-18 -1.238387659122487e-16 -0.2343021140438796 0.9721638335971903
12656786666.666666 -0.22325205497921677 0.9747607501060832 -8.669178542506683e-18 -1.2372353836370386e-16 -8.669178542506683e-18 -1.2372353836370386e-16 -0.223252718927544 0.9747605980399887
12657404000.0 -0.21217389604940104 0.9772319263281543 -1.008190956779696e-17 -1.2359216573952673e-16 -1.008190956779696e-17 -1.2359216573952673e-16 -0.2121745616484866 0.9772317818148822
12658021333.333334 -0.20106840226747114 0.9795772034961941 -1.1492770263759525e-17 -1.2344467152618788e-16 -1.1492770263759525e-17 -1.2344467152618788e-16 -0.20106906943140754 0.9795770665536252
12658638666.666666 -0.1899370043800533 0.9817962794627756 -1.2901576766543439e-17 -1.2328108130999815e-16 -1.2901576766543439e-17 -1.2328108130999815e-16 -0.18993767302273992 0.9817961501078132
12659256000.0 -0.17878113647080782 0.9838888683393179 -1.4308145552774983e-17 -1.231014227729385e-16 -1.4308145552774983e-17 -1.231014227729385e-16 -0.17878180650596184 0.9838887465878865
12659873333.333334 -0.16760223577608968 0.9858547005328293 -1.5712293463377e-17 -1.229057256882269e-16 -1.5712293463377e-17 -1.229057256882269e-16 -0.16760290711725714 0.9858545863998711
12660490666.666666 -0.1564017424997033 0.9876935227806617 -1.7113837727394522e-17 -1.2269402191560787e-16 -1.7113837727394522e-17 -1.2269402191560787e-16 -0.15640241506027097 0.9876934162801391
12661108000.0 -0.14518109962699427 0.9894050981832034 -1.8512595985795043e-17 -1.2246634539636522e-16 -1.8512595985795043e-17 -1.2246634539636522e-16 -0.1451817733201997 0.9894049993280907
12661725333.333334 -0.13394175273950532 0.9909892062342991 -1.9908386315087127e-17 -1.2222273214808113e-16 -1.9908386315087127e-17 -1.2222273214808113e-16 -0.133942427478449 0.9909891150365868
12662342666.666666 -0.12268514982834754 0.9924456428497296 -2.1301027251012183e-17 -1.219632202591053e-16 -2.1301027251012183e-17 -1.219632202591053e-16 -0.12268582552600352 0.9924455593204197
12662960000.0 -0.11141274110770695 0.9937742203934873 -2.2690337812059066e-17 -1.2168784988277214e-16 -2.2690337812059066e-17 -1.2168784988277214e-16 -0.1114134176769343 0.9937741445425927
12663577333.333334 -0.10012597882815177 0.9949747677019363 -2.4076137522962068e-17 -1.2139666323134153e-16 -2.4076137522962068e-17 -1.2139666323134153e-16 -0.10012665618170574 0.9949746995384795
12664194666.666666 -0.08882631708945063 0.9960471301058711 -2.545824643811989e-17 -1.2108970456967235e-16 -2.545824643811989e-17 -1.2108970456967235e-16 -0.088826995139994 0.9960470696378846
12664812000.0 -0.07751521165315291 0.9969911694504543 -2.6836485164905163e-17 -1.2076702020863631e-16 -2.6836485164905163e-17 -1.2076702020863631e-16 -0.0775158903132672 0.9969911166849774
12665429333.333334 -0.06619411975518091 0.997806764112999 -2.8210674886927207e-17 -1.2042865849826062e-16 -2.8210674886927207e-17 -1.2042865849826062e-16 -0.06619479893737763 0.997806719056079
12666046666.666666 -0.05486449991814774 0.9984938090186384 -2.9580637387189563e-17 -1.2007466982061002e-16 -2.9580637387189563e-17 -1.2007466982061002e-16 -0.05486517953487964 0.9984937716753282
12666664000.0 -0.04352781176305526 0.9990522156538855 -3.0946195071183946e-17 -1.1970510658239997e-16 -3.0946195071183946e-17 -1.1970510658239997e-16 -0.043528491726727646 0.9990521860282441
12667281333.333334 -0.03218551582181512 0.999481912078003 -3.230717098983953e-17 -1.1932002320736298e-16 -3.230717098983953e-17 -1.1932002320736298e-16 -0.03218619604479717 0.9994818901730952
12667898666.666666 -0.020839073348716354 0.9997828429322961 -3.366338886246039e-17 -1.1891947612833197e-16 -3.366338886246039e-17 -1.1891947612833197e-16 -0.02083975374335236 0.9997828287501909
12668516000.0 -0.00948994613208304 0.9999549694472387 -3.5014673099498454e-17 -1.1850352377908151e-16 -3.5014673099498454e-17 -1.1850352377908151e-16 -0.009490626610703724 0.9999549629890104
12669133333.333334 0.0018604036936249837 0.9999982694474596 -3.6360848825247995e-17 -1.1807222658590667e-16 -3.6360848825247995e-17 -1.1807222658590667e-16 0.0018597232186911648 0.9999982707131884
12669750666.666666 0.013210513836551661 0.9999127373546115 -3.7701741900451034e-17 -1.1762564695893928e-16 -3.7701741900451034e-17 -1.1762564695893928e-16 0.013209833452967237 0.9999127463433806
