! Parameters = {f0=12700.012000; bw=77.238000; Q=6100.000000; N=10; m_0_1=1.258554; m_1_1=0.113558; m_1_2=1.093366; m_2_2=0.112909; m_2_3=0.730329; m_2_8=-0.000009; m_2_9=0.036695; m_3_3=0.110972; m_3_4=0.618858; m_3_7=0.000591; m_3_8=-0.096497; m_3_9=-0.000009; m_4_4=0.108047; m_4_5=0.455193; m_4_6=0.004108; m_4_7=-0.117046; m_4_8=0.000591; m_5_5=0.108429; m_5_6=0.862548; m_5_7=0.004108; m_6_6=0.108428; m_6_7=0.455535; m_7_7=0.108061; m_7_8=0.618976; m_8_8=0.110970; m_8_9=0.730642; m_9_9=0.112904; m_9_10=1.094444; m_10_10=0.113548; m_10_11=1.259349}
!
! Created with skrf (http://scikit-rf.org).
# Hz S RI R 50.0 
!freq ReS11 ImS11 ReS21 ImS21 ReS12 ImS12 ReS22 ImS22
12607400000.0 0.17187607985306125 0.9851185782301396 -4.657734173976631e-17 -9.383512041358081e-17 -4.657734173976631e-17 -9.383512041358081e-17 0.17187542661932903 0.9851186922012243
12608017333.333334 0.18189999179701127 0.9833170358455481 -4.7529548542237864e-17 -9.33333950060405e-17 -4.7529548542237864e-17 -9.33333950060405e-17 0.18189933978980805 0.9833171564575994
12608634666.666666 0.1919050362772642 0.9814134995256841 -4.847636584594884e-17 -9.282201504657503e-17 -4.847636584594884e-17 -9.282201504657503e-17 0.19190438556409553 0.9814136267655416
12609252000.0 0.20189017552688748 0.9794081667137298 -4.9417695846271034e-17 -9.230103828102805e-17 -4.9417695846271034e-17 -9.230103828102805e-17 0.20188952617511838 0.9794083005675482
12609869333.333334 0.2118543738437194 0.9773012454116246 -5.0353441355847955e-17 -9.17705234451659e-17 -5.0353441355847955e-17 -9.17705234451659e-17 0.21185372592056678 0.9773013858648726
12610486666.666666 0.22179659769757268 0.9750929541585299 -5.1283505814584546e-17 -9.123053025810572e-17 -5.1283505814584546e-17 -9.123053025810572e-17 0.22179595127009863 0.975093101195993
12611104000.0 0.23171581583765943 0.972783522008116 -5.220779329960808e-17 -9.068111941561822e-17 -5.220779329960808e-17 -9.068111941561822e-17 0.23171517097276473 0.9727836756138999
12611721333.333334 0.24161099939933592 0.9703731885048563 -5.312620853511728e-17 -9.012235258335539e-17 -5.312620853511728e-17 -9.012235258335539e-17 0.24161035616375232 0.9703733486623854
12612338666.666666 0.2514811220110136 0.9678622036591311 -5.4038656902194476e-17 -8.955429238995572e-17 -5.4038656902194476e-17 -8.955429238995572e-17 0.2514804804712976 0.9678623703511527
12612956000.0 0.2613251599005361 0.9652508279213163 -5.494504444853494e-17 -8.897700242005776e-17 -5.494504444853494e-17 -8.897700242005776e-17 0.2613245201230619 0.965251001129902
12613573333.333334 0.27114209200128736 0.9625393321547916 -5.584527789806391e-17 -8.839054720723853e-17 -5.584527789806391e-17 -8.839054720723853e-17 0.2711414540522397 0.9625395118613387
12614190666.666666 0.2809309000582933 0.9597279976077937 -5.673926466055194e-17 -8.779499222680943e-17 -5.673926466055194e-17 -8.779499222680943e-17 0.2809302640036606 0.959728183793026
12614808000.0 0.29069056873361937 0.9568171158843013 -5.76269128410933e-17 -8.719040388855289e-17 -5.76269128410933e-17 -8.719040388855289e-17 0.29068993463918763 0.9568173085282748
12615425333.333334 0.30042008571187906 0.9538069889137399 -5.850813124952306e-17 -8.657684952935461e-17 -5.850813124952306e-17 -8.657684952935461e-17 0.30041945364322403 0.953807187995841
12616042666.666666 0.3101184418051517 0.9506979289196815 -5.938282940977544e-17 -8.595439740572749e-17 -5.938282940977544e-17 -8.595439740572749e-17 0.3101178118276331 0.9506981344186322
12616660000.0 0.3197846310575803 0.9474902583874911 -6.025091756914122e-17 -8.532311668625613e-17 -6.025091756914122e-17 -8.532311668625613e-17 0.3197840032363341 0.9474904702813485
12617277333.333334 0.32941765084990177 0.944184310030811 -6.111230670744761e-17 -8.468307744394664e-17 -6.111230670744761e-17 -8.468307744394664e-17 0.32941702524983435 0.9441845282969725
12617894666.666666 0.33901650200322836 0.9407804267571269 -6.196690854616505e-17 -8.403435064847957e-17 -6.196690854616505e-17 -8.403435064847957e-17 0.33901587868900906 0.9407806513723302
12618512000.0 0.34858018888290065 0.937278961632122 -6.281463555744789e-17 -8.337700815835741e-17 -6.281463555744789e-17 -8.337700815835741e-17 0.3485795679189555 0.9372791925724486
12619129333.333334 0.35810771950157233 0.9336802778431229 -6.365540097303394e-17 -8.271112271300756e-17 -6.365540097303394e-17 -8.271112271300756e-17 0.35810710095207726 0.9336805150840015
12619746666.666666 0.3675981056221568 0.9299847486614113 -6.448911879313804e-17 -8.203676792473517e-17 -6.448911879313804e-17 -8.203676792473517e-17 0.3675974895510314 0.9299849921776193
12620364000.0 0.37705036286051824 0.926192757403435 -6.531570379521614e-17 -8.135401827062162e-17 -6.531570379521614e-17 -8.135401827062162e-17 0.3770497493314182 0.9261930071691005
12620981333.333334 0.38646351078725627 0.9223046973911688 -6.613507154262344e-17 -8.066294908435189e-17 -6.613507154262344e-17 -8.066294908435189e-17 0.3864628998635678 0.9223049533797752
12621598666.666666 0.3958365730295868 0.9183209719112483 -6.694713839325126e-17 -7.99636365479027e-17 -6.694713839325126e-17 -7.99636365479027e-17 0.39583596477441957 0.9183212340956356
12622216000.0 0.40516857737264245 0.9142419941731275 -6.775182150802072e-17 -7.925615768318916e-17 -6.775182150802072e-17 -7.925615768318916e-17 0.40516797184882325 0.9142422625254962
12622833333.333334 0.4144585558602863 0.9100681872662257 -6.854903885930508e-17 -7.854059034361295e-17 -6.854903885930508e-17 -7.854059034361295e-17 0.4144579531303523 0.9100684617581389
12623450666.666666 0.4237055448953319 0.9057999841161272 -6.93387092392703e-17 -7.781701320552101e-17 -6.93387092392703e-17 -7.781701320552101e-17 0.4237049450215252 0.9058002647185158
12624068000.0 0.43290858533977944 0.9014378274395513 -7.01207522681225e-17 -7.708550575958162e-17 -7.01207522681225e-17 -7.708550575958162e-17 0.4329079883840386 0.9014381141227122
12624685333.333334 0.4420667226142439 0.8969821696984439 -7.089508840227001e-17 -7.634614830207441e-17 -7.089508840227001e-17 -7.634614830207441e-17 0.4420661286381995 0.8969824624320485
12625302666.666666 0.4511790067966399 0.8924334730532166 -7.166163894235697e-17 -7.559902192613334e-17 -7.166163894235697e-17 -7.559902192613334e-17 0.45117841586160706 0.8924337718063102
12625920000.0 0.4602444927212453 0.8877922093145395 -7.242032604128013e-17 -7.48442085128376e-17 -7.242032604128013e-17 -7.48442085128376e-17 0.4602439048882186 0.8877925140555485
12626537333.333334 0.46926224007630685 0.8830588598946243 -7.317107271203142e-17 -7.408179072230084e-17 -7.317107271203142e-17 -7.408179072230084e-17 0.4692616554059524 0.8830591705913551
12627154666.666666 0.47823131350165027 0.8782339157572507 -7.391380283548925e-17 -7.331185198464065e-17 -7.391380283548925e-17 -7.331185198464065e-17 0.4782307320543003 0.8782342323768955
12627772000.0 0.48715078268600015 0.8733178773666807 -7.464844116813369e-17 -7.253447649085098e-17 -7.464844116813369e-17 -7.253447649085098e-17 0.4871502045216469 0.8733181998758209
12628389333.333334 0.4960197224630511 0.8683112546359778 -7.537491334960669e-17 -7.174974918365968e-17 -7.537491334960669e-17 -7.174974918365968e-17 0.4960191476413402 0.868311583000587
12629006666.666666 0.5048372129077279 0.8632145668739517 -7.60931459102348e-17 -7.095775574824777e-17 -7.60931459102348e-17 -7.095775574824777e-17 0.5048366414879533 0.8632149010594008
12629624000.0 0.5136023394314828 0.8580283427313663 -7.680306627842192e-17 -7.015858260293167e-17 -7.680306627842192e-17 -7.015858260293167e-17 0.5136017714725787 0.8580286827024237
12630241333.333334 0.5223141928772302 0.8527531201460564 -7.750460278795888e-17 -6.935231688975331e-17 -7.750460278795888e-17 -6.935231688975331e-17 0.5223136284377665 0.8527534658668949
12630858666.666666 0.5309718696134331 0.8473894462872681 -7.819768468521228e-17 -6.853904646502469e-17 -7.819768468521228e-17 -6.853904646502469e-17 0.5309713087516091 0.8473897977214678
12631476000.0 0.5395744716282421 0.8419378774986498 -7.888224213626432e-17 -6.771885988974286e-17 -7.888224213626432e-17 -6.771885988974286e-17 0.5395739144018803 0.8419382346092018
12632093333.333334 0.5481211066222532 0.836398979240783 -7.955820623388906e-17 -6.689184642000782e-17 -7.955820623388906e-17 -6.689184642000782e-17 0.5481205530887935 0.8363993419900938
12632710666.666666 0.5566108881011379 0.8307733260324921 -8.022550900446522e-17 -6.605809599732887e-17 -8.022550900446522e-17 -6.605809599732887e-17 0.5566103383176317 0.8307736943823864
12633328000.0 0.5650429354678538 0.8250615013910776 -8.088408341480217e-17 -6.521769923884349e-17 -8.088408341480217e-17 -6.521769923884349e-17 0.565042389490957 0.825061875302802
12633945333.333334 0.5734163741136954 0.8192640977719758 -8.15338633788211e-17 -6.437074742752146e-17 -8.15338633788211e-17 -6.437074742752146e-17 0.5734158319996653 0.8192644772062061
12634562666.666666 0.5817303355090682 0.8133817165072839 -8.217478376416009e-17 -6.351733250227076e-17 -8.217478376416009e-17 -6.351733250227076e-17 0.5817297973137542 0.8133821014241251
12635180000.0 0.5899839572936847 0.8074149677432977 -8.280678039868135e-17 -6.265754704797112e-17 -8.280678039868135e-17 -6.265754704797112e-17 0.5899834230725262 0.8074153581022917
12635797333.333334 0.598176383365972 0.8013644703772639 -8.34297900768614e-17 -6.17914842854592e-17 -8.34297900768614e-17 -6.17914842854592e-17 0.5981758531739889 0.8013648661373906
12636414666.666666 0.606306763971705 0.7952308519932975 -8.404375056606888e-17 -6.091923806146305e-17 -8.404375056606888e-17 -6.091923806146305e-17 0.6063062378634951 0.7952312531129814
12637032000.0 0.6143742557924475 0.78901474879707 -8.464860061276997e-17 -6.004090283842895e-17 -8.464860061276997e-17 -6.004090283842895e-17 0.6143737338221787 0.789015155234183
12637649333.333334 0.6223780220327487 0.7827168055500219 -8.52442799485936e-17 -5.915657368433539e-17 -8.52442799485936e-17 -5.915657368433539e-17 0.6223775042541558 0.7827172172618896
12638266666.666666 0.6303172325071228 0.7763376755023482 -8.583072929630902e-17 -5.826634626242005e-17 -8.583072929630902e-17 -5.826634626242005e-17 0.6303167189734996 0.7763380924457527
12638884000.0 0.6381910637260889 0.7698780203252908 -8.640789037568542e-17 -5.737031682086604e-17 -8.640789037568542e-17 -5.737031682086604e-17 0.6381905544902847 0.7698784424564765
12639501333.333334 0.6459986989815468 0.7633385100425469 -8.697570590926155e-17 -5.646858218240274e-17 -8.697570590926155e-17 -5.646858218240274e-17 0.6459981940959587 0.7633389373172231
12640118666.666666 0.6537393284314869 0.7567198229607682 -8.753411962798186e-17 -5.556123973388998e-17 -8.753411962798186e-17 -5.556123973388998e-17 0.6537388279480563 0.7567202553341158
12640736000.0 0.6614121491842725 0.7500226455989647 -8.80830762767581e-17 -5.464838741579148e-17 -8.80830762767581e-17 -5.464838741579148e-17 0.661411653154479 0.7500230830256404
12641353333.333334 0.6690163653813369 0.7432476726177972 -8.862252161987496e-17 -5.373012371167256e-17 -8.862252161987496e-17 -5.373012371167256e-17 0.6690158738561945 0.7432481150519388
12641970666.666666 0.676551188280317 0.736395606747024 -8.915240244634043e-17 -5.280654763755352e-17 -8.915240244634043e-17 -5.280654763755352e-17 0.6765507013103659 0.7363960541422526
12642588000.0 0.6840158363365808 0.7294671587128481 -8.967266657507889e-17 -5.187775873128924e-17 -8.967266657507889e-17 -5.187775873128924e-17 0.6840153539718837 0.7294676110222755
12643205333.333334 0.6914095352842545 0.7224630471642396 -9.018326286004406e-17 -5.094385704184753e-17 -9.018326286004406e-17 -5.094385704184753e-17 0.6914090575743931 0.7224635043404736
12643822666.666666 0.6987315182167424 0.7153839985982033 -9.068414119520966e-17 -5.000494311855513e-17 -9.068414119520966e-17 -5.000494311855513e-17 0.6987310452108091 0.7153844605933498
12644440000.0 0.705981025666103 0.7082307472845726 -9.117525251944477e-17 -4.906111800030324e-17 -9.117525251944477e-17 -4.906111800030324e-17 0.7059805574126989 0.7082312140502437
12645057333.333334 0.7131573056817914 0.7010040351898957 -9.165654882127722e-17 -4.811248320470564e-17 -9.165654882127722e-17 -4.811248320470564e-17 0.7131568422290188 0.7010045066772125
12645674666.666666 0.7202596139087702 0.6937046119003506 -9.212798314355647e-17 -4.715914071718706e-17 -9.212798314355647e-17 -4.715914071718706e-17 0.7202591553042307 0.6937050880599508
12646292000.0 0.7272872136648026 0.6863332345439177 -9.258950958800073e-17 -4.6201192980031566e-17 -9.258950958800073e-17 -4.6201192980031566e-17 0.7272867599555872 0.6863337153259568
12646909333.333334 0.7342393760165389 0.6788906677121664 -9.304108331960389e-17 -4.5238742881439505e-17 -9.304108331960389e-17 -4.5238742881439505e-17 0.7342389272492293 0.678891153066328
12647526666.666666 0.7411153798554491 0.671377683380629 -9.348266057097128e-17 -4.42718937444579e-17 -9.348266057097128e-17 -4.42718937444579e-17 0.7411149360761089 0.6713781732561261
12648144000.0 0.7479145119725336 0.6637950608288031 -9.391419864651412e-17 -4.3300749315921347e-17 -9.391419864651412e-17 -4.3300749315921347e-17 0.7479140732267037 0.6637955551743842
12648761333.333334 0.7546360671321671 0.6561435865594692 -9.433565592652624e-17 -4.2325413755361107e-17 -9.433565592652624e-17 -4.2325413755361107e-17 0.7546356334648625 0.6561440853234247
12649378666.666666 0.7612793481453846 0.6484240542169661 -9.47469918711626e-17 -4.134599162384044e-17 -9.47469918711626e-17 -4.134599162384044e-17 0.7612789196010892 0.6484245573471334
12649996000.0 0.7678436659421397 0.6406372645049339 -9.514816702429581e-17 -4.036258787276213e-17 -9.514816702429581e-17 -4.036258787276213e-17 0.7678432425648022 0.6406377719487026
12650613333.333334 0.7743283396428509 0.6327840251031738 -9.553914301724831e-17 -3.937530783266098e-17 -9.553914301724831e-17 -3.937530783266098e-17 0.7743279214758794 0.6327845368074916
12651230666.666666 0.780732696628898 0.6248651505840253 -9.591988257241859e-17 -3.838425720193949e-17 -9.591988257241859e-17 -3.838425720193949e-17 0.7807322837151566 0.624865666495403
12651848000.0 0.7870560726125166 0.6168814623277226 -9.629034950679418e-17 -3.738954203555469e-17 -9.629034950679418e-17 -3.738954203555469e-17 0.7870556649943187 0.6168819823922387
12652465333.333334 0.7932978117056435 0.6088337884372601 -9.665050873532887e-17 -3.639126873372422e-17 -9.665050873532887e-17 -3.639126873372422e-17 0.7932974094247507 0.6088343126005692
12653082666.666666 0.799457266487899 0.6007229636525685 -9.700032627422201e-17 -3.53895440305512e-17 -9.700032627422201e-17 -3.53895440305512e-17 0.7994568695855145 0.6007234918599046
12653700000.0 0.805533798073862 0.5925498292637741 -9.733976924408026e-17 -3.4384474982615076e-17 -9.733976924408026e-17 -3.4384474982615076e-17 0.8055334065906277 0.5925503614599573
12654317333.333334 0.811526776179198 0.5843152330241156 -9.766880587293815e-17 -3.337616895759945e-17 -9.766880587293815e-17 -3.337616895759945e-17 0.8115263901551898 0.5843157691535581
12654934666.666666 0.8174355791861573 0.5760200290618552 -9.798740549919369e-17 -3.236473362280035e-17 -9.798740549919369e-17 -3.236473362280035e-17 0.8174351986608804 0.5760205690685661
12655552000.0 0.823259594207997 0.5676650777917494 -9.829553857440534e-17 -3.135027693365948e-17 -9.829553857440534e-17 -3.135027693365948e-17 0.8232592192203829 0.5676656216193412
12656169333.333334 0.8289982171525068 0.5592512458258756 -9.859317666596503e-17 -3.033290712229742e-17 -9.859317666596503e-17 -3.033290712229742e-17 0.8289978477409088 0.5592517934175703
12656786666.666666 0.8346508527847799 0.5507794058835791 -9.888029245967593e-17 -2.931273268594346e-17 -9.888029245967593e-17 -2.931273268594346e-17 0.8346504889869689 0.5507799571822135
12657404000.0 0.8402169147888255 0.5422504367011386 -9.915685976218942e-17 -2.8289862375412085e-17 -9.915685976218942e-17 -2.8289862375412085e-17 0.8402165566419874 0.542250991649171
12658021333.333334 0.8456958258285117 0.5336652229404311 -9.942285350333431e-17 -2.72644051835206e-17 -9.942285350333431e-17 -2.72644051835206e-17 0.8456954733692416 0.5336657814799466
12658638666.666666 0.8510870176073222 0.5250246550973603 -9.967824973831647e-17 -2.6236470333522705e-17 -9.967824973831647e-17 -2.6236470333522705e-17 0.851086670871622 0.5250252171700772
12659256000.0 0.8563899309274128 0.5163296294093246 -9.99230256498176e-17 -2.5206167267451247e-17 -9.99230256498176e-17 -2.5206167267451247e-17 0.8563895899506874 0.5163301949566005
12659873333.333334 0.8616040157475645 0.5075810477623252 -1.0015715954995372e-16 -2.4173605634522005e-17 -1.0015715954995372e-16 -2.4173605634522005e-17 0.8616036805646186 0.5075816167251632
12660490666.666666 0.8667287312401959 0.4987798175974936 -1.0038063088212036e-16 -2.313889527949454e-17 -1.0038063088212036e-16 -2.313889527949454e-17 0.8667284018852294 0.4987803899165484
12661108000.0 0.8717635458475599 0.48992685181679596 -1.0059342022273057e-16 -2.210214623096284e-17 -1.0059342022273057e-16 -2.210214623096284e-17 0.8717632223541655 0.4899274274323798
12661725333.333334 0.8767079373367669 0.4810230686885403 -1.0079550928281087e-16 -2.1063468689725263e-17 -1.0079550928281087e-16 -2.1063468689725263e-17 0.8767076197379242 0.4810236475406287
12662342666.666666 0.88156139285406 0.4720693917519295 -1.0098688090949322e-16 -2.002297301706952e-17 -1.0098688090949322e-16 -2.002297301706952e-17 0.8815610811821367 0.4720699737801695
12662960000.0 0.886323408977908 0.4630667497214705 -1.0116751908738203e-16 -1.898076972306523e-17 -1.0116751908738203e-16 -1.898076972306523e-17 0.8863231032646518 0.46306733486518437
12663577333.333334 0.890993491771312 0.45401607639046637 -1.0133740893979848e-16 -1.7936969454853926e-17 -1.0133740893979848e-16 -1.7936969454853926e-17 0.8909931920478495 0.4540166645886592
12664194666.666666 0.8955711568329967 0.4449183105342334 -1.0149653672990439e-16 -1.6891682984932117e-17 -1.0149653672990439e-16 -1.6891682984932117e-17 0.8955708631298324 0.44491890172560056
12664812000.0 0.900055929347622 0.4357743958128066 -1.0164488986171016e-16 -1.5845021199399862e-17 -1.0164488986171016e-16 -1.5845021199399862e-17 0.9000556416946314 0.43577498993573816
12665429333.333334 0.9044473441351301 0.426585280672853 -1.017824568809572e-16 -1.4797095086224793e-17 -1.017824568809572e-16 -1.4797095086224793e-17 0.9044470625615588 0.4265858776654415
12666046666.666666 0.9087449456988371 0.4173519182496289 -1.0190922747587807e-16 -1.3748015723517543e-17 -1.0190922747587807e-16 -1.3748015723517543e-17 0.908744670233297 0.4173525180496746
12666664000.0 0.9129482882728969 0.40807526626765295 -1.0202519247784541e-16 -1.2697894267729744e-17 -1.0202519247784541e-16 -1.2697894267729744e-17 0.9129480189433631 0.40807586881267116
12667281333.333334 0.9170569358683316 0.39875628694180415 -1.0213034386188714e-16 -1.1646841941946925e-17 -1.0213034386188714e-16 -1.1646841941946925e-17 0.9170566727021415 0.3987568921690322
12667898666.666666 0.9210704623183446 0.38939594687733897 -1.0222467474708962e-16 -1.0594970024109343e-17 -1.0222467474708962e-16 -1.0594970024109343e-17 0.9210702053421923 0.3893965547237415
12668516000.0 0.9249884513225842 0.3799952169694711 -1.0230817939687948e-16 -9.54238983523451e-18 -1.0230817939687948e-16 -9.54238983523451e-18 0.9249882005625204 0.3799958273717475
12669133333.333334 0.9288104964901943 0.37055507230298085 -1.0238085321917873e-16 -8.489212727694963e-18 -1.0238085321917873e-16 -8.489212727694963e-18 0.9288102519716215 0.3705556851975715
12669750666.666666 0.9325362013820434 0.3610764920508922 -1.0244269276644649e-16 -7.435550073424628e-18 -1.0244269276644649e-16 -7.435550073424628e-18 0.9325359631297144 0.36107710737398513
12670368000.0 0.9361651795518652 0.351560459372855 -1.0249369573559431e-16 -6.381513252185878e-18 -1.0249369573559431e-16 -6.381513252185878e-18 0.9361649475898813 0.35156107706039286
12670985333.333334 0.93969705458628 0.34200796131332606 -1.025338609677841e-16 -5.327213639808362e-18 -1.025338609677841e-16 -5.327213639808362e-18 0.9396968289380874 0.3420085813010123
