! Parameters = {f0=12700.012000; bw=77.238000; Q=6100.000000; N=10; m_0_1=1.262558; m_1_1=0.173618; m_1_2=1.097370; m_2_2=0.172969; m_2_3=0.734333; m_2_8=0.000192; m_2_9=0.036896; m_3_3=0.171032; m_3_4=0.622862; m_3_7=0.000792; m_3_8=-0.096296; m_3_9=0.000192; m_4_4=0.168107; m_4_5=0.459197; m_4_6=0.004309; m_4_7=-0.116845; m_4_8=0.000792; m_5_5=0.168489; m_5_6=0.866552; m_5_7=0.004309; m_6_6=0.168488; m_6_7=0.459539; m_7_7=0.168121; m_7_8=0.622980; m_8_8=0.171030; m_8_9=0.734646; m_9_9=0.172964; m_9_10=1.098448; m_10_10=0.173608; m_10_11=1.263353}
!
! Created with skrf (http://scikit-rf.org).
# Hz S RI R 50.0 
!freq ReS11 ImS11 ReS21 ImS21 ReS12 ImS12 ReS22 ImS22
12607400000.0 0.522595567785753 -0.8525807132058008 -2.764400997014792e-17 1.0313418208759334e-16 -2.764400997014792e-17 1.0313418208759334e-16 0.522596134925671 -0.8525803655729911
12608017333.333334 0.5137839081305897 -0.8579196324515967 -2.6565602336230913e-17 1.0339562205464e-16 -2.6565602336230913e-17 1.0339562205464e-16 0.5137844787940373 -0.8579192906970703
12608634666.666666 0.5049177106216749 -0.8631674840379427 -2.5484748147374442e-17 1.0364579370112446e-16 -2.5484748147374442e-17 1.0364579370112446e-16 0.5049182847477347 -0.8631671481973991
12609252000.0 0.4959979164006588 -0.8683237109085701 -2.4401565064995e-17 1.0388467442831864e-16 -2.4401565064995e-17 1.0388467442831864e-16 0.49599849392805134 -0.8683233810170778
12609869333.333334 0.48702547229835114 -0.8733877657331787 -2.3316170955847766e-17 1.0411224286524337e-16 -2.3316170955847766e-17 1.0411224286524337e-16 0.48702605316544234 -0.8733874418251714
12610486666.666666 0.47800133073448675 -0.8783591109653764 -2.2228683879230234e-17 1.0432847887049338e-16 -2.2228683879230234e-17 1.0432847887049338e-16 0.47800191487929344 -0.8783587930746487
12611104000.0 0.46892644961625507 -0.8832372188999511 -2.113922207412259e-17 1.0453336353393835e-16 -2.113922207412259e-17 1.0453336353393835e-16 0.46892703697645366 -0.8832369070596573
12611721333.333334 0.45980179223701856 -0.888021571728667 -2.0047903946414562e-17 1.0472687917826955e-16 -2.0047903946414562e-17 1.0472687917826955e-16 0.4598023827499488 -0.888021265971314
12612338666.666666 0.4506283271737077 -0.8927116615954176 -1.8954848056021412e-17 1.0490900936043315e-16 -1.8954848056021412e-17 1.0490900936043315e-16 0.45062892077638206 -0.8927113619528653
12612956000.0 0.4414070281841587 -0.8973069906500537 -1.786017310401783e-17 1.0507973887292284e-16 -1.786017310401783e-17 1.0507973887292284e-16 0.4414076248132665 -0.8973066971535075
12613573333.333334 0.4321388741038748 -0.901807071101164 -1.6763997919815443e-17 1.0523905374492967e-16 -1.6763997919815443e-17 1.0523905374492967e-16 0.43213947369579175 -0.9018067837811766
12614190666.666666 0.42282484874192444 -0.9062114252679644 -1.5666441448245008e-17 1.0538694124337343e-16 -1.5666441448245008e-17 1.0538694124337343e-16 0.42282545123271653 -0.906211144154427
12614808000.0 0.4134659407765295 -0.9105195856309766 -1.456762273669377e-17 1.0552338987378832e-16 -1.456762273669377e-17 1.0552338987378832e-16 0.41346654610196265 -0.9105193107531215
12615425333.333334 0.40406314365025175 -0.9147310948816071 -1.3467660922201048e-17 1.0564838938108168e-16 -1.3467660922201048e-17 1.0564838938108168e-16 0.40406375174579645 -0.9147308262679997
12616042666.666666 0.3946174554644323 -0.9188455059707277 -1.2366675218582004e-17 1.0576193075015228e-16 -1.2366675218582004e-17 1.0576193075015228e-16 0.3946180662652721 -0.9188452436492685
12616660000.0 0.3851298788733 -0.9228623821561179 -1.1264784903521385e-17 1.0586400620638032e-16 -1.1264784903521385e-17 1.0586400620638032e-16 0.38513049231433666 -0.9228621261540331
12617277333.333334 0.37560142097740434 -0.9267812970488672 -1.0162109305662164e-17 1.0595460921598148e-16 -1.0162109305662164e-17 1.0595460921598148e-16 0.3756020369932668 -0.9267810473927132
12617894666.666666 0.36603309321700517 -0.9306018346585265 -9.058767791739056e-18 1.0603373448622378e-16 -9.058767791739056e-18 1.0603373448622378e-16 0.36603371174205507 -0.9306015913741822
12618512000.0 0.3564259112643128 -0.9343235894374226 -7.95487975363451e-18 1.0610137796551642e-16 -7.95487975363451e-18 1.0610137796551642e-16 0.3564265322326512 -0.9343233525500865
12619129333.333334 0.34678089491609615 -0.9379461663235359 -6.850564595530648e-18 1.0615753684335855e-16 -6.850564595530648e-18 1.0615753684335855e-16 0.3467815182615718 -0.9379459358577257
12619746666.666666 0.33709906798506245 -0.9414691807825825 -5.745941720974286e-18 1.0620220955015916e-16 -5.745941720974286e-18 1.0620220955015916e-16 0.33709969364127884 -0.9414689567621344
12620364000.0 0.3273814581913398 -0.9448922588487734 -4.6411305200074874e-18 1.0623539575691983e-16 -4.6411305200074874e-18 1.0623539575691983e-16 0.3273820860916607 -0.9448920412968344
12620981333.333334 0.317629097053517 -0.9482150371644568 -3.5362503563046224e-18 1.0625709637478428e-16 -3.5362503563046224e-18 1.0625709637478428e-16 0.317629727131075 -0.9482148261034864
12621598666.666666 0.30784301977893697 -0.9514371630187726 -2.431420554259917e-18 1.0626731355445614e-16 -2.431420554259917e-18 1.0626731355445614e-16 0.3078436519666399 -0.9514369584705379
12622216000.0 0.2980242651538341 -0.9545582943850742 -1.32676038615678e-18 1.0626605068548078e-16 -1.32676038615678e-18 1.0626605068548078e-16 0.29802489938437265 -0.9545580963706508
12622833333.333334 0.28817387543317735 -0.957578099957204 -2.2238905929642586e-19 1.0625331239539519e-16 -2.2238905929642586e-19 1.0625331239539519e-16 0.2881745116390317 -0.9575779084969703
12623450666.666666 0.27829289623003484 -0.9604962591846596 8.815742968252141e-19 1.062291045487442e-16 8.815742968252141e-19 1.062291045487442e-16 0.2782935343434822 -0.9604960742982969
12624068000.0 0.2683823764045022 -0.963312462306648 1.985010643372462e-18 1.0619343424596352e-16 1.985010643372462e-18 1.0619343424596352e-16 0.268383016357624 -0.9633122840131384
12624685333.333334 0.25844336795222905 -0.9660264103850026 3.0878010449677677e-18 1.061463098221295e-16 3.0878010449677677e-18 1.061463098221295e-16 0.2584440096769181 -0.966026238702626
12625302666.666666 0.24847692589318798 -0.9686378153357926 4.1898266824674216e-18 1.0608774084557787e-16 4.1898266824674216e-18 1.0608774084557787e-16 0.2484775693211555 -0.9686376502821249
12625920000.0 0.23848410815919166 -0.9711463999600368 5.290968865795091e-18 1.0601773811638609e-16 5.290968865795091e-18 1.0601773811638609e-16 0.23848475322197518 -0.9711462415519505
12626537333.333334 0.2284659754818966 -0.9735518979730522 6.391109046641861e-18 1.0593631366472886e-16 6.391109046641861e-18 1.0593631366472886e-16 0.22846662211086632 -0.9735517462267104
12627154666.666666 0.21842359128020622 -0.9758540540327145 7.490128831233438e-18 1.0584348074909734e-16 7.490128831233438e-18 1.0584348074909734e-16 0.21842423940657327 -0.9758539089635735
12627772000.0 0.20835802154711444 -0.9780526237666346 8.587909993075575e-18 1.0573925385438538e-16 8.587909993075575e-18 1.0573925385438538e-16 0.20835867110193754 -0.97805248538944
12628389333.333334 0.19827033473699393 -0.9801473737979951 9.684334485589312e-18 1.0562364868985154e-16 9.684334485589312e-18 1.0562364868985154e-16 0.1982709856511869 -0.9801472421267802
12629006666.666666 0.18816160165165202 -0.9821380817704353 1.0779284454839035e-17 1.0549668218693941e-16 1.0779284454839035e-17 1.0549668218693941e-16 0.18816225385599128 -0.9821379568185211
12629624000.0 0.1780328953271397 -0.9840245363715588 1.1872642252138698e-17 1.0535837249697622e-16 1.1872642252138698e-17 1.0535837249697622e-16 0.17803354875227131 -0.984024418151551
12630241333.333334 0.16788529091956972 -0.9858065373554168 1.2964290446699946e-17 1.0520873898873341e-16 1.2964290446699946e-17 1.0520873898873341e-16 0.16788594549601715 -0.9858064258792061
12630858666.666666 0.1577198655912144 -0.9874838955637277 1.40541118381859e-17 1.0504780224586434e-16 1.40541118381859e-17 1.0504780224586434e-16 0.1577205212493855 -0.9874837908424869
12631476000.0 0.1475376983957442 -0.9890564329460244 1.5141989469312898e-17 1.048755840642023e-16 1.5141989469312898e-17 1.048755840642023e-16 0.14753835506593882 -0.9890563349902082
12632093333.333334 0.13733987016421959 -0.9905239825784642 1.6227806638349387e-17 1.0469210744893781e-16 1.6227806638349387e-17 1.0469210744893781e-16 0.1373405277766373 -0.99052389139781
12632710666.666666 0.12712746339008218 -0.9918863886816022 1.7311446911612322e-17 1.0449739661166355e-16 1.7311446911612322e-17 1.0449739661166355e-16 0.12712812187482903 -0.9918863042851258
12633328000.0 0.1169015621141627 -0.9931435066369284 1.839279413595626e-17 1.0429147696728444e-16 1.839279413595626e-17 1.0429147696728444e-16 0.11690222140125917 -0.9931434290329255
12633945333.333334 0.10666325180975227 -0.9942952030022051 1.9471732451168174e-17 1.0407437513081022e-16 1.9471732451168174e-17 1.0407437513081022e-16 0.10666391182914034 -0.994295132198248
12634562666.666666 0.09641361926740778 -0.9953413555256239 2.0548146302384885e-17 1.0384611891400849e-16 2.0548146302384885e-17 1.0384611891400849e-16 0.09641427994895867 -0.995341291528564
12635180000.0 0.08615375247950542 -0.9962818531587966 2.162192045242546e-17 1.0360673732193907e-16 2.162192045242546e-17 1.0360673732193907e-16 0.08615441375302699 -0.9962817959747626
12635797333.333334 0.0758847405247793 -0.9971165960685406 2.2692939994116986e-17 1.0335626054935482e-16 2.2692939994116986e-17 1.0335626054935482e-16 0.07588540232002328 -0.9971165457029357
12636414666.666666 0.06560767345271604 -0.9978454956474716 2.3761090362565206e-17 1.0309471997697827e-16 2.3761090362565206e-17 1.0309471997697827e-16 0.06560833569938568 -0.9978454521049753
12637032000.0 0.05532364216784677 -0.9984684745234126 2.4826257347386205e-17 1.0282214816765061e-16 2.4826257347386205e-17 1.0282214816765061e-16 0.05532430479560436 -0.9984684378079806
12637649333.333334 0.0450337383139484 -0.9989854665676057 2.5888327104895265e-17 1.0253857886235562e-16 2.5888327104895265e-17 1.0253857886235562e-16 0.04503440125242262 -0.9989854366824685
12638266666.666666 0.03473905415819465 -0.9993964169017323 2.6947186170248363e-17 1.0224404697611798e-16 2.6947186170248363e-17 1.0224404697611798e-16 0.03473971733698801 -0.9993963938493936
12638884000.0 0.02444068247509873 -0.9997012819037383 2.8002721469552577e-17 1.0193858859377277e-16 2.8002721469552577e-17 1.0193858859377277e-16 0.0244413458237952 -0.9997012656859785
12639501333.333334 0.014139716430658278 -0.9999000292124648 2.905482033190341e-17 1.0162224096561769e-16 2.905482033190341e-17 1.0162224096561769e-16 0.01414037987883062 -0.9999000198303373
12640118666.666666 0.003837249466401506 -0.9999926377310784 3.010337050137997e-17 1.0129504250293964e-16 3.010337050137997e-17 1.0129504250293964e-16 0.0038379129436188182 -0.9999926351849113
12640736000.0 -0.006465624817220776 -0.9999790976293205 3.114826014905377e-17 1.0095703277339897e-16 3.114826014905377e-17 1.0095703277339897e-16 -0.0064649613813855976 -0.9999791019187166
12641353333.333334 -0.016767812776067686 -0.9998594103445412 3.218937788480604e-17 1.0060825249633312e-16 3.218937788480604e-17 1.0060825249633312e-16 -0.01676714945203048 -0.9998594214683779
12641970666.666666 -0.027068220839108422 -0.9996335885815523 3.3226612769250885e-17 1.0024874353788957e-16 3.3226612769250885e-17 1.0024874353788957e-16 -0.02706755769726628 -0.9996336065379811
12642588000.0 -0.037365755624163145 -0.9993016563112771 3.425985432549918e-17 9.987854890606998e-17 3.425985432549918e-17 9.987854890606998e-17 -0.03736509273488696 -0.9993016810977251
12643205333.333334 -0.04765932405410691 -0.9988636487682049 3.528899255091633e-17 9.949771274563709e-17 3.528899255091633e-17 9.949771274563709e-17 -0.047658661487733886 -0.9988636803813742
12643822666.666666 -0.0579478334728423 -0.9983196124466504 3.631391792880181e-17 9.910628033290909e-17 3.631391792880181e-17 9.910628033290909e-17 -0.05794717129966848 -0.9983196508825185
12644440000.0 -0.06823019176125576 -0.9976696050958194 3.7334521440028445e-17 9.870429807042775e-17 3.7334521440028445e-17 9.870429807042775e-17 -0.06822953005152864 -0.9976696503496405
12645057333.333334 -0.07850530745314559 -0.9969136957136824 3.835069457459817e-17 9.8291813481516e-17 3.835069457459817e-17 9.8291813481516e-17 -0.07850464627705657 -0.9969137477799876
12645674666.666666 -0.08877208985105217 -0.9960519645396535 3.9362329343166714e-17 9.786887520470756e-17 3.9362329343166714e-17 9.786887520470756e-17 -0.08877142927872912 -0.9960520234122503
12646292000.0 -0.09902944914234613 -0.9950845030460428 4.036931828851244e-17 9.743553298805381e-17 4.036931828851244e-17 9.743553298805381e-17 -0.09902878924384607 -0.9950845687180183
12646909333.333334 -0.10927629651437343 -0.994011413928396 4.137155449688841e-17 9.699183768333752e-17 4.137155449688841e-17 9.699183768333752e-17 -0.10927563735967503 -0.9940114863921159
12647526666.666666 -0.1195115442704005 -0.9928328110945626 4.236893160938845e-17 9.653784124013684e-17 4.236893160938845e-17 9.653784124013684e-17 -0.11951088592939649 -0.9928328903416712
12648144000.0 -0.12973410594512827 -0.9915488196525902 4.3361343833188355e-17 9.607359669979875e-17 4.3361343833188355e-17 9.607359669979875e-17 -0.12973344848761842 -0.9915489056740152
12648761333.333334 -0.13994289641973778 -0.9901595758974818 4.4348685952754534e-17 9.559915818928288e-17 4.4348685952754534e-17 9.559915818928288e-17 -0.13994223991542118 -0.9901596686834307
12649378666.666666 -0.15013683203718808 -0.9886652272967147 4.5330853340956086e-17 9.511458091490445e-17 4.5330853340956086e-17 9.511458091490445e-17 -0.15013617655565575 -0.988665326836678
12649996000.0 -0.16031483071733002 -0.9870659324745743 4.6307741970152514e-17 9.461992115594288e-17 4.6307741970152514e-17 9.461992115594288e-17 -0.16031417632805775 -0.9870660387573279
12650613333.333334 -0.1704758120717962 -0.9853618611953113 4.727924842317695e-17 9.411523625815314e-17 4.727924842317695e-17 9.411523625815314e-17 -0.17047515884413716 -0.9853619742089161
12651230666.666666 -0.18061869751840343 -0.9835531943451672 4.824526990424696e-17 9.360058462716698e-17 4.824526990424696e-17 9.360058462716698e-17 -0.18061804552158045 -0.98355331407697
12651848000.0 -0.1907424103960353 -0.981640123913105 4.920570424985451e-17 9.307602572175585e-17 4.920570424985451e-17 9.307602572175585e-17 -0.19074175969913412 -0.9816402503497422
12652465333.333334 -0.200845876078622 -0.9796228529704877 5.016044993950623e-17 9.254162004702278e-17 5.016044993950623e-17 9.254162004702278e-17 -0.2008452267505832 -0.9796229860978832
12653082666.666666 -0.21092802208932215 -0.9775015956494975 5.110940610643839e-17 9.199742914745969e-17 5.110940610643839e-17 9.199742914745969e-17 -0.21092737419893476 -0.9775017354528684
12653700000.0 -0.22098777821447768 -0.9752765771203863 5.2052472548282615e-17 9.144351559987977e-17 5.2052472548282615e-17 9.144351559987977e-17 -0.22098713183037114 -0.9752767235842414
12654317333.333334 -0.23102407661693758 -0.9729480335676298 5.298954973756979e-17 9.08799430062897e-17 5.298954973756979e-17 9.08799430062897e-17 -0.2310234318075752 -0.9729481866757743
12654934666.666666 -0.24103585194963234 -0.9705162121648161 5.392053883224319e-17 9.030677598660571e-17 5.392053883224319e-17 9.030677598660571e-17 -0.24103520878330287 -0.9705163719003489
12655552000.0 -0.25102204146876694 -0.9679813710483686 5.484534168606693e-17 8.972408017127654e-17 5.484534168606693e-17 8.972408017127654e-17 -0.25102140001357875 -0.967981537393689
12656169333.333334 -0.26098158514621916 -0.965343779290256 5.576386085890951e-17 8.913192219382856e-17 5.576386085890951e-17 8.913192219382856e-17 -0.26098094547009176 -0.9653439522270615
12656786666.666666 -0.27091342578241806 -0.9626037168693372 5.667599962701889e-17 8.853036968326226e-17 5.667599962701889e-17 8.853036968326226e-17 -0.27091278795307594 -0.9626038963786289
12657404000.0 -0.28081650911850975 -0.9597614746416538 5.75816619931775e-17 8.791949125636708e-17 5.75816619931775e-17 8.791949125636708e-17 -0.280815873203475 -0.9597616607037378
12658021333.333334 -0.29068978394815737 -0.9568173543095888 5.848075269677023e-17 8.729935650993635e-17 5.848075269677023e-17 8.729935650993635e-17 -0.2906891500147418 -0.956817546904076
12658638666.666666 -0.3005322022290986 -0.9537716683898484 5.937317722377677e-17 8.667003601287505e-17 5.937317722377677e-17 8.667003601287505e-17 -0.3005315703443973 -0.953771867495659
12659256000.0 -0.3103427191946131 -0.9506247401802252 6.025884181670141e-17 8.603160129819012e-17 6.025884181670141e-17 8.603160129819012e-17 -0.3103420894254972 -0.9506249457755902
12659873333.333334 -0.32012029346428583 -0.9473769037253158 6.11376534843851e-17 8.538412485490153e-17 6.11376534843851e-17 8.538412485490153e-17 -0.3201196658773953 -0.9473771157877792
12660490666.666666 -0.3298638871543895 -0.9440285037811218 6.200952001172947e-17 8.47276801198564e-17 6.200952001172947e-17 8.47276801198564e-17 -0.32986326181612613 -0.9440287222875435
12661108000.0 -0.339572465988431 -0.9405798957783241 6.287434996937829e-17 8.406234146940951e-17 6.287434996937829e-17 8.406234146940951e-17 -0.3395718429649518 -0.9405801207048832
12661725333.333334 -0.34924499940651016 -0.9370314457847048 6.373205272325338e-17 8.338818421104889e-17 6.373205272325338e-17 8.338818421104889e-17 -0.3492443787637197 -0.9370316771069004
12662342666.666666 -0.3588804606751145 -0.9333835304661452 6.458253844403873e-17 8.270528457489499e-17 6.458253844403873e-17 8.270528457489499e-17 -0.35887984247865806 -0.9333837681587996
12662960000.0 -0.36847782699581205 -0.9296365370467489 6.542571811656019e-17 8.201371970511526e-17 6.542571811656019e-17 8.201371970511526e-17 -0.3684772113110696 -0.9296367810840125
12663577333.333334 -0.37803607961395536 -0.9257908632676919 6.626150354907346e-17 8.131356765124259e-17 6.626150354907346e-17 8.131356765124259e-17 -0.3780354665060331 -0.9257911136230423
12664194666.666666 -0.3875542039267675 -0.9218469173450204 6.708980738247116e-17 8.060490735939063e-17 6.708980738247116e-17 8.060490735939063e-17 -0.38755359346049184 -0.9218471739912674
12664812000.0 -0.397031189591147 -0.9178051179262767 6.791054309937355e-17 7.988781866339443e-17 6.791054309937355e-17 7.988781866339443e-17 -0.39703058183105805 -0.9178053808355656
12665429333.333334 -0.40646603063078374 -0.9136658940461129 6.872362503314765e-17 7.916238227583969e-17 6.872362503314765e-17 7.916238227583969e-17 -0.4064654256411281 -0.9136661631899275
12666046666.666666 -0.41585772554291794 -0.9094296850807649 6.952896837681771e-17 7.842867977901268e-17 6.952896837681771e-17 7.842867977901268e-17 -0.4158571233876415 -0.9094299604299291
12666664000.0 -0.4252052774048822 -0.9050969407013072 7.032648919189436e-17 7.768679361574505e-17 7.032648919189436e-17 7.768679361574505e-17 -0.4252046781476241 -0.9050972222259894
12667281333.333334 -0.4345076939796648 -0.9006681208260356 7.111610441707424e-17 7.693680708020029e-17 7.111610441707424e-17 7.693680708020029e-17 -0.43450709768375023 -0.9006684084957517
12667898666.666666 -0.44376398782133913 -0.8961436955716028 7.189773187688091e-17 7.617880430853544e-17 7.189773187688091e-17 7.617880430853544e-17 -0.44376339454977326 -0.8961439893552201
12668516000.0 -0.4529731763799829 -0.8915241452030656 7.267129029019738e-17 7.541287026948299e-17 7.267129029019738e-17 7.541287026948299e-17 -0.452972586195443 -0.8915244450688041
12669133333.333334 -0.4621342821056936 -0.8868099600830401 7.343669927865838e-17 7.463909075488614e-17 7.343669927865838e-17 7.463909075488614e-17 -0.4621336950705234 -0.8868102659984782
12669750666.666666 -0.4712463325527111 -0.8820016406194754 7.41938793750024e-17 7.385755237009165e-17 7.41938793750024e-17 7.385755237009165e-17 -0.4712457487289144 -0.8820019525515527
12670368000.0 -0.48030836048238984 -0.8770996972126632 7.4942752031291e-17 7.30683425242862e-17 7.4942752031291e-17 7.30683425242862e-17 -0.48030777993162294 -0.8771000151276832
