! Parameters = {f0=12700.012000; bw=77.238000; Q=6100.000000; N=10; m_0_1=1.189284; m_1_1=-0.925481; m_1_2=1.024096; m_2_2=-0.926130; m_2_3=0.661059; m_2_8=-0.003472; m_2_9=0.033232; m_3_3=-0.928067; m_3_4=0.549588; m_3_7=-0.002872; m_3_8=-0.099960; m_3_9=-0.003472; m_4_4=-0.930992; m_4_5=0.385923; m_4_6=0.000645; m_4_7=-0.120509; m_4_8=-0.002872; m_5_5=-0.930610; m_5_6=0.793278; m_5_7=0.000645; m_6_6=-0.930611; m_6_7=0.386265; m_7_7=-0.930978; m_7_8=0.549706; m_8_8=-0.928069; m_8_9=0.661372; m_9_9=-0.926135; m_9_10=1.025174; m_10_10=-0.925491; m_10_11=1.190079}
!
! Created with skrf (http://scikit-rf.org).
# Hz S RI R 50.0 
!freq ReS11 ImS11 ReS21 ImS21 ReS12 ImS12 ReS22 ImS22
12607400000.0 0.7410830394260329 -0.6714133813642077 -3.8667386676772804e-17 6.354157638505759e-17 -3.8667386676772804e-17 6.354157638505759e-17 0.7410834602171797 -0.6714129169090931
12608017333.333334 0.7355954255643746 -0.6774211170967519 -3.813595422640165e-17 6.384497270064301e-17 -3.813595422640165e-17 6.384497270064301e-17 0.7355958500999277 -0.6774206561034356
12608634666.666666 0.7300591102890773 -0.6833840029469277 -3.7602149144226925e-17 6.414392956929242e-17 -3.7602149144226925e-17 6.414392956929242e-17 0.7300595385405638 -0.6833835454455897
12609252000.0 0.7244744601418487 -0.6893016441312343 -3.706600847386584e-17 6.443842850434725e-17 -3.706600847386584e-17 6.443842850434725e-17 0.724474892080553 -0.6893011901518209
12609869333.333334 0.7188418448644729 -0.6951736488616972 -3.652756940238496e-17 6.472845132790787e-17 -3.652756940238496e-17 6.472845132790787e-17 0.718842280461438 -0.6951731984339184
12610486666.666666 0.7131616373744907 -0.7009996283716431 -3.5986869257744076e-17 6.501398017193314e-17 -3.5986869257744076e-17 6.501398017193314e-17 0.7131620766005201 -0.7009991815249711
12611104000.0 0.7074342137401504 -0.7067791969418041 -3.544394550620228e-17 6.529499747933537e-17 -3.544394550620228e-17 6.529499747933537e-17 0.7074346565658105 -0.7067787537054709
12611721333.333334 0.7016599531559488 -0.7125119719254099 -3.48988357497436e-17 6.557148600503885e-17 -3.48988357497436e-17 6.557148600503885e-17 0.7016603995515716 -0.712511532328407
12612338666.666666 0.695839237917169 -0.7181975737738878 -3.435157772347759e-17 6.584342881702557e-17 -3.435157772347759e-17 6.584342881702557e-17 0.6958396878528504 -0.7181971378449602
12612956000.0 0.6899724533947235 -0.7238356260618234 -3.3802209293022455e-17 6.611080929736416e-17 -3.3802209293022455e-17 6.611080929736416e-17 0.6899729068403302 -0.7238351938294726
12613573333.333334 0.6840599880096865 -0.7294257555118492 -3.3250768451916323e-17 6.637361114319911e-17 -3.3250768451916323e-17 6.637361114319911e-17 0.6840604449348557 -0.7294253270043292
12614190666.666666 0.6781022332074345 -0.734967592019496 -3.269729331898496e-17 6.663181836773652e-17 -3.269729331898496e-17 6.663181836773652e-17 0.6781026935815746 -0.7349671672648097
12614808000.0 0.6720995834318899 -0.7404607686775342 -3.21418221357114e-17 6.688541530120281e-17 -3.21418221357114e-17 6.688541530120281e-17 0.6721000472241856 -0.7404603477034355
12615425333.333334 0.6660524360992472 -0.7459049218004284 -3.158439326361564e-17 6.713438659177408e-17 -3.158439326361564e-17 6.713438659177408e-17 0.666052903278659 -0.7459045046344169
12616042666.666666 0.659961191571823 -0.7512996909482564 -3.1025045181600286e-17 6.737871720649568e-17 -3.1025045181600286e-17 6.737871720649568e-17 0.6599616621070897 -0.7512992776175769
12616660000.0 0.6538262531313822 -0.7566447189507269 -3.046381648330866e-17 6.761839243217131e-17 -3.046381648330866e-17 6.761839243217131e-17 0.6538267269910248 -0.7566443094823679
12617277333.333334 0.6476480269525873 -0.7619396519306938 -2.990074587447401e-17 6.785339787623068e-17 -2.990074587447401e-17 6.785339787623068e-17 0.6476485041049095 -0.7619392463513862
12617894666.666666 0.6414269220760432 -0.7671841393276443 -2.933587217025491e-17 6.80837194675794e-17 -2.933587217025491e-17 6.80837194675794e-17 0.6414274024891335 -0.7671837376638584
12618512000.0 0.6351633503811513 -0.7723778339209619 -2.87692342925619e-17 6.830934345742659e-17 -2.87692342925619e-17 6.830934345742659e-17 0.6351638340228853 -0.7723774361989054
12619129333.333334 0.6288577265589891 -0.7775203918527833 -2.820087126739764e-17 6.85302564200829e-17 -2.820087126739764e-17 6.85302564200829e-17 0.6288582133970322 -0.7775199980984013
12619746666.666666 0.6225104680847058 -0.782611472650897 -2.7630822222163656e-17 6.87464452537472e-17 -2.7630822222163656e-17 6.87464452537472e-17 0.6225109580865151 -0.7826110828898697
12620364000.0 0.616121995189947 -0.7876507392512272 -2.7059126382980954e-17 6.895789718126354e-17 -2.7059126382980954e-17 6.895789718126354e-17 0.6161224883227725 -0.7876503535089665
12620981333.333334 0.6096927308350754 -0.7926378580201136 -2.648582307200301e-17 6.916459975085645e-17 -2.648582307200301e-17 6.916459975085645e-17 0.6096932270659641 -0.7926374763217646
12621598666.666666 0.6032231006811263 -0.7975724987764393 -2.591095170471536e-17 6.936654083684697e-17 -2.591095170471536e-17 6.936654083684697e-17 0.6032235999769225 -0.7975721211468758
12622216000.0 0.5967135330615567 -0.80245433481354 -2.5334551787230125e-17 6.956370864034655e-17 -2.5334551787230125e-17 6.956370864034655e-17 0.5967140353889053 -0.8024539612773642
12622833333.333334 0.5901644589540211 -0.8072830429207298 -2.4756662913581192e-17 6.975609168992603e-17 -2.4756662913581192e-17 6.975609168992603e-17 0.5901649642793704 -0.8072826735022712
12623450666.666666 0.5835763119517745 -0.8120583034047569 -2.4177324763026535e-17 6.994367884225838e-17 -2.4177324763026535e-17 6.994367884225838e-17 0.5835768202413758 -0.8120579381280689
12624068000.0 0.5769495282349129 -0.8167798001109952 -2.3596577097308082e-17 7.012645928275205e-17 -2.3596577097308082e-17 7.012645928275205e-17 0.5769500394548267 -0.816779438999856
12624685333.333334 0.5702845465415474 -0.8214472204443498 -2.3014459757944787e-17 7.030442252614869e-17 -2.3014459757944787e-17 7.030442252614869e-17 0.5702850606576417 -0.8214468635222579
12625302666.666666 0.5635818081388214 -0.8260602553898969 -2.2431012663513654e-17 7.047755841710174e-17 -2.2431012663513654e-17 7.047755841710174e-17 0.5635823251167775 -0.8260599026800732
12625920000.0 0.5568417567935375 -0.8306185995334638 -2.1846275806896175e-17 7.064585713074102e-17 -2.1846275806896175e-17 7.064585713074102e-17 0.5568422765988491 -0.8306182510588461
12626537333.333334 0.5500648387429364 -0.8351219510817298 -2.1260289252579424e-17 7.08093091731977e-17 -2.1260289252579424e-17 7.08093091731977e-17 0.5500653613409137 -0.8351216068649738
12627154666.666666 0.5432515026650843 -0.8395700118822579 -2.067309313389286e-17 7.096790538212458e-17 -2.067309313389286e-17 7.096790538212458e-17 0.543252028020857 -0.8395696719457365
12627772000.0 0.536402199649098 -0.8439624874432841 -2.0084727650271683e-17 7.112163692718449e-17 -2.0084727650271683e-17 7.112163692718449e-17 0.5364027277276159 -0.8439621518090837
12628389333.333334 0.5295173831654445 -0.8482990869531024 -1.9495233064527172e-17 7.127049531051395e-17 -1.9495233064527172e-17 7.127049531051395e-17 0.5295179139314802 -0.8482987556430217
12629006666.666666 0.5225975090357498 -0.8525795232994259 -1.8904649700074977e-17 7.141447236717379e-17 -1.8904649700074977e-17 7.141447236717379e-17 0.5225980424539025 -0.8525791963349768
12629624000.0 0.5156430354026944 -0.8568035130883522 -1.83130179382134e-17 7.155356026556375e-17 -1.83130179382134e-17 7.155356026556375e-17 0.5156435714373905 -0.8568031904907558
12630241333.333334 0.5086544226997288 -0.8609707766630947 -1.7720378215343994e-17 7.168775150782865e-17 -1.7720378215343994e-17 7.168775150782865e-17 0.5086549613152246 -0.8609704584532807
12630858666.666666 0.5016321336205405 -0.8650810381225271 -1.712677102024428e-17 7.181703893022756e-17 -1.712677102024428e-17 7.181703893022756e-17 0.5016326747809263 -0.8650807243211344
12631476000.0 0.4945766330883494 -0.8691340253394969 -1.653223689127286e-17 7.194141570349625e-17 -1.653223689127286e-17 7.194141570349625e-17 0.49457717675754936 -0.8691337159668686
12632093333.333334 0.487488388225271 -0.8731294699787504 -1.5936816413641698e-17 7.20608753331707e-17 -1.5936816413641698e-17 7.20608753331707e-17 0.4874889343670466 -0.8731291650549345
12632710666.666666 0.4803678683213172 -0.877067107514744 -1.5340550216647483e-17 7.217541165989684e-17 -1.5340550216647483e-17 7.217541165989684e-17 0.48036841689927035 -0.8770668070594929
12633328000.0 0.47321554480327754 -0.8809466772491868 -1.4743478970882575e-17 7.228501885972108e-17 -1.4743478970882575e-17 7.228501885972108e-17 0.4732160957808526 -0.8809463812819555
12633945333.333334 0.4660318912035554 -0.8847679223282694 -1.414564338550372e-17 7.238969144434569e-17 -1.414564338550372e-17 7.238969144434569e-17 0.46603244454404114 -0.8847676308682134
12634562666.666666 0.45881738312889353 -0.8885305897596322 -1.3547084205439796e-17 7.248942426137368e-17 -1.3547084205439796e-17 7.248942426137368e-17 0.4588179387954254 -0.8885303028256055
12635180000.0 0.45157249822870826 -0.8922344304292057 -1.2947842208631034e-17 7.258421249452451e-17 -1.2947842208631034e-17 7.258421249452451e-17 0.45157305618427224 -0.8922341480397631
12635797333.333334 0.44429771616364383 -0.8958791991176133 -1.2347958203262916e-17 7.267405166382696e-17 -1.2347958203262916e-17 7.267405166382696e-17 0.4442982763710773 -0.8958789212910052
12636414666.666666 0.4369935185737392 -0.8994646545164453 -1.1747473024989008e-17 7.275893762579258e-17 -1.1747473024989008e-17 7.275893762579258e-17 0.43699408099573483 -0.8994643812706199
12637032000.0 0.42966038904646414 -0.9029905592442736 -1.1146427534163086e-17 7.283886657356276e-17 -1.1146427534163086e-17 7.283886657356276e-17 0.4296609536455709 -0.9029902905968723
12637649333.333334 0.4222988130848807 -0.9064566798622796 -1.0544862613060552e-17 7.291383503703629e-17 -1.0544862613060552e-17 7.291383503703629e-17 0.422299379823507 -0.906456415830638
12638266666.666666 0.41490927807529376 -0.9098627868898056 -9.942819163109636e-18 7.29838398829711e-17 -9.942819163109636e-18 7.29838398829711e-17 0.41490984691571114 -0.9098625274909538
12638884000.0 0.40749227325519094 -0.9132086548194571 -9.340338102124575e-18 7.304887831506391e-17 -9.340338102124575e-18 7.304887831506391e-17 0.40749284415953446 -0.9132084000701147
12639501333.333334 0.4000482896806168 -0.9164940621321331 -8.737460361517984e-18 7.310894787400963e-17 -8.737460361517984e-18 7.310894787400963e-17 0.40004886261088907 -0.9164938120487119
12640118666.666666 0.39257782019402676 -0.9197187913115359 -8.134226883546623e-18 7.316404643753359e-17 -8.134226883546623e-18 7.316404643753359e-17 0.3925783951120996 -0.9197185459101355
12640736000.0 0.38508135939105703 -0.9228826288588277 -7.530678618511722e-18 7.321417222040605e-17 -7.530678618511722e-18 7.321417222040605e-17 0.3850819362586748 -0.9228823881552379
12641353333.333334 0.37755940358848517 -0.9259853653064681 -6.9268565220223835e-18 7.32593237744281e-17 -6.9268565220223835e-18 7.32593237744281e-17 0.37755998236726646 -0.9259851293161651
12641970666.666666 0.3700124507908988 -0.9290267952322788 -6.322801552197145e-18 7.329949998840008e-17 -6.322801552197145e-18 7.329949998840008e-17 0.3700130314423399 -0.9290265639704255
12642588000.0 0.3624410006578038 -0.9320067172730125 -5.718554666897753e-18 7.33347000880649e-17 -5.718554666897753e-18 7.33347000880649e-17 0.36244158314328045 -0.932006490754457
12643205333.333334 0.3548455544707264 -0.9349249341376072 -5.114156820974428e-18 7.336492363602751e-17 -5.114156820974428e-18 7.336492363602751e-17 0.3548461387514973 -0.9349247123768837
12643822666.666666 0.3472266150997096 -0.9377812526203779 -4.509648963474914e-18 7.339017053165445e-17 -4.509648963474914e-18 7.339017053165445e-17 0.34722720113691763 -0.9377810356317025
12644440000.0 0.3395846869703619 -0.9405754836136689 -3.905072034894595e-18 7.341044101094787e-17 -3.905072034894595e-18 7.341044101094787e-17 0.3395852747250382 -0.9405752714109418
12645057333.333334 0.33192027603025137 -0.9433074421204614 -3.3004669644158036e-18 7.342573564639827e-17 -3.3004669644158036e-18 7.342573564639827e-17 0.33192086546331634 -0.9433072347172631
12645674666.666666 0.32423388971548595 -0.9459769472665874 -2.6958746671301435e-18 7.343605534681492e-17 -2.6958746671301435e-18 7.343605534681492e-17 0.32423448078775324 -0.94597674467618
12646292000.0 0.3165260369170119 -0.9485838223127442 -2.09133604127956e-18 7.344140135713268e-17 -2.09133604127956e-18 7.344140135713268e-17 0.31652662958919037 -0.9485836245480702
12646909333.333334 0.3087972279470826 -0.9511278946661404 -1.4868919655100743e-18 7.344177525819645e-17 -1.4868919655100743e-18 7.344177525819645e-17 0.30879782217977864 -0.9511277017398202
12647526666.666666 0.3010479745054178 -0.9536089958919387 -8.825832961007653e-19 7.343717896652336e-17 -8.825832961007653e-19 7.343717896652336e-17 0.3010485702591392 -0.9536088078162737
12648144000.0 0.29327878964513837 -0.9560269617244741 -2.7845086421831003e-19 7.342761473404171e-17 -2.7845086421831003e-19 7.342761473404171e-17 0.2932793868802954 -0.9560267785114414
12648761333.333334 0.2854901877391215 -0.9583816320780196 3.2546452684030654e-19 7.341308514780807e-17 3.2546452684030654e-19 7.341308514780807e-17 0.2854907864160304 -0.9583814537392732
12649378666.666666 0.27768268444572963 -0.9606728510574557 9.291221043791841e-19 7.339359312970139e-17 9.291221043791841e-19 7.339359312970139e-17 0.2776832845246152 -0.9606726776043272
12649996000.0 0.26985679667475265 -0.962900466968569 1.5324811290734808e-18 7.336914193609452e-17 1.5324811290734808e-18 7.336914193609452e-17 0.26985739811575077 -0.9629002984120648
12650613333.333334 0.26201304255307456 -0.9650643323281237 2.135500897698499e-18 7.333973515750352e-17 2.135500897698499e-18 7.333973515750352e-17 0.26201364531623467 -0.9650641686789251
12651230666.666666 0.25415194139056235 -0.9671643038735747 2.7381407458531988e-18 7.33053767182149e-17 2.7381407458531988e-18 7.33053767182149e-17 0.2541525454358502 -0.9671641451420357
12651848000.0 0.24627401364549098 -0.9692002425725997 3.3403600507300315e-18 7.326607087588873e-17 3.3403600507300315e-18 7.326607087588873e-17 0.24627461893279193 -0.9692000887687511
12652465333.333334 0.23837978089014272 -0.9711720136322989 3.9421182338100366e-18 7.322182222114186e-17 3.9421182338100366e-18 7.322182222114186e-17 0.23838038737926281 -0.9711718647658399
12653082666.666666 0.2304697657764929 -0.973079486508052 4.543374763603924e-18 7.317263567710744e-17 4.543374763603924e-18 7.317263567710744e-17 0.23047037342716345 -0.9730793425883575
12653700000.0 0.2225444920011128 -0.9749225349122934 5.144089158388808e-18 7.311851649897058e-17 5.144089158388808e-18 7.311851649897058e-17 0.22254510077299178 -0.9749223959484086
12654317333.333334 0.21460448427110382 -0.9767010368227216 5.744220988890697e-18 7.30594702734863e-17 5.744220988890697e-18 7.30594702734863e-17 0.21460509412377882 -0.9767009028233621
12654934666.666666 0.2066502682688608 -0.978414874490497 6.3437298810330004e-18 7.299550291846961e-17 6.3437298810330004e-18 7.299550291846961e-17 0.2066508791618518 -0.978414745464049
12655552000.0 0.19868237061748928 -0.9800639344479835 6.94257551862829e-18 7.292662068226723e-17 6.94257551862829e-18 7.292662068226723e-17 0.19868298251025168 -0.9800638104025051
12656169333.333334 0.19070131884599614 -0.9816481075162549 7.540717646077631e-18 7.285283014320703e-17 7.540717646077631e-18 7.285283014320703e-17 0.19070193169792293 -0.9816479884594719
12656786666.666666 0.18270764135416773 -0.983167288812358 8.138116071083328e-18 7.277413820902248e-17 8.138116071083328e-18 7.277413820902248e-17 0.18270825512459246 -0.9831671747516664
12657404000.0 0.17470186737781032 -0.9846213777562179 8.734730667325316e-18 7.269055211625894e-17 8.734730667325316e-18 7.269055211625894e-17 0.17470248202600927 -0.98462126869868
12658021333.333334 0.16668452695345837 -0.9860102780773374 9.330521377165174e-18 7.260207942965445e-17 9.330521377165174e-18 7.260207942965445e-17 0.16668514243865426 -0.9860101740296862
12658638666.666666 0.15865615088364757 -0.9873338978211132 9.925448214311311e-18 7.250872804150177e-17 9.925448214311311e-18 7.250872804150177e-17 0.1586567671650113 -0.9873337987897475
12659256000.0 0.15061727070126707 -0.9885921493550046 1.0519471266509299e-17 7.241050617098527e-17 1.0519471266509299e-17 7.241050617098527e-17 0.1506178877379211 -0.9885920553459923
12659873333.333334 0.14256841863484537 -0.9897849493742602 1.1112550698207551e-17 7.230742236349797e-17 1.1112550698207551e-17 7.230742236349797e-17 0.1425690363858658 -0.9897848603933339
12660490666.666666 0.1345101275731166 -0.9909122189074632 1.1704646753204555e-17 7.21994854899395e-17 1.1704646753204555e-17 7.21994854899395e-17 0.13451074599753654 -0.9909121349600237
12661108000.0 0.1264429310295428 -0.9919738833217869 1.2295719757342904e-17 7.208670474598247e-17 1.2295719757342904e-17 7.208670474598247e-17 0.12644355008635477 -0.991973804412902
12661725333.333334 0.11836736310747034 -0.9929698723278723 1.2885730121114927e-17 7.196908965133251e-17 1.2885730121114927e-17 7.196908965133251e-17 0.11836798275562889 -0.9929697984622745
12662342666.666666 0.11028395846426163 -0.9939001199845484 1.3474638342343356e-17 7.184665004895122e-17 1.3474638342343356e-17 7.184665004895122e-17 0.11028457866268607 -0.9939000511666354
12662960000.0 0.10219325227626334 -0.9947645647031492 1.4062405008801853e-17 7.171939610426747e-17 1.4062405008801853e-17 7.171939610426747e-17 0.10219387298384074 -0.9947645009369853
12663577333.333334 0.09409578020312047 -0.9955631492516246 1.4648990800840816e-17 7.158733830436531e-17 1.4648990800840816e-17 7.158733830436531e-17 0.09409640137870803 -0.9955630905409377
12664194666.666666 0.08599207835253773 -0.9962958207583015 1.523435649402413e-17 7.145048745714633e-17 1.523435649402413e-17 7.145048745714633e-17 0.08599269995496585 -0.9962957671064862
12664812000.0 0.07788268324458801 -0.9969625307154077 1.5818462961727973e-17 7.130885469047723e-17 1.5818462961727973e-17 7.130885469047723e-17 0.07788330523266271 -0.9969624821255222
12665429333.333334 0.06976813177624712 -0.9975632349822733 1.6401271177764517e-17 7.116245145130912e-17 1.6401271177764517e-17 7.116245145130912e-17 0.06976875410875306 -0.9975631914570419
12666046666.666666 0.061648961186074956 -0.9980978937882418 1.698274221896539e-17 7.101128950478287e-17 1.698274221896539e-17 7.101128950478287e-17 0.06164958382177786 -0.9980978553300512
12666664000.0 0.05352570901813576 -0.9985664717353332 1.75628372677894e-17 7.085538093330528e-17 1.75628372677894e-17 7.085538093330528e-17 0.053526331915785416 -0.9985664383462362
12667281333.333334 0.04539891308703336 -0.9989689378005515 1.8141517614892003e-17 7.069473813561216e-17 1.8141517614892003e-17 7.069473813561216e-17 0.04539953620536615 -0.998968909482264
12667898666.666666 0.03726911144179338 -0.999305265337967 1.871874466170459e-17 7.052937382580588e-17 1.871874466170459e-17 7.052937382580588e-17 0.03726973473953517 -0.99930524209187
12668516000.0 0.02913684233046777 -0.9995754320804687 1.9294479923015026e-17 7.035930103236828e-17 1.9294479923015026e-17 7.035930103236828e-17 0.029137465766336506 -0.9995754139076058
12669133333.333334 0.021002644164555936 -0.999779420141235 1.9868685029501847e-17 7.018453309716439e-17 1.9868685029501847e-17 7.018453309716439e-17 0.02100326769726449 -0.9997794070423152
12669750666.666666 0.012867055483159447 -0.9999172160149259 2.0441321730297347e-17 7.000508367441381e-17 2.0441321730297347e-17 7.000508367441381e-17 0.012867679071418303 -0.9999172079903225
12670368000.0 0.004730614917525962 -0.9999888105785727 2.1012351895531766e-17 6.982096672964464e-17 2.1012351895531766e-17 6.982096672964464e-17 0.004731238520045929 -0.9999888076283217
