! Parameters = {f0=12700.012000; bw=77.238000; Q=6100.000000; N=10; m_0_1=1.328423; m_1_1=1.161606; m_1_2=1.163235; m_2_2=1.160957; m_2_3=0.800198; m_2_8=0.003485; m_2_9=0.040189; m_3_3=1.159020; m_3_4=0.688727; m_3_7=0.004085; m_3_8=-0.093003; m_3_9=0.003485; m_4_4=1.156095; m_4_5=0.525062; m_4_6=0.007602; m_4_7=-0.113552; m_4_8=0.004085; m_5_5=1.156477; m_5_6=0.932417; m_5_7=0.007602; m_6_6=1.156476; m_6_7=0.525404; m_7_7=1.156109; m_7_8=0.688845; m_8_8=1.159018; m_8_9=0.800511; m_9_9=1.160952; m_9_10=1.164313; m_10_10=1.161596; m_10_11=1.329218}
!
! Created with skrf (http://scikit-rf.org).
# Hz S RI R 50.0 
!freq ReS11 ImS11 ReS21 ImS21 ReS12 ImS12 ReS22 ImS22
12607400000.0 -0.9996134657391241 -0.027801422856107132 1.3970041363980237e-16 -3.719384307353857e-17 1.3970041363980237e-16 -3.719384307353857e-17 -0.9996134462839634 -0.027802122366902826
12608017333.333334 -0.9998790248541536 -0.01555428097063604 1.392036026484967e-16 -3.890708190582274e-17 1.392036026484967e-16 -3.890708190582274e-17 -0.9998790139698469 -0.015554980633014956
12608634666.666666 -0.9999945391170619 -0.003304804965807517 1.3868579346332041e-16 -4.0613726595478086e-17 1.3868579346332041e-16 -4.0613726595478086e-17 -0.9999945368044026 -0.003305504674766496
12609252000.0 -0.999959991193534 0.00894516696518745 1.3814707312911519e-16 -4.231351993315934e-17 1.3814707312911519e-16 -4.231351993315934e-17 -0.9999599974520302 0.008944467314648251
12609869333.333334 -0.9997753862680365 0.021193796554768184 1.3758753183940404e-16 -4.40062058530433e-17 1.3758753183940404e-16 -4.40062058530433e-17 -0.9997754010959106 0.02119309706762958
12610486666.666666 -0.9994407520430467 0.033439245736649865 1.37007262921442e-16 -4.569152947132754e-17 1.37007262921442e-16 -4.569152947132754e-17 -0.9994407754372344 0.03343854651785787
12611104000.0 -0.9989561387348794 0.045679676922095375 1.3640636282076482e-16 -4.736923712461509e-17 1.3640636282076482e-16 -4.736923712461509e-17 -0.9989561706910318 0.04567897807654546
12611721333.333334 -0.9983216190661709 0.057913253275101294 1.357849310853179e-16 -4.903907640796294e-17 1.357849310853179e-16 -4.903907640796294e-17 -0.9983216595786544 0.05791255490762263
12612338666.666666 -0.9975372882549534 0.07013813898843668 1.3514307034907342e-16 -5.070079621285603e-17 1.3514307034907342e-16 -5.070079621285603e-17 -0.9975373373168515 0.07013744120377649
12612956000.0 -0.9966032640003619 0.08235249955910123 1.3448088631520313e-16 -5.23541467649105e-17 1.3448088631520313e-16 -5.23541467649105e-17 -0.9966033216034761 0.082351802461909
12613573333.333334 -0.995519686464992 0.09455450206336115 1.3379848773880604e-16 -5.399887966132535e-17 1.3379848773880604e-16 -5.399887966132535e-17 -0.995519752599843 0.09455380575817303
12614190666.666666 -0.9942867182538464 0.1067423154320868 1.330959864091415e-16 -5.563474790820216e-17 1.330959864091415e-16 -5.563474790820216e-17 -0.994286792909675 0.1067416200233098
12614808000.0 -0.992904544389945 0.11891411072535824 1.3237349713144562e-16 -5.726150595754042e-17 1.3237349713144562e-16 -5.726150595754042e-17 -0.9929046275547145 0.11891341631725462
12615425333.333334 -0.9913733722865473 0.13106806140706298 1.3163113770827183e-16 -5.887890974405963e-17 1.3163113770827183e-16 -5.887890974405963e-17 -0.9913734639469466 0.13106736810373476
12616042666.666666 -0.9896934317160458 0.1432023436188218 1.3086902892039104e-16 -6.048671672175806e-17 1.3086902892039104e-16 -6.048671672175806e-17 -0.9896935318574888 0.14320165152419495
12616660000.0 -0.987864974775473 0.15531513645379574 1.3008729450724743e-16 -6.208468590022663e-17 1.3008729450724743e-16 -6.208468590022663e-17 -0.9878650833821029 0.15531444567160463
12617277333.333334 -0.9858882758486679 0.16740462222993607 1.292860611469581e-16 -6.367257788073721e-17 1.292860611469581e-16 -6.367257788073721e-17 -0.9858883929033601 0.1674039328637082
12617894666.666666 -0.9837636315651274 0.17946898676261153 1.2846545843591375e-16 -6.525015489199407e-17 1.2846545843591375e-16 -6.525015489199407e-17 -0.9837637570494907 0.17946829891565166
12618512000.0 -0.9814913607554392 0.19150641963715836 1.2762561886786848e-16 -6.681718082577392e-17 1.2762561886786848e-16 -6.681718082577392e-17 -0.9814914946498188 0.19150573341253313
12619129333.333334 -0.9790718044035039 0.20351511448016427 1.267666778126883e-16 -6.837342127211592e-17 1.267666778126883e-16 -6.837342127211592e-17 -0.9790719466869856 0.20351442998068686
12619746666.666666 -0.9765053255953261 0.21549326923079082 1.2588877349459732e-16 -6.991864355438577e-17 1.2588877349459732e-16 -6.991864355438577e-17 -0.9765054762457385 0.21549258655900547
12620364000.0 -0.9737923094644966 0.22743908641130606 1.2499204697002607e-16 -7.145261676400358e-17 1.2499204697002607e-16 -7.145261676400358e-17 -0.973792468458416 0.22743840566947288
12620981333.333334 -0.9709331631344922 0.23935077339640315 1.2407664210505735e-16 -7.297511179485733e-17 1.2407664210505735e-16 -7.297511179485733e-17 -0.9709333304472451 0.23935009468648263
12621598666.666666 -0.9679283156574958 0.2512265426825958 1.2314270555240438e-16 -7.448590137751423e-17 1.2314270555240438e-16 -7.448590137751423e-17 -0.9679284912631617 0.2512258661062334
12622216000.0 -0.9647782179500469 0.2630646121562898 1.221903867280244e-16 -7.59847601130501e-17 1.221903867280244e-16 -7.59847601130501e-17 -0.9647784018214638 0.2630639378148008
12622833333.333334 -0.9614833427253633 0.2748632053612673 1.2121983778728702e-16 -7.747146450664141e-17 1.2121983778728702e-16 -7.747146450664141e-17 -0.9614835348341315 0.27486253335562194
12623450666.666666 -0.9580441844224323 0.28662055176515766 1.2023121360075759e-16 -7.894579300081572e-17 1.2023121360075759e-16 -7.894579300081572e-17 -0.9580443847389213 0.2866198821959662
12624068000.0 -0.9544612591317916 0.29833488702523986 1.1922467172955746e-16 -8.040752600842563e-17 1.1922467172955746e-16 -8.040752600842563e-17 -0.9544614676251385 0.29833421999273635
12624685333.333334 -0.9507351045180285 0.31000445325333814 1.1820037240031898e-16 -8.185644594531603e-17 1.1820037240031898e-16 -8.185644594531603e-17 -0.9507353211561484 0.3100037888573665
12625302666.666666 -0.9468662797392386 0.3216274992791831 1.171584784798077e-16 -8.32923372625832e-17 1.171584784798077e-16 -8.32923372625832e-17 -0.946866504488828 0.32162683761918204
12625920000.0 -0.9428553653629527 0.3332022809137122 1.1609915544903657e-16 -8.471498647867966e-17 1.1609915544903657e-16 -8.471498647867966e-17 -0.9428555981894928 0.3332016220887
12626537333.333334 -0.9387029632791443 0.34472706121040236 1.1502257137711815e-16 -8.612418221101071e-17 1.1502257137711815e-16 -8.612418221101071e-17 -0.9387032041469091 0.34472640531896237
12627154666.666666 -0.934409696609861 0.3562001107260843 1.1392889689464977e-16 -8.75197152073202e-17 1.1392889689464977e-16 -8.75197152073202e-17 -0.9344099454819205 0.3561994578663499
12627772000.0 -0.9299762096156513 0.3676197077806269 1.128183051667313e-16 -8.890137837671823e-17 1.128183051667313e-16 -8.890137837671823e-17 -0.9299764664538784 0.367619058050267
12628389333.333334 -0.9254031675990388 0.3789841387148991 1.1169097186565892e-16 -9.026896682030416e-17 1.1169097186565892e-16 -9.026896682030416e-17 -0.9254034323641145 0.37898349221110345
12629006666.666666 -0.9206912568044855 0.390291698148429 1.1054707514316148e-16 -9.162227786155261e-17 1.1054707514316148e-16 -9.162227786155261e-17 -0.920691529455906 0.390291054967894
12629624000.0 -0.9158411843155955 0.4015406892348716 1.093867956023631e-16 -9.296111107623543e-17 1.093867956023631e-16 -9.296111107623543e-17 -0.9158414648116767 0.40154004947378513
12630241333.333334 -0.9108536779488952 0.412729423916903 1.0821031626931346e-16 -9.428526832207392e-17 1.0821031626931346e-16 -9.428526832207392e-17 -0.9108539662467807 0.41272878767093074
12630858666.666666 -0.9057294861446987 0.4238562231793554 1.0701782256420592e-16 -9.559455376797996e-17 1.0701782256420592e-16 -9.559455376797996e-17 -0.9057297822003654 0.42385559054362626
12631476000.0 -0.9004693778546645 0.4349194173014592 1.0580950227219307e-16 -9.688877392298837e-17 1.0580950227219307e-16 -9.688877392298837e-17 -0.9004696816229293 0.43491878837055087
12632093333.333334 -0.8950741424265565 0.44591734610706985 1.0458554551392005e-16 -9.816773766474939e-17 1.0458554551392005e-16 -9.816773766474939e-17 -0.8950744538610831 0.4459167209749946
12632710666.666666 -0.8895445894857247 0.4568483592139551 1.0334614471566449e-16 -9.943125626770426e-17 1.0334614471566449e-16 -9.943125626770426e-17 -0.889544908539031 0.4568477379741463
12633328000.0 -0.8838815488135412 0.46771081628158134 1.0209149457912538e-16 -1.00679143430896e-16 1.0209149457912538e-16 -1.00679143430896e-16 -0.8838818754370086 0.4677101990268799
12633945333.333334 -0.878085870223016 0.4785030872570174 1.0082179205094544e-16 -1.0191121530532997e-16 1.0082179205094544e-16 -1.0191121530532997e-16 -0.8780862043668921 0.478502474079656
12634562666.666666 -0.8721584234311452 0.4892235526197683 9.953723629183598e-17 -1.0312729052102115e-16 9.953723629183598e-17 -1.0312729052102115e-16 -0.8721587650445551 0.4892229436113593
12635180000.0 -0.8661000979284981 0.4998706036246322 9.823802864540819e-17 -1.0432719021362165e-16 9.823802864540819e-17 -1.0432719021362165e-16 -0.8661004469594512 0.49986999887615374
12635797333.333334 -0.8599118028456664 0.5104426425432376 9.692437260667512e-17 -1.0551073805066441e-16 9.692437260667512e-17 -1.0551073805066441e-16 -0.8599121592410641 0.5104420421450193
12636414666.666666 -0.8535944668169106 0.5209380829036807 9.559647379025487e-17 -1.0667776025739879e-16 9.559647379025487e-17 -1.0667776025739879e-16 -0.8535948305225541 0.5209374869453907
12637032000.0 -0.8471490378407179 0.5313553497287419 9.425453989823504e-17 -1.0782808564225014e-16 9.425453989823504e-17 -1.0782808564225014e-16 -0.8471494088013172 0.5313547582993735
12637649333.333334 -0.8405764831376024 0.5416928797721352 9.289878068774847e-17 -1.0896154562186385e-16 9.289878068774847e-17 -1.0896154562186385e-16 -0.8405768612967836 0.5416922929599931
12638266666.666666 -0.8338777890049427 0.5519491217531156 9.152940793826324e-17 -1.100779742457284e-16 9.152940793826324e-17 -1.100779742457284e-16 -0.8338781743052586 0.5519485396458039
12638884000.0 -0.8270539606689975 0.5621225365892496 9.014663541855102e-17 -1.1117720822041324e-16 9.014663541855102e-17 -1.1117720822041324e-16 -0.8270543530519339 0.562121959273657
12639501333.333334 -0.8201060221339551 0.5722115976275104 8.875067885337687e-17 -1.1225908693338085e-16 8.875067885337687e-17 -1.1225908693338085e-16 -0.8201064215399412 0.5722110251897987
12640118666.666666 -0.813035016028548 0.5822147908729783 8.734175588992826e-17 -1.1332345247636583e-16 8.734175588992826e-17 -1.1332345247636583e-16 -0.8130354223969644 0.5822142233985683
12640736000.0 -0.8058420034491021 0.5921306152167324 8.592008606387281e-17 -1.143701496684009e-16 8.592008606387281e-17 -1.143701496684009e-16 -0.8058424167182903 0.5921300527902916
12641353333.333334 -0.7985280638008779 0.6019575826602978 8.448589076532464e-17 -1.1539902607828262e-16 8.448589076532464e-17 -1.1539902607828262e-16 -0.7985284839081516 0.6019570253657293
12641970666.666666 -0.7910942946356676 0.6116942185395446 8.30393932043138e-17 -1.164099320467807e-16 8.30393932043138e-17 -1.164099320467807e-16 -0.7910947215173189 0.6116936664599721
12642588000.0 -0.7835418114872704 0.6213390617457234 8.158081837617429e-17 -1.1740272070827948e-16 8.158081837617429e-17 -1.1740272070827948e-16 -0.7835422450785822 0.6213385149634804
12643205333.333334 -0.7758717477040977 0.6308906649447257 8.011039302659007e-17 -1.183772480120511e-16 8.011039302659007e-17 -1.183772480120511e-16 -0.7758721879393522 0.630890123541343
12643822666.666666 -0.768085254278955 0.6403475947944536 7.862834561638061e-17 -1.1933337274309409e-16 7.862834561638061e-17 -1.1933337274309409e-16 -0.7680857010914435 0.6403470588506465
12644440000.0 -0.760183499676517 0.6497084321596662 7.713490628609924e-17 -1.2027095654249144e-16 7.713490628609924e-17 -1.2027095654249144e-16 -0.7601839529985509 0.6497079017553234
12645057333.333334 -0.7521676696578956 0.6589717723250514 7.563030682033702e-17 -1.2118986392736372e-16 7.563030682033702e-17 -1.2118986392736372e-16 -0.7521681294208159 0.6589712475392222
12645674666.666666 -0.7440389671027211 0.6681362252060012 7.41147806118098e-17 -1.2208996231036224e-16 7.41147806118098e-17 -1.2208996231036224e-16 -0.7440394332369087 0.6681357061168842
12646292000.0 -0.7357986118285004 0.6772004155573589 7.25885626251871e-17 -1.2297112201873092e-16 7.25885626251871e-17 -1.2297112201873092e-16 -0.735799084263388 0.6771999022422908
12646909333.333334 -0.7274478404078144 0.6861629831795178 7.105188936076526e-17 -1.2383321631287554e-16 7.105188936076526e-17 -1.2383321631287554e-16 -0.7274483190718946 0.68616247571496
12647526666.666666 -0.7189879059825831 0.6950225831227269 6.950499881784507e-17 -1.246761214045256e-16 6.950499881784507e-17 -1.246761214045256e-16 -0.7189883908034221 0.6950220815842568
12648144000.0 -0.710420078075956 0.7037778858889794 6.794813045791546e-17 -1.2549971647442626e-16 6.794813045791546e-17 -1.2549971647442626e-16 -0.7104205689802024 0.703777390351277
12648761333.333334 -0.7017456424019958 0.7124275776313118 6.638152516767552e-17 -1.263038836895462e-16 6.638152516767552e-17 -1.263038836895462e-16 -0.7017461393153933 0.7124270881681498
12649378666.666666 -0.6929659006726687 0.7209703603510521 6.480542522180513e-17 -1.2708850821985353e-16 6.480542522180513e-17 -1.2708850821985353e-16 -0.6929664035200662 0.7209698770352846
12649996000.0 -0.6840821704024213 0.7294049520926781 6.32200742455378e-17 -1.2785347825462578e-16 6.32200742455378e-17 -1.2785347825462578e-16 -0.6840826791077842 0.7294044749962291
12650613333.333334 -0.6750957847105293 0.737730087136131 6.1625717177068e-17 -1.285986850182817e-16 6.1625717177068e-17 -1.285986850182817e-16 -0.6750962991969522 0.7377296163299848
12651230666.666666 -0.6660080921211333 0.7459445161866779 6.002260022977776e-17 -1.2932402278574451e-16 6.002260022977776e-17 -1.2932402278574451e-16 -0.6660086123108507 0.7459440517408683
12651848000.0 -0.6568204563606618 0.7540470065625752 5.841097085423554e-17 -1.3002938889735592e-16 5.841097085423554e-17 -1.3002938889735592e-16 -0.6568209821750599 0.7540465485461744
12652465333.333334 -0.6475342561533779 0.7620363423798766 5.679107770007348e-17 -1.3071468377329484e-16 5.679107770007348e-17 -1.3071468377329484e-16 -0.6475347875130059 0.7620358908609847
12653082666.666666 -0.6381508850145053 0.7699113247348759 5.5163170577701147e-17 -1.3137981092752087e-16 5.5163170577701147e-17 -1.3137981092752087e-16 -0.6381514218390895 0.7699108797806127
12653700000.0 -0.6286717510408127 0.7776707718842772 5.3527500419782585e-17 -1.3202467698127228e-16 5.3527500419782585e-17 -1.3202467698127228e-16 -0.6286722932492652 0.7776703335607691
12654317333.333334 -0.6190982766997408 0.7853135194221604 5.188431924266672e-17 -1.326491916760423e-16 5.188431924266672e-17 -1.326491916760423e-16 -0.6190988242101759 0.7853130877945342
12654934666.666666 -0.6094318986156427 0.7928384204549763 5.0233880107577186e-17 -1.332532678861107e-16 5.0233880107577186e-17 -1.332532678861107e-16 -0.6094324513453857 0.7928379955873469
12655552000.0 -0.599674067354215 0.8002443457736268 4.857643708167729e-17 -1.3383682163058636e-16 4.857643708167729e-17 -1.3383682163058636e-16 -0.5996746252198171 0.8002439277290891
12656169333.333334 -0.589826247205027 0.8075301840227659 4.691224519906924e-17 -1.3439977208494014e-16 4.691224519906924e-17 -1.3439977208494014e-16 -0.589826810122276 0.8075297728633841
12656786666.666666 -0.5798899159615584 0.8146948418677425 4.5241560421551046e-17 -1.3494204159209294e-16 4.5241560421551046e-17 -1.3494204159209294e-16 -0.5798904838454922 0.8146944376545412
12657404000.0 -0.5698665646995716 0.8217372441585674 4.356463959932413e-17 -1.3546355567299083e-16 4.356463959932413e-17 -1.3546355567299083e-16 -0.5698671374644926 0.8217368469515247
12658021333.333334 -0.5597576975531986 0.8286563340913707 4.188174043154988e-17 -1.3596424303670156e-16 4.188174043154988e-17 -1.3596424303670156e-16 -0.5597582751126837 0.8286559439494061
12658638666.666666 -0.5495648314895962 0.8354510733667291 4.019312142682017e-17 -1.3644403559001596e-16 4.019312142682017e-17 -1.3644403559001596e-16 -0.5495654137565117 0.8354506903476965
12659256000.0 -0.5392894960807431 0.8421204423458595 3.849904186346521e-17 -1.3690286844657263e-16 3.849904186346521e-17 -1.3690286844657263e-16 -0.5392900829672573 0.8421200665065386
12659873333.333334 -0.5289332332743786 0.8486634402033116 3.6799761749814407e-17 -1.3734067993547653e-16 3.6799761749814407e-17 -1.3734067993547653e-16 -0.5289338246919758 0.848663071599399
12660490666.666666 -0.5184975971624971 0.8550790850772373 3.509554178436569e-17 -1.3775741160942452e-16 3.509554178436569e-17 -1.3775741160942452e-16 -0.5184981930219896 0.8550787237633385
12661108000.0 -0.5079841537479194 0.8613664142168649 3.3386643315787e-17 -1.38153008252357e-16 3.3386643315787e-17 -1.38153008252357e-16 -0.5079847539594619 0.8613660602464862
12661725333.333334 -0.4973944807096297 0.8675244841267634 3.167332830294814e-17 -1.385274178865864e-16 3.167332830294814e-17 -1.385274178865864e-16 -0.497395085182733 0.8675241375523045
12662342666.666666 -0.4867301671657859 0.8735523707085766 2.995585927477324e-17 -1.3888059177945479e-16 2.995585927477324e-17 -1.3888059177945479e-16 -0.48673077580933005 0.8735520315813223
12662960000.0 -0.4759928134352715 0.8794491693996778 2.823449929008909e-17 -1.392124844494801e-16 2.823449929008909e-17 -1.392124844494801e-16 -0.47599342615751955 0.8794488377697899
12663577333.333334 -0.465184030797672 0.8852139953088399 2.6509511897364928e-17 -1.3952305367201387e-16 2.6509511897364928e-17 -1.3952305367201387e-16 -0.46518464750628374 0.8852136712253504
12664194666.666666 -0.4543054412513823 0.8908459833490835 2.4781161094437014e-17 -1.3981226048439206e-16 2.4781161094437014e-17 -1.3981226048439206e-16 -0.45430606185342853 0.8908456668598873
12664812000.0 -0.4433586772702299 0.8963442883674788 2.3049711288141082e-17 -1.400800691905971e-16 2.3049711288141082e-17 -1.400800691905971e-16 -0.443359301672206 0.8963439795193262
12665429333.333334 -0.4323453815584739 0.9017080852719833 2.1315427253913862e-17 -1.40326447365416e-16 2.1315427253913862e-17 -1.40326447365416e-16 -0.4323460096663151 0.9017077841104751
12666046666.666666 -0.4212672068044272 0.9069365691552003 1.957857409537846e-17 -1.4055136585809677e-16 1.957857409537846e-17 -1.4055136585809677e-16 -0.4212678385235205 0.9069362757247774
12666664000.0 -0.4101258154321628 0.912028955415294 1.783941720380745e-17 -1.407547987955168e-16 1.783941720380745e-17 -1.407547987955168e-16 -0.4101264506673637 0.9120286697592346
12667281333.333334 -0.39892287935240855 0.9169844798735651 1.6098222217722095e-17 -1.4093672358483003e-16 1.6098222217722095e-17 -1.4093672358483003e-16 -0.3989235180080535 0.9169842020339752
12667898666.666666 -0.38766007971142247 0.9218023988892314 1.4355254982273594e-17 -1.410971209156385e-16 1.4355254982273594e-17 -1.410971209156385e-16 -0.3876607216913446 0.921802128907042
12668516000.0 -0.37633910663860914 0.9264819894710645 1.2610781508748743e-17 -1.4123597476164626e-16 1.2610781508748743e-17 -1.4123597476164626e-16 -0.37633975184615165 0.9264817273860216
12669133333.333334 -0.3649616589932865 0.9310225493857156 1.0865067934038233e-17 -1.4135327238181724e-16 1.0865067934038233e-17 -1.4135327238181724e-16 -0.3649623073313174 0.9310222952363764
12669750666.666666 -0.35352944410938286 0.9354233972632507 9.118380480049398e-18 -1.4144900432103747e-16 9.118380480049398e-18 -1.4144900432103747e-16 -0.35353009548031045 0.9354231510869785
12670368000.0 -0.3420441775393599 0.9396838726993411 7.370985413173962e-18 -1.415231644102713e-16 7.370985413173962e-18 -1.415231644102713e-16 -0.3420448318451472 0.9396836345323006
