! Parameters = {f0=12700.012000; bw=77.238000; Q=6100.000000; N=10; m_0_1=1.280375; m_1_1=0.440885; m_1_2=1.115187; m_2_2=0.440236; m_2_3=0.752150; m_2_8=0.001082; m_2_9=0.037786; m_3_3=0.438299; m_3_4=0.640679; m_3_7=0.001682; m_3_8=-0.095406; m_3_9=0.001082; m_4_4=0.435374; m_4_5=0.477014; m_4_6=0.005199; m_4_7=-0.115955; m_4_8=0.001682; m_5_5=0.435756; m_5_6=0.884369; m_5_7=0.005199; m_6_6=0.435755; m_6_7=0.477356; m_7_7=0.435388; m_7_8=0.640797; m_8_8=0.438297; m_8_9=0.752463; m_9_9=0.440231; m_9_10=1.116265; m_10_10=0.440875; m_10_11=1.281170}
!
! Created with skrf (http://scikit-rf.org).
# Hz S RI R 50.0 
!freq ReS11 ImS11 ReS21 ImS21 ReS12 ImS12 ReS22 ImS22
12607400000.0 0.7101631195743751 0.7040371748680696 -1.0228790695489906e-16 -5.496152262414074e-17 -1.0228790695489906e-16 -5.496152262414074e-17 0.7101626446597455 0.7040376539146871
12608017333.333334 0.717745816953946 0.6963052076818992 -1.0286174092269368e-16 -5.38309093235628e-17 -1.0286174092269368e-16 -5.38309093235628e-17 0.7177453472779779 0.6963056918197893
12608634666.666666 0.7252443366600768 0.6884915773938742 -1.0342308753586905e-16 -5.2694321334245807e-17 -1.0342308753586905e-16 -5.2694321334245807e-17 0.7252438722773381 0.688492066565761
12609252000.0 0.7326577992618378 0.680597200391407 -1.0397188477463352e-16 -5.155189647228466e-17 -1.0397188477463352e-16 -5.155189647228466e-17 0.7326573402262706 0.6805976945394299
12609869333.333334 0.7399853353038491 0.6726230025319312 -1.0450807213907567e-16 -5.04037731954148e-17 -1.0450807213907567e-16 -5.04037731954148e-17 0.7399848816687635 0.6726235015976519
12610486666.666666 0.7472260854081758 0.6645699190344039 -1.050315906557647e-16 -4.9250090586292945e-17 -1.050315906557647e-16 -4.9250090586292945e-17 0.7472256372262428 0.6645704229588131
12611104000.0 0.7543792003753251 0.656438894369389 -1.0554238288421023e-16 -4.8090988335613785e-17 -1.0554238288421023e-16 -4.8090988335613785e-17 0.7543787576985717 0.6564394030929136
12611721333.333334 0.7614438412835755 0.6482308821485857 -1.0604039292306759e-16 -4.69266067253104e-17 -1.0604039292306759e-16 -4.69266067253104e-17 0.7614434041633772 0.6482313956110952
12612338666.666666 0.7684191795875558 0.6399468450127774 -1.0652556641622545e-16 -4.575708661154445e-17 -1.0652556641622545e-16 -4.575708661154445e-17 0.7684187480746324 0.6399473631535919
12612956000.0 0.7753043972154331 0.6315877545189069 -1.0699785055867044e-16 -4.458256940771201e-17 -1.0699785055867044e-16 -4.458256940771201e-17 0.7753039713598407 0.6315882772768032
12613573333.333334 0.7820986866646187 0.6231545910264157 -1.0745719410216176e-16 -4.340319706739941e-17 -1.0745719410216176e-16 -4.340319706739941e-17 0.7820982665157462 0.6231551183396357
12614190666.666666 0.7888012510967662 0.6146483435819194 -1.0790354736074118e-16 -4.2219112067226487e-17 -1.0790354736074118e-16 -4.2219112067226487e-17 0.788800836703328 0.6146488753881767
12614808000.0 0.7954113044310597 0.6060700098034058 -1.0833686221603579e-16 -4.103045738968006e-17 -1.0833686221603579e-16 -4.103045738968006e-17 0.7954108958410905 0.6060705460398932
12615425333.333334 0.8019280714364432 0.5974205957631924 -1.0875709212237872e-16 -3.9837376505875245e-17 -1.0875709212237872e-16 -3.9837376505875245e-17 0.801927668697292 0.597421136366589
12616042666.666666 0.8083507878225386 0.5887011158699305 -1.0916419211174048e-16 -3.864001335826876e-17 -1.0916419211174048e-16 -3.864001335826876e-17 0.8083503909808646 0.5887016607764103
12616660000.0 0.8146787003292846 0.5799125927496386 -1.0955811879847027e-16 -3.7438512343319425e-17 -1.0955811879847027e-16 -3.7438512343319425e-17 0.8146783094310501 0.5799131418948764
12617277333.333334 0.8209110668153097 0.5710560571257183 -1.0993883038384328e-16 -3.623301829411389e-17 -1.0993883038384328e-16 -3.623301829411389e-17 0.820910681905775 0.571056610444898
12617894666.666666 0.8270471563448248 0.5621325476982805 -1.1030628666042202e-16 -3.5023676462934966e-17 -1.1030628666042202e-16 -3.5023676462934966e-17 0.8270467774685452 0.562133105126104
12618512000.0 0.8330862492736265 0.5531431110219326 -1.106604490162303e-16 -3.3810632503767364e-17 -1.106604490162303e-16 -3.3810632503767364e-17 0.8330858764744437 0.5531436724926251
12619129333.333334 0.8390276373332028 0.5440888013834543 -1.1100128043871813e-16 -3.2594032454825915e-17 -1.1100128043871813e-16 -3.2594032454825915e-17 0.8390272706542427 0.5440893668307741
12619746666.666666 0.8448706237139798 0.5349706806778965 -1.1132874551855558e-16 -3.1374022720972175e-17 -1.1132874551855558e-16 -3.1374022720972175e-17 0.8448702631976454 0.5349712500351419
12620364000.0 0.850614523147037 0.5257898182840364 -1.1164281045322378e-16 -3.0150750056125445e-17 -1.1164281045322378e-16 -3.0150750056125445e-17 0.850614168835005 0.5257903914840532
12620981333.333334 0.8562586619843574 0.5165472909391536 -1.11943443050407e-16 -2.8924361545668223e-17 -1.11943443050407e-16 -2.8924361545668223e-17 0.8562583139175731 0.5165478679143444
12621598666.666666 0.861802378277925 0.5072441826126073 -1.1223061273120699e-16 -2.7695004588758347e-17 -1.1223061273120699e-16 -2.7695004588758347e-17 0.8618020364965977 0.5072447632949382
12622216000.0 0.8672450218573728 0.497881584378681 -1.1250429053315198e-16 -2.6462826880655266e-17 -1.1250429053315198e-16 -2.6462826880655266e-17 0.8672446864009687 0.49788216869968943
12622833333.333334 0.8725859544062011 0.4884605942886685 -1.1276444911301354e-16 -2.522797639501152e-17 -1.1276444911301354e-16 -2.522797639501152e-17 0.8725856253134433 0.48846118217947293
12623450666.666666 0.8778245495366039 0.4789823172421708 -1.1301106274943382e-16 -2.3990601366125544e-17 -1.1301106274943382e-16 -2.3990601366125544e-17 0.877824226845463 0.47898290863347653
12624068000.0 0.8829601928629977 0.4694478648573864 -1.1324410734535577e-16 -2.2750850271173085e-17 -1.1324410734535577e-16 -2.2750850271173085e-17 0.8829598766106924 0.46944845967949644
12624685333.333334 0.8879922820740913 0.45985835534071606 -1.1346356043026037e-16 -2.150887181241359e-17 -1.1346356043026037e-16 -2.150887181241359e-17 0.8879919722970799 0.45985895352353706
12625302666.666666 0.8929202270033912 0.450214913355869 -1.1366940116220236e-16 -2.026481489941557e-17 -1.1366940116220236e-16 -2.026481489941557e-17 0.8929199237373702 0.45021551482892064
12625920000.0 0.8977434496986277 0.440518669891559 -1.1386161032966507e-16 -1.9018828631183293e-17 -1.1386161032966507e-16 -1.9018828631183293e-17 0.8977431529785249 0.44051927458398144
12626537333.333334 0.9024613844893032 0.4307707621293163 -1.1404017035320482e-16 -1.7771062278358568e-17 -1.1404017035320482e-16 -1.7771062278358568e-17 0.9024610943492763 0.43077136996987947
12627154666.666666 0.9070734780531899 0.4209723333098144 -1.1420506528690872e-16 -1.652166526536043e-17 -1.1420506528690872e-16 -1.652166526536043e-17 0.9070731945266234 0.4209729442269268
12627772000.0 0.9115791894812482 0.41112453259873877 -1.1435628081966164e-16 -1.5270787152481053e-17 -1.1435628081966164e-16 -1.5270787152481053e-17 0.9115789126007444 0.41112514652045384
12628389333.333334 0.9159779903409021 0.4012285149523443 -1.1449380427620387e-16 -1.401857761806988e-17 -1.1449380427620387e-16 -1.401857761806988e-17 0.9159777201382833 0.40122913180637093
12629006666.666666 0.9202693647381968 0.391285440981615 -1.1461762461800842e-16 -1.276518644060007e-17 -1.1461762461800842e-16 -1.276518644060007e-17 0.9202691012444978 0.391286060695325
12629624000.0 0.9244528093781738 0.3812964768164328 -1.1472773244395265e-16 -1.1510763480818088e-17 -1.1472773244395265e-16 -1.1510763480818088e-17 0.9244525526236392 0.38129709931686945
12630241333.333334 0.9285278336239737 0.3712627939686284 -1.1482411999079957e-16 -1.0255458663834818e-17 -1.1482411999079957e-16 -1.0255458663834818e-17 0.928527583638057 0.37126341918251604
12630858666.666666 0.932493959554277 0.36118556919485134 -1.1490678113348173e-16 -8.999421961255414e-18 -1.1490678113348173e-16 -8.999421961255414e-18 0.932493716365633 0.3611861970486028
12631476000.0 0.9363507220195294 0.3510659843581092 -1.1497571138519272e-16 -7.742803373254909e-18 -1.1497571138519272e-16 -7.742803373254909e-18 0.9363504856560139 0.3510666147778349
12632093333.333334 0.940097668696319 0.34090522628960723 -1.1503090789727864e-16 -6.48575291073262e-18 -1.1503090789727864e-16 -6.48575291073262e-18 0.9400974391849841 0.34090585920112393
12632710666.666666 0.9437343601404987 0.33070448664937185 -1.1507236945893838e-16 -5.2284205774265606e-18 -1.1507236945893838e-16 -5.2284205774265606e-18 0.9437341375075917 0.3307051219782118
12633328000.0 0.9472603698387728 0.320464961786358 -1.1510009649672847e-16 -3.9709563520061516e-18 -1.1510009649672847e-16 -3.9709563520061516e-18 0.9472601541097299 0.32046559945777653
12633945333.333334 0.9506752842586385 0.3101878525983535 -1.1511409107387129e-16 -2.7135101702535232e-18 -1.1511409107387129e-16 -2.7135101702535232e-18 0.9506750754580844 0.3101884925373388
12634562666.666666 0.9539787028968978 0.29987436439111165 -1.151143568893695e-16 -1.4562319071946429e-18 -1.151143568893695e-16 -1.4562319071946429e-18 0.9539785010486432 0.2998750065223935
12635180000.0 0.9571702383266757 0.28952570673685696 -1.1510089927692627e-16 -1.9927135926763722e-19 -1.1510089927692627e-16 -1.9927135926763722e-19 0.957170043453712 0.28952635098491514
12635797333.333334 0.9602495162428253 0.27914309333250653 -1.1507372520367078e-16 1.0572217734991273e-18 -1.1507372520367078e-16 1.0572217734991273e-18 0.960249328367326 0.2791437396215803
12636414666.666666 0.9632161755058101 0.26872774185740966 -1.1503284326868995e-16 2.3130979052741636e-18 -1.1503284326868995e-16 2.3130979052741636e-18 0.9632159946491232 0.2687283901115058
12637032000.0 0.9660698681840981 0.2582808738303722 -1.149782637013655e-16 3.568207582222118e-18 -1.149782637013655e-16 3.568207582222118e-18 0.9660696943667489 0.2582815239732751
12637649333.333334 0.9688102595949439 0.24780371446650742 -1.1490999835951846e-16 4.822401500247652e-18 -1.1490999835951846e-16 4.822401500247652e-18 0.9688100928366293 0.2478043664217872
12638266666.666666 0.9714370283436499 0.23729749253348578 -1.1482806072735967e-16 6.0755305227341565e-18 -1.1482806072735967e-16 6.0755305227341565e-18 0.9714368686632365 0.23729814622450726
12638884000.0 0.9739498663612339 0.2267634402075348 -1.147324659132481e-16 7.327445698236003e-18 -1.147324659132481e-16 7.327445698236003e-18 0.9739497137767564 0.22676409555746682
12639501333.333334 0.9763484789406063 0.21620279292873562 -1.146232306472548e-16 8.5779982781777e-18 -1.146232306472548e-16 8.5779982781777e-18 0.9763483334692663 0.21620344986056012
12640118666.666666 0.9786325847710705 0.20561678925640667 -1.1450037327853843e-16 9.827039734466583e-18 -1.1450037327853843e-16 9.827039734466583e-18 0.9786324464292341 0.20561744769292772
12640736000.0 0.9808019159714196 0.19500667072337316 -1.143639137725209e-16 1.1074421777160171e-17 -1.143639137725209e-16 1.1074421777160171e-17 0.9808017847746131 0.1950073305872254
12641353333.333334 0.9828562181212053 0.18437368169102494 -1.1421387370788486e-16 1.2319996371965005e-17 -1.1421387370788486e-16 1.2319996371965005e-17 0.9828560940841174 0.18437434290468369
12641970666.666666 0.9847952502907112 0.17371906920276664 -1.1405027627336534e-16 1.3563615757844396e-17 -1.1405027627336534e-16 1.3563615757844396e-17 0.9847951334271902 0.17371973168855642
12642588000.0 0.9866187850691308 0.16304408283815347 -1.1387314626436108e-16 1.480513246448607e-17 -1.1387314626436108e-16 1.480513246448607e-17 0.9866186753921795 0.16304474651825687
12643205333.333334 0.9883266085912683 0.1523499745661432 -1.1368251007935198e-16 1.6044399329764008e-17 -1.1368251007935198e-16 1.6044399329764008e-17 0.9883265061130484 0.15235063936261076
12643822666.666666 0.9899185205626266 0.14163799859826537 -1.1347839571612595e-16 1.7281269517166512e-17 -1.1347839571612595e-16 1.7281269517166512e-17 0.9899184252944536 0.14163866443302414
12644440000.0 0.9913943342828774 0.13090941124163843 -1.132608327678196e-16 1.8515596533152764e-17 -1.132608327678196e-16 1.8515596533152764e-17 0.9913942462352197 0.13091007803650137
12645057333.333334 0.992753876667761 0.12016547075160115 -1.1302985241877083e-16 1.9747234244465037e-17 -1.1302985241877083e-16 1.9747234244465037e-17 0.9927537958502388 0.12016613842827611
12645674666.666666 0.9939969882693914 0.10940743718414427 -1.1278548744017896e-16 2.0976036895420296e-17 -1.1278548744017896e-16 2.0976036895420296e-17 0.9939969146907766 0.10940810566424347
12646292000.0 0.9951235232949752 0.09863657224790374 -1.1252777218557699e-16 2.2201859125140018e-17 -1.1252777218557699e-16 2.2201859125140018e-17 0.995123456963192 0.09863724145295302
12646909333.333334 0.9961333496238661 0.08785413915666794 -1.1225674258612886e-16 2.3424555984678655e-17 -1.1225674258612886e-16 2.3424555984678655e-17 0.9961332905459837 0.08785480900811535
12647526666.666666 0.9970263488230979 0.07706140248077388 -1.1197243614572511e-16 2.4643982954166448e-17 -1.1197243614572511e-16 2.4643982954166448e-17 0.9970262970053382 0.0770620728999997
12648144000.0 0.9978024161612679 0.0662596279989398 -1.116748919359002e-16 2.5859995959859212e-17 -1.116748919359002e-16 2.5859995959859212e-17 0.9978023716089983 0.06626029890726519
12648761333.333334 0.998461460620805 0.05545008254989815 -1.1136415059056804e-16 2.7072451391119035e-17 -1.1136415059056804e-16 2.7072451391119035e-17 0.9984614233385414 0.055450753868594715
12649378666.666666 0.9990034049086516 0.044634033883820624 -1.110402543005698e-16 2.828120611734894e-17 -1.110402543005698e-16 2.828120611734894e-17 0.9990033749000572 0.04463470553411948
12649996000.0 0.999428185465336 0.03381275051349353 -1.107032468080374e-16 2.9486117504863736e-17 -1.107032468080374e-16 2.9486117504863736e-17 0.9994281627332195 0.033813422416594595
12650613333.333334 0.999735752472419 0.0229875015656025 -1.1035317340057376e-16 3.0687043433701334e-17 -1.1035317340057376e-16 3.0687043433701334e-17 0.9997357370187361 0.022988173642683723
12651230666.666666 0.9999260698583331 0.012159556632115908 -1.0999008090525978e-16 3.1883842314331816e-17 -1.0999008090525978e-16 3.1883842314331816e-17 0.9999260616841864 0.012160228804342567
12651848000.0 0.999999115302627 0.0013301856209317945 -1.0961401768246403e-16 3.3076373104356274e-17 -1.0961401768246403e-16 3.3076373104356274e-17 0.9999991144082642 0.0013308578094656744
12652465333.333334 0.9999548802385675 -0.00949934139268845 -1.0922503361948946e-16 3.4264495325071256e-17 -1.0922503361948946e-16 3.4264495325071256e-17 0.9999548866233832 -0.00949866926667977
12653082666.666666 0.9997933698541548 -0.020327754315103586 -1.0882318012403428e-16 3.544806907798829e-17 -1.0882318012403428e-16 3.544806907798829e-17 0.999793383516691 -0.02032708233043752
12653700000.0 0.9995146030915086 -0.031153783183534154 -1.0840851011746166e-16 3.662695506130789e-17 -1.0840851011746166e-16 3.662695506130789e-17 0.9995146240294518 -0.031153111419003815
12654317333.333334 0.9991186126446496 -0.04197615831460652 -1.0798107802791864e-16 3.780101458624277e-17 -1.0798107802791864e-16 3.780101458624277e-17 0.9991186408548351 -0.04197548684897157
12654934666.666666 0.9986054449556646 -0.052793610453546476 -1.0754093978325135e-16 3.897010959333501e-17 -1.0754093978325135e-16 3.897010959333501e-17 0.9986054804340747 -0.05279293936552382
12655552000.0 0.9979751602092521 -0.06360487092306634 -1.0708815280375432e-16 4.013410266866421e-17 -1.0708815280375432e-16 4.013410266866421e-17 0.9979752029510168 -0.06360420029132088
12656169333.333334 0.9972278323256836 -0.0744086717717872 -1.0662277599476116e-16 4.129285705993016e-17 -1.0662277599476116e-16 4.129285705993016e-17 0.9972278823250811 -0.07440800167492267
12656786666.666666 0.9963635489521095 -0.08520374592339923 -1.0614486973902795e-16 4.2446236692538356e-17 -1.0614486973902795e-16 4.2446236692538356e-17 0.9963636062025697 -0.0852030764399491
12657404000.0 0.9953824114522977 -0.09598882732500982 -1.0565449588897156e-16 4.359410618552247e-17 -1.0565449588897156e-16 4.359410618552247e-17 0.9953824759463987 -0.09598815853342783
12658021333.333334 0.9942845348947341 -0.10676265109571195 -1.0515171775872289e-16 4.473633086741452e-17 -1.0515171775872289e-16 4.473633086741452e-17 0.9942846066242053 -0.10676198307436298
12658638666.666666 0.993070048039144 -0.11752395367478864 -1.0463660011601886e-16 4.587277679200041e-17 -1.0463660011601886e-16 4.587277679200041e-17 0.9930701269948684 -0.11752328650193983
12659256000.0 0.9917390933213636 -0.12827147297018737 -1.041092091739045e-16 4.7003310754027354e-17 -1.041092091739045e-16 4.7003310754027354e-17 0.9917391794933765 -0.12827080672399852
12659873333.333334 0.9902918268366533 -0.139003948506312 -1.0356961258228985e-16 4.812780030476346e-17 -1.0356961258228985e-16 4.812780030476346e-17 0.9902919202141462 -0.13900328326482683
12660490666.666666 0.9887284183214143 -0.1497201215717406 -1.0301787941933568e-16 4.924611376747038e-17 -1.0301787941933568e-16 4.924611376747038e-17 0.9887285188927321 -0.14971945741287704
12661108000.0 0.9870490511332141 -0.1604187353672975 -1.0245408018263618e-16 5.035812025285408e-17 -1.0245408018263618e-16 5.035812025285408e-17 0.987049158885862 -0.16041807236883934
12661725333.333334 0.9852539222293607 -0.17109853515294624 -1.0187828678030407e-16 5.1463689674272223e-17 -1.0187828678030407e-16 5.1463689674272223e-17 0.9852540371500008 -0.17109787339253318
12662342666.666666 0.983343242143744 -0.18175826839528167 -1.0129057252182116e-16 5.25626927629862e-17 -1.0129057252182116e-16 5.25626927629862e-17 0.9833433642182013 -0.18175760795040113
12662960000.0 0.9813172349621776 -0.19239668491428966 -1.0069101210877049e-16 5.36550010832163e-17 -1.0069101210877049e-16 5.36550010832163e-17 0.9813173641754374 -0.19239602586226684
12663577333.333334 0.9791761382961022 -0.20301253702999522 -1.0007968162538963e-16 5.4740487047126937e-17 -1.0007968162538963e-16 5.4740487047126937e-17 0.979176274632315 -0.20301187944798452
12664194666.666666 0.9769202032547184 -0.21360457970881958 -9.945665852896523e-17 5.581902392969892e-17 -9.945665852896523e-17 5.581902392969892e-17 0.9769203466972021 -0.21360392367379577
12664812000.0 0.9745496944155612 -0.22417157070948787 -9.88220216400683e-17 5.689048588349341e-17 -9.88220216400683e-17 5.689048588349341e-17 0.9745498449467997 -0.2241709162982364
12665429333.333334 0.9720648897934232 -0.23471227072891335 -9.8175851132627e-17 5.795474795331091e-17 -9.8175851132627e-17 5.795474795331091e-17 0.9720650473950725 -0.234711618018022
12666046666.666666 0.9694660808078097 -0.24522544354729495 -9.751822852386236e-17 5.901168609070495e-17 -9.751822852386236e-17 5.901168609070495e-17 0.969466245460698 -0.24522479261314464
12666664000.0 0.9667535722486796 -0.2557098561734332 -9.684923666401471e-17 6.006117716847108e-17 -9.684923666401471e-17 6.006117716847108e-17 0.9667537439328105 -0.2557092070921892
12667281333.333334 0.9639276822407973 -0.2661642789889508 -9.616895972599847e-17 6.110309899488157e-17 -9.616895972599847e-17 6.110309899488157e-17 0.9639278609353493 -0.26616363183655284
12667898666.666666 0.9609887422063463 -0.2765874858927761 -9.547748319482144e-17 6.213733032793904e-17 -9.547748319482144e-17 6.213733032793904e-17 0.9609889278896817 -0.27658684074493145
12668516000.0 0.9579370968260594 -0.28697825444497105 -9.477489385689512e-17 6.316375088943896e-17 -9.477489385689512e-17 6.316375088943896e-17 0.957937289475721 -0.28697761137714395
12669133333.333334 0.9547731039988904 -0.2973353660097424 -9.406127978920093e-17 6.418224137890475e-17 -9.406127978920093e-17 6.418224137890475e-17 0.9547733035916052 -0.29733472509714565
12669750666.666666 0.9514971347999109 -0.30765760589880076 -9.333673034827371e-17 6.519268348744885e-17 -9.333673034827371e-17 6.519268348744885e-17 0.9514973413115966 -0.3076569672163876
