! Parameters = {f0=12700.012000; bw=77.238000; Q=6100.000000; N=10; m_0_1=1.159655; m_1_1=-1.369926; m_1_2=0.994467; m_2_2=-1.370575; m_2_3=0.631430; m_2_8=-0.004954; m_2_9=0.031750; m_3_3=-1.372512; m_3_4=0.519959; m_3_7=-0.004354; m_3_8=-0.101442; m_3_9=-0.004954; m_4_4=-1.375437; m_4_5=0.356294; m_4_6=-0.000837; m_4_7=-0.121991; m_4_8=-0.004354; m_5_5=-1.375055; m_5_6=0.763649; m_5_7=-0.000837; m_6_6=-1.375056; m_6_7=0.356636; m_7_7=-1.375423; m_7_8=0.520077; m_8_8=-1.372514; m_8_9=0.631743; m_9_9=-1.370580; m_9_10=0.995545; m_10_10=-1.369936; m_10_11=1.160450}
!
! Created with skrf (http://scikit-rf.org).
# Hz S RI R 50.0 
!freq ReS11 ImS11 ReS21 ImS21 ReS12 ImS12 ReS22 ImS22
12607400000.0 -0.11427077331252918 -0.9934496415855255 2.496933346473748e-17 5.864392382077575e-17 2.496933346473748e-17 5.864392382077575e-17 -0.11427016615513075 -0.9934497114231456
12608017333.333334 -0.1214809851050963 -0.9925937589254464 2.539468543050196e-17 5.844737735286895e-17 2.539468543050196e-17 5.844737735286895e-17 -0.12148037850048818 -0.992593833166029
12608634666.666666 -0.12868479245579098 -0.9916855470311456 2.5818498608436937e-17 5.824774975257072e-17 2.5818498608436937e-17 5.824774975257072e-17 -0.12868418643589735 -0.9916856256703451
12609252000.0 -0.13588181558210652 -0.9907250537833205 2.6240750709342524e-17 5.804505300974782e-17 2.6240750709342524e-17 5.804505300974782e-17 -0.13588121017881777 -0.9907251368165606
12609869333.333334 -0.14307167505922722 -0.9897123298189224 2.666141953704853e-17 5.783929927528587e-17 2.666141953704853e-17 5.783929927528587e-17 -0.1430710703043981 -0.9897124172413957
12610486666.666666 -0.15025399183997534 -0.9886474285284945 2.7080482989558206e-17 5.763050086037897e-17 2.7080482989558206e-17 5.763050086037897e-17 -0.15025338776542327 -0.9886475203351625
12611104000.0 -0.1574283872749346 -0.9875304060533351 2.7497919060226964e-17 5.741867023579122e-17 2.7497919060226964e-17 5.741867023579122e-17 -0.15742778391243806 -0.9875305022389287
12611721333.333334 -0.16459448313210373 -0.9863613212825856 2.7913705838895183e-17 5.720382003113004e-17 2.7913705838895183e-17 5.720382003113004e-17 -0.16459388051340043 -0.986361421841605
12612338666.666666 -0.17175190161720139 -0.9851402358500684 2.832782151303938e-17 5.698596303409893e-17 2.832782151303938e-17 5.698596303409893e-17 -0.17175129977398682 -0.9851403407767844
12612956000.0 -0.17890026539341494 -0.9838672141310627 2.874024436891619e-17 5.676511218974281e-17 2.874024436891619e-17 5.676511218974281e-17 -0.17889966435734064 -0.9838673234195163
12613573333.333334 -0.18603919760115387 -0.9825423232389382 2.9150952792686117e-17 5.654128059969279e-17 2.9150952792686117e-17 5.654128059969279e-17 -0.18603859740382586 -0.9825424368829416
12614190666.666666 -0.19316832187814217 -0.9811656330215789 2.95599252715474e-17 5.631448152139425e-17 2.95599252715474e-17 5.631448152139425e-17 -0.19316772255111866 -0.9811657510147132
12614808000.0 -0.20028726237923014 -0.9797372160576969 2.996714039485444e-17 5.608472836733186e-17 2.996714039485444e-17 5.608472836733186e-17 -0.20028666395402098 -0.9797373383933173
12615425333.333334 -0.20739564379607117 -0.9782571476530423 3.037257685523983e-17 5.585203470424165e-17 3.037257685523983e-17 5.585203470424165e-17 -0.2073950463041352 -0.978257274324274
12616042666.666666 -0.21449309137701855 -0.9767255058364063 3.077621344971443e-17 5.56164142523233e-17 3.077621344971443e-17 5.56164142523233e-17 -0.21449249484976252 -0.9767256368361473
12616660000.0 -0.2215792309468266 -0.9751423713555195 3.117802908077737e-17 5.5377880884436186e-17 3.117802908077737e-17 5.5377880884436186e-17 -0.22157863541560333 -0.9751425066764405
12617277333.333334 -0.22865368892651616 -0.9735078276727662 3.157800275751184e-17 5.5136448625291536e-17 3.157800275751184e-17 5.5136448625291536e-17 -0.22865309442262288 -0.9735079673073107
12617894666.666666 -0.23571609235276447 -0.9718219609608513 3.1976113596674925e-17 5.489213165063708e-17 3.1976113596674925e-17 5.489213165063708e-17 -0.23571549890744112 -0.9718221049012358
12618512000.0 -0.2427660688979555 -0.9700848600981694 3.237234082378877e-17 5.464494428642898e-17 3.237234082378877e-17 5.464494428642898e-17 -0.2427654765423831 -0.9700850083363841
12619129333.333334 -0.24980324688950403 -0.9682966166641882 3.2766663774210034e-17 5.439490100800519e-17 3.2766663774210034e-17 5.439490100800519e-17 -0.2498026556548032 -0.9682967691919975
12619746666.666666 -0.2568272553295616 -0.9664573249345971 3.315906189420699e-17 5.414201643924314e-17 3.315906189420699e-17 5.414201643924314e-17 -0.2568266652467908 -0.9664574817435404
12620364000.0 -0.2638377239146845 -0.9645670818763051 3.354951474203153e-17 5.3886305351708154e-17 3.354951474203153e-17 5.3886305351708154e-17 -0.2638371350148388 -0.9645672429576979
12620981333.333334 -0.2708342830550551 -0.9626259871424141 3.393800198896204e-17 5.3627782663809057e-17 3.393800198896204e-17 5.3627782663809057e-17 -0.2708336953690634 -0.9626261524873453
12621598666.666666 -0.27781656389434906 -0.9606341430668546 3.432450342037768e-17 5.336646343992203e-17 3.432450342037768e-17 5.336646343992203e-17 -0.2778159774530738 -0.9606343126661911
12622216000.0 -0.2847841983288809 -0.9585916546590787 3.470899893678813e-17 5.3102362889530754e-17 3.470899893678813e-17 5.3102362889530754e-17 -0.2847836131631159 -0.9585918285034635
12622833333.333334 -0.29173681902714704 -0.956498629598483 3.509146855488094e-17 5.283549636634398e-17 3.509146855488094e-17 5.283549636634398e-17 -0.2917362351676156 -0.9564988076783357
12623450666.666666 -0.29867405944916353 -0.9543551782287404 3.5471892408553313e-17 5.256587936741142e-17 3.5471892408553313e-17 5.256587936741142e-17 -0.2986734769265176 -0.95435536053426
12624068000.0 -0.30559555386576387 -0.9521614135519935 3.585025074993695e-17 5.229352753223201e-17 3.585025074993695e-17 5.229352753223201e-17 -0.30559497271058145 -0.9521616000731555
12624685333.333334 -0.31250093737801493 -0.949917451222851 3.6226523950423643e-17 5.201845664184999e-17 3.6226523950423643e-17 5.201845664184999e-17 -0.31250035762079853 -0.9499176419494089
12625302666.666666 -0.31938984593615527 -0.9476234095423846 3.660069250166768e-17 5.17406826179549e-17 3.660069250166768e-17 5.17406826179549e-17 -0.31938926760733205 -0.9476236044638743
12625920000.0 -0.32626191635916907 -0.945279409451775 3.697273701660514e-17 5.1460221521957836e-17 3.697273701660514e-17 5.1460221521957836e-17 -0.3262613394890869 -0.9452796085575105
12626537333.333334 -0.33311678635366065 -0.9428855745260203 3.734263823043671e-17 5.117708955408146e-17 3.734263823043671e-17 5.117708955408146e-17 -0.3331162109725878 -0.9428857778050955
12627154666.666666 -0.3399540945329555 -0.9404420309674227 3.7710377001632926e-17 5.0891303052421745e-17 3.7710377001632926e-17 5.0891303052421745e-17 -0.33995352067107887 -0.9404422384087135
12627772000.0 -0.34677348043639494 -0.9379489075988541 3.8075934312918803e-17 5.060287849201184e-17 3.8075934312918803e-17 5.060287849201184e-17 -0.3467729081238177 -0.9379491191910164
12628389333.333334 -0.3535745845480419 -0.9354063358570612 3.8439291272237656e-17 5.03118324838905e-17 3.8439291272237656e-17 5.03118324838905e-17 -0.3535740138147838 -0.9354065515885359
12629006666.666666 -0.36035704831587884 -0.9328144497856588 3.880042911374038e-17 5.0018181774137907e-17 3.880042911374038e-17 5.0018181774137907e-17 -0.36035647919187264 -0.9328146696446677
12629624000.0 -0.3671205141705205 -0.9301733860281244 3.915932919873882e-17 4.972194324292651e-17 3.915932919873882e-17 4.972194324292651e-17 -0.3671199466856116 -0.9301736100026743
12630241333.333334 -0.37386462554417405 -0.9274832838205599 3.951597301666087e-17 4.9423133903558795e-17 3.951597301666087e-17 4.9423133903558795e-17 -0.37386405972811787 -0.9274835118984399
12630858666.666666 -0.38058902688938145 -0.9247442849843662 3.9870342186002256e-17 4.912177090149456e-17 3.9870342186002256e-17 4.912177090149456e-17 -0.38058846277184366 -0.9247445171531529
12631476000.0 -0.3872933636978988 -0.92195653391872 4.022241845527377e-17 4.8817871513369224e-17 4.022241845527377e-17 4.8817871513369224e-17 -0.38729280130845173 -0.9219567701657736
12632093333.333334 -0.39397728251912023 -0.9191201775930626 4.057218370392178e-17 4.8511453146021536e-17 4.057218370392178e-17 4.8511453146021536e-17 -0.39397672188724225 -0.9191204179055298
12632710666.666666 -0.40064043097894886 -0.9162353655392568 4.091961994326748e-17 4.82025333354927e-17 4.091961994326748e-17 4.82025333354927e-17 -0.40063987213402336 -0.9162356099040719
12633328000.0 -0.4072824577983479 -0.913302249843714 4.1264709317424765e-17 4.7891129746030256e-17 4.1264709317424765e-17 4.7891129746030256e-17 -0.40728190076966075 -0.9133024982475988
12633945333.333334 -0.41390301281170333 -0.9103209851394443 4.160743410420556e-17 4.757726016909076e-17 4.160743410420556e-17 4.757726016909076e-17 -0.413902457628442 -0.9103212375689088
12634562666.666666 -0.4205017469854919 -0.9072917285978107 4.194777671602792e-17 4.72609425223258e-17 4.194777671602792e-17 4.72609425223258e-17 -0.4205011936767435 -0.9072919850391536
12635180000.0 -0.42707831243650085 -0.9042146399203252 4.228571970081693e-17 4.694219484856224e-17 4.228571970081693e-17 4.694219484856224e-17 -0.4270777610312511 -0.904214900359636
12635797333.333334 -0.43363236245027265 -0.9010898813301857 4.262124574288693e-17 4.662103531478519e-17 4.262124574288693e-17 4.662103531478519e-17 -0.4336318129774041 -0.901090145753344
12636414666.666666 -0.4401635514993568 -0.897917617563731 4.295433766382161e-17 4.6297482211110285e-17 4.295433766382161e-17 4.6297482211110285e-17 -0.44016300398764696 -0.8979178859564073
12637032000.0 -0.4466715352615257 -0.8946980158617567 4.32849784233594e-17 4.597155394973725e-17 4.32849784233594e-17 4.597155394973725e-17 -0.44667098973964664 -0.8946982882094153
12637649333.333334 -0.45315597063792906 -0.8914312459607028 4.3613151120245996e-17 4.5643269063920545e-17 4.3613151120245996e-17 4.5643269063920545e-17 -0.453155427134444 -0.8914315222485983
12638266666.666666 -0.45961651577115326 -0.8881174800837097 4.3938838993097705e-17 4.53126462069169e-17 4.3938838993097705e-17 4.53126462069169e-17 -0.45961597431451756 -0.8881177602968936
12638884000.0 -0.46605283006334924 -0.8847568929314965 4.4262025421255294e-17 4.4979704150927786e-17 4.4262025421255294e-17 4.4979704150927786e-17 -0.4660522906819067 -0.8847571770548125
12639501333.333334 -0.4724645741940594 -0.8813496616732089 4.458269392561956e-17 4.4644461786045845e-17 4.458269392561956e-17 4.4644461786045845e-17 -0.47246403691604166 -0.8813499496912964
12640118666.666666 -0.47885141013805693 -0.8778959659371078 4.490082816948318e-17 4.430693811919192e-17 4.490082816948318e-17 4.430693811919192e-17 -0.4788508749915825 -0.8778962578344034
12640736000.0 -0.4852130011835191 -0.8743959878009142 4.521641195937434e-17 4.39671522730255e-17 4.521641195937434e-17 4.39671522730255e-17 -0.48521246819659075 -0.8743962835616501
12641353333.333334 -0.4915490119492753 -0.8708499117824752 4.552942924584987e-17 4.3625123484892985e-17 4.552942924584987e-17 4.3625123484892985e-17 -0.49154848114978006 -0.8708502113906834
12641970666.666666 -0.49785910840286607 -0.8672579248298382 4.5839864124322606e-17 4.328087110572653e-17 4.5839864124322606e-17 4.328087110572653e-17 -0.49785857981857223 -0.8672582282693478
12642588000.0 -0.5041429578779762 -0.8636202163114864 4.6147700835860846e-17 4.2934414598957656e-17 4.6147700835860846e-17 4.2934414598957656e-17 -0.5041424315365328 -0.8636205235659269
12643205333.333334 -0.5104002290920738 -0.859936978006303 4.6452923767974645e-17 4.258577353943068e-17 4.6452923767974645e-17 4.258577353943068e-17 -0.510399705021009 -0.8599372890591036
12643822666.666666 -0.5166305921638238 -0.856208404093484 4.6755517455410957e-17 4.223496761229191e-17 4.6755517455410957e-17 4.223496761229191e-17 -0.5166300703905433 -0.8562087189278764
12644440000.0 -0.5228337186304561 -0.8524346911423201 4.705546658092251e-17 4.188201661189342e-17 4.705546658092251e-17 4.188201661189342e-17 -0.5228331991822421 -0.852435009741338
12645057333.333334 -0.5290092814650585 -0.8486160381018474 4.735275597604281e-17 4.152694044067532e-17 4.735275597604281e-17 4.152694044067532e-17 -0.5290087643690675 -0.8486163604483276
12645674666.666666 -0.5351569550939137 -0.8447526462903 4.764737062183964e-17 4.1169759108057376e-17 4.764737062183964e-17 4.1169759108057376e-17 -0.5351564403771759 -0.8447529723668831
12646292000.0 -0.5412764154136868 -0.840844719384479 4.793929564967867e-17 4.0810492729303304e-17 4.793929564967867e-17 4.0810492729303304e-17 -0.5412759031031043 -0.840845049173611
12646909333.333334 -0.5473673398082726 -0.8368924634091692 4.8228516341956344e-17 4.044916152440788e-17 4.8228516341956344e-17 4.044916152440788e-17 -0.547366829930618 -0.8368927968931021
12647526666.666666 -0.553429407166116 -0.8328960867260786 4.8515018132839325e-17 4.0085785816958623e-17 4.8515018132839325e-17 4.0085785816958623e-17 -0.5534288997480306 -0.8328964238868707
12648144000.0 -0.5594622978969696 -0.8288558000229564 4.8798786608993904e-17 3.972038603299582e-17 4.8798786608993904e-17 3.972038603299582e-17 -0.5594617929649635 -0.8288561408424756
12648761333.333334 -0.5654656939487478 -0.8247718163024937 4.907980751030331e-17 3.935298269987134e-17 4.907980751030331e-17 3.935298269987134e-17 -0.5654651915291966 -0.824772160762415
12649378666.666666 -0.5714392788242442 -0.8206443508711194 4.935806673057089e-17 3.8983596445109486e-17 4.935806673057089e-17 3.8983596445109486e-17 -0.5714387789433883 -0.8206446989529286
12649996000.0 -0.5773827375980298 -0.8164736213275101 4.9633550318230224e-17 3.8612247995243224e-17 4.9633550318230224e-17 3.8612247995243224e-17 -0.5773822402819739 -0.8164739730125034
12650613333.333334 -0.5832957569328441 -0.812259847551259 4.99062444770377e-17 3.823895817465671e-17 4.99062444770377e-17 3.823895817465671e-17 -0.5832952622075548 -0.8122602028205451
12651230666.666666 -0.5891780250961155 -0.8080032516912884 5.017613556674594e-17 3.7863747904437403e-17 5.017613556674594e-17 3.7863747904437403e-17 -0.5891775329874206 -0.8080036105257886
12651848000.0 -0.5950292319765805 -0.8037040581540034 5.044321010379389e-17 3.7486638201188946e-17 5.044321010379389e-17 3.7486638201188946e-17 -0.5950287425101677 -0.8037044205344539
12652465333.333334 -0.6008490691005178 -0.7993624935915463 5.0707454761961805e-17 3.710765017587524e-17 5.0707454761961805e-17 3.710765017587524e-17 -0.6008485823019314 -0.799362859498496
12653082666.666666 -0.606637229647872 -0.7949787868899458 5.0968856373033614e-17 3.6726805032638556e-17 5.0968856373033614e-17 3.6726805032638556e-17 -0.6066367455425145 -0.7949791563037613
12653700000.0 -0.6123934084687266 -0.7905531691568316 5.1227401927448633e-17 3.6344124067613994e-17 5.1227401927448633e-17 3.6344124067613994e-17 -0.612392927081856 -0.7905535420576966
12654317333.333334 -0.6181173020991421 -0.786085873709439 5.1483078574936075e-17 3.5959628667753006e-17 5.1483078574936075e-17 3.5959628667753006e-17 -0.6181168234558706 -0.7860862500773549
12654934666.666666 -0.6238086087772449 -0.7815771360622393 5.173587362514938e-17 3.557334030962919e-17 5.173587362514938e-17 3.557334030962919e-17 -0.6238081329025373 -0.7815775158770268
12655552000.0 -0.6294670284592249 -0.7770271939144525 5.1985774548292666e-17 3.5185280558237966e-17 5.1985774548292666e-17 3.5185280558237966e-17 -0.6294665553778973 -0.7770275771557518
12656169333.333334 -0.6350922628349077 -0.7724362871377094 5.2232768975723687e-17 3.479547106581465e-17 5.2232768975723687e-17 3.479547106581465e-17 -0.6350917925716281 -0.7724366737849839
12656786666.666666 -0.640684015343796 -0.7678046577631613 5.247684470057216e-17 3.4403933570610654e-17 5.247684470057216e-17 3.4403933570610654e-17 -0.6406835479230791 -0.7678050477956946
12657404000.0 -0.6462419911904551 -0.7631325499689093 5.271798967832476e-17 3.401068989570305e-17 5.271798967832476e-17 3.401068989570305e-17 -0.6462415266366656 -0.7631329433658105
12658021333.333334 -0.6517658973601702 -0.7584202100670493 5.295619202741684e-17 3.3615761947776064e-17 5.295619202741684e-17 3.3615761947776064e-17 -0.6517654356975175 -0.7584206068072509
12658638666.666666 -0.657255442634346 -0.7536678864907167 5.3191440029808146e-17 3.321917171590902e-17 5.3191440029808146e-17 3.321917171590902e-17 -0.6572549838868865 -0.7536682865529784
12659256000.0 -0.6627103376059502 -0.7488758297809202 5.3423722131555294e-17 3.2820941270351175e-17 5.3423722131555294e-17 3.2820941270351175e-17 -0.6627098817975827 -0.7488762331438268
12659873333.333334 -0.6681302946946378 -0.7440442925734405 5.3653026943365796e-17 3.242109276130798e-17 5.3653026943365796e-17 3.242109276130798e-17 -0.6681298418491046 -0.7440446992154062
12660490666.666666 -0.6735150281619788 -0.7391735295854578 5.387934324115133e-17 3.201964841770966e-17 5.387934324115133e-17 3.201964841770966e-17 -0.6735145783028637 -0.739173939484726
12661108000.0 -0.6788642541266069 -0.7342637976020475 5.4102659966572705e-17 3.161663054597451e-17 5.4102659966572705e-17 3.161663054597451e-17 -0.6788638072773339 -0.7342642107366915
12661725333.333334 -0.6841776905789742 -0.7293153554628317 5.432296622756226e-17 3.121206152879163e-17 5.432296622756226e-17 3.121206152879163e-17 -0.6841772467628063 -0.7293157718107568
12662342666.666666 -0.6894550573964082 -0.7243284640481623 5.454025129885939e-17 3.0805963823861424e-17 5.454025129885939e-17 3.0805963823861424e-17 -0.6894546166364465 -0.7243288835871068
12662960000.0 -0.6946960763578585 -0.7193033862653866 5.4754504622514574e-17 3.0398359962671106e-17 5.4754504622514574e-17 3.0398359962671106e-17 -0.6946956386770398 -0.7193038089729216
12663577333.333334 -0.6999004711584581 -0.7142403870350804 5.4965715808398325e-17 2.998927254924198e-17 5.4965715808398325e-17 2.998927254924198e-17 -0.699900036579557 -0.7142408128886145
12664194666.666666 -0.7050679674241799 -0.709139733277011 5.5173874634695177e-17 2.9578724258884383e-17 5.5173874634695177e-17 2.9578724258884383e-17 -0.7050675359698023 -0.7091401622537862
12664812000.0 -0.7101982927262517 -0.7040016938960952 5.537897104839258e-17 2.9166737836939327e-17 5.537897104839258e-17 2.9166737836939327e-17 -0.7101978644188385 -0.7040021259731932
12665429333.333334 -0.7152911765956261 -0.6988265397681307 5.558099516575313e-17 2.875333609753322e-17 5.558099516575313e-17 2.875333609753322e-17 -0.7152907514574495 -0.6988269749224711
12666046666.666666 -0.7203463505370159 -0.693614543725733 5.577993727278448e-17 2.8338541922314804e-17 5.577993727278448e-17 2.8338541922314804e-17 -0.7203459285901784 -0.6936149819340753
12666664000.0 -0.7253635480433291 -0.6883659805436686 5.597578782570025e-17 2.792237825918722e-17 5.597578782570025e-17 2.792237825918722e-17 -0.7253631293097642 -0.6883664217826148
12667281333.333334 -0.7303425046095016 -0.683081126924595 5.616853745136147e-17 2.7504868121059722e-17 5.616853745136147e-17 2.7504868121059722e-17 -0.7303420891109695 -0.6830815711705879
12667898666.666666 -0.7352829577465182 -0.6777602614843877 5.635817694772173e-17 2.708603458456719e-17 5.635817694772173e-17 2.708603458456719e-17 -0.7352825455046083 -0.6777607087137155
12668516000.0 -0.7401846469953324 -0.6724036647373727 5.65446972842605e-17 2.6665900788793374e-17 5.65446972842605e-17 2.6665900788793374e-17 -0.7401842380314589 -0.6724041149261675
12669133333.333334 -0.745047313940382 -0.6670116190817635 5.672808960239216e-17 2.6244489934021656e-17 5.672808960239216e-17 2.6244489934021656e-17 -0.7450469082757852 -0.6670120722060043
12669750666.666666 -0.7498707022234837 -0.6615844087844828 5.690834521588689e-17 2.5821825280437945e-17 5.690834521588689e-17 2.5821825280437945e-17 -0.7498702998792272 -0.661584864819996
12670368000.0 -0.7546545575571548 -0.6561223199663834 5.708545561127158e-17 2.5397930146853496e-17 5.708545561127158e-17 2.5397930146853496e-17 -0.7546541585541252 -0.6561227788888443
