! Parameters = {f0=12700.012000; bw=77.238000; Q=6100.000000; N=10; m_0_1=1.289985; m_1_1=0.585029; m_1_2=1.124797; m_2_2=0.584380; m_2_3=0.761760; m_2_8=0.001563; m_2_9=0.038267; m_3_3=0.582443; m_3_4=0.650289; m_3_7=0.002163; m_3_8=-0.094925; m_3_9=0.001563; m_4_4=0.579518; m_4_5=0.486624; m_4_6=0.005680; m_4_7=-0.115474; m_4_8=0.002163; m_5_5=0.579900; m_5_6=0.893979; m_5_7=0.005680; m_6_6=0.579899; m_6_7=0.486966; m_7_7=0.579532; m_7_8=0.650407; m_8_8=0.582441; m_8_9=0.762073; m_9_9=0.584375; m_9_10=1.125875; m_10_10=0.585019; m_10_11=1.290780}
!
! Created with skrf (http://scikit-rf.org).
# Hz S RI R 50.0 
!freq ReS11 ImS11 ReS21 ImS21 ReS12 ImS12 ReS22 ImS22
12607400000.0 0.30702336790921414 0.9517019762286418 -6.856600167052095e-17 -1.002069893644097e-16 -6.856600167052095e-17 -1.002069893644097e-16 0.3070227211288868 0.9517021848826612
12608017333.333334 0.31758117265859487 0.9482310893303435 -6.967059345403578e-17 -9.941314007374966e-17 -6.967059345403578e-17 -9.941314007374966e-17 0.31758052826864325 0.9482313051489215
12608634666.666666 0.32809975159022936 0.9446430823365234 -7.076600919378449e-17 -9.860712553694949e-17 -7.076600919378449e-17 -9.860712553694949e-17 0.32809910967000677 0.9446433052923028
12609252000.0 0.3385778055092377 0.9409383984174342 -7.18521150320933e-17 -9.778905165545267e-17 -7.18521150320933e-17 -9.778905165545267e-17 0.3385771661377849 0.9409386284821795
12609869333.333334 0.349014040226214 0.9371174951545784 -7.292877833172413e-17 -9.695902580218595e-17 -7.292877833172413e-17 -9.695902580218595e-17 0.349013403482249 0.9371177322991786
12610486666.666666 0.35940716671691675 0.9331808444842487 -7.399586769201809e-17 -9.611715680752651e-17 -7.399586769201809e-17 -9.611715680752651e-17 0.3594065326788254 0.9331810886787207
12611104000.0 0.369755901281774 0.929128932639125 -7.50532529649352e-17 -9.526355494504825e-17 -7.50532529649352e-17 -9.526355494504825e-17 0.36975527002760034 0.9291291838526192
12611721333.333334 0.3800589657040675 0.9249622600883632 -7.610080527083547e-17 -9.439833191716632e-17 -7.610080527083547e-17 -9.439833191716632e-17 0.38005833731150385 0.9249625182891646
12612338666.666666 0.39031508740804904 0.920681341475684 -7.713839701418669e-17 -9.352160084053582e-17 -7.713839701418669e-17 -9.352160084053582e-17 0.39031446195442726 0.9206816066312196
12612956000.0 0.4005229996162525 0.9162867055557549 -7.816590189906436e-17 -9.26334762313104e-17 -7.816590189906436e-17 -9.26334762313104e-17 0.40052237717853323 0.9162869776325943
12613573333.333334 0.41068144150543384 0.9117788951290967 -7.91831949444622e-17 -9.173407399025025e-17 -7.91831949444622e-17 -9.173407399025025e-17 0.41068082216019897 0.9117791740929604
12614190666.666666 0.42078915836293135 0.9071584669747799 -8.019015249948053e-17 -9.082351138761799e-17 -8.019015249948053e-17 -9.082351138761799e-17 0.4207885421863719 0.9071587527905386
12614808000.0 0.43084490174122 0.9024259917818283 -8.11866522583017e-17 -8.990190704794689e-17 -8.11866522583017e-17 -8.990190704794689e-17 0.43084428880912873 0.9024262844135105
12615425333.333334 0.4408474296122697 0.8975820540786639 -8.217257327501761e-17 -8.896938093461811e-17 -8.217257327501761e-17 -8.896938093461811e-17 0.44084682000003106 0.8975823534894599
12616042666.666666 0.4507955065209279 0.8926272521609222 -8.314779597825407e-17 -8.802605433430265e-17 -8.314779597825407e-17 -8.802605433430265e-17 0.45079490030350955 0.8926275583131896
12616660000.0 0.4606879037375163 0.8875621980175538 -8.41122021856418e-17 -8.707204984121989e-17 -8.41122021856418e-17 -8.707204984121989e-17 0.4606873009894588 0.8875625108728207
12617277333.333334 0.47052339940962035 0.8823875172552205 -8.506567511809764e-17 -8.61074913412475e-17 -8.506567511809764e-17 -8.61074913412475e-17 0.47052280020502896 0.8823878367741912
12617894666.666666 0.4803007787128574 0.8771038490211075 -8.60080994139122e-17 -8.513250399588803e-17 -8.60080994139122e-17 -8.513250399588803e-17 0.4803001831253914 0.8771041751636653
12618512000.0 0.4900188340013215 0.8717118459237572 -8.693936114269228e-17 -8.414721422604212e-17 -8.693936114269228e-17 -8.414721422604212e-17 0.4900182421041873 0.8717121786489738
12619129333.333334 0.4996763649561238 0.866212173952809 -8.785934781905664e-17 -8.315174969569475e-17 -8.785934781905664e-17 -8.315174969569475e-17 0.49967577682206515 0.8662125132189467
12619746666.666666 0.5092721787342482 0.8606055123964117 -8.876794841621409e-17 -8.214623929537985e-17 -8.876794841621409e-17 -8.214623929537985e-17 0.5092715944355354 0.8606058581609269
12620364000.0 0.5188050901156045 0.8548925537574638 -8.966505337930513e-17 -8.113081312554672e-17 -8.966505337930513e-17 -8.113081312554672e-17 0.5188045097240285 0.8548929059770166
12620981333.333334 0.5282739216493284 0.8490740036681472 -9.055055463855791e-17 -8.010560247978029e-17 -9.055055463855791e-17 -8.010560247978029e-17 0.5282733452361903 0.8490743622986049
12621598666.666666 0.5376775037994334 0.8431505808026402 -9.14243456222837e-17 -7.907073982784142e-17 -9.14243456222837e-17 -7.907073982784142e-17 0.5376769314355353 0.843150945799081
12622216000.0 0.5470146750891389 0.8371230167884184 -9.228632126964805e-17 -7.802635879860278e-17 -9.228632126964805e-17 -7.802635879860278e-17 0.5470141068447769 0.8371233881051398
12622833333.333334 0.5562842822443818 0.8309920561158639 -9.313637804326263e-17 -7.697259416282744e-17 -9.313637804326263e-17 -7.697259416282744e-17 0.5562837181893361 0.8309924337063878
12623450666.666666 0.5654851803361656 0.82475845604637 -9.397441394156666e-17 -7.590958181583016e-17 -9.397441394156666e-17 -7.590958181583016e-17 0.5654846205396916 0.824758839863447
12624068000.0 0.5746162329220714 0.8184229865187478 -9.480032851104052e-17 -7.483745875996667e-17 -9.480032851104052e-17 -7.483745875996667e-17 0.5746156774528921 0.8184233765143638
12624685333.333334 0.5836763121867387 0.8119864300540421 -9.561402285818989e-17 -7.375636308702791e-17 -9.561402285818989e-17 -7.375636308702791e-17 0.5836757611130357 0.8119868261794252
12625302666.666666 0.5926642990807957 0.805449581659143 -9.641539966132903e-17 -7.266643396050883e-17 -9.641539966132903e-17 -7.266643396050883e-17 0.5926637524702015 0.8054499838647693
12625920000.0 0.6015790834595182 0.7988132487282772 -9.720436318220256e-17 -7.156781159769361e-17 -9.720436318220256e-17 -7.156781159769361e-17 0.6015785413791082 0.7988136569638774
12626537333.333334 0.6104195642196034 0.7920782509435345 -9.798081927734705e-17 -7.046063725169332e-17 -9.798081927734705e-17 -7.046063725169332e-17 0.610419026735885 0.7920786651580971
12627154666.666666 0.6191846494353086 0.785245420173523 -9.874467540928745e-17 -6.934505319330871e-17 -9.874467540928745e-17 -6.934505319330871e-17 0.6191841166142166 0.7852458403153054
12627772000.0 0.6278732564934562 0.7783156003705192 -9.949584065753778e-17 -6.822120269275413e-17 -9.949584065753778e-17 -6.822120269275413e-17 0.6278727284003421 0.7783160263870504
12628389333.333334 0.636484312226835 0.7712896474664698 -1.002342257293258e-16 -6.708923000136591e-17 -1.002342257293258e-16 -6.708923000136591e-17 0.6364837889264611 0.7712900793045598
12629006666.666666 0.6450167530470892 0.7641684292670099 -1.009597429702133e-16 -6.594928033304148e-17 -1.009597429702133e-16 -6.594928033304148e-17 0.6450162346036186 0.7641688668727535
12629624000.0 0.6534695250758186 0.7569528253444875 -1.016723063744083e-16 -6.480149984570966e-17 -1.016723063744083e-16 -6.480149984570966e-17 0.6534690115528088 0.7569532686632734
12630241333.333334 0.661841584274968 0.7496437269291454 -1.0237183159493051e-16 -6.364603562259643e-17 -1.0237183159493051e-16 -6.364603562259643e-17 0.6618410757353621 0.749644175905661
12630858666.666666 0.6701318965755204 0.7422420367992596 -1.0305823595352874e-16 -6.24830356534362e-17 -1.0305823595352874e-16 -6.24830356534362e-17 0.6701313930816406 0.7422424913775003
12631476000.0 0.6783394380055423 0.7347486691693572 -1.0373143845042775e-16 -6.131264881550648e-17 -1.0373143845042775e-16 -6.131264881550648e-17 0.6783389396190809 0.7347491292926313
12632093333.333334 0.6864631948163589 0.7271645495775592 -1.0439135977379239e-16 -6.013502485467342e-17 -1.0439135977379239e-16 -6.013502485467342e-17 0.6864627015983713 0.7271650151884951
12632710666.666666 0.6945021636078968 0.7194906147711505 -1.0503792230904324e-16 -5.895031436622406e-17 -1.0503792230904324e-16 -5.895031436622406e-17 0.6945016756187942 0.7194910858117048
12633328000.0 0.7024553514527181 0.7117278125907803 -1.0567105014793551e-16 -5.775866877563154e-17 -1.0567105014793551e-16 -5.775866877563154e-17 0.7024548687522604 0.7117282890022457
12633945333.333334 0.7103217760184775 0.703877101853566 -1.0629066909739015e-16 -5.656024031927723e-17 -1.0629066909739015e-16 -5.656024031927723e-17 0.7103212986657651 0.7038775835765763
12634562666.666666 0.7181004656893559 0.6959394522345669 -1.0689670668814604e-16 -5.5355182025010794e-17 -1.0689670668814604e-16 -5.5355182025010794e-17 0.7180999937428236 0.6959399392091067
12635180000.0 0.7257904596860304 0.6879158441470576 -1.0748909218317305e-16 -5.4143647692650636e-17 -1.0748909218317305e-16 -5.4143647692650636e-17 0.7257899932034397 0.6879163363124688
12635797333.333334 0.733390808184441 0.6798072686213285 -1.0806775658586988e-16 -5.29257918743866e-17 -1.0806775658586988e-16 -5.29257918743866e-17 0.7333903472228721 0.6798077659163171
12636414666.666666 0.7409005724329109 0.6716147271824846 -1.0863263264803169e-16 -5.170176985511432e-17 -1.0863263264803169e-16 -5.170176985511432e-17 0.740900117048757 0.6716152295451296
12637032000.0 0.7483188248682933 0.663339231726539 -1.0918365487761724e-16 -5.047173763263904e-17 -1.0918365487761724e-16 -5.047173763263904e-17 0.7483183751172533 0.6633397390942993
12637649333.333334 0.7556446492304393 0.6549818043955299 -1.0972075954626296e-16 -4.9235851897859446e-17 -1.0972075954626296e-16 -4.9235851897859446e-17 0.755644205167511 0.6549823167052525
12638266666.666666 0.7628771406753908 0.646543477451254 -1.1024388469659566e-16 -4.799427001482612e-17 -1.1024388469659566e-16 -4.799427001482612e-17 0.7628767023548628 0.6465439946391807
12638884000.0 0.7700154058871364 0.6380252931477616 -1.1075297014931087e-16 -4.67471500007418e-17 -1.1075297014931087e-16 -4.67471500007418e-17 0.7700149733625856 0.6380258151495403
12639501333.333334 0.7770585631879747 0.6294283036026094 -1.112479575100285e-16 -4.5494650505881395e-17 -1.112479575100285e-16 -4.5494650505881395e-17 0.7770581365122551 0.6294288303532979
12640118666.666666 0.7840057426472832 0.6207535706670569 -1.1172879017591158e-16 -4.4236930793465643e-17 -1.1172879017591158e-16 -4.4236930793465643e-17 0.7840053218725207 0.620754102101133
12640736000.0 0.7908560861893401 0.6120021657944494 -1.1219541334209168e-16 -4.297415071938012e-17 -1.1219541334209168e-16 -4.297415071938012e-17 0.7908556713669286 0.6120027018458201
12641353333.333334 0.797608747698712 0.6031751699086357 -1.1264777400780423e-16 -4.170647071198678e-17 -1.1264777400780423e-16 -4.170647071198678e-17 0.7976083388793032 0.6031757105106421
12641970666.666666 0.8042628931252853 0.5942736732697865 -1.130858209823629e-16 -4.043405175169659e-17 -1.130858209823629e-16 -4.043405175169659e-17 0.8042624903587858 0.594274218355216
12642588000.0 0.8108177005870919 0.5852987753399799 -1.135095048908604e-16 -3.915705535059543e-17 -1.135095048908604e-16 -3.915705535059543e-17 0.8108173039226558 0.585299324841072
12643205333.333334 0.8172723604717554 0.5762515846474919 -1.1391877817965456e-16 -3.787564353197328e-17 -1.1391877817965456e-16 -3.787564353197328e-17 0.8172719699577776 0.5762521384959474
12643822666.666666 0.8236260755366219 0.5671332186496939 -1.1431359512162514e-16 -3.6589978809790545e-17 -1.1431359512162514e-16 -3.6589978809790545e-17 0.8236256912207349 0.567133776776684
12644440000.0 0.8298780610071372 0.5579448035951715 -1.1469391182119555e-16 -3.5300224168103834e-17 -1.1469391182119555e-16 -3.5300224168103834e-17 0.8298776829362008 0.5579453659313445
12645057333.333334 0.8360275446737864 0.548687474384589 -1.1505968621911922e-16 -3.4006543040450526e-17 -1.1505968621911922e-16 -3.4006543040450526e-17 0.8360271728938865 0.5486880408600815
12645674666.666666 0.842073766987483 0.5393623744305207 -1.1541087809703902e-16 -3.2709099289175774e-17 -1.1541087809703902e-16 -3.2709099289175774e-17 0.8420734015439232 0.5393629449749637
12646292000.0 0.848015981153485 0.5299706555160498 -1.157474490818273e-16 -3.140805718465731e-17 -1.157474490818273e-16 -3.140805718465731e-17 0.8480156220907819 0.5299712300585793
12646909333.333334 0.8538534532234361 0.5205134776528194 -1.160693626496579e-16 -3.0103581384615595e-17 -1.160693626496579e-16 -3.0103581384615595e-17 0.8538531005853144 0.5205140561220845
12647526666.666666 0.8595854621861602 0.5109920089375407 -1.1637658412987974e-16 -2.879583691325866e-17 -1.1637658412987974e-16 -2.879583691325866e-17 0.8595851160155462 0.5109925912617123
12648144000.0 0.865211300056756 0.5014074254076405 -1.1666908070863976e-16 -2.74849891404447e-17 -1.1666908070863976e-16 -2.74849891404447e-17 0.8652109603957723 0.5014080115144197
12648761333.333334 0.8707302719638926 0.49176091089624546 -1.1694682143227145e-16 -2.6171203760816415e-17 -1.1694682143227145e-16 -2.6171203760816415e-17 0.8707299388538563 0.4917615007128747
12649378666.666666 0.8761416962357056 0.4820536568858696 -1.1720977721045073e-16 -2.4854646772892794e-17 -1.1720977721045073e-16 -2.4854646772892794e-17 0.876141369717119 0.48205425033913984
12649996000.0 0.8814449044840418 0.47228686236114725 -1.174579208191244e-16 -2.3535484458097602e-17 -1.174579208191244e-16 -2.3535484458097602e-17 0.8814445845965889 0.47228745937740685
12650613333.333334 0.8866392416869744 0.4624617336608154 -1.1769122690318967e-16 -2.2213883359820452e-17 -1.1769122690318967e-16 -2.2213883359820452e-17 0.8866389284695166 0.4624623341659801
12651230666.666666 0.8917240662696527 0.4525794843288141 -1.1790967197894641e-16 -2.0890010262423507e-17 -1.1790967197894641e-16 -2.0890010262423507e-17 0.8917237597602248 0.4525800882483764
12651848000.0 0.8966987501836698 0.4426413349641718 -1.18113234436317e-16 -1.956403217019562e-17 -1.18113234436317e-16 -1.956403217019562e-17 0.896698450419473 0.4426419422232092
12652465333.333334 0.9015626789845744 0.43264851307034097 -1.1830189454082088e-16 -1.8236116286347593e-17 -1.1830189454082088e-16 -1.8236116286347593e-17 0.9015623860019741 0.4326491235935262
12653082666.666666 0.9063152519076323 0.4226022529038676 -1.1847563443531816e-16 -1.6906429991964058e-17 -1.1847563443531816e-16 -1.6906429991964058e-17 0.9063149657421526 0.42260286661547763
12653700000.0 0.910955881942325 0.41250379532132797 -1.1863443814152334e-16 -1.557514082489043e-17 -1.1863443814152334e-16 -1.557514082489043e-17 0.9109556026286447 0.4125044121452532
12654317333.333334 0.9154839959045474 0.4023543876267065 -1.1877829156126735e-16 -1.4242416458723158e-17 -1.1877829156126735e-16 -1.4242416458723158e-17 0.9154837234764959 0.4023550074864604
12654934666.666666 0.9198990345075867 0.3921552834169502 -1.189071824775384e-16 -1.2908424681676506e-17 -1.189071824775384e-16 -1.2908424681676506e-17 0.9198987689981394 0.3921559062356791
12655552000.0 0.9242004524311876 0.38190774242715647 -1.1902110055528e-16 -1.1573333375493758e-17 -1.1902110055528e-16 -1.1573333375493758e-17 0.9242001938724613 0.3819083681276479
12656169333.333334 0.9283877183888052 0.3716130303752118 -1.1912003734195e-16 -1.0237310494382027e-17 -1.1912003734195e-16 -1.0237310494382027e-17 0.9283874668120565 0.3716136588799058
12656786666.666666 0.9324603151933389 0.3612724188051974 -1.1920398626784974e-16 -8.900524043881886e-18 -1.1920398626784974e-16 -8.900524043881886e-18 0.932460070628959 0.361273050036195
12657404000.0 0.9364177398209591 0.3508871849304661 -1.192729426462117e-16 -7.563142059792985e-18 -1.192729426462117e-16 -7.563142059792985e-18 0.936417502298469 0.3508878188095389
12658021333.333334 0.9402595034732523 0.3404586114758337 -1.1932690367305423e-16 -6.225332587060022e-18 -1.1932690367305423e-16 -6.225332587060022e-18 0.9402592730213019 0.34045924792443427
12658638666.666666 0.9439851316375449 0.3299879865193067 -1.193658684267963e-16 -4.887263658743825e-18 -1.193658684267963e-16 -4.887263658743825e-18 0.9439849082839075 0.329988625458578
12659256000.0 0.9475941641456411 0.31947660333261074 -1.193898378676425e-16 -3.549103274866441e-18 -1.193898378676425e-16 -3.549103274866441e-18 0.9475939479172101 0.31947724468339533
12659873333.333334 0.9510861552305182 0.3089257602218542 -1.1939881483672521e-16 -2.211019381417864e-18 -1.1939881483672521e-16 -2.211019381417864e-18 0.9510859461533042 0.3089264039047046
12660490666.666666 0.9544606735814243 0.29833676036706225 -1.1939280405501644e-16 -8.731798492929466e-19 -1.1939280405501644e-16 -8.731798492929466e-19 0.9544604716805536 0.2983374063022512
12661108000.0 0.9577173023972319 0.28771091166097296 -1.1937181212200172e-16 4.642475467676565e-19 -1.1937181212200172e-16 4.642475467676565e-19 0.9577171076969413 0.28771155976850266
12661725333.333334 0.9608556394377976 0.2770495265478728 -1.1933584751412006e-16 1.801095149138215e-18 -1.1933584751412006e-16 1.801095149138215e-18 0.9608554519614314 0.27705017674748444
12662342666.666666 0.9638752970737346 0.2663539218611914 -1.1928492058296862e-16 3.137195438327231e-18 -1.1928492058296862e-16 3.137195438327231e-18 0.9638751168437448 0.26635457407237634
12662960000.0 0.9667759023342547 0.2556254186609915 -1.1921904355327236e-16 4.472381053933891e-18 -1.1921904355327236e-16 4.472381053933891e-18 0.9667757293721925 0.25562607280299954
12663577333.333334 0.9695570969532282 0.24486534207079702 -1.191382305206208e-16 5.806484815562831e-18 -1.191382305206208e-16 5.806484815562831e-18 0.9695569312797483 0.24486599806264844
12664194666.666666 0.9722185374134702 0.2340750211138137 -1.1904249744897036e-16 7.139339743738708e-18 -1.1904249744897036e-16 7.139339743738708e-18 0.9722183790483244 0.2340756788743077
12664812000.0 0.9747598949891256 0.22325578854893954 -1.1893186216791288e-16 8.470779080770447e-18 -1.1893186216791288e-16 8.470779080770447e-18 0.9747597439511605 0.22325644799666475
12665429333.333334 0.9771808557863041 0.21240898070601227 -1.1880634436971167e-16 9.80063631158629e-18 -1.1880634436971167e-16 9.80063631158629e-18 0.9771807120934597 0.21240964175935695
12666046666.666666 0.9794811207818136 0.20153593732092004 -1.1866596560610705e-16 1.1128745184506717e-17 -1.1866596560610705e-16 1.1128745184506717e-17 0.9794809844511225 0.20153659989808237
12666664000.0 0.9816604058601635 0.19063800136981982 -1.1851074928488303e-16 1.2454939732047016e-17 -1.1851074928488303e-16 1.2454939732047016e-17 0.9816602769077446 0.19063866538881724
12667281333.333334 0.9837184418485677 0.17971651890364868 -1.1834072066621392e-16 1.3779054291558111e-17 -1.1834072066621392e-16 1.3779054291558111e-17 0.98371832028963 0.17971718428232908
12667898666.666666 0.9856549745502524 0.16877283888161843 -1.1815590685876939e-16 1.5100923525935756e-17 -1.1815590685876939e-16 1.5100923525935756e-17 0.9856548603990882 0.1687735055376694
12668516000.0 0.9874697647758671 0.15780831300445816 -1.179563368155926e-16 1.6420382444230097e-17 -1.179563368155926e-16 1.6420382444230097e-17 0.9874696580458532 0.15780898085541772
12669133333.333334 0.9891625883729361 0.14682429554802076 -1.1774204132975442e-16 1.7737266422177227e-17 -1.1774204132975442e-16 1.7737266422177227e-17 0.9891624890765313 0.14682496451128732
12669750666.666666 0.9907332362536575 0.13582214319533772 -1.175130530297684e-16 1.9051411222740253e-17 -1.175130530297684e-16 1.9051411222740253e-17 0.9907331444024007 0.13582281318818035
12670368000.0 0.992181514420655 0.1248032148694697 -1.172694063747841e-16 2.0362653016546946e-17 -1.172694063747841e-16 2.0362653016546946e-17 0.9921814300251665 0.12480388580903852
