! Parameters = {f0=12700.012000; bw=77.238000; Q=6100.000000; N=10; m_0_1=1.213709; m_1_1=-0.559115; m_1_2=1.048521; m_2_2=-0.559764; m_2_3=0.685484; m_2_8=-0.002251; m_2_9=0.034453; m_3_3=-0.561701; m_3_4=0.574013; m_3_7=-0.001651; m_3_8=-0.098739; m_3_9=-0.002251; m_4_4=-0.564626; m_4_5=0.410348; m_4_6=0.001866; m_4_7=-0.119288; m_4_8=-0.001651; m_5_5=-0.564244; m_5_6=0.817703; m_5_7=0.001866; m_6_6=-0.564245; m_6_7=0.410690; m_7_7=-0.564612; m_7_8=0.574131; m_8_8=-0.561703; m_8_9=0.685797; m_9_9=-0.559769; m_9_10=1.049599; m_10_10=-0.559125; m_10_11=1.214504}
!
! Created with skrf (http://scikit-rf.org).
# Hz S RI R 50.0 
!freq ReS11 ImS11 ReS21 ImS21 ReS12 ImS12 ReS22 ImS22
12607400000.0 -0.9767297567152725 -0.21447373346580967 8.395070795132463e-17 -6.042772961903481e-18 8.395070795132463e-17 -6.042772961903481e-18 -0.9767296195478373 -0.21447435813582766
12608017333.333334 -0.978591391810796 -0.20581274954105144 8.387684919224267e-17 -6.792340775135307e-18 8.387684919224267e-17 -6.792340775135307e-18 -0.9785912601889608 -0.20581337537103753
12608634666.666666 -0.9803762286898502 -0.19713561377819716 8.379630329158335e-17 -7.541071138539534e-18 8.379630329158335e-17 -7.541071138539534e-18 -0.9803761026234004 -0.197136240718926
12609252000.0 -0.9820841272814919 -0.18844300714430715 8.370907931648733e-17 -8.288904443196581e-18 8.370907931648733e-17 -8.288904443196581e-18 -0.9820840067797773 -0.18844363514647125
12609869333.333334 -0.9837149535527532 -0.17973561182065317 8.361518686500415e-17 -9.03578117534115e-18 8.361518686500415e-17 -9.03578117534115e-18 -0.9837148386246846 -0.17973624083486633
12610486666.666666 -0.9852685795191698 -0.17101411114909712 8.351463606511932e-17 -9.781641921055903e-18 8.351463606511932e-17 -9.781641921055903e-18 -0.9852684701732216 -0.1710147411258989
12611104000.0 -0.9867448832548525 -0.16227918957835297 8.340743757373103e-17 -1.0526427371031358e-17 8.340743757373103e-17 -1.0526427371031358e-17 -0.9867447794990575 -0.16227982046821177
12611721333.333334 -0.9881437489019933 -0.15353153261057872 8.329360257559701e-17 -1.1270078325218266e-17 8.329360257559701e-17 -1.1270078325218266e-17 -0.9881436507439473 -0.1535321643638965
12612338666.666666 -0.989465066680028 -0.14477182674721661 8.317314278222728e-17 -1.2012535697564262e-17 8.317314278222728e-17 -1.2012535697564262e-17 -0.9894649741268856 -0.1447724593143323
12612956000.0 -0.9907087328942124 -0.13600075943531273 8.304607043074308e-17 -1.2753740520677897e-17 8.304607043074308e-17 -1.2753740520677897e-17 -0.990708645952688 -0.13600139276650633
12613573333.333334 -0.9918746499437598 -0.12721901901359622 8.291239828269272e-17 -1.349363395049804e-17 8.291239828269272e-17 -1.349363395049804e-17 -0.9918745686201268 -0.12721965305909252
12614190666.666666 -0.9929627263295083 -0.11842729465840302 8.277213962282415e-17 -1.423215727095856e-17 8.277213962282415e-17 -1.423215727095856e-17 -0.9929626506295979 -0.11842792936837565
12614808000.0 -0.9939728766611118 -0.10962627632950597 8.262530825781615e-17 -1.4969251898643353e-17 8.262530825781615e-17 -1.4969251898643353e-17 -0.9939728065903144 -0.10962691165408141
12615425333.333334 -0.9949050216637164 -0.10081665471616541 8.247191851497187e-17 -1.5704859387405354e-17 8.247191851497187e-17 -1.5704859387405354e-17 -0.9949049572269802 -0.10081729060542675
12616042666.666666 -0.9957590881842108 -0.0919991211826993 8.231198524086559e-17 -1.6438921433008087e-17 8.231198524086559e-17 -1.6438921433008087e-17 -0.9957590293860406 -0.09199975758669016
12616660000.0 -0.9965350091969377 -0.08317436771445169 8.214552379995402e-17 -1.7171379877718713e-17 8.214552379995402e-17 -1.7171379877718713e-17 -0.9965349560413961 -0.08317500458318025
12617277333.333334 -0.9972327238089836 -0.07434308686323292 8.197255007314313e-17 -1.7902176714913533e-17 8.197255007314313e-17 -1.7902176714913533e-17 -0.9972326762996897 -0.07434372414667573
12617894666.666666 -0.9978521772649246 -0.06550597169333705 8.179308045631585e-17 -1.8631254093655423e-17 8.179308045631585e-17 -1.8631254093655423e-17 -0.9978521354050544 -0.06550660934144306
12618512000.0 -0.998393320951163 -0.05666371572661296 8.160713185881649e-17 -1.9358554323270986e-17 8.160713185881649e-17 -1.9358554323270986e-17 -0.9983932847434486 -0.05666435368930737
12619129333.333334 -0.998856112399703 -0.04781701288863336 8.141472170190052e-17 -2.0084019877887584e-17 8.141472170190052e-17 -2.0084019877887584e-17 -0.9988560818464313 -0.04781765111582152
12619746666.666666 -0.9992405152915059 -0.03896655745386796 8.12158679171369e-17 -2.080759340098799e-17 8.12158679171369e-17 -2.080759340098799e-17 -0.9992404903945223 -0.0389671958954395
12620364000.0 -0.999546499459344 -0.03011304399111274 8.101058894477394e-17 -2.152921770992858e-17 8.101058894477394e-17 -2.152921770992858e-17 -0.9995464802200493 -0.030113682596945315
12620981333.333334 -0.9997740408901502 -0.021257167309435686 8.079890373206964e-17 -2.224883580043067e-17 8.079890373206964e-17 -2.224883580043067e-17 -0.9997740273094993 -0.021257806029398932
12621598666.666666 -0.9999231217269151 -0.012399622403138015 8.058083173156883e-17 -2.2966390851101618e-17 8.058083173156883e-17 -2.2966390851101618e-17 -0.9999231138054222 -0.012400261187097581
12622216000.0 -0.9999937302700876 -0.0035411043975816636 8.035639289935691e-17 -2.368182622788222e-17 8.035639289935691e-17 -2.368182622788222e-17 -0.9999937280078195 -0.0035417431954030236
12622833333.333334 -0.9999858609784894 0.005317691505647299 8.012560769325918e-17 -2.439508548852775e-17 8.012560769325918e-17 -2.439508548852775e-17 -0.99998586437507 0.00531705274409483
12623450666.666666 -0.9998995144697502 0.014176070082955806 7.988849707101609e-17 -2.5106112387021643e-17 7.988849707101609e-17 -2.5106112387021643e-17 -0.9998995235243602 0.014175431407795177
12624068000.0 -0.9997346975202627 0.02303333614367329 7.964508248840148e-17 -2.5814850878028762e-17 7.964508248840148e-17 -2.5814850878028762e-17 -0.9997347122316377 0.023032697605015754
12624685333.333334 -0.9994914230646469 0.031888794584410116 7.939538589731595e-17 -2.6521245121285246e-17 7.939538589731595e-17 -2.6521245121285246e-17 -0.9994914434310785 0.031888156232351306
12625302666.666666 -0.9991697101947375 0.040741750443551286 7.913942974383804e-17 -2.7225239485981878e-17 7.913942974383804e-17 -2.7225239485981878e-17 -0.9991697362140745 0.040741112328167295
12625920000.0 -0.9987695841580818 0.04959150895599476 7.887723696622924e-17 -2.7926778555148964e-17 7.887723696622924e-17 -2.7926778555148964e-17 -0.9987696158277297 0.04959087112733823
12626537333.333334 -0.9982910763559631 0.05843737560750503 7.860883099291124e-17 -2.8625807129993426e-17 7.860883099291124e-17 -2.8625807129993426e-17 -0.9982911136728845 0.058436738115601204
12627154666.666666 -0.9977342243409422 0.06727865618916076 7.83342357404009e-17 -2.9322270234225553e-17 7.83342357404009e-17 -2.9322270234225553e-17 -0.9977342673016559 0.06727801908400356
12627772000.0 -0.9970990718138829 0.07611465685223223 7.805347561119427e-17 -3.0016113118402e-17 7.805347561119427e-17 -3.0016113118402e-17 -0.9970991204144661 0.07611402018378036
12628389333.333334 -0.996385668620566 0.08494468416203804 7.776657549164277e-17 -3.070728126416897e-17 7.776657549164277e-17 -3.070728126416897e-17 -0.9963857228566528 0.08494404798021096
12629006666.666666 -0.9955940707477356 0.09376804515287461 7.74735607497522e-17 -3.1395720388584725e-17 7.74735607497522e-17 -3.1395720388584725e-17 -0.9955941306145207 0.09376740950754894
12629624000.0 -0.9947243403187302 0.1025840473821729 7.717445723298219e-17 -3.2081376448329166e-17 7.717445723298219e-17 -3.2081376448329166e-17 -0.9947244058109624 0.10258341232317793
12630241333.333334 -0.9937765455885983 0.11139199898481082 7.686929126597723e-17 -3.2764195643964904e-17 7.686929126597723e-17 -3.2764195643964904e-17 -0.9937766167005899 0.1113913645619253
12630858666.666666 -0.9927507609387508 0.1201912087274675 7.655808964828728e-17 -3.3444124424116136e-17 7.655808964828728e-17 -3.3444124424116136e-17 -0.9927508376643723 0.12019057499041529
12631476000.0 -0.9916470668711064 0.12898098606295422 7.624087965201945e-17 -3.412110948969765e-17 7.624087965201945e-17 -3.412110948969765e-17 -0.991647149203786 0.12898035306140027
12632093333.333334 -0.990465550001785 0.1377606411842655 7.591768901949112e-17 -3.479509779803522e-17 7.591768901949112e-17 -3.479509779803522e-17 -0.9904656379345159 0.13776000896781268
12632710666.666666 -0.9892063030543333 0.1465294850786596 7.558854596081344e-17 -3.546603656704008e-17 7.558854596081344e-17 -3.546603656704008e-17 -0.9892063965796665 0.14652885369684382
12633328000.0 -0.9878694248523849 0.15528682958209547 7.525347915145334e-17 -3.6133873279323405e-17 7.525347915145334e-17 -3.6133873279323405e-17 -0.9878695239624333 0.1552861990843824
12633945333.333334 -0.9864550203119747 0.1640319874327606 7.49125177297586e-17 -3.679855568629298e-17 7.49125177297586e-17 -3.679855568629298e-17 -0.9864551249984167 0.1640313578685421
12634562666.666666 -0.9849632004332568 0.17276427232537248 7.456569129444851e-17 -3.746003181222229e-17 7.456569129444851e-17 -3.746003181222229e-17 -0.9849633106873313 0.17276364374396194
12635180000.0 -0.9833940822918289 0.18148299896478545 7.421302990205831e-17 -3.811824995831742e-17 7.421302990205831e-17 -3.811824995831742e-17 -0.9833941981043395 0.18148237141541435
12635797333.333334 -0.9817477890294994 0.1901874831200232 7.385456406436255e-17 -3.8773158706730595e-17 7.385456406436255e-17 -3.8773158706730595e-17 -0.9817479103908157 0.19018685665183746
12636414666.666666 -0.9800244498446858 0.19887704167766962 7.349032474575198e-17 -3.942470692457303e-17 7.349032474575198e-17 -3.942470692457303e-17 -0.9800245767447403 0.19887641633972514
12637032000.0 -0.9782241999822214 0.20755099269572863 7.312034336058068e-17 -4.007284376789042e-17 7.312034336058068e-17 -4.007284376789042e-17 -0.9782243324105158 0.20755036853698827
12637649333.333334 -0.9763471807227525 0.216208655457115 7.274465177047259e-17 -4.071751868562678e-17 7.274465177047259e-17 -4.071751868562678e-17 -0.9763473186683536 0.21620803252644397
12638266666.666666 -0.9743935393716784 0.22484935052290733 7.2363282281605e-17 -4.1358681423540036e-17 7.2363282281605e-17 -4.1358681423540036e-17 -0.9743936828232225 0.2248487288690699
12638884000.0 -0.9723634292475504 0.23347239978589335 7.1976267641941e-17 -4.199628202812365e-17 7.1976267641941e-17 -4.199628202812365e-17 -0.9723635781932418 0.23347177945754868
12639501333.333334 -0.9702570096700779 0.24207712652359095 7.15836410384444e-17 -4.263027085047156e-17 7.15836410384444e-17 -4.263027085047156e-17 -0.9702571640976917 0.2420765075692895
12640118666.666666 -0.9680744459476162 0.2506628554514129 7.11854360942509e-17 -4.326059855013605e-17 7.11854360942509e-17 -4.326059855013605e-17 -0.9680746058444982 0.25066223791959263
12640736000.0 -0.9658159093641366 0.25922891277588195 7.078168686579698e-17 -4.3887216098970976e-17 7.078168686579698e-17 -4.3887216098970976e-17 -0.9658160747172051 0.2592282967148644
12641353333.333334 -0.9634815771658964 0.26777462624706827 7.037242783994592e-17 -4.4510074784900625e-17 7.037242783994592e-17 -4.4510074784900625e-17 -0.9634817479616418 0.26777401170505477
12641970666.666666 -0.9610716325474372 0.2762993252117048 6.995769393104389e-17 -4.5129126215719953e-17 6.995769393104389e-17 -4.5129126215719953e-17 -0.9610718087719256 0.276298712236773
12642588000.0 -0.9585862646372223 0.28480234066576354 6.95375204779616e-17 -4.574432232283746e-17 6.95375204779616e-17 -4.574432232283746e-17 -0.9585864462760929 0.2848017293058629
12643205333.333334 -0.9560256684828456 0.29328300530676565 6.911194324111019e-17 -4.635561536498119e-17 6.911194324111019e-17 -4.635561536498119e-17 -0.9560258555213167 0.293282395609715
12643822666.666666 -0.9533900450356322 0.30174065358647906 6.86809983993994e-17 -4.6962957931914276e-17 6.86809983993994e-17 -4.6962957931914276e-17 -0.9533902374584988 0.30174004559996154
12644440000.0 -0.9506796011349709 0.31017462176279403 6.824472254719618e-17 -4.7566302948073563e-17 6.824472254719618e-17 -4.7566302948073563e-17 -0.9506797989266069 0.31017401553435414
12645057333.333334 -0.9478945494920107 0.31858424795205864 6.78031526912231e-17 -4.816560367622342e-17 6.78031526912231e-17 -4.816560367622342e-17 -0.9478947526363692 0.3185836435290979
12645674666.666666 -0.9450351086730248 0.32696887218083187 6.735632624744665e-17 -4.87608137210475e-17 6.735632624744665e-17 -4.87608137210475e-17 -0.9450353171536423 0.3269682696106059
12646292000.0 -0.9421015030821707 0.335327836437947 6.690428103790283e-17 -4.9351887032756104e-17 6.690428103790283e-17 -4.9351887032756104e-17 -0.9421017168821664 0.33532723576756157
12646909333.333334 -0.9390939629439705 0.3436604847258831 6.6447055287542e-17 -4.993877791059608e-17 6.6447055287542e-17 -4.993877791059608e-17 -0.9390941820460462 0.3436598860022897
12647526666.666666 -0.9360127242852136 0.3519661631123258 6.59846876209872e-17 -5.052144100640506e-17 6.59846876209872e-17 -5.052144100640506e-17 -0.9360129486716583 0.3519655663823191
12648144000.0 -0.9328580289163683 0.3602442197816747 6.551721705930078e-17 -5.109983132808536e-17 6.551721705930078e-17 -5.109983132808536e-17 -0.9328582585690577 0.36024362509188823
12648761333.333334 -0.9296301244127201 0.3684940050858765 6.504468301670129e-17 -5.167390424307228e-17 6.504468301670129e-17 -5.167390424307228e-17 -0.9296303593131173 0.36849341248277867
12649378666.666666 -0.9263292640948657 0.37671487159562134 6.456712529726827e-17 -5.224361548175029e-17 6.456712529726827e-17 -5.224361548175029e-17 -0.9263295042240247 0.3767142811255127
12649996000.0 -0.9229557070088603 0.38490617415107176 6.408458409158593e-17 -5.28089211408773e-17 6.408458409158593e-17 -5.28089211408773e-17 -0.9229559523474276 0.3849055858600813
12650613333.333334 -0.9195097179058388 0.3930672699126271 6.359709997339259e-17 -5.3369777686934177e-17 6.359709997339259e-17 -5.3369777686934177e-17 -0.9195099684340527 0.39306668384670773
12651230666.666666 -0.9159915672213643 0.4011975184110552 6.31047138961792e-17 -5.392614195947135e-17 6.31047138961792e-17 -5.392614195947135e-17 -0.9159918229190586 0.40119693461598127
12651848000.0 -0.9124015310540112 0.40929628159822895 6.260746718976055e-17 -5.447797117441969e-17 6.260746718976055e-17 -5.447797117441969e-17 -0.9124017919006152 0.40929570011959165
12652465333.333334 -0.9087398911438811 0.4173629238967528 6.210540155682341e-17 -5.502522292736536e-17 6.210540155682341e-17 -5.502522292736536e-17 -0.9087401571184232 0.41736234477995754
12653082666.666666 -0.90500693485041 0.4253968122500527 6.159855906945649e-17 -5.556785519678035e-17 6.159855906945649e-17 -5.556785519678035e-17 -0.9050072059315163 0.4253962355403145
12653700000.0 -0.9012029551297841 0.4333973161721068 6.108698216561165e-17 -5.610582634726683e-17 6.108698216561165e-17 -5.610582634726683e-17 -0.901203231295684 0.43339674191444794
12654317333.333334 -0.8973282505120268 0.4413638077967713 6.057071364560037e-17 -5.663909513269952e-17 6.057071364560037e-17 -5.663909513269952e-17 -0.8973285317405523 0.4413632360360172
12654934666.666666 -0.8933831250775336 0.4492956619271318 6.00497966684992e-17 -5.71676206994053e-17 6.00497966684992e-17 -5.71676206994053e-17 -0.8933834113461213 0.4492950927079073
12655552000.0 -0.8893678884331694 0.457192256084644 5.952427474856878e-17 -5.769136258926477e-17 5.952427474856878e-17 -5.769136258926477e-17 -0.8893681797188622 0.45719168945137
12656169333.333334 -0.8852828556880442 0.4650529705578298 5.899419175163556e-17 -5.821028074279362e-17 5.899419175163556e-17 -5.821028074279362e-17 -0.8852831519674951 0.465052406554721
12656786666.666666 -0.8811283474287528 0.47287718845099225 5.845959189144146e-17 -5.872433550219586e-17 5.845959189144146e-17 -5.872433550219586e-17 -0.8811286486782238 0.4728766271220516
12657404000.0 -0.8769046896941701 0.48066429573269953 5.792051972596532e-17 -5.923348761438496e-17 5.792051972596532e-17 -5.923348761438496e-17 -0.8769049958895355 0.4806637371217158
12658021333.333334 -0.8726122139499446 0.4884136812838236 5.737702015373325e-17 -5.97376982339568e-17 5.737702015373325e-17 -5.97376982339568e-17 -0.872612525066694 0.48841312543436877
12658638666.666666 -0.8682512570624487 0.49612473694557696 5.682913841008867e-17 -6.023692892614403e-17 5.682913841008867e-17 -6.023692892614403e-17 -0.8682515730756871 0.49612418390100177
12659256000.0 -0.8638221612723112 0.5037968575672873 5.627692006343748e-17 -6.073114166973384e-17 5.627692006343748e-17 -6.073114166973384e-17 -0.8638224821567623 0.5037963073707178
12659873333.333334 -0.8593252741675717 0.5114294410538637 5.572041101147412e-17 -6.122029885994755e-17 5.572041101147412e-17 -6.122029885994755e-17 -0.8593255998975791 0.5114288937481988
12660490666.666666 -0.854760948656521 0.5190218884128536 5.515965747739447e-17 -6.170436331127432e-17 5.515965747739447e-17 -6.170436331127432e-17 -0.8547612792060502 0.5190213440407604
12661108000.0 -0.8501295429397407 0.526573603801889 5.4594706006038855e-17 -6.218329826031108e-17 5.4594706006038855e-17 -6.218329826031108e-17 -0.8501298782823815 0.5265730624058007
12661725333.333334 -0.8454314204823151 0.5340839945749113 5.4025603460081195e-17 -6.265706736850531e-17 5.4025603460081195e-17 -6.265706736850531e-17 -0.845431760591286 0.5340834561970245
12662342666.666666 -0.8406669499850311 0.5415524713291459 5.345239701612178e-17 -6.312563472492621e-17 5.345239701612178e-17 -6.312563472492621e-17 -0.8406672948331759 0.541551936011414
12662960000.0 -0.8358365053556132 0.5489784479510605 5.2875134160812934e-17 -6.358896484895117e-17 5.2875134160812934e-17 -6.358896484895117e-17 -0.8358368549154088 0.5489779157351947
12663577333.333334 -0.830940465679329 0.5563613416624664 5.229386268692277e-17 -6.404702269295081e-17 5.229386268692277e-17 -6.404702269295081e-17 -0.8309408199228837 0.5563608125899292
12664194666.666666 -0.8259792151891862 0.5637005730663196 5.1708630689405877e-17 -6.449977364491212e-17 5.1708630689405877e-17 -6.449977364491212e-17 -0.825979574088244 0.5637000471783229
12664812000.0 -0.8209531432358887 0.5709955661920261 5.111948656142283e-17 -6.494718353104999e-17 5.111948656142283e-17 -6.494718353104999e-17 -0.8209535067618334 0.5709950435295295
12665429333.333334 -0.815862644257145 0.5782457485408592 5.0526478990364516e-17 -6.538921861836028e-17 5.0526478990364516e-17 -6.538921861836028e-17 -0.8158630123809956 0.5782452291445623
12666046666.666666 -0.810708117746913 0.5854505511305783 4.9929656953836496e-17 -6.582584561715177e-17 4.9929656953836496e-17 -6.582584561715177e-17 -0.8107084904393332 0.5854500350409226
12666664000.0 -0.8054899682237436 0.5926094085405265 4.9329069715620925e-17 -6.625703168354054e-17 4.9329069715620925e-17 -6.625703168354054e-17 -0.8054903454550421 0.5926088957976897
12667281333.333334 -0.8002086051993988 0.5997217589554954 4.872476682163487e-17 -6.668274442189623e-17 4.872476682163487e-17 -6.668274442189623e-17 -0.8002089869395299 0.5997212495993884
12667898666.666666 -0.7948644431464116 0.6067870442102283 4.811679809585201e-17 -6.710295188726189e-17 4.811679809585201e-17 -6.710295188726189e-17 -0.7948648293649783 0.6067865382804924
12668516000.0 -0.7894579014656931 0.6138047098330414 4.750521363619239e-17 -6.751762258774518e-17 4.750521363619239e-17 -6.751762258774518e-17 -0.7894582921319514 0.6138042073690455
12669133333.333334 -0.7839894044536372 0.620774205089315 4.689006381043969e-17 -6.792672548683854e-17 4.689006381043969e-17 -6.792672548683854e-17 -0.7839897995364962 0.6207737061301519
12669750666.666666 -0.7784593812687891 0.6276949830247611 4.627139925207141e-17 -6.833023000574934e-17 4.627139925207141e-17 -6.833023000574934e-17 -0.7784597807368137 0.6276944876092442
12670368000.0 -0.7728682658980912 0.6345665005084327 4.564927085612688e-17 -6.872810602565183e-17 4.564927085612688e-17 -6.872810602565183e-17 -0.7728686697195065 0.6345660086750947
