! Parameters = {f0=12700.012000; bw=77.238000; Q=6100.000000; N=10; m_0_1=1.156652; m_1_1=-1.414971; m_1_2=0.991464; m_2_2=-1.415620; m_2_3=0.628427; m_2_8=-0.005104; m_2_9=0.031600; m_3_3=-1.417557; m_3_4=0.516956; m_3_7=-0.004504; m_3_8=-0.101592; m_3_9=-0.005104; m_4_4=-1.420482; m_4_5=0.353291; m_4_6=-0.000987; m_4_7=-0.122141; m_4_8=-0.004504; m_5_5=-1.420100; m_5_6=0.760646; m_5_7=-0.000987; m_6_6=-1.420101; m_6_7=0.353633; m_7_7=-1.420468; m_7_8=0.517074; m_8_8=-1.417559; m_8_9=0.628740; m_9_9=-1.415625; m_9_10=0.992542; m_10_10=-1.414981; m_10_11=1.157447}
!
! Created with skrf (http://scikit-rf.org).
# Hz S RI R 50.0 
!freq ReS11 ImS11 ReS21 ImS21 ReS12 ImS12 ReS22 ImS22
12607400000.0 0.9917028968062661 0.12855101892211485 -6.19382087247301e-17 9.938453010320613e-18 -6.19382087247301e-17 9.938453010320613e-18 0.9917028184435471 0.1285516234474636
12608017333.333334 0.9925993602418789 0.12143520925690021 -6.185229753981948e-17 1.0385870674294895e-17 -6.185229753981948e-17 1.0385870674294895e-17 0.9925992862204623 0.12143581429908577
12608634666.666666 0.9934447659603878 0.11431315316167294 -6.176315811332383e-17 1.0832565354539289e-17 -6.176315811332383e-17 1.0832565354539289e-17 0.9934446962836565 0.11431375868952393
12609252000.0 0.994239070475524 0.10718521698359298 -6.167079640920073e-17 1.1278513785587234e-17 -6.167079640920073e-17 1.1278513785587234e-17 0.9942390051466361 0.10718582296591593
12609869333.333334 0.9949822329295931 0.10005176737216849 -6.157521855888006e-17 1.1723692750415115e-17 -6.157521855888006e-17 1.1723692750415115e-17 0.9949821719514833 0.1000523737777497
12610486666.666666 0.9956742150955468 0.09291317126070729 -6.147643086087628e-17 1.2168079081642818e-17 -6.147643086087628e-17 1.2168079081642818e-17 0.9956741584709244 0.09291377805831419
12611104000.0 0.9963149813789867 0.0857697958470462 -6.1374439780389e-17 1.2611649662743436e-17 -6.1374439780389e-17 1.2611649662743436e-17 0.9963149291103391 0.08577040300542935
12611721333.333334 0.9969044988199679 0.07862200857497442 -6.126925194890138e-17 1.3054381429221958e-17 -6.126925194890138e-17 1.3054381429221958e-17 0.9969044509095567 0.07862261606286872
12612338666.666666 0.9974427370947037 0.07147017711521951 -6.116087416376082e-17 1.3496251369832553e-17 -6.116087416376082e-17 1.3496251369832553e-17 0.9974426935445663 0.07147078490134605
12612956000.0 0.9979296685171309 0.06431466934645001 -6.104931338775788e-17 1.393723652775943e-17 -6.104931338775788e-17 1.393723652775943e-17 0.9979296293290806 0.06431527739951755
12613573333.333334 0.9983652680403242 0.05715585333652236 -6.09345767486975e-17 1.4377314001794548e-17 -6.09345767486975e-17 1.4377314001794548e-17 0.9983652332159495 0.057156461625229034
12614190666.666666 0.9987495132577887 0.04999409732343469 -6.081667153895337e-17 1.4816460947544737e-17 -6.081667153895337e-17 1.4816460947544737e-17 0.9987494827984533 0.04999470581646955
12614808000.0 0.9990823844046111 0.042829769696442005 -6.069560521502426e-17 1.5254654578592102e-17 -6.069560521502426e-17 1.5254654578592102e-17 0.9990823583114554 0.042830378362486723
12615425333.333334 0.9993638643584849 0.03566323897699341 -6.057138539707342e-17 1.5691872167687288e-17 -6.057138539707342e-17 1.5691872167687288e-17 0.9993638426324224 0.035663847784723736
12616042666.666666 0.9995939386405753 0.028494873799945985 -6.044401986846571e-17 1.6128091047911433e-17 -6.044401986846571e-17 1.6128091047911433e-17 0.9995939212822973 0.028495482718033524
12616660000.0 0.9997725954162782 0.021325042894517997 -6.031351657529257e-17 1.6563288613851835e-17 -6.031351657529257e-17 1.6563288613851835e-17 0.9997725824262489 0.02132565189163168
12617277333.333334 0.9998998254958213 0.014154115065208108 -6.01798836258879e-17 1.6997442322775554e-17 -6.01798836258879e-17 1.6997442322775554e-17 0.999899816874282 0.014154724110015914
12617894666.666666 0.9999756223347396 0.006982459173137426 -6.00431292903426e-17 1.7430529695773614e-17 -6.00431292903426e-17 1.7430529695773614e-17 0.9999756180817051 0.006983068234307923
12618512000.0 0.9999999820342101 -0.0001895558833220795 -5.990326199999839e-17 1.786252831894397e-17 -5.990326199999839e-17 1.786252831894397e-17 0.9999999821494732 -0.00018894683711807874
12619129333.333334 0.9999729033412561 -0.007361561187210445 -5.976029034694666e-17 1.829341584452826e-17 -5.976029034694666e-17 1.829341584452826e-17 0.9999729078243818 -0.007360952187298301
12619746666.666666 0.9998943876488062 -0.014533187822069903 -5.961422308351051e-17 1.872316999206985e-17 -5.961422308351051e-17 1.872316999206985e-17 0.999894396499138 -0.014532578899769544
12620364000.0 0.9997644389956281 -0.021704066891006648 -5.946506912171918e-17 1.9151768549566282e-17 -5.946506912171918e-17 1.9151768549566282e-17 0.999764452212283 -0.02170345807763093
12620981333.333334 0.9995830640661175 -0.028873829535495728 -5.931283753277975e-17 1.9579189374602528e-17 -5.931283753277975e-17 1.9579189374602528e-17 0.9995830816479876 -0.02887322086234883
12621598666.666666 0.9993502721899546 -0.03604210695446826 -5.915753754653446e-17 2.0005410395496904e-17 -5.915753754653446e-17 2.0005410395496904e-17 0.9993502941357084 -0.03604149845284408
12622216000.0 0.999066075341626 -0.04320853042322506 -5.899917855091357e-17 2.043040961243272e-17 -5.899917855091357e-17 2.043040961243272e-17 0.999066101649708 -0.04320792212440564
12622833333.333334 0.998730488139802 -0.05037273131254531 -5.883777009137607e-17 2.085416509859752e-17 -5.883777009137607e-17 2.085416509859752e-17 0.9987305188084332 -0.050372123247799244
12623450666.666666 0.9983435278466002 -0.05753434110736439 -5.867332187035182e-17 2.12766550012912e-17 -5.867332187035182e-17 2.12766550012912e-17 0.9983435628737756 -0.057533733307945076
12624068000.0 0.9979052143666826 -0.06469299142595666 -5.850584374666098e-17 2.1697857543069877e-17 -5.850584374666098e-17 2.1697857543069877e-17 0.9979052537501742 -0.06469238392310085
12624685333.333334 0.9974155702462274 -0.07184831403899797 -5.83353457349371e-17 2.2117751022853595e-17 -5.83353457349371e-17 2.2117751022853595e-17 0.9974156139835836 -0.0718477068639241
12625302666.666666 0.9968746206717961 -0.07899994088805291 -5.816183800504255e-17 2.2536313817029828e-17 -5.816183800504255e-17 2.2536313817029828e-17 0.9968746687603413 -0.07899933407195947
12625920000.0 0.9962823934690049 -0.08614750410501758 -5.798533088146362e-17 2.2953524380583704e-17 -5.798533088146362e-17 2.2953524380583704e-17 0.99628244590584 -0.08614689767908161
12626537333.333334 0.9956389191011149 -0.09329063603073035 -5.780583484271335e-17 2.336936124818413e-17 -5.780583484271335e-17 2.336936124818413e-17 0.9956389758831169 -0.09329003002610566
12627154666.666666 0.9949442306674652 -0.10042896923388352 -5.762336052071654e-17 2.3783803035289962e-17 -5.762336052071654e-17 2.3783803035289962e-17 0.9949442917912893 -0.10042836368169938
12627772000.0 0.9941983639017502 -0.10756213653017851 -5.74379187001869e-17 2.4196828439251396e-17 -5.74379187001869e-17 2.4196828439251396e-17 0.994198429363828 -0.1075615314615378
12628389333.333334 0.9934013571702098 -0.1146897710009019 -5.724952031800708e-17 2.4608416240382407e-17 -5.724952031800708e-17 2.4608416240382407e-17 0.993401426966749 -0.11468916644687946
12629006666.666666 0.9925532514696274 -0.12181150601205319 -5.705817646258324e-17 2.5018545303066966e-17 -5.705817646258324e-17 2.5018545303066966e-17 0.9925533255966147 -0.12181090200369454
12629624000.0 0.9916540904252453 -0.12892697523300656 -5.686389837320733e-17 2.5427194576828544e-17 -5.686389837320733e-17 2.5427194576828544e-17 0.991654168878445 -0.1289263718013261
12630241333.333334 0.9907039202885094 -0.13603581265546735 -5.666669743940616e-17 2.583434309740384e-17 -5.666669743940616e-17 2.583434309740384e-17 0.990704003063462 -0.1360352098314466
12630858666.666666 0.9897027899346907 -0.1431376526122419 -5.64665852002816e-17 2.6239969987816883e-17 -5.64665852002816e-17 2.6239969987816883e-17 0.9897028770267174 -0.1431370504268284
12631476000.0 0.9886507508603651 -0.15023212979616035 -5.626357334384087e-17 2.6644054459450962e-17 -5.626357334384087e-17 2.6644054459450962e-17 0.9886508422645632 -0.15023152828026548
12632093333.333334 0.9875478571807751 -0.15731887927872598 -5.605767370633032e-17 2.7046575813093215e-17 -5.605767370633032e-17 2.7046575813093215e-17 0.9875479528920214 -0.15731827846322374
12632710666.666666 0.9863941656270565 -0.16439753652885894 -5.58488982715473e-17 2.744751344000465e-17 -5.58488982715473e-17 2.744751344000465e-17 0.9863942656400075 -0.16439693644458436
12633328000.0 0.9851897355432856 -0.17146773743187196 -5.563725917015139e-17 2.784684682296847e-17 -5.563725917015139e-17 2.784684682296847e-17 0.9851898398523765 -0.1714671381096195
12633945333.333334 0.9839346288834498 -0.17852911830803095 -5.5422768678972946e-17 2.8244555537325885e-17 -5.5422768678972946e-17 2.8244555537325885e-17 0.9839347374828951 -0.1785285197785527
12634562666.666666 0.9826289102082666 -0.1855813159312341 -5.520543922030302e-17 2.864061925202847e-17 -5.520543922030302e-17 2.864061925202847e-17 0.9826290230920613 -0.1855807182252385
12635180000.0 0.9812726466818513 -0.19262396754778024 -5.4985283361187346e-17 2.903501773066148e-17 -5.4985283361187346e-17 2.903501773066148e-17 0.9812727638437709 -0.19262337069593047
12635797333.333334 0.9798659080682645 -0.199656710895 -5.47623138127047e-17 2.942773083247922e-17 -5.47623138127047e-17 2.942773083247922e-17 0.9798660295018635 -0.199656114927912
12636414666.666666 0.978408766727923 -0.20667918421988968 -5.453654342924185e-17 2.981873851342718e-17 -5.453654342924185e-17 2.981873851342718e-17 0.9784088924265384 -0.2066785891681311
12637032000.0 0.9769012976138859 -0.2136910262976921 -5.430798520776104e-17 3.0208020827158445e-17 -5.430798520776104e-17 3.0208020827158445e-17 0.9769014275706351 -0.2136904321917804
12637649333.333334 0.9753435782679724 -0.2206918764505877 -5.407665228705615e-17 3.059555792605248e-17 -5.407665228705615e-17 3.059555792605248e-17 0.9753437124757554 -0.22069128332098903
12638266666.666666 0.9737356888168129 -0.22768137456608173 -5.384255794701063e-17 3.0981330062212974e-17 -5.384255794701063e-17 3.0981330062212974e-17 0.9737358272683114 -0.22768078244320883
12638884000.0 0.9720777119677005 -0.23465916111563803 -5.3605715607839685e-17 3.1365317588473595e-17 -5.3605715607839685e-17 3.1365317588473595e-17 0.9720778546553772 -0.23465857002984863
12639501333.333334 0.9703697330043418 -0.24162487717314488 -5.3366138829325206e-17 3.174750095939984e-17 -5.3366138829325206e-17 3.174750095939984e-17 0.9703698799204445 -0.24162428715474085
12640118666.666666 0.9686118397824877 -0.24857816443332284 -5.3123841310057706e-17 3.212786073226073e-17 -5.3123841310057706e-17 3.212786073226073e-17 0.9686119909190462 -0.24857757551254792
12640736000.0 0.966804122725347 -0.25551866523040306 -5.287883688664287e-17 3.250637756804145e-17 -5.287883688664287e-17 3.250637756804145e-17 0.9668042780741758 -0.25551807743744187
12641353333.333334 0.9649466748190524 -0.2624460225560848 -5.2631139532938374e-17 3.2883032232390173e-17 -5.2631139532938374e-17 3.2883032232390173e-17 0.9649468343717486 -0.2624454359210606
12641970666.666666 0.9630395916077735 -0.2693598800782842 -5.2380763359249995e-17 3.3257805596612813e-17 -5.2380763359249995e-17 3.3257805596612813e-17 0.9630397553557203 -0.2693592946312581
12642588000.0 0.9610829711888569 -0.27625988215927155 -5.2127722611541443e-17 3.363067863862892e-17 -5.2127722611541443e-17 3.363067863862892e-17 0.9610831391232212 -0.2762592979302403
12643205333.333334 0.9590769142077459 -0.28314567387407347 -5.187203167062751e-17 3.400163244393824e-17 -5.187203167062751e-17 3.400163244393824e-17 0.9590770863194821 -0.28314509089296874
12643822666.666666 0.9570215238528219 -0.2900169010286759 -5.1613705051365076e-17 3.4370648206571834e-17 -5.1613705051365076e-17 3.4370648206571834e-17 0.9570217001326692 -0.29001631932536187
12644440000.0 0.9549169058501037 -0.29687321017821544 -5.1352757401838526e-17 3.473770723003763e-17 -5.1352757401838526e-17 3.473770723003763e-17 0.9549170862885871 -0.2968726297824875
12645057333.333334 0.9527631684578163 -0.3037142486451327 -5.108920350253203e-17 3.5102790928268395e-17 -5.108920350253203e-17 3.5102790928268395e-17 0.952763353045249 -0.30371366958671653
12645674666.666666 0.950560422460792 -0.3105396645374231 -5.0823058265506127e-17 3.546588082654752e-17 -5.0823058265506127e-17 3.546588082654752e-17 0.950560611187274 -0.3105390868459723
12646292000.0 0.9483087811647687 -0.3173491067667366 -5.055433673354557e-17 3.5826958562460406e-17 -5.055433673354557e-17 3.5826958562460406e-17 0.9483089740201891 -0.3173485304718319
12646909333.333334 0.9460083603906055 -0.3241422250663019 -5.028305407933632e-17 3.618600588678917e-17 -5.028305407933632e-17 3.618600588678917e-17 0.9460085573646408 -0.324141650197449
12647526666.666666 0.9436592784683 -0.33091867000902503 -5.0009225604602056e-17 3.6543004664448436e-17 -5.0009225604602056e-17 3.6543004664448436e-17 0.9436594795504171 -0.3309180965956538
12648144000.0 0.9412616562308729 -0.33767809302554425 -4.9732866739245664e-17 3.689793687539888e-17 -4.9732866739245664e-17 3.689793687539888e-17 0.9412618614103277 -0.3376775210970065
12648761333.333334 0.9388156170082088 -0.34442014642199775 -4.9453993040496705e-17 3.725078461553745e-17 -4.9453993040496705e-17 3.725078461553745e-17 0.9388158262740477 -0.3444195760075661
12649378666.666666 0.9363212866206742 -0.3511444833980166 -4.917262019203906e-17 3.760153009759948e-17 -4.917262019203906e-17 3.760153009759948e-17 0.9363214999617342 -0.35114391452688315
12649996000.0 0.9337787933726546 -0.3578507580645365 -4.8888764003126906e-17 3.7950155652061395e-17 -4.8888764003126906e-17 3.7950155652061395e-17 0.9337790107775646 -0.35785019076581076
12650613333.333334 0.9311882680459569 -0.3645386254615899 -4.8602440407713405e-17 3.829664372801146e-17 -4.8602440407713405e-17 3.829664372801146e-17 0.931188489503138 -0.36453805976429804
12651230666.666666 0.9285498438930904 -0.3712077415760238 -4.831366546355842e-17 3.8640976894033735e-17 -4.831366546355842e-17 3.8640976894033735e-17 0.9285500693907556 -0.3712071775091065
12651848000.0 0.9258636566303712 -0.3778577633593005 -4.802245535133088e-17 3.898313783908364e-17 -4.802245535133088e-17 3.898313783908364e-17 0.9258638861565277 -0.3778572009516118
12652465333.333334 0.9231298444310032 -0.3844883487449848 -4.772882637371506e-17 3.932310937334486e-17 -4.772882637371506e-17 3.932310937334486e-17 0.9231300779734527 -0.3844877880252912
12653082666.666666 0.9203485479179443 -0.39109915666642076 -4.743279495450091e-17 3.966087442909159e-17 -4.743279495450091e-17 3.966087442909159e-17 0.9203487854642814 -0.39109859766339816
12653700000.0 0.917519910156621 -0.3976898470743773 -4.713437763766678e-17 3.9996416061545285e-17 -4.713437763766678e-17 3.9996416061545285e-17 0.9175201516942363 -0.39768928981661084
12654317333.333334 0.9146440766476951 -0.4042600809542528 -4.6833591086473715e-17 4.032971744970466e-17 -4.6833591086473715e-17 4.032971744970466e-17 0.9146443221637764 -0.4042595254702358
12654934666.666666 0.9117211953194382 -0.4108095203438561 -4.65304520825263e-17 4.0660761897201e-17 -4.65304520825263e-17 4.0660761897201e-17 0.9117214448009685 -0.4108089666619869
12655552000.0 0.9087514165201814 -0.41733782835062905 -4.622497752484879e-17 4.098953283312055e-17 -4.622497752484879e-17 4.098953283312055e-17 0.9087516699539406 -0.4173372764992106
12656169333.333334 0.9057348930106569 -0.4238446691688236 -4.591718442895665e-17 4.131601381282121e-17 -4.591718442895665e-17 4.131601381282121e-17 0.9057351503832244 -0.4238441191760626
12656786666.666666 0.9026717799559867 -0.43032970809711074 -4.560708992589916e-17 4.164018851876629e-17 -4.560708992589916e-17 4.164018851876629e-17 0.902672041253741 -0.43032915999111554
12657404000.0 0.8995622349178344 -0.43679261155551413 -4.5294711261324894e-17 4.196204076132011e-17 -4.5294711261324894e-17 4.196204076132011e-17 0.8995625001269508 -0.4367920653642923
12658021333.333334 0.8964064178462328 -0.44323304710269434 -4.498006579452252e-17 4.2281554479557545e-17 -4.498006579452252e-17 4.2281554479557545e-17 0.8964066869526899 -0.4432325028541535
12658638666.666666 0.8932044910713914 -0.44965068345300274 -4.466317099746465e-17 4.259871374205741e-17 -4.466317099746465e-17 4.259871374205741e-17 0.8932047640609656 -0.44965014117494645
12659256000.0 0.889956619295285 -0.45604519049361886 -4.434404445383804e-17 4.29135027476959e-17 -4.434404445383804e-17 4.29135027476959e-17 0.8899568961535576 -0.45604465021374835
12659873333.333334 0.8866629695832687 -0.4624162393013835 -4.4022703858081554e-17 4.32259058264209e-17 -4.4022703858081554e-17 4.32259058264209e-17 0.8866632502956209 -0.462415701047293
12660490666.666666 0.8833237113554369 -0.46876350215978996 -4.369916701440697e-17 4.3535907440030114e-17 -4.369916701440697e-17 4.3535907440030114e-17 0.8833239959070545 -0.46876296595896777
12661108000.0 0.8799390163778619 -0.4750866525759448 -4.3373451835814337e-17 4.3843492182941556e-17 -4.3373451835814337e-17 4.3843492182941556e-17 0.8799393047537337 -0.4750861184557703
12661725333.333334 0.8765090587539006 -0.48138536529708364 -4.3045576343113585e-17 4.4148644782946325e-17 -4.3045576343113585e-17 4.4148644782946325e-17 0.8765093509388212 -0.48138483328482706
12662342666.666666 0.8730340149150545 -0.48765931632765425 -4.2715558663928e-17 4.4451350101965816e-17 -4.2715558663928e-17 4.4451350101965816e-17 0.8730343108936236 -0.4876587864504745
12662960000.0 0.8695140636120416 -0.4939081829457064 -4.2383417031700106e-17 4.4751593136794416e-17 -4.2383417031700106e-17 4.4751593136794416e-17 0.8695143633686654 -0.49390765523065
12663577333.333334 0.8659493859055467 -0.5001316437195921 -4.2049169784684905e-17 4.5049359019842234e-17 -4.2049169784684905e-17 4.5049359019842234e-17 0.8659496894244385 -0.5001311181935917
12664194666.666666 0.8623401651568675 -0.5063293785245742 -4.171283536495042e-17 4.5344633019858004e-17 -4.171283536495042e-17 4.5344633019858004e-17 0.8623404724220486 -0.5063288552144471
12664812000.0 0.8586865870185646 -0.5125010685591432 -4.137443231736198e-17 4.5637400542655704e-17 -4.137443231736198e-17 4.5637400542655704e-17 0.8586868980138652 -0.5125005474915905
12665429333.333334 0.8549888394248588 -0.5186463963615177 -4.103397928855991e-17 4.59276471318345e-17 -4.103397928855991e-17 4.59276471318345e-17 0.8549891541339185 -0.5186458775631219
12666046666.666666 0.8512471125819896 -0.5247650458259214 -4.069149502595197e-17 4.621535846947383e-17 -4.069149502595197e-17 4.621535846947383e-17 0.8512474309882594 -0.5247645293231463
12666664000.0 0.8474615989583586 -0.5308567022189667 -4.034699837666788e-17 4.6500520376849636e-17 -4.034699837666788e-17 4.6500520376849636e-17 0.8474619210451005 -0.5308561880381556
12667281333.333334 0.8436324932747951 -0.5369210521955788 -4.000050828654245e-17 4.678311881511478e-17 -4.000050828654245e-17 4.678311881511478e-17 0.8436328190250835 -0.5369205403629523
12667898666.666666 0.8397599924943421 -0.5429577838154249 -3.965204379907333e-17 4.7063139885988136e-17 -3.965204379907333e-17 4.7063139885988136e-17 0.8397603218910642 -0.5429572743570804
12668516000.0 0.8358442958122149 -0.5489665865588156 -3.9301624054375924e-17 4.7340569832435644e-17 -3.9301624054375924e-17 4.7340569832435644e-17 0.8358446288380731 -0.5489660795007267
12669133333.333334 0.8318856046456502 -0.5549471513425368 -3.8949268288145506e-17 4.761539503933319e-17 -3.8949268288145506e-17 4.761539503933319e-17 0.8318859412831606 -0.5549466467105498
12669750666.666666 0.8278841226233419 -0.560899170536055 -3.8594995830602404e-17 4.788760203413169e-17 -3.8594995830602404e-17 4.788760203413169e-17 0.8278844628548381 -0.5608986683558905
12670368000.0 0.8238400555751233 -0.5668223379771062 -3.8238826105431583e-17 4.81571774875158e-17 -3.8238826105431583e-17 4.81571774875158e-17 0.8238403993827543 -0.5668218382743548
