! Parameters = {f0=12700.012000; bw=77.238000; Q=6100.000000; N=10; m_0_1=1.302397; m_1_1=0.771215; m_1_2=1.137209; m_2_2=0.770566; m_2_3=0.774172; m_2_8=0.002184; m_2_9=0.038888; m_3_3=0.768629; m_3_4=0.662701; m_3_7=0.002784; m_3_8=-0.094304; m_3_9=0.002184; m_4_4=0.765704; m_4_5=0.499036; m_4_6=0.006301; m_4_7=-0.114853; m_4_8=0.002784; m_5_5=0.766086; m_5_6=0.906391; m_5_7=0.006301; m_6_6=0.766085; m_6_7=0.499378; m_7_7=0.765718; m_7_8=0.662819; m_8_8=0.768627; m_8_9=0.774485; m_9_9=0.770561; m_9_10=1.138287; m_10_10=0.771205; m_10_11=1.303192}
!
! Created with skrf (http://scikit-rf.org).
# Hz S RI R 50.0 
!freq ReS11 ImS11 ReS21 ImS21 ReS12 ImS12 ReS22 ImS22
12607400000.0 0.9990703754280095 0.043108989108442 -1.247123406848165e-16 3.1165899984433884e-17 -1.247123406848165e-16 3.1165899984433884e-17 0.9990703458498404 0.04310967459045095
12608017333.333334 0.9994994446602143 0.03163637342898794 -1.243190838391421e-16 3.260024254925279e-17 -1.243190838391421e-16 3.260024254925279e-17 0.9994994229546974 0.031637059171818714
12608634666.666666 0.9997967748571311 0.020159587919709128 -1.239093406552205e-16 3.4029659853094465e-17 -1.239093406552205e-16 3.4029659853094465e-17 0.9997967610263568 0.020160273832956283
12609252000.0 0.9999623268292464 0.008680145278389624 -1.234831724259761e-16 3.545396252201021e-17 -1.234831724259761e-16 3.545396252201021e-17 0.9999623208742655 0.008680831271634075
12609869333.333334 0.9999960787560701 -0.0028004414469082377 -1.230406426182249e-16 3.6872961940608013e-17 -1.230406426182249e-16 3.6872961940608013e-17 0.9999960806768972 -0.0027997554640872453
12610486666.666666 0.9998980261890237 -0.014280659057242585 -1.2258181686333416e-16 3.828647027698818e-17 -1.2258181686333416e-16 3.828647027698818e-17 0.9998980359846341 -0.014279973175255579
12611104000.0 0.9996681820520172 -0.025758994402523445 -1.2210676294758182e-16 3.9694300507601843e-17 -1.2210676294758182e-16 3.9694300507601843e-17 0.9996681997203494 -0.025758308711758816
12611721333.333334 0.9993065766397544 -0.03723393458055569 -1.2161555080226062e-16 4.1096266441905187e-17 -1.2161555080226062e-16 4.1096266441905187e-17 0.9993066021777087 -0.03723324917136776
12612338666.666666 0.9988132576137355 -0.0487039671367029 -1.211082524934661e-16 4.249218274699318e-17 -1.211082524934661e-16 4.249218274699318e-17 0.9988132910171754 -0.048703282099400044
12612956000.0 0.9981882899959649 -0.060167580263349826 -1.2058494221162463e-16 4.3881864972039116e-17 -1.2058494221162463e-16 4.3881864972039116e-17 0.9981883312597184 -0.060166895688182585
12613573333.333334 0.997431756160404 -0.07162326299874054 -1.20045696260743e-16 4.5265129572611033e-17 -1.20045696260743e-16 4.5265129572611033e-17 0.997431805278264 -0.07162257897588974
12614190666.666666 0.9965437558220945 -0.0830695054265281 -1.1949059304736138e-16 4.6641793934901393e-17 -1.1949059304736138e-16 4.6641793934901393e-17 0.9965438127868183 -0.08306882204609292
12614808000.0 0.9955244060240256 -0.09450479887459057 -1.1891971306924136e-16 4.8011676399791944e-17 -1.1891971306924136e-16 4.8011676399791944e-17 0.9955244708273363 -0.09450411622657658
12615425333.333334 0.9943738411216924 -0.10592763611402276 -1.1833313890378355e-16 4.9374596286768024e-17 -1.1833313890378355e-16 4.9374596286768024e-17 0.9943739137542837 -0.10592695428833049
12616042666.666666 0.993092212765412 -0.11733651155762762 -1.1773095519616036e-16 5.0730373917723286e-17 -1.1773095519616036e-16 5.0730373917723286e-17 0.9930922932169435 -0.11733583064404006
12616660000.0 0.9916796898803116 -0.1287299214584721 -1.1711324864718394e-16 5.2078830640600274e-17 -1.1711324864718394e-16 5.2078830640600274e-17 0.9916797781394154 -0.1287292415466435
12617277333.333334 0.990136458644073 -0.14010636410808947 -1.164801080008947e-16 5.341978885290842e-17 -1.164801080008947e-16 5.341978885290842e-17 0.9901365546983533 -0.14010568528753337
12617894666.666666 0.9884627224624137 -0.15146434003424294 -1.1583162403190445e-16 5.475307202503883e-17 -1.1583162403190445e-16 5.475307202503883e-17 0.9884628262984472 -0.15146366239431996
12618512000.0 0.9866587019422127 -0.16280235219898498 -1.1516788953243373e-16 5.607850472351264e-17 -1.1516788953243373e-16 5.607850472351264e-17 0.9866588135455534 -0.16280167582889174
12619129333.333334 0.9847246348625223 -0.17411890619541276 -1.144889992991308e-16 5.739591263397497e-17 -1.144889992991308e-16 5.739591263397497e-17 0.9847247542177003 -0.1741182311841695
12619746666.666666 0.9826607761431639 -0.18541251044503174 -1.1379505011959028e-16 5.870512258410878e-17 -1.1379505011959028e-16 5.870512258410878e-17 0.9826609032336909 -0.18541183688147111
12620364000.0 0.9804673978111332 -0.1966816763943246 -1.1308614075861643e-16 6.000596256636999e-17 -1.1308614075861643e-16 6.000596256636999e-17 0.9804675326195003 -0.19668100436707942
12620981333.333334 0.9781447889647852 -0.20792491871069763 -1.1236237194426172e-16 6.129826176049739e-17 -1.1236237194426172e-16 6.129826176049739e-17 0.9781449314724728 -0.20792424830819045
12621598666.666666 0.9756932557356964 -0.21914075547850909 -1.116238463535578e-16 6.258185055594784e-17 -1.116238463535578e-16 6.258185055594784e-17 0.9756934059231674 -0.21914008678893862
12622216000.0 0.9731131212483038 -0.2303277083943615 -1.1087066859802755e-16 6.385656057409356e-17 -1.1087066859802755e-16 6.385656057409356e-17 0.9731132790950132 -0.23032704150569272
12622833333.333334 0.9704047255773484 -0.24148430296184067 -1.1010294520892104e-16 6.512222469028724e-17 -1.1010294520892104e-16 6.512222469028724e-17 0.9704048910617425 -0.2414836379617923
12623450666.666666 0.9675684257030489 -0.2526090686858608 -1.0932078462222955e-16 6.637867705570043e-17 -1.0932078462222955e-16 6.637867705570043e-17 0.9675685988025706 -0.2526084056618943
12624068000.0 0.9646045954640289 -0.26370053926659504 -1.0852429716341629e-16 6.762575311904259e-17 -1.0852429716341629e-16 6.762575311904259e-17 0.9646047761551185 -0.2636998783059026
12624685333.333334 0.9615136255080249 -0.27475725279276575 -1.0771359503191514e-16 6.886328964806887e-17 -1.0771359503191514e-16 6.886328964806887e-17 0.9615138137661269 -0.27475659398225966
12625302666.666666 0.958295923240491 -0.2857777519340335 -1.0688879228540881e-16 7.009112475087075e-17 -1.0688879228540881e-16 7.009112475087075e-17 0.9582961190400521 -0.28577709536033347
12625920000.0 0.9549519127707424 -0.29676058413359674 -1.0605000482380315e-16 7.130909789706941e-17 -1.0605000482380315e-16 7.130909789706941e-17 0.95495211608522 -0.29675992988301975
12626537333.333334 0.9514820348562241 -0.3077043017991031 -1.0519735037304065e-16 7.251704993870104e-17 -1.0519735037304065e-16 7.251704993870104e-17 0.9514822456580858 -0.3077036499576511
12627154666.666666 0.9478867468443304 -0.31860746249372 -1.0433094846861519e-16 7.371482313099963e-17 -1.0433094846861519e-16 7.371482313099963e-17 0.9478869651050609 -0.3186068131470691
12627772000.0 0.9441665226120822 -0.3294686291263913 -1.0345092043886018e-16 7.490226115296807e-17 -1.0345092043886018e-16 7.490226115296807e-17 0.9441667483021864 -0.3294679823598808
12628389333.333334 0.9403218525038015 -0.3402863701408473 -1.025573893880466e-16 7.60792091276923e-17 -1.025573893880466e-16 7.60792091276923e-17 0.9403220855928078 -0.340285726039468
12629006666.666666 0.9363532432663064 -0.35105925970480306 -1.0165048017917708e-16 7.724551364255386e-17 -1.0165048017917708e-16 7.724551364255386e-17 0.9363534837227699 -0.35105861835318586
12629624000.0 0.932261217982277 -0.3617858778974327 -1.0073031941662898e-16 7.840102276913357e-17 -1.0073031941662898e-16 7.840102276913357e-17 0.9322614657737863 -0.3617852393798382
12630241333.333334 0.9280463160012183 -0.37246481089679134 -9.979703542851301e-17 7.954558608298751e-17 -9.979703542851301e-17 7.954558608298751e-17 0.9280465710943973 -0.3724641752970979
12630858666.666666 0.9237090928684495 -0.3830946511659501 -9.885075824884775e-17 8.067905468316233e-17 -9.885075824884775e-17 8.067905468316233e-17 0.9237093552289645 -0.3830940185676441
12631476000.0 0.9192501202517248 -0.3936739976389138 -9.789161959946035e-17 8.180128121156378e-17 -9.789161959946035e-17 8.180128121156378e-17 0.9192503898442863 -0.39367336812507725
12632093333.333334 0.9146699858660857 -0.404201455904787 -9.69197528717471e-17 8.29121198720161e-17 -9.69197528717471e-17 8.29121198720161e-17 0.9146702626544547 -0.40420082955808745
12632710666.666666 0.9099692933962915 -0.41467563839182864 -9.593529310815085e-17 8.401142644918645e-17 -9.593529310815085e-17 8.401142644918645e-17 0.9099695773432842 -0.41467501529450784
12633328000.0 0.9051486624172007 -0.42509516455044244 -9.493837698344007e-17 8.509905832726995e-17 -9.493837698344007e-17 8.509905832726995e-17 0.9051489534846947 -0.4250945447843067
12633945333.333334 0.9002087283122169 -0.4354586610349094 -9.392914278579697e-17 8.617487450843238e-17 -9.392914278579697e-17 8.617487450843238e-17 0.9002090264611543 -0.43545804468131755
12634562666.666666 0.895150142189492 -0.4457647618845036 -9.290773039768657e-17 8.723873563103943e-17 -9.290773039768657e-17 8.723873563103943e-17 0.8951504473798841 -0.4457641490243563
12635180000.0 0.8899735707960679 -0.4560121087036085 -9.187428127651143e-17 8.829050398767165e-17 -9.187428127651143e-17 8.829050398767165e-17 0.889973882987004 -0.4560114994173388
12635797333.333334 0.8846796964300616 -0.4661993508406342 -9.082893843506965e-17 8.933004354290215e-17 -9.082893843506965e-17 8.933004354290215e-17 0.8846800155797118 -0.4661987452081962
12636414666.666666 0.8792692168507359 -0.47632514556604055 -8.977184642182543e-17 9.035721995083115e-17 -8.977184642182543e-17 9.035721995083115e-17 0.8792695429163555 -0.4763245436668982
12637032000.0 0.8737428451864621 -0.48638815824944004 -8.87031513009438e-17 9.137190057242623e-17 -8.87031513009438e-17 9.137190057242623e-17 0.8737431781244013 -0.48638756016255846
12637649333.333334 0.8681013098407828 -0.4963870625354099 -8.762300063218128e-17 9.237395449257607e-17 -8.762300063218128e-17 9.237395449257607e-17 0.8681016496064897 -0.49638646833924377
12638266666.666666 0.8623453543964037 -0.506320540518312 -8.65315434505461e-17 9.336325253694554e-17 -8.65315434505461e-17 9.336325253694554e-17 0.862345700944431 -0.5063199502907956
12638884000.0 0.8564757375171297 -0.5161872829160987 -8.542893024578445e-17 9.43396672885758e-17 -8.542893024578445e-17 9.43396672885758e-17 0.8564760908011392 -0.5161866967346348
12639501333.333334 0.8504932328479362 -0.5259859892427565 -8.431531294167442e-17 9.530307310424758e-17 -8.431531294167442e-17 9.530307310424758e-17 0.8504935928207088 -0.5259854071842085
12640118666.666666 0.8443986289130527 -0.5357153679796505 -8.319084487515895e-17 9.625334613058264e-17 -8.319084487515895e-17 9.625334613058264e-17 0.8443989955264906 -0.53571479012033
12640736000.0 0.8381927290117236 -0.54537413674623 -8.205568077522236e-17 9.719036431996163e-17 -8.205568077522236e-17 9.719036431996163e-17 0.8381931022168589 -0.5453735631618876
12641353333.333334 0.8318763511128621 -0.5549610224682137 -8.090997674172825e-17 9.811400744607872e-17 -8.090997674172825e-17 9.811400744607872e-17 0.8318767308598642 -0.5549604532340303
12641970666.666666 0.8254503277467065 -0.5644747615462276 -7.975389022392912e-17 9.902415711937345e-17 -7.975389022392912e-17 9.902415711937345e-17 0.8254507139848855 -0.5644741967368017
12642588000.0 0.8189155058954057 -0.573914100021848 -7.858757999890709e-17 9.99206968021259e-17 -7.858757999890709e-17 9.99206968021259e-17 0.8189158985732227 -0.5739135397111892
12643205333.333334 0.8122727468812949 -0.5832777937430261 -7.741120614979748e-17 1.0080351182333645e-16 -7.741120614979748e-17 1.0080351182333645e-16 0.8122731459463662 -0.5832772380045431
12643822666.666666 0.8055229262533337 -0.5925646085281183 -7.622493004386626e-17 1.0167248939333466e-16 -7.622493004386626e-17 1.0167248939333466e-16 0.80552333165244 -0.5925640574346104
12644440000.0 0.7986669336717198 -0.6017733203285338 -7.502891431042139e-17 1.0252751861813326e-16 -7.502891431042139e-17 1.0252751861813326e-16 0.7986673453508119 -0.601772773952181
12645057333.333334 0.7917056727907125 -0.6109027153899551 -7.382332281856115e-17 1.0336849051352473e-16 -7.382332281856115e-17 1.0336849051352473e-16 0.7917060906949182 -0.6109021738023083
12645674666.666666 0.7846400611394607 -0.619951590412412 -7.260832065476852e-17 1.0419529801891551e-16 -7.260832065476852e-17 1.0419529801891551e-16 0.7846404852130928 -0.619951053684384
12646292000.0 0.7774710300009608 -0.6289187527090133 -7.13840741003151e-17 1.0500783601092111e-16 -7.13840741003151e-17 1.0500783601092111e-16 0.7774714601875249 -0.6289182209108697
12646909333.333334 0.7701995242895372 -0.6378030203628593 -7.015075060860371e-17 1.0580600131663584e-16 -7.015075060860371e-17 1.0580600131663584e-16 0.770199960531739 -0.6378024935642093
12647526666.666666 0.7628265024261421 -0.6466032223830269 -6.890851878226795e-17 1.065896927267022e-16 -6.890851878226795e-17 1.065896927267022e-16 0.7628269446658942 -0.6466027006528139
12648144000.0 0.7553529362119712 -0.6553181988589741 -6.765754835015881e-17 1.0735881100808868e-16 -6.765754835015881e-17 1.0735881100808868e-16 0.7553533843904011 -0.6553176822654663
12648761333.333334 0.747779810700557 -0.6639468011132029 -6.639801014422658e-17 1.0811325891657549e-16 -6.639801014422658e-17 1.0811325891657549e-16 0.7477802647580162 -0.6639462897239853
12649378666.666666 0.7401081240678666 -0.6724878918527525 -6.513007607622231e-17 1.0885294120899761e-16 -6.513007607622231e-17 1.0885294120899761e-16 0.7401085839439374 -0.6724873857347179
12649996000.0 0.7323388874806581 -0.6809403453191828 -6.385391911426243e-17 1.0957776465521332e-16 -6.385391911426243e-17 1.0957776465521332e-16 0.7323393531141617 -0.6809398445385223
12650613333.333334 0.7244731249632602 -0.6893030474368907 -6.25697132592839e-17 1.1028763804978693e-16 -6.25697132592839e-17 1.1028763804978693e-16 0.7244735962922645 -0.6893025520590853
12651230666.666666 0.7165118732626988 -0.6975748959598482 -6.127763352137619e-17 1.1098247222339223e-16 -6.127763352137619e-17 1.1098247222339223e-16 0.7165123502245284 -0.6975744060496617
12651848000.0 0.7084561817117759 -0.7057548006171735 -5.997785589592816e-17 1.1166218005397308e-16 -5.997785589592816e-17 1.1166218005397308e-16 0.7084566642430173 -0.7057543162386409
12652465333.333334 0.7003071120910526 -0.7138416832565226 -5.867055733974323e-17 1.1232667647757402e-16 -5.867055733974323e-17 1.1232667647757402e-16 0.700307600127566 -0.713841204472945
12653082666.666666 0.6920657384888281 -0.7218344779862821 -5.735591574697964e-17 1.1297587849892487e-16 -5.735591574697964e-17 1.1297587849892487e-16 0.6920662319657537 -0.7218340048602163
12653700000.0 0.6837331471593856 -0.7297321313162362 -5.603410992494104e-17 1.1360970520175782e-16 -5.603410992494104e-17 1.1360970520175782e-16 0.6837336460111535 -0.7297316639094883
12654317333.333334 0.6753104363801249 -0.7375336022961274 -5.470531956986144e-17 1.1422807775879079e-16 -5.470531956986144e-17 1.1422807775879079e-16 0.6753109405404614 -0.7375331406697418
12654934666.666666 0.6667987163065121 -0.7452378626531286 -5.33697252424706e-17 1.1483091944148063e-16 -5.33697252424706e-17 1.1483091944148063e-16 0.6667992257084531 -0.7452374068673842
12655552000.0 0.6581991088258851 -0.7528438969272624 -5.202750834350192e-17 1.1541815562946894e-16 -5.202750834350192e-17 1.1541815562946894e-16 0.6581996234017803 -0.7528434470416608
12656169333.333334 0.6495127474096845 -0.7603507026051458 -5.0678851089126926e-17 1.1598971381972792e-16 -5.0678851089126926e-17 1.1598971381972792e-16 0.649513267091209 -0.760350258678406
12656786666.666666 0.6407407769638687 -0.7677572902522989 -4.9323936486211794e-17 1.16545523635456e-16 -4.9323936486211794e-17 1.16545523635456e-16 0.6407413016820316 -0.7677568523423489
12657404000.0 0.6318843536781371 -0.7750626836434449 -4.7962948307559583e-17 1.1708551683464778e-16 -4.7962948307559583e-17 1.1708551683464778e-16 0.6318848833632893 -0.7750622518074132
12658021333.333334 0.6229446448734051 -0.7822659198912877 -4.659607106700381e-17 1.1760962731840022e-16 -4.659607106700381e-17 1.1760962731840022e-16 0.6229451794552511 -0.7822654941854978
12658638666.666666 0.6139228288481914 -0.7893660495732318 -4.522348999445607e-17 1.1811779113891186e-16 -4.522348999445607e-17 1.1811779113891186e-16 0.6139233682557962 -0.789365630053193
12659256000.0 0.6048200947229997 -0.7963621368567676 -4.3845391010796744e-17 1.1860994650721678e-16 -4.3845391010796744e-17 1.1860994650721678e-16 0.6048206388847993 -0.7963617235771685
12659873333.333334 0.59563764228381 -0.8032532596226428 -4.246196070278059e-17 1.1908603380059047e-16 -4.246196070278059e-17 1.1908603380059047e-16 0.595638191127621 -0.8032528526373445
12660490666.666666 0.5863766818239636 -0.8100385095863856 -4.1073386297799765e-17 1.1954599556968815e-16 -4.1073386297799765e-17 1.1954599556968815e-16 0.5863772352769935 -0.8100381089484154
12661108000.0 0.5770384339843253 -0.8167169924182632 -3.9679855638552957e-17 1.1998977654539335e-16 -3.9679855638552957e-17 1.1998977654539335e-16 0.5770389919731794 -0.8167165981798048
12661725333.333334 0.5676241295928479 -0.8232878278608146 -3.8281557157724396e-17 1.2041732364534543e-16 -3.8281557157724396e-17 1.2041732364534543e-16 0.5676246920435423 -0.8232874400732043
12662342666.666666 0.5581350095020035 -0.8297501498451295 -3.687867985249119e-17 1.2082858598020567e-16 -3.687867985249119e-17 1.2082858598020567e-16 0.5581355763399729 -0.8297497685588484
12662960000.0 0.5485723244253691 -0.8361031066048987 -3.547141325905398e-17 1.2122351485959857e-16 -3.547141325905398e-17 1.2122351485959857e-16 0.5485728955754776 -0.8361027318695663
12663577333.333334 0.538937334772779 -0.8423458607886845 -3.405994742705088e-17 1.2160206379777476e-16 -3.405994742705088e-17 1.2160206379777476e-16 0.538937910159329 -0.8423454926530509
12664194666.666666 0.5292313104840969 -0.8484775895703442 -3.2644472893936325e-17 1.2196418851896835e-16 -3.2644472893936325e-17 1.2196418851896835e-16 0.5292318900308406 -0.8484772280822868
12664812000.0 0.519455530861979 -0.8544974847573958 -3.122518065928435e-17 1.2230984696246349e-16 -3.122518065928435e-17 1.2230984696246349e-16 0.5194561144921271 -0.8544971299639093
12665429333.333334 0.5096112844031327 -0.8604047528976142 -2.980226215907077e-17 1.2263899928735274e-16 -2.980226215907077e-17 1.2263899928735274e-16 0.5096118720393662 -0.8604044048448083
12666046666.666666 0.49969986862863536 -0.8661986153835287 -2.837590923989384e-17 1.2295160787700273e-16 -2.837590923989384e-17 1.2295160787700273e-16 0.4997004601931129 -0.8661982741166175
12666664000.0 0.48972258991264006 -0.8718783085551979 -2.6946314133110826e-17 1.2324763734322692e-16 -2.6946314133110826e-17 1.2324763734322692e-16 0.48972318532701276 -0.8718779741185003
12667281333.333334 0.4796807633105637 -0.8774430838006592 -2.5513669429021237e-17 1.235270545301407e-16 -2.5513669429021237e-17 1.235270545301407e-16 0.4796813624959812 -0.8774427562375877
12667898666.666666 0.46957571238540724 -0.8828922076547931 -2.407816805091021e-17 1.237898285177377e-16 -2.407816805091021e-17 1.237898285177377e-16 0.46957631526252996 -0.8828918870078495
12668516000.0 0.4594087690334494 -0.8882249618959073 -2.264000322912755e-17 1.2403593062515004e-16 -2.264000322912755e-17 1.2403593062515004e-16 0.4594093755224599 -0.8882246482066793
12669133333.333334 0.4491812733088273 -0.8934406436403454 -2.119936847513263e-17 1.2426533441361075e-16 -2.119936847513263e-17 1.2426533441361075e-16 0.44918188332943915 -0.8934403369494991
12669750666.666666 0.4388945732466811 -0.8985385654352465 -1.975645755546582e-17 1.2447801568912203e-16 -1.975645755546582e-17 1.2447801568912203e-16 0.43889518671814925 -0.8985382657825192
12670368000.0 0.4285500246855747 -0.903518055349094 -1.831146446572403e-17 1.2467395250481702e-16 -1.831146446572403e-17 1.2467395250481702e-16 0.4285506415267093 -0.9035177627732958
