! Parameters = {f0=12700.012000; bw=77.238000; Q=6100.000000; N=10; m_0_1=1.201296; m_1_1=-0.745301; m_1_2=1.036108; m_2_2=-0.745950; m_2_3=0.673071; m_2_8=-0.002871; m_2_9=0.033833; m_3_3=-0.747887; m_3_4=0.561600; m_3_7=-0.002271; m_3_8=-0.099359; m_3_9=-0.002871; m_4_4=-0.750812; m_4_5=0.397935; m_4_6=0.001246; m_4_7=-0.119908; m_4_8=-0.002271; m_5_5=-0.750430; m_5_6=0.805290; m_5_7=0.001246; m_6_6=-0.750431; m_6_7=0.398277; m_7_7=-0.750798; m_7_8=0.561718; m_8_8=-0.747889; m_8_9=0.673384; m_9_9=-0.745955; m_9_10=1.037186; m_10_10=-0.745311; m_10_11=1.202091}
!
! Created with skrf (http://scikit-rf.org).
# Hz S RI R 50.0 
!freq ReS11 ImS11 ReS21 ImS21 ReS12 ImS12 ReS22 ImS22
12607400000.0 -0.13858490523896663 -0.9903505561364363 3.275157567519489e-17 7.197435754684165e-17 3.275157567519489e-17 7.197435754684165e-17 -0.13858427831370385 -0.9903506438651473
12608017333.333334 -0.14698975027634356 -0.9891380153009691 3.3361408011070385e-17 7.167664244476453e-17 3.3361408011070385e-17 7.167664244476453e-17 -0.14698912414932105 -0.9891381083456737
12608634666.666666 -0.1553839956342712 -0.9878541460663973 3.396854474817367e-17 7.137376567538524e-17 3.396854474817367e-17 7.137376567538524e-17 -0.15538337035055957 -0.9878542444198655
12609252000.0 -0.16376703598971895 -0.9864990410147315 3.457294224440816e-17 7.106575155866807e-17 3.457294224440816e-17 7.106575155866807e-17 -0.1637664115943236 -0.986499144669351
12609869333.333334 -0.17213826682758407 -0.9850727978649284 3.517455707639564e-17 7.075262478316373e-17 3.517455707639564e-17 7.075262478316373e-17 -0.17213764336544207 -0.9850729068127059
12610486666.666666 -0.1804970844843691 -0.983575519465834 3.577334604256173e-17 7.043441040406055e-17 3.577334604256173e-17 7.043441040406055e-17 -0.1804964620003458 -0.9835756336983954
12611104000.0 -0.18884288619182418 -0.9820073137887428 3.6369266166255737e-17 7.011113384118261e-17 3.6369266166255737e-17 7.011113384118261e-17 -0.18884226473071014 -0.9820074332973344
12611721333.333334 -0.19717507012010738 -0.9803682939196743 3.6962274698803123e-17 6.978282087698819e-17 3.6962274698803123e-17 6.978282087698819e-17 -0.1971744497266145 -0.9803684186951601
12612338666.666666 -0.20549303542154485 -0.9786585780511406 3.7552329122567784e-17 6.944949765452748e-17 3.7552329122567784e-17 6.944949765452748e-17 -0.20549241614030433 -0.9786587080840095
12612956000.0 -0.21379618227379346 -0.9768782894736651 3.81393871540057e-17 6.911119067536875e-17 3.81393871540057e-17 6.911119067536875e-17 -0.21379556414935122 -0.9768784247540235
12613573333.333334 -0.2220839119229261 -0.9750275565669166 3.872340674665133e-17 6.876792679752667e-17 3.872340674665133e-17 6.876792679752667e-17 -0.2220832949997412 -0.9750276970844985
12614190666.666666 -0.23035562672697232 -0.9731065127903857 3.930434609415398e-17 6.841973323332666e-17 3.930434609415398e-17 6.841973323332666e-17 -0.23035501104941208 -0.9731066585345449
12614808000.0 -0.2386107301986809 -0.9711152966738272 3.988216363323644e-17 6.806663754727704e-17 3.988216363323644e-17 6.806663754727704e-17 -0.23861011581101865 -0.971115447633542
12615425333.333334 -0.2468486270487823 -0.9690540518072116 4.0456818046665917e-17 6.770866765389828e-17 4.0456818046665917e-17 6.770866765389828e-17 -0.24684801399519427 -0.9690542079710868
12616042666.666666 -0.25506872322872387 -0.9669229268304224 4.1028268266203984e-17 6.734585181552889e-17 4.1028268266203984e-17 6.734585181552889e-17 -0.2550681115532858 -0.9669230881866883
12616660000.0 -0.26327042597359024 -0.9647220754225152 4.159647347551722e-17 6.697821864011728e-17 4.159647347551722e-17 6.697821864011728e-17 -0.263269815720274 -0.9647222419590288
12617277333.333334 -0.2714531438449578 -0.962451656290606 4.21613931130993e-17 6.660579707897104e-17 4.21613931130993e-17 6.660579707897104e-17 -0.2714525350576282 -0.9624518279948505
12617894666.666666 -0.2796162867732422 -0.960111833158505 4.2722986875133206e-17 6.622861642450665e-17 4.2722986875133206e-17 6.622861642450665e-17 -0.2796156794956545 -0.9601120100175943
12618512000.0 -0.2877592661006346 -0.9577027747548117 4.3281214718382186e-17 6.584670630794336e-17 4.3281214718382186e-17 6.584670630794336e-17 -0.28775866037643055 -0.9577029567554876
12619129333.333334 -0.295881494623248 -0.955224654800825 4.3836036863013905e-17 6.546009669700402e-17 4.3836036863013905e-17 6.546009669700402e-17 -0.2958808904959532 -0.9552248419294607
12619746666.666666 -0.3039823866335443 -0.9526776519979973 4.438741379542973e-17 6.506881789357414e-17 4.438741379542973e-17 6.506881789357414e-17 -0.3039817841465651 -0.9526778442405976
12620364000.0 -0.31206135796278794 -0.9500619500149786 4.493530627108311e-17 6.467290053133169e-17 4.493530627108311e-17 6.467290053133169e-17 -0.3120607571594082 -0.9500621473571814
12620981333.333334 -0.3201178260227371 -0.9473777374745083 4.547967531723047e-17 6.427237557338455e-17 4.547967531723047e-17 6.427237557338455e-17 -0.320117226946115 -0.9473779399015851
12621598666.666666 -0.3281512098480082 -0.944625207939705 4.602048223572588e-17 6.386727430984039e-17 4.602048223572588e-17 6.386727430984039e-17 -0.3281506125411729 -0.9446254154365609
12622216000.0 -0.33616093013791415 -0.941804559900118 4.655768860573878e-17 6.345762835539146e-17 4.655768860573878e-17 6.345762835539146e-17 -0.33616033464376316 -0.9418047724512947
12622833333.333334 -0.34414640929810586 -0.9389159967574653 4.709125628648197e-17 6.304346964685502e-17 4.709125628648197e-17 6.304346964685502e-17 -0.3441458156594017 -0.9389162143471415
12623450666.666666 -0.352107071482329 -0.9359597268109247 4.762114741990667e-17 6.262483044069861e-17 4.762114741990667e-17 6.262483044069861e-17 -0.35210647974169684 -0.9359599494229185
12624068000.0 -0.3600423426338993 -0.9329359632421389 4.814732443337398e-17 6.22017433105441e-17 4.814732443337398e-17 6.22017433105441e-17 -0.3600417528338223 -0.932936190859906
12624685333.333334 -0.3679516505272005 -0.9298449240997939 4.866975004232374e-17 6.177424114463439e-17 4.866975004232374e-17 6.177424114463439e-17 -0.3679510627100186 -0.9298451567064321
12625302666.666666 -0.3758344248087667 -0.9266868322839735 4.918838725287572e-17 6.134235714331399e-17 4.918838725287572e-17 6.134235714331399e-17 -0.37583383901667244 -0.9266870698622224
12625920000.0 -0.3836900970386217 -0.9234619155299998 4.9703199364469036e-17 6.090612481643848e-17 4.9703199364469036e-17 6.090612481643848e-17 -0.38368951331365686 -0.9234621580622405
12626537333.333334 -0.3915181007311099 -0.9201704063920702 5.021414997242919e-17 6.046557798080359e-17 5.021414997242919e-17 6.046557798080359e-17 -0.3915175191151641 -0.920170653860331
12627154666.666666 -0.3993178713957236 -0.9168125422265071 5.0721202970529344e-17 6.002075075753809e-17 5.0721202970529344e-17 6.002075075753809e-17 -0.39931729193053006 -0.916812794612461
12627772000.0 -0.40708884657804434 -0.9133885651745373 5.1224322553554055e-17 5.957167756945374e-17 5.1224322553554055e-17 5.957167756945374e-17 -0.4070882693051766 -0.9133888224595037
12628389333.333334 -0.4148304659000136 -0.9098987221449543 5.1723473219779076e-17 5.911839313842646e-17 5.1723473219779076e-17 5.911839313842646e-17 -0.4148298908608832 -0.9098989843099015
12629006666.666666 -0.4225421711005775 -0.9063432647962099 5.2218619773503647e-17 5.866093248269072e-17 5.2218619773503647e-17 5.866093248269072e-17 -0.4225415983364314 -0.9063435318217572
12629624000.0 -0.4302234060757378 -0.902722449518363 5.2709727327490403e-17 5.819933091417341e-17 5.2709727327490403e-17 5.819933091417341e-17 -0.4302228356276543 -0.9027227213847799
12630241333.333334 -0.43787361691888355 -0.8990365374144802 5.3196761305426937e-17 5.773362403576731e-17 5.3196761305426937e-17 5.773362403576731e-17 -0.43787304882777 -0.8990368141016896
12630858666.666666 -0.4454922519604023 -0.8952857942819671 5.367968744434351e-17 5.726384773860216e-17 5.367968744434351e-17 5.726384773860216e-17 -0.4454916862669925 -0.8952860757695466
12631476000.0 -0.453078761807947 -0.8914704905931667 5.4158471797017894e-17 5.679003819928454e-17 5.4158471797017894e-17 5.679003819928454e-17 -0.4530781985527976 -0.8914707768603491
12632093333.333334 -0.4606325993855429 -0.8875909014761029 5.46330807343421e-17 5.631223187713229e-17 5.46330807343421e-17 5.631223187713229e-17 -0.460632038609031 -0.8875911925017792
12632710666.666666 -0.46815321997327014 -0.8836473066945332 5.510348094767088e-17 5.583046551138276e-17 5.510348094767088e-17 5.583046551138276e-17 -0.4681526617155899 -0.8836476024572529
12633328000.0 -0.475640081246743 -0.879639990627663 5.556963945115987e-17 5.534477611836719e-17 5.556963945115987e-17 5.534477611836719e-17 -0.4756395255479032 -0.8796402911056362
12633945333.333334 -0.4830926433158409 -0.8755692422498389 5.603152358405727e-17 5.4855200988688316e-17 5.603152358405727e-17 5.4855200988688316e-17 -0.4830920902156617 -0.8755695474209376
12634562666.666666 -0.49051036876384246 -0.8714353551096043 5.648910101297679e-17 5.436177768437222e-17 5.648910101297679e-17 5.436177768437222e-17 -0.490509818301953 -0.8714356649513648
12635180000.0 -0.4978927226862291 -0.8672386273085033 5.694233973415997e-17 5.386454403598735e-17 5.694233973415997e-17 5.386454403598735e-17 -0.49789217490206433 -0.8672389417981267
12635797333.333334 -0.5052391727291077 -0.8629793614796648 5.739120807569109e-17 5.3363538139766783e-17 5.739120807569109e-17 5.3363538139766783e-17 -0.5052386276619059 -0.8629796805940202
12636414666.666666 -0.5125491891276999 -0.8586578647659271 5.783567469970428e-17 5.285879835469495e-17 5.783567469970428e-17 5.285879835469495e-17 -0.5125486468164988 -0.858658188481551
12637032000.0 -0.5198222447445187 -0.8542744487976993 5.827570860455747e-17 5.235036329958398e-17 5.827570860455747e-17 5.235036329958398e-17 -0.5198217052281545 -0.8542747770908002
12637649333.333334 -0.5270578151073577 -0.8498294296705076 5.871127912698049e-17 5.1838271850131996e-17 5.871127912698049e-17 5.1838271850131996e-17 -0.5270572784244612 -0.849829762516966
12638266666.666666 -0.5342553784472094 -0.8453231279221409 5.914235594420511e-17 5.132256313595561e-17 5.914235594420511e-17 5.132256313595561e-17 -0.5342548446362021 -0.8453234652975099
12638884000.0 -0.541414415735718 -0.840755868509637 5.956890907605281e-17 5.080327653762296e-17 5.956890907605281e-17 5.080327653762296e-17 -0.5414138848348118 -0.8407562103891469
12639501333.333334 -0.5485344107228283 -0.8361279807857187 5.999090888702026e-17 5.028045168364302e-17 5.999090888702026e-17 5.028045168364302e-17 -0.5485338827700209 -0.8361283271442771
12640118666.666666 -0.5556148499736995 -0.8314397984752394 6.040832608830634e-17 4.975412844747458e-17 6.040832608830634e-17 4.975412844747458e-17 -0.5556143250067732 -0.831440149287434
12640736000.0 -0.5626552229061836 -0.8266916596508248 6.082113173985885e-17 4.9224346944463987e-17 6.082113173985885e-17 4.9224346944463987e-17 -0.5626547009627013 -0.8266920148909243
12641353333.333334 -0.5696550218271462 -0.8218839067088217 6.122929725233839e-17 4.8691147528835293e-17 6.122929725233839e-17 4.8691147528835293e-17 -0.5696545029444485 -0.8218842663507777
12641970666.666666 -0.5766137419694083 -0.8170168863443886 6.163279438910444e-17 4.8154570790603056e-17 6.163279438910444e-17 4.8154570790603056e-17 -0.5766132261846113 -0.817017250361837
12642588000.0 -0.5835308815280958 -0.8120909495265214 6.203159526815246e-17 4.7614657552497034e-17 6.203159526815246e-17 4.7614657552497034e-17 -0.5835303688780898 -0.8120913178927868
12643205333.333334 -0.5904059416966889 -0.8071064514728454 6.242567236401727e-17 4.7071448866879596e-17 6.242567236401727e-17 4.7071448866879596e-17 -0.5904054322181344 -0.8071068241609414
12643822666.666666 -0.5972384267031539 -0.8020637516238867 6.281499850967578e-17 4.6524986012614304e-17 6.281499850967578e-17 4.6524986012614304e-17 -0.597237920432478 -0.8020641286065169
12644440000.0 -0.6040278438456453 -0.7969632136171808 6.319954689838947e-17 4.597531049196105e-17 6.319954689838947e-17 4.597531049196105e-17 -0.6040273408190412 -0.796963594866742
12645057333.333334 -0.6107737035278996 -0.7918052052611527 6.357929108554186e-17 4.542246402742805e-17 6.357929108554186e-17 4.542246402742805e-17 -0.610773203781323 -0.7918055907497376
12645674666.666666 -0.6174755192947252 -0.7865900985084618 6.395420499044681e-17 4.4866488558610363e-17 6.395420499044681e-17 4.4866488558610363e-17 -0.6174750228638919 -0.7865904882078598
12646292000.0 -0.6241328078670784 -0.7813182694291743 6.432426289812517e-17 4.4307426239018767e-17 6.432426289812517e-17 4.4307426239018767e-17 -0.6241323147874603 -0.7813186633108726
12646909333.333334 -0.6307450891766886 -0.7759900981838193 6.468943946104805e-17 4.374531943290385e-17 6.468943946104805e-17 4.374531943290385e-17 -0.6307445994835145 -0.7759904962190086
12647526666.666666 -0.6373118864009711 -0.7706059689957501 6.504970970086216e-17 4.31802107120509e-17 6.504970970086216e-17 4.31802107120509e-17 -0.6373114001292209 -0.7706063711553227
12648144000.0 -0.6438327259972506 -0.7651662701235548 6.540504901008588e-17 4.261214285256234e-17 6.540504901008588e-17 4.261214285256234e-17 -0.6438322431816544 -0.7651666763781093
12648761333.333334 -0.65030713773689 -0.7596713938330805 6.575543315377412e-17 4.2041158831632475e-17 6.575543315377412e-17 4.2041158831632475e-17 -0.6503066584119259 -0.7596718041529235
12649378666.666666 -0.6567346547392675 -0.7541217363690946 6.610083827114785e-17 4.146730182431971e-17 6.610083827114785e-17 4.146730182431971e-17 -0.6567341789391571 -0.7541221507242404
12649996000.0 -0.6631148135053956 -0.7485176979267406 6.644124087721869e-17 4.0890615200267666e-17 6.644124087721869e-17 4.0890615200267666e-17 -0.6631143412641044 -0.7485181162869179
12650613333.333334 -0.6694471539514565 -0.7428596826225924 6.67766178643578e-17 4.031114252045887e-17 6.67766178643578e-17 4.031114252045887e-17 -0.6694466853026891 -0.7428601049572424
12651230666.666666 -0.6757312194417411 -0.7371480984657155 6.710694650385351e-17 3.972892753392727e-17 6.710694650385351e-17 3.972892753392727e-17 -0.6757307544189409 -0.7371485247439972
12651848000.0 -0.6819665568218588 -0.7313833573280026 6.743220444743887e-17 3.9144014174459557e-17 6.743220444743887e-17 3.9144014174459557e-17 -0.6819660954582037 -0.731383787518793
12652465333.333334 -0.6881527164512821 -0.7255658749145827 6.775236972878112e-17 3.855644655730204e-17 6.775236972878112e-17 3.855644655730204e-17 -0.6881522587796828 -0.7255663089864792
12653082666.666666 -0.6942892522356506 -0.7196960707339628 6.806742076495239e-17 3.7966268975837883e-17 6.806742076495239e-17 3.7966268975837883e-17 -0.6942887982887481 -0.7196965086552861
12653700000.0 -0.7003757216592057 -0.7137743680675213 6.8377336357871e-17 3.737352589825238e-17 6.8377336357871e-17 3.737352589825238e-17 -0.7003752714693712 -0.7137748098063192
12654317333.333334 -0.7064116858164791 -0.7078011939392035 6.868209569570507e-17 3.6778261964204485e-17 6.868209569570507e-17 3.6778261964204485e-17 -0.7064112394158076 -0.7078016394632503
12654934666.666666 -0.7123967094440017 -0.7017769790846683 6.89816783542561e-17 3.618052198146921e-17 6.89816783542561e-17 3.618052198146921e-17 -0.7123962668643121 -0.7017774283614678
12655552000.0 -0.7183303609518495 -0.6957021579200611 6.927606429831353e-17 3.5580350922568936e-17 6.927606429831353e-17 3.5580350922568936e-17 -0.7183299222246832 -0.6957026109168513
12656169333.333334 -0.7242122124544517 -0.6895771685110176 6.956523388297144e-17 3.4977793921411987e-17 6.956523388297144e-17 3.4977793921411987e-17 -0.7242117776110684 -0.6895776251947707
12656786666.666666 -0.7300418398017015 -0.6834024525408071 6.984916785492425e-17 3.4372896269902363e-17 6.984916785492425e-17 3.4372896269902363e-17 -0.7300414088730782 -0.683402912878233
12657404000.0 -0.7358188226095038 -0.6771784552785232 7.012784735373427e-17 3.3765703414539693e-17 7.012784735373427e-17 3.3765703414539693e-17 -0.7358183956263322 -0.6771789192360711
12658021333.333334 -0.7415427442899907 -0.6709056255470762 7.040125391305951e-17 3.3156260953026453e-17 7.040125391305951e-17 3.3156260953026453e-17 -0.7415423212826743 -0.6709060930909375
12658638666.666666 -0.747213192081621 -0.6645844156907668 7.066936946186246e-17 3.254461463084813e-17 7.066936946186246e-17 3.254461463084813e-17 -0.7472127730802751 -0.6645848867868788
12659256000.0 -0.7528297570790046 -0.658215281542605 7.093217632558763e-17 3.1930810337843085e-17 7.093217632558763e-17 3.1930810337843085e-17 -0.752829342113451 -0.6582157561566504
12659873333.333334 -0.7583920342622709 -0.6517986823915627 7.118965722730222e-17 3.131489410478186e-17 7.118965722730222e-17 3.131489410478186e-17 -0.7583916233620394 -0.6517991604889759
12660490666.666666 -0.7638996225263385 -0.6453350809493946 7.144179528881525e-17 3.069691209991903e-17 7.144179528881525e-17 3.069691209991903e-17 -0.7638992157206603 -0.64533556249536
12661108000.0 -0.7693521247098873 -0.6388249433172004 7.16885740317659e-17 3.0076910625536125e-17 7.16885740317659e-17 3.0076910625536125e-17 -0.7693517220276987 -0.6388254282766593
12661725333.333334 -0.7747491476238966 -0.6322687389519507 7.192997737867572e-17 2.945493611449476e-17 7.192997737867572e-17 2.945493611449476e-17 -0.7747487490938306 -0.6322692272895994
12662342666.666666 -0.7800903020800619 -0.6256669406325382 7.216598965397693e-17 2.883103512676262e-17 7.216598965397693e-17 2.883103512676262e-17 -0.7800899077304526 -0.6256674323128357
12662960000.0 -0.7853752029188353 -0.6190200244257386 7.239659558501248e-17 2.8205254345931996e-17 7.239659558501248e-17 2.8205254345931996e-17 -0.7853748127777097 -0.6190205194129037
12663577333.333334 -0.7906034690372606 -0.6123284696517822 7.262178030299689e-17 2.7577640575748485e-17 7.262178030299689e-17 2.7577640575748485e-17 -0.7906030831323406 -0.6123289679098001
12664194666.666666 -0.7957747234163549 -0.6055927588499294 7.284152934395612e-17 2.6948240736614298e-17 7.284152934395612e-17 2.6948240736614298e-17 -0.7957743417750545 -0.6055932603425525
12664812000.0 -0.8008885931483479 -0.5988133777436044 7.305582864963569e-17 2.6317101862083814e-17 7.305582864963569e-17 2.6317101862083814e-17 -0.800888215797771 -0.598813882434356
12665429333.333334 -0.8059447094636409 -0.5919908152052793 7.326466456837244e-17 2.5684271095371005e-17 7.326466456837244e-17 2.5684271095371005e-17 -0.8059443364305796 -0.5919913230574553
12666046666.666666 -0.8109427077571965 -0.5851255632214928 7.346802385594317e-17 2.5049795685831756e-17 7.346802385594317e-17 2.5049795685831756e-17 -0.8109423390681285 -0.5851260741981648
12666664000.0 -0.81588222761515 -0.5782181168569387 7.36658936763818e-17 2.4413722985439132e-17 7.36658936763818e-17 2.4413722985439132e-17 -0.8158818632962367 -0.5782186309209559
12667281333.333334 -0.8207629128404459 -0.571268974219246 7.385826160276093e-17 2.3776100445271855e-17 7.385826160276093e-17 2.3776100445271855e-17 -0.8207625529175323 -0.5712694913332398
12667898666.666666 -0.825584411478747 -0.5642786364227647 7.404511561794866e-17 2.3136975611977688e-17 7.404511561794866e-17 2.3136975611977688e-17 -0.8255840559773575 -0.5642791565491491
12668516000.0 -0.8303463758438542 -0.557247607552353 7.422644411533508e-17 2.249639612423126e-17 7.422644411533508e-17 2.249639612423126e-17 -0.830346024789192 -0.5572481306533292
12669133333.333334 -0.83504846254254 -0.5501763946273815 7.440223589952235e-17 2.1854409709205447e-17 7.440223589952235e-17 2.1854409709205447e-17 -0.8350481159594866 -0.5501769206649401
12669750666.666666 -0.8396903324995222 -0.5430655075648666 7.457248018699012e-17 2.121106417901861e-17 7.457248018699012e-17 2.121106417901861e-17 -0.8396899904126327 -0.5430660365007896
12670368000.0 -0.8442716509818934 -0.5359154591427194 7.473716660673085e-17 2.056640742717488e-17 7.473716660673085e-17 2.056640742717488e-17 -0.8442713134153971 -0.5359159909385837
