! Parameters = {f0=12700.012000; bw=77.238000; Q=6100.000000; N=10; m_0_1=1.165861; m_1_1=-1.276833; m_1_2=1.000673; m_2_2=-1.277482; m_2_3=0.637636; m_2_8=-0.004643; m_2_9=0.032061; m_3_3=-1.279419; m_3_4=0.526165; m_3_7=-0.004043; m_3_8=-0.101131; m_3_9=-0.004643; m_4_4=-1.282344; m_4_5=0.362500; m_4_6=-0.000526; m_4_7=-0.121680; m_4_8=-0.004043; m_5_5=-1.281962; m_5_6=0.769855; m_5_7=-0.000526; m_6_6=-1.281963; m_6_7=0.362842; m_7_7=-1.282330; m_7_8=0.526283; m_8_8=-1.279421; m_8_9=0.637949; m_9_9=-1.277487; m_9_10=1.001751; m_10_10=-1.276843; m_10_11=1.166656}
!
! Created with skrf (http://scikit-rf.org).
# Hz S RI R 50.0 
!freq ReS11 ImS11 ReS21 ImS21 ReS12 ImS12 ReS22 ImS22
12607400000.0 0.6611320287698517 0.7502695785746025 -5.578548001213356e-17 -3.5010489309228284e-17 -5.578548001213356e-17 -3.5010489309228284e-17 0.6611315677884183 0.7502699847877952
12608017333.333334 0.6666989050144259 0.7453271563900092 -5.603665025131766e-17 -3.458249202120712e-17 -5.603665025131766e-17 -3.458249202120712e-17 0.6666984470921465 0.7453275660035467
12608634666.666666 0.6722288343720239 0.7403434299287601 -5.628454126046887e-17 -3.41526993605128e-17 -5.628454126046887e-17 -3.41526993605128e-17 0.6722283795339745 0.7403438429196108
12609252000.0 0.6777215103870415 0.7353186753772527 -5.652914025781569e-17 -3.372113641884363e-17 -5.652914025781569e-17 -3.372113641884363e-17 0.6777210586581249 0.7353190917221997
12609869333.333334 0.6831766286683248 0.7302531711956018 -5.677043465333885e-17 -3.3287828378479384e-17 -5.677043465333885e-17 -3.3287828378479384e-17 0.6831761800732689 0.7302535908712448
12610486666.666666 0.6885938869059983 0.7251471981022479 -5.700841204939919e-17 -3.28528005108373e-17 -5.700841204939919e-17 -3.28528005108373e-17 0.6885934414693548 0.7251476210850042
12611104000.0 0.6939729848885088 0.7200010390581284 -5.724306024137798e-17 -3.24160781749813e-17 -5.724306024137798e-17 -3.24160781749813e-17 0.6939725426346527 0.720001465324235
12611721333.333334 0.6993136245188489 0.7148149792513872 -5.747436721828361e-17 -3.197768681616769e-17 -5.747436721828361e-17 -3.197768681616769e-17 0.6993131854719761 0.7148154087769011
12612338666.666666 0.7046155098313464 0.7095893060813161 -5.770232116336036e-17 -3.153765196436192e-17 -5.770232116336036e-17 -3.153765196436192e-17 0.704615074015472 0.7095897388421156
12612956000.0 0.7098783470081217 0.7043243091423645 -5.79269104546848e-17 -3.1095999232752603e-17 -5.79269104546848e-17 -3.1095999232752603e-17 0.7098779144470803 0.7043247451141516
12613573333.333334 0.7151018443950706 0.6990202802083931 -5.814812366574384e-17 -3.065275431627674e-17 -5.814812366574384e-17 -3.065275431627674e-17 0.715101415112514 0.6990207193666942
12614190666.666666 0.7202857125182889 0.6936775132162432 -5.836594956600891e-17 -3.0207942990123634e-17 -5.836594956600891e-17 -3.0207942990123634e-17 0.7202852865376855 0.6936779555364111
12614808000.0 0.725429664100074 0.6882963042494885 -5.858037712149502e-17 -2.976159110824549e-17 -5.858037712149502e-17 -2.976159110824549e-17 0.7254292414447054 0.6882967497067015
12615425333.333334 0.7305334140747434 0.6828769515221248 -5.87913954953124e-17 -2.9313724601853677e-17 -5.87913954953124e-17 -2.9313724601853677e-17 0.7305329947677055 0.6828774000913911
12616042666.666666 0.7355966796044944 0.6774197553619865 -5.899899404819902e-17 -2.8864369477928067e-17 -5.899899404819902e-17 -2.8864369477928067e-17 0.7355962636686957 0.6774202070181443
12616660000.0 0.7406191800951358 0.6719250181940395 -5.920316233904895e-17 -2.8413551817707575e-17 -5.920316233904895e-17 -2.8413551817707575e-17 0.740618767553295 0.6719254729117579
12617277333.333334 0.7456006372115396 0.6663930445237234 -5.940389012543005e-17 -2.7961297775175406e-17 -5.940389012543005e-17 -2.7961297775175406e-17 0.7456002280861861 0.666393502277505
12617894666.666666 0.7505407748930502 0.6608241409201028 -5.96011673640784e-17 -2.7507633575566094e-17 -5.96011673640784e-17 -2.7507633575566094e-17 0.7505403692065205 0.6608246016842834
12618512000.0 0.7554393193689505 0.6552186159986825 -5.979498421140061e-17 -2.7052585513826695e-17 -5.979498421140061e-17 -2.7052585513826695e-17 0.7554389171433892 0.6552190797474343
12619129333.333334 0.7602959991734465 0.6495767804045205 -5.99853310239455e-17 -2.6596179953117153e-17 -5.99853310239455e-17 -2.6596179953117153e-17 0.7602956004308048 0.6495772471118534
12619746666.666666 0.7651105451607869 0.6438989467949262 -6.017219835887553e-17 -2.613844332328178e-17 -6.017219835887553e-17 -2.613844332328178e-17 0.76511014992282 0.6438994164346878
12620364000.0 0.7698826905202326 0.6381854298220695 -6.035557697442602e-17 -2.5679402119319327e-17 -6.035557697442602e-17 -2.5679402119319327e-17 0.7698822988084998 0.6381859023679479
12620981333.333334 0.7746121707907329 0.6324365461156719 -6.05354578303462e-17 -2.5219082899865364e-17 -6.05354578303462e-17 -2.5219082899865364e-17 0.7746117826265952 0.6324370215411965
12621598666.666666 0.7792987238756545 0.6266526142653749 -6.071183208833498e-17 -2.475751228565609e-17 -6.071183208833498e-17 -2.475751228565609e-17 0.7792983392802753 0.626653092543918
12622216000.0 0.7839420900572703 0.6208339548031264 -6.088469111246536e-17 -2.4294716957989437e-17 -6.088469111246536e-17 -2.4294716957989437e-17 0.7839417090516131 0.6208344359079057
12622833333.333334 0.7885420120112417 0.6149808901853085 -6.105402646959128e-17 -2.383072365719683e-17 -6.105402646959128e-17 -2.383072365719683e-17 0.7885416346160683 0.6149813740893868
12623450666.666666 0.7930982348206831 0.609093744775111 -6.121982992974601e-17 -2.3365559181105637e-17 -6.121982992974601e-17 -2.3365559181105637e-17 0.7930978610565541 0.6090942314513992
12624068000.0 0.7976105059905191 0.6031728448242669 -6.138209346653468e-17 -2.289925038348317e-17 -6.138209346653468e-17 -2.289925038348317e-17 0.7976101358777912 0.6031733342455247
12624685333.333334 0.8020785754613701 0.5972185184551055 -6.154080925750626e-17 -2.2431824172500583e-17 -6.154080925750626e-17 -2.2431824172500583e-17 0.8020782090201956 0.5972190105939426
12625302666.666666 0.8065021956233076 0.5912310956425038 -6.169596968451292e-17 -2.196330750919807e-17 -6.169596968451292e-17 -2.196330750919807e-17 0.8065018328736338 0.5912315904713827
12625920000.0 0.8108811213298003 0.5852109081953083 -6.18475673340737e-17 -2.1493727405903823e-17 -6.18475673340737e-17 -2.1493727405903823e-17 0.8108807622913675 0.585211405686545
12626537333.333334 0.8152151099111262 0.5791582897381703 -6.199559499770141e-17 -2.1023110924718963e-17 -6.199559499770141e-17 -2.1023110924718963e-17 0.8152147546034679 0.579158789863936
12627154666.666666 0.819503921187825 0.5730735756930616 -6.21400456722402e-17 -2.055148517593897e-17 -6.21400456722402e-17 -2.055148517593897e-17 0.8195035696302658 0.5730740784253844
12627772000.0 0.8237473174841554 0.5669571032604761 -6.228091256018113e-17 -2.0078877316499133e-17 -6.228091256018113e-17 -2.0078877316499133e-17 0.8237469696958103 0.5669576085712421
12628389333.333334 0.8279450636410861 0.5608092114009988 -6.241818906996204e-17 -1.9605314548434157e-17 -6.241818906996204e-17 -1.9605314548434157e-17 0.8279447196408586 0.560809719261954
12629006666.666666 0.8320969270294728 0.5546302408163105 -6.255186881626758e-17 -1.9130824117294853e-17 -6.255186881626758e-17 -1.9130824117294853e-17 0.8320965868360565 0.5546307511990629
12629624000.0 0.8362026775628257 0.5484205339304974 -6.268194562030719e-17 -1.8655433310598637e-17 -6.268194562030719e-17 -1.8655433310598637e-17 0.8362023411946986 0.5484210468065169
12630241333.333334 0.840262087710197 0.5421804348708581 -6.280841351008376e-17 -1.817916945626746e-17 -6.280841351008376e-17 -1.817916945626746e-17 0.8402617551856255 0.5421809502114804
12630858666.666666 0.8442749325086061 0.5359102894491209 -6.293126672065289e-17 -1.7702059921058833e-17 -6.293126672065289e-17 -1.7702059921058833e-17 0.8442746038456411 0.5359108072255471
12631476000.0 0.848240989575724 0.5296104451419454 -6.305049969437044e-17 -1.7224132108991584e-17 -6.305049969437044e-17 -1.7224132108991584e-17 0.8482406647922004 0.5296109653252448
12632093333.333334 0.8521600391220391 0.5232812510719037 -6.316610708112177e-17 -1.6745413459795207e-17 -6.316610708112177e-17 -1.6745413459795207e-17 0.8521597182355763 0.5232817736330154
12632710666.666666 0.8560318639630451 0.5169230579881363 -6.327808373854881e-17 -1.6265931447323864e-17 -6.327808373854881e-17 -1.6265931447323864e-17 0.8560315469910443 0.5169235828978703
12633328000.0 0.859856249531391 0.5105362182467186 -6.33864247322591e-17 -1.5785713577986724e-17 -6.33864247322591e-17 -1.5785713577986724e-17 0.8598559364910342 0.5105367454757574
12633945333.333334 0.8636329838886839 0.5041210857912801 -6.34911253360221e-17 -1.530478738918637e-17 -6.34911253360221e-17 -1.530478738918637e-17 0.8636326747969334 0.5041216153101802
12634562666.666666 0.8673618577372193 0.49767801613341345 -6.359218103195929e-17 -1.4823180447730697e-17 -6.359218103195929e-17 -1.4823180447730697e-17 0.8673615526108184 0.49767854791260835
12635180000.0 0.8710426644316261 0.4912073663329018 -6.368958751071582e-17 -1.4340920348270827e-17 -6.368958751071582e-17 -1.4340920348270827e-17 0.8710423632870943 0.49120790034270134
12635797333.333334 0.8746751999902991 0.48470949497795246 -6.378334067162486e-17 -1.3858034711718165e-17 -6.378334067162486e-17 -1.3858034711718165e-17 0.8746749028439362 0.484710031188547
12636414666.666666 0.8782592631067091 0.47818476216532835 -6.387343662285852e-17 -1.3374551183669781e-17 -6.387343662285852e-17 -1.3374551183669781e-17 0.8782589699745907 0.47818530054678876
12637032000.0 0.8817946551605416 0.47163352948041526 -6.39598716815663e-17 -1.2890497432832799e-17 -6.39598716815663e-17 -1.2890497432832799e-17 0.8817943660585186 0.47163407000269464
12637649333.333334 0.8852811802287565 0.465056159977083 -6.404264237400364e-17 -1.240590114943914e-17 -6.404264237400364e-17 -1.240590114943914e-17 0.885280895172457 0.4650567026100199
12638266666.666666 0.888718645096371 0.458453018157719 -6.412174543564511e-17 -1.1920790043677795e-17 -6.412174543564511e-17 -1.1920790043677795e-17 0.8887183641011949 0.45845356287103645
12638884000.0 0.8921068592672132 0.451824469952924 -6.419717781128892e-17 -1.1435191844110272e-17 -6.419717781128892e-17 -1.1435191844110272e-17 0.8921065823483351 0.4518250167162337
12639501333.333334 0.8954456349744695 0.44517088270126093 -6.42689366551494e-17 -1.094913429608367e-17 -6.42689366551494e-17 -1.094913429608367e-17 0.8954453621468375 0.44517143148406396
12640118666.666666 0.898734787191068 0.43849262512894965 -6.433701933093313e-17 -1.0462645160172777e-17 -6.433701933093313e-17 -1.0462645160172777e-17 0.8987345184693998 0.43849317590063747
12640736000.0 0.9019741336400378 0.4317900673291997 -6.440142341191166e-17 -9.975752210565079e-18 -6.440142341191166e-17 -9.975752210565079e-18 0.9019738690388243 0.43179062005905755
12641353333.333334 0.9051634948044163 0.4250635807421131 -6.446214668097199e-17 -9.488483233519034e-18 -6.446214668097199e-17 -9.488483233519034e-18 0.9051632343379178 0.42506413539932
12641970666.666666 0.9083026939373701 0.4183135381337398 -6.45191871306638e-17 -9.000866025756103e-18 -6.45191871306638e-17 -9.000866025756103e-18 0.9083024376196162 0.418314094687371
12642588000.0 0.911391557071915 0.41154031357557413 -6.457254296323007e-17 -8.512928392893338e-18 -6.457254296323007e-17 -8.512928392893338e-18 0.9113913049167043 0.41154087199460315
12643205333.333334 0.9144299130305467 0.4047442824238511 -6.462221259062764e-17 -8.024698147855761e-18 -6.462221259062764e-17 -8.024698147855761e-18 0.9144296650514461 0.40474484267715105
12643822666.666666 0.91741759343482 0.3979258212985372 -6.466819463453513e-17 -7.536203109300034e-18 -6.466819463453513e-17 -7.536203109300034e-18 0.917417349645163 0.39792638335488245
12644440000.0 0.9203544327145493 0.39108530806274383 -6.471048792634849e-17 -7.04747110003839e-18 -6.471048792634849e-17 -7.04747110003839e-18 0.9203541931274368 0.391085871890812
12645057333.333334 0.923240268117037 0.3842231218016848 -6.474909150716652e-17 -6.558529945451966e-18 -6.474909150716652e-17 -6.558529945451966e-18 0.923240032745335 0.3842236873700584
12645674666.666666 0.926074939716123 0.37733964280158977 -6.478400462776199e-17 -6.06940747192292e-18 -6.478400462776199e-17 -6.06940747192292e-18 0.9260747085724622 0.3773402100787577
12646292000.0 0.9288582904210543 0.37043525252860093 -6.481522674854371e-17 -5.580131505237713e-18 -6.481522674854371e-17 -5.580131505237713e-18 0.9288580635178313 0.3704358214829608
12646909333.333334 0.9315901659850896 0.36351033360789925 -6.484275753950419e-17 -5.090729869027895e-18 -6.484275753950419e-17 -5.090729869027895e-18 0.9315899433344637 0.3635109042077585
12647526666.666666 0.9342704150141803 0.35656526980215525 -6.48665968801566e-17 -4.601230383185759e-18 -6.48665968801566e-17 -4.601230383185759e-18 0.9342701966280751 0.35656584201573377
12648144000.0 0.9368988889752895 0.34960044599044754 -6.488674485946023e-17 -4.111660862284576e-18 -6.488674485946023e-17 -4.111660862284576e-18 0.9368986748653908 0.34960101978587865
12648761333.333334 0.9394754422046122 0.34261624814696057 -6.490320177573351e-17 -3.622049114005254e-18 -6.490320177573351e-17 -3.622049114005254e-18 0.9394752323823673 0.34261682349229305
12649378666.666666 0.9419999319156783 0.33561306331951457 -6.491596813655458e-17 -3.132422937575066e-18 -6.491596813655458e-17 -3.132422937575066e-18 0.9419997263922953 0.33561364018271417
12649996000.0 0.9444722182072568 0.32859127960814377 -6.492504465865205e-17 -2.6428101221705803e-18 -6.492504465865205e-17 -2.6428101221705803e-18 0.9444720169937042 0.3285918579570951
12650613333.333334 0.9468921640711032 0.3215512861435865 -6.493043226778165e-17 -2.153238445364212e-18 -6.493043226778165e-17 -2.153238445364212e-18 0.9468919671781126 0.3215518659460961
12651230666.666666 0.9492596353995538 0.31449347306575154 -6.493213209859248e-17 -1.6637356715554497e-18 -6.493213209859248e-17 -1.6637356715554497e-18 0.9492594428376125 0.31449405428954724
12651848000.0 0.9515745009929826 0.30741823150198555 -6.493014549448147e-17 -1.1743295503775773e-18 -6.493014549448147e-17 -1.1743295503775773e-18 0.9515743127723395 0.3074188141147203
12652465333.333334 0.953836632567025 0.30032595354556185 -6.492447400743503e-17 -6.850478151575504e-19 -6.492447400743503e-17 -6.850478151575504e-19 0.9538364486976862 0.30032653751481464
12653082666.666666 0.9560459047597111 0.29321703223386986 -6.491511939786002e-17 -1.9591818134417018e-19 -6.491511939786002e-17 -1.9591818134417018e-19 0.9560457252514415 0.2932176175271477
12653700000.0 0.9582021951384476 0.2860918615265255 -6.490208363440252e-17 2.930316550805632e-19 -6.490208363440252e-17 2.930316550805632e-19 0.9582020200007694 0.28609244811126533
12654317333.333334 0.9603053842067119 0.2789508362838378 -6.488536889375463e-17 7.81774019127489e-19 -6.488536889375463e-17 7.81774019127489e-19 0.9603052134489032 0.2789514241274079
12654934666.666666 0.9623553554107782 0.2717943522445728 -6.486497756045042e-17 1.2702812583854221e-18 -6.486497756045042e-17 1.2702812583854221e-18 0.9623551890418747 0.27179494131427506
12655552000.0 0.9643519951461308 0.26462280600418586 -6.484091222664867e-17 1.7585257445859263e-18 -6.484091222664867e-17 1.7585257445859263e-18 0.9643518331749232 0.2646233962672574
12656169333.333334 0.9662951927637184 0.2574365949929802 -6.481317569190589e-17 2.246479875132944e-18 -6.481317569190589e-17 2.246479875132944e-18 0.9662950351987533 0.2574371864165951
12656786666.666666 0.9681848405761516 0.250236117453864 -6.478177096293584e-17 2.734116074681975e-18 -6.478177096293584e-17 2.734116074681975e-18 0.9681846874257302 0.2502367100051352
12657404000.0 0.9700208338636571 0.24302177242030643 -6.474670125335835e-17 3.221406796689449e-18 -6.474670125335835e-17 3.221406796689449e-18 0.9700206851358357 0.24302236606628785
12658021333.333334 0.9718030708798493 0.23579395969436306 -6.470796998343657e-17 3.708324524954339e-18 -6.470796998343657e-17 3.708324524954339e-18 0.9718029265824376 0.2357945544020509
12658638666.666666 0.9735314528573885 0.2285530798244367 -6.466558077980243e-17 4.1948417751722e-18 -6.466558077980243e-17 4.1948417751722e-18 0.9735313129979508 0.22855367556077172
12659256000.0 0.9752058840134735 0.2212995340829966 -6.461953747516957e-17 4.6809310964867365e-18 -6.461953747516957e-17 4.6809310964867365e-18 0.975205748599328 0.22130013081486596
12659873333.333334 0.9768262715551199 0.2140337244444801 -6.45698441080369e-17 5.1665650730224e-18 -6.45698441080369e-17 5.1665650730224e-18 0.976826140593336 0.21403432213871862
12660490666.666666 0.9783925256842865 0.2067560535630709 -6.451650492237881e-17 5.651716325430902e-18 -6.451650492237881e-17 5.651716325430902e-18 0.9783923991816874 0.2067566521864636
12661108000.0 0.9799045596029399 0.19946692474999664 -6.445952436732307e-17 6.136357512436827e-18 -6.445952436732307e-17 6.136357512436827e-18 0.9799044375661011 0.1994675242692803
12661725333.333334 0.9813622895177443 0.19216674195173405 -6.439890709682126e-17 6.620461332353115e-18 -6.439890709682126e-17 6.620461332353115e-18 0.9813621719529922 0.19216734233359878
12662342666.666666 0.982765634644786 0.18485590972723362 -6.433465796930198e-17 7.104000524639396e-18 -6.433465796930198e-17 7.104000524639396e-18 0.9827655215582002 0.18485651093832534
12662960000.0 0.9841145172140419 0.17753483322555608 -6.426678204731746e-17 7.586947871411641e-18 -6.426678204731746e-17 7.586947871411641e-18 0.9841144086114517 0.17753543523247767
12663577333.333334 0.9854088624736569 0.17020391816355837 -6.41952845971765e-17 8.069276198976298e-18 -6.41952845971765e-17 8.069276198976298e-18 0.9854087583606428 0.17020452093287203
12664194666.666666 0.986648598694105 0.16286357080332695 -6.412017108856542e-17 8.550958379359423e-18 -6.412017108856542e-17 8.550958379359423e-18 0.9866484990760008 0.16286417430155622
12664812000.0 0.9878336571721837 0.15551419792957993 -6.404144719415996e-17 9.03196733181624e-18 -6.404144719415996e-17 9.03196733181624e-18 0.9878335620540695 0.15551480212321067
12665429333.333334 0.9889639722347878 0.14815620682726302 -6.395911878922358e-17 9.512276024355664e-18 -6.395911878922358e-17 9.512276024355664e-18 0.988963881621496 0.14815681168274603
12666046666.666666 0.9900394812425479 0.14079000525903568 -6.387319195119581e-17 9.991857475250541e-18 -6.387319195119581e-17 9.991857475250541e-18 0.9900393951386609 0.1407906107427885
12666664000.0 0.991060124593359 0.13341600144228047 -6.378367295926744e-17 1.0470684754555313e-17 -6.378367295926744e-17 1.0470684754555313e-17 0.9910600430032094 0.1334166075206891
12667281333.333334 0.9920258457256032 0.1260346040270433 -6.369056829394774e-17 1.094873098560207e-17 -6.369056829394774e-17 1.094873098560207e-17 0.9920257686532707 0.12603521066646375
12667898666.666666 0.9929365911213356 0.11864622207299212 -6.359388463661751e-17 1.1425969346509293e-17 -6.359388463661751e-17 1.1425969346509293e-17 0.9929365185706513 0.1186468292397529
12668516000.0 0.9937923103092455 0.11125126502680491 -6.349362886907076e-17 1.1902373071686832e-17 -6.349362886907076e-17 1.1902373071686832e-17 0.9937922422837894 0.11125187268720851
12669133333.333334 0.9945929558674349 0.1038501426996198 -6.338980807304858e-17 1.2377915453320976e-17 -6.338980807304858e-17 1.2377915453320976e-17 0.9945928923705347 0.10385075081994456
12669750666.666666 0.9953384834260566 0.0964432652442396 -6.328242952975799e-17 1.2852569842873583e-17 -6.328242952975799e-17 1.2852569842873583e-17 0.9953384244607903 0.09644387379074182
12670368000.0 0.9960288516697843 0.08903104313228914 -6.317150071938171e-17 1.3326309652568339e-17 -6.317150071938171e-17 1.3326309652568339e-17 0.9960287972389779 0.0890316520712047
12670985333.333334 0.996664022340075 0.08161388713175066 -6.305702932057654e-17 1.3799108356874777e-17 -6.305702932057654e-17 1.3799108356874777e-17 0.9966639724463027 0.08161449642929702
