! Parameters = {f0=12700.012000; bw=77.238000; Q=6100.000000; N=10; m_0_1=1.159254; m_1_1=-1.375932; m_1_2=0.994066; m_2_2=-1.376581; m_2_3=0.631029; m_2_8=-0.004974; m_2_9=0.031730; m_3_3=-1.378518; m_3_4=0.519558; m_3_7=-0.004374; m_3_8=-0.101462; m_3_9=-0.004974; m_4_4=-1.381443; m_4_5=0.355893; m_4_6=-0.000857; m_4_7=-0.122011; m_4_8=-0.004374; m_5_5=-1.381061; m_5_6=0.763248; m_5_7=-0.000857; m_6_6=-1.381062; m_6_7=0.356235; m_7_7=-1.381429; m_7_8=0.519676; m_8_8=-1.378520; m_8_9=0.631342; m_9_9=-1.376586; m_9_10=0.995144; m_10_10=-1.375942; m_10_11=1.160049}
!
! Created with skrf (http://scikit-rf.org).
# Hz S RI R 50.0 
!freq ReS11 ImS11 ReS21 ImS21 ReS12 ImS12 ReS22 ImS22
12607400000.0 0.12703157530865058 -0.9918986736932637 1.0172921126536565e-17 6.278442219839825e-17 1.0172921126536565e-17 6.278442219839825e-17 0.12703218130947844 -0.9918985960830916
12608017333.333334 0.1198380156609618 -0.9927934578764589 1.063125342324089e-17 6.269580318303275e-17 1.063125342324089e-17 6.269580318303275e-17 0.11983862217875418 -0.9927933846647802
12608634666.666666 0.11263815877464178 -0.9936360728092105 1.1088833582545116e-17 6.260384209713095e-17 1.1088833582545116e-17 6.260384209713095e-17 0.11263876577747844 -0.993636003999442
12609252000.0 0.10543238298733701 -0.9944264742138879 1.1545637262696444e-17 6.250854520125373e-17 1.1545637262696444e-17 6.250854520125373e-17 0.10543299044327512 -0.9944264098092127
12609869333.333334 0.0982210669476909 -0.9951646205565741 1.2001640173269811e-17 6.240991893304725e-17 1.2001640173269811e-17 6.240991893304725e-17 0.09822167482476718 -0.9951645605599461
12610486666.666666 0.0910045895955885 -0.9958504730492385 1.2456818076454761e-17 6.23079699068277e-17 1.2456818076454761e-17 6.23079699068277e-17 0.09100519786182053 -0.9958504174633777
12611104000.0 0.08378333014193236 -0.9964839956518015 1.2911146788338751e-17 6.220270491315562e-17 1.2911146788338751e-17 6.220270491315562e-17 0.08378393876532057 -0.9964839444791983
12611721333.333334 0.07655766804911258 -0.9970651550739982 1.3364602180187312e-17 6.209413091840202e-17 1.3364602180187312e-17 6.209413091840202e-17 0.07655827699764145 -0.9970651083169066
12612338666.666666 0.06932798301078291 -0.9975939207771416 1.3817160179718782e-17 6.198225506430481e-17 1.3817160179718782e-17 6.198225506430481e-17 0.06932859225242335 -0.9975938784375884
12612956000.0 0.06209465493190929 -0.9980702649757381 1.4268796772386147e-17 6.186708466751399e-17 1.4268796772386147e-17 6.186708466751399e-17 0.06209526443461973 -0.998070227055515
12613573333.333334 0.05485806390906139 -0.998494162638922 1.4719488002628927e-17 6.174862721913362e-17 1.4719488002628927e-17 6.174862721913362e-17 0.05485867364078974 -0.9984941291395889
12614190666.666666 0.0476185902101559 -0.9988655914917934 1.5169209975156458e-17 6.162689038424612e-17 1.5169209975156458e-17 6.162689038424612e-17 0.04761920013884111 -0.998865562414677
12614808000.0 0.04037661425461596 -0.999184532016578 1.561793885620114e-17 6.150188200143397e-17 1.561793885620114e-17 6.150188200143397e-17 0.04037722434818985 -0.9991845073627734
12615425333.333334 0.03313251659335256 -0.9994509674536541 1.6065650874778435e-17 6.137361008228971e-17 1.6065650874778435e-17 6.137361008228971e-17 0.033133126819741406 -0.9994509472240242
12616042666.666666 0.025886677888767442 -0.9996648838024353 1.6512322323941228e-17 6.124208281091701e-17 1.6512322323941228e-17 6.124208281091701e-17 0.02588728821589369 -0.9996648679976101
12616660000.0 0.01863947889475005 -0.9998262698221059 1.695792956203016e-17 6.110730854342268e-17 1.695792956203016e-17 6.110730854342268e-17 0.018640089290533953 -0.9998262584424821
12617277333.333334 0.011391300436641159 -0.9999351170322084 1.740244901392188e-17 6.096929580739964e-17 1.740244901392188e-17 6.096929580739964e-17 0.011391910869002543 -0.9999351100779515
12617894666.666666 0.004142523391363563 -0.9999914197130921 1.7845857172262668e-17 6.082805330140302e-17 1.7845857172262668e-17 6.082805330140302e-17 0.004143133828223452 -0.9999914171841344
12618512000.0 -0.0031064713329049484 -0.9999951749062146 1.8288130598725688e-17 6.068358989441e-17 1.8288130598725688e-17 6.068358989441e-17 -0.0031058609236226283 -0.9999951768022564
12619129333.333334 -0.010355302816349634 -0.9999463824142957 1.8729245925220848e-17 6.053591462528296e-17 1.8729245925220848e-17 6.053591462528296e-17 -0.010354692466716353 -0.9999463887348023
12619746666.666666 -0.01760359014781952 -0.9998450448013244 1.9169179855141763e-17 6.038503670221144e-17 1.9169179855141763e-17 6.038503670221144e-17 -0.0176029798899005 -0.9998450555455323
12620364000.0 -0.024850952444843505 -0.9996911673924291 1.9607909164591205e-17 6.023096550215049e-17 1.9607909164591205e-17 6.023096550215049e-17 -0.024850342310696 -0.999691182559341
12620981333.333334 -0.03209700887338924 -0.9994847582735992 2.004541070358672e-17 6.007371057025493e-17 2.004541070358672e-17 6.007371057025493e-17 -0.03209639889506088 -0.9994847778619856
12621598666.666666 -0.03934137866815926 -0.9992258282912535 2.0481661397294292e-17 5.991328161929454e-17 2.0481661397294292e-17 5.991328161929454e-17 -0.039340768877686325 -0.999225852299652
12622216000.0 -0.0465836811524574 -0.9989143910516756 2.0916638247231924e-17 5.974968852906856e-17 2.0916638247231924e-17 5.974968852906856e-17 -0.04658307158186315 -0.9989144194783918
12622833333.333334 -0.0538235357582493 -0.9985504629202949 2.135031833247876e-17 5.958294134580823e-17 2.135031833247876e-17 5.958294134580823e-17 -0.053822926439542326 -0.9985504957634027
12623450666.666666 -0.06106056204604695 -0.9981340630208321 2.178267881087802e-17 5.941305028157127e-17 2.178267881087802e-17 5.941305028157127e-17 -0.061059953011219525 -0.9981341002781745
12624068000.0 -0.06829437972504206 -0.9976652132342915 2.221369692023345e-17 5.924002571362819e-17 2.221369692023345e-17 5.924002571362819e-17 -0.0682937710060684 -0.9976652549034793
12624685333.333334 -0.07552460867311772 -0.9971439381978036 2.2643349979510916e-17 5.906387818383568e-17 2.2643349979510916e-17 5.906387818383568e-17 -0.07552400030195223 -0.9971439842762149
12625302666.666666 -0.08275086895653946 -0.9965702653033509 2.3071615390008798e-17 5.888461839801294e-17 2.3071615390008798e-17 5.888461839801294e-17 -0.08275026096511522 -0.9965703157881328
12625920000.0 -0.0899727808503452 -0.9959442246962973 2.349847063656644e-17 5.870225722529087e-17 2.349847063656644e-17 5.870225722529087e-17 -0.08997217327057223 -0.995944279584367
12626537333.333334 -0.0971899648578742 -0.9952658492738407 2.3923893288719685e-17 5.851680569747334e-17 2.3923893288719685e-17 5.851680569747334e-17 -0.09718935772163766 -0.9952659085618821
12627154666.666666 -0.10440204173101991 -0.9945351746832523 2.4347861001884406e-17 5.832827500837555e-17 2.4347861001884406e-17 5.832827500837555e-17 -0.10440143507017877 -0.9945352383677217
12627772000.0 -0.11160863249001794 -0.9937522393200242 2.4770351518535122e-17 5.81366765131545e-17 2.4770351518535122e-17 5.81366765131545e-17 -0.11160802633640271 -0.9937523073971434
12628389333.333334 -0.11880935844338776 -0.9929170843258384 2.5191342669345286e-17 5.794202172764471e-17 2.5191342669345286e-17 5.794202172764471e-17 -0.11880875282879959 -0.9929171567916021
12629006666.666666 -0.12600384120783342 -0.9920297535864158 2.561081237437025e-17 5.774432232766498e-17 2.561081237437025e-17 5.774432232766498e-17 -0.1260032361640418 -0.9920298304365865
12629624000.0 -0.13319170272812594 -0.9910902937292024 2.6028738644182158e-17 5.75435901483356e-17 2.6028738644182158e-17 5.75435901483356e-17 -0.1331910982868672 -0.9910903749593128
12630241333.333334 -0.14037256529696954 -0.9900987541209211 2.6445099581027488e-17 5.733983718337494e-17 2.6445099581027488e-17 5.733983718337494e-17 -0.14037196148994557 -0.9900988397262762
12630858666.666666 -0.14754605157484993 -0.9890551868649824 2.6859873379959655e-17 5.713307558439683e-17 2.6859873379959655e-17 5.713307558439683e-17 -0.14754544843372577 -0.9890552768406549
12631476000.0 -0.1547117846098616 -0.9879596467987368 2.7273038329993508e-17 5.692331766018614e-17 2.7273038329993508e-17 5.692331766018614e-17 -0.1547111821662646 -0.9879597411395723
12632093333.333334 -0.1618693878575451 -0.9868121914905982 2.7684572815214242e-17 5.671057587598629e-17 2.7684572815214242e-17 5.671057587598629e-17 -0.16186878614306247 -0.986812290191212
12632710666.666666 -0.16901848520053245 -0.9856128812370354 2.809445531592091e-17 5.649486285275882e-17 2.809445531592091e-17 5.649486285275882e-17 -0.16901788424671038 -0.9856129842918159
12633328000.0 -0.1761587009685928 -0.9843617790593617 2.850266440973845e-17 5.627619136644706e-17 2.850266440973845e-17 5.627619136644706e-17 -0.17615810080693417 -0.9843618864624673
12633945333.333334 -0.18328965995809154 -0.983058950700466 2.890917877273233e-17 5.605457434722852e-17 2.890917877273233e-17 5.605457434722852e-17 -0.18328906062005473 -0.9830590624458287
12634562666.666666 -0.19041098745184754 -0.981704464621337 2.93139771805237e-17 5.583002487875543e-17 2.93139771805237e-17 5.583002487875543e-17 -0.1904103889688444 -0.9817045807026605
12635180000.0 -0.1975223092387956 -0.9802983919974709 2.97170385093828e-17 5.560255619739592e-17 2.97170385093828e-17 5.560255619739592e-17 -0.19752171164219012 -0.9802985124082321
12635797333.333334 -0.20462325163367787 -0.9788408067151235 3.011834173733404e-17 5.537218169145772e-17 3.011834173733404e-17 5.537218169145772e-17 -0.20462265495478446 -0.9788409314485724
12636414666.666666 -0.21171344149656954 -0.9773317853674528 3.051786594523943e-17 5.5138914900412997e-17 3.051786594523943e-17 5.5138914900412997e-17 -0.21171284576665095 -0.9773319144166118
12637032000.0 -0.2187925062526527 -0.9757714072504567 3.09155903178933e-17 5.490276951410555e-17 3.09155903178933e-17 5.490276951410555e-17 -0.21879191150291932 -0.9757715406081245
12637649333.333334 -0.22586007391168414 -0.9741597543588336 3.1311494145095246e-17 5.4663759371958816e-17 3.1311494145095246e-17 5.4663759371958816e-17 -0.2258594801732914 -0.9741598920175807
12638266666.666666 -0.23291577308756956 -0.9724969113816629 3.1705556822724924e-17 5.4421898462172015e-17 3.1705556822724924e-17 5.4421898462172015e-17 -0.2329151803916168 -0.972497053333836
12638884000.0 -0.2399592330178795 -0.9707829656979585 3.209775785380923e-17 5.4177200920909514e-17 3.209775785380923e-17 5.4177200920909514e-17 -0.23995864139540854 -0.97078311193568
12639501333.333334 -0.24699008358336014 -0.96901800737207 3.248807684958459e-17 5.3929681031481287e-17 3.248807684958459e-17 5.3929681031481287e-17 -0.24698949306535292 -0.9690181578872363
12640118666.666666 -0.25400795532721626 -0.9672021291489901 3.287649353054264e-17 5.36793532235228e-17 3.287649353054264e-17 5.36793532235228e-17 -0.2540073659445939 -0.9672022839332747
12640736000.0 -0.26101247947496636 -0.9653354264493688 3.326298772750273e-17 5.3426232072146e-17 3.326298772750273e-17 5.3426232072146e-17 -0.26101189125858704 -0.9653355854942203
12641353333.333334 -0.2680032879531601 -0.9634179973646695 3.364753938261784e-17 5.3170332297121577e-17 3.364753938261784e-17 5.3170332297121577e-17 -0.26800270093381806 -0.9634181606613155
12641970666.666666 -0.27498001340929823 -0.961449942651866 3.403012855044181e-17 5.291166876201003e-17 3.403012855044181e-17 5.291166876201003e-17 -0.27497942761772176 -0.9614501101913104
12642588000.0 -0.28194228923086095 -0.9594313657282193 3.441073539894348e-17 5.26502564733156e-17 3.441073539894348e-17 5.26502564733156e-17 -0.2819417046977108 -0.9594315375012448
12643205333.333334 -0.28888974956459984 -0.957362372665835 3.478934021053095e-17 5.2386110579621957e-17 3.478934021053095e-17 5.2386110579621957e-17 -0.28888916632046757 -0.9573625486630017
12643822666.666666 -0.29582202933587254 -0.955243072186059 3.516592338307357e-17 5.211924637071769e-17 3.516592338307357e-17 5.211924637071769e-17 -0.2958214474112789 -0.9552432523977068
12644440000.0 -0.30273876426768925 -0.9530735756538038 3.554046543090418e-17 5.184967927672361e-17 3.554046543090418e-17 5.184967927672361e-17 -0.302738183693083 -0.9530737600700516
12645057333.333334 -0.3096395908998833 -0.9508539970716889 3.59129469858219e-17 5.157742486720763e-17 3.59129469858219e-17 5.157742486720763e-17 -0.30963901170563896 -0.950854185682436
12645674666.666666 -0.3165241466082099 -0.9485844530740518 3.6283348798094325e-17 5.1302498850288783e-17 3.6283348798094325e-17 5.1302498850288783e-17 -0.3165235688246269 -0.9485846458689785
12646292000.0 -0.3233920696235905 -0.9462650629207571 3.665165173744815e-17 5.1024917071736514e-17 3.665165173744815e-17 5.1024917071736514e-17 -0.3233914932808907 -0.9462652598893235
12646909333.333334 -0.33024299905077187 -0.9438959484910435 3.701783679403879e-17 5.0744695514074027e-17 3.701783679403879e-17 5.0744695514074027e-17 -0.33024242417909855 -0.9438961496224919
12647526666.666666 -0.3370765748875597 -0.9414772342770298 3.738188507943932e-17 5.0461850295655574e-17 3.738188507943932e-17 5.0461850295655574e-17 -0.3370760015169765 -0.9414774395603861
12648144000.0 -0.34389243804371 -0.9390090473771838 3.774377782760751e-17 5.0176397669747e-17 3.774377782760751e-17 5.0176397669747e-17 -0.34389186620419815 -0.9390092568012559
12648761333.333334 -0.35069023035969 -0.936491517489679 3.810349639584215e-17 4.9888354023602984e-17 3.810349639584215e-17 4.9888354023602984e-17 -0.3506896600811474 -0.9364917310430577
12649378666.666666 -0.3574695946254991 -0.9339247769055787 3.8461022265737993e-17 4.9597735877533126e-17 3.8461022265737993e-17 4.9597735877533126e-17 -0.3574690259377389 -0.93392499457664
12649996000.0 -0.36423017459957413 -0.9313089605018402 3.8816337044140426e-17 4.930455988395554e-17 3.8816337044140426e-17 4.930455988395554e-17 -0.3642296075323231 -0.9313091822787445
12650613333.333334 -0.37097161502740095 -0.928644205734261 3.916942246408209e-17 4.9008842826452816e-17 3.916942246408209e-17 4.9008842826452816e-17 -0.37097104961029737 -0.9286444316049539
12651230666.666666 -0.3776935616602095 -0.9259306526302492 3.952026038571076e-17 4.871060161882209e-17 3.952026038571076e-17 4.871060161882209e-17 -0.37769299792280264 -0.9259308825824633
12651848000.0 -0.3843956612735898 -0.9231684437814662 3.9868832797229565e-17 4.840985330410301e-17 3.9868832797229565e-17 4.840985330410301e-17 -0.3843950992453373 -0.9231686778027194
12652465333.333334 -0.39107756168605123 -0.9203577243363292 4.02151218158036e-17 4.8106615053620484e-17 4.02151218158036e-17 4.8106615053620484e-17 -0.39107700139631824 -0.9203579624139279
12653082666.666666 -0.3977389117775308 -0.9174986419923901 4.05591096884719e-17 4.7800904166010894e-17 4.05591096884719e-17 4.7800904166010894e-17 -0.3977383532555884 -0.9174988841134284
12653700000.0 -0.40437936150784265 -0.9145913469885687 4.090077879306524e-17 4.749273806622988e-17 4.090077879306524e-17 4.749273806622988e-17 -0.40437880478286586 -0.9145915931399295
12654317333.333334 -0.41099856193507206 -0.9116359920972608 4.1240111639084494e-17 4.718213430458207e-17 4.1240111639084494e-17 4.718213430458207e-17 -0.41099800703613903 -0.9116362422656172
12654934666.666666 -0.4175961652339126 -0.9086327326163115 4.157709086860363e-17 4.686911055571603e-17 4.157709086860363e-17 4.686911055571603e-17 -0.41759561219000235 -0.9086329867881259
12655552000.0 -0.42417182471394216 -0.9055817263608515 4.19116992571517e-17 4.655368461762474e-17 4.19116992571517e-17 4.655368461762474e-17 -0.42417127355393364 -0.9055819845223776
12656169333.333334 -0.43072519483784155 -0.9024831336550053 4.2243919714574464e-17 4.6235874410651894e-17 4.2243919714574464e-17 4.6235874410651894e-17 -0.4307246455905119 -0.9024833957922889
12656786666.666666 -0.43725593123955214 -0.8993371173234683 4.257373528591979e-17 4.5915697976463223e-17 4.257373528591979e-17 4.5915697976463223e-17 -0.43725538393357544 -0.8993373834223479
12657404000.0 -0.44376369074237154 -0.8961438426829497 4.290112915228258e-17 4.559317347704151e-17 4.290112915228258e-17 4.559317347704151e-17 -0.4437631454063163 -0.8961441127290556
12658021333.333334 -0.45024813137701103 -0.8929034775334705 4.322608463166455e-17 4.5268319193655386e-17 4.322608463166455e-17 4.5268319193655386e-17 -0.4502475880393399 -0.8929037515122279
12658638666.666666 -0.45670891239943895 -0.8896161921496116 4.354858517981061e-17 4.4941153525836575e-17 4.354858517981061e-17 4.4941153525836575e-17 -0.45670837108850754 -0.8896164700462418
12659256000.0 -0.46314569430904234 -0.8862821592714422 4.3868614391057925e-17 4.461169499033135e-17 4.3868614391057925e-17 4.461169499033135e-17 -0.46314515505309567 -0.8862824410709594
12659873333.333334 -0.4695581388662333 -0.8829015540955476 4.4186155999152923e-17 4.4279962220069585e-17 4.4186155999152923e-17 4.4279962220069585e-17 -0.46955760169340655 -0.8829018397827646
12660490666.666666 -0.4759459091102289 -0.8794745542658359 4.450119387807249e-17 4.394597396311736e-17 4.450119387807249e-17 4.394597396311736e-17 -0.4759453740485449 -0.8794748438253619
12661108000.0 -0.4823086693770065 -0.8760013398640638 4.4813712042849033e-17 4.3609749081610307e-17 4.4813712042849033e-17 4.3609749081610307e-17 -0.4823081364543742 -0.8760016332803058
12661725333.333334 -0.4886460853165906 -0.8724820934005612 4.5123694650358217e-17 4.327130655071231e-17 4.5123694650358217e-17 4.327130655071231e-17 -0.4886455545608039 -0.872482390657725
12662342666.666666 -0.4949578239108986 -0.868916999804494 4.5431126000129504e-17 4.293066545753625e-17 4.5431126000129504e-17 4.293066545753625e-17 -0.49495729534963473 -0.8689173008865857
12662960000.0 -0.5012435534911145 -0.865306246414213 4.573599053512926e-17 4.2587845000079963e-17 4.573599053512926e-17 4.2587845000079963e-17 -0.5012430271519331 -0.8653065513050392
12663577333.333334 -0.5075029437551436 -0.861650022967398 4.6038272842542894e-17 4.224286448614877e-17 4.6038272842542894e-17 4.224286448614877e-17 -0.507502419665485 -0.8616503316505673
12664194666.666666 -0.513735665784968 -0.8579485215910859 4.633795765454786e-17 4.1895743332273736e-17 4.633795765454786e-17 4.1895743332273736e-17 -0.5137351439721509 -0.8579488340500077
12664812000.0 -0.5199413920639308 -0.8542019367915737 4.6635029849078595e-17 4.1546501062624716e-17 4.6635029849078595e-17 4.1546501062624716e-17 -0.5199408725551523 -0.8542022530094621
12665429333.333334 -0.5261197964939712 -0.8504104654441862 4.6929474450584425e-17 4.119515730791655e-17 4.6929474450584425e-17 4.119515730791655e-17 -0.526119279316304 -0.8504107854040581
12666046666.666666 -0.5322705544126378 -0.846574306783 4.722127663077235e-17 4.084173180431796e-17 4.722127663077235e-17 4.084173180431796e-17 -0.5322700395930304 -0.8465746304676793
12666664000.0 -0.5383933426104173 -0.8426936623902159 4.751042170935888e-17 4.048624439233519e-17 4.751042170935888e-17 4.048624439233519e-17 -0.5383928301756913 -0.8426939897823311
12667281333.333334 -0.5444878393473785 -0.8387687361857722 4.7796895154790816e-17 4.012871501571737e-17 4.7796895154790816e-17 4.012871501571737e-17 -0.5444873293242273 -0.8387690672677584
12667898666.666666 -0.550553724370321 -0.8347997344164781 4.8080682584974615e-17 3.976916372033632e-17 4.8080682584974615e-17 3.976916372033632e-17 -0.5505532167853086 -0.8348000691705789
12668516000.0 -0.5565906789296028 -0.8307868656451775 4.8361769767990806e-17 3.940761065306965e-17 4.8361769767990806e-17 3.940761065306965e-17 -0.5565901738091626 -0.8307872040534449
12669133333.333334 -0.5625983857956751 -0.8267303407399265 4.864014262280143e-17 3.9044076060677556e-17 4.864014262280143e-17 3.9044076060677556e-17 -0.562597883166109 -0.8267306827842229
12669750666.666666 -0.5685765292759916 -0.8226303728627593 4.891578721994836e-17 3.867858028867429e-17 4.891578721994836e-17 3.867858028867429e-17 -0.5685760291634674 -0.8226307185247571
12670368000.0 -0.5745247952314995 -0.8184871774585458 4.918868978224497e-17 3.8311143780193735e-17 4.918868978224497e-17 3.8311143780193735e-17 -0.5745242976620512 -0.8184875267197304
