! Parameters = {f0=12700.012000; bw=77.238000; Q=6100.000000; N=10; m_0_1=1.170465; m_1_1=-1.207764; m_1_2=1.005277; m_2_2=-1.208413; m_2_3=0.642240; m_2_8=-0.004413; m_2_9=0.032291; m_3_3=-1.210350; m_3_4=0.530769; m_3_7=-0.003813; m_3_8=-0.100901; m_3_9=-0.004413; m_4_4=-1.213275; m_4_5=0.367104; m_4_6=-0.000296; m_4_7=-0.121450; m_4_8=-0.003813; m_5_5=-1.212893; m_5_6=0.774459; m_5_7=-0.000296; m_6_6=-1.212894; m_6_7=0.367446; m_7_7=-1.213261; m_7_8=0.530887; m_8_8=-1.210352; m_8_9=0.642553; m_9_9=-1.208418; m_9_10=1.006355; m_10_10=-1.207774; m_10_11=1.171260}
!
! Created with skrf (http://scikit-rf.org).
# Hz S RI R 50.0 
!freq ReS11 ImS11 ReS21 ImS21 ReS12 ImS12 ReS22 ImS22
12607400000.0 -0.3546554780483145 -0.934997054482083 4.086330054966389e-17 5.369120499419197e-17 4.086330054966389e-17 5.369120499419197e-17 -0.35465490130495353 -0.9349972732474805
12608017333.333334 -0.3617329136610636 -0.9322817702680491 4.1265775029779893e-17 5.336578771534945e-17 4.1265775029779893e-17 5.336578771534945e-17 -0.36173233862075943 -0.9322819933881628
12608634666.666666 -0.36878956306285077 -0.9295129144749757 4.166566408427882e-17 5.30373582610298e-17 4.166566408427882e-17 5.30373582610298e-17 -0.368788989758478 -0.9295131419365574
12609252000.0 -0.37582502075838836 -0.9266906462092986 4.206294520717836e-17 5.2705937127306334e-17 4.206294520717836e-17 5.2705937127306334e-17 -0.37582444922271985 -0.9266908779988553
12609869333.333334 -0.38283888247023184 -0.923815127646649 4.245759605463542e-17 5.237154497812349e-17 4.245759605463542e-17 5.237154497812349e-17 -0.3828383127359346 -0.9238153637504375
12610486666.666666 -0.3898307451617197 -0.9208865240226446 4.2849594446213945e-17 5.203420264400227e-17 4.2849594446213945e-17 5.203420264400227e-17 -0.3898301772613541 -0.9208867644266754
12611104000.0 -0.3968002070605015 -0.9179050036232472 4.3238918366115223e-17 5.169393112075742e-17 4.3238918366115223e-17 5.169393112075742e-17 -0.3967996410265197 -0.9179052483132861
12611721333.333334 -0.403746867681336 -0.9148707377752118 4.3625545964398875e-17 5.1350751568206446e-17 4.3625545964398875e-17 5.1350751568206446e-17 -0.4037463035460793 -0.9148709867367786
12612338666.666666 -0.41067032784920976 -0.9117839008361976 4.4009455558219817e-17 5.1004685308847e-17 4.4009455558219817e-17 5.1004685308847e-17 -0.41066976564490776 -0.9117841540545691
12612956000.0 -0.41757018972235205 -0.9086446701847147 4.4390625633027963e-17 5.065575382654679e-17 4.4390625633027963e-17 5.065575382654679e-17 -0.41756962948112003 -0.9086449276449244
12613573333.333334 -0.4244460568149406 -0.9054532262100004 4.476903484375875e-17 5.0303978765225876e-17 4.476903484375875e-17 5.0303978765225876e-17 -0.4244454985687778 -0.9054534878968391
12614190666.666666 -0.43129753401998827 -0.902209752301607 4.5144662016041055e-17 4.9949381927503756e-17 4.5144662016041055e-17 4.9949381927503756e-17 -0.43129697780077625 -0.9022100181996245
12614808000.0 -0.43812422763199554 -0.8989144348388877 4.5517486147352126e-17 4.9591985273376223e-17 4.5517486147352126e-17 4.9591985273376223e-17 -0.4381236734714963 -0.8989147049323932
12615425333.333334 -0.44492574536967705 -0.895567463180238 4.5887486408204805e-17 4.923181091884535e-17 4.5887486408204805e-17 4.923181091884535e-17 -0.4449251932995309 -0.8955677374533012
12616042666.666666 -0.4517016963983481 -0.8921690296522874 4.6254642143295053e-17 4.8868881134565735e-17 4.6254642143295053e-17 4.8868881134565735e-17 -0.4517011464500726 -0.8921693080887393
12616660000.0 -0.45845169135248737 -0.8887193295387996 4.661893287263991e-17 4.850321834448334e-17 4.661893287263991e-17 4.850321834448334e-17 -0.4584511435574749 -0.8887196121222338
12617277333.333334 -0.46517534235808367 -0.8852185610694626 4.69803382927317e-17 4.813484512443887e-17 4.69803382927317e-17 4.813484512443887e-17 -0.4651747967475997 -0.8852188477832359
12617894666.666666 -0.47187226305490027 -0.8816669254085109 4.7338838277640353e-17 4.7763784200802645e-17 4.7338838277640353e-17 4.7763784200802645e-17 -0.4718717196600818 -0.8816672162357444
12618512000.0 -0.47854206861880155 -0.8780646266431008 4.7694412880148544e-17 4.739005844905849e-17 4.7694412880148544e-17 4.739005844905849e-17 -0.47854152747065526 -0.878064921566681
12619129333.333334 -0.4851843757835903 -0.874411871771729 4.80470423328327e-17 4.7013690892422614e-17 4.80470423328327e-17 4.7013690892422614e-17 -0.48518383691299055 -0.8744121707743086
12619746666.666666 -0.49179880286335614 -0.8707088706921621 4.839670704917297e-17 4.663470470041335e-17 4.839670704917297e-17 4.663470470041335e-17 -0.491798266301044 -0.8707091737561616
12620364000.0 -0.49838496977425856 -0.8669558361894572 4.874338762462558e-17 4.6253123187440225e-17 4.874338762462558e-17 4.6253123187440225e-17 -0.49838443555083894 -0.8669561432970653
12620981333.333334 -0.50494249805622 -0.8631529839238206 4.9087064837684675e-17 4.5868969811385706e-17 4.9087064837684675e-17 4.5868969811385706e-17 -0.5049419662021603 -0.8631532950569943
12621598666.666666 -0.5114710108949926 -0.8593005324180272 4.9427719650955557e-17 4.548226817215307e-17 4.9427719650955557e-17 4.548226817215307e-17 -0.5114704814406213 -0.8593008475584956
12622216000.0 -0.5179701331435419 -0.8553987030450259 4.9765333212194116e-17 4.509304201023248e-17 4.9765333212194116e-17 4.509304201023248e-17 -0.5179696061190469 -0.8553990221742885
12622833333.333334 -0.5244394913437255 -0.851447720015143 5.009988685533449e-17 4.470131520525885e-17 5.009988685533449e-17 4.470131520525885e-17 -0.5244389667791519 -0.8514480431144729
12623450666.666666 -0.5308787137477291 -0.8474478103632145 5.0431362101531413e-17 4.430711177453429e-17 5.0431362101531413e-17 4.430711177453429e-17 -0.5308781916729782 -0.8474481374136583
12624068000.0 -0.5372874303394047 -0.843399203935556 5.0759740660152574e-17 4.3910455871585173e-17 5.0759740660152574e-17 4.3910455871585173e-17 -0.537286910784231 -0.8433995349179343
12624685333.333334 -0.5436652728556269 -0.8393021333766922 5.1085004429797676e-17 4.3511371784669266e-17 5.1085004429797676e-17 4.3511371784669266e-17 -0.5436647558496377 -0.8393024682716023
12625302666.666666 -0.5500118748072889 -0.8351568341160966 5.140713549927843e-17 4.3109883935306997e-17 5.140713549927843e-17 4.3109883935306997e-17 -0.5500113603799416 -0.8351571729039124
12625920000.0 -0.5563268715005749 -0.8309635443545244 5.1726116148601416e-17 4.270601687678794e-17 5.1726116148601416e-17 4.270601687678794e-17 -0.5563263596811767 -0.8309638870153987
12626537333.333334 -0.5626099000576561 -0.8267225050504949 5.204192884992796e-17 4.229979529268521e-17 5.204192884992796e-17 4.229979529268521e-17 -0.5626093908753609 -0.826722851564359
12627154666.666666 -0.5688605994377561 -0.8224339599063066 5.2354556268533827e-17 4.189124399534777e-17 5.2354556268533827e-17 4.189124399534777e-17 -0.5688600929215638 -0.8224343102528735
12627772000.0 -0.5750786104578962 -0.8180981553540295 5.26639812637571e-17 4.1480387924385556e-17 5.26639812637571e-17 4.1480387924385556e-17 -0.5750781066366507 -0.8180985095127938
12628389333.333334 -0.5812635758133017 -0.8137153405415096 5.2970186889923e-17 4.1067252145163157e-17 5.2970186889923e-17 4.1067252145163157e-17 -0.5812630747156892 -0.8137156984917484
12629006666.666666 -0.5874151400982365 -0.8092857673178372 5.327315639726769e-17 4.065186184727092e-17 5.327315639726769e-17 4.065186184727092e-17 -0.5874146417527834 -0.8092861290386116
12629624000.0 -0.5935329498262624 -0.8048096902189904 5.357287323283744e-17 4.0234242343008406e-17 5.357287323283744e-17 4.0234242343008406e-17 -0.5935324542613343 -0.8048100556891471
12630241333.333334 -0.5996166534505285 -0.8002873664532258 5.386932104140027e-17 3.9814419065827125e-17 5.386932104140027e-17 3.9814419065827125e-17 -0.5996161606943293 -0.8002877356513989
12630858666.666666 -0.6056659013840207 -0.7957190558862677 5.4162483666311994e-17 3.9392417568812916e-17 5.4162483666311994e-17 3.9392417568812916e-17 -0.6056654114645891 -0.7957194287908776
12631476000.0 -0.6116803460197369 -0.791105021026302 5.445234515040352e-17 3.8968263523115505e-17 5.445234515040352e-17 3.8968263523115505e-17 -0.6116798589649469 -0.7911053976155603
12632093333.333334 -0.6176596417504382 -0.7864455270090686 5.473888973683451e-17 3.8541982716403103e-17 5.473888973683451e-17 3.8541982716403103e-17 -0.6176591575879955 -0.7864459072609755
12632710666.666666 -0.62360344498871 -0.7817408415824671 5.5022101869934116e-17 3.81136010513102e-17 5.5022101869934116e-17 3.81136010513102e-17 -0.6236029637461519 -0.7817412254748156
12633328000.0 -0.6295114141866829 -0.77699123509119 5.5301966196050003e-17 3.7683144543851625e-17 5.5301966196050003e-17 3.7683144543851625e-17 -0.6295109358913767 -0.776991622601566
12633945333.333334 -0.6353832098555482 -0.7721969804612748 5.557846756436511e-17 3.7250639321858475e-17 5.557846756436511e-17 3.7250639321858475e-17 -0.6353827345346882 -0.7721973715670576
12634562666.666666 -0.6412184945851325 -0.7673583531843692 5.585159102770244e-17 3.6816111623408114e-17 5.585159102770244e-17 3.6816111623408114e-17 -0.6412180222657398 -0.7673587478627347
12635180000.0 -0.6470169330633507 -0.7624756313018454 5.612132184333688e-17 3.637958779522011e-17 5.612132184333688e-17 3.637958779522011e-17 -0.6470164637722714 -0.7624760295297658
12635797333.333334 -0.6527781920953649 -0.7575490953889111 5.63876454737751e-17 3.5941094291074554e-17 5.63876454737751e-17 3.5941094291074554e-17 -0.6527777258592692 -0.7575494971431583
12636414666.666666 -0.6585019406227128 -0.7525790285385132 5.66505475875239e-17 3.550065767022509e-17 5.66505475875239e-17 3.550065767022509e-17 -0.6585014774680913 -0.7525794337956567
12637032000.0 -0.6641878497425212 -0.7475657163448965 5.691001405986626e-17 3.5058304595774255e-17 5.691001405986626e-17 3.5058304595774255e-17 -0.6641873896956858 -0.7475661250813084
12637649333.333334 -0.6698355927261909 -0.7425094468873801 5.716603097359437e-17 3.4614061833091357e-17 5.716603097359437e-17 3.4614061833091357e-17 -0.6698351358132729 -0.7425098590792348
12638266666.666666 -0.6754448450382621 -0.7374105107137339 5.741858461976069e-17 3.416795624817687e-17 5.741858461976069e-17 3.416795624817687e-17 -0.6754443912852086 -0.7374109263370081
12638884000.0 -0.6810152843551196 -0.7322692008234178 5.766766149839625e-17 3.3720014806053745e-17 5.766766149839625e-17 3.3720014806053745e-17 -0.6810148337876952 -0.7322696198538955
12639501333.333334 -0.6865465905834139 -0.7270858126508468 5.791324831921651e-17 3.327026456915355e-17 5.791324831921651e-17 3.327026456915355e-17 -0.6865461432271966 -0.727086235064117
12640118666.666666 -0.6920384458784115 -0.7218606440484505 5.815533200233263e-17 3.281873269566839e-17 5.815533200233263e-17 3.281873269566839e-17 -0.6920380017587934 -0.7218610698199116
12640736000.0 -0.6974905346625508 -0.7165939952692879 5.839389967893127e-17 3.236544643792665e-17 5.839389967893127e-17 3.236544643792665e-17 -0.697490093804734 -0.7165944243741461
12641353333.333334 -0.702902543643161 -0.7112861689501807 5.862893869194394e-17 3.191043314076492e-17 5.862893869194394e-17 3.191043314076492e-17 -0.7029021060721592 -0.7112866013634549
12641970666.666666 -0.7082741618307548 -0.7059374700940529 5.886043659672052e-17 3.1453720239861053e-17 5.886043659672052e-17 3.1453720239861053e-17 -0.7082737275713895 -0.7059379057905727
12642588000.0 -0.7136050805568567 -0.7005482060524407 5.908838116166328e-17 3.09953352601129e-17 5.908838116166328e-17 3.09953352601129e-17 -0.7136046496337569 -0.7005486450068503
12643205333.333334 -0.7188949934916169 -0.6951186865079503 5.931276036887521e-17 3.053530581396232e-17 5.931276036887521e-17 3.053530581396232e-17 -0.718894565929218 -0.6951191286947095
12643822666.666666 -0.7241435966615782 -0.6896492234563047 5.953356241477554e-17 3.007365959975132e-17 5.953356241477554e-17 3.007365959975132e-17 -0.7241431724841191 -0.6896496688496891
12644440000.0 -0.7293505884669995 -0.684140131188554 5.975077571071343e-17 2.961042440005388e-17 5.975077571071343e-17 2.961042440005388e-17 -0.7293501676985235 -0.6841405797626587
12645057333.333334 -0.7345156696992887 -0.6785917262729161 5.99643888835599e-17 2.9145628080020255e-17 5.99643888835599e-17 2.9145628080020255e-17 -0.7345152523636396 -0.6785921780016549
12645674666.666666 -0.7396385435580776 -0.6730043275367082 6.017439077629579e-17 2.867929858570022e-17 6.017439077629579e-17 2.867929858570022e-17 -0.7396381296789004 -0.6730047823938169
12646292000.0 -0.7447189156684706 -0.6673782560478188 6.038077044858758e-17 2.821146394235856e-17 6.038077044858758e-17 2.821146394235856e-17 -0.7447185052692098 -0.6673787140068559
12646909333.333334 -0.7497564940977678 -0.661713835096466 6.058351717733474e-17 2.774215225282103e-17 6.058351717733474e-17 2.774215225282103e-17 -0.7497560872016653 -0.6617142961308146
12647526666.666666 -0.7547509893723191 -0.6560113901765395 6.078262045722629e-17 2.7271391695768223e-17 6.078262045722629e-17 2.7271391695768223e-17 -0.7547505860024122 -0.6560118542594073
12648144000.0 -0.7597021144941908 -0.6502712489668498 6.097807000126666e-17 2.679921052406344e-17 6.097807000126666e-17 2.679921052406344e-17 -0.759701714673313 -0.6502717160712733
12648761333.333334 -0.7646095849576414 -0.6444937413123215 6.116985574129816e-17 2.6325637063056268e-17 6.116985574129816e-17 2.6325637063056268e-17 -0.764609188708421 -0.6444942114111665
12649378666.666666 -0.7694731187653607 -0.6386791992051712 6.13579678285016e-17 2.585069970890343e-17 6.13579678285016e-17 2.585069970890343e-17 -0.7694727261102169 -0.6386796722711331
12649996000.0 -0.7742924364448202 -0.6328279567656561 6.154239663389959e-17 2.5374426926847693e-17 6.154239663389959e-17 2.5374426926847693e-17 -0.7742920474059636 -0.6328284327712623
12650613333.333334 -0.7790672610643289 -0.6269403502228708 6.172313274882486e-17 2.4896847249545706e-17 6.172313274882486e-17 2.4896847249545706e-17 -0.779066875663761 -0.6269408291404832
12651230666.666666 -0.7837973182487706 -0.6210167178956506 6.190016698539789e-17 2.44179892753404e-17 6.190016698539789e-17 2.44179892753404e-17 -0.783796936508282 -0.621017199697467
12651848000.0 -0.7884823361956022 -0.6150574001728428 6.207349037697547e-17 2.3937881666564592e-17 6.207349037697547e-17 2.3937881666564592e-17 -0.7884819581367697 -0.6150578848308967
12652465333.333334 -0.7931220456903615 -0.609062739493877 6.224309417858806e-17 2.3456553147842298e-17 6.224309417858806e-17 2.3456553147842298e-17 -0.7931216713345494 -0.6090632269800416
12653082666.666666 -0.7977161801220382 -0.6030330803292262 6.240896986737519e-17 2.297403250435483e-17 6.240896986737519e-17 2.297403250435483e-17 -0.7977158094903954 -0.603033570615214
12653700000.0 -0.8022644754986149 -0.5969687691603169 6.257110914299533e-17 2.249034858013579e-17 6.257110914299533e-17 2.249034858013579e-17 -0.8022641086120745 -0.596969262217683
12654317333.333334 -0.8067666704620502 -0.5908701544598695 6.27295039280234e-17 2.200553027636359e-17 6.27295039280234e-17 2.200553027636359e-17 -0.8067663073413278 -0.5908706502600122
12654934666.666666 -0.8112225063033635 -0.5847375866717825 6.288414636834587e-17 2.1519606549619016e-17 6.288414636834587e-17 2.1519606549619016e-17 -0.8112221469689572 -0.5847380851859458
12655552000.0 -0.8156317269775554 -0.5785714181909279 6.30350288335316e-17 2.1032606410172434e-17 6.30350288335316e-17 2.1032606410172434e-17 -0.8156313714497428 -0.5785719193902021
12656169333.333334 -0.8199940791182145 -0.572372003343037 6.318214391718939e-17 2.0544558920268442e-17 6.318214391718939e-17 2.0544558920268442e-17 -0.8199937274170532 -0.5723725071983614
12656786666.666666 -0.8243093120521493 -0.5661396983642499 6.33254844373242e-17 2.0055493192372407e-17 6.33254844373242e-17 2.0055493192372407e-17 -0.824308964197474 -0.5661402048464134
12657404000.0 -0.8285771778137702 -0.5598748613806653 6.346504343666205e-17 1.9565438387468372e-17 6.346504343666205e-17 1.9565438387468372e-17 -0.8285768338251935 -0.5598753704603093
12658021333.333334 -0.8327974311593429 -0.5535778523877658 6.36008141829809e-17 1.9074423713297577e-17 6.36008141829809e-17 1.9074423713297577e-17 -0.8327970910562535 -0.553578364035385
12658638666.666666 -0.8369698295810628 -0.5472490332297509 6.373279016940931e-17 1.8582478422652247e-17 6.373279016940931e-17 1.8582478422652247e-17 -0.8369694933826244 -0.547249547415696
12659256000.0 -0.8410941333210552 -0.5408887675786536 6.386096511472849e-17 1.808963181161338e-17 6.386096511472849e-17 1.808963181161338e-17 -0.8410938010462038 -0.540889284273131
12659873333.333334 -0.8451701053850535 -0.5344974209135805 6.398533296365023e-17 1.7595913217822845e-17 6.398533296365023e-17 1.7595913217822845e-17 -0.8451697770524994 -0.5344979400866566
12660490666.666666 -0.8491975115560707 -0.528075360499644 6.410588788708183e-17 1.710135201875376e-17 6.410588788708183e-17 1.710135201875376e-17 -0.8491971871842955 -0.5280758821212455
12661108000.0 -0.8531761204079146 -0.5216229553667583 6.422262428238611e-17 1.660597762994639e-17 6.422262428238611e-17 1.660597762994639e-17 -0.8531758000151702 -0.5216234794066739
12661725333.333334 -0.8571057033183224 -0.5151405762887012 6.433553677361985e-17 1.610981950327544e-17 6.433553677361985e-17 1.610981950327544e-17 -0.8571053869226312 -0.5151411027165838
12662342666.666666 -0.8609860344823074 -0.5086285957614693 6.4444620211758e-17 1.561290712521562e-17 6.4444620211758e-17 1.561290712521562e-17 -0.8609857221014583 -0.5086291245468366
12662960000.0 -0.8648168909249669 -0.5020873879821376 6.454986967491371e-17 1.5115270015073296e-17 6.454986967491371e-17 1.5115270015073296e-17 -0.8648165825765192 -0.5020879190943767
12663577333.333334 -0.868598052514363 -0.49551732882726535 6.465128046853617e-17 1.461693772324958e-17 6.465128046853617e-17 1.461693772324958e-17 -0.8685977482156405 -0.4955178622356312
12664194666.666666 -0.8723293019742049 -0.48891879583121783 6.474884812559515e-17 1.4117939829502337e-17 6.474884812559515e-17 1.4117939829502337e-17 -0.8723290017422982 -0.4889193315048371
12664812000.0 -0.8760104248962558 -0.4822921681646232 6.484256840676008e-17 1.3618305941174232e-17 6.484256840676008e-17 1.3618305941174232e-17 -0.8760101287480194 -0.48229270607249486
12665429333.333334 -0.8796412097527054 -0.4756378266124834 6.493243730055769e-17 1.3118065691452727e-17 6.493243730055769e-17 1.3118065691452727e-17 -0.8796409177047584 -0.4756383667234818
12666046666.666666 -0.8832214479083033 -0.4689561535523459 6.501845102351696e-17 1.2617248737629464e-17 6.501845102351696e-17 1.2617248737629464e-17 -0.8832211599770262 -0.468956695835221
12666664000.0 -0.8867509336324061 -0.46224753293220155 6.51006060203074e-17 1.2115884759321798e-17 6.51006060203074e-17 1.2115884759321798e-17 -0.8867506498339425 -0.4622480773555822
12667281333.333334 -0.8902294641106611 -0.4555123502487024 6.517889896385363e-17 1.161400345674932e-17 6.517889896385363e-17 1.161400345674932e-17 -0.8902291844609148 -0.45551289678109713
12667898666.666666 -0.8936568394568283 -0.44875099252468026 6.525332675544664e-17 1.1111634548954248e-17 6.525332675544664e-17 1.1111634548954248e-17 -0.8936565639714629 -0.44875154113447935
12668516000.0 -0.8970328627241849 -0.4419638482870577 6.532388652483456e-17 1.0608807772058402e-17 6.532388652483456e-17 1.0608807772058402e-17 -0.8970325914186252 -0.4419643989425362
12669133333.333334 -0.9003573399167736 -0.43515130754467796 6.539057563030103e-17 1.0105552877520021e-17 6.539057563030103e-17 1.0105552877520021e-17 -0.9003570728062013 -0.43515186021399554
12669750666.666666 -0.9036300800007082 -0.4283137617655602 6.54533916587345e-17 9.601899630356794e-18 6.54533916587345e-17 9.601899630356794e-18 -0.9036298171000624 -0.42831431641676426
12670368000.0 -0.9068508949150276 -0.4214516038546604 6.551233242567925e-17 9.097877807402258e-18 6.551233242567925e-17 9.097877807402258e-18 -0.9068506362390036 -0.4214521604556872
