! Parameters = {f0=12700.012000; bw=77.238000; Q=6100.000000; N=10; m_0_1=1.267362; m_1_1=0.245690; m_1_2=1.102174; m_2_2=0.245041; m_2_3=0.739137; m_2_8=0.000432; m_2_9=0.037136; m_3_3=0.243104; m_3_4=0.627666; m_3_7=0.001032; m_3_8=-0.096056; m_3_9=0.000432; m_4_4=0.240179; m_4_5=0.464001; m_4_6=0.004549; m_4_7=-0.116605; m_4_8=0.001032; m_5_5=0.240561; m_5_6=0.871356; m_5_7=0.004549; m_6_6=0.240560; m_6_7=0.464343; m_7_7=0.240193; m_7_8=0.627784; m_8_8=0.243102; m_8_9=0.739450; m_9_9=0.245036; m_9_10=1.103252; m_10_10=0.245680; m_10_11=1.268157}
!
! Created with skrf (http://scikit-rf.org).
# Hz S RI R 50.0 
!freq ReS11 ImS11 ReS21 ImS21 ReS12 ImS12 ReS22 ImS22
12607400000.0 -0.7094556322733734 0.704750101692375 5.243813479898122e-17 -9.58241309430625e-17 5.243813479898122e-17 -9.58241309430625e-17 -0.70945610285365 0.7047496279697739
12608017333.333334 -0.7020559718109457 0.7121217679894453 5.141579470893639e-17 -9.635229746683678e-17 5.141579470893639e-17 -9.635229746683678e-17 -0.7020564472902011 0.7121212992307457
12608634666.666666 -0.6945797195438616 0.719415744335774 5.038814968184391e-17 -9.686956551723392e-17 5.038814968184391e-17 -9.686956551723392e-17 -0.6945801998697448 0.7194152805916268
12609252000.0 -0.6870276911046947 0.7266312349845535 4.93553158071841e-17 -9.737588197423234e-17 4.93553158071841e-17 -9.737588197423234e-17 -0.6870281762243323 0.7266307763050582
12609869333.333334 -0.6794007103929093 0.7337674527515075 4.831740970453818e-17 -9.787119495343193e-17 4.831740970453818e-17 -9.787119495343193e-17 -0.6794012002529097 0.7337669991862061
12610486666.666666 -0.6716996094850143 0.74082361910073 4.727454851048022e-17 -9.83554538113084e-17 4.727454851048022e-17 -9.83554538113084e-17 -0.6717001040314745 0.7408231706986025
12611104000.0 -0.6639252285436847 0.7477989642297184 4.6226849865330364e-17 -9.882860915036926e-17 4.6226849865330364e-17 -9.882860915036926e-17 -0.6639257277221949 0.7477985210391754
12611721333.333334 -0.656078415726332 0.7546927271531447 4.517443189997223e-17 -9.929061282411555e-17 4.517443189997223e-17 -9.929061282411555e-17 -0.6560789194819824 0.7546922892220237
12612338666.666666 -0.6481600270922988 0.7615041557861227 4.411741322250875e-17 -9.97414179419153e-17 4.411741322250875e-17 -9.97414179419153e-17 -0.6481605353696862 0.7615037231616836
12612956000.0 -0.6401709265096144 0.768232507026126 4.3055912904940366e-17 -1.0018097887370253e-16 4.3055912904940366e-17 -1.0018097887370253e-16 -0.6401714392528478 0.7682320797550447
12613573333.333334 -0.632111985560772 0.7748770468340397 4.1990050469795034e-17 -1.0060925125453803e-16 4.1990050469795034e-17 -1.0060925125453803e-16 -0.6321125027134789 0.774876624962404
12614190666.666666 -0.6239840834475782 0.781437050314298 4.091994587665872e-17 -1.0102619198904965e-16 4.091994587665872e-17 -1.0102619198904965e-16 -0.6239846049529095 0.7814366338876013
12614808000.0 -0.6157881068952764 0.7879118017939286 3.9845719508734354e-17 -1.0143175925570066e-16 3.9845719508734354e-17 -1.0143175925570066e-16 -0.6157886326959155 0.7879113908570676
12615425333.333334 -0.6075249500557234 0.7943005949007058 3.8767492159298865e-17 -1.0182591251093977e-16 3.8767492159298865e-17 -1.0182591251093977e-16 -0.607525480093889 0.7943001894979715
12616042666.666666 -0.5991955144099921 0.8006027326400834 3.768538501816906e-17 -1.0220861249318849e-16 3.768538501816906e-17 -1.0220861249318849e-16 -0.5991960486274475 0.8006023328151609
12616660000.0 -0.5908007086698476 0.8068175274713804 3.659951965808239e-17 -1.0257982122670251e-16 3.659951965808239e-17 -1.0257982122670251e-16 -0.5908012470079046 0.8068171332673403
12617277333.333334 -0.5823414486787405 0.8129443013826774 3.5510018021081306e-17 -1.0293950202527331e-16 3.5510018021081306e-17 -1.0293950202527331e-16 -0.5823419910782693 0.812943912841975
12617894666.666666 -0.5738186573119468 0.8189823859647654 3.441700240485059e-17 -1.0328761949579114e-16 3.441700240485059e-17 -1.0328761949579114e-16 -0.5738192037133778 0.8189820031292318
12618512000.0 -0.565233264375552 0.824931122484285 3.3320595448973315e-17 -1.0362413954167728e-16 3.3320595448973315e-17 -1.0362413954167728e-16 -0.5652338147188868 0.8249307453951265
12619129333.333334 -0.556586206505507 0.8307898619552565 3.2220920121257323e-17 -1.0394902936613833e-16 3.2220920121257323e-17 -1.0394902936613833e-16 -0.5565867607303223 0.830789490653048
12619746666.666666 -0.5478784270650225 0.8365579652101708 3.1118099703915836e-17 -1.0426225747531183e-16 3.1118099703915836e-17 -1.0426225747531183e-16 -0.5478789851104778 0.836557599734852
12620364000.0 -0.5391108760418141 0.8422348029696074 3.0012257779792157e-17 -1.0456379368124248e-16 3.0012257779792157e-17 -1.0456379368124248e-16 -0.5391114378466575 0.8422344433604779
12620981333.333334 -0.5302845099446051 0.8478197559107923 2.89035182185539e-17 -1.0485360910471468e-16 2.89035182185539e-17 -1.0485360910471468e-16 -0.5302850754471807 0.8478194022065085
12621598666.666666 -0.5214002916984665 0.8533122147353679 2.7792005162804023e-17 -1.0513167617795384e-16 2.7792005162804023e-17 -1.0513167617795384e-16 -0.521400860836722 0.853311866973939
12622216000.0 -0.5124591905400518 0.8587115802356811 2.6677843014241618e-17 -1.0539796864716108e-16 2.6677843014241618e-17 -1.0539796864716108e-16 -0.5124597632515432 0.8587112384544625
12622833333.333334 -0.5034621819116142 0.8640172633603006 2.556115641973363e-17 -1.0565246157491847e-16 2.556115641973363e-17 -1.0565246157491847e-16 -0.503462758133514 0.8640169275959928
12623450666.666666 -0.4944102473548575 0.8692286852781228 2.4442070257427876e-17 -1.05895131342432e-16 2.4442070257427876e-17 -1.05895131342432e-16 -0.4944108270239622 0.8692283555667667
12624068000.0 -0.4853043744036609 0.8743452774416385 2.332070962278869e-17 -1.0612595565164079e-16 2.332070962278869e-17 -1.0612595565164079e-16 -0.48530495745639673 0.8743449538186108
12624685333.333334 -0.476145556476239 0.8793664816490092 2.2197199814625897e-17 -1.0634491352717594e-16 2.2197199814625897e-17 -1.0634491352717594e-16 -0.47614614284866896 0.8793661641490188
12625302666.666666 -0.4669347927671872 0.8842917501047322 2.1071666321170157e-17 -1.0655198531815855e-16 2.1071666321170157e-17 -1.0655198531815855e-16 -0.4669353823950183 0.8842914387618158
12625920000.0 -0.4576730881378983 0.8891205454797141 1.994423480601188e-17 -1.0674715269987532e-16 1.994423480601188e-17 -1.0674715269987532e-16 -0.4576736809564896 0.8891202403272356
12626537333.333334 -0.44836145300746416 0.8938523409696147 1.8815031094159278e-17 -1.0693039867527974e-16 1.8815031094159278e-17 -1.0693039867527974e-16 -0.4483620489518324 0.8938520420402583
12627154666.666666 -0.4390009032422155 0.8984866203524368 1.768418115799322e-17 -1.0710170757636345e-16 1.768418115799322e-17 -1.0710170757636345e-16 -0.4390015022470426 0.8984863276782039
12627772000.0 -0.429592460044665 0.9030228780449571 1.6551811103210938e-17 -1.0726106506537806e-16 1.6551811103210938e-17 -1.0726106506537806e-16 -0.42959306204430586 0.9030225916571647
12628389333.333334 -0.4201371498426082 0.9074606191576334 1.5418047154852e-17 -1.0740845813589567e-16 1.5418047154852e-17 -1.0740845813589567e-16 -0.42013775477109677 0.9074603390869085
12629006666.666666 -0.4106360041766822 0.9117993595488172 1.42830156431822e-17 -1.0754387511374038e-16 1.42830156431822e-17 -1.0754387511374038e-16 -0.41063661196774015 0.9117990858250957
12629624000.0 -0.4010900595880354 0.9160386258774744 1.314684298969965e-17 -1.0766730565775464e-16 1.314684298969965e-17 -1.0766730565775464e-16 -0.4010906701750782 0.916038358529997
12630241333.333334 -0.3915003575052425 0.9201779556548247 1.20096556930353e-17 -1.0777874076043018e-16 1.20096556930353e-17 -1.0777874076043018e-16 -0.39150097082138735 0.9201776947121336
12630858666.666666 -0.38186794413076863 0.9242168972947666 1.0871580314936137e-17 -1.0787817274838079e-16 1.0871580314936137e-17 -1.0787817274838079e-16 -0.38186856010884135 0.9242166427847017
12631476000.0 -0.3721938703264663 0.9281550101632979 9.732743466145703e-18 -1.0796559528267775e-16 9.732743466145703e-18 -1.0796559528267775e-16 -0.3721944888990089 0.9281547621129953
12632093333.333334 -0.36247919149945196 0.9319918646263651 8.593271792404329e-18 -1.0804100335902502e-16 8.593271792404329e-18 -1.0804100335902502e-16 -0.3624798125987303 0.9319916230622537
12632710666.666666 -0.35272496748660115 0.9357270420968937 7.453291960362013e-18 -1.081043933077957e-16 7.453291960362013e-18 -1.081043933077957e-16 -0.35272559104461176 0.9357268070446922
12633328000.0 -0.3429322624389719 0.9393601350804243 6.312930643497483e-18 -1.0815576279391845e-16 6.312930643497483e-18 -1.0815576279391845e-16 -0.34293288838745006 0.9393599065651386
12633945333.333334 -0.33310214470587274 0.9428907472195143 5.172314508115747e-18 -1.0819511081661152e-16 5.172314508115747e-18 -1.0819511081661152e-16 -0.3331027729762989 0.9428905252654335
12634562666.666666 -0.3232356867180931 0.9463184933370521 4.031570199262829e-18 -1.0822243770897492e-16 4.031570199262829e-18 -1.0822243770897492e-16 -0.32323631724170226 0.9463182779677497
12635180000.0 -0.313333964871122 0.9496429994782084 2.8908243267159667e-18 -1.082377451374303e-16 2.8908243267159667e-18 -1.082377451374303e-16 -0.313334597578909 0.9496427907165346
12635797333.333334 -0.30339805940747294 0.9528639029513111 1.75020345092786e-18 -1.0824103610101659e-16 1.75020345092786e-18 -1.0824103610101659e-16 -0.3033986942302019 0.9528637008193951
12636414666.666666 -0.2934290542991313 0.9559808523673177 6.098340690433815e-19 -1.0823231493053526e-16 6.098340690433815e-19 -1.0823231493053526e-16 -0.2934296911673419 0.9559806568865622
12637032000.0 -0.2834280371290535 0.958993507678231 -5.301573991327376e-19 -1.0821158728755052e-16 -5.301573991327376e-19 -1.0821158728755052e-16 -0.2834286759730695 0.958993318869312
12637649333.333334 -0.27339609897254213 0.9619015402141855 -1.6696446251234033e-18 -1.0817886016324086e-16 -1.6696446251234033e-18 -1.0817886016324086e-16 -0.2733967397224778 0.9619013580970475
12638266666.666666 -0.2633343342783763 0.9647046327192541 -2.808501385735691e-18 -1.0813414187710437e-16 -2.808501385735691e-18 -1.0813414187710437e-16 -0.2633349768641458 0.9647044573131117
12638884000.0 -0.2532438407491938 0.967402479386125 -3.94660157704329e-18 -1.0807744207551675e-16 -3.94660157704329e-18 -1.0807744207551675e-16 -0.25324448510051734 0.9674023107094581
12639501333.333334 -0.2431257192218993 0.9699947858894186 -5.08381922830722e-18 -1.0800877173014315e-16 -5.08381922830722e-18 -1.0800877173014315e-16 -0.24312636526831133 0.9699946239599705
12640118666.666666 -0.23298107354765016 0.972481269417776 -6.220028515885621e-18 -1.0792814313620489e-16 -6.220028515885621e-18 -1.0792814313620489e-16 -0.23298172121850727 0.9724811142525531
12640736000.0 -0.2228110104709058 0.9748616587048431 -7.355103777189205e-18 -1.0783556991059456e-16 -7.355103777189205e-18 -1.0783556991059456e-16 -0.22281165969539407 0.9748615103201114
12641353333.333334 -0.21261663950951462 0.9771356940586636 -8.488919524460149e-18 -1.0773106698985617e-16 -8.488919524460149e-18 -1.0773106698985617e-16 -0.21261729021665768 0.9771355524699481
12641970666.666666 -0.20239907283300576 0.9793031273901684 -9.621350458710075e-18 -1.0761465062800657e-16 -9.621350458710075e-18 -1.0761465062800657e-16 -0.20239972495167258 0.9793029926122521
12642588000.0 -0.19215942514144932 0.9813637222401961 -1.0752271483490739e-17 -1.0748633839422203e-16 -1.0752271483490739e-17 -1.0748633839422203e-16 -0.19216007860036158 0.9813635942871164
12643205333.333334 -0.18189881354401308 0.9833172538052537 -1.1881557718701229e-17 -1.0734614917037543e-16 -1.1881557718701229e-17 -1.0734614917037543e-16 -0.18189946827175338 0.983317132690303
12643822666.666666 -0.17161835743675535 0.9851635089621086 -1.3009084514374824e-17 -1.0719410314842673e-16 -1.3009084514374824e-17 -1.0719410314842673e-16 -0.17161901336177493 0.9851633946978319
12644440000.0 -0.1613191783808384 0.9869022862909765 -1.4134727464377048e-17 -1.0703022182767612e-16 -1.4134727464377048e-17 -1.0703022182767612e-16 -0.1613198354314645 0.9869021788891694
12645057333.333334 -0.15100239998005766 0.9885333960975154 -1.5258362420135324e-17 -1.0685452801186581e-16 -1.5258362420135324e-17 -1.0685452801186581e-16 -0.15100305808450232 0.9885332955692255
12645674666.666666 -0.1406691477581776 0.990056660433539 -1.6379865504283032e-17 -1.0666704580614496e-16 -1.6379865504283032e-17 -1.0666704580614496e-16 -0.14066980684454444 0.9900565667890616
12646292000.0 -0.13032054903611193 0.991471913116429 -1.749911312433787e-17 -1.0646780061388099e-16 -1.749911312433787e-17 -1.0646780061388099e-16 -0.13032120903240454 0.991471826365307
12646909333.333334 -0.1199577328092181 0.9927789997472233 -1.861598198623727e-17 -1.0625681913334489e-16 -1.861598198623727e-17 -1.0625681913334489e-16 -0.1199583936433481 0.9927789198982486
12647526666.666666 -0.10958182962376285 0.9939777777275173 -1.973034910793538e-17 -1.0603412935423822e-16 -1.973034910793538e-17 -1.0603412935423822e-16 -0.10958249122355718 0.9939777047887264
12648144000.0 -0.09919397145380797 0.9950681162749844 -2.0842091832926753e-17 -1.0579976055408321e-16 -2.0842091832926753e-17 -1.0579976055408321e-16 -0.0991946337470173 0.9950680502536599
12648761333.333334 -0.08879529157760381 0.9960498964376604 -2.1951087843689526e-17 -1.0555374329447931e-16 -2.1951087843689526e-17 -1.0555374329447931e-16 -0.08879595449191009 0.996049837340329
12649378666.666666 -0.07838692445415006 0.9969230111068981 -2.3057215175143023e-17 -1.0529610941720762e-16 -2.3057215175143023e-17 -1.0529610941720762e-16 -0.07838758791717466 0.9969229589393317
12649996000.0 -0.06797000559920469 0.9976873650290804 -2.4160352228027885e-17 -1.0502689204020157e-16 -2.4160352228027885e-17 -1.0502689204020157e-16 -0.06797066953851615 0.9976873197962932
12650613333.333334 -0.057545671461402326 0.9983428748160023 -2.5260377782264357e-17 -1.0474612555337218e-16 -2.5260377782264357e-17 -1.0474612555337218e-16 -0.05754633580452432 0.998342836522253
12651230666.666666 -0.0471150592985844 0.9988894689539564 -2.6357171010215685e-17 -1.0445384561430566e-16 -2.6357171010215685e-17 -1.0445384561430566e-16 -0.04711572397300349 0.9988894376027434
12651848000.0 -0.03667930705321697 0.9993270878115544 -2.7450611489974053e-17 -1.0415008914380371e-16 -2.7450611489974053e-17 -1.0415008914380371e-16 -0.036679971986390794 0.9993270634056214
12652465333.333334 -0.026239553228699884 0.999655683646216 -2.8540579218540136e-17 -1.0383489432130087e-16 -2.8540579218540136e-17 -1.0383489432130087e-16 -0.02624021834806493 0.9996556661875484
12653082666.666666 -0.015796936765074928 0.9998752206093849 -2.962695462494805e-17 -1.0350830058014429e-16 -2.962695462494805e-17 -1.0350830058014429e-16 -0.01579760199805439 0.9998752100992085
12653700000.0 -0.005352596914402028 0.9999856747504422 -3.0709618583410916e-17 -1.0317034860271602e-16 -3.0709618583410916e-17 -1.0317034860271602e-16 -0.005353262188413822 0.999985671189226
12654317333.333334 0.00509232688293227 0.9999870340193134 -3.178845242629734e-17 -1.028210803154514e-16 -3.178845242629734e-17 -1.028210803154514e-16 0.005091661640467628 0.9999870374067675
12654934666.666666 0.01553669512303524 0.999879298267786 -3.286333795715188e-17 -1.0246053888369301e-16 -3.286333795715188e-17 -1.0246053888369301e-16 0.015536029984686716 0.9998793086028634
12655552000.0 0.025979368362624822 0.9996624792495237 -3.3934157463628435e-17 -1.0208876870641584e-16 -3.3934157463628435e-17 -1.0208876870641584e-16 0.02597870340094295 0.9996624965304195
12656169333.333334 0.03641920734316838 0.9993366006187909 -3.500079373031009e-17 -1.0170581541083788e-16 -3.500079373031009e-17 -1.0170581541083788e-16 0.03641854263067732 0.9993366248429417
12656786666.666666 0.04685507311554107 0.9989016979278603 -3.606313005156739e-17 -1.0131172584686274e-16 -3.606313005156739e-17 -1.0131172584686274e-16 0.046854408724730755 0.9989017290919466
12657404000.0 0.057285827163940296 0.9983578186231471 -3.712105024426523e-17 -1.0090654808141942e-16 -3.712105024426523e-17 -1.0090654808141942e-16 0.057285163167258485 0.998357856723092
12658021333.333334 0.06771033153037755 0.9977050220400175 -3.8174438660473305e-17 -1.0049033139264637e-16 -3.8174438660473305e-17 -1.0049033139264637e-16 0.06770966800022193 0.9977050670709884
12658638666.666666 0.07812744893848518 0.9969433793963381 -3.922318020004923e-17 -1.0006312626396688e-16 -3.922318020004923e-17 -1.0006312626396688e-16 0.07812678594719549 0.9969434313527459
12659256000.0 0.08853604291795784 0.9960729737846798 -4.0267160323227065e-17 -9.962498437800491e-17 -4.0267160323227065e-17 -9.962498437800491e-17 0.08853538053780804 0.996073032660182
12659873333.333334 0.09893497792836722 0.9950939001632658 -4.1306265063085034e-17 -9.917595861039269e-17 -4.1306265063085034e-17 -9.917595861039269e-17 0.0989343162315574 0.9950939659507638
12660490666.666666 0.10932311948284724 0.9940062653456287 -4.234038103794206e-17 -9.871610302344893e-17 -4.234038103794206e-17 -9.871610302344893e-17 0.10932245854149614 0.9940063380372728
12661108000.0 0.11969933427237209 0.9928101879889113 -4.336939546375486e-17 -9.824547285969902e-17 -4.336939546375486e-17 -9.824547285969902e-17 0.11969867415850871 0.9928102675760968
12661725333.333334 0.1300624902888017 0.9915057985809765 -4.4393196166334457e-17 -9.776412453531286e-17 -4.4393196166334457e-17 -9.776412453531286e-17 0.1300618310743581 0.9915058850543506
12662342666.666666 0.14041145694877688 0.9900932394261404 -4.541167159358848e-17 -9.727211563337354e-17 -4.541167159358848e-17 -9.727211563337354e-17 0.14041079870557954 0.990093332775596
12662960000.0 0.15074510521700324 0.9885726646296369 -4.642471082764474e-17 -9.676950489703803e-17 -4.642471082764474e-17 -9.676950489703803e-17 0.1507444480167662 0.9885727648443217
12663577333.333334 0.16106230772928587 0.9869442400808374 -4.743220359688877e-17 -9.625635222257735e-17 -4.743220359688877e-17 -9.625635222257735e-17 0.16106165164360214 0.9869443471491494
12664194666.666666 0.17136193891560472 0.9852081434351374 -4.843404028796395e-17 -9.573271865227407e-17 -4.843404028796395e-17 -9.573271865227407e-17 0.17136128401593861 0.9852082573447276
12664812000.0 0.1816428751229938 0.9833645640945576 -4.943011195764952e-17 -9.51986663672154e-17 -4.943011195764952e-17 -9.51986663672154e-17 0.18164222148067335 0.9833646848323322
12665429333.333334 0.1919039947379876 0.9814137031871052 -5.042031034470648e-17 -9.465425867994111e-17 -5.042031034470648e-17 -9.465425867994111e-17 0.19190334242419724 0.9814138307392287
12666046666.666666 0.20214417830893094 0.9793557735448499 -5.140452788158353e-17 -9.40995600269987e-17 -5.140452788158353e-17 -9.40995600269987e-17 0.20214352739470257 0.9793559078967427
12666664000.0 0.212362308668496 0.9771909996806207 -5.238265770612738e-17 -9.353463596133117e-17 -5.238265770612738e-17 -9.353463596133117e-17 0.21236165922470215 0.9771911408169631
12667281333.333334 0.22255727105497675 0.9749196177636325 -5.3354593673103656e-17 -9.295955314460269e-17 -5.3354593673103656e-17 -9.295955314460269e-17 0.22255662315232247 0.9749197656683656
12667898666.666666 0.23272795323440632 0.9725418755936168 -5.4320230365724096e-17 -9.237437933935357e-17 -5.4320230365724096e-17 -9.237437933935357e-17 0.23272730694342184 0.9725420302499463
12668516000.0 0.24287324562170268 0.9700580325738275 -5.5279463107061814e-17 -9.177918340105106e-17 -5.5279463107061814e-17 -9.177918340105106e-17 0.24287260101273597 0.9700581939642252
12669133333.333334 0.25299204140155607 0.9674683596827856 -5.62321879713304e-17 -9.117403527005162e-17 -5.62321879713304e-17 -9.117403527005162e-17 0.25299139854476377 0.9674685277889871
12669750666.666666 0.26308323664953526 0.9647731394446207 -5.717830179516429e-17 -9.055900596339312e-17 -5.717830179516429e-17 -9.055900596339312e-17 0.26308259561487707 0.9647733142476342
