! Parameters = {f0=12700.012000; bw=77.238000; Q=6100.000000; N=10; m_0_1=1.161256; m_1_1=-1.345902; m_1_2=0.996068; m_2_2=-1.346551; m_2_3=0.633031; m_2_8=-0.004873; m_2_9=0.031831; m_3_3=-1.348488; m_3_4=0.521560; m_3_7=-0.004273; m_3_8=-0.101361; m_3_9=-0.004873; m_4_4=-1.351413; m_4_5=0.357895; m_4_6=-0.000756; m_4_7=-0.121910; m_4_8=-0.004273; m_5_5=-1.351031; m_5_6=0.765250; m_5_7=-0.000756; m_6_6=-1.351032; m_6_7=0.358237; m_7_7=-1.351399; m_7_8=0.521678; m_8_8=-1.348490; m_8_9=0.633344; m_9_9=-1.346556; m_9_10=0.997146; m_10_10=-1.345912; m_10_11=1.162051}
!
! Created with skrf (http://scikit-rf.org).
# Hz S RI R 50.0 
!freq ReS11 ImS11 ReS21 ImS21 ReS12 ImS12 ReS22 ImS22
12607400000.0 -0.8829492173651692 -0.4694685075210982 6.299102501336217e-17 1.2813489366948939e-17 6.299102501336217e-17 1.2813489366948939e-17 -0.8829489300493152 -0.4694690478877416
12608017333.333334 -0.8863565757795465 -0.4630032619455388 6.307172357727065e-17 1.2344787151723925e-17 6.307172357727065e-17 1.2344787151723925e-17 -0.8863562924343128 -0.46300380437092736
12608634666.666666 -0.8897165943387668 -0.45651328760297755 6.314893850703802e-17 1.1875592886498965e-17 6.314893850703802e-17 1.1875592886498965e-17 -0.8897163149788968 -0.4565138320579404
12609252000.0 -0.8930290935859743 -0.44999893111969136 6.322266694280616e-17 1.1405932434846142e-17 6.322266694280616e-17 1.1405932434846142e-17 -0.8930288182259982 -0.44999947757495223
12609869333.333334 -0.8962938966023115 -0.44346054042416977 6.329290621652466e-17 1.0935831675705767e-17 6.329290621652466e-17 1.0935831675705767e-17 -0.8962936252565428 -0.4434610888503481
12610486666.666666 -0.8995108290163379 -0.4368984647285819 6.33596538520212e-17 1.0465316501969081e-17 6.33596538520212e-17 1.0465316501969081e-17 -0.899510561698876 -0.4368990150961952
12611104000.0 -0.9026797190134092 -0.43031305450999857 6.342290756506566e-17 9.994412819031878e-18 6.342290756506566e-17 9.994412819031878e-18 -0.9026794557381354 -0.43031360678946295
12611721333.333334 -0.9058003973447141 -0.4237046614919533 6.348266526341437e-17 9.523146543409308e-18 6.348266526341437e-17 9.523146543409308e-18 -0.9058001381252935 -0.42370521565358615
12612338666.666666 -0.9088726973364771 -0.41707363862532554 6.353892504685272e-17 9.051543601291113e-18 6.353892504685272e-17 9.051543601291113e-18 -0.9088724421863573 -0.41707419463934686
12612956000.0 -0.9118964548987846 -0.41042034006964284 6.359168520722456e-17 8.579629927114922e-18 6.359168520722456e-17 8.579629927114922e-18 -0.9118962038311933 -0.4104208979061758
12613573333.333334 -0.9148715085342786 -0.40374512117431993 6.364094422844676e-17 8.10743146217218e-18 6.364094422844676e-17 8.10743146217218e-18 -0.9148712615622246 -0.4037456808033939
12614190666.666666 -0.9177976993469346 -0.39704833845934423 6.368670078651994e-17 7.634974153163637e-18 6.368670078651994e-17 7.634974153163637e-18 -0.9177974564832079 -0.3970488998508959
12614808000.0 -0.9206748710504217 -0.3903303495965191 6.372895374952514e-17 7.162283950782243e-18 6.372895374952514e-17 7.162283950782243e-18 -0.9206746323075906 -0.39033091272039383
12615425333.333334 -0.9235028699764961 -0.3835915133902576 6.376770217760944e-17 6.689386808301799e-18 6.376770217760944e-17 6.689386808301799e-18 -0.9235026353669062 -0.38359207821621055
12616042666.666666 -0.926281545083237 -0.3768321897583385 6.380294532296271e-17 6.216308680151526e-18 6.380294532296271e-17 6.216308680151526e-18 -0.926281314619015 -0.37683275625603796
12616660000.0 -0.9290107479630535 -0.37005273971284247 6.383468262978404e-17 5.7430755204911615e-18 6.383468262978404e-17 5.7430755204911615e-18 -0.9290105216561015 -0.3700533078518699
12617277333.333334 -0.9316903328506517 -0.36325352534076494 6.386291373423551e-17 5.2697132818028964e-18 6.386291373423551e-17 5.2697132818028964e-18 -0.9316901107126494 -0.36325409509061707
12617894666.666666 -0.9343201566308004 -0.35643490978472986 6.388763846438807e-17 4.7962479134677e-18 6.388763846438807e-17 4.7962479134677e-18 -0.9343199386732036 -0.3564354811148206
12618512000.0 -0.9369000788460236 -0.349597257223462 6.390885684015544e-17 4.32270536034044e-18 6.390885684015544e-17 4.32270536034044e-18 -0.9368998650800626 -0.34959783010312345
12619129333.333334 -0.9394299617039926 -0.34274093285262813 6.392656907321746e-17 3.849111561353196e-18 6.392656907321746e-17 3.849111561353196e-18 -0.9394297521406737 -0.3427415072511128
12619746666.666666 -0.9419096700850131 -0.335866302864986 6.394077556693442e-17 3.3754924480757212e-18 6.394077556693442e-17 3.3754924480757212e-18 -0.9419094647351189 -0.3358668787514691
12620364000.0 -0.9443390715491883 -0.32897373443098793 6.395147691624924e-17 2.901873943311444e-18 6.395147691624924e-17 2.901873943311444e-18 -0.9443388704232726 -0.3289743117745672
12620981333.333334 -0.9467180363434275 -0.32206359567932846 6.395867390757986e-17 2.428281959694517e-18 6.395867390757986e-17 2.428281959694517e-18 -0.9467178394518184 -0.32206417444902713
12621598666.666666 -0.949046437408504 -0.31513625567693565 6.396236751870215e-17 1.9547423982534004e-18 6.396236751870215e-17 1.9547423982534004e-18 -0.949046244761303 -0.31513683584170404
12622216000.0 -0.9513241503857376 -0.30819208440955487 6.396255891862055e-17 1.4812811470192743e-18 6.396255891862055e-17 1.4812811470192743e-18 -0.9513239619928182 -0.3081926659382717
12622833333.333334 -0.9535510536236832 -0.3012314527618535 6.395924946742977e-17 1.0079240796066388e-18 6.395924946742977e-17 1.0079240796066388e-18 -0.9535508694946898 -0.3012320356233275
12623450666.666666 -0.955727028184616 -0.2942547324976383 6.395244071616583e-17 5.346970538061555e-19 6.395244071616583e-17 5.346970538061555e-19 -0.9557268483289648 -0.2942553166606102
12624068000.0 -0.9578519578508778 -0.2872622962400276 6.394213440664643e-17 6.162591017889684e-20 6.394213440664643e-17 6.162591017889684e-20 -0.9578517822777581 -0.2872628816731722
12624685333.333334 -0.9599257291311198 -0.2802545174514412 6.392833247130055e-17 -4.1126352935699394e-19 6.392833247130055e-17 -4.1126352935699394e-19 -0.9599255578494891 -0.28025510412336807
12625302666.666666 -0.9619482312663027 -0.27323177041384406 6.391103703298909e-17 -8.839454629180787e-19 6.391103703298909e-17 -8.839454629180787e-19 -0.9619480642848882 -0.27323235829309944
12625920000.0 -0.9639193562356857 -0.2661944302085104 6.389025040481352e-17 -1.3563941100730189e-18 6.389025040481352e-17 -1.3563941100730189e-18 -0.9639191935629848 -0.26619501926357947
12626537333.333334 -0.965838998762509 -0.2591428726962913 6.386597508991544e-17 -1.8285837132328097e-18 6.386597508991544e-17 -1.8285837132328097e-18 -0.9658388404067881 -0.2591434628955995
12627154666.666666 -0.9677070563196892 -0.2520774744972951 6.383821378126547e-17 -2.3004885390483105e-18 6.383821378126547e-17 -2.3004885390483105e-18 -0.9677069022889833 -0.25207806580920966
12627772000.0 -0.9695234291352899 -0.2449986129707706 6.3806969361441e-17 -2.7720828798240383e-18 6.3806969361441e-17 -2.7720828798240383e-18 -0.9695232794374022 -0.24499920536360262
12628389333.333334 -0.9712880201977809 -0.237906666195228 6.377224490239546e-17 -3.243341054893737e-18 6.377224490239546e-17 -3.243341054893737e-18 -0.9712878748402834 -0.23790725963723414
12629006666.666666 -0.9730007352613129 -0.23080201294788882 6.373404366521525e-17 -3.714237412030179e-18 6.373404366521525e-17 -3.714237412030179e-18 -0.9730005942515434 -0.23080260740727235
12629624000.0 -0.9746614828506975 -0.22368503268464698 6.369236909986849e-17 -4.184746328822075e-18 6.369236909986849e-17 -4.184746328822075e-18 -0.9746613461957628 -0.22368562812956053
12630241333.333334 -0.976270174266292 -0.21655610551983132 6.364722484494134e-17 -4.654842214079585e-18 6.364722484494134e-17 -4.654842214079585e-18 -0.9762700419730638 -0.2165567019183774
12630858666.666666 -0.9778267235887463 -0.20941561220584773 6.359861472736693e-17 -5.124499509199587e-18 6.359861472736693e-17 -5.124499509199587e-18 -0.9778265956638634 -0.20941620952608134
12631476000.0 -0.9793310476836181 -0.20226393411273294 6.354654276214039e-17 -5.5936926895756265e-18 6.354654276214039e-17 -5.5936926895756265e-18 -0.9793309241334855 -0.20226453232266298
12632093333.333334 -0.9807830662057508 -0.1951014532080627 6.349101315202736e-17 -6.0623962659621e-18 6.349101315202736e-17 -6.0623962659621e-18 -0.9807829470365399 -0.19510205227565375
12632710666.666666 -0.9821827016036229 -0.1879285520363023 6.343203028726099e-17 -6.530584785854055e-18 6.343203028726099e-17 -6.530584785854055e-18 -0.9821825868212692 -0.18792915192947604
12633328000.0 -0.9835298791234769 -0.18074561369840111 6.336959874522682e-17 -6.998232834878817e-18 6.336959874522682e-17 -6.998232834878817e-18 -0.9835297687336819 -0.18074621438503852
12633945333.333334 -0.9848245268132884 -0.17355302183147187 6.330372329014062e-17 -7.465315038159785e-18 6.330372329014062e-17 -7.465315038159785e-18 -0.9848244208215186 -0.17355362327941457
12634562666.666666 -0.9860665755266257 -0.16635116058821686 6.323440887271512e-17 -7.931806061686554e-18 6.323440887271512e-17 -7.931806061686554e-18 -0.9860664739381113 -0.1663517627652689
12635180000.0 -0.9872559589263548 -0.15914041461632633 6.316166062981591e-17 -8.397680613687648e-18 6.316166062981591e-17 -8.397680613687648e-18 -0.987255861746092 -0.15914101749025622
12635797333.333334 -0.9883926134881614 -0.15192116903807504 6.308548388410695e-17 -8.862913446003998e-18 6.308548388410695e-17 -8.862913446003998e-18 -0.9883925207209084 -0.15192177257661688
12636414666.666666 -0.9894764785039366 -0.14469380942978075 6.300588414368954e-17 -9.32747935543258e-18 6.300588414368954e-17 -9.32747935543258e-18 -0.9894763901542168 -0.14469441360063653
12637032000.0 -0.9905074960850621 -0.1374587218009586 6.292286710172523e-17 -9.79135318511192e-18 6.292286710172523e-17 -9.79135318511192e-18 -0.990507412157163 -0.13745932657179977
12637649333.333334 -0.9914856111654564 -0.13021629257398531 6.283643863605491e-17 -1.0254509825859684e-17 6.283643863605491e-17 -1.0254509825859684e-17 -0.9914855316634275 -0.1302168979124542
12638266666.666666 -0.9924107715045346 -0.12296690856334778 6.274660480880441e-17 -1.0716924217534055e-17 6.274660480880441e-17 -1.0716924217534055e-17 -0.9924106964321899 -0.12296751443705974
12638884000.0 -0.9932829276900083 -0.11571095695489952 6.265337186597983e-17 -1.1178571350390022e-17 6.265337186597983e-17 -1.1178571350390022e-17 -0.9932828570509238 -0.11571156333144436
12639501333.333334 -0.9941020331405052 -0.10844882528532163 6.255674623705627e-17 -1.163942626641642e-17 6.255674623705627e-17 -1.163942626641642e-17 -0.9941019669380206 -0.10844943213226554
12640118666.666666 -0.9948680441080567 -0.10118090142148185 6.245673453455411e-17 -1.2099464060683863e-17 6.245673453455411e-17 -1.2099464060683863e-17 -0.9948679823452735 -0.10118150870636905
12640736000.0 -0.9955809196804689 -0.09390757353932255 6.235334355360218e-17 -1.2558659882701497e-17 6.235334355360218e-17 -1.2558659882701497e-17 -0.9955808623602537 -0.09390818122967723
12641353333.333334 -0.9962406217834596 -0.08662923010369464 6.224658027150322e-17 -1.3016988937717376e-17 6.224658027150322e-17 -1.3016988937717376e-17 -0.9962405689084378 -0.08662983816702213
12641970666.666666 -0.9968471151827207 -0.07934625984721304 6.213645184727178e-17 -1.3474426488094653e-17 6.213645184727178e-17 -1.3474426488094653e-17 -0.9968470667552823 -0.07934686825100222
12642588000.0 -0.9974003674857994 -0.07205905174955168 6.202296562117812e-17 -1.393094785461357e-17 6.202296562117812e-17 -1.393094785461357e-17 -0.9974003235080982 -0.07205966046127646
12643205333.333334 -0.9979003491438172 -0.06476799501683847 6.190612911427401e-17 -1.4386528417806745e-17 6.190612911427401e-17 -1.4386528417806745e-17 -0.9979003096177651 -0.06476860400395922
12643822666.666666 -0.9983470334530575 -0.05747347906064064 6.178595002791016e-17 -1.4841143619285405e-17 6.178595002791016e-17 -1.4841143619285405e-17 -0.9983469983803313 -0.057474088290606386
12644440000.0 -0.9987403965563828 -0.05017589347736537 6.166243624324496e-17 -1.529476896305646e-17 6.166243624324496e-17 -1.529476896305646e-17 -0.9987403659384215 -0.050176502917615384
12645057333.333334 -0.9990804174445205 -0.042875628027309924 6.153559582074616e-17 -1.5747380016826964e-17 6.153559582074616e-17 -1.5747380016826964e-17 -0.9990803912825231 -0.04287623764527532
12645674666.666666 -0.9993670779571692 -0.0355730726140431 6.140543699967652e-17 -1.6198952413329015e-17 6.140543699967652e-17 -1.6198952413329015e-17 -0.9993670562520974 -0.0355736823771487
12646292000.0 -0.9996003627839892 -0.028268617263154966 6.127196819757322e-17 -1.6649461851626567e-17 6.127196819757322e-17 -1.6649461851626567e-17 -0.9996003455365686 -0.028269227138821126
12646909333.333334 -0.9997802594654009 -0.020962652101993783 6.113519800972313e-17 -1.709888409840086e-17 6.113519800972313e-17 -1.709888409840086e-17 -0.9997802466761164 -0.020963262057637908
12647526666.666666 -0.9999067583932605 -0.013655567338431774 6.09951352086169e-17 -1.7547194989271448e-17 6.09951352086169e-17 -1.7547194989271448e-17 -0.9999067500623605 -0.013656177341470236
12648144000.0 -0.9999798528113735 -0.0063477532401096165 6.085178874340343e-17 -1.799437043007828e-17 6.085178874340343e-17 -1.799437043007828e-17 -0.9999798489388665 -0.006348363257959419
12648761333.333334 -0.9999995388158495 0.0009603998864076589 6.070516773933242e-17 -1.8440386398169968e-17 6.070516773933242e-17 -1.8440386398169968e-17 -0.9999995394015078 0.0009597898863271104
12649378666.666666 -0.9999658153553164 0.00826850171627772 6.055528149718503e-17 -1.8885218943694424e-17 6.055528149718503e-17 -1.8885218943694424e-17 -0.9999658203986724 0.008267891766542888
12649996000.0 -0.9998786842309718 0.015576161927597462 6.040213949269775e-17 -1.932884419087641e-17 6.040213949269775e-17 -1.932884419087641e-17 -0.9998786937313221 0.015575552060778949
12650613333.333334 -0.999738150096492 0.02288299022196572 6.02457513759734e-17 -1.9771238339302608e-17 6.02457513759734e-17 -1.9771238339302608e-17 -0.9997381640528937 0.022882380470626507
12651230666.666666 -0.9995442204577807 0.03018859634532888 6.008612697089157e-17 -2.0212377665174645e-17 6.008612697089157e-17 -2.0212377665174645e-17 -0.9995442388690541 0.030187986742022638
12651848000.0 -0.9992969056725672 0.037492590109051566 5.992327627449608e-17 -2.0652238522598423e-17 5.992327627449608e-17 -2.0652238522598423e-17 -0.9992969285372942 0.03749198068632086
12652465333.333334 -0.9989962189498525 0.0447945814106142 5.975720945638443e-17 -2.1090797344836313e-17 5.975720945638443e-17 -2.1090797344836313e-17 -0.9989962462663762 0.04479397220098874
12653082666.666666 -0.998642176349211 0.052094180254277846 5.958793685808803e-17 -2.1528030645554596e-17 5.958793685808803e-17 -2.1528030645554596e-17 -0.9986422081156385 0.052093571290272825
12653700000.0 -0.99823479677992 0.05939099677228286 5.941546899243159e-17 -2.1963915020098152e-17 5.941546899243159e-17 -2.1963915020098152e-17 -0.9982348329941207 0.059390388086397204
12654317333.333334 -0.9977741019999633 0.0666846412453593 5.923981654289837e-17 -2.2398427146719645e-17 5.923981654289837e-17 -2.2398427146719645e-17 -0.997774142659568 0.06668403287007381
12654934666.666666 -0.9972601166148598 0.07397472412365486 5.906099036297709e-17 -2.2831543787829032e-17 5.906099036297709e-17 -2.2831543787829032e-17 -0.9972601617172646 0.07397411609143073
12655552000.0 -0.99669286807635 0.08126085604762603 5.887900147549977e-17 -2.3263241791236133e-17 5.887900147549977e-17 -2.3263241791236133e-17 -0.9966929176187126 0.08126024839090291
12656169333.333334 -0.9960723866809379 0.08854264786866334 5.869386107197742e-17 -2.3693498091373234e-17 5.869386107197742e-17 -2.3693498091373234e-17 -0.9960724406601786 0.0885420406198576
12656786666.666666 -0.9953987055682636 0.09581971066998869 5.850558051191941e-17 -2.4122289710528993e-17 5.850558051191941e-17 -2.4122289710528993e-17 -0.9953987639810662 0.09581910386149177
12657404000.0 -0.9946718607193386 0.10309165578737078 5.8314171322148e-17 -2.454959376006702e-17 5.8314171322148e-17 -2.454959376006702e-17 -0.9946719235621524 0.1030910494515476
12658021333.333334 -0.9938918909546155 0.11035809483002523 5.811964519609968e-17 -2.4975387441650972e-17 5.811964519609968e-17 -2.4975387441650972e-17 -0.9938919582236501 0.11035748899921198
12658638666.666666 -0.9930588379319367 0.11761863970104647 5.792201399312852e-17 -2.5399648048437588e-17 5.792201399312852e-17 -2.5399648048437588e-17 -0.9930589096231693 0.1176180344075496
12659256000.0 -0.9921727461442807 0.12487290261850423 5.772128973778349e-17 -2.582235296630379e-17 5.772128973778349e-17 -2.582235296630379e-17 -0.9921728222534499 0.12487229789459804
12659873333.333334 -0.9912336629173945 0.13212049613598423 5.751748461909102e-17 -2.6243479675037133e-17 5.751748461909102e-17 -2.6243479675037133e-17 -0.9912337434400051 0.13211989201390964
12660490666.666666 -0.9902416384072945 0.13936103316311307 5.731061098982904e-17 -2.6663005749520652e-17 5.731061098982904e-17 -2.6663005749520652e-17 -0.9902417233386157 0.13936042967507564
12661108000.0 -0.9891967255975381 0.14659412698659874 5.710068136577756e-17 -2.708090886094295e-17 5.710068136577756e-17 -2.708090886094295e-17 -0.9891968149326035 0.14659352416476698
12661725333.333334 -0.9880989802964333 0.1538193912905745 5.688770842497961e-17 -2.74971667779637e-17 5.688770842497961e-17 -2.74971667779637e-17 -0.9880990740300423 0.15381878916707833
12662342666.666666 -0.9869484611340417 0.16103644017737334 5.667170500698124e-17 -2.791175736789739e-17 5.667170500698124e-17 -2.791175736789739e-17 -0.98694855926076 0.16103583878430228
12662960000.0 -0.9857452295590547 0.16824488818808192 5.645268411206454e-17 -2.832465859788997e-17 5.645268411206454e-17 -2.832465859788997e-17 -0.9857453320732128 0.1682442875574831
12663577333.333334 -0.9844893498354916 0.17544435032323974 5.623065890047858e-17 -2.873584853607469e-17 5.623065890047858e-17 -2.873584853607469e-17 -0.984489456731187 0.1754437504871168
12664194666.666666 -0.9831808890392979 0.18263444206323415 5.600564269165544e-17 -2.914530535273687e-17 5.600564269165544e-17 -2.914530535273687e-17 -0.983181000310394 0.18263384305354488
12664812000.0 -0.9818199170547465 0.1898147793889209 5.577764896341701e-17 -2.955300732147211e-17 5.577764896341701e-17 -2.955300732147211e-17 -0.9818200326948732 0.18981418123757582
12665429333.333334 -0.9804065065706842 0.19698497880224625 5.554669135118167e-17 -2.995893282032449e-17 5.554669135118167e-17 -2.995893282032449e-17 -0.9804066265732404 0.1969843815411072
12666046666.666666 -0.9789407330767098 0.20414465734642243 5.531278364715466e-17 -3.036306033293282e-17 5.531278364715466e-17 -3.036306033293282e-17 -0.978940857434861 0.20414406100730048
12666664000.0 -0.9774226748590648 0.21129343262677164 5.5075939799509143e-17 -3.076536844967182e-17 5.5075939799509143e-17 -3.076536844967182e-17 -0.9774228035657454 0.21129283724142559
12667281333.333334 -0.9758524129965147 0.21843092283084325 5.4836173911572894e-17 -3.116583586876427e-17 5.4836173911572894e-17 -3.116583586876427e-17 -0.9758525460444261 0.21843032843097765
12667898666.666666 -0.9742300313559927 0.22555674674891688 5.4593500240984885e-17 -3.1564441397423636e-17 5.4593500240984885e-17 -3.1564441397423636e-17 -0.9742301687376067 0.22555615336618084
12668516000.0 -0.9725556165881064 0.23267052379444675 5.434793319886081e-17 -3.196116395296084e-17 5.434793319886081e-17 -3.196116395296084e-17 -0.9725557582956627 0.2326699314604317
12669133333.333334 -0.9708292581225428 0.23977187402422137 5.409948734895097e-17 -3.235598256388495e-17 5.409948734895097e-17 -3.235598256388495e-17 -0.9708294041480519 0.23977128277045984
12669750666.666666 -0.9690510481632704 0.24686041815876775 5.384817740677278e-17 -3.2748876371026505e-17 5.384817740677278e-17 -3.2748876371026505e-17 -0.9690511984985121 0.2468598280167314
