! Parameters = {f0=12700.012000; bw=77.238000; Q=6100.000000; N=10; m_0_1=1.328624; m_1_1=1.164609; m_1_2=1.163436; m_2_2=1.163960; m_2_3=0.800399; m_2_8=0.003495; m_2_9=0.040199; m_3_3=1.162023; m_3_4=0.688928; m_3_7=0.004095; m_3_8=-0.092993; m_3_9=0.003495; m_4_4=1.159098; m_4_5=0.525263; m_4_6=0.007612; m_4_7=-0.113542; m_4_8=0.004095; m_5_5=1.159480; m_5_6=0.932618; m_5_7=0.007612; m_6_6=1.159479; m_6_7=0.525605; m_7_7=1.159112; m_7_8=0.689046; m_8_8=1.162021; m_8_9=0.800712; m_9_9=1.163955; m_9_10=1.164514; m_10_10=1.164599; m_10_11=1.329419}
!
! Created with skrf (http://scikit-rf.org).
# Hz S RI R 50.0 
!freq ReS11 ImS11 ReS21 ImS21 ReS12 ImS12 ReS22 ImS22
12607400000.0 -0.9956652975789408 0.09300868344862064 1.3431207704926206e-16 -5.3825501172528676e-17 1.3431207704926206e-16 -5.3825501172528676e-17 -0.9956653626742069 0.0930079865960239
12608017333.333334 -0.9944506317657839 0.10520428213927625 1.336112338511964e-16 -5.5468537679208795e-17 1.336112338511964e-16 -5.5468537679208795e-17 -0.994450705392979 0.1052035861708768
12608634666.666666 -0.9930865914722257 0.11738407829805254 1.3289030423109384e-16 -5.710247807056568e-17 1.3289030423109384e-16 -5.710247807056568e-17 -0.9930866736194557 0.11738338331829874
12609252000.0 -0.9915733815881826 0.1295462424217046 1.3214940590176423e-16 -5.87270769455958e-17 1.3214940590176423e-16 -5.87270769455958e-17 -0.9915734722422753 0.12954554853488612
12609869333.333334 -0.9899112294100467 0.14168894765540627 1.313886595721683e-16 -6.03420904225605e-17 1.313886595721683e-16 -6.03420904225605e-17 -0.9899113285565522 0.14168825496563833
12610486666.666666 -0.9881003846065581 0.15381037006710285 1.3060818892786198e-16 -6.194727617553523e-17 1.3060818892786198e-16 -6.194727617553523e-17 -0.9881004922297537 0.15380967867831088
12611104000.0 -0.986141119181237 0.16590868892190197 1.298081206109636e-16 -6.354239347076553e-17 1.298081206109636e-16 -6.354239347076553e-17 -0.9861412352641274 0.16590799893780556
12611721333.333334 -0.9840337274316365 0.17798208695486012 1.2898858419974186e-16 -6.512720320264145e-17 1.2898858419974186e-16 -6.512720320264145e-17 -0.9840338519559586 0.17798139847895791
12612338666.666666 -0.9817785259050285 0.1900287506446243 1.2814971218770338e-16 -6.670146792953105e-17 1.2814971218770338e-16 -6.670146792953105e-17 -0.9817786588512524 0.19002806378017834
12612956000.0 -0.9793758533509039 0.2020468704855285 1.2729163996226242e-16 -6.82649519093096e-17 1.2729163996226242e-16 -6.82649519093096e-17 -0.9793759946982367 0.20204618533554852
12613573333.333334 -0.9768260706701206 0.21403464125925695 1.264145057830137e-16 -6.981742113455087e-17 1.264145057830137e-16 -6.981742113455087e-17 -0.9768262203965097 0.2140339579264852
12614190666.666666 -0.9741295608606207 0.2259902623063651 1.2551845075951942e-16 -7.135864336754531e-17 1.2551845075951942e-16 -7.135864336754531e-17 -0.9741297189427571 0.22598958089326082
12614808000.0 -0.9712867289599642 0.2379119377964466 1.2460361882871238e-16 -7.288838817495936e-17 1.2460361882871238e-16 -7.288838817495936e-17 -0.9712868953732855 0.23791125840517047
12615425333.333334 -0.9682980019844624 0.24979787699799216 1.236701567318526e-16 -7.440642696224887e-17 1.236701567318526e-16 -7.440642696224887e-17 -0.9682981767031591 0.2497971997303917
12616042666.666666 -0.9651638288650236 0.2616462945474563 1.2271821399108948e-16 -7.591253300774075e-17 1.2271821399108948e-16 -7.591253300774075e-17 -0.965164011862039 0.2616456195050494
12616660000.0 -0.9618846803797529 0.27345541071726587 1.2174794288559011e-16 -7.74064814964471e-17 1.2174794288559011e-16 -7.74064814964471e-17 -0.9618848716267908 0.27345473800122666
12617277333.333334 -0.9584610490832055 0.2852234516832876 1.2075949842725467e-16 -7.888804955357933e-17 1.2075949842725467e-16 -7.888804955357933e-17 -0.958461248550734 0.2852227813944311
12617894666.666666 -0.9548934492324582 0.2969486497910805 1.1975303833605847e-16 -8.035701627770193e-17 1.1975303833605847e-16 -8.035701627770193e-17 -0.9548936568897131 0.2969479820298471
12618512000.0 -0.9511824167097386 0.308629243821819 1.1872872301493257e-16 -8.181316277366154e-17 1.1872872301493257e-16 -8.181316277366154e-17 -0.951182632524728 0.30862857868825966
12619129333.333334 -0.9473285089420966 0.3202634792562988 1.1768671552431405e-16 -8.325627218509586e-17 1.1768671552431405e-16 -8.325627218509586e-17 -0.9473287328816077 0.32026281685006014
12619746666.666666 -0.9433323048175708 0.3318496085388342 1.166271815562467e-16 -8.46861297267004e-17 1.166271815562467e-16 -8.46861297267004e-17 -0.9433325368471712 0.33184894895914274
12620364000.0 -0.9391944045981944 0.3433858913398314 1.1555028940810065e-16 -8.610252271614945e-17 1.1555028940810065e-16 -8.610252271614945e-17 -0.9391946446822433 0.34338523468548043
12620981333.333334 -0.93491542982998 0.35487059481680033 1.1445620995595312e-16 -8.750524060562234e-17 1.1445620995595312e-16 -8.750524060562234e-17 -0.9349156779316291 0.3548699411861339
12621598666.666666 -0.9304960232494243 0.3663019938750165 1.133451166275181e-16 -8.889407501308414e-17 1.133451166275181e-16 -8.889407501308414e-17 -0.9304962793306235 0.3663013433659143
12622216000.0 -0.9259368486870185 0.37767837142648236 1.1221718537473444e-16 -9.026881975317489e-17 1.1221718537473444e-16 -9.026881975317489e-17 -0.9259371127085236 0.37767772413634587
12622833333.333334 -0.9212385909675164 0.3889980186479007 1.1107259464598526e-16 -9.162927086774567e-17 1.1107259464598526e-16 -9.162927086774567e-17 -0.9212388628888949 0.38899737467363876
12623450666.666666 -0.916401955807123 0.40025923523722345 1.0991152535793892e-16 -9.29752266560572e-17 1.0991152535793892e-16 -9.29752266560572e-17 -0.91640223558676 0.4002585946752372
12624068000.0 -0.9114276697073928 0.41146032966928625 1.0873416086701646e-16 -9.430648770463159e-17 1.0873416086701646e-16 -9.430648770463159e-17 -0.9114279573024974 0.41145969261545523
12624685333.333334 -0.9063164798461558 0.4225996194497578 1.0754068694049252e-16 -9.56228569167498e-17 1.0754068694049252e-16 -9.56228569167498e-17 -0.9063167752127649 0.422598985999424
12625302666.666666 -0.9010691539653662 0.43367543136768155 1.0633129172730069e-16 -9.692413954151771e-17 1.0633129172730069e-16 -9.692413954151771e-17 -0.901069457058358 0.4336748016156384
12625920000.0 -0.895686480255575 0.444686101747274 1.0510616572837809e-16 -9.821014320268512e-17 1.0510616572837809e-16 -9.821014320268512e-17 -0.8956867910286672 0.44468547578774825
12626537333.333334 -0.890169267237767 0.45562997669730204 1.0386550176678439e-16 -9.948067792695885e-17 1.0386550176678439e-16 -9.948067792695885e-17 -0.8901695856435314 0.4556293546239428
12627154666.666666 -0.8845183436418065 0.4665054123597738 1.0260949495739339e-16 -1.007355561720323e-16 1.0260949495739339e-16 -1.007355561720323e-16 -0.884518669631672 0.46650479426563685
12627772000.0 -0.878734558281879 0.4773107751569803 1.0133834267625989e-16 -1.0197459285421757e-16 1.0133834267625989e-16 -1.0197459285421757e-16 -0.8787348918061412 0.47731016113451535
12628389333.333334 -0.8728187799291967 0.48804444203649766 1.0005224452971263e-16 -1.0319760537563497e-16 1.0005224452971263e-16 -1.0319760537563497e-16 -0.8728191209370221 0.48804383217753267
12629006666.666666 -0.86677189718124 0.4987048007154549 9.875140232302048e-17 -1.044044136511109e-16 9.875140232302048e-17 -1.044044136511109e-16 -0.8667722456206782 0.49870419511118436
12629624000.0 -0.8605948183285347 0.5092902499222658 9.743602002884426e-17 -1.0559484013457677e-16 9.743602002884426e-17 -1.0559484013457677e-16 -0.8605951741465234 0.5092896486632362
12630241333.333334 -0.8542884712180209 0.5197991996374985 9.610630375527686e-17 -1.0676870984516193e-16 9.610630375527686e-17 -1.0676870984516193e-16 -0.8542888343603948 0.5197986028135946
12630858666.666666 -0.8478538031138715 0.5302300713323908 9.476246171365063e-17 -1.0792585039280995e-16 9.476246171365063e-17 -1.0792585039280995e-16 -0.8478541735253706 0.5302294790328222
12631476000.0 -0.8412917805549839 0.5405812982063218 9.340470418595238e-17 -1.0906609200356688e-16 9.340470418595238e-17 -1.0906609200356688e-16 -0.8412921581792618 0.5405807105196107
12632093333.333334 -0.8346033892100078 0.5508513254218206 9.203324349202461e-17 -1.1018926754438306e-16 9.203324349202461e-17 -1.1018926754438306e-16 -0.8346037739896398 0.5508507424357866
12632710666.666666 -0.8277896337292159 0.5610386103382364 9.064829395641078e-17 -1.1129521254755426e-16 9.064829395641078e-17 -1.1129521254755426e-16 -0.827790025605709 0.5610380321399855
12633328000.0 -0.8208515375934542 0.5711416227436676 8.925007187489499e-17 -1.1238376523475648e-16 8.925007187489499e-17 -1.1238376523475648e-16 -0.8208519365072553 0.5711410494195779
12633945333.333334 -0.8137901429606453 0.5811588450844581 8.783879548083331e-17 -1.1345476654059755e-16 8.783879548083331e-17 -1.1345476654059755e-16 -0.8137905488511488 0.5811582767201665
12634562666.666666 -0.8066065105091187 0.5910887726933338 8.64146849111117e-17 -1.1450806013582083e-16 8.64146849111117e-17 -1.1450806013582083e-16 -0.8066069233146784 0.5910882093737246
12635180000.0 -0.7993017192782571 0.6009299140154625 8.497796217189387e-17 -1.1554349245002964e-16 8.497796217189387e-17 -1.1554349245002964e-16 -0.7993021389361935 0.6009293558246539
12635797333.333334 -0.7918768665064966 0.6106807908323807 8.352885110405629e-17 -1.1656091269401526e-16 8.352885110405629e-17 -1.1656091269401526e-16 -0.7918772929531072 0.6106802378537122
12636414666.666666 -0.784333067466514 0.6203399384840352 8.206757734839305e-17 -1.175601728816256e-16 8.206757734839305e-17 -1.175601728816256e-16 -0.7843335006370838 0.6203393908000558
12637032000.0 -0.7766714552976225 0.6299059060889028 8.059436831050739e-17 -1.1854112785123703e-16 8.059436831050739e-17 -1.1854112785123703e-16 -0.7766718951264315 0.6299053637813575
12637649333.333334 -0.768893180835644 0.6393772567618062 7.910945312551394e-17 -1.195036352867391e-16 7.910945312551394e-17 -1.195036352867391e-16 -0.7688936272559799 0.6393767199116254
12638266666.666666 -0.7609994124399624 0.6487525678298619 7.761306262244594e-17 -1.2044755573811253e-16 7.761306262244594e-17 -1.2044755573811253e-16 -0.760999865384128 0.6487520365171471
12638884000.0 -0.752991335818129 0.6580304310460408 7.610542928842008e-17 -1.213727526415577e-16 7.610542928842008e-17 -1.213727526415577e-16 -0.752991795217455 0.6580299053500546
12639501333.333334 -0.744870153847671 0.6672094528008083 7.458678723259111e-17 -1.2227909233915965e-16 7.458678723259111e-17 -1.2227909233915965e-16 -0.7448706196325252 0.667208932799963
12640118666.666666 -0.7366370863955637 0.6762882543312904 7.305737214986689e-17 -1.2316644409810757e-16 7.305737214986689e-17 -1.2316644409810757e-16 -0.7366375584953598 0.6762877401031328
12640736000.0 -0.7282933701346077 0.6852654719287874 7.151742128431797e-17 -1.2403468012950514e-16 7.151742128431797e-17 -1.2403468012950514e-16 -0.728293848477821 0.6852649635499927
12641353333.333334 -0.7198402583582527 0.6941397571429923 6.996717339253897e-17 -1.2488367560662642e-16 6.996717339253897e-17 -1.2488367560662642e-16 -0.7198407428724253 0.6941392546893475
12641970666.666666 -0.7112790207918581 0.7029097769850575 6.84068687065992e-17 -1.257133086828246e-16 6.84068687065992e-17 -1.257133086828246e-16 -0.7112795114036132 0.7029092805314532
12642588000.0 -0.7026109434022035 0.7115742141275726 6.683674889691403e-17 -1.265234605089046e-16 6.683674889691403e-17 -1.265234605089046e-16 -0.702611440037256 0.7115737237479908
12643205333.333334 -0.6938373282042284 0.7201317671025399 6.525705703485152e-17 -1.2731401525006746e-16 6.525705703485152e-17 -1.2731401525006746e-16 -0.6938378307873936 0.7201312828700416
12643822666.666666 -0.6849594930655144 0.7285811504968008 6.366803755516821e-17 -1.2808486010237168e-16 6.366803755516821e-17 -1.2808486010237168e-16 -0.6849600015207246 0.7285806724835191
12644440000.0 -0.6759787715082748 0.7369210951451798 6.206993621823113e-17 -1.288358853087394e-16 6.206993621823113e-17 -1.288358853087394e-16 -0.6759792857585863 0.7369206234223055
12645057333.333334 -0.6668965125091715 0.7451503483210032 6.046300007208515e-17 -1.2956698417447568e-16 6.046300007208515e-17 -1.2956698417447568e-16 -0.6668970324767773 0.7451498829587748
12645674666.666666 -0.6577140802966045 0.7532676739243495 5.884747741430225e-17 -1.3027805308233278e-16 5.884747741430225e-17 -1.3027805308233278e-16 -0.6577146059028474 0.7532672149920437
12646292000.0 -0.6484328541456673 0.7612718526678309 5.722361775364784e-17 -1.309689915071021e-16 5.722361775364784e-17 -1.309689915071021e-16 -0.6484333853110505 0.7612714002337528
12646909333.333334 -0.6390542281712668 0.7691616822594818 5.559167177165196e-17 -1.316397020296978e-16 5.559167177165196e-17 -1.316397020296978e-16 -0.6390547648154656 0.7691612363909519
12647526666.666666 -0.6295796111184139 0.7769359775836074 5.395189128391263e-17 -1.3229009035080677e-16 5.395189128391263e-17 -1.3229009035080677e-16 -0.6295801531602901 0.776935538346956
12648144000.0 -0.6200104261507713 0.7845935708786729 5.2304529201319575e-17 -1.329200653040235e-16 5.2304529201319575e-17 -1.329200653040235e-16 -0.620010973508383 0.7845931383392258
12648761333.333334 -0.6103481106368829 0.7921333119127085 5.0649839491100516e-17 -1.3352953886851524e-16 5.0649839491100516e-17 -1.3352953886851524e-16 -0.6103486632274969 0.7921328861347794
12649378666.666666 -0.6005941159343133 0.7995540681560495 4.898807713772963e-17 -1.3411842618120037e-16 4.898807713772963e-17 -1.3411842618120037e-16 -0.6005946736744204 0.7995536492029314
12649996000.0 -0.5907499071714443 0.8068547249516104 4.7319498103653635e-17 -1.3468664554845482e-16 4.7319498103653635e-17 -1.3468664554845482e-16 -0.5907504699767684 0.8068543128855639
12650613333.333334 -0.5808169630275966 0.8140341856821539 4.564435928995339e-17 -1.3523411845730731e-16 4.564435928995339e-17 -1.3523411845730731e-16 -0.5808175308131103 0.8140337805644
12651230666.666666 -0.5707967755109525 0.8210913719350044 4.396291849684756e-17 -1.3576076958615755e-16 4.396291849684756e-17 -1.3576076958615755e-16 -0.5707973481908876 0.8210909738257137
12651848000.0 -0.560690849734138 0.8280252236642424 4.22754343840203e-17 -1.3626652681502027e-16 4.22754343840203e-17 -1.3626652681502027e-16 -0.560691427222 0.8280248326225274
12652465333.333334 -0.5505007036884921 0.8348346993496876 4.058216643094174e-17 -1.3675132123524343e-16 4.058216643094174e-17 -1.3675132123524343e-16 -0.550501285897073 0.8348343154335939
12653082666.666666 -0.5402278680159618 0.8415187761534129 3.888337489700991e-17 -1.3721508715875648e-16 3.888337489700991e-17 -1.3721508715875648e-16 -0.5402284548573526 0.8415183994199089
12653700000.0 -0.5298738857789715 0.8480764500735191 3.7179320781549835e-17 -1.3765776212683412e-16 3.7179320781549835e-17 -1.3765776212683412e-16 -0.5298744771645768 0.8480760805784906
12654317333.333334 -0.5194403122290028 0.8545067360947161 3.547026578384454e-17 -1.380792869183288e-16 3.547026578384454e-17 -1.380792869183288e-16 -0.5194409080695523 0.854506373892955
12654934666.666666 -0.5089287145726451 0.8608086683364918 3.3756472262946145e-17 -1.3847960555744322e-16 3.3756472262946145e-17 -1.3847960555744322e-16 -0.5089293147782086 0.8608083134816896
12655552000.0 -0.49834067173633206 0.8669813001981009 3.2038203197440834e-17 -1.388586653209924e-16 3.2038203197440834e-17 -1.388586653209924e-16 -0.4983412762163331 0.8669809527428413
12656169333.333334 -0.48767777412932467 0.873023704500671 3.0315722145206583e-17 -1.3921641674515347e-16 3.0315722145206583e-17 -1.3921641674515347e-16 -0.4876783827925527 0.8730233644964198
12656786666.666666 -0.47694162340449775 0.8789349736266567 2.8589293202983625e-17 -1.3955281363174098e-16 2.8589293202983625e-17 -1.3955281363174098e-16 -0.4769422361591224 0.8789346411237549
12657404000.0 -0.4661338322180282 0.8847142196560115 2.6859180965961624e-17 -1.3986781305396423e-16 2.6859180965961624e-17 -1.3986781305396423e-16 -0.4661344489716147 0.8847138947036703
12658021333.333334 -0.4552560239870151 0.8903605744996481 2.5125650487255424e-17 -1.4016137536169585e-16 2.5125650487255424e-17 -1.4016137536169585e-16 -0.4552566446465371 0.8903602571459402
12658638666.666666 -0.4443098326458056 0.895873190029741 2.338896723739407e-17 -1.404334641862247e-16 2.338896723739407e-17 -1.404334641862247e-16 -0.4443104571176586 0.8958728803215918
12659256000.0 -0.43329690240020924 0.9012512382073005 2.1649397063666715e-17 -1.4068404644452552e-16 2.1649397063666715e-17 -1.4068404644452552e-16 -0.43329753059022513 0.9012509361904826
12659873333.333334 -0.42221888748090447 0.9064939112063557 1.9907206149502745e-17 -1.4091309234301295e-16 1.9907206149502745e-17 -1.4091309234301295e-16 -0.422219519294366 0.9064936169254821
12660490666.666666 -0.4110774518948871 0.9116004215353432 1.8162660973816528e-17 -1.4112057538079387e-16 1.8162660973816528e-17 -1.4112057538079387e-16 -0.4110780872365425 0.9116001350338612
12661108000.0 -0.399874269175187 0.9165700021555462 1.6416028270242913e-17 -1.4130647235242741e-16 1.6416028270242913e-17 -1.4130647235242741e-16 -0.39987490794926334 0.9165697234757302
12661725333.333334 -0.38861102213000626 0.9214019065960741 1.466757498647026e-17 -1.4147076335016757e-16 1.466757498647026e-17 -1.4147076335016757e-16 -0.3886116642402245 0.9214016357790187
12662342666.666666 -0.3772894025895591 0.9260954090661616 1.291756824343207e-17 -1.4161343176571619e-16 1.291756824343207e-17 -1.4161343176571619e-16 -0.3772900479391488 0.9260951461517779
12662960000.0 -0.365911111152103 0.9306498045641238 1.1166275294592713e-17 -1.4173446429146135e-16 1.1166275294592713e-17 -1.4173446429146135e-16 -0.365911759643816 0.9306495495911307
12663577333.333334 -0.3544778569284926 0.9350644089832477 9.41396348516861e-18 -1.4183385092122053e-16 9.41396348516861e-18 -1.4183385092122053e-16 -0.35447850846461915 0.9350641619891692
12664194666.666666 -0.3429913572853545 0.9393385592145986 7.660900211355166e-18 -1.4191158495047695e-16 7.660900211355166e-18 -1.4191158495047695e-16 -0.3429920117677364 0.9393383202357548
12664812000.0 -0.33145333758728196 0.9434716132465565 5.907352879598256e-18 -1.4196766297611322e-16 5.907352879598256e-18 -1.4196766297611322e-16 -0.33145399491732813 0.9434713823180605
12665429333.333334 -0.319865530937539 0.9474629502613048 4.153588865835599e-18 -1.42002084895643e-16 4.153588865835599e-18 -1.42002084895643e-16 -0.31986619101624053 0.9474627274170577
12666046666.666666 -0.30822967791792266 0.9513119707280164 2.399875474807135e-18 -1.4201485390594005e-16 2.399875474807135e-18 -1.4201485390594005e-16 -0.3082303406458677 0.9513117560007027
12666664000.0 -0.2965475263269094 0.9550180964930455 6.464798993032457e-19 -1.4200597650146526e-16 6.464798993032457e-19 -1.4200597650146526e-16 -0.29654819160429724 0.9550178899141256
12667281333.333334 -0.2848208309176606 0.9585807708665882 -1.1063308204127534e-18 -1.4197546247199137e-16 -1.1063308204127534e-18 -1.4197546247199137e-16 -0.2848214986443178 0.9585805724662967
12667898666.666666 -0.2730513531340947 0.9619994587064216 -2.858289837276314e-18 -1.419233248998282e-16 -2.858289837276314e-18 -1.419233248998282e-16 -0.2730520232094896 0.9619992685137615
12668516000.0 -0.26124086084622067 0.9652736464983053 -4.609130538007661e-18 -1.4184958015654482e-16 -4.609130538007661e-18 -1.4184958015654482e-16 -0.26124153316947846 0.965273464541043
12669133333.333334 -0.2493911280849986 0.9684028424329936 -6.358586583573847e-18 -1.4175424789919661e-16 -6.358586583573847e-18 -1.4175424789919661e-16 -0.249391802554917 0.9684026687376577
12669750666.666666 -0.2375039347754848 0.9713865764802244 -8.10639194970609e-18 -1.416373510660473e-16 -8.10639194970609e-18 -1.416373510660473e-16 -0.23750461129054892 0.9713864110720998
12670368000.0 -0.22558106646960885 0.97422440045928 -9.852280967297003e-18 -1.4149891587179743e-16 -9.852280967297003e-18 -1.4149891587179743e-16 -0.22558174492800603 0.9742242433624024
