! Parameters = {f0=12700.012000; bw=77.238000; Q=6100.000000; N=10; m_0_1=1.331026; m_1_1=1.200645; m_1_2=1.165838; m_2_2=1.199996; m_2_3=0.802801; m_2_8=0.003615; m_2_9=0.040319; m_3_3=1.198059; m_3_4=0.691330; m_3_7=0.004215; m_3_8=-0.092873; m_3_9=0.003615; m_4_4=1.195134; m_4_5=0.527665; m_4_6=0.007732; m_4_7=-0.113422; m_4_8=0.004215; m_5_5=1.195516; m_5_6=0.935020; m_5_7=0.007732; m_6_6=1.195515; m_6_7=0.528007; m_7_7=1.195148; m_7_8=0.691448; m_8_8=1.198057; m_8_9=0.803114; m_9_9=1.199991; m_9_10=1.166916; m_10_10=1.200635; m_10_11=1.331821}
!
! Created with skrf (http://scikit-rf.org).
# Hz S RI R 50.0 
!freq ReS11 ImS11 ReS21 ImS21 ReS12 ImS12 ReS22 ImS22
12607400000.0 -0.026270272717710475 0.99965487683057 -3.784374634708135e-17 -1.4127074314368774e-16 -3.784374634708135e-17 -1.4127074314368774e-16 -0.026270973623060568 0.9996548584109932
12608017333.333334 -0.013945806176783978 0.9999027525164061 -3.9587010539471086e-17 -1.4076244270865965e-16 -3.9587010539471086e-17 -1.4076244270865965e-16 -0.013946507221613912 0.9999027427385743
12608634666.666666 -0.0016192205187547971 0.9999986890614991 -4.132348994211957e-17 -1.4023264321753356e-16 -4.132348994211957e-17 -1.4023264321753356e-16 -0.0016199215965296376 0.9999986879260528
12609252000.0 0.010707611183335927 0.9999426718880203 -4.305291957218289e-17 -1.3968143474525398e-16 -4.305291957218289e-17 -1.3968143474525398e-16 0.010706910179145707 0.9999426793942853
12609869333.333334 0.02303281581917552 0.9997347095081006 -4.4775035637018867e-17 -1.3910891063079596e-16 -4.4775035637018867e-17 -1.3910891063079596e-16 0.023032114995077832 0.9997347256540905
12610486666.666666 0.03535452052555044 0.9993748335225449 -4.6489575574333326e-17 -1.385151674615177e-16 -4.6489575574333326e-17 -1.385151674615177e-16 0.035353819988015414 0.9993748583049611
12611104000.0 0.047670852971276184 0.9988630986160202 -4.8196278092203266e-17 -1.37900305056988e-16 -4.8196278092203266e-17 -1.37900305056988e-16 0.04767015282671998 0.9988631320302515
12611721333.333334 0.05997994164133592 0.9981995825487546 -4.9894883208787065e-17 -1.3726442645235944e-16 -4.9894883208787065e-17 -1.3726442645235944e-16 0.05997924199610458 0.9981996245888791
12612338666.666666 0.07227991612140688 0.9973843861447246 -5.158513229191134e-17 -1.3660763788121947e-16 -5.158513229191134e-17 -1.3660763788121947e-16 0.07227921708176013 0.9973844368035096
12612956000.0 0.08456890738238873 0.9964176332763063 -5.326676809839844e-17 -1.3593004875796625e-16 -5.326676809839844e-17 -1.3593004875796625e-16 0.08456820905448396 0.9964176925452114
12613573333.333334 0.096845048063758 0.9952994708455019 -5.4939534813111224e-17 -1.3523177165972416e-16 -5.4939534813111224e-17 -1.3523177165972416e-16 0.09684435055363397 0.9952995387146781
12614190666.666666 0.10910647275791589 0.9940300687615711 -5.660317808787405e-17 -1.3451292230773422e-16 -5.660317808787405e-17 -1.3451292230773422e-16 0.10910577617147682 0.9940301452198651
12614808000.0 0.12135131829336097 0.9926096199152362 -5.825744508005645e-17 -1.3377361954830632e-16 -5.825744508005645e-17 -1.3377361954830632e-16 0.12135062273636042 0.9926097049501903
12615425333.333334 0.13357772401786225 0.9910383401493682 -5.990208449095178e-17 -1.3301398533327967e-16 -5.990208449095178e-17 -1.3301398533327967e-16 0.13357702959588677 0.9910384337472214
12616042666.666666 0.14578383208122017 0.98931646822618 -6.15368466038953e-17 -1.322341447000156e-16 -6.15368466038953e-17 -1.322341447000156e-16 0.14578313889967373 0.9893165703718728
12616660000.0 0.15796778771746214 0.9874442657909651 -6.3161483322124e-17 -1.3143422575092377e-16 -6.3161483322124e-17 -1.3143422575092377e-16 0.15796709588154995 0.9874443764681412
12617277333.333334 0.17012773952687824 0.9854220173323115 -6.477574820637903e-17 -1.3061435963251952e-16 -6.477574820637903e-17 -1.3061435963251952e-16 0.17012704914159052 0.985422136523318
12617894666.666666 0.18226183975709564 0.9832500301389087 -6.637939651219747e-17 -1.2977468051404112e-16 -6.637939651219747e-17 -1.2977468051404112e-16 0.18226115092719244 0.983250157824804
12618512000.0 0.1943682445841891 0.9809286342528027 -6.797218522702443e-17 -1.2891532556556094e-16 -6.797218522702443e-17 -1.2891532556556094e-16 0.19436755741418302 0.9809287704133519
12619129333.333334 0.20644511439249122 0.9784581824192986 -6.955387310691495e-17 -1.280364349357095e-16 -6.955387310691495e-17 -1.280364349357095e-16 0.20644442898663343 0.9784583270329856
12619746666.666666 0.21849061405427256 0.9758390500333514 -7.112422071305532e-17 -1.271381517288928e-16 -7.112422071305532e-17 -1.271381517288928e-16 0.21848993051653529 0.975839203077375
12620364000.0 0.23050291320889915 0.9730716350824424 -7.268299044795159e-17 -1.2622062198208518e-16 -7.268299044795159e-17 -1.2622062198208518e-16 0.23050223164296083 0.9730717965327232
12620981333.333334 0.24248018654032558 0.9701563580862499 -7.422994659128844e-17 -1.2528399464119782e-16 -7.422994659128844e-17 -1.2528399464119782e-16 0.2424795070495549 0.9701565279174343
12621598666.666666 0.2544206140550416 0.9670936620326196 -7.576485533555588e-17 -1.2432842153696675e-16 -7.576485533555588e-17 -1.2432842153696675e-16 0.2544199367424819 0.9670938402180825
12622216000.0 0.26632238135834985 0.9638840123103124 -7.728748482129651e-17 -1.2335405736044805e-16 -7.728748482129651e-17 -1.2335405736044805e-16 0.2663217063267031 0.9638841988221614
12622833333.333334 0.27818367993017906 0.9605278966382551 -7.879760517209859e-17 -1.223610596380453e-16 -7.879760517209859e-17 -1.223610596380453e-16 0.2781830072817914 0.9605280914473379
12623450666.666666 0.29000270739968004 0.9570258249915007 -8.02949885292142e-17 -1.2134958870614541e-16 -8.02949885292142e-17 -1.2134958870614541e-16 0.2900020372365247 0.9570260280674043
12624068000.0 0.3017776678194009 0.9533783295236425 -8.177940908590141e-17 -1.203198076852997e-16 -8.177940908590141e-17 -1.203198076852997e-16 0.30177700024306364 0.9533785408347013
12624685333.333334 0.31350677193810655 0.949585964485973 -8.325064312141936e-17 -1.192718824539972e-16 -8.325064312141936e-17 -1.192718824539972e-16 0.31350610704977044 0.9495861839992745
12625302666.666666 0.325188237472419 0.9456493061433444 -8.470846903465175e-17 -1.182059816220501e-16 -8.470846903465175e-17 -1.182059816220501e-16 0.3251875753728488 0.9456495338247328
12625920000.0 0.33682028937807457 0.9415689526864603 -8.615266737747786e-17 -1.171222765035055e-16 -8.615266737747786e-17 -1.171222765035055e-16 0.3368196301676012 0.9415691885005409
12626537333.333334 0.3484011601191631 0.9373455241411394 -8.758302088768549e-17 -1.1602094108923472e-16 -8.758302088768549e-17 -1.1602094108923472e-16 0.3484005038976692 0.9373457680512868
12627154666.666666 0.35992908993703776 0.9329796622739974 -8.899931452163411e-17 -1.1490215201904722e-16 -8.899931452163411e-17 -1.1490215201904722e-16 0.3599284368039412 0.9329799142423582
12627772000.0 0.3714023271177652 0.928472030494896 -9.040133548652895e-17 -1.137660885534303e-16 -9.040133548652895e-17 -1.137660885534303e-16 0.3714016771720055 0.9284722904823967
12628389333.333334 0.38281912825796294 0.9238233137562719 -9.178887327228863e-17 -1.1261293254493629e-16 -9.178887327228863e-17 -1.1261293254493629e-16 0.38281848159798565 0.9238235817226249
12629006666.666666 0.3941777585301131 0.9190342184489011 -9.316171968313789e-17 -1.114428684091084e-16 -9.316171968313789e-17 -1.114428684091084e-16 0.39417711525385446 0.9190344943526093
12629624000.0 0.4054764919458848 0.9141054722946722 -9.451966886874871e-17 -1.1025608309509116e-16 -9.451966886874871e-17 -1.1025608309509116e-16 0.4054758521507577 0.9141057560930371
12630241333.333334 0.4167136116185893 0.9090378242359326 -9.586251735506455e-17 -1.0905276605581426e-16 -9.586251735506455e-17 -1.0905276605581426e-16 0.4167129754014682 0.909038115885061
12630858666.666666 0.42788741002380815 0.9038320443217999 -9.719006407469415e-17 -1.0783310921784879e-16 -9.719006407469415e-17 -1.0783310921784879e-16 0.42788677748101456 0.9038323437766097
12631476000.0 0.43899618925929806 0.8984889235909486 -9.850211039700499e-17 -1.0659730695081911e-16 -9.850211039700499e-17 -1.0659730695081911e-16 0.4389955604865854 0.8984892308051753
12632093333.333334 0.4500382613025793 0.8930092739515969 -9.97984601577259e-17 -1.0534555603654515e-16 -9.97984601577259e-17 -1.0534555603654515e-16 0.4500376363951188 0.8930095888778022
12632710666.666666 0.4610119482674928 0.887393928058118 -1.0107891968823165e-16 -1.0407805563775822e-16 -1.0107891968823165e-16 -1.0407805563775822e-16 0.4610113273198597 0.8873942506476972
12633328000.0 0.47191558265956673 0.8816437391843086 -1.0234329784442383e-16 -1.0279500726646664e-16 -1.0234329784442383e-16 -1.0279500726646664e-16 0.47191496576572417 0.8816440693874948
12633945333.333334 0.48274750762881335 0.8757595810940212 -1.035914060351716e-16 -1.0149661475201308e-16 -1.035914060351716e-16 -1.0149661475201308e-16 0.4827468948821009 0.875759918859899
12634562666.666666 0.49350607722190254 0.8697423479081927 -1.0482305825039109e-16 -1.0018308420874339e-16 -1.0482305825039109e-16 -1.0018308420874339e-16 0.49350546871501944 0.8697426931847004
12635180000.0 0.504189656632117 0.8635929539690532 -1.0603807108868486e-16 -9.885462400336847e-17 -1.0603807108868486e-16 -9.885462400336847e-17 0.5041890524571092 0.863593306702993
12635797333.333334 0.5147966224478165 0.8573123337011594 -1.0723626378460246e-16 -9.751144472195602e-17 -1.0723626378460246e-16 -9.751144472195602e-17 0.5147960226960633 0.857312693838206
12636414666.666666 0.5253253628990499 0.8509014414694505 -1.0841745823544241e-16 -9.615375913663871e-17 -1.0841745823544241e-16 -9.615375913663871e-17 0.5253247676612496 0.8509018089541599
12637032000.0 0.5357742781025194 0.8443612514342022 -1.0958147902767437e-16 -9.478178217195219e-17 -1.0958147902767437e-16 -9.478178217195219e-17 0.535773687468675 0.844361626210018
12637649333.333334 0.5461417803047354 0.8376927574029647 -1.1072815346290747e-16 -9.339573087088932e-17 -1.1072815346290747e-16 -9.339573087088932e-17 0.5461411943641419 0.8376931394122287
12638266666.666666 0.5564262941232102 0.8308969726795967 -1.1185731158344551e-16 -9.199582436062187e-17 -1.1185731158344551e-16 -9.199582436062187e-17 0.556425712964441 0.830897361863558
12638884000.0 0.5666262567858679 0.8239749299102757 -1.129687861973949e-16 -9.058228381793419e-17 -1.129687861973949e-16 -9.058228381793419e-17 0.5666256804967612 0.8239753262090982
12639501333.333334 0.5767401183685594 0.8169276809265474 -1.140624129033641e-16 -8.915533243431851e-17 -1.140624129033641e-16 -8.915533243431851e-17 0.5767395470362047 0.8169280842793203
12640118666.666666 0.5867663420303256 0.8097562965856813 -1.1513803011467959e-16 -8.771519538083317e-17 -1.1513803011467959e-16 -8.771519538083317e-17 0.5867657757410508 0.8097567069304273
12640736000.0 0.5967034042475499 0.8024618666074994 -1.161954790832385e-16 -8.62620997725596e-17 -1.161954790832385e-16 -8.62620997725596e-17 0.5967028430869078 0.8024622838811855
12641353333.333334 0.6065497950445867 0.795045499409422 -1.1723460392277826e-16 -8.479627463295966e-17 -1.1723460392277826e-16 -8.479627463295966e-17 0.6065492390973429 0.795045923547968
12641970666.666666 0.6163040182239452 0.7875083219375055 -1.1825525163185763e-16 -8.331795085773425e-17 -1.1825525163185763e-16 -8.331795085773425e-17 0.6163034675740653 0.7875087528757951
12642588000.0 0.625964591593299 0.77985147949545 -1.1925727211625968e-16 -8.182736117857656e-17 -1.1925727211625968e-16 -8.182736117857656e-17 0.6259640463239344 0.7798519171673391
12643205333.333334 0.6355300471907541 0.772076135570531 -1.2024051821100165e-16 -8.032474012657039e-17 -1.2024051821100165e-16 -8.032474012657039e-17 0.6355295073842321 0.7720765799088601
12643822666.666666 0.6449989315080047 0.7641834716567348 -1.2120484570187597e-16 -7.881032399533452e-17 -1.2120484570187597e-16 -7.881032399533452e-17 0.6449983972458131 0.7641839225933371
12644440000.0 0.6543698057111051 0.7561746870752935 -1.2215011334649947e-16 -7.728435080395496e-17 -1.2215011334649947e-16 -7.728435080395496e-17 0.6543692770738821 0.7561751445410066
12645057333.333334 0.663641245859047 0.7480509987925017 -1.2307618289491988e-16 -7.574706025963188e-17 -1.2307618289491988e-16 -7.574706025963188e-17 0.663640722926568 0.7480514627171779
12645674666.666666 0.6728118431202614 0.7398136412346855 -1.2398291910976156e-16 -7.419869372006692e-17 -1.2398291910976156e-16 -7.419869372006692e-17 0.6728113259714273 0.7398141115472029
12646292000.0 0.6818802039867791 0.731463866100545 -1.2487018978589522e-16 -7.263949415561332e-17 -1.2487018978589522e-16 -7.263949415561332e-17 0.6818796926996041 0.7314643427288174
12646909333.333334 0.6908449504856409 0.7230029421712606 -1.2573786576959282e-16 -7.106970611126405e-17 -1.2573786576959282e-16 -7.106970611126405e-17 0.6908444451372415 0.7230034250422496
12647526666.666666 0.699704720388606 0.7144321551174126 -1.265858209772686e-16 -6.948957566830205e-17 -1.265858209772686e-16 -6.948957566830205e-17 0.6997042210551879 0.7144326441571378
12648144000.0 0.7084581674191377 0.7057528073036081 -1.2741393241370795e-16 -6.789935040578162e-17 -1.2741393241370795e-16 -6.789935040578162e-17 0.7084576741759869 0.7057533024371607
12648761333.333334 0.7171039614567165 0.6969662175908465 -1.2822208018978843e-16 -6.6299279361841e-17 -1.2822208018978843e-16 -6.6299279361841e-17 0.7171034743781842 0.6969667187423972
12649378666.666666 0.7256407887391579 0.688073721135911 -1.2901014753976137e-16 -6.46896129947231e-17 -1.2901014753976137e-16 -6.46896129947231e-17 0.7256403078986532 0.6880742282287248
12649996000.0 0.7340673520622447 0.6790766691884876 -1.2977802083802441e-16 -6.307060314362785e-17 -1.2977802083802441e-16 -6.307060314362785e-17 0.7340668775322206 0.6790771821449335
12650613333.333334 0.742382370976819 0.6699764288858553 -1.3052558961540238e-16 -6.144250298937082e-17 -1.3052558961540238e-16 -6.144250298937082e-17 0.7423819028287624 0.6699769476274188
12651230666.666666 0.7505845819831992 0.6607743830453118 -1.3125274657492225e-16 -5.980556701488087e-17 -1.3125274657492225e-16 -5.980556701488087e-17 0.7505841202876213 0.6607749074926079
12651848000.0 0.7586727387234812 0.6514719299537153 -1.3195938760714424e-16 -5.816005096540037e-17 -1.3195938760714424e-16 -5.816005096540037e-17 0.7586722835499057 0.6514724600264995
12652465333.333334 0.7666456121706773 0.6420704831552799 -1.3264541180492116e-16 -5.650621180867077e-17 -1.3264541180492116e-16 -5.650621180867077e-17 0.7666451635876291 0.6420710187724601
12653082666.666666 0.7745019908154929 0.6325714712367648 -1.3331072147771644e-16 -5.484430769481865e-17 -1.3331072147771644e-16 -5.484430769481865e-17 0.77450154889049 0.6325720123164151
12653700000.0 0.7822406808506225 0.6229763376101548 -1.339552221654093e-16 -5.3174597916096783e-17 -1.339552221654093e-16 -5.3174597916096783e-17 0.7822402456501646 0.6229768840695273
12654317333.333334 0.7898605063518266 0.6132865402937229 -1.3457882265156986e-16 -5.149734286653379e-17 -1.3457882265156986e-16 -5.149734286653379e-17 0.7898600779413846 0.61328709204926
12654934666.666666 0.797360309456905 0.6035035516901254 -1.3518143497626376e-16 -4.981280400134194e-17 -1.3518143497626376e-16 -4.981280400134194e-17 0.7973598879009125 0.6035041086574737
12655552000.0 0.8047389505415661 0.5936288583627533 -1.3576297444833711e-16 -4.8121243796212e-17 -1.3576297444833711e-16 -4.8121243796212e-17 0.8047385359034082 0.5936294204567748
12656169333.333334 0.8119953083924591 0.5836639608100223 -1.3632335965717269e-16 -4.6422925706520074e-17 -1.3632335965717269e-16 -4.6422925706520074e-17 0.8119949007344635 0.5836645279448086
12656786666.666666 0.819128280377718 0.5736103732371399 -1.36862512483977e-16 -4.4718114126288196e-17 -1.36862512483977e-16 -4.4718114126288196e-17 0.8191278797611461 0.5736109453260253
12657404000.0 0.8261367826144261 0.563469623326131 -1.3738035811252095e-16 -4.300707434711238e-17 -1.3738035811252095e-16 -4.300707434711238e-17 0.8261363890994642 0.5634702002817058
12658021333.333334 0.8330197501333656 0.5532432520036301 -1.3787682503938424e-16 -4.1290072516922306e-17 -1.3787682503938424e-16 -4.1290072516922306e-17 0.8330193637791145 0.5532438337377534
12658638666.666666 0.8397761370407008 0.5429328132069434 -1.3835184508367522e-16 -3.9567375598656254e-17 -1.3835184508367522e-16 -3.9567375598656254e-17 0.8397757579051666 0.5429333996307563
12659256000.0 0.846404916677157 0.532539873647544 -1.3880535339625197e-16 -3.7839251328767584e-17 -1.3880535339625197e-16 -3.7839251328767584e-17 0.8464045448172445 0.5325404646714842
12659873333.333334 0.8529050817738226 0.5220660125733112 -1.392372884684068e-16 -3.6105968175699186e-17 -1.392372884684068e-16 -3.6105968175699186e-17 0.8529047172453248 0.522066608107126
12660490666.666666 0.8592756446052247 0.5115128215285366 -1.3964759214003668e-16 -3.4367795298249746e-17 -1.3964759214003668e-16 -3.4367795298249746e-17 0.8592752874628157 0.5115134214812971
12661108000.0 0.865515637139579 0.5008819041118135 -1.400362096073193e-16 -3.262500250374639e-17 -1.400362096073193e-16 -3.262500250374639e-17 0.8655152874368062 0.5008825083919287
12661725333.333334 0.8716241111856277 0.49017487573280616 -1.4040308942982308e-16 -3.087786020632884e-17 -1.4040308942982308e-16 -3.087786020632884e-17 0.8716237689749008 0.49017548424803536
12662342666.666666 0.8776001385369617 0.4793933633663628 -1.4074818353714176e-16 -2.9126639384956946e-17 -1.4074818353714176e-16 -2.9126639384956946e-17 0.8775998038695483 0.4793939760238313
12662960000.0 0.8834428111129371 0.4685390053055114 -1.4107144723497893e-16 -2.73716115414754e-17 -1.4107144723497893e-16 -2.73716115414754e-17 0.8834424840389541 0.46853962201172494
12663577333.333334 0.8891512410966936 0.45761345091246847 -1.4137283921071986e-16 -2.5613048658566114e-17 -1.4137283921071986e-16 -2.5613048658566114e-17 0.8891509216650975 0.45761407157332523
12664194666.666666 0.894724561070054 0.44661836036800684 -1.416523215384794e-16 -2.3851223157651147e-17 -1.416523215384794e-16 -2.3851223157651147e-17 0.894724249328637 0.44661898488881446
12664812000.0 0.9001619241453417 0.4355554044191904 -1.4190985968362615e-16 -2.2086407856740252e-17 -1.4190985968362615e-16 -2.2086407856740252e-17 0.9001616201407218 0.4355560327046787
12665429333.333334 0.9054625040940839 0.4244262641254415 -1.421454225067794e-16 -2.0318875928249874e-17 -1.421454225067794e-16 -2.0318875928249874e-17 0.9054622078717002 0.4244268960797781
12666046666.666666 0.9106254954724576 0.4132326306033319 -1.4235898226728583e-16 -1.854890085676806e-17 -1.4235898226728583e-16 -1.854890085676806e-17 0.9106252070765608 0.41323326613013556
12666664000.0 0.9156501137438811 0.4019762047691714 -1.425505146261712e-16 -1.677675639676308e-17 -1.425505146261712e-16 -1.677675639676308e-17 0.915649833217529 0.4019768437715279
12667281333.333334 0.9205355953980129 0.3906586970810121 -1.427199986485597e-16 -1.5002716530348314e-17 -1.427199986485597e-16 -1.5002716530348314e-17 0.9205353227830647 0.390659339461489
12667898666.666666 0.9252811980669045 0.37928182727845433 -1.4286741680557715e-16 -1.3227055424935101e-17 -1.4286741680557715e-16 -1.3227055424935101e-17 0.9252809334040111 0.3792824729391146
12668516000.0 0.9298862006378049 0.36784732412129484 -1.429927549757241e-16 -1.145004739090998e-17 -1.429927549757241e-16 -1.145004739090998e-17 0.9298859439664069 0.3678479729637132
12669133333.333334 0.9343499033626056 0.35635692512718015 -1.4309600244572036e-16 -9.671966839363523e-18 -1.4309600244572036e-16 -9.671966839363523e-18 0.9343496547209245 0.3563575770524572
12669750666.666666 0.9386716279643357 0.3448123763071606 -1.4317715191083217e-16 -7.893088239702031e-18 -1.4317715191083217e-16 -7.893088239702031e-18 0.9386713873893701 0.34481303121593854
12670368000.0 0.9428507177401475 0.3332154319005897 -1.432361994746672e-16 -6.1136860773644595e-18 -1.432361994746672e-16 -6.1136860773644595e-18 0.9428504852676645 0.3332160896930661
