! Parameters = {f0=12700.012000; bw=77.238000; Q=6100.000000; N=10; m_0_1=1.215110; m_1_1=-0.538094; m_1_2=1.049922; m_2_2=-0.538743; m_2_3=0.686885; m_2_8=-0.002181; m_2_9=0.034523; m_3_3=-0.540680; m_3_4=0.575414; m_3_7=-0.001581; m_3_8=-0.098669; m_3_9=-0.002181; m_4_4=-0.543605; m_4_5=0.411749; m_4_6=0.001936; m_4_7=-0.119218; m_4_8=-0.001581; m_5_5=-0.543223; m_5_6=0.819104; m_5_7=0.001936; m_6_6=-0.543224; m_6_7=0.412091; m_7_7=-0.543591; m_7_8=0.575532; m_8_8=-0.540682; m_8_9=0.687198; m_9_9=-0.538748; m_9_10=1.051000; m_10_10=-0.538104; m_10_11=1.215905}
!
! Created with skrf (http://scikit-rf.org).
# Hz S RI R 50.0 
!freq ReS11 ImS11 ReS21 ImS21 ReS12 ImS12 ReS22 ImS22
12607400000.0 -0.8077415089698116 0.5895368136825815 5.144998983478207e-17 -6.735675459644986e-17 5.144998983478207e-17 -6.735675459644986e-17 -0.807741886443342 0.5895362964947872
12608017333.333334 -0.80246255653352 0.5967024764164517 5.0832495308537273e-17 -6.780322587517673e-17 5.0832495308537273e-17 -6.780322587517673e-17 -0.8024629385764347 0.5967019626338689
12608634666.666666 -0.797120037780566 0.6038208719219202 5.02111346815314e-17 -6.824404286667671e-17 5.02111346815314e-17 -6.824404286667671e-17 -0.7971204243621559 0.6038203615849127
12609252000.0 -0.7917143759135723 0.6108914363220534 4.9585959670536516e-17 -6.867917217016745e-17 4.9585959670536516e-17 -6.867917217016745e-17 -0.7917147670027719 0.6108909294707073
12609869333.333334 -0.7862459991370182 0.6179136095287685 4.89570222801731e-17 -6.910858085737509e-17 4.89570222801731e-17 -6.910858085737509e-17 -0.7862463947024074 0.6179131062028902
12610486666.666666 -0.7807153406233548 0.6248868352871569 4.832437479860152e-17 -6.953223647500561e-17 4.832437479860152e-17 -6.953223647500561e-17 -0.7807157406331628 0.6248863355262698
12611104000.0 -0.7751228384784463 0.6318105612198602 4.7688069793180485e-17 -6.995010704718504e-17 4.7688069793180485e-17 -6.995010704718504e-17 -0.7751232429005538 0.631810065063202
12611721333.333334 -0.7694689357072194 0.6386842388703816 4.704816010612443e-17 -7.036216107784657e-17 4.704816010612443e-17 -7.036216107784657e-17 -0.7694693445091587 0.6386837463568991
12612338666.666666 -0.7637540801783383 0.6455073237468177 4.640469885012259e-17 -7.076836755309012e-17 4.640469885012259e-17 -7.076836755309012e-17 -0.7637544933273006 0.6455068349151671
12612956000.0 -0.7579787245886747 0.6522792753650576 4.575773940393777e-17 -7.116869594350192e-17 4.575773940393777e-17 -7.116869594350192e-17 -0.757979142051508 0.6522787902535984
12613573333.333334 -0.7521433264277373 0.6589995572912458 4.510733540800404e-17 -7.156311620642303e-17 4.510733540800404e-17 -7.156311620642303e-17 -0.7521437481709519 0.6589990759380394
12614190666.666666 -0.7462483479411015 0.6656676371846655 4.4453540759985814e-17 -7.19515987881879e-17 4.4453540759985814e-17 -7.19515987881879e-17 -0.7462487739308727 0.6656671596274729
12614808000.0 -0.7402942560940181 0.6722829868396519 4.379640961031884e-17 -7.233411462632387e-17 4.379640961031884e-17 -7.233411462632387e-17 -0.7402946862961869 0.6722825131159282
12615425333.333334 -0.7342815225343454 0.6788450822275157 4.313599635775251e-17 -7.271063515169695e-17 4.313599635775251e-17 -7.271063515169695e-17 -0.7342819569144234 0.6788446123744099
12616042666.666666 -0.7282106235551322 0.6853534035381191 4.2472355644843067e-17 -7.308113229063553e-17 4.2472355644843067e-17 -7.308113229063553e-17 -0.7282110620783034 0.6853529375924693
12616660000.0 -0.7220820400570044 0.6918074352209251 4.180554235346007e-17 -7.344557846699531e-17 4.180554235346007e-17 -7.344557846699531e-17 -0.7220824826881271 0.6918069732192562
12617277333.333334 -0.7158962575099904 0.6982066660259184 4.113561160025212e-17 -7.380394660419586e-17 4.113561160025212e-17 -7.380394660419586e-17 -0.7158967042136024 0.6982062080044403
12617894666.666666 -0.70965376591511 0.7045505890440673 4.046261873210853e-17 -7.415621012720997e-17 4.046261873210853e-17 -7.415621012720997e-17 -0.7096542166554288 0.7045501350386699
12618512000.0 -0.7033550597654742 0.710838701747553 3.978661932159073e-17 -7.450234296451718e-17 3.978661932159073e-17 -7.450234296451718e-17 -0.7033555145064018 0.7108382517938053
12619129333.333334 -0.697000638007236 0.7170705060294587 3.910766916236914e-17 -7.484231955000608e-17 3.910766916236914e-17 -7.484231955000608e-17 -0.6970010967123617 0.7170700601626061
12619746666.666666 -0.6905910040000116 0.7232455082432907 3.8425824264624434e-17 -7.517611482484408e-17 3.8425824264624434e-17 -7.517611482484408e-17 -0.6905914666326118 0.723245066498249
12620364000.0 -0.6841266654769367 0.7293632192421327 3.7741140850433184e-17 -7.550370423930571e-17 3.7741140850433184e-17 -7.550370423930571e-17 -0.6841271319999827 0.7293627816534901
12620981333.333334 -0.6776081345045772 0.7354231544172829 3.705367534915779e-17 -7.582506375455001e-17 3.705367534915779e-17 -7.582506375455001e-17 -0.6776086048807347 0.735422721019294
12621598666.666666 -0.671035927442281 0.7414248337367157 3.636348439280148e-17 -7.61401698443643e-17 3.636348439280148e-17 -7.61401698443643e-17 -0.6710364016339151 0.7414244045633006
12622216000.0 -0.6644105649013187 0.7473677817830722 3.567062481134961e-17 -7.64489994968674e-17 3.567062481134961e-17 -7.64489994968674e-17 -0.6644110428704948 0.7473673568678122
12622833333.333334 -0.6577325717035353 0.7532515277914101 3.4975153628113195e-17 -7.675153021616064e-17 3.4975153628113195e-17 -7.675153021616064e-17 -0.6577330534120239 0.7532511071675462
12623450666.666666 -0.6510024768400119 0.7590756056862902 3.427712805505088e-17 -7.70477400239427e-17 3.427712805505088e-17 -7.70477400239427e-17 -0.6510029622492913 0.7590751893867206
12624068000.0 -0.6442208134288869 0.7648395541189416 3.35766054880573e-17 -7.733760746108931e-17 3.35766054880573e-17 -7.733760746108931e-17 -0.6442213025001459 0.7648391421762182
12624685333.333334 -0.6373881186732507 0.7705429165036904 3.287364350226906e-17 -7.762111158917715e-17 3.287364350226906e-17 -7.762111158917715e-17 -0.637388611367391 0.7705425089500169
12625302666.666666 -0.6305049338187441 0.7761852410540023 3.2168299847349676e-17 -7.789823199196948e-17 3.2168299847349676e-17 -7.789823199196948e-17 -0.6305054300963857 0.7761848379212327
12625920000.0 -0.623571804110294 0.781766080818599 3.1460632442742005e-17 -7.816894877686682e-17 3.1460632442742005e-17 -7.816894877686682e-17 -0.6235723039317755 0.7817656821382322
12626537333.333334 -0.6165892787493799 0.7872849937164803 3.0750699372937915e-17 -7.84332425763032e-17 3.0750699372937915e-17 -7.84332425763032e-17 -0.6165897820747641 0.7872845995196609
12627154666.666666 -0.6095579108502235 0.7927415425721991 3.00385588827254e-17 -7.86910945491044e-17 3.00385588827254e-17 -7.86910945491044e-17 -0.6095584176392996 0.792741152889713
12627772000.0 -0.6024782573959934 0.7981352951504685 2.9324269372401785e-17 -7.894248638181052e-17 2.9324269372401785e-17 -7.894248638181052e-17 -0.6024787676082797 0.7981349100127414
12628389333.333334 -0.5953508791949336 0.8034658241902131 2.8607889393021844e-17 -7.918740028994017e-17 2.8607889393021844e-17 -7.918740028994017e-17 -0.5953513927896811 0.803465443627307
12629006666.666666 -0.5881763408355305 0.8087327074387213 2.7889477641592043e-17 -7.942581901922551e-17 2.7889477641592043e-17 -7.942581901922551e-17 -0.5881768577717269 0.8087323314803336
12629624000.0 -0.5809552106421776 0.813935527684805 2.7169092956280404e-17 -7.965772584679643e-17 2.7169092956280404e-17 -7.965772584679643e-17 -0.5809557308785491 0.813935156360265
12630241333.333334 -0.5736880606299494 0.8190738727920008 2.644679431161183e-17 -7.988310458232207e-17 2.644679431161183e-17 -7.988310458232207e-17 -0.5736885841249657 0.8190735061302685
12630858666.666666 -0.5663754664593601 0.8241473357311674 2.5722640813659183e-17 -8.010193956910828e-17 2.5722640813659183e-17 -8.010193956910828e-17 -0.5663759931712365 0.8241469737608303
12631476000.0 -0.5590180073906698 0.8291555146127922 2.499669169518672e-17 -8.031421568516307e-17 2.499669169518672e-17 -8.031421568516307e-17 -0.5590185372773707 0.8291551573620632
12632093333.333334 -0.5516162662381142 0.834098012718746 2.4269006310862774e-17 -8.051991834419468e-17 2.4269006310862774e-17 -8.051991834419468e-17 -0.5516167992573571 0.8340976602154617
12632710666.666666 -0.5441708293237637 0.8389744385336937 2.3539644132386937e-17 -8.071903349659008e-17 2.3539644132386937e-17 -8.071903349659008e-17 -0.5441713654330216 0.8389740908053122
12633328000.0 -0.5366822864308881 0.8437844057762345 2.2808664743646008e-17 -8.091154763033781e-17 2.2808664743646008e-17 -8.091154763033781e-17 -0.536682825587394 0.8437840628498325
12633945333.333334 -0.5291512307573795 0.8485275334294047 2.2076127835872263e-17 -8.109744777190543e-17 2.2076127835872263e-17 -8.109744777190543e-17 -0.5291517729181285 0.8485271953316761
12634562666.666666 -0.5215782588687867 0.8532034457708453 2.13420932027626e-17 -8.127672148708162e-17 2.13420932027626e-17 -8.127672148708162e-17 -0.5215788039905407 0.8532031125280989
12635180000.0 -0.513963970651012 0.857811772402597 2.0606620735628308e-17 -8.144935688176487e-17 2.0606620735628308e-17 -8.144935688176487e-17 -0.5139645186903024 0.8578114440407548
12635797333.333334 -0.5063089692626931 0.862352148280497 1.9869770418499336e-17 -8.161534260271759e-17 1.9869770418499336e-17 -8.161534260271759e-17 -0.5063095201758248 0.8623518248250918
12636414666.666666 -0.49861386108769373 0.8668242137429368 1.913160232326966e-17 -8.1774667838266e-17 1.913160232326966e-17 -8.1774667838266e-17 -0.49861441483074753 0.8668238952191097
12637032000.0 -0.49087925568672724 0.8712276145395553 1.8392176604790782e-17 -8.192732231896618e-17 1.8392176604790782e-17 -8.192732231896618e-17 -0.49087981221556454 0.8712273009720546
12637649333.333334 -0.48310576574933867 0.8755620018591396 1.7651553495983715e-17 -8.20732963182208e-17 1.7651553495983715e-17 -8.20732963182208e-17 -0.48310632501960493 0.8755616932723193
12638266666.666666 -0.4752940070452764 0.8798270323573177 1.6909793302958362e-17 -8.221258065284967e-17 1.6909793302958362e-17 -8.221258065284967e-17 -0.47529456901240325 0.8798267287751338
12638884000.0 -0.4674445983756355 0.8840223681837923 1.616695640009607e-17 -8.23451666836227e-17 1.616695640009607e-17 -8.23451666836227e-17 -0.46744516299484656 0.8840220696298032
12639501333.333334 -0.4595581615239678 0.8881476770090376 1.5423103225163754e-17 -8.247104631574163e-17 1.5423103225163754e-17 -8.247104631574163e-17 -0.45955872875028014 0.8881473835064005
12640118666.666666 -0.45163532120710354 0.8922026320505879 1.467829427440377e-17 -8.259021199928247e-17 1.467829427440377e-17 -8.259021199928247e-17 -0.45163589099533225 0.8922023436220572
12640736000.0 -0.4436767050251832 0.8961869120991648 1.3932590097604356e-17 -8.270265672959511e-17 1.3932590097604356e-17 -8.270265672959511e-17 -0.44367727732994533 0.8961866287670923
12641353333.333334 -0.43568294341272956 0.9001002015437278 1.3186051293238434e-17 -8.280837404764834e-17 1.3186051293238434e-17 -8.280837404764834e-17 -0.43568351818844686 0.9000999233300582
12641970666.666666 -0.4276546695879721 0.9039421903968428 1.2438738503494406e-17 -8.290735804034747e-17 1.2438738503494406e-17 -8.290735804034747e-17 -0.42765524678887484 0.9039419173231131
12642588000.0 -0.41959251950311865 0.9077125743190213 1.1690712409401784e-17 -8.299960334079165e-17 1.1690712409401784e-17 -8.299960334079165e-17 -0.4195930990832499 0.9077123064063597
12643205333.333334 -0.4114971317938788 0.9114110546428825 1.0942033725894536e-17 -8.308510512849782e-17 1.0942033725894536e-17 -8.308510512849782e-17 -0.4114977137070976 0.9114107919120067
12643822666.666666 -0.40336914772869314 0.9150373383968919 1.0192763196901728e-17 -8.316385912957481e-17 1.0192763196901728e-17 -8.316385912957481e-17 -0.403369731928678 0.9150370808681064
12644440000.0 -0.3952092111582198 0.9185911383284384 9.442961590435523e-18 -8.323586161685496e-17 9.442961590435523e-18 -8.323586161685496e-17 -0.39520979759847336 0.9185908860216353
12645057333.333334 -0.38701796846423125 0.9220721729266415 8.692689693664939e-18 -8.330110940998254e-17 8.692689693664939e-18 -8.330110940998254e-17 -0.3870185570980823 0.9220719258612952
12645674666.666666 -0.37879606850833136 0.9254801664446791 7.942008308015952e-18 -8.335959987545512e-17 7.942008308015952e-18 -8.335959987545512e-17 -0.37879665928893985 0.9254799246398476
12646292000.0 -0.3705441625805569 0.9288148489216316 7.190978244220306e-18 -8.34113309266261e-17 7.190978244220306e-18 -8.34113309266261e-17 -0.3705447554609173 0.9288146123959549
12646909333.333334 -0.36226290434791714 0.9320759562038127 6.4396603174484774e-18 -8.345630102365562e-17 6.4396603174484774e-18 -8.345630102365562e-17 -0.36226349928086254 0.9320757249755107
12647526666.666666 -0.35395294980253605 0.935263229965726 5.688115342365865e-18 -8.349450917342368e-17 5.688115342365865e-18 -8.349450917342368e-17 -0.3539535467407413 0.9352630040525974
12648144000.0 -0.34561495720963586 0.938376417730551 4.936404128217104e-18 -8.35259549293973e-17 4.936404128217104e-18 -8.35259549293973e-17 -0.3456155561056213 0.9383761971499711
12648761333.333334 -0.3372495870554171 0.9414152728901257 4.1845874739435476e-18 -8.355063839145106e-17 4.1845874739435476e-18 -8.355063839145106e-17 -0.3372501878615533 0.9414150576590469
12649378666.666666 -0.3288575019949018 0.94437955472443 3.4327261632584366e-18 -8.356856020564763e-17 3.4327261632584366e-18 -8.356856020564763e-17 -0.3288581046634122 0.9443793448593777
12649996000.0 -0.32043936679922713 0.9472690284207284 2.6808809597488932e-18 -8.357972156397117e-17 2.6808809597488932e-18 -8.357972156397117e-17 -0.3204399712821923 0.9472688239378023
12650613333.333334 -0.31199584830298505 0.9500834650921681 1.9291126019767584e-18 -8.358412420401838e-17 1.9291126019767584e-18 -8.358412420401838e-17 -0.3119964545523468 0.9500832660070406
12651230666.666666 -0.3035276153516969 0.9528226417958133 1.1774817985857257e-18 -8.358177040864536e-17 1.1774817985857257e-18 -8.358177040864536e-17 -0.3035282233192616 0.9528224481237266
12651848000.0 -0.2950353387483452 0.9554863415504635 4.2604922340327596e-19 -8.357266300556986e-17 4.2604922340327596e-19 -8.357266300556986e-17 -0.2950359483857881 0.9554861533062308
12652465333.333334 -0.2865196912006689 0.9580743533537011 -3.2512448944313185e-19 -8.355680536693048e-17 -3.2512448944313185e-19 -8.355680536693048e-17 -0.2865203024595377 0.9580741705517035
12653082666.666666 -0.2779813472677957 0.9605864721986354 -1.0759787503881576e-18 -8.353420140880224e-17 -1.0759787503881576e-18 -8.353420140880224e-17 -0.2779819600995141 0.9605862948528214
12653700000.0 -0.2694209833064526 0.9630224990902464 -1.826453019346907e-18 -8.350485559066694e-17 -1.826453019346907e-18 -8.350485559066694e-17 -0.2694215976623243 0.9630223272141306
12654317333.333334 -0.2608392774179336 0.9653822410609848 -2.576486810534761e-18 -8.346877291484228e-17 -2.576486810534761e-18 -8.346877291484228e-17 -0.2608398932491469 0.9653820746676481
12654934666.666666 -0.2522369093940321 0.9676655111861667 -3.3260196973616474e-18 -8.342595892586524e-17 -3.3260196973616474e-18 -8.342595892586524e-17 -0.25223752665166294 0.967665350288255
12655552000.0 -0.24361456066310636 0.9698721285987968 -4.074991317295852e-18 -8.337641970983196e-17 -4.074991317295852e-18 -8.337641970983196e-17 -0.24361517929812232 0.9698719732085176
12656169333.333334 -0.23497291423654165 0.9720019185037784 -4.823341376675774e-18 -8.332016189369719e-17 -4.823341376675774e-18 -8.332016189369719e-17 -0.23497353419980624 0.9720017686329033
12656786666.666666 -0.22631265465415112 0.974054712191892 -5.571009655594764e-18 -8.325719264452532e-17 -5.571009655594764e-18 -8.325719264452532e-17 -0.22631327589642738 0.9740545678517539
12657404000.0 -0.217634467930281 0.9760303470530736 -6.31793601270708e-18 -8.318751966870297e-17 -6.31793601270708e-18 -8.318751966870297e-17 -0.21763509040223522 0.9760302082545654
12658021333.333334 -0.20893904149933012 0.9779286665893278 -7.064060390065835e-18 -8.31111512111048e-17 -7.064060390065835e-18 -8.31111512111048e-17 -0.20893966515153642 0.9779285333429037
12658638666.666666 -0.20022706416135194 0.9797495204271164 -7.809322817935834e-18 -8.302809605421903e-17 -7.809322817935834e-18 -8.302809605421903e-17 -0.2002276889442956 0.9797493927427899
12659256000.0 -0.19149922602738007 0.9814927643292917 -8.553663419609103e-18 -8.293836351722641e-17 -8.553663419609103e-18 -8.293836351722641e-17 -0.1914998518914615 0.9814926422166331
12659873333.333334 -0.1827562184649281 0.9831582602064831 -9.297022416201692e-18 -8.284196345503943e-17 -9.297022416201692e-18 -8.284196345503943e-17 -0.18275684536046713 0.9831581436746226
12660490666.666666 -0.17399873404314148 0.9847458761280615 -1.0039340131426566e-17 -8.273890625729909e-17 -1.0039340131426566e-17 -8.273890625729909e-17 -0.17399936192038096 0.9847457651856847
12661108000.0 -0.16522746647785133 0.9862554863325985 -1.0780556996403348e-17 -8.262920284732341e-17 -1.0780556996403348e-17 -8.262920284732341e-17 -0.1652280952869612 0.9862553809879477
12661725333.333334 -0.15644311057679056 0.9876869712377998 -1.1520613554401194e-17 -8.25128646810207e-17 -1.1520613554401194e-17 -8.25128646810207e-17 -0.1564437402678719 0.9876868714986741
12662342666.666666 -0.14764636218444321 0.9890402174499981 -1.2259450465605898e-17 -8.238990374575527e-17 -1.2259450465605898e-17 -8.238990374575527e-17 -0.1476469927075321 0.9890401233237512
12662960000.0 -0.1388379181269806 0.990315117773129 -1.299700851187341e-17 -8.226033255917108e-17 -1.299700851187341e-17 -8.226033255917108e-17 -0.1388385494320519 0.9903150292666687
12663577333.333334 -0.13001847615694911 0.9915115712172327 -1.3733228601450549e-17 -8.212416416797606e-17 -1.3733228601450549e-17 -8.212416416797606e-17 -0.1300191081939209 0.9915114883370221
12664194666.666666 -0.12118873489816837 0.9926294830064348 -1.446805177370476e-17 -8.198141214668111e-17 -1.446805177370476e-17 -8.198141214668111e-17 -0.12118936761690546 0.9926294057584903
12664812000.0 -0.11234939379030541 0.9936687645864645 -1.520141920384146e-17 -8.183209059629711e-17 -1.520141920384146e-17 -8.183209059629711e-17 -0.11235002714062371 0.9936686929763565
12665429333.333334 -0.10350115303335668 0.9946293336316828 -1.5933272207587486e-17 -8.167621414299281e-17 -1.5933272207587486e-17 -8.167621414299281e-17 -0.10350178696502671 0.9946292676645335
12666046666.666666 -0.09464471353252081 0.9955111140515646 -1.6663552245882505e-17 -8.151379793670816e-17 -1.6663552245882505e-17 -8.151379793670816e-17 -0.09464534799527202 0.9955110537320488
12666664000.0 -0.08578077684214029 0.9963140359967827 -1.739220092955661e-17 -8.134485764972466e-17 -1.739220092955661e-17 -8.134485764972466e-17 -0.08578141178566503 0.9963139813291282
12667281333.333334 -0.0769100451107226 0.9970380358646843 -1.811916002397343e-17 -8.116940947519953e-17 -1.811916002397343e-17 -8.116940947519953e-17 -0.07691068048467989 0.9970379868526693
12667898666.666666 -0.06803322102495186 0.9976830563043607 -1.8844371453679504e-17 -8.098747012565288e-17 -1.8844371453679504e-17 -8.098747012565288e-17 -0.06803385677897178 0.9976830129513172
12668516000.0 -0.05915100775394173 0.9982490462211989 -1.9567777307039165e-17 -8.079905683141441e-17 -1.9567777307039165e-17 -8.079905683141441e-17 -0.05915164383762898 0.9982490085300093
12669133333.333334 -0.05026410889395901 0.9987359607808942 -2.0289319840833576e-17 -8.060418733903308e-17 -2.0289319840833576e-17 -8.060418733903308e-17 -0.05026474525689718 0.9987359287539924
12669750666.666666 -0.04137322841232089 0.9991437614130323 -2.1008941484865078e-17 -8.040287990964108e-17 -2.1008941484865078e-17 -8.040287990964108e-17 -0.041373865004076284 0.9991437350524023
12670368000.0 -0.032479070591658735 0.9994724158141346 -2.1726584846548073e-17 -8.019515331727628e-17 -2.1726584846548073e-17 -8.019515331727628e-17 -0.032479707361784495 0.9994723951213126
