! Parameters = {f0=12700.012000; bw=77.238000; Q=6100.000000; N=10; m_0_1=1.160856; m_1_1=-1.351908; m_1_2=0.995668; m_2_2=-1.352557; m_2_3=0.632631; m_2_8=-0.004894; m_2_9=0.031810; m_3_3=-1.354494; m_3_4=0.521160; m_3_7=-0.004294; m_3_8=-0.101382; m_3_9=-0.004894; m_4_4=-1.357419; m_4_5=0.357495; m_4_6=-0.000777; m_4_7=-0.121931; m_4_8=-0.004294; m_5_5=-1.357037; m_5_6=0.764850; m_5_7=-0.000777; m_6_6=-1.357038; m_6_7=0.357837; m_7_7=-1.357405; m_7_8=0.521278; m_8_8=-1.354496; m_8_9=0.632944; m_9_9=-1.352562; m_9_10=0.996746; m_10_10=-1.351918; m_10_11=1.161651}
!
! Created with skrf (http://scikit-rf.org).
# Hz S RI R 50.0 
!freq ReS11 ImS11 ReS21 ImS21 ReS12 ImS12 ReS22 ImS22
12607400000.0 -0.744783892000751 -0.6673057426817687 5.796475286338946e-17 2.7471331406993144e-17 5.796475286338946e-17 2.7471331406993144e-17 -0.744783483748488 -0.6673061983342566
12608017333.333334 -0.7496329262773562 -0.6618538175765853 5.815465355870323e-17 2.7037216521905674e-17 5.815465355870323e-17 2.7037216521905674e-17 -0.7496325213803658 -0.6618542761732128
12608634666.666666 -0.7544420526287446 -0.656366657612328 5.83413071358257e-17 2.6601796626495845e-17 5.83413071358257e-17 2.6601796626495845e-17 -0.7544416511082522 -0.6563671191283933
12609252000.0 -0.7592110150333152 -0.6508445549068805 5.852470468722782e-17 2.6165095978777347e-17 5.852470468722782e-17 2.6165095978777347e-17 -0.7592106169103648 -0.6508450193175299
12609869333.333334 -0.7639395596076792 -0.6452878034383391 5.87048374863843e-17 2.57271388970831e-17 5.87048374863843e-17 2.57271388970831e-17 -0.7639391649031319 -0.6452882707185664
12610486666.666666 -0.7686274346200846 -0.6396966990294694 5.888169698817504e-17 2.528794975872483e-17 5.888169698817504e-17 2.528794975872483e-17 -0.7686270433546167 -0.6396971691541181
12611104000.0 -0.773274390504016 -0.6340715393317184 5.90552748292863e-17 2.484755299862437e-17 5.90552748292863e-17 2.484755299862437e-17 -0.7732740026981197 -0.6340720122754835
12611721333.333334 -0.7778801798712282 -0.6284126238096736 5.922556282858873e-17 2.4405973107976452e-17 5.922556282858873e-17 2.4405973107976452e-17 -0.7778797955452088 -0.6284130995471023
12612338666.666666 -0.7824445575250965 -0.6227202537249034 5.939255298751445e-17 2.3963234632885045e-17 5.939255298751445e-17 2.3963234632885045e-17 -0.7824441766990733 -0.6227207322303971
12612956000.0 -0.7869672804736703 -0.6169947321199166 5.955623749042405e-17 2.3519362172997355e-17 5.955623749042405e-17 2.3519362172997355e-17 -0.786966903167573 -0.6169952133677312
12613573333.333334 -0.7914481079424477 -0.6112363638022295 5.971660870495462e-17 2.3074380380159236e-17 5.971660870495462e-17 2.3074380380159236e-17 -0.7914477341760174 -0.6112368477664779
12614190666.666666 -0.7958868013873726 -0.6054454553279172 5.987365918237002e-17 2.2628313957034125e-17 5.987365918237002e-17 2.2628313957034125e-17 -0.7958864311801596 -0.6054459419825698
12614808000.0 -0.8002831245074443 -0.5996223149854049 6.00273816578921e-17 2.2181187655745477e-17 6.00273816578921e-17 2.2181187655745477e-17 -0.8002827578788073 -0.5996228043042915
12615425333.333334 -0.8046368432573138 -0.5937672527790314 6.017776905102485e-17 2.1733026276506634e-17 6.017776905102485e-17 2.1733026276506634e-17 -0.8046364802264202 -0.5937677447358435
12616042666.666666 -0.8089477258597471 -0.5878805804125493 6.032481446586843e-17 2.1283854666250485e-17 6.032481446586843e-17 2.1283854666250485e-17 -0.8089473664455709 -0.5878810749808396
12616660000.0 -0.8132155428179624 -0.5819626112725284 6.046851119142262e-17 2.0833697717256993e-17 6.046851119142262e-17 2.0833697717256993e-17 -0.8132151870392818 -0.5819631084257133
12617277333.333334 -0.8174400669278453 -0.5760136604116706 6.060885270187998e-17 2.0382580365778783e-17 6.060885270187998e-17 2.0382580365778783e-17 -0.8174397148032447 -0.5760141601230321
12617894666.666666 -0.8216210732900335 -0.5700340445320659 6.074583265690944e-17 1.9930527590665052e-17 6.074583265690944e-17 1.9930527590665052e-17 -0.8216207248378997 -0.5700345467747514
12618512000.0 -0.8257583393219649 -0.5640240819682095 6.087944490192851e-17 1.947756441198336e-17 6.087944490192851e-17 1.947756441198336e-17 -0.8257579945604888 -0.5640245867152356
12619129333.333334 -0.8298516447695703 -0.5579840926702933 6.100968346836694e-17 1.9023715889640165e-17 6.100968346836694e-17 1.9023715889640165e-17 -0.8298513037167425 -0.5579845998945444
12619746666.666666 -0.833900771719141 -0.5519143981869598 6.113654257391771e-17 1.8569007122000986e-17 6.113654257391771e-17 1.8569007122000986e-17 -0.8339004343927544 -0.5519149078611918
12620364000.0 -0.8379055046089287 -0.5458153216481824 6.126001662278248e-17 1.8113463244498957e-17 6.126001662278248e-17 1.8113463244498957e-17 -0.8379051710265765 -0.5458158337450241
12620981333.333334 -0.8418656302404834 -0.5396871877482796 6.138010020589816e-17 1.7657109428267823e-17 6.138010020589816e-17 1.7657109428267823e-17 -0.8418653004195564 -0.5396877022402327
12621598666.666666 -0.845780937790155 -0.5335303227283885 6.149678810116378e-17 1.7199970878738713e-17 6.149678810116378e-17 1.7199970878738713e-17 -0.8457806117478439 -0.5335308395878303
12622216000.0 -0.8496512188202435 -0.5273450543592182 6.161007527364929e-17 1.6742072834261783e-17 6.161007527364929e-17 1.6742072834261783e-17 -0.8496508965735349 -0.5273455735584028
12622833333.333334 -0.8534762672901228 -0.5211317119235511 6.171995687579784e-17 1.6283440564714352e-17 6.171995687579784e-17 1.6283440564714352e-17 -0.8534759488557992 -0.5211322334346102
12623450666.666666 -0.8572558795671511 -0.5148906261988103 6.182642824761429e-17 1.5824099370120192e-17 6.182642824761429e-17 1.5824099370120192e-17 -0.8572555649617916 -0.5148911499937557
12624068000.0 -0.8609898544375859 -0.5086221294393285 6.192948491685016e-17 1.5364074579241233e-17 6.192948491685016e-17 1.5364074579241233e-17 -0.8609895436775638 -0.5086226554900531
12624685333.333334 -0.8646779931173108 -0.5023265553586366 6.202912259916955e-17 1.490339154820357e-17 6.202912259916955e-17 1.490339154820357e-17 -0.8646776862187918 -0.5023270836369155
12625302666.666666 -0.8683200992622702 -0.49600423911193897 6.212533719831102e-17 1.4442075659097862e-17 6.212533719831102e-17 1.4442075659097862e-17 -0.8683197962412156 -0.4960047695894328
12625920000.0 -0.8719159789791431 -0.48965551727790896 6.221812480623854e-17 1.3980152318578692e-17 6.221812480623854e-17 1.3980152318578692e-17 -0.871915679851303 -0.48965604992616213
12626537333.333334 -0.8754654408354441 -0.4832807278411327 6.23074817032775e-17 1.3517646956486317e-17 6.23074817032775e-17 1.3517646956486317e-17 -0.8754651456163627 -0.48328126263157856
12627154666.666666 -0.8789682958698645 -0.47688021017387516 6.239340435824566e-17 1.3054585024442822e-17 6.239340435824566e-17 1.3054585024442822e-17 -0.8789680045748752 -0.4768807470778352
12627772000.0 -0.8824243576023237 -0.4704543050180091 6.247588942857392e-17 1.2590991994445809e-17 6.247588942857392e-17 1.2590991994445809e-17 -0.8824240702465502 -0.4704548440066953
12628389333.333334 -0.8858334420437662 -0.46400335446712665 6.255493376040998e-17 1.2126893357497173e-17 6.255493376040998e-17 1.2126893357497173e-17 -0.8858331586421188 -0.46400389551164184
12629006666.666666 -0.8891953677061403 -0.4575277019479745 6.263053438872116e-17 1.1662314622179646e-17 6.263053438872116e-17 1.1662314622179646e-17 -0.88919508827332 -0.4575282450193163
12629624000.0 -0.8925099556119163 -0.4510276922024501 6.270268853737885e-17 1.1197281313279385e-17 6.270268853737885e-17 1.1197281313279385e-17 -0.8925096801624097 -0.4510282372715102
12630241333.333334 -0.895777029303693 -0.44450367126909535 6.277139361923726e-17 1.073181897037959e-17 6.277139361923726e-17 1.073181897037959e-17 -0.8957767578517741 -0.4445042183066622
12630858666.666666 -0.8989964148535146 -0.4379559864648283 6.28366472362005e-17 1.0265953146464663e-17 6.28366472362005e-17 1.0265953146464663e-17 -0.8989961474132429 -0.43795653544158825
12631476000.0 -0.902167940872269 -0.43138498636617234 6.289844717927885e-17 9.79970940652227e-18 6.289844717927885e-17 9.79970940652227e-18 -0.9021676774574897 -0.43138553725271184
12632093333.333334 -0.9052914385186499 -0.4247910207910312 6.295679142863614e-17 9.333113326143676e-18 6.295679142863614e-17 9.333113326143676e-18 -0.9052911791429921 -0.4247915735578377
12632710666.666666 -0.9083667415082193 -0.4181744407799128 6.301167815362391e-17 8.866190490134617e-18 6.301167815362391e-17 8.866190490134617e-18 -0.9083664861850954 -0.41817499539737635
12633328000.0 -0.9113936861223206 -0.4115355985771116 6.306310571281007e-17 8.398966491099467e-18 6.306310571281007e-17 8.398966491099467e-18 -0.9113934348649262 -0.4115361550155267
12633945333.333334 -0.9143721112166859 -0.40487484761218906 6.311107265399192e-17 7.931466928061331e-18 6.311107265399192e-17 7.931466928061331e-18 -0.9143718640379993 -0.40487540584175635
12634562666.666666 -0.9173018582300747 -0.3981925424810281 6.315557771420226e-17 7.463717405055422e-18 6.315557771420226e-17 7.463717405055422e-18 -0.917301615142855 -0.3981931024718556
12635180000.0 -0.9201827711927024 -0.39148903892698234 6.31966198197043e-17 6.99574352973351e-18 6.31966198197043e-17 6.99574352973351e-18 -0.9201825322094906 -0.3914896006490873
12635797333.333334 -0.9230146967345452 -0.38476469382193695 6.323419808597618e-17 6.527570911965098e-18 6.323419808597618e-17 6.527570911965098e-18 -0.9230144618676626 -0.38476525724524774
12636414666.666666 -0.9257974840935036 -0.37801986514731073 6.326831181768436e-17 6.059225162449832e-18 6.326831181768436e-17 6.059225162449832e-18 -0.9257972533550511 -0.37802043024166787
12637032000.0 -0.928530985123431 -0.3712549119749983 6.329896050864943e-17 5.590731891303427e-18 6.329896050864943e-17 5.590731891303427e-18 -0.9285307585252872 -0.3712554787101558
12637649333.333334 -0.9312150543020158 -0.36447019444825296 6.332614384179772e-17 5.12211670668013e-18 6.332614384179772e-17 5.12211670668013e-18 -0.931214831855839 -0.36447076279388096
12638266666.666666 -0.9338495487385321 -0.35766607376251525 6.334986168910603e-17 4.653405213368896e-18 6.334986168910603e-17 4.653405213368896e-18 -0.9338493304557597 -0.3576666436882016
12638884000.0 -0.9364343281814473 -0.3508429121461843 6.337011411153373e-17 4.184623011401003e-18 6.337011411153373e-17 4.184623011401003e-18 -0.9364341140732908 -0.3508434836214346
12639501333.333334 -0.9389692550258946 -0.3440010728413061 6.33869013589467e-17 3.7157956946549996e-18 6.33869013589467e-17 3.7157956946549996e-18 -0.9389690451033452 -0.3440016458355474
12640118666.666666 -0.9414541943209453 -0.33714092008439733 6.340022387002855e-17 3.2469488494750113e-18 6.340022387002855e-17 3.2469488494750113e-18 -0.9414539885947679 -0.3371414945669779
12640736000.0 -0.9438890137769419 -0.33026281908662525 6.341008227218437e-17 2.7781080532504178e-18 6.341008227218437e-17 2.7781080532504178e-18 -0.9438888122576797 -0.3302633950268184
12641353333.333334 -0.9462735837723171 -0.32336713601500955 6.341647738143148e-17 2.309298873068695e-18 6.341647738143148e-17 2.309298873068695e-18 -0.9462733864702855 -0.3233677133820127
12641970666.666666 -0.9486077773606879 -0.3164542379723642 6.3419410202282e-17 1.8405468642881517e-18 6.3419410202282e-17 1.8405468642881517e-18 -0.948607584285978 -0.31645481673530246
12642588000.0 -0.9508914702775243 -0.30952449297802354 6.34188819276143e-17 1.3718775691696181e-18 6.34188819276143e-17 1.3718775691696181e-18 -0.9508912814400019 -0.3095250731059508
12643205333.333334 -0.9531245409467712 -0.3025782699482228 6.341489393853439e-17 9.033165154787e-19 6.341489393853439e-17 9.033165154787e-19 -0.9531243563560755 -0.3025788514101234
12643822666.666666 -0.9553068704873601 -0.29561593867635144 6.340744780422694e-17 4.348892151110102e-19 6.340744780422694e-17 4.348892151110102e-19 -0.9553066901529021 -0.2956165214411413
12644440000.0 -0.9574383427194868 -0.2886378698133993 6.33965452817964e-17 -3.3378837299221436e-20 6.33965452817964e-17 -3.3378837299221436e-20 -0.9574381666504508 -0.28863845384992826
12645057333.333334 -0.9595188441708045 -0.28164443484822704 6.338218831609797e-17 -5.014621657618462e-19 6.338218831609797e-17 -5.014621657618462e-19 -0.9595186723761469 -0.2816450201252803
12645674666.666666 -0.961548264082504 -0.2746360060876527 6.336437903955828e-17 -9.693353143029377e-19 6.336437903955828e-17 -9.693353143029377e-19 -0.9615480965709527 -0.2746365925739525
12646292000.0 -0.9635264944151748 -0.2676129566367394 6.334311977198508e-17 -1.4369728483641095e-18 6.334311977198508e-17 -1.4369728483641095e-18 -0.963526331195229 -0.2676135443009467
12646909333.333334 -0.9654534298545683 -0.26057566037890645 6.331841302036907e-17 -1.904349356155122e-18 6.331841302036907e-17 -1.904349356155122e-18 -0.9654532709344982 -0.2605762491896225
12647526666.666666 -0.967328967817195 -0.2535244919560517 6.329026147867304e-17 -2.371439450047913e-18 6.329026147867304e-17 -2.371439450047913e-18 -0.9673288132050396 -0.2535250818818196
12648144000.0 -0.9691530084558138 -0.2464598267484967 6.325866802761205e-17 -2.8382177679489617e-18 6.325866802761205e-17 -2.8382177679489617e-18 -0.9691528581593835 -0.24646041775780356
12648761333.333334 -0.9709254546647139 -0.23938204085514123 6.322363573442413e-17 -3.3046589746643525e-18 6.322363573442413e-17 -3.3046589746643525e-18 -0.9709253086915883 -0.23938263291641942
12649378666.666666 -0.9726462120848836 -0.23229151107344015 6.318516785263018e-17 -3.7707377632682275e-18 6.318516785263018e-17 -3.7707377632682275e-18 -0.972646070442411 -0.23229210415506918
12649996000.0 -0.9743151891090678 -0.22518861487920683 6.314326782178315e-17 -4.2364288564871305e-18 6.314326782178315e-17 -4.2364288564871305e-18 -0.9743150518043665 -0.22518920894951508
12650613333.333334 -0.9759322968866251 -0.21807373040659994 6.309793926720844e-17 -4.7017070080498354e-18 6.309793926720844e-17 -4.7017070080498354e-18 -0.9759321639265806 -0.21807432543386607
12651230666.666666 -0.9774974493282321 -0.2109472364281038 6.304918599973465e-17 -5.1665470040512025e-18 6.304918599973465e-17 -5.1665470040512025e-18 -0.9774973207194978 -0.21094783238055867
12651848000.0 -0.979010563110529 -0.20380951233408676 6.299701201541143e-17 -5.630923664329773e-18 6.299701201541143e-17 -5.630923664329773e-18 -0.9790104388595274 -0.20381010917991518
12652465333.333334 -0.9804715576805006 -0.19666093811285312 6.294142149522108e-17 -6.094811843810789e-18 6.294142149522108e-17 -6.094811843810789e-18 -0.9804714377934193 -0.19666153582019524
12653082666.666666 -0.9818803552597627 -0.18950189433041387 6.288241880477857e-17 -6.558186433862904e-18 6.288241880477857e-17 -6.558186433862904e-18 -0.9818802397425599 -0.18950249286736753
12653700000.0 -0.9832368808487658 -0.18233276210994925 6.282000849401956e-17 -7.021022363670225e-18 6.282000849401956e-17 -7.021022363670225e-18 -0.9832367697071632 -0.1823333614445708
12654317333.333334 -0.9845410622306978 -0.1751539231119358 6.275419529688314e-17 -7.483294601558879e-18 6.275419529688314e-17 -7.483294601558879e-18 -0.9845409554701852 -0.17515452321224234
12654934666.666666 -0.9857928299754145 -0.16796575951341042 6.268498413098034e-17 -7.944978156363843e-18 6.268498413098034e-17 -7.944978156363843e-18 -0.9857927276012473 -0.1679663603473815
12655552000.0 -0.9869921174430738 -0.16076865398793103 6.261238009725403e-17 -8.406048078773261e-18 6.261238009725403e-17 -8.406048078773261e-18 -0.986992019460274 -0.1607692555235103
12656169333.333334 -0.9881388607877125 -0.15356298968506527 6.253638847963099e-17 -8.866479462663024e-18 6.253638847963099e-17 -8.866479462663024e-18 -0.9881387672010675 -0.15356359189016205
12656786666.666666 -0.9892329989606387 -0.1463491502100206 6.245701474466132e-17 -9.326247446444322e-18 6.245701474466132e-17 -9.326247446444322e-18 -0.9892329097747014 -0.14634975305251177
12657404000.0 -0.990274473713681 -0.13912751960322217 6.237426454114962e-17 -9.785327214399483e-18 6.237426454114962e-17 -9.785327214399483e-18 -0.9902743889327705 -0.1391281230509539
12658021333.333334 -0.9912632296022967 -0.1318984823198403 6.22881436997756e-17 -1.0243693998018255e-17 6.22881436997756e-17 -1.0243693998018255e-17 -0.9912631492304959 -0.13189908634062952
12658638666.666666 -0.9921992139885004 -0.12466242320946372 6.219865823270701e-17 -1.0701323077320439e-17 6.219865823270701e-17 -1.0701323077320439e-17 -0.9921991380296575 -0.12466302777110004
12659256000.0 -0.9930823770437054 -0.11741972749532963 6.210581433319782e-17 -1.1158189782201796e-17 6.210581433319782e-17 -1.1158189782201796e-17 -0.9930823055014335 -0.11742033256557705
12659873333.333334 -0.9939126717513432 -0.11017078075406977 6.200961837518299e-17 -1.1614269493743248e-17 6.200961837518299e-17 -1.1614269493743248e-17 -0.9939126046290196 -0.11017138630066835
12660490666.666666 -0.9946900539093672 -0.1029159688951835 6.191007691286077e-17 -1.2069537645532623e-17 6.191007691286077e-17 -1.2069537645532623e-17 -0.9946899912101348 -0.10291657488585113
12661108000.0 -0.9954144821326394 -0.09565567814021095 6.18071966802615e-17 -1.252396972500061e-17 6.18071966802615e-17 -1.252396972500061e-17 -0.9954144238594043 -0.095656284542645
12661725333.333334 -0.9960859178550879 -0.0883902950025674 6.170098459081545e-17 -1.2977541274711067e-17 6.170098459081545e-17 -1.2977541274711067e-17 -0.996085864010521 -0.08839090178444649
12662342666.666666 -0.9967043253317954 -0.08112020626665581 6.159144773690269e-17 -1.3430227893690024e-17 6.159144773690269e-17 -1.3430227893690024e-17 -0.9967042759183302 -0.08112081339564142
12662960000.0 -0.9972696716408839 -0.07384579896741676 6.147859338939665e-17 -1.388200523873167e-17 6.147859338939665e-17 -1.388200523873167e-17 -0.9972696266607199 -0.07384640641115524
12663577333.333334 -0.9977819266852768 -0.06656746036969637 6.136242899720047e-17 -1.4332849025693813e-17 6.136242899720047e-17 -1.4332849025693813e-17 -0.9977818861403746 -0.0665680680958202
12664194666.666666 -0.9982410631942921 -0.05928557794762877 6.124296218676984e-17 -1.4782735030805275e-17 6.124296218676984e-17 -1.4782735030805275e-17 -0.998241027086378 -0.05928618592375878
12664812000.0 -0.9986470567251007 -0.05200053936400903 6.112020076162875e-17 -1.5231639091960812e-17 6.112020076162875e-17 -1.5231639091960812e-17 -0.998647025055665 -0.05200114755775586
12665429333.333334 -0.9989998856640275 -0.044712732449655 6.099415270187431e-17 -1.5679537110015564e-17 6.099415270187431e-17 -1.5679537110015564e-17 -0.9989998584343227 -0.04471334082862077
12666046666.666666 -0.9992995312276973 -0.03742254518278884 6.08648261636758e-17 -1.6126405050065347e-17 6.08648261636758e-17 -1.6126405050065347e-17 -0.999299508438741 -0.037423153714569106
12666664000.0 -0.9995459774640442 -0.030130365668240594 6.073222947875579e-17 -1.6572218942750358e-17 6.073222947875579e-17 -1.6572218942750358e-17 -0.9995459591166158 -0.030130974320425816
12667281333.333334 -0.999739211253147 -0.022836582117070573 6.059637115387465e-17 -1.7016954885511874e-17 6.059637115387465e-17 -1.7016954885511874e-17 -0.99973919734779 -0.022837190857248
12667898666.666666 -0.9998792223079388 -0.015541582825646846 6.045725987029365e-17 -1.7460589043886087e-17 6.045725987029365e-17 -1.7460589043886087e-17 -0.99987921284496 -0.015542191621402211
12668516000.0 -0.9999660031747513 -0.008245756154973553 6.031490448323426e-17 -1.790309765277473e-17 6.031490448323426e-17 -1.790309765277473e-17 -0.9999659981542226 -0.008246364973892811
12669133333.333334 -0.9999995492337109 -0.0009494905102716762 6.016931402133041e-17 -1.8344457017704748e-17 6.016931402133041e-17 -1.8344457017704748e-17 -0.9999995486554658 -0.0009500993199426793
12669750666.666666 -0.9999798586989849 0.006346825679982571 6.002049768606658e-17 -1.878464351609887e-17 6.002049768606658e-17 -1.878464351609887e-17 -0.9999798625626218 0.006346216911968311
