! Parameters = {f0=12700.012000; bw=77.238000; Q=6100.000000; N=10; m_0_1=1.242337; m_1_1=-0.129686; m_1_2=1.077149; m_2_2=-0.130335; m_2_3=0.714112; m_2_8=-0.000819; m_2_9=0.035885; m_3_3=-0.132272; m_3_4=0.602641; m_3_7=-0.000219; m_3_8=-0.097307; m_3_9=-0.000819; m_4_4=-0.135197; m_4_5=0.438976; m_4_6=0.003298; m_4_7=-0.117856; m_4_8=-0.000219; m_5_5=-0.134815; m_5_6=0.846331; m_5_7=0.003298; m_6_6=-0.134816; m_6_7=0.439318; m_7_7=-0.135183; m_7_8=0.602759; m_8_8=-0.132274; m_8_9=0.714425; m_9_9=-0.130340; m_9_10=1.078227; m_10_10=-0.129696; m_10_11=1.243132}
!
! Created with skrf (http://scikit-rf.org).
# Hz S RI R 50.0 
!freq ReS11 ImS11 ReS21 ImS21 ReS12 ImS12 ReS22 ImS22
12607400000.0 0.19798545535556647 -0.980204957887625 8.58449165945709e-18 9.651979845578941e-17 8.58449165945709e-18 9.651979845578941e-17 0.19798609698466668 -0.9802048282887663
12608017333.333334 0.188463228808869 -0.9820802469181252 9.52749935979459e-18 9.641221003059111e-17 9.52749935979459e-18 9.641221003059111e-17 0.18846387163403341 -0.9820801235584306
12608634666.666666 0.1789232510059078 -0.9838630342935483 1.0469223778276336e-17 9.629541503520973e-17 1.0469223778276336e-17 9.629541503520973e-17 0.17892389496647457 -0.9838629171840236
12609252000.0 0.1693664205125043 -0.9855531520940982 1.1409575097080569e-17 9.616942827726542e-17 1.1409575097080569e-17 9.616942827726542e-17 0.16936706554771108 -0.9855530412451623
12609869333.333334 0.15979363748179765 -0.9871504411284869 1.2348463665241824e-17 9.603426543997964e-17 1.2348463665241824e-17 9.603426543997964e-17 0.15979428353078665 -0.9871503365499673
12610486666.666666 0.15020580356959992 -0.9886547509489052 1.3285800007150509e-17 9.588994308033255e-17 1.3285800007150509e-17 9.588994308033255e-17 0.1502064505714237 -0.9886546526500373
12611104000.0 0.14060382184916037 -0.9900659398652403 1.4221494831103215e-17 9.573647862712759e-17 1.4221494831103215e-17 9.573647862712759e-17 0.1406044697427879 -0.9900658478546671
12611721333.333334 0.13098859672649868 -0.9913838749583598 1.5155459037750457e-17 9.557389037898559e-17 1.5155459037750457e-17 9.557389037898559e-17 0.13098924545082102 -0.9913837892441335
12612338666.666666 0.1213610338549676 -0.9926084320926786 1.6087603728590577e-17 9.540219750224557e-17 1.6087603728590577e-17 9.540219750224557e-17 0.12136168334880314 -0.9926083526822532
12612956000.0 0.111722040049835 -0.993739495927848 1.7017840214413794e-17 9.522142002878669e-17 1.7017840214413794e-17 9.522142002878669e-17 0.11172269025193611 -0.9937394228280879
12613573333.333334 0.10207252320329621 -0.9947769599295834 1.7946080023698812e-17 9.503157885377426e-17 1.7946080023698812e-17 9.503157885377426e-17 0.1020731740523542 -0.9947768931467544
12614190666.666666 0.09241339219856393 -0.995720726379734 1.887223491103367e-17 9.483269573331322e-17 1.887223491103367e-17 9.483269573331322e-17 0.09241404363321538 -0.9957206659195084
12614808000.0 0.08274555682443109 -0.9965707063854761 1.979621686548482e-17 9.462479328202635e-17 1.979621686548482e-17 9.462479328202635e-17 0.08274620878326336 -0.996570652252929
12615425333.333334 0.07306992768954947 -0.9973268198876812 2.0717938118929428e-17 9.440789497055206e-17 2.0717938118929428e-17 9.440789497055206e-17 0.0730705801111066 -0.9973267720872923
12616042666.666666 0.06338741613666038 -0.997988995668464 2.1637311154385672e-17 9.418202512295758e-17 2.1637311154385672e-17 9.418202512295758e-17 0.0633880689594488 -0.9979889542041153
12616660000.0 0.05369893415675542 -0.9985571713578846 2.255424871430205e-17 9.394720891407316e-17 2.255424871430205e-17 9.394720891407316e-17 0.05369958731924985 -0.9985571362328614
12617277333.333334 0.04400539430314827 -0.9990312934398279 2.346866380882401e-17 9.370347236674492e-17 2.346866380882401e-17 9.370347236674492e-17 0.044006047743797426 -0.9990312646568186
12617894666.666666 0.034307709605663664 -0.9994113172570362 2.4380469724015693e-17 9.345084234901146e-17 2.4380469724015693e-17 9.345084234901146e-17 0.03430836326289607 -0.9994112948181307
12618512000.0 0.024606793484327184 -0.9996972070153293 2.5289580030094522e-17 9.318934657118961e-17 2.5289580030094522e-17 9.318934657118961e-17 0.024607447296557023 -0.9996971909220205
12619129333.333334 0.014903559663756753 -0.9998889357869606 2.6195908589566402e-17 9.291901358289877e-17 2.6195908589566402e-17 9.291901358289877e-17 0.014904213569389592 -0.9998889260401426
12619746666.666666 0.005198922086701568 -0.9999864855131638 2.7099369565406437e-17 9.263987276998508e-17 2.7099369565406437e-17 9.263987276998508e-17 0.005199576024140245 -0.9999864821131336
12620364000.0 -0.004506205171871181 -0.9999898470058489 2.7999877429154765e-17 9.235195435138129e-17 2.7999877429154765e-17 9.235195435138129e-17 -0.0045055512642208015 -0.9999898499523069
12620981333.333334 -0.014210907990730477 -0.9998990199484697 2.889734696898254e-17 9.205528937588796e-17 2.889734696898254e-17 9.205528937588796e-17 -0.014210254174453716 -0.9998990292405175
12621598666.666666 -0.02391427228873793 -0.999714012896054 2.9791693297760905e-17 9.174990971886441e-17 2.9791693297760905e-17 9.174990971886441e-17 -0.02391361862540545 -0.9997140285321945
12622216000.0 -0.03361538411080249 -0.9994348432743954 3.0682831861059116e-17 9.14358480788537e-17 3.0682831861059116e-17 9.14358480788537e-17 -0.033614730661964555 -0.9994348652525359
12622833333.333334 -0.043313329714022235 -0.9990615373784122 3.157067844512596e-17 9.1113137974124e-17 3.157067844512596e-17 9.1113137974124e-17 -0.04331267654120287 -0.9990615656958624
12623450666.666666 -0.05300719565363577 -0.9985941303696754 3.245514918481721e-17 9.078181373913879e-17 3.245514918481721e-17 9.078181373913879e-17 -0.05300654281832705 -0.998594165023149
12624068000.0 -0.06269606886920127 -0.9980326662730933 3.3336160571522716e-17 9.04419105209378e-17 3.3336160571522716e-17 9.04419105209378e-17 -0.06269541643285738 -0.9980327072587061
12624685333.333334 -0.07237903677062524 -0.9973771979727568 3.4213629461020054e-17 9.009346427545377e-17 3.4213629461020054e-17 9.009346427545377e-17 -0.07237838479465677 -0.9973772452860289
12625302666.666666 -0.08205518732380719 -0.9966277872069826 3.5087473081287953e-17 8.973651176375536e-17 3.5087473081287953e-17 8.973651176375536e-17 -0.08205453586957544 -0.9966278408428394
12625920000.0 -0.0917236091370821 -0.9957845045624579 3.5957609040331667e-17 8.93710905481932e-17 3.5957609040331667e-17 8.93710905481932e-17 -0.09172295826589318 -0.9957845645152291
12626537333.333334 -0.10138339154649727 -0.9948474294676354 3.682395533389803e-17 8.899723898850034e-17 3.682395533389803e-17 8.899723898850034e-17 -0.10138274131959643 -0.9948474957310568
12627154666.666666 -0.11103362470187086 -0.9938166501852315 3.768643035320071e-17 8.861499623779619e-17 3.768643035320071e-17 8.861499623779619e-17 -0.11103297518043671 -0.9938167227524458
12627772000.0 -0.12067339965263145 -0.9926922638038982 3.854495289260456e-17 8.822440223851592e-17 3.854495289260456e-17 8.822440223851592e-17 -0.12067275089776998 -0.9926923426674528
12628389333.333334 -0.13030180843303543 -0.9914743762291144 3.939944215721581e-17 8.782549771828936e-17 3.939944215721581e-17 8.782549771828936e-17 -0.1303011605057748 -0.9914744613809674
12629006666.666666 -0.13991794414811243 -0.9901631021731704 4.024981777051453e-17 8.741832418570758e-17 4.024981777051453e-17 8.741832418570758e-17 -0.13991729710939657 -0.9901631936046865
12629624000.0 -0.14952090105877397 -0.9887585651443955 4.109599978185476e-17 8.700292392605747e-17 4.109599978185476e-17 8.700292392605747e-17 -0.14952025496945728 -0.9887586628463488
12630241333.333334 -0.15910977466729398 -0.9872608974355025 4.193790867398754e-17 8.657933999695261e-17 4.193790867398754e-17 8.657933999695261e-17 -0.15910912958813564 -0.9872610013980787
12630858666.666666 -0.16868366180233496 -0.9856702401111574 4.277546537049798e-17 8.614761622391177e-17 4.277546537049798e-17 8.614761622391177e-17 -0.16868301779399272 -0.9856703503239521
12631476000.0 -0.1782416607042969 -0.9839867429946425 4.3608591243240574e-17 8.570779719584326e-17 4.3608591243240574e-17 8.570779719584326e-17 -0.17824101782732213 -0.983986859446665
12632093333.333334 -0.18778287111000194 -0.9822105646537891 4.4437208119670743e-17 8.525992826048809e-17 4.4437208119670743e-17 8.525992826048809e-17 -0.18778222942483336 -0.9822106873334615
12632710666.666666 -0.19730639433748956 -0.9803418723860419 4.526123829017332e-17 8.480405551976942e-17 4.526123829017332e-17 8.480405551976942e-17 -0.19730575390444755 -0.9803420012812
12633328000.0 -0.20681133337091442 -0.9783808422026545 4.6080604515353384e-17 8.434022582506634e-17 4.6080604515353384e-17 8.434022582506634e-17 -0.20681069425019594 -0.9783809773005518
12633945333.333334 -0.21629679294475695 -0.9763276588121659 4.689523003322127e-17 8.386848677244834e-17 4.689523003322127e-17 8.386848677244834e-17 -0.21629615519642914 -0.9763278000994716
12634562666.666666 -0.22576187962828698 -0.9741825156029721 4.770503856638705e-17 8.338888669780966e-17 4.770503856638705e-17 8.338888669780966e-17 -0.22576124331228203 -0.9741826630657743
12635180000.0 -0.235205701909688 -0.9719456146251202 4.850995432917903e-17 8.290147467194862e-17 4.850995432917903e-17 8.290147467194862e-17 -0.23520506708579741 -0.971945768248927
12635797333.333334 -0.24462737028005604 -0.9696171665712692 4.930990203471962e-17 8.240630049557454e-17 4.930990203471962e-17 8.240630049557454e-17 -0.24462673700792467 -0.9696173263410092
12636414666.666666 -0.2540259973170709 -0.9671973907568713 5.01048069019388e-17 8.190341469425341e-17 5.01048069019388e-17 8.190341469425341e-17 -0.25402536565619177 -0.9671975566568956
12637032000.0 -0.2634006977687481 -0.964686515099474 5.089459466256004e-17 8.139286851327256e-17 5.089459466256004e-17 8.139286851327256e-17 -0.26340006777845715 -0.9646866871135604
12637649333.333334 -0.27275058863668333 -0.9620847760972915 5.167919156800819e-17 8.087471391245319e-17 5.167919156800819e-17 8.087471391245319e-17 -0.27274996037615235 -0.9620849542086393
12638266666.666666 -0.2820747892593567 -0.9593924188068831 5.245852439628848e-17 8.034900356088251e-17 5.245852439628848e-17 8.034900356088251e-17 -0.2820741627875896 -0.9593926029981221
12638884000.0 -0.29137242139491965 -0.956609696820126 5.323252045878685e-17 7.981579083159607e-17 5.323252045878685e-17 7.981579083159607e-17 -0.291371796770746 -0.9566098870733144
12639501333.333334 -0.3006426093040515 -0.9537368722402858 5.400110760704159e-17 7.927512979617807e-17 5.400110760704159e-17 7.927512979617807e-17 -0.30064198658612074 -0.9537370685369121
12640118666.666666 -0.3098844798322553 -0.9507742156573893 5.4764214239433835e-17 7.872707521931567e-17 5.4764214239433835e-17 7.872707521931567e-17 -0.30988385907903215 -0.9507744179783756
12640736000.0 -0.3190971624925334 -0.9477220061225998 5.552176930787372e-17 7.817168255325228e-17 5.552176930787372e-17 7.817168255325228e-17 -0.31909654376229124 -0.9477222144483015
12641353333.333334 -0.3282797895467278 -0.9445805311221419 5.627370232434269e-17 7.760900793224091e-17 5.627370232434269e-17 7.760900793224091e-17 -0.32827917289754427 -0.9445807454323513
12641970666.666666 -0.3374314960878212 -0.9413500865500394 5.701994336747878e-17 7.703910816686263e-17 5.701994336747878e-17 7.703910816686263e-17 -0.33743088157757195 -0.9413503068239872
12642588000.0 -0.3465514201211304 -0.9380309766803328 5.776042308903441e-17 7.646204073833325e-17 5.776042308903441e-17 7.646204073833325e-17 -0.34655080780748426 -0.9380312028966903
12643205333.333334 -0.35563870264552644 -0.9346235141384148 5.849507272031229e-17 7.587786379272284e-17 5.849507272031229e-17 7.587786379272284e-17 -0.3556380925859393 -0.9346237462752951
12643822666.666666 -0.36469248773442087 -0.931128019871549 5.922382407852698e-17 7.528663613512408e-17 5.922382407852698e-17 7.528663613512408e-17 -0.36469187998613134 -0.9311282579065107
12644440000.0 -0.3737119226163601 -0.9275448231186539 5.994660957311126e-17 7.468841722375927e-17 5.994660957311126e-17 7.468841722375927e-17 -0.37371131723638334 -0.9275450670287021
12645057333.333334 -0.3826961577552149 -0.9238742613793433 6.06633622119648e-17 7.408326716402513e-17 6.06633622119648e-17 7.408326716402513e-17 -0.3826955548003372 -0.9238745111409311
12645674666.666666 -0.39164434693030403 -0.9201166803820963 6.137401560764298e-17 7.347124670247725e-17 6.137401560764298e-17 7.347124670247725e-17 -0.3916437464570773 -0.9201169359711276
12646292000.0 -0.40055564731625504 -0.9162724340516246 6.207850398349991e-17 7.285241722074382e-17 6.207850398349991e-17 7.285241722074382e-17 -0.4005550493809931 -0.9162726954434594
12646909333.333334 -0.4094292195620511 -0.9123418844756837 6.277676217972919e-17 7.222684072941563e-17 6.277676217972919e-17 7.222684072941563e-17 -0.4094286242208226 -0.9123421516451361
12647526666.666666 -0.4182642278703499 -0.908325401870856 6.346872565938849e-17 7.159457986183954e-17 6.346872565938849e-17 7.159457986183954e-17 -0.4182636351789737 -0.9083256747921984
12648144000.0 -0.42705984007617925 -0.9042233645476875 6.415433051434979e-17 7.095569786786519e-17 6.415433051434979e-17 7.095569786786519e-17 -0.4270592500902193 -0.9042236431946533
12648761333.333334 -0.4358152277252155 -0.9000361588751029 6.483351347116026e-17 7.031025860755821e-17 6.483351347116026e-17 7.031025860755821e-17 -0.43581464049997554 -0.900036443220889
12649378666.666666 -0.44452956615181694 -0.8957641792440184 6.550621189686892e-17 6.965832654483275e-17 6.550621189686892e-17 6.965832654483275e-17 -0.4445289817423348 -0.8957644692612869
12649996000.0 -0.45320203455682384 -0.8914078280301263 6.617236380478928e-17 6.899996674102787e-17 6.617236380478928e-17 6.899996674102787e-17 -0.4532014530178677 -0.8914081236910091
12650613333.333334 -0.4618318160847705 -0.8869675155560519 6.68319078601837e-17 6.833524484844239e-17 6.68319078601837e-17 6.833524484844239e-17 -0.46183123747083216 -0.8869678168321508
12651230666.666666 -0.4704180979008217 -0.8824436600527007 6.748478338588146e-17 6.76642271038176e-17 6.748478338588146e-17 6.76642271038176e-17 -0.4704175222661123 -0.8824439669150917
12651848000.0 -0.47896007126743434 -0.8778366876198131 6.813093036785658e-17 6.698698032174168e-17 6.813093036785658e-17 6.698698032174168e-17 -0.47895949866588 -0.8778370000390512
12652465333.333334 -0.48745693162040893 -0.8731470321859018 6.877028946071303e-17 6.630357188802817e-17 6.877028946071303e-17 6.630357188802817e-17 -0.4874563621056431 -0.8731473501320174
12653082666.666666 -0.49590787864464264 -0.8683751354673872 6.9402801993102e-17 6.561406975304425e-17 6.9402801993102e-17 6.561406975304425e-17 -0.49590731227000434 -0.8683754589098961
12653700000.0 -0.5043121163497618 -0.863521446926859 7.002840997310981e-17 6.491854242494838e-17 7.002840997310981e-17 6.491854242494838e-17 -0.5043115531682886 -0.8635217758347618
12654317333.333334 -0.5126688531447489 -0.8585864237309367 7.064705609352492e-17 6.42170589629346e-17 7.064705609352492e-17 6.42170589629346e-17 -0.5126682932091723 -0.8585867580727218
12654934666.666666 -0.5209773019127477 -0.8535705307070677 7.125868373708313e-17 6.350968897037642e-17 7.125868373708313e-17 6.350968897037642e-17 -0.5209767452754885 -0.8535708704507148
12655552000.0 -0.5292366800852021 -0.8484742402997428 7.186323698162608e-17 6.279650258794144e-17 7.186323698162608e-17 6.279650258794144e-17 -0.5292361267983652 -0.8484745854127256
12656169333.333334 -0.5374462097153448 -0.8432980325261297 7.246066060517541e-17 6.207757048667564e-17 7.246066060517541e-17 6.207757048667564e-17 -0.5374456598307151 -0.8432983829754209
12656786666.666666 -0.5456051175516937 -0.8380423949307304 7.305090009096995e-17 6.13529638610028e-17 7.305090009096995e-17 6.13529638610028e-17 -0.5456045711207296 -0.8380427506828019
12657404000.0 -0.5537126351108558 -0.8327078225394693 7.363390163241478e-17 6.062275442169624e-17 7.363390163241478e-17 6.062275442169624e-17 -0.553712092184686 -0.8327081835602974
12658021333.333334 -0.5617679987498152 -0.8272948178131295 7.420961213795616e-17 5.98870143888112e-17 7.420961213795616e-17 5.98870143888112e-17 -0.5617674593792337 -0.8272951840681979
12658638666.666666 -0.5697704497378399 -0.8218038906000459 7.477797923589095e-17 5.914581648456431e-17 7.477797923589095e-17 5.914581648456431e-17 -0.5697699139732998 -0.8218042620543476
12659256000.0 -0.5777192343281549 -0.8162355580879356 7.533895127912155e-17 5.839923392614645e-17 7.533895127912155e-17 5.839923392614645e-17 -0.5777187022197654 -0.8162359347059782
12659873333.333334 -0.5856136038287272 -0.8105903447553295 7.589247734980982e-17 5.764734041852948e-17 7.589247734980982e-17 5.764734041852948e-17 -0.5856130754262486 -0.810590726501138
12660490666.666666 -0.5934528146727857 -0.804868782322175 7.643850726397442e-17 5.689021014720992e-17 7.643850726397442e-17 5.689021014720992e-17 -0.5934522900256248 -0.8048691691592952
12661108000.0 -0.6012361284890892 -0.7990714096995863 7.697699157603161e-17 5.61279177708872e-17 7.697699157603161e-17 5.61279177708872e-17 -0.6012356076462929 -0.7990718015910869
12661725333.333334 -0.6089628121711487 -0.793198772939318 7.750788158322412e-17 5.536053841415472e-17 7.750788158322412e-17 5.536053841415472e-17 -0.6089622951814012 -0.7931991698477954
12662342666.666666 -0.6166321379465315 -0.7872514251821472 7.803112933002378e-17 5.4588147660082284e-17 7.803112933002378e-17 5.4588147660082284e-17 -0.6166316248581508 -0.7872518270697305
12662960000.0 -0.6242433834452756 -0.7812299266058793 7.854668761242091e-17 5.381082154281573e-17 7.854668761242091e-17 5.381082154281573e-17 -0.624242874306206 -0.7812303334342305
12663577333.333334 -0.6317958317680368 -0.775134844372492 7.905450998216408e-17 5.302863654010002e-17 7.905450998216408e-17 5.302863654010002e-17 -0.6317953266258464 -0.7751352561028123
12664194666.666666 -0.6392887715534826 -0.7689667525748242 7.955455075091747e-17 5.224166956577695e-17 7.955455075091747e-17 5.224166956577695e-17 -0.6392882704553586 -0.7689671691678575
12664812000.0 -0.6467214970453846 -0.7627262321824332 8.004676499434418e-17 5.1449997962240705e-17 8.004676499434418e-17 5.1449997962240705e-17 -0.6467210000381277 -0.7627266535984671
12665429333.333334 -0.6540933081590876 -0.7564138709868657 8.053110855611705e-17 5.065369949285389e-17 8.053110855611705e-17 5.065369949285389e-17 -0.6540928152891107 -0.7564142971857405
12666046666.666666 -0.661403510547349 -0.7500302635463949 8.100753805184396e-17 4.985285233434174e-17 8.100753805184396e-17 4.985285233434174e-17 -0.6614030218606698 -0.7500306944875029
12666664000.0 -0.6686514156659734 -0.743576011129812 8.147601087294724e-17 4.90475350691014e-17 8.147601087294724e-17 4.90475350691014e-17 -0.6686509312082105 -0.7435764467721022
12667281333.333334 -0.675836340838363 -0.7370517216600513 8.193648519041818e-17 4.8237826677556243e-17 8.193648519041818e-17 4.8237826677556243e-17 -0.6758358606547326 -0.7370521619620344
12667898666.666666 -0.6829576093200355 -0.7304580096567459 8.238891995854286e-17 4.7423806530396277e-17 8.238891995854286e-17 4.7423806530396277e-17 -0.6829571334553476 -0.7304584545764984
12668516000.0 -0.6900145503623647 -0.7237954961783447 8.283327491853015e-17 4.6605554380818694e-17 8.283327491853015e-17 4.6605554380818694e-17 -0.6900140788610174 -0.7237959456735118
12669133333.333334 -0.697006499275549 -0.7170648087638084 8.326951060205301e-17 4.57831503567541e-17 8.326951060205301e-17 4.57831503567541e-17 -0.6970060321815255 -0.7170652627916083
12669750666.666666 -0.7039327974915076 -0.7102665813732281 8.369758833473715e-17 4.4956674953014707e-17 8.369758833473715e-17 4.4956674953014707e-17 -0.7039323348483719 -0.710267039890457
12670368000.0 -0.7107927926257062 -0.7034014543283105 8.411747023955413e-17 4.4126209023443626e-17 8.411747023955413e-17 4.4126209023443626e-17 -0.7107923344765984 -0.7034019172913452
