! Parameters = {f0=12700.012000; bw=77.238000; Q=6100.000000; N=10; m_0_1=1.202898; m_1_1=-0.721277; m_1_2=1.037710; m_2_2=-0.721926; m_2_3=0.674673; m_2_8=-0.002791; m_2_9=0.033913; m_3_3=-0.723863; m_3_4=0.563202; m_3_7=-0.002191; m_3_8=-0.099279; m_3_9=-0.002791; m_4_4=-0.726788; m_4_5=0.399537; m_4_6=0.001326; m_4_7=-0.119828; m_4_8=-0.002191; m_5_5=-0.726406; m_5_6=0.806892; m_5_7=0.001326; m_6_6=-0.726407; m_6_7=0.399879; m_7_7=-0.726774; m_7_8=0.563320; m_8_8=-0.723865; m_8_9=0.674986; m_9_9=-0.721931; m_9_10=1.038788; m_10_10=-0.721287; m_10_11=1.203693}
!
! Created with skrf (http://scikit-rf.org).
# Hz S RI R 50.0 
!freq ReS11 ImS11 ReS21 ImS21 ReS12 ImS12 ReS22 ImS22
12607400000.0 -0.8941901718916287 -0.44768732000388534 7.84849397177736e-17 1.3971388689499726e-17 7.84849397177736e-17 1.3971388689499726e-17 -0.8941898881137228 -0.44768788680844296
12608017333.333334 -0.8979804302120594 -0.44003539284471876 7.858716559541016e-17 1.3291111511929549e-17 7.858716559541016e-17 1.3291111511929549e-17 -0.8979801512981759 -0.4400359620239536
12608634666.666666 -0.9017052095519238 -0.43235137916602495 7.868350024643882e-17 1.2610111199517225e-17 7.868350024643882e-17 1.2610111199517225e-17 -0.9017049355219227 -0.4323519506782028
12609252000.0 -0.9053642383076613 -0.42463583927105014 7.8773938807783e-17 1.1928438726170045e-17 7.8773938807783e-17 1.1928438726170045e-17 -0.9053639691810463 -0.42463641307427163
12609869333.333334 -0.9089572496700952 -0.41688933576192316 7.885847685703738e-17 1.1246145095845765e-17 7.885847685703738e-17 1.1246145095845765e-17 -0.9089569854660082 -0.4168899118141248
12610486666.666666 -0.912483981643859 -0.40911243349868076 7.893711041262348e-17 1.0563281338750713e-17 7.893711041262348e-17 1.0563281338750713e-17 -0.9124837223810818 -0.40911301175763964
12611104000.0 -0.9159441770666663 -0.40130569955771733 7.900983593391392e-17 9.879898507523988e-18 7.900983593391392e-17 9.879898507523988e-18 -0.9159439227636207 -0.4013062799810545
12611721333.333334 -0.9193375836278221 -0.39346970319098096 7.907665032132224e-17 9.196047673444059e-18 7.907665032132224e-17 9.196047673444059e-18 -0.919337334302564 -0.393470285736163
12612338666.666666 -0.9226639538868237 -0.38560501578399503 7.91375509163606e-17 8.511779922617321e-18 7.91375509163606e-17 8.511779922617321e-18 -0.922663709557045 -0.385605600408338
12612956000.0 -0.9259230452913126 -0.3777122108144027 7.919253550166725e-17 7.827146352153708e-18 7.919253550166725e-17 7.827146352153708e-18 -0.9259228059743394 -0.37771279747507563
12613573333.333334 -0.9291146201947514 -0.3697918638101765 7.924160230099458e-17 7.142198066399102e-18 7.924160230099458e-17 7.142198066399102e-18 -0.9291143859075434 -0.36979245246420406
12614190666.666666 -0.9322384458737871 -0.3618445523075738 7.928474997917263e-17 6.4569861730899804e-18 7.928474997917263e-17 6.4569861730899804e-18 -0.9322382166329339 -0.3618451429118392
12614808000.0 -0.9352942945451952 -0.3538708558090753 7.932197764203288e-17 5.771561779579091e-18 7.932197764203288e-17 5.771561779579091e-18 -0.9352940703669184 -0.35387144832032436
12615425333.333334 -0.9382819433825359 -0.3458713557410251 7.935328483630394e-17 5.08597598901307e-18 7.935328483630394e-17 5.08597598901307e-18 -0.9382817242826847 -0.34587195011586813
12616042666.666666 -0.9412011745323242 -0.3378466354114172 7.937867154947127e-17 4.4002798965479375e-18 7.937867154947127e-17 4.4002798965479375e-18 -0.9412009605263789 -0.3378472316063337
12616660000.0 -0.9440517751300032 -0.3297972799671516 7.939813820960643e-17 3.714524585544135e-18 7.939813820960643e-17 3.714524585544135e-18 -0.9440515662330683 -0.329797877938492
12617277333.333334 -0.9468335373153902 -0.3217238763515517 7.941168568516266e-17 3.028761123761638e-18 7.941168568516266e-17 3.028761123761638e-18 -0.946833333542197 -0.3217244760555412
12617894666.666666 -0.9495462582478654 -0.31362701326148534 7.941931528473725e-17 2.3430405595938608e-18 7.941931528473725e-17 2.3430405595938608e-18 -0.9495460596127716 -0.31362761465422767
12618512000.0 -0.9521897401212011 -0.30550728110433184 7.942102875680289e-17 1.6574139182344763e-18 7.942102875680289e-17 1.6574139182344763e-18 -0.9521895466381868 -0.3055078841418113
12619129333.333334 -0.9547637901778825 -0.29736527195522566 7.941682828940446e-17 9.71932197940035e-19 7.941682828940446e-17 9.71932197940035e-19 -0.9547636018605514 -0.2973658765933112
12619746666.666666 -0.9572682207232825 -0.28920157951353376 7.940671650982491e-17 2.866463662057423e-19 7.940671650982491e-17 2.866463662057423e-19 -0.9572680375848595 -0.2892021857079817
12620364000.0 -0.9597028491392813 -0.28101679905975163 7.939069648421723e-17 -3.983926439962878e-19 7.939069648421723e-17 -3.983926439962878e-19 -0.9597026711926131 -0.2810174067662094
12620981333.333334 -0.9620674978975773 -0.2728115274121252 7.936877171720523e-17 -1.0831339379905345e-18 7.936877171720523e-17 -1.0831339379905345e-18 -0.9620673251551319 -0.27281213658613457
12621598666.666666 -0.9643619945726609 -0.26458636288305115 7.934094615145089e-17 -1.7675266631740272e-18 7.934094615145089e-17 -1.7675266631740272e-18 -0.9643618270465235 -0.26458697348005045
12622216000.0 -0.966586171854365 -0.25634190523550154 7.930722416718944e-17 -2.4515200127899358e-18 7.930722416718944e-17 -2.4515200127899358e-18 -0.9665860095562409 -0.2563425172108305
12622833333.333334 -0.9687398675601051 -0.24807875563915496 7.926761058173258e-17 -3.1350632296759854e-18 7.926761058173258e-17 -3.1350632296759854e-18 -0.9687397105013175 -0.248079368948057
12623450666.666666 -0.9708229246466281 -0.23979751662686244 7.92221106489391e-17 -3.818105610030273e-18 7.92221106489391e-17 -3.818105610030273e-18 -0.9708227728381147 -0.23979813122448765
12624068000.0 -0.9728351912215504 -0.23149879205035306 7.917073005865288e-17 -4.500596507158093e-18 7.917073005865288e-17 -4.500596507158093e-18 -0.9728350446738673 -0.23149940789176246
12624685333.333334 -0.9747765205543883 -0.22318318703639628 7.911347493610898e-17 -5.182485335226586e-18 7.911347493610898e-17 -5.182485335226586e-18 -0.9747763792777069 -0.22318380407656455
12625302666.666666 -0.9766467710872442 -0.214851307942732 7.90503518413083e-17 -5.863721572988623e-18 7.90503518413083e-17 -5.863721572988623e-18 -0.9766466350913499 -0.21485192613655074
12625920000.0 -0.9784458064451731 -0.2065037623136629 7.898136776835818e-17 -6.5442547675341616e-18 7.898136776835818e-17 -6.5442547675341616e-18 -0.9784456757394652 -0.20650438161594387
12626537333.333334 -0.980173495446088 -0.19814115883591893 7.890653014478347e-17 -7.224034538003609e-18 7.890653014478347e-17 -7.224034538003609e-18 -0.9801733700395798 -0.19814177920139775
12627154666.666666 -0.9818297121103228 -0.18976410729430196 7.882584683080471e-17 -7.903010579303343e-18 7.882584683080471e-17 -7.903010579303343e-18 -0.9818295920116397 -0.18976472867764096
12627772000.0 -0.9834143356698692 -0.18137321852697075 7.873932611858108e-17 -8.581132665850027e-18 7.873932611858108e-17 -8.581132665850027e-18 -0.9834142208872498 -0.18137384088276262
12628389333.333334 -0.9849272505771208 -0.1729691043812058 7.864697673142969e-17 -9.25835065522689e-18 7.864697673142969e-17 -9.25835065522689e-18 -0.9849271411184138 -0.1729697276639766
12629006666.666666 -0.9863683465133408 -0.16455237766857186 7.854880782300217e-17 -9.934614491933103e-18 7.854880782300217e-17 -9.934614491933103e-18 -0.9863682423860076 -0.16455300183278476
12629624000.0 -0.9877375183966922 -0.15612365212031643 7.844482897644032e-17 -1.060987421103132e-17 7.844482897644032e-17 -1.060987421103132e-17 -0.9877374196078039 -0.15612427712037463
12630241333.333334 -0.9890346663898906 -0.14768354234267422 7.833505020349144e-17 -1.1284079941860785e-17 7.833505020349144e-17 -1.1284079941860785e-17 -0.9890345729461272 -0.14768416813292426
12630858666.666666 -0.9902596959074914 -0.13923266377199445 7.821948194360014e-17 -1.1957181911679518e-17 7.821948194360014e-17 -1.1957181911679518e-17 -0.9902596078151447 -0.13923329030673004
12631476000.0 -0.9914125176228066 -0.13077163262975264 7.809813506295785e-17 -1.2629130449371192e-17 7.809813506295785e-17 -1.2629130449371192e-17 -0.9914124348877761 -0.13077225986321747
12632093333.333334 -0.9924930474743751 -0.12230106587789796 7.797102085353519e-17 -1.3299875989054213e-17 7.797102085353519e-17 -1.3299875989054213e-17 -0.9924929701021706 -0.12230169376428945
12632710666.666666 -0.9935012066721314 -0.11382158117361248 7.783815103207036e-17 -1.3969369073759194e-17 7.783815103207036e-17 -1.3969369073759194e-17 -0.9935011346678696 -0.11382220966708471
12633328000.0 -0.9944369217031385 -0.10533379682432883 7.76995377390317e-17 -1.4637560359061348e-17 7.76995377390317e-17 -1.4637560359061348e-17 -0.9944368550715447 -0.10533442587899616
12633945333.333334 -0.9953001243369451 -0.09683833174267237 7.755519353755149e-17 -1.5304400616694348e-17 7.755519353755149e-17 -1.5304400616694348e-17 -0.9953000630823532 -0.09683896131261285
12634562666.666666 -0.9960907516305587 -0.08833580540138854 7.740513141232285e-17 -1.596984073818507e-17 7.740513141232285e-17 -1.596984073818507e-17 -0.9960906957569086 -0.08833643544064693
12635180000.0 -0.9968087459330369 -0.07982683778811496 7.724936476847204e-17 -1.66338317384426e-17 7.724936476847204e-17 -1.66338317384426e-17 -0.9968086954438773 -0.07982746825070644
12635797333.333334 -0.997454054889703 -0.07131204936006014 7.708790743039284e-17 -1.729632475937418e-17 7.708790743039284e-17 -1.729632475937418e-17 -0.9974540097881899 -0.0713126801999736
12636414666.666666 -0.99802663144594 -0.06279206099907272 7.692077364056014e-17 -1.7957271073444185e-17 7.692077364056014e-17 -1.7957271073444185e-17 -0.9980265917348351 -0.06279269217027386
12637032000.0 -0.9985264338506493 -0.05426749396597097 7.674797805829964e-17 -1.8616622087278925e-17 7.674797805829964e-17 -1.8616622087278925e-17 -0.9985263995323209 -0.05426812542240584
12637649333.333334 -0.9989534256592709 -0.045738969855581776 7.656953575854061e-17 -1.9274329345203168e-17 7.656953575854061e-17 -1.9274329345203168e-17 -0.9989533967356945 -0.045739601551180224
12638266666.666666 -0.9993075757364576 -0.03720711055116019 7.638546223052726e-17 -1.9930344532810993e-17 7.638546223052726e-17 -1.9930344532810993e-17 -0.9993075522092149 -0.03720774243983907
12638884000.0 -0.9995888582583354 -0.02867253817924137 7.619577337650851e-17 -2.0584619480487547e-17 7.619577337650851e-17 -2.0584619480487547e-17 -0.9995888401286145 -0.028673170214907985
12639501333.333334 -0.9997972527143901 -0.0201358750641628 7.600048551038874e-17 -2.123710616695577e-17 7.600048551038874e-17 -2.123710616695577e-17 -0.9997972399829864 -0.020136507200718266
12640118666.666666 -0.9999327439089647 -0.011597743682770972 7.579961535636093e-17 -2.1887756722762963e-17 7.579961535636093e-17 -2.1887756722762963e-17 -0.9999327365762783 -0.011598375874113493
12640736000.0 -0.9999953219623645 -0.0030587666187756233 7.55931800474898e-17 -2.2536523433823645e-17 7.55931800474898e-17 -2.2536523433823645e-17 -0.9999953200284039 -0.0030593988188039535
12641353333.333334 -0.9999849823115801 0.005480433482192999 7.538119712429178e-17 -2.3183358744863764e-17 7.538119712429178e-17 -2.3183358744863764e-17 -0.9999849857759564 0.005479801319576247
12641970666.666666 -0.9999017257106136 0.01401923395835574 7.516368453326074e-17 -2.3828215262926404e-17 7.516368453326074e-17 -2.3828215262926404e-17 -0.9999017345725495 0.014018601879240726
12642588000.0 -0.999745558230435 0.022557012177130995 7.494066062537613e-17 -2.4471045760830163e-17 7.494066062537613e-17 -2.4471045760830163e-17 -0.9997455724887561 0.022556380227597286
12643205333.333334 -0.9995164912585286 0.031093145580365286 7.471214415458421e-17 -2.511180318060294e-17 7.471214415458421e-17 -2.511180318060294e-17 -0.9995165109116687 0.031092513806478504
12643822666.666666 -0.9992145414980703 0.039627011729928024 7.447815427623706e-17 -2.5750440636942414e-17 7.447815427623706e-17 -2.5750440636942414e-17 -0.9992145665440693 0.03962638017773649
12644440000.0 -0.9988397309667003 0.04815798835304143 7.423871054551982e-17 -2.6386911420609062e-17 7.423871054551982e-17 -2.6386911420609062e-17 -0.9988397614032057 0.04815735706857279
12645057333.333334 -0.998392086994933 0.056685453387485304 7.399383291583328e-17 -2.702116900185155e-17 7.399383291583328e-17 -2.702116900185155e-17 -0.9983921228191984 0.05668482241674319
12645674666.666666 -0.9978716422241495 0.06520878502718355 7.374354173716004e-17 -2.765316703378155e-17 7.374354173716004e-17 -2.765316703378155e-17 -0.9978716834330371 0.06520815441614425
12646292000.0 -0.9972784346042209 0.07372736176751682 7.348785775438358e-17 -2.8282859355781706e-17 7.348785775438358e-17 -2.8282859355781706e-17 -0.9972784811941995 0.07372673156212585
12646909333.333334 -0.9966125073907454 0.08224056245049928 7.322680210560748e-17 -2.891019999682325e-17 7.322680210560748e-17 -2.891019999682325e-17 -0.9966125593578931 0.08223993269666816
12647526666.666666 -0.9958739091418954 0.09074776631015773 7.296039632041487e-17 -2.953514317884972e-17 7.296039632041487e-17 -2.953514317884972e-17 -0.9958739664818981 0.09074713705376054
12648144000.0 -0.9950626937148664 0.099248353017853 7.268866231811997e-17 -3.015764332009053e-17 7.268866231811997e-17 -3.015764332009053e-17 -0.9950627564230189 0.0992477243047231
12648761333.333334 -0.9941789202619546 0.10774170272748479 7.241162240598642e-17 -3.0777655038373634e-17 7.241162240598642e-17 -3.0777655038373634e-17 -0.99417898833316 0.10774107460341144
12649378666.666666 -0.99322265322626 0.11622719612049158 7.212929927741331e-17 -3.139513315442989e-17 7.212929927741331e-17 -3.139513315442989e-17 -0.9932227266550314 0.1162265686312166
12649996000.0 -0.9921939623369549 0.12470421445137797 7.184171601009824e-17 -3.201003269517122e-17 7.184171601009824e-17 -3.201003269517122e-17 -0.9921940411174163 0.12470358764259257
12650613333.333334 -0.991092922604229 0.13317213959252136 7.154889606416519e-17 -3.262230889696587e-17 7.154889606416519e-17 -3.262230889696587e-17 -0.9910930067301127 0.13317151350986242
12651230666.666666 -0.9899196143138084 0.14163035407935756 7.125086328028165e-17 -3.3231917208862815e-17 7.125086328028165e-17 -3.3231917208862815e-17 -0.9899197037784586 0.14162972876840468
12651848000.0 -0.9886741230210878 0.1500782411554894 7.094764187771886e-17 -3.383881329585949e-17 7.094764187771886e-17 -3.383881329585949e-17 -0.9886742178174611 0.15007761666176161
12652465333.333334 -0.9873565395449196 0.158515184817491 7.063925645241855e-17 -3.4442953042081564e-17 7.063925645241855e-17 -3.4442953042081564e-17 -0.9873566396655831 0.15851456118644316
12653082666.666666 -0.9859669599609775 0.16694056985990985 7.032573197500865e-17 -3.504429255399584e-17 7.032573197500865e-17 -3.504429255399584e-17 -0.9859670653981106 0.16693994713692936
12653700000.0 -0.9845054855947343 0.17535378192020987 7.000709378879658e-17 -3.564278816359269e-17 7.000709378879658e-17 -3.564278816359269e-17 -0.9845055963401306 0.1753531601506137
12654317333.333334 -0.9829722230141044 0.18375420752340185 6.968336760774497e-17 -3.623839643153511e-17 6.968336760774497e-17 -3.623839643153511e-17 -0.9829723390591715 0.18375358675243303
12654934666.666666 -0.9813672840216661 0.19214123412683345 6.93545795144106e-17 -3.683107415030711e-17 6.93545795144106e-17 -3.683107415030711e-17 -0.981367405357425 0.19214061439965763
12655552000.0 -0.979690785646461 0.20051425016507682 6.902075595785689e-17 -3.742077834734364e-17 6.902075595785689e-17 -3.742077834734364e-17 -0.9796909122635492 0.20051363152677948
12656169333.333334 -0.9779428501355526 0.2088726450940774 6.868192375154966e-17 -3.8007466288124255e-17 6.868192375154966e-17 -3.8007466288124255e-17 -0.9779429820242217 0.20887202758965978
12656786666.666666 -0.976123604945035 0.21721580943603502 6.833811007121655e-17 -3.8591095479265296e-17 6.833811007121655e-17 -3.8591095479265296e-17 -0.9761237420951552 0.21721519311041174
12657404000.0 -0.974233182730757 0.22554313482379146 6.798934245268098e-17 -3.91716236715932e-17 6.798934245268098e-17 -3.91716236715932e-17 -0.9742333251318136 0.22554251972178632
12658021333.333334 -0.9722717213386698 0.2338540140450504 6.763564878967919e-17 -3.974900886318059e-17 6.763564878967919e-17 -3.974900886318059e-17 -0.9722718689797684 0.2338534002113941
12658638666.666666 -0.9702393637947668 0.2421478410867397 6.727705733164252e-17 -4.03232093023807e-17 6.727705733164252e-17 -4.03232093023807e-17 -0.9702395166646307 0.24214722856606583
12659256000.0 -0.9681362582946349 0.25042401117925456 6.691359668145423e-17 -4.0894183490839504e-17 6.691359668145423e-17 -4.0894183490839504e-17 -0.9681364163816073 0.2504234000160965
12659873333.333334 -0.9659625581926552 0.2586819208405282 6.654529579318485e-17 -4.1461890186482433e-17 6.654529579318485e-17 -4.1461890186482433e-17 -0.9659627214847003 0.2586813110793163
12660490666.666666 -0.9637184219908722 0.26692096791984493 6.617218396981066e-17 -4.202628840646765e-17 6.617218396981066e-17 -4.202628840646765e-17 -0.9637185904755766 0.26692035960490296
12661108000.0 -0.9614040133273424 0.2751405516421045 6.579429086087578e-17 -4.2587337430167713e-17 6.579429086087578e-17 -4.2587337430167713e-17 -0.9614041869919149 0.2751399448176464
12661725333.333334 -0.9590195009642838 0.28334007265132855 6.541164646017811e-17 -4.3144996802055706e-17 6.541164646017811e-17 -4.3144996802055706e-17 -0.9590196797955556 0.28333946736145504
12662342666.666666 -0.9565650587757352 0.2915189330544719 6.502428110337972e-17 -4.3699226334646856e-17 6.502428110337972e-17 -4.3699226334646856e-17 -0.9565652427601636 0.29151832934316796
12662960000.0 -0.9540408657348609 0.2996765364651043 6.463222546563329e-17 -4.424998611135991e-17 6.463222546563329e-17 -4.424998611135991e-17 -0.9540410548585282 0.29967593437623513
12663577333.333334 -0.951447105900951 0.30781228804670474 6.42355105591559e-17 -4.4797236489397604e-17 6.42355105591559e-17 -4.4797236489397604e-17 -0.9514473001495666 0.3078116876240133
12664194666.666666 -0.9487839684059381 0.31592559455625496 6.38341677307994e-17 -4.5340938102576516e-17 6.38341677307994e-17 -4.5340938102576516e-17 -0.9487841677648384 0.31592499584335826
12664812000.0 -0.9460516474406616 0.3240158643873064 6.342822865958372e-17 -4.5881051864153244e-17 6.342822865958372e-17 -4.5881051864153244e-17 -0.9460518518948123 0.3240152674276926
12665429333.333334 -0.9432503422406767 0.3320825076132283 6.301772535420548e-17 -4.6417538969630663e-17 6.301772535420548e-17 -4.6417538969630663e-17 -0.943250551774673 0.3320819124502533
12666046666.666666 -0.9403802570717426 0.34012493603016913 6.260269015054384e-17 -4.6950360899513463e-17 6.260269015054384e-17 -4.6950360899513463e-17 -0.9403804716698113 0.34012434270705394
12666664000.0 -0.9374416012148902 0.34814256320005565 6.218315570910179e-17 -4.74794794220963e-17 6.218315570910179e-17 -4.74794794220963e-17 -0.9374418208608912 0.34814197175988293
12667281333.333334 -0.9344345889512217 0.3561348044931936 6.17591550124793e-17 -4.8004856596157223e-17 6.17591550124793e-17 -4.8004856596157223e-17 -0.9344348136286459 0.35613421497890385
12667898666.666666 -0.9313594395462603 0.36410107713095047 6.13307213627697e-17 -4.852645477369873e-17 6.13307213627697e-17 -4.852645477369873e-17 -0.9313596692382368 0.3641004895853407
12668516000.0 -0.9282163772338894 0.37204080022846503 6.089788837896804e-17 -4.9044236602620276e-17 6.089788837896804e-17 -4.9044236602620276e-17 -0.9282166119231807 0.37204021469418364
12669133333.333334 -0.9250056312001581 0.3799533948365783 6.046068999434825e-17 -4.9558165029380276e-17 6.046068999434825e-17 -4.9558165029380276e-17 -0.9250058708691644 0.3799528113561229
12669750666.666666 -0.9217274355664387 0.38783828398439407 6.001916045381297e-17 -5.00682033016397e-17 6.001916045381297e-17 -5.00682033016397e-17 -0.9217276801972003 0.3878377026001092
