! Parameters = {f0=12700.012000; bw=77.238000; Q=6100.000000; N=10; m_0_1=1.314810; m_1_1=0.957401; m_1_2=1.149622; m_2_2=0.956752; m_2_3=0.786585; m_2_8=0.002804; m_2_9=0.039508; m_3_3=0.954815; m_3_4=0.675114; m_3_7=0.003404; m_3_8=-0.093684; m_3_9=0.002804; m_4_4=0.951890; m_4_5=0.511449; m_4_6=0.006921; m_4_7=-0.114233; m_4_8=0.003404; m_5_5=0.952272; m_5_6=0.918804; m_5_7=0.006921; m_6_6=0.952271; m_6_7=0.511791; m_7_7=0.951904; m_7_8=0.675232; m_8_8=0.954813; m_8_9=0.786898; m_9_9=0.956747; m_9_10=1.150700; m_10_10=0.957391; m_10_11=1.315605}
!
! Created with skrf (http://scikit-rf.org).
# Hz S RI R 50.0 
!freq ReS11 ImS11 ReS21 ImS21 ReS12 ImS12 ReS22 ImS22
12607400000.0 0.3878598671752028 -0.9217183536388136 -1.4970576628741868e-17 1.3517573047452576e-16 -1.4970576628741868e-17 1.3517573047452576e-16 0.38786050558998914 -0.9217180849930685
12608017333.333334 0.3769127116819243 -0.9262487828722856 -1.3353431030718682e-17 1.3531828887454059e-16 -1.3353431030718682e-17 1.3531828887454059e-16 0.3769133532032415 -0.9262485218217081
12608634666.666666 0.36591265083748054 -0.9306491991921007 -1.1735016123088435e-17 1.3544151195856121e-16 -1.1735016123088435e-17 1.3544151195856121e-16 0.3659132953749822 -0.9306489457725893
12609252000.0 0.3548612286655013 -0.9349189849338944 -1.0115562955798091e-17 1.355453897440186e-16 -1.0115562955798091e-17 1.355453897440186e-16 0.3548618761284254 -0.9349187391802696
12609869333.333334 0.3437599963988918 -0.9390575407692785 -8.4953026361919e-18 1.3562991500773598e-16 -8.4953026361919e-18 1.3562991500773598e-16 0.3437606466960761 -0.9390573027152852
12610486666.666666 0.33261051226228533 -0.9430642857899083 -6.874466296117634e-18 1.356950832858754e-16 -6.874466296117634e-18 1.356950832858754e-16 0.33261116530217755 -0.9430640554682053
12611104000.0 0.32141434125291946 -0.9469386575891612 -5.253285058945748e-18 1.3574089287349606e-16 -5.253285058945748e-18 1.3574089287349606e-16 0.3214149969435914 -0.9469384350313182
12611721333.333334 0.3101730549214996 -0.9506801123408843 -3.631990006699044e-18 1.357673448237142e-16 -3.631990006699044e-18 1.357673448237142e-16 0.31017371317066034 -0.9506798975773793
12612338666.666666 0.2988882311512624 -0.9542881248758578 -2.010812147143286e-18 1.3577444294647486e-16 -2.010812147143286e-18 1.3577444294647486e-16 0.29888889186627104 -0.9542879179360721
12612956000.0 0.2875614539364126 -0.9577621887555319 -3.899823809050987e-19 1.3576219380692934e-16 -3.899823809050987e-19 1.3576219380692934e-16 0.2875621170242911 -0.9577619896677456
12613573333.333334 0.2761943131601924 -0.9611018163429828 1.2302685313472638e-18 1.357306067234223e-16 1.2302685313472638e-18 1.357306067234223e-16 0.2761949785276387 -0.9611016251343708
12614190666.666666 0.2647884043713377 -0.9643065388714797 2.8497100017289756e-18 1.3567969376508603e-16 2.8497100017289756e-18 1.3567969376508603e-16 0.2647890719247389 -0.9643063555681081
12614808000.0 0.2533453285603092 -0.9673759065102245 4.468111647906931e-18 1.3560946974904564e-16 4.468111647906931e-18 1.3560946974904564e-16 0.2533459982057551 -0.9673757311370491
12615425333.333334 0.24186669193443355 -0.9703094884275357 6.0852433258259795e-18 1.3551995223723328e-16 6.0852433258259795e-18 1.3551995223723328e-16 0.24186736357772878 -0.9703093210083936
12616042666.666666 0.23035410569260992 -0.9731068728512658 7.700875162407619e-18 1.3541116153281152e-16 7.700875162407619e-18 1.3541116153281152e-16 0.23035477923928863 -0.9731067134088786
12616660000.0 0.2188091857990751 -0.9757676671266357 9.31477758815888e-18 1.352831206762108e-16 9.31477758815888e-18 1.352831206762108e-16 0.21880986115441342 -0.9757675156826019
12617277333.333334 0.2072335527564659 -0.9782914977713663 1.0926721369763631e-17 1.3513585544077536e-16 1.0926721369763631e-17 1.3513585544077536e-16 0.20723422982549525 -0.9782913543461603
12617894666.666666 0.19562883137866277 -0.9806780105280374 1.2536477642590299e-17 1.349693943280248e-16 1.2536477642590299e-17 1.349693943280248e-16 0.19562951006618323 -0.9806778751410049
12618512000.0 0.18399665056230582 -0.9829268704139003 1.4143817943161007e-17 1.3478376856252373e-16 1.4143817943161007e-17 1.3478376856252373e-16 0.1839973307728997 -0.982926743083257
12619129333.333334 0.1723386430586003 -0.9850377617678068 1.5748514241489855e-17 1.3457901208637571e-16 1.5748514241489855e-17 1.3457901208637571e-16 0.17233932469664573 -0.9850376425106379
12619746666.666666 0.16065644524374578 -0.9870103882945983 1.7350338973438548e-17 1.343551615533196e-16 1.7350338973438548e-17 1.343551615533196e-16 0.1606571282134295 -0.9870102771268519
12620364000.0 0.14895169688941198 -0.9888444731066542 1.894906507292022e-17 1.3411225632245035e-16 1.894906507292022e-17 1.3411225632245035e-16 0.1489523810947433 -0.9888443700431416
12620981333.333334 0.13722604093271365 -0.9905397587627385 2.0544466004020083e-17 1.3385033845155958e-16 2.0544466004020083e-17 1.3385033845155958e-16 0.13722672627753804 -0.990539663817134
12621598666.666666 0.12548112324537544 -0.9920960073041767 2.2136315793100236e-17 1.3356945269008236e-16 2.2136315793100236e-17 1.3356945269008236e-16 0.1254818096333878 -0.9920959204890127
12622216000.0 0.11371859240273652 -0.993513000288246 2.3724389060720486e-17 1.3326964647167752e-16 2.3724389060720486e-17 1.3326964647167752e-16 0.11371927973749449 -0.9935129216149112
12622833333.333334 0.10194009945246049 -0.9947905388188172 2.5308461053526662e-17 1.3295096990641814e-16 2.5308461053526662e-17 1.3295096990641814e-16 0.10194078763739864 -0.9947904682975596
12623450666.666666 0.09014729768278755 -0.9959284435742872 2.6888307675992083e-17 1.3261347577261337e-16 2.6888307675992083e-17 1.3261347577261337e-16 0.09014798662123023 -0.9959283812142061
12624068000.0 0.07834184239038487 -0.9969265548327482 2.846370552210923e-17 1.322572195082405e-16 2.846370552210923e-17 1.322572195082405e-16 0.07834253198556031 -0.9969265006417984
12624685333.333334 0.06652539064785945 -0.9977847324944196 3.00344319069182e-17 1.318822592020134e-16 3.00344319069182e-17 1.318822592020134e-16 0.06652608080291326 -0.9977846864794103
12625302666.666666 0.0546996010716167 -0.9985028561012823 3.160026489791278e-17 1.3148865558407899e-16 3.160026489791278e-17 1.3148865558407899e-16 0.05470029168962516 -0.9985028182678709
12625920000.0 0.042866133588509624 -0.9990808248540166 3.316098334642075e-17 1.3107647201631947e-16 3.316098334642075e-17 1.3107647201631947e-16 0.042866824572493675 -0.9990807952067147
12626537333.333334 0.031026649203297667 -0.999518557626134 3.471636691871802e-17 1.3064577448231746e-16 3.471636691871802e-17 1.3064577448231746e-16 0.031027340456236254 -0.9995185361683017
12627154666.666666 0.01918280976521544 -0.999815992975369 3.626619612712314e-17 1.3019663157692513e-16 3.626619612712314e-17 1.3019663157692513e-16 0.0191835011900593 -0.9998159797092178
12627772000.0 0.007336277734707501 -0.9999730891523084 3.78102523609586e-17 1.297291144954649e-16 3.78102523609586e-17 1.297291144954649e-16 0.007336969234392718 -0.9999730840788994
12628389333.333334 -0.004511284049610473 -0.9999898241062433 3.9348317917268064e-17 1.2924329702259393e-16 3.9348317917268064e-17 1.2924329702259393e-16 -0.00451059257214882 -0.9999898272254871
12629006666.666666 -0.016358212604867518 -0.9998661954882695 4.0880176031532655e-17 1.287392555207642e-16 4.0880176031532655e-17 1.287392555207642e-16 -0.016357521246681744 -0.9998662067989276
12629624000.0 -0.02820284503687883 -0.999602220651614 4.240561090814564e-17 1.2821706891834795e-16 4.240561090814564e-17 1.2821706891834795e-16 -0.028202153894995027 -0.9996022401512986
12630241333.333334 -0.04004351877384212 -0.9991979366492011 4.3924407750766804e-17 1.2767681869739367e-16 4.3924407750766804e-17 1.2767681869739367e-16 -0.040042827945246544 -0.9991979643343751
12630858666.666666 -0.05187857179947724 -0.9986534002284566 4.543635279251194e-17 1.2711858888102781e-16 4.543635279251194e-17 1.2711858888102781e-16 -0.05187788138110268 -0.9986534360944338
12631476000.0 -0.06370634288674107 -0.9979686878233246 4.6941233326045126e-17 1.2654246602047656e-16 4.6941233326045126e-17 1.2654246602047656e-16 -0.06370565297545328 -0.9979687318642716
12632093333.333334 -0.07552517183046607 -0.9971438955435621 4.8438837733389285e-17 1.2594853918177596e-16 4.8438837733389285e-17 1.2594853918177596e-16 -0.07552448252305016 -0.9971439477524983
12632710666.666666 -0.08733339968067924 -0.9961791391612388 4.992895551567473e-17 1.2533689993209162e-16 4.992895551567473e-17 1.2533689993209162e-16 -0.08733271107382612 -0.9961791995300382
12633328000.0 -0.09912936897554524 -0.9950745540944768 5.1411377322691135e-17 1.2470764232569568e-16 5.1411377322691135e-17 1.2470764232569568e-16 -0.099128681165838 -0.9950746226138687
12633945333.333334 -0.11091142397387437 -0.9938302953884527 5.2885894982235864e-17 1.2406086288960665e-16 5.2885894982235864e-17 1.2406086288960665e-16 -0.11091073705777484 -0.9938303720480234
12634562666.666666 -0.12267791088750243 -0.992446537693638 5.435230152929765e-17 1.233966606088778e-16 5.435230152929765e-17 1.233966606088778e-16 -0.1226772249613376 -0.9924466224818327
12635180000.0 -0.13442717811348154 -0.9909234752412811 5.58103912350673e-17 1.2271513691153606e-16 5.58103912350673e-17 1.2271513691153606e-16 -0.13442649327342995 -0.9909235681454044
12635797333.333334 -0.14615757646601987 -0.9892613218161279 5.725995963576822e-17 1.220163956531762e-16 5.725995963576822e-17 1.220163956531762e-16 -0.1461568928080982 -0.9892614228223465
12636414666.666666 -0.15786745940768757 -0.9874603107264486 5.870080356124624e-17 1.213005431012369e-16 5.870080356124624e-17 1.213005431012369e-16 -0.15786677702773744 -0.9874604198197952
12637032000.0 -0.1695551832808154 -0.9855206947712568 6.013272116343426e-17 1.2056768791890822e-16 6.013272116343426e-17 1.2056768791890822e-16 -0.1695545022744896 -0.9855208119356292
12637649333.333334 -0.1812191075380375 -0.9834427462048466 6.155551194456151e-17 1.1981794114872963e-16 6.155551194456151e-17 1.1981794114872963e-16 -0.18121842800078639 -0.9834428714230102
12638266666.666666 -0.19285759497270635 -0.98122675669855 6.296897678519757e-17 1.1905141619583735e-16 6.296897678519757e-17 1.1905141619583735e-16 -0.19285691699976532 -0.9812268899521441
12638884000.0 -0.2044690119485326 -0.9788730372998342 6.437291797205177e-17 1.1826822881090107e-16 6.437291797205177e-17 1.1826822881090107e-16 -0.2044683356349078 -0.9788731785693705
12639501333.333334 -0.21605172862902908 -0.9763819183886085 6.576713922559835e-17 1.1746849707271338e-16 6.576713922559835e-17 1.1746849707271338e-16 -0.21605105406948452 -0.9763820676534755
12640118666.666666 -0.22760411920606125 -0.9737537496309032 6.715144572744386e-17 1.1665234137047948e-16 6.715144572744386e-17 1.1665234137047948e-16 -0.22760344649510564 -0.9737539068693699
12640736000.0 -0.23912456212860772 -0.970988899929661 6.852564414756784e-17 1.1581988438572986e-16 6.852564414756784e-17 1.1581988438572986e-16 -0.23912389136048073 -0.9709890651188777
12641353333.333334 -0.25061144032953814 -0.968087757373145 6.988954267117648e-17 1.1497125107401208e-16 6.988954267117648e-17 1.1497125107401208e-16 -0.2506107715981981 -0.9680879304891509
12641970666.666666 -0.2620631414532859 -0.9650507291803094 7.124295102550733e-17 1.141065686461587e-16 7.124295102550733e-17 1.141065686461587e-16 -0.2620624748523957 -0.9650509101980317
12642588000.0 -0.273478058081833 -0.9618782416437126 7.258568050630233e-17 1.132259665493037e-16 7.258568050630233e-17 1.132259665493037e-16 -0.27347739370474755 -0.9618784305369729
12643205333.333334 -0.2848545879604748 -0.9585707400696518 7.391754400405085e-17 1.123295764475857e-16 7.391754400405085e-17 1.123295764475857e-16 -0.28485392590022757 -0.9585709368111677
12643822666.666666 -0.29619113422263643 -0.9551286887156727 7.52383560300529e-17 1.1141753220250568e-16 7.52383560300529e-17 1.1141753220250568e-16 -0.2961904745719266 -0.9551288932770634
12644440000.0 -0.30748610561409895 -0.9515525707253836 7.654793274216497e-17 1.1048996985303001e-16 7.654793274216497e-17 1.1048996985303001e-16 -0.30748544846527914 -0.9515527830771754
12645057333.333334 -0.31873791671619456 -0.9478428880606914 7.784609197035536e-17 1.0954702759535513e-16 7.784609197035536e-17 1.0954702759535513e-16 -0.3187372621612562 -0.9478431081723168
12645674666.666666 -0.3299449881684504 -0.9440001614313067 7.91326532419896e-17 1.0858884576238865e-16 7.91326532419896e-17 1.0858884576238865e-16 -0.3299443362990127 -0.9440003892711145
12646292000.0 -0.3411057468904388 -0.9400249302216023 8.040743780690371e-17 1.0761556680290354e-16 8.040743780690371e-17 1.0761556680290354e-16 -0.3411050977977346 -0.9400251657568585
12646909333.333334 -0.3522186263022316 -0.9359177524150193 8.167026866213088e-17 1.0662733526046844e-16 8.167026866213088e-17 1.0662733526046844e-16 -0.3522179800770955 -0.9359179956119139
12647526666.666666 -0.36328206654453604 -0.9316792045156655 8.29209705764674e-17 1.0562429775201418e-16 8.29209705764674e-17 1.0562429775201418e-16 -0.36328142327739105 -0.9316794553393162
12648144000.0 -0.37429451469772274 -0.9273098814673596 8.415937011474274e-17 1.0460660294613873e-16 8.415937011474274e-17 1.0460660294613873e-16 -0.37429387447856793 -0.9273101398818163
12648761333.333334 -0.38525442499953494 -0.9228103965702213 8.538529566178889e-17 1.0357440154115674e-16 8.538529566178889e-17 1.0357440154115674e-16 -0.38525378791793286 -0.9228106625384731
12649378666.666666 -0.3961602590621421 -0.9181813813945634 8.659857744618301e-17 1.025278462428359e-16 8.659857744618301e-17 1.025278462428359e-16 -0.39615962520720605 -0.9181816548785419
12649996000.0 -0.40701048608828316 -0.9134234856921472 8.779904756371529e-17 1.014670917418581e-16 8.779904756371529e-17 1.014670917418581e-16 -0.4070098555486649 -0.9134237666527332
12650613333.333334 -0.4178035830859017 -0.9085373773050807 8.898654000057481e-17 1.0039229469101066e-16 8.898654000057481e-17 1.0039229469101066e-16 -0.4178029559497793 -0.9085376657021098
12651230666.666666 -0.42853803508189686 -0.9035237420720941 9.016089065622705e-17 9.930361368213628e-17 9.016089065622705e-17 9.930361368213628e-17 -0.42853741143696156 -0.9035240378643613
12651848000.0 -0.43921233533510645 -0.898383283732113 9.132193736607477e-17 9.820120922275652e-17 9.132193736607477e-17 9.820120922275652e-17 -0.4392117152685518 -0.898383586877381
12652465333.333334 -0.4498249855474149 -0.89311672382566 9.246951992378054e-17 9.708524371248044e-17 9.246951992378054e-17 9.708524371248044e-17 -0.4498243691459228 -0.8931170342806616
12653082666.666666 -0.4603744960741657 -0.8877248015935288 9.360348010330253e-17 9.595588141915345e-17 9.360348010330253e-17 9.595588141915345e-17 -0.46037388342389557 -0.8877251193139762
12653700000.0 -0.47085938613348355 -0.8822082738729056 9.472366168069392e-17 9.481328845469634e-17 9.472366168069392e-17 9.481328845469634e-17 -0.47085877732005965 -0.8822085988134948
12654317333.333334 -0.4812781840137442 -0.8765679149913286 9.582991045552796e-17 9.365763275077161e-17 9.582991045552796e-17 9.365763275077161e-17 -0.48127757912224467 -0.876568247105748
12654934666.666666 -0.4916294272805057 -0.8708045166578174 9.692207427210663e-17 9.248908403411886e-17 9.692207427210663e-17 9.248908403411886e-17 -0.4916288263954489 -0.8708048558987516
12655552000.0 -0.5019116629816283 -0.8649188878518198 9.800000304031614e-17 9.130781380169822e-17 9.800000304031614e-17 9.130781380169822e-17 -0.501911066186963 -0.8649192341709588
12656169333.333334 -0.5121234478510746 -0.8589118547097492 9.906354875618168e-17 9.011399529559289e-17 9.906354875618168e-17 9.011399529559289e-17 -0.5121228552301662 -0.8589122080577931
12656786666.666666 -0.52226334851181 -0.8527842604088357 1.0011256552216526e-16 8.890780347761875e-17 1.0011256552216526e-16 8.890780347761875e-17 -0.5222627601474314 -0.8527846207355051
12657404000.0 -0.5323299416767314 -0.8465369650489342 1.0114690956709403e-16 8.76894150037666e-17 1.0114690956709403e-16 8.76894150037666e-17 -0.5323293576510489 -0.8465373323029731
12658021333.333334 -0.5423218143485921 -0.8401708455317075 1.0216643926582179e-16 8.645900819836553e-17 1.0216643926582179e-16 8.645900819836553e-17 -0.5423212347431552 -0.8401712196608929
12658638666.666666 -0.5522375640181686 -0.8336867954376457 1.0317101515854495e-16 8.521676302805604e-17 1.0317101515854495e-16 8.521676302805604e-17 -0.5522369889138992 -0.8336871763887959
12659256000.0 -0.5620757988614604 -0.8270857249004265 1.04160499969853e-16 8.39628610754775e-17 1.04160499969853e-16 8.39628610754775e-17 -0.5620752283386391 -0.8270861126194052
12659873333.333334 -0.5718351379346911 -0.8203685604793894 1.0513475862739074e-16 8.269748551282143e-17 1.0513475862739074e-16 8.269748551282143e-17 -0.5718345720729491 -0.8203689549111178
12660490666.666666 -0.5815142113682231 -0.8135362450294429 1.0609365828024395e-16 8.142082107511628e-17 1.0609365828024395e-16 8.142082107511628e-17 -0.5815136502465295 -0.8135366461179051
12661108000.0 -0.591111660559139 -0.806589737568505 1.0703706831702291e-16 8.013305403326875e-17 1.0703706831702291e-16 8.013305403326875e-17 -0.5911111042557892 -0.8065901452567557
12661725333.333334 -0.6006261383614772 -0.7995300131432171 1.0796486038354444e-16 7.883437216699703e-17 1.0796486038354444e-16 7.883437216699703e-17 -0.6006255869540831 -0.79953042737339
12662342666.666666 -0.6100563092756712 -0.7923580626918356 1.0887690840026394e-16 7.752496473745695e-17 1.0887690840026394e-16 7.752496473745695e-17 -0.6100557628411507 -0.7923584834051534
12662960000.0 -0.619400849635849 -0.7850748929052577 1.0977308857933945e-16 7.620502245971585e-17 1.0977308857933945e-16 7.620502245971585e-17 -0.619400308250413 -0.7850753200420365
12663577333.333334 -0.6286584477957373 -0.7776815260856257 1.1065327944135682e-16 7.487473747503995e-17 1.1065327944135682e-16 7.487473747503995e-17 -0.628657911534882 -0.777681959585288
12664194666.666666 -0.6378278043126397 -0.7701790000029408 1.1151736183173706e-16 7.353430332296479e-17 1.1151736183173706e-16 7.353430332296479e-17 -0.6378272732511341 -0.7701794398040209
12664812000.0 -0.6469076321299 -0.7625683677493438 1.1236521893680615e-16 7.218391491317682e-17 1.1236521893680615e-16 7.218391491317682e-17 -0.6469071063417763 -0.7625688137894985
12665429333.333334 -0.655896656757646 -0.754850697591223 1.1319673629950792e-16 7.082376849723651e-17 1.1319673629950792e-16 7.082376849723651e-17 -0.6558961363161883 -0.7548511498072379
12666046666.666666 -0.664793616451444 -0.7470270728194685 1.1401180183478261e-16 6.945406164011204e-17 1.1401180183478261e-16 6.945406164011204e-17 -0.6647931014291798 -0.7470275311472697
12666664000.0 -0.6735972623897285 -0.7390985915971403 1.1481030584463296e-16 6.807499319148524e-17 1.1481030584463296e-16 6.807499319148524e-17 -0.673596752858417 -0.7390990559718021
12667281333.333334 -0.6823063588487707 -0.7310663668056033 1.1559214103277715e-16 6.668676325699586e-17 1.1559214103277715e-16 6.668676325699586e-17 -0.682305854879394 -0.7310668371613582
12667898666.666666 -0.6909196833763245 -0.7229315258881512 1.1635720251901884e-16 6.528957316921102e-17 1.1635720251901884e-16 6.528957316921102e-17 -0.690919185039077 -0.722932002158398
12668516000.0 -0.6994360269632961 -0.7146952106916711 1.171053878532481e-16 6.388362545846368e-17 1.171053878532481e-16 6.388362545846368e-17 -0.6994355343275739 -0.7146956928089842
12669133333.333334 -0.707854194213134 -0.7063585773066587 1.1783659702905677e-16 6.246912382359141e-17 1.1783659702905677e-16 6.246912382359141e-17 -0.7078537073475276 -0.7063590652027999
12669750666.666666 -0.7161730035098954 -0.6979227959046962 1.185507324970548e-16 6.104627310242414e-17 1.185507324970548e-16 6.104627310242414e-17 -0.7161725224821778 -0.697923289510622
12670368000.0 -0.7243912871840745 -0.6893890505742116 1.1924769917779607e-16 5.961527924218424e-17 1.1924769917779607e-16 5.961527924218424e-17 -0.7243908120611929 -0.6893895498200839
