! Parameters = {f0=12700.012000; bw=77.238000; Q=6100.000000; N=10; m_0_1=1.164860; m_1_1=-1.291848; m_1_2=0.999672; m_2_2=-1.292497; m_2_3=0.636635; m_2_8=-0.004693; m_2_9=0.032011; m_3_3=-1.294434; m_3_4=0.525164; m_3_7=-0.004093; m_3_8=-0.101181; m_3_9=-0.004693; m_4_4=-1.297359; m_4_5=0.361499; m_4_6=-0.000576; m_4_7=-0.121730; m_4_8=-0.004093; m_5_5=-1.296977; m_5_6=0.768854; m_5_7=-0.000576; m_6_6=-1.296978; m_6_7=0.361841; m_7_7=-1.297345; m_7_8=0.525282; m_8_8=-1.294436; m_8_9=0.636948; m_9_9=-1.292502; m_9_10=1.000750; m_10_10=-1.291858; m_10_11=1.165655}
!
! Created with skrf (http://scikit-rf.org).
# Hz S RI R 50.0 
!freq ReS11 ImS11 ReS21 ImS21 ReS12 ImS12 ReS22 ImS22
12607400000.0 0.11731415623783195 0.9930948538513613 -2.5850082318630075e-17 -6.020006559541272e-17 -2.5850082318630075e-17 -6.020006559541272e-17 0.11731354658177892 0.993094925869756
12608017333.333334 0.12467439217732501 0.9921977101037202 -2.6295904575470955e-17 -5.999265497783396e-17 -2.6295904575470955e-17 -5.999265497783396e-17 0.1246737831018531 0.992197786636779
12608634666.666666 0.13202777377340089 0.9912460173702037 -2.674007124329137e-17 -5.978194689656896e-17 -2.674007124329137e-17 -5.978194689656896e-17 0.1320271653119374 0.9912460984132782
12609252000.0 0.1393738967523226 0.9902398279729638 -2.7182557964295072e-17 -5.956795450620482e-17 -2.7182557964295072e-17 -5.956795450620482e-17 0.1393732889382575 0.990239913521155
12609869333.333334 0.14671235723941695 0.9891791972302618 -2.762334048477296e-17 -5.935069114101855e-17 -2.762334048477296e-17 -5.935069114101855e-17 0.14671175010610174 0.9891792872784267
12610486666.666666 0.15404275178119567 0.9880641834534485 -2.8062394656428834e-17 -5.913017031415637e-17 -2.8062394656428834e-17 -5.913017031415637e-17 0.1540421453619408 0.9880642779961951
12611104000.0 0.16136467736773175 0.9868948479437206 -2.8499696437709835e-17 -5.890640571679628e-17 -2.8499696437709835e-17 -5.890640571679628e-17 0.16136407169580555 0.9868949469754125
12611721333.333334 0.16867773145459297 0.985671254988794 -2.893522189508901e-17 -5.867941121732237e-17 -2.893522189508901e-17 -5.867941121732237e-17 0.1686771265632192 0.9856713585035469
12612338666.666666 0.17598151198516807 0.9843934718593293 -2.936894720439607e-17 -5.844920086046157e-17 -2.936894720439607e-17 -5.844920086046157e-17 0.17598090790752444 0.9843935798510143
12612956000.0 0.18327561741268775 0.983061568805255 -2.9800848652108395e-17 -5.821578886642811e-17 -2.9800848652108395e-17 -5.821578886642811e-17 0.1832750141819037 0.9830616812674953
12613573333.333334 0.19055964672224418 0.981675619051907 -3.0230902636630164e-17 -5.797918963006037e-17 -3.0230902636630164e-17 -5.797918963006037e-17 0.19055904437139967 0.981675735978083
12614190666.666666 0.1978331994528947 0.9802356987960006 -3.065908566958633e-17 -5.773941771993762e-17 -3.065908566958633e-17 -5.773941771993762e-17 0.19783259801501782 0.9802358201792466
12614808000.0 0.20509587571973353 0.9787418872014257 -3.1085374377101443e-17 -5.749648787749156e-17 -3.1085374377101443e-17 -5.749648787749156e-17 0.2050952752277991 0.9787420130346324
12615425333.333334 0.2123472762358208 0.9771942663949065 -3.150974550106649e-17 -5.725041501611081e-17 -3.150974550106649e-17 -5.725041501611081e-17 0.21234667672274876 0.9771943966707219
12616042666.666666 0.21958700233405212 0.9755929214615067 -3.19321759003973e-17 -5.700121422023739e-17 -3.19321759003973e-17 -5.700121422023739e-17 0.21958640383270464 0.9755930561723325
12616660000.0 0.22681465598924155 0.9739379404399102 -3.23526425523003e-17 -5.674890074444545e-17 -3.23526425523003e-17 -5.674890074444545e-17 0.2268140585324226 0.9739380795779075
12617277333.333334 0.2340298398399222 0.9722294143176045 -3.2771122553516763e-17 -5.649349001251946e-17 -3.2771122553516763e-17 -5.649349001251946e-17 0.23402924346037485 0.9722295578746906
12617894666.666666 0.2412321572101088 0.9704674370258946 -3.318759312155968e-17 -5.623499761652272e-17 -3.318759312155968e-17 -5.623499761652272e-17 0.24123156194051373 0.970467584993745
12618512000.0 0.2484212121312999 0.9686521054346949 -3.360203159595938e-17 -5.597343931584769e-17 -3.360203159595938e-17 -5.597343931584769e-17 0.24842061800427342 0.9686522578047428
12619129333.333334 0.25559660936402595 0.9667835193472551 -3.4014415439478155e-17 -5.570883103627171e-17 -3.4014415439478155e-17 -5.570883103627171e-17 0.2555960164121188 0.966783676110694
12619746666.666666 0.26275795441977295 0.9648617814946284 -3.4424722239340876e-17 -5.5441188868988866e-17 -3.4424722239340876e-17 -5.5441188868988866e-17 0.2627573626754676 0.9648619426424095
12620364000.0 0.2699048535825864 0.9628869975300393 -3.4832929708442525e-17 -5.5170529069642835e-17 -3.4832929708442525e-17 -5.5170529069642835e-17 0.26990426307829607 0.9628871630528747
12620981333.333334 0.27703691393066326 0.9608592760230952 -3.523901568654831e-17 -5.48968680573511e-17 -3.523901568654831e-17 -5.48968680573511e-17 0.2770363246987296 0.9608594459114567
12621598666.666666 0.28415374335800847 0.9587787284537987 -3.56429581415017e-17 -5.462022241371023e-17 -3.56429581415017e-17 -5.462022241371023e-17 0.28415315543070024 0.9587789026979201
12622216000.0 0.29125495059604684 0.9566454692064063 -3.604473517040126e-17 -5.434060888180716e-17 -3.604473517040126e-17 -5.434060888180716e-17 0.2912543640055581 0.9566456477962829
12622833333.333334 0.2983401452350799 0.9544596155631541 -3.6444325000794886e-17 -5.4058044365206167e-17 -3.6444325000794886e-17 -5.4058044365206167e-17 0.2983395600135274 0.9544597984885411
12623450666.666666 0.305408937745694 0.9522212876978221 -3.684170599184133e-17 -5.3772545926943125e-17 -3.684170599184133e-17 -5.3772545926943125e-17 0.3054083539251168 0.9522214749482404
12624068000.0 0.31246093950020537 0.9499306086691283 -3.723685663548704e-17 -5.348413078849602e-17 -3.723685663548704e-17 -5.348413078849602e-17 0.3124603571125621 0.9499308002338602
12624685333.333334 0.31949576279421366 0.947587704413895 -3.762975555761947e-17 -5.319281632875684e-17 -3.762975555761947e-17 -5.319281632875684e-17 0.3194951818713809 0.9475879002819869
12625302666.666666 0.3265130208675665 0.945192703740241 -3.802038151921289e-17 -5.2898620082995744e-17 -3.802038151921289e-17 -5.2898620082995744e-17 0.32651244144133745 0.9451929039005047
12625920000.0 0.33351232792594654 0.9427457383203951 -3.8408713417480937e-17 -5.260155974180566e-17 -3.8408713417480937e-17 -5.260155974180566e-17 0.33351175002802896 0.9427459427614066
12626537333.333334 0.34049329916186594 0.9402469426835272 -3.879473028700012e-17 -5.230165315005395e-17 -3.879473028700012e-17 -5.230165315005395e-17 0.3404927228238803 0.940247151393628
12627154666.666666 0.3474555507759033 0.9376964542083249 -3.917841130083853e-17 -5.199891830581566e-17 -3.917841130083853e-17 -5.199891830581566e-17 0.34745497602938136 0.9376966671756243
12627772000.0 0.3543986999978842 0.9350944131154142 -3.9559735771683885e-17 -5.1693373359293474e-17 -3.9559735771683885e-17 -5.1693373359293474e-17 0.3543981268742673 0.9350946303277878
12628389333.333334 0.36132236510773846 0.9324409624597162 -3.993868315293355e-17 -5.138503661175139e-17 -3.993868315293355e-17 -5.138503661175139e-17 0.36132179363837547 0.9324411839048073
12629006666.666666 0.36822616545667236 0.9297362481225127 -4.031523303981164e-17 -5.107392651441367e-17 -4.031523303981164e-17 -5.107392651441367e-17 0.36822559567281826 0.9297364737877342
12629624000.0 0.37510972148799004 0.9269804188034689 -4.068936517045568e-17 -5.0760061667372573e-17 -4.068936517045568e-17 -5.0760061667372573e-17 0.3751091534208037 0.926980648676001
12630241333.333334 0.3819726547580128 0.924173626012433 -4.1061059426997824e-17 -5.044346081848606e-17 -4.1061059426997824e-17 -5.044346081848606e-17 0.3819720884385562 0.9241738600792273
12630858666.666666 0.3888145879567808 0.921316024061153 -4.143029583664191e-17 -5.012414286226411e-17 -4.143029583664191e-17 -5.012414286226411e-17 0.38881402341601673 0.921316262308932
12631476000.0 0.3956351449289805 0.9184077700547161 -4.17970545727402e-17 -4.9802126838739875e-17 -4.17970545727402e-17 -4.9802126838739875e-17 0.395634582197771 0.9184080124699737
12632093333.333334 0.4024339506944413 0.9154490238829887 -4.2161315955836265e-17 -4.9477431932354864e-17 -4.2161315955836265e-17 -4.9477431932354864e-17 0.40243338980354526 0.9154492704519894
12632710666.666666 0.4092106314688291 0.91243994821179 -4.2523060454717375e-17 -4.915007747082055e-17 -4.2523060454717375e-17 -4.915007747082055e-17 0.40921007244890206 0.9124401989205736
12633328000.0 0.41596481468424973 0.9093807084739316 -4.2882268687470815e-17 -4.882008292396178e-17 -4.2882268687470815e-17 -4.882008292396178e-17 0.415964257565841 0.9093809633083104
12633945333.333334 0.42269612900965214 0.9062714728601503 -4.323892142249924e-17 -4.848746790258034e-17 -4.323892142249924e-17 -4.848746790258034e-17 0.4226955738232038 0.9062717318057117
12634562666.666666 0.42940420437129734 0.9031124123098442 -4.359299957954662e-17 -4.8152252157294077e-17 -4.359299957954662e-17 -4.8152252157294077e-17 0.4294036511471413 0.9031126753519494
12635180000.0 0.4360886719729975 0.8999037005017142 -4.394448423071951e-17 -4.781445557736486e-17 -4.394448423071951e-17 -4.781445557736486e-17 0.43608812074135644 0.8999039676255036
12635797333.333334 0.4427491643165767 0.896645513844142 -4.4293356601488224e-17 -4.747409818952913e-17 -4.4293356601488224e-17 -4.747409818952913e-17 0.4427486151075595 0.8966457850345306
12636414666.666666 0.4493853152218907 0.8933380314655666 -4.463959807168049e-17 -4.713120015681992e-17 -4.463959807168049e-17 -4.713120015681992e-17 0.4493847680654931 0.893338306707249
12637032000.0 0.4559967598470403 0.8899814352046078 -4.4983190176471344e-17 -4.6785781777376595e-17 -4.4983190176471344e-17 -4.6785781777376595e-17 0.4559962147731411 0.8899817144820557
12637649333.333334 0.4625831347084759 0.8865759096000367 -4.532411460736406e-17 -4.643786348324766e-17 -4.532411460736406e-17 -4.643786348324766e-17 0.4625825917468377 0.886576192897503
12638266666.666666 0.4691440777009334 0.8831216418806599 -4.56623532131563e-17 -4.6087465839191255e-17 -4.56623532131563e-17 -4.6087465839191255e-17 0.4691435368811993 0.8831219291821775
12638884000.0 0.4756792281172656 0.8796188219550645 -4.599788800089592e-17 -4.573460954147023e-17 -4.599788800089592e-17 -4.573460954147023e-17 0.4756786894689573 0.8796191132444467
12639501333.333334 0.4821882266684474 0.8760676424010821 -4.6330701136840623e-17 -4.53793154166272e-17 -4.6330701136840623e-17 -4.53793154166272e-17 0.4821876902209657 0.8760679376619266
12640118666.666666 0.48867071550310653 0.8724682984553271 -4.666077494738757e-17 -4.5021604420273975e-17 -4.666077494738757e-17 -4.5021604420273975e-17 0.48867018128572776 0.8724685976710138
12640736000.0 0.49512633822751945 0.8688209880022818 -4.698809192002136e-17 -4.466149763584437e-17 -4.698809192002136e-17 -4.466149763584437e-17 0.4951258062693941 0.8688212911559742
12641353333.333334 0.5015547399247572 0.8651259115636644 -4.731263470421408e-17 -4.429901627338269e-17 -4.731263470421408e-17 -4.429901627338269e-17 0.5015542102549098 0.8651262186383128
12641970666.666666 0.507955567174647 0.8613832722871592 -4.7634386112359114e-17 -4.3934181668277704e-17 -4.7634386112359114e-17 -4.3934181668277704e-17 0.5079550398219722 0.8613835832654988
12642588000.0 0.5143284680728788 0.8575932759354277 -4.7953329120664705e-17 -4.356701528002428e-17 -4.7953329120664705e-17 -4.356701528002428e-17 0.5143279430661414 0.8575935907999802
12643205333.333334 0.5206730922505494 0.8537561308746795 -4.826944687004395e-17 -4.31975386909716e-17 -4.826944687004395e-17 -4.31975386909716e-17 0.5206725696183832 0.8537564496077568
12643822666.666666 0.5269890908933285 0.8498720480632808 -4.858272266701255e-17 -4.28257736050459e-17 -4.858272266701255e-17 -4.28257736050459e-17 0.5269885706642332 0.8498723706469821
12644440000.0 0.5332761167606822 0.8459412410401201 -4.889313998454729e-17 -4.245174184649965e-17 -4.889313998454729e-17 -4.245174184649965e-17 0.533275598963023 0.8459415674563352
12645057333.333334 0.5395338242048933 0.8419639259129189 -4.920068246296072e-17 -4.207546535862577e-17 -4.920068246296072e-17 -4.207546535862577e-17 0.5395333088668983 0.8419642561433285
12645674666.666666 0.5457618691901106 0.8379403213463165 -4.9505333910751423e-17 -4.1696966202482134e-17 -4.9505333910751423e-17 -4.1696966202482134e-17 0.5457613563398711 0.8379406553723938
12646292000.0 0.5519599093113371 0.8338706485498044 -4.980707830545851e-17 -4.1316266555592974e-17 -4.980707830545851e-17 -4.1316266555592974e-17 0.551959398976804 0.833870986352816
12646909333.333334 0.5581276038130865 0.8297551312656732 -5.0105899794483166e-17 -4.0933388710672726e-17 -5.0105899794483166e-17 -4.0933388710672726e-17 0.5581270960220692 0.8297554728266784
12647526666.666666 0.5642646136082823 0.8255939957565996 -5.040178269592103e-17 -4.0548355074318303e-17 -5.040178269592103e-17 -4.0548355074318303e-17 0.5642641083884491 0.8255943410564545
12648144000.0 0.5703706012968085 0.821387470793273 -5.06947114993849e-17 -4.0161188165695397e-17 -5.06947114993849e-17 -4.0161188165695397e-17 0.5703700986756827 0.8213878198126298
12648761333.333334 0.5764452311841031 0.8171357876417842 -5.098467086679643e-17 -3.9771910615244685e-17 -5.098467086679643e-17 -3.9771910615244685e-17 0.5764447311890625 0.8171361403610918
12649378666.666666 0.5824881692995453 0.8128391800509597 -5.127164563319001e-17 -3.9380545163355306e-17 -5.127164563319001e-17 -3.9380545163355306e-17 0.5824876719578214 0.8128395364504669
12649996000.0 0.5884990834148643 0.8084978842394808 -5.155562080749924e-17 -3.898711465904081e-17 -5.155562080749924e-17 -3.898711465904081e-17 0.5884985887535393 0.8084982442992346
12650613333.333334 0.5944776430624714 0.804112138882843 -5.1836581573330254e-17 -3.8591642058614206e-17 -5.1836581573330254e-17 -3.8591642058614206e-17 0.594477151108478 0.8041125025826922
12651230666.666666 0.6004235195534688 0.7996821851003539 -5.211451328972394e-17 -3.8194150424359024e-17 -5.211451328972394e-17 -3.8194150424359024e-17 0.600423030333588 0.7996825524199487
12651848000.0 0.6063363859958806 0.7952082664417581 -5.238940149191753e-17 -3.779466292318141e-17 -5.238940149191753e-17 -3.779466292318141e-17 0.6063358995367403 0.7952086373605511
12652465333.333334 0.6122159173125548 0.7906906288738969 -5.266123189208652e-17 -3.739320282527045e-17 -5.266123189208652e-17 -3.739320282527045e-17 0.6122154336406287 0.790691003371146
12653082666.666666 0.6180617902589695 0.7861295207672397 -5.292999038007618e-17 -3.698979350275306e-17 -5.292999038007618e-17 -3.698979350275306e-17 0.6180613094005755 0.7861298988220068
12653700000.0 0.6238736834411599 0.7815251928821051 -5.3195663024133316e-17 -3.6584458428328653e-17 -5.3195663024133316e-17 -3.6584458428328653e-17 0.6238732054224589 0.78152557447326
12654317333.333334 0.6296512773332104 0.7768778983550172 -5.34582360716123e-17 -3.6177221173921507e-17 -5.34582360716123e-17 -3.6177221173921507e-17 0.6296508021802045 0.7768782834612366
12654934666.666666 0.6353942542949769 0.7721878926846634 -5.3717695949686153e-17 -3.576810540930518e-17 -5.3717695949686153e-17 -3.576810540930518e-17 0.6353937820335084 0.7721882812844331
12655552000.0 0.6411022985894834 0.7674554337179019 -5.3974029266036536e-17 -3.535713490073699e-17 -5.3974029266036536e-17 -3.535713490073699e-17 0.6411018292452321 0.7674558257895172
12656169333.333334 0.6467750964002131 0.7626807816356385 -5.422722280953421e-17 -3.494433350958816e-17 -5.422722280953421e-17 -3.494433350958816e-17 0.6467746299986967 0.7626811771572062
12656786666.666666 0.6524123358485161 0.7578641989383949 -5.4477263550918285e-17 -3.452972519095315e-17 -5.4477263550918285e-17 -3.452972519095315e-17 0.6524118724150888 0.7578645978878352
12657404000.0 0.6580137070105836 0.753005950432028 -5.4724138643450504e-17 -3.411333399227791e-17 -5.4724138643450504e-17 -3.411333399227791e-17 0.6580132465704327 0.753006352787074
12658021333.333334 0.663578901934656 0.7481063032130185 -5.496783542357447e-17 -3.36951840519583e-17 -5.496783542357447e-17 -3.36951840519583e-17 0.6635784445128021 0.7481067089512179
12658638666.666666 0.6691076146577839 0.743165526653937 -5.520834141154921e-17 -3.327529959795922e-17 -5.520834141154921e-17 -3.327529959795922e-17 0.6691071602790797 0.7431659357526543
12659256000.0 0.6745995412227982 0.7381838923885039 -5.54456443120858e-17 -3.285370494640533e-17 -5.54456443120858e-17 -3.285370494640533e-17 0.6745990899119269 0.7381843048249217
12659873333.333334 0.680054379694958 0.7331616742967121 -5.567973201496459e-17 -3.243042450018348e-17 -5.567973201496459e-17 -3.243042450018348e-17 0.6800539314764307 0.7331620900478303
12660490666.666666 0.6854718301784859 0.7280991484898259 -5.591059259564178e-17 -3.200548274754072e-17 -5.591059259564178e-17 -3.200548274754072e-17 0.6854713850766417 0.7280995675324653
12661108000.0 0.6908515948332026 0.7229965932950668 -5.613821431585354e-17 -3.157890426066188e-17 -5.613821431585354e-17 -3.157890426066188e-17 0.6908511528722078 0.7229970156058697
12661725333.333334 0.6961933778907368 0.7178542892404681 -5.636258562419738e-17 -3.11507136942674e-17 -5.636258562419738e-17 -3.11507136942674e-17 0.6961929390945812 0.7178547147958987
12662342666.666666 0.7014968856709485 0.7126725190392935 -5.658369515671487e-17 -3.0720935784182665e-17 -5.658369515671487e-17 -3.0720935784182665e-17 0.701496450063447 0.7126729478156405
12662960000.0 0.706761826597913 0.7074515675746531 -5.680153173745529e-17 -3.028959534591947e-17 -5.680153173745529e-17 -3.028959534591947e-17 0.7067613942027018 0.7074519995480301
12663577333.333334 0.7119879112160925 0.702191721883702 -5.701608437902853e-17 -2.9856717273253685e-17 -5.701608437902853e-17 -2.9856717273253685e-17 0.7119874820566294 0.7021921570300494
12664194666.666666 0.7171748522061894 0.6968932711419189 -5.722734228315485e-17 -2.942232653678447e-17 -5.722734228315485e-17 -2.942232653678447e-17 0.717174426305752 0.6968937094370048
12664812000.0 0.7223223644008814 0.6915565066472678 -5.74352948411961e-17 -2.8986448182504264e-17 -5.74352948411961e-17 -2.8986448182504264e-17 0.7223219417825665 0.6915569480666905
12665429333.333334 0.7274301648006425 0.6861817218040446 -5.763993163467683e-17 -2.854910733036348e-17 -5.763993163467683e-17 -2.854910733036348e-17 0.7274297454873628 0.6861821663232316
12666046666.666666 0.732497972589138 0.6807692121069043 -5.784124243579738e-17 -2.8110329172826855e-17 -5.784124243579738e-17 -2.8110329172826855e-17 0.7324975566036236 0.6807696597011162
12666664000.0 0.7375255091488249 0.6753192751244556 -5.803921720794036e-17 -2.7670138973416222e-17 -5.803921720794036e-17 -2.7670138973416222e-17 0.73752509651362 0.6753197257687859
12667281333.333334 0.7425124980761106 0.6698322104830629 -5.823384610615119e-17 -2.7228562065281155e-17 -5.823384610615119e-17 -2.7228562065281155e-17 0.7425120888135741 0.6698326641524405
12667898666.666666 0.7474586651966881 0.6643083198502321 -5.842511947762217e-17 -2.6785623849736746e-17 -5.842511947762217e-17 -2.6785623849736746e-17 0.7474582593289897 0.6643087765194207
12668516000.0 0.7523637385805467 0.6587479069180829 -5.861302786216498e-17 -2.634134979479783e-17 -5.861302786216498e-17 -2.634134979479783e-17 0.7523633361296684 0.658748366561685
12669133333.333334 0.7572274485568706 0.653151277386721 -5.879756199265909e-17 -2.5895765433740215e-17 -5.879756199265909e-17 -2.5895765433740215e-17 0.757227049544604 0.6531517399791772
12669750666.666666 0.7620495277289918 0.6475187389472781 -5.897871279550261e-17 -2.5448896363626845e-17 -5.897871279550261e-17 -2.5448896363626845e-17 0.762049132176938 0.6475192044628705
12670368000.0 0.7668297109889646 0.6418506012651494 -5.915647139104921e-17 -2.5000768243839606e-17 -5.915647139104921e-17 -2.5000768243839606e-17 0.7668293189185316 0.6418510696780008
