! Parameters = {f0=12700.012000; bw=77.238000; Q=6100.000000; N=10; m_0_1=1.281977; m_1_1=0.464909; m_1_2=1.116789; m_2_2=0.464260; m_2_3=0.753752; m_2_8=0.001163; m_2_9=0.037867; m_3_3=0.462323; m_3_4=0.642281; m_3_7=0.001763; m_3_8=-0.095325; m_3_9=0.001163; m_4_4=0.459398; m_4_5=0.478616; m_4_6=0.005280; m_4_7=-0.115874; m_4_8=0.001763; m_5_5=0.459780; m_5_6=0.885971; m_5_7=0.005280; m_6_6=0.459779; m_6_7=0.478958; m_7_7=0.459412; m_7_8=0.642399; m_8_8=0.462321; m_8_9=0.754065; m_9_9=0.464255; m_9_10=1.117867; m_10_10=0.464899; m_10_11=1.282772}
!
! Created with skrf (http://scikit-rf.org).
# Hz S RI R 50.0 
!freq ReS11 ImS11 ReS21 ImS21 ReS12 ImS12 ReS22 ImS22
12607400000.0 0.9826555011903445 -0.1854404647863347 -1.040629755052428e-16 5.3454743484977964e-17 -1.040629755052428e-16 5.3454743484977964e-17 0.9826556264365444 -0.18543980110111946
12608017333.333334 0.9805803735072479 -0.196117646050034 -1.0345029964993132e-16 5.458194017622571e-17 -1.0345029964993132e-16 5.458194017622571e-17 0.9805805059583269 -0.196116983798782
12608634666.666666 0.9783892349741028 -0.20677162495518764 -1.028254237469449e-16 5.570213193885662e-17 -1.028254237469449e-16 5.570213193885662e-17 0.9783893746136872 -0.20677096421610477
12609252000.0 0.9760823448210009 -0.21740114104704403 -1.0218842770380696e-16 5.681518683371882e-17 -1.0218842770380696e-16 5.681518683371882e-17 0.9760824916318664 -0.21740048189814912
12609869333.333334 0.9736599759723896 -0.22800493676511843 -1.0153939285373712e-16 5.792097383127228e-17 -1.0153939285373712e-16 5.792097383127228e-17 0.9736601299364662 -0.22800427928423483
12610486666.666666 0.9711224150148446 -0.2385817575917249 -1.0087840194532588e-16 5.901936282696738e-17 -1.0087840194532588e-16 5.901936282696738e-17 0.9711225761132176 -0.23858110185647094
12611104000.0 0.9684699621630822 -0.249130352200727 -1.0020553913201545e-16 6.011022465655152e-17 -1.0020553913201545e-16 6.011022465655152e-17 0.9684701303759952 -0.24912969828850712
12611721333.333334 0.9657029312245375 -0.2596494726051943 -9.952088996145795e-17 6.1193431111189e-17 -9.952088996145795e-17 6.1193431111189e-17 0.9657031065313945 -0.2596488205931896
12612338666.666666 0.9628216495621709 -0.27013787430532543 -9.882454136467779e-17 6.226885495251047e-17 -9.882454136467779e-17 6.226885495251047e-17 0.9628218319415373 -0.2701372242704845
12612956000.0 0.9598264580557323 -0.28059431643568156 -9.811658164506286e-17 6.333636992755751e-17 -9.811658164506286e-17 6.333636992755751e-17 0.9598266474853405 -0.2805936684547117
12613573333.333334 0.9567177110615043 -0.29101756191174527 -9.739710046725431e-17 6.439585078350687e-17 -9.739710046725431e-17 6.439585078350687e-17 0.9567179075182538 -0.2910169160611031
12614190666.666666 0.9534957763702913 -0.3014063775765786 -9.666618884579903e-17 6.544717328239233e-17 -9.666618884579903e-17 6.544717328239233e-17 0.9534959798302535 -0.3014057339324616
12614808000.0 0.9501610351639829 -0.31175953434647097 -9.59239391336999e-17 6.649021421561198e-17 -9.59239391336999e-17 6.649021421561198e-17 0.950161245602402 -0.3117588929848078
12615425333.333334 0.9467138819703943 -0.32207580735653984 -9.51704450107881e-17 6.752485141833975e-17 -9.51704450107881e-17 6.752485141833975e-17 0.9467140993616916 -0.3220751683529817
12616042666.666666 0.9431547246166259 -0.3323539761055333 -9.440580147194374e-17 6.855096378380014e-17 -9.440580147194374e-17 6.855096378380014e-17 0.9431549489344037 -0.3323533395354455
12616660000.0 0.9394839841808057 -0.342592824600254 -9.363010481516403e-17 6.956843127741053e-17 -9.363010481516403e-17 6.956843127741053e-17 0.9394842153978488 -0.3425921905387061
12617277333.333334 0.9357020949422624 -0.3527911414994467 -9.284345262947615e-17 7.057713495079116e-17 -9.284345262947615e-17 7.057713495079116e-17 0.935702333030542 -0.35279051002120443
12617894666.666666 0.931809504330194 -0.3629477202569775 -9.204594378271318e-17 7.157695695562413e-17 -9.204594378271318e-17 7.157695695562413e-17 0.9318097492608723 -0.3629470914364939
12618512000.0 0.9278066728706295 -0.3730613592648721 -9.123767840910762e-17 7.256778055741589e-17 -9.123767840910762e-17 7.256778055741589e-17 0.9278069246140594 -0.37306073317627764
12619129333.333334 0.9236940741320755 -0.38313086199510077 -9.041875789678915e-17 7.354949014905575e-17 -9.041875789678915e-17 7.354949014905575e-17 0.9236943326578096 -0.3831302387121965
12619746666.666666 0.9194721946693984 -0.39315503714140715 -8.958928487508734e-17 7.452197126429593e-17 -8.958928487508734e-17 7.452197126429593e-17 0.9194724599461888 -0.39315441673765417
12620364000.0 0.9151415339662389 -0.40313269876027114 -8.874936320171002e-17 7.548511059106274e-17 -8.874936320171002e-17 7.548511059106274e-17 0.9151418059620426 -0.40313208130878364
12620981333.333334 0.9107026043760693 -0.4130626664108789 -8.78990979497995e-17 7.643879598460212e-17 -8.78990979497995e-17 7.643879598460212e-17 0.9107028830580508 -0.41306205198441387
12621598666.666666 0.9061559310613951 -0.422943765295195 -8.703859539480378e-17 7.738291648052917e-17 -8.703859539480378e-17 7.738291648052917e-17 0.9061562163959319 -0.42294315396614485
12622216000.0 0.9015020519317263 -0.43277482639671644 -8.616796300125217e-17 7.831736230768111e-17 -8.616796300125217e-17 7.831736230768111e-17 0.9015023438844112 -0.4327742182370999
12622833333.333334 0.8967415175799034 -0.44255468661885505 -8.528730940935643e-17 7.924202490086443e-17 -8.528730940935643e-17 7.924202490086443e-17 0.8967418161155508 -0.442554081700309
12623450666.666666 0.8918748912170068 -0.4522821889224387 -8.439674442151031e-17 8.015679691341185e-17 -8.439674442151031e-17 8.015679691341185e-17 0.891875196299656 -0.4522815873162098
12624068000.0 0.886902748605665 -0.4619561824627281 -8.34963789886245e-17 8.106157222962293e-17 -8.34963789886245e-17 8.106157222962293e-17 0.8869030601985831 -0.46195558423966393
12624685333.333334 0.8818256779919172 -0.47157552272559355 -8.258632519633863e-17 8.195624597703892e-17 -8.258632519633863e-17 8.195624597703892e-17 0.8818259960576048 -0.4715749279561342
12625302666.666666 0.876644280035754 -0.4811390716626696 -8.166669625112945e-17 8.284071453853813e-17 -8.166669625112945e-17 8.284071453853813e-17 0.8766446045359509 -0.4811384804168406
12625920000.0 0.8713591677398547 -0.49064569782637313 -8.073760646623035e-17 8.3714875564334e-17 -8.073760646623035e-17 8.3714875564334e-17 0.8713594986355424 -0.4906451101737757
12626537333.333334 0.8659709663772373 -0.5000942765034365 -7.979917124749184e-17 8.457862798374871e-17 -7.979917124749184e-17 8.457862798374871e-17 0.8659713036286442 -0.5000936925132398
12627154666.666666 0.8604803134172598 -0.5094836898480221 -7.885150707906934e-17 8.543187201687521e-17 -7.885150707906934e-17 8.543187201687521e-17 0.8604806569838676 -0.509483109588956
12627772000.0 0.8548878584500323 -0.5188128270142689 -7.789473150898568e-17 8.627450918607793e-17 -7.789473150898568e-17 8.627450918607793e-17 0.8548882082905789 -0.518812250554615
12628389333.333334 0.8491942631098224 -0.5280805842872726 -7.692896313462168e-17 8.710644232728981e-17 -7.692896313462168e-17 8.710644232728981e-17 0.8491946191823059 -0.5280800116948553
12629006666.666666 0.8434002009965421 -0.5372858652140527 -7.595432158801336e-17 8.792757560120921e-17 -7.595432158801336e-17 8.792757560120921e-17 0.8434005632582305 -0.5372852965562339
12629624000.0 0.837506357596223 -0.5464275807330089 -7.497092752109613e-17 8.873781450427754e-17 -7.497092752109613e-17 8.873781450427754e-17 0.8375067260036538 -0.546427016076677
12630241333.333334 0.8315134301998233 -0.5555046493029064 -7.397890259078697e-17 8.953706587953086e-17 -7.397890259078697e-17 8.953706587953086e-17 0.8315138047088125 -0.555504088714471
12630858666.666666 0.8254221278208287 -0.5645159970306934 -7.297836944399714e-17 9.03252379272471e-17 -7.297836944399714e-17 9.03252379272471e-17 0.8254225083864745 -0.5645154405760755
12631476000.0 0.8192331711111939 -0.5734605577988068 -7.196945170244729e-17 9.110224021549478e-17 -7.196945170244729e-17 9.110224021549478e-17 0.8192335576878831 -0.573460005543433
12632093333.333334 0.8129472922762762 -0.5823372733910237 -7.095227394749743e-17 9.186798369041192e-17 -7.095227394749743e-17 9.186798369041192e-17 0.8129476848176882 -0.5823367253998167
12632710666.666666 0.8065652349881789 -0.5911450936177037 -6.99269617047543e-17 9.262238068640621e-17 -6.99269617047543e-17 9.262238068640621e-17 0.8065656334472922 -0.5911445499550756
12633328000.0 0.8000877542975878 -0.599882976440291 -6.889364142861439e-17 9.336534493614855e-17 -6.889364142861439e-17 9.336534493614855e-17 0.8000881586266849 -0.5998824371701353
12633945333.333334 0.7935156165446543 -0.6085498880942936 -6.785244048672317e-17 9.409679158037962e-17 -6.785244048672317e-17 9.409679158037962e-17 0.7935160266953285 -0.6085493532799781
12634562666.666666 0.7868495992682343 -0.6171448032117256 -6.680348714429623e-17 9.48166371775688e-17 -6.680348714429623e-17 9.48166371775688e-17 0.7868500151913945 -0.6171442729160846
12635180000.0 0.780090491113914 -0.6256667049423948 -6.574691054835432e-17 9.552479971338727e-17 -6.574691054835432e-17 9.552479971338727e-17 0.7800909127597913 -0.6256661792277219
12635797333.333334 0.7732390917406884 -0.6341145850742242 -6.468284071185359e-17 9.62211986100097e-17 -6.468284071185359e-17 9.62211986100097e-17 0.773239519058843 -0.6341140640022662
12636414666.666666 0.7662962117264296 -0.6424874441524472 -6.361140849773148e-17 9.690575473523059e-17 -6.361140849773148e-17 9.690575473523059e-17 0.7662966446657535 -0.6424869277843939
12637032000.0 0.7592626724718764 -0.6507842915979801 -6.253274560282903e-17 9.757839041142119e-17 -6.253274560282903e-17 9.757839041142119e-17 0.7592631109806028 -0.6507837799944598
12637649333.333334 0.7521393061035314 -0.6590041458245306 -6.144698454174701e-17 9.823902942429033e-17 -6.144698454174701e-17 9.823902942429033e-17 0.7521397501292395 -0.6590036390456017
12638266666.666666 0.7449269553751926 -0.6671460343547468 -6.03542586305964e-17 9.888759703147495e-17 -6.03542586305964e-17 9.888759703147495e-17 0.7449274048648148 -0.6671455324598918
12638884000.0 0.7376264735682337 -0.6752089939352948 -5.925470197066147e-17 9.952401997094866e-17 -5.925470197066147e-17 9.952401997094866e-17 0.737626928468059 -0.6752084969834111
12639501333.333334 0.7302387243907037 -0.6831920706507495 -5.814844943196892e-17 1.0014822646925161e-16 -5.814844943196892e-17 1.0014822646925161e-16 0.7302391846463889 -0.6831915787001457
12640118666.666666 0.7227645818751529 -0.6910943200364603 -5.703563663680897e-17 1.0076014624951869e-16 -5.703563663680897e-17 1.0076014624951869e-16 0.7227650474317251 -0.6910938331448467
12640736000.0 0.7152049302749857 -0.6989148071905288 -5.591639994306287e-17 1.0135971053938447e-16 -5.591639994306287e-17 1.0135971053938447e-16 0.7152054010768509 -0.6989143254150121
12641353333.333334 0.7075606639603008 -0.7066526068839474 -5.479087642763551e-17 1.01946852078601e-16 -5.479087642763551e-17 1.01946852078601e-16 0.70756113995125 -0.7066521302810232
12641970666.666666 0.699832687311666 -0.7143068036704905 -5.365920386960683e-17 1.0252150512658247e-16 -5.365920386960683e-17 1.0252150512658247e-16 0.6998331684348809 -0.7143063322960369
12642588000.0 0.6920219146133175 -0.7218764919948134 -5.252152073344034e-17 1.030836054696888e-16 -5.252152073344034e-17 1.030836054696888e-16 0.6920224008113793 -0.7218760259040851
12643205333.333334 0.6841292699449777 -0.7293607762996122 -5.137796615206756e-17 1.0363309042835138e-16 -5.137796615206756e-17 1.0363309042835138e-16 0.6841297611598715 -0.7293603155472318
12643822666.666666 0.6761556870724407 -0.7367587711316486 -5.02286799098919e-17 1.041698988640126e-16 -5.02286799098919e-17 1.041698988640126e-16 0.6761561832455651 -0.7367583157716038
12644440000.0 0.6681021093372076 -0.7440696012464122 -4.90738024257481e-17 1.0469397118586579e-16 -4.90738024257481e-17 1.0469397118586579e-16 0.6681026104093805 -0.7440691513320473
12645057333.333334 0.6599694895448379 -0.7512924017117077 -4.7913474735774055e-17 1.0520524935741457e-16 -4.7913474735774055e-17 1.0520524935741457e-16 0.6599699954563026 -0.7512919572957167
12645674666.666666 0.6517587898523131 -0.75842631800991 -4.6747838476218226e-17 1.0570367690284165e-16 -4.6747838476218226e-17 1.0570367690284165e-16 0.6517593005427461 -0.7584258791443315
12646292000.0 0.6434709816539229 -0.7654705061393012 -4.5577035866160255e-17 1.0618919891319618e-16 -4.5577035866160255e-17 1.0618919891319618e-16 0.6434714970624417 -0.7654700728755118
12646909333.333334 0.6351070454667093 -0.7724241327136075 -4.44012096902261e-17 1.0666176205236679e-16 -4.44012096902261e-17 1.0666176205236679e-16 0.6351075655318791 -0.772423705102317
12647526666.666666 0.6266679708142247 -0.7792863750608005 -4.322050328119009e-17 1.0712131456288378e-16 -4.322050328119009e-17 1.0712131456288378e-16 0.6266684954740664 -0.7792859531520449
12648144000.0 0.6181547561094854 -0.7860564213204064 -4.2035060502506045e-17 1.0756780627153549e-16 -4.2035060502506045e-17 1.0756780627153549e-16 0.6181552853014817 -0.7860560051635415
12648761333.333334 0.6095684085369351 -0.7927334705394803 -4.0845025730847985e-17 1.0800118859476346e-16 -4.0845025730847985e-17 1.0800118859476346e-16 0.6095689421980387 -0.7927330601831775
12649378666.666666 0.6009099439332922 -0.799316732767373 -3.965054383855405e-17 1.0842141454388384e-16 -3.965054383855405e-17 1.0842141454388384e-16 0.6009104819999337 -0.7993163282596124
12649996000.0 0.5921803866672535 -0.8058054291492719 -3.8451760175989295e-17 1.088284387301232e-16 -3.8451760175989295e-17 1.088284387301232e-16 0.5921809290753483 -0.8058050305373372
12650613333.333334 0.5833807695183458 -0.8121987920183102 -3.724882055391047e-17 1.0922221736944148e-16 -3.724882055391047e-17 1.0922221736944148e-16 0.5833813162033018 -0.8121983993487828
12651230666.666666 0.5745121335549263 -0.8184960649862574 -3.604187122577039e-17 1.0960270828716584e-16 -3.604187122577039e-17 1.0960270828716584e-16 0.5745126844516515 -0.8184956783050102
12651848000.0 0.5655755280106444 -0.824696503033269 -3.483105886993493e-17 1.099698709224407e-16 -3.483105886993493e-17 1.099698709224407e-16 0.5655760830535554 -0.8246961223854635
12652465333.333334 0.5565720101606091 -0.830799372595815 -3.361653057191582e-17 1.1032366633246501e-16 -3.361653057191582e-17 1.1032366633246501e-16 0.5565725692836389 -0.8307989980258949
12653082666.666666 0.5475026451962852 -0.8368039516534874 -3.2398433806532927e-17 1.1066405719654114e-16 -3.2398433806532927e-17 1.1066405719654114e-16 0.5475032083328895 -0.8368035832051712
12653700000.0 0.5383685060992328 -0.8427095298145749 -3.1176916420005333e-17 1.109910078199367e-16 -3.1176916420005333e-17 1.109910078199367e-16 0.5383690731823996 -0.8427091675308543
12654317333.333334 0.5291706735144984 -0.8485154083998911 -2.9952126612080386e-17 1.1130448413752776e-16 -2.9952126612080386e-17 1.1130448413752776e-16 0.5291712444767552 -0.8485150523230237
12654934666.666666 0.5199102356225276 -0.8542209005255905 -2.872421291805166e-17 1.1160445371726645e-16 -2.872421291805166e-17 1.1160445371726645e-16 0.5199108103959494 -0.8542205506970952
12655552000.0 0.510588288010421 -0.8598253311844268 -2.749332419077479e-17 1.1189088576344106e-16 -2.749332419077479e-17 1.1189088576344106e-16 0.5105888665266397 -0.8598249876450806
12656169333.333334 0.5012059335425394 -0.8653280373254842 -2.6259609582681176e-17 1.1216375111973246e-16 -2.6259609582681176e-17 1.1216375111973246e-16 0.5012065157327491 -0.865327700115314
12656786666.666666 0.4917642822297776 -0.8707283679327628 -2.5023218527702104e-17 1.1242302227208633e-16 -2.5023218527702104e-17 1.1242302227208633e-16 0.4917648680247462 -0.8707280370910455
12657404000.0 0.4822644510983434 -0.8760256841021472 -2.3784300723210616e-17 1.1266867335137641e-16 -2.3784300723210616e-17 1.1266867335137641e-16 0.4822650404284179 -0.8760253596674005
12658021333.333334 0.4727075640576493 -0.8812193591169597 -2.2543006111932507e-17 1.1290068013587056e-16 -2.2543006111932507e-17 1.1290068013587056e-16 0.47270815685276524 -0.8812190411269396
12658638666.666666 0.4630947517673229 -0.8863087785221265 -2.1299484863825385e-17 1.1311902005350082e-16 -2.1299484863825385e-17 1.1311902005350082e-16 0.46309534795701335 -0.8863084670138238
12659256000.0 0.45342715150328883 -0.8912933401969494 -2.0053887357921144e-17 1.1332367218393584e-16 -2.0053887357921144e-17 1.1332367218393584e-16 0.45342775101669214 -0.8912930352065845
12659873333.333334 0.4437059070234207 -0.8961724544262364 -1.880636416419561e-17 1.1351461726044641e-16 -1.880636416419561e-17 1.1351461726044641e-16 0.44370650978928866 -0.8961721559892547
12660490666.666666 0.4339321684322255 -0.9009455439700712 -1.7557066025396574e-17 1.1369183767157662e-16 -1.7557066025396574e-17 1.1369183767157662e-16 0.43393277437893224 -0.90094525212114
12661108000.0 0.4241070920445221 -0.905612044132232 -1.6306143838825795e-17 1.1385531746262007e-16 -1.6306143838825795e-17 1.1385531746262007e-16 0.42410770110007245 -0.9056117589052348
12661725333.333334 0.4142318402489975 -0.9101714028268253 -1.505374863818708e-17 1.1400504233688435e-16 -1.505374863818708e-17 1.1400504233688435e-16 0.41423245234103495 -0.9101711242548589
12662342666.666666 0.4043075813704034 -0.9146230806437352 -1.3800031575344265e-17 1.1414099965676813e-16 -1.3800031575344265e-17 1.1414099965676813e-16 0.4043081964262202 -0.9146228087591071
12662960000.0 0.39433548953143777 -0.9189665509123952 -1.2545143902123804e-17 1.1426317844463076e-16 -1.2545143902123804e-17 1.1426317844463076e-16 0.39433610747798226 -0.9189662857466181
12663577333.333334 0.38431674451391323 -0.9232012997640594 -1.1289236952093077e-17 1.1437156938346488e-16 -1.1289236952093077e-17 1.1437156938346488e-16 0.38431736527779925 -0.9232010413478486
12664194666.666666 0.37425253161902466 -0.9273268261926714 -1.0032462122339213e-17 1.144661648173687e-16 -1.0032462122339213e-17 1.144661648173687e-16 0.37425315512653906 -0.9273265745559393
12664812000.0 0.36414404152721974 -0.9313426421140849 -8.774970855247337e-18 1.1454695875181844e-16 -8.774970855247337e-18 1.1454695875181844e-16 0.3641446677043329 -0.9313423972859406
12665429333.333334 0.353992470157281 -0.9352482724238358 -7.516914620274034e-18 1.1461394685374176e-16 -7.516914620274034e-18 1.1461394685374176e-16 0.353993098929654 -0.9352480344325789
12666046666.666666 0.34379901852496997 -0.9390432550532957 -6.258444895763692e-18 1.1466712645138845e-16 -6.258444895763692e-18 1.1466712645138845e-16 0.3437996498179649 -0.9390430239264156
12666664000.0 0.33356489260064653 -0.9427271410244541 -4.999713150666624e-18 1.147064965340078e-16 -4.999713150666624e-18 1.147064965340078e-16 0.33356552633933373 -0.9427269167886239
12667281333.333334 0.323291303166963 -0.946299494502892 -3.740870826428441e-18 1.1473205775131875e-16 -3.740870826428441e-18 1.1473205775131875e-16 0.3232919392761312 -0.946299277183968
12667898666.666666 0.3129794656753532 -0.9497598928494467 -2.4820693187299837e-18 1.1474381241278689e-16 -2.4820693187299837e-18 1.1474381241278689e-16 0.3129801040795181 -0.9497596824724638
12668516000.0 0.30263060010223325 -0.9531079266702088 -1.2234599593246885e-18 1.1474176448669878e-16 -1.2234599593246885e-18 1.1474176448669878e-16 0.3026312407256465 -0.9531077232593794
12669133333.333334 0.29224593080488376 -0.9563431998648861 3.480600209949933e-20 1.1472591959903895e-16 3.480600209949933e-20 1.1472591959903895e-16 0.29224657357154143 -0.9563430034435946
12669750666.666666 0.28182668637643626 -0.9594653296737198 1.2925774161000033e-18 1.1469628503216738e-16 1.2925774161000033e-18 1.1469628503216738e-16 0.2818273312100889 -0.959465140264523
12670368000.0 0.27137409950046676 -0.9624739467227842 2.5497032515946834e-18 1.1465286972329829e-16 2.5497032515946834e-18 1.1465286972329829e-16 0.2713747463246271 -0.9624737643474061
