! Parameters = {f0=12700.012000; bw=77.238000; Q=6100.000000; N=10; m_0_1=1.243138; m_1_1=-0.117674; m_1_2=1.077950; m_2_2=-0.118323; m_2_3=0.714913; m_2_8=-0.000779; m_2_9=0.035925; m_3_3=-0.120260; m_3_4=0.603442; m_3_7=-0.000179; m_3_8=-0.097267; m_3_9=-0.000779; m_4_4=-0.123185; m_4_5=0.439777; m_4_6=0.003338; m_4_7=-0.117816; m_4_8=-0.000179; m_5_5=-0.122803; m_5_6=0.847132; m_5_7=0.003338; m_6_6=-0.122804; m_6_7=0.440119; m_7_7=-0.123171; m_7_8=0.603560; m_8_8=-0.120262; m_8_9=0.715226; m_9_9=-0.118328; m_9_10=1.079028; m_10_10=-0.117684; m_10_11=1.243933}
!
! Created with skrf (http://scikit-rf.org).
# Hz S RI R 50.0 
!freq ReS11 ImS11 ReS21 ImS21 ReS12 ImS12 ReS22 ImS22
12607400000.0 -0.2806689695636093 -0.9598046309139856 5.269869569280318e-17 8.176660479979098e-17 5.269869569280318e-17 8.176660479979098e-17 -0.28066834088458803 -0.9598048147539804
12608017333.333334 -0.2899933251124965 -0.957028668008451 5.3488411629700704e-17 8.122939035856253e-17 5.3488411629700704e-17 8.122939035856253e-17 -0.2899926982824428 -0.9570288579466655
12608634666.666666 -0.29929023291367185 -0.9541621227455594 5.427266237569121e-17 8.068455637048368e-17 5.427266237569121e-17 8.068455637048368e-17 -0.29928960799173104 -0.9541623187634201
12609252000.0 -0.30855881301871707 -0.9512052664426913 5.505137449005306e-17 8.013215832754645e-17 5.505137449005306e-17 8.013215832754645e-17 -0.30855819006384827 -0.9512054685210514
12609869333.333334 -0.3177981881605554 -0.948158378965086 5.582447509449667e-17 7.957225242884352e-17 5.582447509449667e-17 7.957225242884352e-17 -0.31779756723152514 -0.9481585870842253
12610486666.666666 -0.32700748383613215 -0.9450217486994644 5.659189187996751e-17 7.90048955748762e-17 5.659189187996751e-17 7.90048955748762e-17 -0.32700686499151005 -0.9450219628390946
12611104000.0 -0.3361858283896715 -0.9417956725265734 5.735355311340659e-17 7.843014536178463e-17 5.735355311340659e-17 7.843014536178463e-17 -0.3361852116878242 -0.9417958926658384
12611721333.333334 -0.34533235309472204 -0.9384804557932432 5.810938764439769e-17 7.784806007555487e-17 5.810938764439769e-17 7.784806007555487e-17 -0.3453317385938074 -0.9384806819107199
12612338666.666666 -0.35444619223656804 -0.9350764122834178 5.885932491182923e-17 7.725869868610775e-17 5.885932491182923e-17 7.725869868610775e-17 -0.3544455799945299 -0.9350766443571203
12612956000.0 -0.36352648319433 -0.9315838641884011 5.960329495045379e-17 7.666212084135431e-17 5.960329495045379e-17 7.666212084135431e-17 -0.36352587326889296 -0.9315841021957817
12613573333.333334 -0.3725723665222908 -0.9280031420764752 6.034122839736928e-17 7.605838686120508e-17 6.034122839736928e-17 7.605838686120508e-17 -0.3725717589709543 -0.9280033859944267
12614190666.666666 -0.38158298603142893 -0.9243345848615471 6.107305649849972e-17 7.544755773146853e-17 6.107305649849972e-17 7.544755773146853e-17 -0.3815823809114622 -0.9243348346664052
12614808000.0 -0.390557488870509 -0.9205785397710473 6.179871111496316e-17 7.482969509772906e-17 6.179871111496316e-17 7.482969509772906e-17 -0.39055688623894547 -0.9205787954385929
12615425333.333334 -0.3994950256066179 -0.9167353623131372 6.251812472939057e-17 7.420486125915333e-17 6.251812472939057e-17 7.420486125915333e-17 -0.39949442552025033 -0.9167356238185991
12616042666.666666 -0.40839475030574934 -0.9128054162429887 6.323123045219989e-17 7.35731191622226e-17 6.323123045219989e-17 7.35731191622226e-17 -0.4083941528211239 -0.912805683561046
12616660000.0 -0.41725582061279043 -0.9087890735283833 6.393796202778756e-17 7.293453239442043e-17 6.393796202778756e-17 7.293453239442043e-17 -0.41725522578620117 -0.9087893466331662
12617277333.333334 -0.42607739783119947 -0.9046867143145321 6.463825384065896e-17 7.228916517785958e-17 6.463825384065896e-17 7.228916517785958e-17 -0.42607680571868395 -0.9046869931796269
12617894666.666666 -0.43485864700241506 -0.900498726888084 6.533204092150341e-17 7.163708236284353e-17 6.533204092150341e-17 7.163708236284353e-17 -0.4348580576597475 -0.9004990114865328
12618512000.0 -0.4435987369850877 -0.896225507640274 6.601925895320577e-17 7.097834942136709e-17 6.601925895320577e-17 7.097834942136709e-17 -0.4435981504677758 -0.8962257979445806
12619129333.333334 -0.452296840533313 -0.8918674610296156 6.669984427677349e-17 7.03130324405794e-17 6.669984427677349e-17 7.03130324405794e-17 -0.4522962568965914 -0.8918677570117465
12619746666.666666 -0.46095213437536636 -0.8874249995434125 6.737373389722546e-17 6.964119811616321e-17 6.737373389722546e-17 6.964119811616321e-17 -0.46095155367419105 -0.8874253011747979
12620364000.0 -0.4695637992914161 -0.8828985436588063 6.804086548939466e-17 6.896291374567704e-17 6.804086548939466e-17 6.896291374567704e-17 -0.4695632215804609 -0.8828988509103467
12620981333.333334 -0.4781310201910179 -0.8782885218030165 6.870117740366477e-17 6.827824722184282e-17 6.870117740366477e-17 6.827824722184282e-17 -0.47813044552466705 -0.8782888346450813
12621598666.666666 -0.4866529861904341 -0.8735953703126889 6.935460867165809e-17 6.758726702575852e-17 6.935460867165809e-17 6.758726702575852e-17 -0.4866524146227795 -0.8735956887151229
12622216000.0 -0.4951288906891868 -0.8688195333927099 7.000109901182723e-17 6.689004222008665e-17 7.000109901182723e-17 6.689004222008665e-17 -0.495128322274021 -0.8688198573248337
12622833333.333334 -0.5035579314466238 -0.8639614630740359 7.064058883500873e-17 6.618664244215758e-17 7.064058883500873e-17 6.618664244215758e-17 -0.5035573662374361 -0.8639617925046501
12623450666.666666 -0.5119393106575543 -0.8590216191710776 7.127301924987953e-17 6.547713789705015e-17 7.127301924987953e-17 6.547713789705015e-17 -0.5119387487075254 -0.8590219540684653
12624068000.0 -0.5202722350280576 -0.8540004692380098 7.189833206836137e-17 6.476159935060259e-17 7.189833206836137e-17 6.476159935060259e-17 -0.5202716763900546 -0.8540008095699404
12624685333.333334 -0.5285559158505159 -0.8488984885245426 7.25164698109636e-17 6.404009812236107e-17 7.25164698109636e-17 6.404009812236107e-17 -0.5285553605770873 -0.8488988342582742
12625302666.666666 -0.5367895690779514 -0.8437161599311341 7.312737571201993e-17 6.331270607851968e-17 7.312737571201993e-17 6.331270607851968e-17 -0.5367890172213212 -0.8437165110334153
12625920000.0 -0.5449724153987424 -0.8384539739629667 7.373099372489939e-17 6.257949562475817e-17 7.373099372489939e-17 6.257949562475817e-17 -0.5449718670108079 -0.8384543304000439
12626537333.333334 -0.553103680309977 -0.8331124286837822 7.432726852710996e-17 6.18405396990725e-17 7.432726852710996e-17 6.18405396990725e-17 -0.5531031354423006 -0.8331127904213977
12627154666.666666 -0.5611825941908309 -0.8276920296686924 7.491614552535046e-17 6.109591176453409e-17 7.491614552535046e-17 6.109591176453409e-17 -0.5611820528946379 -0.8276923966720919
12627772000.0 -0.5692083923757217 -0.8221932899561254 7.549757086048941e-17 6.034568580200037e-17 7.549757086048941e-17 6.034568580200037e-17 -0.5692078547018931 -0.8221936621900584
12628389333.333334 -0.5771803152261619 -0.8166167299996121 7.607149141245321e-17 5.958993630280309e-17 7.607149141245321e-17 5.958993630280309e-17 -0.5771797812252321 -0.8166171074283377
12629006666.666666 -0.5850976082031775 -0.8109628776181751 7.663785480507432e-17 5.882873826134612e-17 7.663785480507432e-17 5.882873826134612e-17 -0.5850970779253278 -0.8109632602054637
12629624000.0 -0.5929595219383961 -0.8052322679465966 7.7196609410823e-17 5.806216716771477e-17 7.7196609410823e-17 5.806216716771477e-17 -0.5929589954334504 -0.8052326556557334
12630241333.333334 -0.6007653123050446 -0.7994254433847188 7.774770435550917e-17 5.729029900018097e-17 7.774770435550917e-17 5.729029900018097e-17 -0.6007647896224649 -0.799425836178508
12630858666.666666 -0.6085142404883812 -0.7935429535461074 7.82910895228666e-17 5.65132102177241e-17 7.82910895228666e-17 5.65132102177241e-17 -0.6085137216772639 -0.7935433513868773
12631476000.0 -0.6162055730558064 -0.7875853552058956 7.882671555911326e-17 5.573097775243723e-17 7.882671555911326e-17 5.573097775243723e-17 -0.6162050581648754 -0.7875857580554982
12632093333.333334 -0.6238385820259174 -0.7815532122483566 7.935453387738195e-17 5.494367900196639e-17 7.935453387738195e-17 5.494367900196639e-17 -0.6238380711035213 -0.7815536200681751
12632710666.666666 -0.6314125449377065 -0.775447095613311 7.987449666210649e-17 5.4151391821866056e-17 7.987449666210649e-17 5.4151391821866056e-17 -0.6314120380318143 -0.775447508364262
12633328000.0 -0.6389267449188751 -0.7692675832421397 8.038655687334304e-17 5.33541945178947e-17 8.038655687334304e-17 5.33541945178947e-17 -0.6389262420770695 -0.7692680008846754
12633945333.333334 -0.6463804707536367 -0.7630152600231127 8.089066825098047e-17 5.255216583832266e-17 8.089066825098047e-17 5.255216583832266e-17 -0.6463799720231127 -0.7630156825172282
12634562666.666666 -0.6537730169500814 -0.7566907177359984 8.138678531889466e-17 5.1745384966168025e-17 8.138678531889466e-17 5.1745384966168025e-17 -0.6537725223776389 -0.7566911450412321
12635180000.0 -0.6611036838068608 -0.7502945549961235 8.187486338903108e-17 5.093393151138751e-17 8.187486338903108e-17 5.093393151138751e-17 -0.6611031934389023 -0.7502949870715631
12635797333.333334 -0.668371777479588 -0.7438273771975652 8.235485856539813e-17 5.011788550304444e-17 8.235485856539813e-17 5.011788550304444e-17 -0.6683712913621137 -0.7438278140018509
12636414666.666666 -0.6755766100462526 -0.7372897964560773 8.282672774797693e-17 4.929732738145204e-17 8.282672774797693e-17 4.929732738145204e-17 -0.6755761282248566 -0.7372902379474066
12637032000.0 -0.6827174995726124 -0.7306824315509105 8.329042863657906e-17 4.847233799023516e-17 8.329042863657906e-17 4.847233799023516e-17 -0.682717022092476 -0.7306828776870393
12637649333.333334 -0.6897937701765822 -0.7240059078663711 8.37459197345991e-17 4.7642998568400964e-17 8.37459197345991e-17 4.7642998568400964e-17 -0.6897932970824721 -0.7240063586046209
12638266666.666666 -0.6968047520921699 -0.7172608573326728 8.419316035269543e-17 4.6809390742362955e-17 8.419316035269543e-17 4.6809390742362955e-17 -0.6968042834284343 -0.7172613126299349
12638884000.0 -0.7037497817329942 -0.710447918366008 8.463211061240308e-17 4.597159651791195e-17 8.463211061240308e-17 4.597159651791195e-17 -0.7037493175435567 -0.7104483781787453
12639501333.333334 -0.7106282017550472 -0.7035677358081583 8.506273144965543e-17 4.512969827217225e-17 8.506273144965543e-17 4.512969827217225e-17 -0.7106277420834037 -0.7035682000924105
12640118666.666666 -0.7174393611187347 -0.6966209608656438 8.548498461821828e-17 4.428377874554282e-17 8.548498461821828e-17 4.428377874554282e-17 -0.7174389060079495 -0.6966214295770317
12640736000.0 -0.7241826151509546 -0.6896082510476197 8.58988326930819e-17 4.343392103353069e-17 8.58988326930819e-17 4.343392103353069e-17 -0.7241821646436559 -0.6896087241413492
12641353333.333334 -0.7308573256054778 -0.6825302701042931 8.630423907371247e-17 4.258020857867323e-17 8.630423907371247e-17 4.258020857867323e-17 -0.7308568797438553 -0.6825307475351619
12641970666.666666 -0.7374628607239171 -0.6753876879635338 8.670116798727802e-17 4.17227251623201e-17 8.670116798727802e-17 4.17227251623201e-17 -0.7374624195497148 -0.6753881696859309
12642588000.0 -0.743998595295259 -0.6681811806677236 8.708958449176618e-17 4.0861554896439447e-17 8.708958449176618e-17 4.0861554896439447e-17 -0.743998158849774 -0.6681816666356369
12643205333.333334 -0.7504639107150075 -0.6609114303098167 8.746945447902356e-17 3.9996782215390716e-17 8.746945447902356e-17 3.9996782215390716e-17 -0.7504634790390858 -0.6609119204768381
12643822666.666666 -0.7568581950439257 -0.6535791249685707 8.784074467771692e-17 3.912849186766224e-17 8.784074467771692e-17 3.912849186766224e-17 -0.7568577681779568 -0.6535796192878975
12644440000.0 -0.7631808430657977 -0.6461849586435832 8.82034226562137e-17 3.825676890757917e-17 8.82034226562137e-17 3.825676890757917e-17 -0.7631804210497135 -0.6461854570680257
12645057333.333334 -0.7694312563446832 -0.6387296311896554 8.855745682537106e-17 3.738169868700795e-17 8.855745682537106e-17 3.738169868700795e-17 -0.7694308392179516 -0.6387301336716393
12645674666.666666 -0.775608843281686 -0.631213848250398 8.890281644125757e-17 3.650336684700011e-17 8.890281644125757e-17 3.650336684700011e-17 -0.7756084310833085 -0.6312143547419697
12646292000.0 -0.7817130191709274 -0.6236383211914615 8.923947160778841e-17 3.5621859309418706e-17 8.923947160778841e-17 3.5621859309418706e-17 -0.7817126119394352 -0.6236388316442925
12646909333.333334 -0.7877432062547836 -0.6160037670333399 8.956739327925838e-17 3.473726226859199e-17 8.956739327925838e-17 3.473726226859199e-17 -0.7877428040282338 -0.6160042813987316
12647526666.666666 -0.793698833778692 -0.6083109083833491 8.988655326282419e-17 3.384966218286286e-17 8.988655326282419e-17 3.384966218286286e-17 -0.7936984365946651 -0.6083114266122378
12648144000.0 -0.7995793380451055 -0.6005604733673229 9.019692422088314e-17 3.2959145766166804e-17 9.019692422088314e-17 3.2959145766166804e-17 -0.7995789459407006 -0.6005609954102833
12648761333.333334 -0.8053841624668937 -0.5927531955606246 9.049847967336581e-17 3.206579997959626e-17 9.049847967336581e-17 3.206579997959626e-17 -0.8053837754787257 -0.592753721367876
12649378666.666666 -0.8111127576198914 -0.584889813918901 9.079119399995877e-17 3.1169712022911616e-17 9.079119399995877e-17 3.1169712022911616e-17 -0.8111123757840876 -0.5848903434403109
12649996000.0 -0.8167645812951042 -0.5769710727078654 9.1075042442238e-17 3.027096932604209e-17 9.1075042442238e-17 3.027096932604209e-17 -0.8167642046473003 -0.5769716058929545
12650613333.333334 -0.822339098549923 -0.5689977214329878 9.135000110571244e-17 2.9369659540588914e-17 9.135000110571244e-17 2.9369659540588914e-17 -0.8223387271252607 -0.5689982582309354
12651230666.666666 -0.8278357817586462 -0.56097051476872 9.161604696179083e-17 2.846587053128967e-17 9.161604696179083e-17 2.846587053128967e-17 -0.827835415591769 -0.5609710551283683
12651848000.0 -0.8332541106626786 -0.552890212486693 9.18731578496674e-17 2.7559690367452262e-17 9.18731578496674e-17 2.7559690367452262e-17 -0.8332537497877294 -0.5528907563565522
12652465333.333334 -0.8385935724195764 -0.5447575793840828 9.212131247810826e-17 2.6651207314422152e-17 9.212131247810826e-17 2.6651207314422152e-17 -0.8385932168701934 -0.5447581267123356
12653082666.666666 -0.8438536616515453 -0.5365733852112977 9.236049042716846e-17 2.5740509824987166e-17 9.236049042716846e-17 2.5740509824987166e-17 -0.8438533114608602 -0.536573935945805
12653700000.0 -0.849033880493538 -0.5283384045987161 9.259067214982366e-17 2.482768653076468e-17 9.259067214982366e-17 2.482768653076468e-17 -0.8490335356941715 -0.5283389586870213
12654317333.333334 -0.854133738640038 -0.5200534169838942 9.281183897350063e-17 2.3912826233638226e-17 9.281183897350063e-17 2.3912826233638226e-17 -0.8541333992640973 -0.5200539743732281
12654934666.666666 -0.8591527533917256 -0.5117192065373838 9.302397310154589e-17 2.2996017897094066e-17 9.302397310154589e-17 2.2996017897094066e-17 -0.8591524194708021 -0.5117197671746703
12655552000.0 -0.8640904497011171 -0.5033365620885818 9.322705761459604e-17 2.2077350637595615e-17 9.322705761459604e-17 2.2077350637595615e-17 -0.8640901212662832 -0.5033371259204429
12656169333.333334 -0.8689463602173566 -0.49490627705136314 9.3421076471858e-17 2.1156913715970512e-17 9.3421076471858e-17 2.1156913715970512e-17 -0.8689460372991606 -0.494906844024123
12656786666.666666 -0.8737200253306773 -0.48642914934859 9.360601451232119e-17 2.0234796528712792e-17 9.360601451232119e-17 2.0234796528712792e-17 -0.8737197079591446 -0.4864297194082814
12657404000.0 -0.8784109932157921 -0.47790598133678713 9.378185745587021e-17 1.9311088599339167e-17 9.378185745587021e-17 1.9311088599339167e-17 -0.8784106814204191 -0.47790655442915564
12658021333.333334 -0.8830188198746435 -0.469337579730223 9.394859190431573e-17 1.8385879569717706e-17 9.394859190431573e-17 1.8385879569717706e-17 -0.8830185136843958 -0.4693381558007323
12658638666.666666 -0.8875430691784576 -0.46072475552450626 9.410620534234268e-17 1.7459259191383493e-17 9.410620534234268e-17 1.7459259191383493e-17 -0.8875427686217676 -0.4607253345183436
12659256000.0 -0.8919833129090472 -0.45206832391977386 9.425468613837411e-17 1.6531317316830652e-17 9.425468613837411e-17 1.6531317316830652e-17 -0.8919830180138117 -0.4520689057818553
12659873333.333334 -0.8963391307993174 -0.4433691042435833 9.439402354534138e-17 1.5602143890849136e-17 9.439402354534138e-17 1.5602143890849136e-17 -0.8963388415928947 -0.4433696889185589
12660490666.666666 -0.9006101105730043 -0.43462791987343957 9.452420770137817e-17 1.467182894180514e-17 9.452420770137817e-17 1.467182894180514e-17 -0.900609827082212 -0.43462850730569863
12661108000.0 -0.9047958479837886 -0.42584559815868606 9.464522963042534e-17 1.3740462572930067e-17 9.464522963042534e-17 1.3740462572930067e-17 -0.9047955702349002 -0.4258461882923621
12661725333.333334 -0.9088959468534654 -0.41702297034237285 9.475708124274783e-17 1.2808134953630041e-17 9.475708124274783e-17 1.2808134953630041e-17 -0.9088956748722078 -0.4170235631213491
12662342666.666666 -0.9129100191094818 -0.40816087148250474 9.485975533537106e-17 1.1874936310752024e-17 9.485975533537106e-17 1.1874936310752024e-17 -0.912909752921035 -0.40816146685042
12662960000.0 -0.9168376848216936 -0.39926014037295193 9.495324559242643e-17 1.0940956919890913e-17 9.495324559242643e-17 1.0940956919890913e-17 -0.916837424450686 -0.39926073827320496
12663577333.333334 -0.9206785722382967 -0.3903216194641082 9.503754658541575e-17 1.0006287096654824e-17 9.503754658541575e-17 1.0006287096654824e-17 -0.9206783177088038 -0.390322219839864
12664194666.666666 -0.924432317820983 -0.3813461547832335 9.511265377338737e-17 9.07101718795702e-18 9.511265377338737e-17 9.07101718795702e-18 -0.924432069156525 -0.3813467575774279
12664812000.0 -0.9280985662794156 -0.37233459585422024 9.517856350302674e-17 8.135237563308137e-18 9.517856350302674e-17 8.135237563308137e-18 -0.9280983235029563 -0.3723352010095666
12665429333.333334 -0.9316769706048336 -0.3632877956172387 9.523527300866394e-17 7.199038606082648e-18 9.523527300866394e-17 7.199038606082648e-18 -0.9316767337387758 -0.3632884030762314
12666046666.666666 -0.9351671921028124 -0.35420661034821715 9.528278041219233e-17 6.262510704827947e-18 9.528278041219233e-17 6.262510704827947e-18 -0.9351669611689987 -0.354207220053139
12666664000.0 -0.9385689004255088 -0.3450918995773207 9.532108472290472e-17 5.32574424453301e-18 9.532108472290472e-17 5.32574424453301e-18 -0.9385686754452173 -0.3450925114702473
12667281333.333334 -0.9418817736027023 -0.33594452600817964 9.535018583724162e-17 4.3888295979441545e-18 9.535018583724162e-17 4.3888295979441545e-18 -0.9418815545966456 -0.33594514003098475
12667898666.666666 -0.9451054980724417 -0.3267653554357835 9.537008453845668e-17 3.451857116844729e-18 9.537008453845668e-17 3.451857116844729e-18 -0.9451052850607663 -0.3267659715301458
12668516000.0 -0.9482397687106908 -0.31755525666461276 9.538078249619435e-17 2.514917123367272e-18 9.538078249619435e-17 2.514917123367272e-18 -0.9482395617129721 -0.31755587477201985
12669133333.333334 -0.9512842888600961 -0.308315101426729 9.538228226598403e-17 1.578099901311979e-18 9.538228226598403e-17 1.578099901311979e-18 -0.9512840878953392 -0.30831572148848396
12669750666.666666 -0.9542387703582144 -0.2990457642988365 9.537458728864853e-17 6.414956874450945e-19 9.537458728864853e-17 6.414956874450945e-19 -0.9542385754448525 -0.29904638625606333
12670368000.0 -0.9571029335647222 -0.2897481226196915 9.535770188962743e-17 -2.9480533715680533e-19 9.535770188962743e-17 -2.9480533715680533e-19 -0.9571027447206127 -0.28974874641334025
12670985333.333334 -0.9598765073878318 -0.28042305640722504 9.533163127821571e-17 -1.2307130557836188e-18 9.533163127821571e-17 -1.2307130557836188e-18 -0.9598763246302564 -0.28042368197807793
