! Parameters = {f0=12700.012000; bw=77.238000; Q=6100.000000; N=10; m_0_1=1.261957; m_1_1=0.164609; m_1_2=1.096769; m_2_2=0.163960; m_2_3=0.733732; m_2_8=0.000162; m_2_9=0.036866; m_3_3=0.162023; m_3_4=0.622261; m_3_7=0.000762; m_3_8=-0.096326; m_3_9=0.000162; m_4_4=0.159098; m_4_5=0.458596; m_4_6=0.004279; m_4_7=-0.116875; m_4_8=0.000762; m_5_5=0.159480; m_5_6=0.865951; m_5_7=0.004279; m_6_6=0.159479; m_6_7=0.458938; m_7_7=0.159112; m_7_8=0.622379; m_8_8=0.162021; m_8_9=0.734045; m_9_9=0.163955; m_9_10=1.097847; m_10_10=0.164599; m_10_11=1.262752}
!
! Created with skrf (http://scikit-rf.org).
# Hz S RI R 50.0 
!freq ReS11 ImS11 ReS21 ImS21 ReS12 ImS12 ReS22 ImS22
12607400000.0 0.7911808744140612 -0.6115822299259748 -6.227213701897384e-17 8.636055647038244e-17 -6.227213701897384e-17 8.636055647038244e-17 0.7911812810479228 -0.6115817038787158
12608017333.333334 0.7848489088562619 -0.6196871712944853 -6.136089097977119e-17 8.69848625386734e-17 -6.136089097977119e-17 8.69848625386734e-17 0.7848493208588349 -0.6196866494828268
12608634666.666666 0.7784339189510615 -0.62772655975856 -6.044339791637e-17 8.759956248080766e-17 -6.044339791637e-17 8.759956248080766e-17 0.7784343362782388 -0.6277260422372837
12609252000.0 0.7719365833009303 -0.6356995448806855 -5.951975900177842e-17 8.820459391439677e-17 -5.951975900177842e-17 8.820459391439677e-17 0.7719370059080456 -0.6356990317041138
12609869333.333334 0.7653575892191513 -0.6436052832477944 -5.859007603058283e-17 8.879989552167575e-17 -5.859007603058283e-17 8.879989552167575e-17 0.7653580170609853 -0.6436047744697849
12610486666.666666 0.7586976326572795 -0.6514429385602898 -5.765445140776712e-17 8.938540705567324e-17 -5.765445140776712e-17 8.938540705567324e-17 0.7586980656880624 -0.6514424342342293
12611104000.0 0.7519574181312092 -0.6592116817208804 -5.671298813743052e-17 8.996106934629074e-17 -5.671298813743052e-17 8.996106934629074e-17 0.7519578563046282 -0.6592111818996808
12611721333.333334 0.745137658646979 -0.6669106909218983 -5.576578981150894e-17 9.052682430622303e-17 -5.576578981150894e-17 9.052682430622303e-17 0.7451381019161814 -0.6669101956579888
12612338666.666666 0.738239075625145 -0.6745391517324681 -5.4812960598376247e-17 9.108261493679853e-17 -5.4812960598376247e-17 9.108261493679853e-17 0.7382395239427426 -0.6745386610777905
12612956000.0 0.7312623988244611 -0.682096257184659 -5.3854605231413375e-17 9.162838533368388e-17 -5.3854605231413375e-17 9.162838533368388e-17 0.7312628521425385 -0.6820957711906638
12613573333.333334 0.7242083662648585 -0.6895812078586616 -5.289082899754485e-17 9.21640806924552e-17 -5.289082899754485e-17 9.21640806924552e-17 0.7242088245349739 -0.6895807265762994
12614190666.666666 0.7170777241491805 -0.6969932119675614 -5.192173772566799e-17 9.268964731407924e-17 -5.192173772566799e-17 9.268964731407924e-17 0.7170781873223747 -0.6969927354472811
12614808000.0 0.7098712267843439 -0.7043314854409937 -5.0947437775080716e-17 9.320503261024341e-17 -5.0947437775080716e-17 9.320503261024341e-17 0.7098716948111427 -0.7043310137327348
12615425333.333334 0.7025896365015055 -0.7115952520081263 -4.996803602381493e-17 9.371018510858807e-17 -4.996803602381493e-17 9.371018510858807e-17 0.7025901093319269 -0.7115947851613145
12616042666.666666 0.6952337235755003 -0.7187837432796956 -4.89836398569474e-17 9.420505445780045e-17 -4.89836398569474e-17 9.420505445780045e-17 0.6952342011590584 -0.7187832813432374
12616660000.0 0.687804266143238 -0.7258961988294109 -4.799435715484762e-17 9.468959143259326e-17 -4.799435715484762e-17 9.468959143259326e-17 0.6878047484289505 -0.7258957418516896
12617277333.333334 0.6803020501214493 -0.7329318662743343 -4.7000296281377104e-17 9.516374793856056e-17 -4.7000296281377104e-17 9.516374793856056e-17 0.6803025370578396 -0.7329314143032022
12617894666.666666 0.6727278691236309 -0.739890001354393 -4.600156607205737e-17 9.562747701690181e-17 -4.600156607205737e-17 9.562747701690181e-17 0.6727283606587373 -0.7398895544371702
12618512000.0 0.6650825243758667 -0.7467698680113243 -4.499827582214823e-17 9.608073284904254e-17 -4.499827582214823e-17 9.608073284904254e-17 0.665083020457244 -0.7467694261947893
12619129333.333334 0.6573668246323605 -0.753570738466266 -4.3990535274749897e-17 9.65234707610995e-17 -4.3990535274749897e-17 9.65234707610995e-17 0.6573673252070901 -0.7535703017966553
12619746666.666666 0.6495815860896774 -0.7602918932969397 -4.2978454608795463e-17 9.695564722824993e-17 -4.2978454608795463e-17 9.695564722824993e-17 0.6495820911043692 -0.7602914618199398
12620364000.0 0.6417276323003769 -0.7669326215137673 -4.196214442702599e-17 9.737721987896514e-17 -4.196214442702599e-17 9.737721987896514e-17 0.6417281417011766 -0.7669321952745114
12620981333.333334 0.6338057940861749 -0.7734922206348421 -4.0941715743963656e-17 9.778814749910145e-17 -4.0941715743963656e-17 9.778814749910145e-17 0.63380630781877 -0.7734917996779049
12621598666.666666 0.6258169094497134 -0.7799699967605381 -3.99172799737649e-17 9.818839003589973e-17 -3.99172799737649e-17 9.818839003589973e-17 0.6258174274593384 -0.7799695811299319
12622216000.0 0.6177618234861059 -0.7863652646467462 -3.888894891810452e-17 9.857790860182845e-17 -3.888894891810452e-17 9.857790860182845e-17 0.6177623457175476 -0.7863648543859135
12622833333.333334 0.6096413882934721 -0.7926773477774124 -3.785683475398953e-17 9.895666547831414e-17 -3.785683475398953e-17 9.895666547831414e-17 0.6096419146910771 -0.7926769429292259
12623450666.666666 0.6014564628828951 -0.7989055784360399 -3.682105002155736e-17 9.932462411933738e-17 -3.682105002155736e-17 9.932462411933738e-17 0.6014569933905733 -0.7989051790427933
12624068000.0 0.5932079130874334 -0.8050492977764024 -3.5781707611814014e-17 9.968174915491036e-17 -3.5781707611814014e-17 9.968174915491036e-17 0.5932084476486672 -0.8050489038798104
12624685333.333334 0.5848966114704877 -0.8111078558922777 -3.473892075435068e-17 1.0002800639442224e-16 -3.473892075435068e-17 1.0002800639442224e-16 0.5848971500283354 -0.8111074675334686
12625302666.666666 0.5765234372338163 -0.8170806118859583 -3.369280300506013e-17 1.0036336282984591e-16 -3.369280300506013e-17 1.0036336282984591e-16 0.5765239797309192 -0.8170802291054706
12625920000.0 0.568089276124048 -0.8229669339364019 -3.264346823375142e-17 1.0068778663884021e-16 -3.264346823375142e-17 1.0068778663884021e-16 0.5680898225026361 -0.8229665567741798
12626537333.333334 0.5595950203393987 -0.828766199365765 -3.1591030611815785e-17 1.010012471876972e-16 -3.1591030611815785e-17 1.010012471876972e-16 0.5595955705412972 -0.8287658278611552
12627154666.666666 0.551041568435131 -0.834477794705394 -3.0535604599822026e-17 1.0130371503417434e-16 -3.0535604599822026e-17 1.0130371503417434e-16 0.5510421224017665 -0.8344774288971406
12627772000.0 0.5424298252283591 -0.8401011157608103 -2.947730493505671e-17 1.0159516193020591e-16 -2.947730493505671e-17 1.0159516193020591e-16 0.5424303829007658 -0.8401007556870511
12628389333.333334 0.5337607017026645 -0.8456355676754054 -2.8416246619126105e-17 1.0187556082445946e-16 -2.8416246619126105e-17 1.0187556082445946e-16 0.5337612630214904 -0.8456352133736681
12629006666.666666 0.5250351149113724 -0.8510805649936011 -2.73525449054361e-17 1.0214488586479041e-16 -2.73525449054361e-17 1.0214488586479041e-16 0.5250356798168856 -0.8510802165007992
12629624000.0 0.516253987880781 -0.8564355317226258 -2.6286315286728345e-17 1.0240311240054541e-16 -2.6286315286728345e-17 1.0240311240054541e-16 0.5162545563128751 -0.8564351890750533
12630241333.333334 0.5074182495124713 -0.8616999013934757 -2.521767348254604e-17 1.0265021698474868e-16 -2.521767348254604e-17 1.0265021698474868e-16 0.5074188214106741 -0.861699564626807
12630858666.666666 0.4985288344850476 -0.8668731171208427 -2.4146735426715353e-17 1.0288617737614938e-16 -2.4146735426715353e-17 1.0288617737614938e-16 0.4985294097885252 -0.8668727862701251
12631476000.0 0.4895866831550896 -0.8719546316621205 -2.3073617254758783e-17 1.0311097254114999e-16 -2.3073617254758783e-17 1.0311097254114999e-16 0.48958726180265477 -0.8719543067617733
12632093333.333334 0.48059274145797276 -0.8769439074751232 -2.199843529135923e-17 1.0332458265558861e-16 -2.199843529135923e-17 1.0332458265558861e-16 0.48059332338808974 -0.8769435885589317
12632710666.666666 0.47154796080765676 -0.8818404167750349 -2.0921306037767545e-17 1.0352698910640024e-16 -2.0921306037767545e-17 1.0352698910640024e-16 0.4715485459584492 -0.8818401038761494
12633328000.0 0.46245329799591683 -0.8866436415903095 -1.9842346159169614e-17 1.0371817449315193e-16 -1.9842346159169614e-17 1.0371817449315193e-16 0.46245388630517376 -0.8866433347412404
12633945333.333334 0.4533097150913295 -0.8913530738173537 -1.8761672472111246e-17 1.0389812262943293e-16 -1.8761672472111246e-17 1.0389812262943293e-16 0.45331030649651083 -0.8913527730499663
12634562666.666666 0.44411817933747516 -0.8959682152742879 -1.767940193185577e-17 1.0406681854412452e-16 -1.767940193185577e-17 1.0406681854412452e-16 0.444118773775721 -0.8959679206198039
12635180000.0 0.43487966305049675 -0.9004885777537168 -1.6595651619752376e-17 1.0422424848253499e-16 -1.6595651619752376e-17 1.0422424848253499e-16 0.43488026045863204 -0.9004882892427076
12635797333.333334 0.42559514351631744 -0.9049136830743314 -1.55105387305898e-17 1.0437039990740402e-16 -1.55105387305898e-17 1.0437039990740402e-16 0.4255957438308583 -0.9049134007367138
12636414666.666666 0.4162656028873363 -0.9092430631314536 -1.44241805599577e-17 1.0450526149977412e-16 -1.44241805599577e-17 1.0450526149977412e-16 0.41626620604449843 -0.9092427869964902
12637032000.0 0.40689202807838015 -0.9134762599466333 -1.3336694491572355e-17 1.0462882315973427e-16 -1.3336694491572355e-17 1.0462882315973427e-16 0.4068926340140849 -0.9134759900429273
12637649333.333334 0.39747541066240555 -0.9176128257160413 -1.2248197984627576e-17 1.0474107600702842e-16 -1.2248197984627576e-17 1.0474107600702842e-16 0.3974760193122864 -0.9176125620715344
12638266666.666666 0.38801674676558146 -0.9216523228578558 -1.1158808561127558e-17 1.0484201238153442e-16 -1.1158808561127558e-17 1.0484201238153442e-16 0.3880173580649907 -0.9216520654998238
12638884000.0 0.3785170369618874 -0.9255943240585585 -1.0068643793217985e-17 1.0493162584361166e-16 -1.0068643793217985e-17 1.0493162584361166e-16 0.37851765084590394 -0.9255940730136106
12639501333.333334 0.368977286167349 -0.9294384123181074 -8.977821290528516e-18 1.0500991117431579e-16 -8.977821290528516e-18 1.0500991117431579e-16 0.36897790257078467 -0.9294381676121826
12640118666.666666 0.3593985035337351 -0.9331841809940511 -7.88645868750739e-18 1.05076864375484e-16 -7.88645868750739e-18 1.05076864375484e-16 0.3593991223911412 -0.933183942652414
12640736000.0 0.3497817023414865 -0.9368312338446658 -6.7946736307222804e-18 1.0513248266968962e-16 -6.7946736307222804e-18 1.0513248266968962e-16 0.34978232358716127 -0.9368310018919062
12641353333.333334 0.3401278998931368 -0.9403791850706352 -5.702583766269521e-18 1.0517676450006038e-16 -5.702583766269521e-18 1.0517676450006038e-16 0.3401285234611327 -0.9403789595306651
12641970666.666666 0.33043811740514234 -0.9438276593560779 -4.610306727056735e-18 1.0520970952997218e-16 -4.610306727056735e-18 1.0520970952997218e-16 0.3304387432292724 -0.9438274402521285
12642588000.0 0.3207133799001189 -0.9471762919081483 -3.517960120184549e-18 1.0523131864260763e-16 -3.517960120184549e-18 1.0523131864260763e-16 0.3207140079139638 -0.9471760792627676
12643205333.333334 0.310954716098384 -0.9504247284956345 -2.4256615143030975e-18 1.0524159394038418e-16 -2.4256615143030975e-18 1.0524159394038418e-16 0.31095534623529963 -0.9504245223306853
12643822666.666666 0.3011631583090009 -0.9535726254864775 -1.333528426968643e-18 1.0524053874425236e-16 -1.333528426968643e-18 1.0524053874425236e-16 0.30116379050212494 -0.9535724258231352
12644440000.0 0.29133974232081994 -0.9566196498840414 -2.416783120375517e-19 1.0522815759286232e-16 -2.416783120375517e-19 1.0522815759286232e-16 0.2913403765030787 -0.9566194567427904
12645057333.333334 0.2814855072927181 -0.9595654793623977 8.49771452948907e-19 1.0520445624159988e-16 8.49771452948907e-19 1.0520445624159988e-16 0.2814861433968347 -0.9595652927630322
12645674666.666666 0.27160149564378433 -0.9624098023003959 1.9407035793486826e-18 1.0516944166149319e-16 1.9407035793486826e-18 1.0516944166149319e-16 0.2716021336022846 -0.9624096222620145
12646292000.0 0.26168875294282706 -0.9651523178146832 3.031000880039402e-18 1.0512312203798661e-16 3.031000880039402e-18 1.0512312203798661e-16 0.2616893926880477 -0.9651521443556904
12646909333.333334 0.25174832779812706 -0.9677927357914373 4.1205462819333205e-18 1.0506550676958759e-16 4.1205462819333205e-18 1.0506550676958759e-16 0.2517489692622221 -0.9677925689295382
12647526666.666666 0.24178127174623731 -0.9703307769171291 5.209222838558808e-18 1.0499660646638126e-16 5.209222838558808e-18 1.0499660646638126e-16 0.24178191486118594 -0.9703306166693312
12648144000.0 0.2317886391407469 -0.9727661727080704 6.296913742587413e-18 1.0491643294841557e-16 6.296913742587413e-18 1.0491643294841557e-16 0.2317892838383601 -0.9727660190906787
12648761333.333334 0.2217714870409679 -0.9750986655387572 7.38350233833215e-18 1.0482499924395829e-16 7.38350233833215e-18 1.0482499924395829e-16 0.22177213325289577 -0.9750985185673735
12649378666.666666 0.21173087509995053 -0.9773280086691661 8.46887213423657e-18 1.0472231958762426e-16 8.46887213423657e-18 1.0472231958762426e-16 0.21173152275768975 -0.9773278683586879
12649996000.0 0.2016678654523605 -0.9794539662708586 9.552906815356128e-18 1.0460840941837187e-16 9.552906815356128e-18 1.0460840941837187e-16 0.20166851448726172 -0.9794538326354784
12650613333.333334 0.1915835226021784 -0.981476313451918 1.0635490255794868e-17 1.0448328537737255e-16 1.0635490255794868e-17 1.0448328537737255e-16 0.19158417294545318 -0.9814761865051201
12651230666.666666 0.1814789133102032 -0.9833948362807153 1.1716506531099143e-17 1.043469653057542e-16 1.1716506531099143e-17 1.043469653057542e-16 0.18147956489293135 -0.983394716035275
12651848000.0 0.17135510648092775 -0.9852093318085939 1.2795839930696035e-17 1.0419946824220832e-16 1.2795839930696035e-17 1.0419946824220832e-16 0.17135575923406476 -0.985209218276577
12652465333.333334 0.16121317304968874 -0.9869196080912964 1.3873374970217853e-17 1.0404081442047887e-16 1.3873374970217853e-17 1.0404081442047887e-16 0.16121382690407288 -0.9869195012840561
12653082666.666666 0.15105418586949165 -0.9885254842092506 1.4948996403839186e-17 1.0387102526671974e-16 1.4948996403839186e-17 1.0387102526671974e-16 0.15105484075585163 -0.9885253841374286
12653700000.0 0.14087921959707142 -0.9900267902867815 1.6022589236609794e-17 1.0369012339671975e-16 1.6022589236609794e-17 1.0369012339671975e-16 0.14087987544603373 -0.9900266969603078
12654317333.333334 0.1306893505797168 -0.9914233675100055 1.709403873668511e-17 1.034981326130124e-16 1.709403873668511e-17 1.034981326130124e-16 0.13069000732181246 -0.9914232809380924
12654934666.666666 0.12048565674110047 -0.9927150681436709 1.8163230447594282e-17 1.0329507790184753e-16 1.8163230447594282e-17 1.0329507790184753e-16 0.12048631430677306 -0.9927149883348172
12655552000.0 0.1102692174672521 -0.9939017555467883 1.9230050200444333e-17 1.0308098543004144e-16 1.9230050200444333e-17 1.0308098543004144e-16 0.11026987578686484 -0.9939016825087761
12656169333.333334 0.10004111349263067 -0.9949833041870513 2.0294384126062383e-17 1.028558825417068e-16 2.0294384126062383e-17 1.028558825417068e-16 0.10004177249647389 -0.9949832379269465
12656786666.666666 0.089802426785518 -0.9959595996541519 2.1356118667156462e-17 1.0261979775484613e-16 2.1356118667156462e-17 1.0261979775484613e-16 0.08980308640381637 -0.9959595401783023
12657404000.0 0.07955424043367695 -0.9968305386718692 2.241514059039703e-17 1.0237276075782846e-16 2.241514059039703e-17 1.0237276075782846e-16 0.07955490059659687 -0.9968304859859034
12658021333.333334 0.06929763852983438 -0.9975960291089859 2.347133699846491e-17 1.0211480240574036e-16 2.347133699846491e-17 1.0211480240574036e-16 0.06929829916749161 -0.9975959832178152
12658638666.666666 0.059033706056974104 -0.9982559899890441 2.4524595342067188e-17 1.0184595471661206e-16 2.4524595342067188e-17 1.0184595471661206e-16 0.059034367099440994 -0.9982559508968605
12659256000.0 0.0487635287733927 -0.9988103514989193 2.557480343192521e-17 1.0156625086751454e-16 2.557480343192521e-17 1.0156625086751454e-16 0.0487641901507055 -0.998810319209194
12659873333.333334 0.03848819309807049 -0.9992590549961874 2.662184945067884e-17 1.012757251905446e-16 2.662184945067884e-17 1.012757251905446e-16 0.03848885474023695 -0.9992590295116734
12660490666.666666 0.028208785995746388 -0.9996020530153356 2.7665621964769318e-17 1.0097441316868177e-16 2.7665621964769318e-17 1.0097441316868177e-16 0.02820944783275303 -0.9996020343380649
12661108000.0 0.017926394861650385 -0.9998393092727912 2.870600993630464e-17 1.0066235143151433e-16 2.870600993630464e-17 1.0066235143151433e-16 0.017927056823469928 -0.9998392974040752
12661725333.333334 0.007642107406843959 -0.9999707986707456 2.974290273480922e-17 1.0033957775086367e-16 2.974290273480922e-17 1.0033957775086367e-16 0.007642769423442791 -0.999970793611177
12662342666.666666 -0.0026429884570409456 -0.9999965072998221 3.0776190148996504e-17 1.0000613103626647e-16 3.0776190148996504e-17 1.0000613103626647e-16 -0.002642326455695439 -0.9999965090492708
12662960000.0 -0.012927804732913958 -0.9999164324405385 3.1805762398446267e-17 9.966205133034985e-17 3.1805762398446267e-17 9.966205133034985e-17 -0.012927142816845935 -0.9999164409981567
12663577333.333334 -0.023211253453233507 -0.9997305825636008 3.283151014525102e-17 9.930737980408073e-17 3.283151014525102e-17 9.930737980408073e-17 -0.023210591692451266 -0.9997305979278184
12664194666.666666 -0.03349224679512463 -0.9994389773290022 3.385332450559307e-17 9.894215875190032e-17 3.385332450559307e-17 9.894215875190032e-17 -0.033491585259613224 -0.9994389994975306
12664812000.0 -0.043769697195453094 -0.9990416475839463 3.487109706129696e-17 9.856643158673187e-17 3.487109706129696e-17 9.856643158673187e-17 -0.043769035955166916 -0.9990416765537772
12665429333.333334 -0.05404251746590033 -0.9985386353595809 3.5884719871301187e-17 9.818024283487643e-17 3.5884719871301187e-17 9.818024283487643e-17 -0.05404185659075581 -0.9985386711269879
12666046666.666666 -0.06430962090782877 -0.9979299938665633 3.6894085483072353e-17 9.778363813079466e-17 3.6894085483072353e-17 9.778363813079466e-17 -0.06430896046769674 -0.9979300364270991
12666664000.0 -0.07456992142757697 -0.9972157874894036 3.789908694400312e-17 9.73766642117532e-17 3.789908694400312e-17 9.73766642117532e-17 -0.07456926149227561 -0.9972158368379052
12667281333.333334 -0.08482233365084087 -0.9963960917796959 3.8899617812683326e-17 9.695936891238323e-17 3.8899617812683326e-17 9.695936891238323e-17 -0.08482167429012803 -0.996396147910281
12667898666.666666 -0.09506577303794221 -0.9954709934480895 3.989557217017785e-17 9.65318011590962e-17 3.989557217017785e-17 9.65318011590962e-17 -0.09506511432150817 -0.9954710563541591
12668516000.0 -0.10529915599844157 -0.9944405903551212 4.0886844631216024e-17 9.609401096439486e-17 4.0886844631216024e-17 9.609401096439486e-17 -0.10529849799590185 -0.9944406600293625
12669133333.333334 -0.11552140000553916 -0.9933049915008927 4.1873330355295175e-17 9.564604942108118e-17 4.1873330355295175e-17 9.564604942108118e-17 -0.11552074278642663 -0.9933050679352738
12669750666.666666 -0.12573142371087045 -0.9920643170135013 4.285492505777539e-17 9.518796869632602e-17 4.285492505777539e-17 9.518796869632602e-17 -0.1257307673446288 -0.9920644001992807
12670368000.0 -0.13592814705878345 -0.990718698136355 4.383152502085887e-17 9.471982202564887e-17 4.383152502085887e-17 9.471982202564887e-17 -0.13592749161475895 -0.9907187880640741
