! Parameters = {f0=12700.012000; bw=77.238000; Q=6100.000000; N=10; m_0_1=1.318213; m_1_1=1.008453; m_1_2=1.153025; m_2_2=1.007804; m_2_3=0.789988; m_2_8=0.002974; m_2_9=0.039678; m_3_3=1.005867; m_3_4=0.678517; m_3_7=0.003574; m_3_8=-0.093514; m_3_9=0.002974; m_4_4=1.002942; m_4_5=0.514852; m_4_6=0.007091; m_4_7=-0.114063; m_4_8=0.003574; m_5_5=1.003324; m_5_6=0.922207; m_5_7=0.007091; m_6_6=1.003323; m_6_7=0.515194; m_7_7=1.002956; m_7_8=0.678635; m_8_8=1.005865; m_8_9=0.790301; m_9_9=1.007799; m_9_10=1.154103; m_10_10=1.008443; m_10_11=1.319008}
!
! Created with skrf (http://scikit-rf.org).
# Hz S RI R 50.0 
!freq ReS11 ImS11 ReS21 ImS21 ReS12 ImS12 ReS22 ImS22
12607400000.0 -0.9962164594865737 0.08690665019345169 1.2850620164510048e-16 -5.058723661564927e-17 1.2850620164510048e-16 -5.058723661564927e-17 -0.9962165198362241 0.08690595839878963
12608017333.333334 -0.9951069917399701 0.0988032134600745 1.2786294994632554e-16 -5.212014911564012e-17 1.2786294994632554e-16 -5.212014911564012e-17 -0.9951070603474977 0.09880252246967784
12608634666.666666 -0.9938554633790707 0.11068567166251636 1.2720142448578074e-16 -5.3644909866685396e-17 1.2720142448578074e-16 -5.3644909866685396e-17 -0.9938555402338729 0.11068498157494669
12609252000.0 -0.992462053071076 0.12255232847137612 1.2652172825255846e-16 -5.516130117251574e-17 1.2652172825255846e-16 -5.516130117251574e-17 -0.9924621381613736 0.12255163938505646
12609869333.333334 -0.9909269597381365 0.13440148981296263 1.258239668274216e-16 -5.666910663442374e-17 1.258239668274216e-16 -5.666910663442374e-17 -0.990927053050977 0.1344008018261636
12610486666.666666 -0.9892504025289579 0.14623146411119697 1.251082483665188e-16 -5.81681111820504e-17 1.251082483665188e-16 -5.81681111820504e-17 -0.9892505040502163 0.1462307773220226
12611104000.0 -0.9874326207874766 0.15804056252932477 1.2437468358468018e-16 -5.965810110408074e-17 1.2437468358468018e-16 -5.965810110408074e-17 -0.9874327305018561 0.15803987703569833
12611721333.333334 -0.9854738740187563 0.16982709921056274 1.2362338573841821e-16 -6.113886407858584e-17 1.2362338573841821e-16 -6.113886407858584e-17 -0.9854739919097935 0.16982641511021315
12612338666.666666 -0.9833744418518968 0.18158939151910858 1.2285447060850075e-16 -6.261018920328903e-17 1.2285447060850075e-16 -6.261018920328903e-17 -0.983374567901962 0.18158870890955625
12612956000.0 -0.9811346240000919 0.1933257602804351 1.2206805648219905e-16 -6.407186702554434e-17 1.2206805648219905e-16 -6.407186702554434e-17 -0.9811347581903924 0.19332507925897816
12613573333.333334 -0.9787547402179251 0.20503453002056096 1.2126426413519678e-16 -6.552368957206197e-17 1.2126426413519678e-16 -6.552368957206197e-17 -0.9787548825285085 0.20503385068426117
12614190666.666666 -0.9762351302556277 0.21671402920574198 1.204432168130937e-16 -6.696545037850916e-17 1.204432168130937e-16 -6.696545037850916e-17 -0.9762352806653845 0.21671335165141123
12614808000.0 -0.9735761538106494 0.22836259048073645 1.1960504021261265e-16 -6.839694451877633e-17 1.1960504021261265e-16 -6.839694451877633e-17 -0.9735763122973151 0.22836191480492266
12615425333.333334 -0.9707781904762528 0.23997855090708473 1.1874986246241936e-16 -6.981796863408552e-17 1.1874986246241936e-16 -6.981796863408552e-17 -0.9707783570164118 0.23997787720605793
12616042666.666666 -0.9678416396873714 0.2515602522002866 1.1787781410362857e-16 -7.122832096180173e-17 1.1787781410362857e-16 -7.122832096180173e-17 -0.9678418142564631 0.2515595805700262
12616660000.0 -0.9647669206635399 0.2631060409667593 1.1698902806993835e-16 -7.262780136405645e-17 1.1698902806993835e-16 -7.262780136405645e-17 -0.9647671032358587 0.26310537150293944
12617277333.333334 -0.9615544723490896 0.27461426893968033 1.1608363966745296e-16 -7.401621135607759e-17 1.1608363966745296e-16 -7.401621135607759e-17 -0.9615546628977898 0.27461360173765625
12617894666.666666 -0.958204753350467 0.28608329321437553 1.1516178655416293e-16 -7.539335413428251e-17 1.1516178655416293e-16 -7.539335413428251e-17 -0.9582049518475666 0.28608262836917053
12618512000.0 -0.9547182418707374 0.2975114764829406 1.1422360871905962e-16 -7.675903460416555e-17 1.1422360871905962e-16 -7.675903460416555e-17 -0.954718448287123 0.29751081408923213
12619129333.333334 -0.9510954356413668 0.30889718726781795 1.1326924846098358e-16 -7.811305940783254e-17 1.1326924846098358e-16 -7.811305940783254e-17 -0.951095649946798 0.3088965274199246
12619746666.666666 -0.9473368518511511 0.3202388001547607 1.122988503670961e-16 -7.945523695134805e-17 1.122988503670961e-16 -7.945523695134805e-17 -0.947337074014263 0.3202381429466279
12620364000.0 -0.9434430270723093 0.33153469602508967 1.1131256129102788e-16 -8.078537743181562e-17 1.1131256129102788e-16 -8.078537743181562e-17 -0.9434432570606188 0.33153404155027705
12620981333.333334 -0.9394145171840369 0.34278326228638023 1.1031053033076251e-16 -8.210329286411256e-17 1.1031053033076251e-16 -8.210329286411256e-17 -0.939414754963948 0.3427826106380484
12621598666.666666 -0.9352518972929846 0.3539828931031586 1.0929290880612274e-16 -8.340879710746089e-17 1.0929290880612274e-16 -8.340879710746089e-17 -0.9352521428297917 0.35398224437405523
12622216000.0 -0.9309557616512798 0.3651319896258013 1.0825985023601656e-16 -8.470170589162412e-17 1.0825985023601656e-16 -8.470170589162412e-17 -0.9309560149091721 0.365131343908248
12622833333.333334 -0.926526723571588 0.3762289602190503 1.0721151031531898e-16 -8.598183684289395e-17 1.0721151031531898e-16 -8.598183684289395e-17 -0.9265269845136584 0.3762283176049305
12623450666.666666 -0.9219654153396776 0.3872722206889445 1.0614804689150091e-16 -8.72490095097251e-17 1.0614804689150091e-16 -8.72490095097251e-17 -0.9219656839279239 0.38727158126968897
12624068000.0 -0.9172724881240656 0.3982601945091879 1.0506961994089683e-16 -8.850304538815433e-17 1.0506961994089683e-16 -8.850304538815433e-17 -0.9172727643193994 0.3982595583757631
12624685333.333334 -0.9124486118830151 0.4091913130463179 1.0397639154470748e-16 -8.974376794688507e-17 1.0397639154470748e-16 -8.974376794688507e-17 -0.9124488956452643 0.4091906802892115
12625302666.666666 -0.9074944752690811 0.420064015783197 1.0286852586473561e-16 -9.097100265204439e-17 1.0286852586473561e-16 -9.097100265204439e-17 -0.9074947665569987 0.4200633864924066
12625920000.0 -0.9024107855305371 0.4308767505423905 1.0174618911874075e-16 -9.218457699174426e-17 1.0174618911874075e-16 -9.218457699174426e-17 -0.9024110843018049 0.4308761248074097
12626537333.333334 -0.8971982684106654 0.44162797370718315 1.0060954955561607e-16 -9.33843205002142e-17 1.0060954955561607e-16 -9.33843205002142e-17 -0.8971985746219024 0.44162735161698974
12627154666.666666 -0.8918576680439879 0.45231615044230805 9.945877743020388e-17 -9.457006478171616e-17 9.945877743020388e-17 -9.457006478171616e-17 -0.8918579816507539 0.45231553208535
12627772000.0 -0.8863897468500517 0.46293975491300354 9.829404497782852e-17 -9.574164353414859e-17 9.829404497782852e-17 -9.574164353414859e-17 -0.886390067806855 0.4629391403771876
12628389333.333334 -0.8807952854246769 0.4734972705026631 9.711552638863454e-17 -9.689889257225464e-17 9.711552638863454e-17 -9.689889257225464e-17 -0.8807956136849825 0.47349665987534223
12629006666.666666 -0.8750750824283673 0.4839871900296508 9.592339778153402e-17 -9.80416498506342e-17 9.592339778153402e-17 -9.80416498506342e-17 -0.8750754179446004 0.4839865833976109
12629624000.0 -0.8692299544724742 0.4944080159621109 9.471783717798425e-17 -9.916975548633788e-17 9.471783717798425e-17 -9.916975548633788e-17 -0.8692302971960317 0.4944074134115604
12630241333.333334 -0.863260736002447 0.5047582606320817 9.349902447544982e-17 -1.0028305178118801e-16 9.349902447544982e-17 -1.0028305178118801e-16 -0.8632610858836987 0.5047576622486363
12630858666.666666 -0.8571682791788999 0.515036446447525 9.226714142062667e-17 -1.0138138324375376e-16 9.226714142062667e-17 -1.0138138324375376e-16 -0.8571686361672003 0.5150358523161983
12631476000.0 -0.85095345375569 0.5252411061037341 9.102237158235637e-17 -1.0246459661104463e-16 9.102237158235637e-17 -1.0246459661104463e-16 -0.8509538177993833 0.5252405163089239
12632093333.333334 -0.8446171469560372 0.535370782792314 8.97649003243857e-17 -1.0353254086978437e-16 8.97649003243857e-17 -1.0353254086978437e-16 -0.8446175180024661 0.535370197417791
12632710666.666666 -0.8381602633457407 0.5454240304093773 8.849491477778136e-17 -1.0458506727743659e-16 8.849491477778136e-17 -1.0458506727743659e-16 -0.8381606413412537 0.5454234495382734
12633328000.0 -0.8315837247039167 0.5553994137621776 8.721260381313058e-17 -1.056220293828639e-16 8.721260381313058e-17 -1.056220293828639e-16 -0.8315841095938747 0.555398837476973
12633945333.333334 -0.8248884698916522 0.5652955087736139 8.591815801254346e-17 -1.0664328304661324e-16 8.591815801254346e-17 -1.0664328304661324e-16 -0.8248888616204377 0.5652949371561266
12634562666.666666 -0.8180754547177721 0.5751109026858404 8.4611769641346e-17 -1.0764868646091754e-16 8.4611769641346e-17 -1.0764868646091754e-16 -0.8180758532287963 0.5751103358172134
12635180000.0 -0.8111456518025297 0.5848441942617361 8.3293632619604e-17 -1.0863810016930053e-16 8.3293632619604e-17 -1.0863810016930053e-16 -0.8111460570382428 0.5848436322224282
12635797333.333334 -0.8041000504386157 0.5944939939851596 8.196394249336356e-17 -1.0961138708587703e-16 8.196394249336356e-17 -1.0961138708587703e-16 -0.8041004623405114 0.5944934368549305
12636414666.666666 -0.7969396564501183 0.6040589242590306 8.062289640573193e-17 -1.1056841251425207e-16 8.062289640573193e-17 -1.1056841251425207e-16 -0.7969400749587461 0.6040583721169328
12637032000.0 -0.7896654920487067 0.6135376196023236 7.9270693067658e-17 -1.1150904416612835e-16 7.9270693067658e-17 -1.1150904416612835e-16 -0.7896659171036774 0.6135370725266885
12637649333.333334 -0.7822785956878954 0.6229287268447212 7.79075327285778e-17 -1.1243315217949625e-16 7.79075327285778e-17 -1.1243315217949625e-16 -0.7822790272278926 0.6229281849131508
12638266666.666666 -0.7747800219146477 0.6322309053200016 7.653361714678334e-17 -1.1334060913651482e-16 7.653361714678334e-17 -1.1334060913651482e-16 -0.7747804598774348 0.6322303686093553
12638884000.0 -0.7671708412189665 0.6414428270572479 7.514914955963794e-17 -1.1423129008099255e-16 7.514914955963794e-17 -1.1423129008099255e-16 -0.7671712855413957 0.641442295643632
12639501333.333334 -0.7594521398809106 0.6505631769706278 7.375433465353463e-17 -1.1510507253554258e-16 7.375433465353463e-17 -1.1510507253554258e-16 -0.7594525904989332 0.6505626509293859
12640118666.666666 -0.7516250198157765 0.6595906530468314 7.234937853373138e-17 -1.1596183651832345e-16 7.234937853373138e-17 -1.1596183651832345e-16 -0.7516254766644503 0.6595901324525318
12640736000.0 -0.7436905984163416 0.6685239665314585 7.093448869386746e-17 -1.1680146455949026e-16 7.093448869386746e-17 -1.1680146455949026e-16 -0.743691061429843 0.668523451457886
12641353333.333334 -0.7356500083939295 0.6773618421123404 6.950987398547629e-17 -1.1762384171716197e-16 6.950987398547629e-17 -1.1762384171716197e-16 -0.7356504775055593 0.677361332632483
12641970666.666666 -0.727504397616251 0.6861030181021117 6.80757445871105e-17 -1.184288555931391e-16 6.80757445871105e-17 -1.184288555931391e-16 -0.7275048727584479 0.6861025142881533
12642588000.0 -0.7192549289436695 0.6947462466181795 6.663231197344381e-17 -1.192163963481528e-16 6.663231197344381e-17 -1.192163963481528e-16 -0.7192554100480163 0.6947457485414865
12643205333.333334 -0.7109027800633053 0.7032902937607443 6.517978888411048e-17 -1.1998635671678985e-16 6.517978888411048e-17 -1.1998635671678985e-16 -0.710903267060542 0.7032898014918587
12643822666.666666 -0.7024491433206993 0.7117339397891793 6.371838929239639e-17 -1.207386320220234e-16 6.371838929239639e-17 -1.207386320220234e-16 -0.7024496361407299 0.711733453397806
12644440000.0 -0.6938952255497453 0.7200759792959903 6.224832837379178e-17 -1.2147312018934982e-16 6.224832837379178e-17 -1.2147312018934982e-16 -0.6938957241216505 0.7200754988509893
12645057333.333334 -0.685242247900431 0.7283152213788857 6.076982247434817e-17 -1.2218972176056219e-16 6.076982247434817e-17 -1.2218972176056219e-16 -0.685242752152477 0.728314746948261
12645674666.666666 -0.6764914456644675 0.7364504898108285 5.928308907887739e-17 -1.2288833990713802e-16 5.928308907887739e-17 -1.2288833990713802e-16 -0.676491955524117 0.7364500214617192
12646292000.0 -0.66764406809873 0.7444806232081452 5.778834677900864e-17 -1.2356888044323578e-16 5.778834677900864e-17 -1.2356888044323578e-16 -0.6676445834926521 0.7444801610068155
12646909333.333334 -0.658701378247333 0.7524044751959384 5.628581524111532e-17 -1.2423125183829543e-16 5.628581524111532e-17 -1.2423125183829543e-16 -0.6587018991014131 0.7524040192077676
12647526666.666666 -0.6496646527609612 0.7602209145720671 5.477571517407459e-17 -1.248753652292624e-16 5.477571517407459e-17 -1.248753652292624e-16 -0.6496651790003141 0.760220464861543
12648144000.0 -0.6405351817147016 0.7679288254685621 5.325826829687369e-17 -1.255011344324247e-16 5.325826829687369e-17 -1.255011344324247e-16 -0.6405357132636794 0.7679283820992686
12648761333.333334 -0.6313142684239996 0.7755271075108091 5.173369730612906e-17 -1.261084759548382e-16 5.173369730612906e-17 -1.261084759548382e-16 -0.6313148052062042 0.775526670545419
12649378666.666666 -0.6220032292585594 0.7830146759746816 5.0202225843459023e-17 -1.266973090053659e-16 5.0202225843459023e-17 -1.266973090053659e-16 -0.6220037711968537 0.7830142454749482
12649996000.0 -0.6126033934542439 0.7903904619415362 4.8664078462700024e-17 -1.2726755550533472e-16 4.8664078462700024e-17 -1.2726755550533472e-16 -0.6126039404707623 0.7903900379682839
12650613333.333334 -0.6031161029235346 0.7976534124506329 4.711948059702822e-17 -1.2781914009878423e-16 4.711948059702822e-17 -1.2781914009878423e-16 -0.6031166549396931 0.7976529950637471
12651230666.666666 -0.593542712063871 0.8048024906495235 4.556865852600705e-17 -1.2835199016230302e-16 4.556865852600705e-17 -1.2835199016230302e-16 -0.5935432690003802 0.8048020799079444
12651848000.0 -0.583884587564255 0.8118366759421077 4.4011839342423016e-17 -1.2886603581450281e-16 4.4011839342423016e-17 -1.2886603581450281e-16 -0.5838851493411313 0.8118362719038215
12652465333.333334 -0.574143108210164 0.818754964134315 4.244925091912231e-17 -1.2936120992505348e-16 4.244925091912231e-17 -1.2936120992505348e-16 -0.5741436747467399 0.8187545668563444
12653082666.666666 -0.5643196646869021 0.8255563675773283 4.0881121875714923e-17 -1.2983744812332875e-16 4.0881121875714923e-17 -1.2983744812332875e-16 -0.5643202359018394 0.8255559771157273
12653700000.0 -0.554415659380651 0.8322399153088791 3.9307681545109626e-17 -1.3029468880667188e-16 3.9307681545109626e-17 -1.3029468880667188e-16 -0.5544162351919504 0.8322395317187204
12654317333.333334 -0.5444325061787753 0.8388046531914976 3.7729159940102915e-17 -1.3073287314821268e-16 3.7729159940102915e-17 -1.3073287314821268e-16 -0.5444330865037909 0.8388042765268704
12654934666.666666 -0.5343716302675623 0.8452496440490225 3.614578771973436e-17 -1.311519451043242e-16 3.614578771973436e-17 -1.311519451043242e-16 -0.5343722150230107 0.8452492743630202
12655552000.0 -0.5242344679289441 0.8515739678002543 3.455779615565771e-17 -1.3155185142164403e-16 3.455779615565771e-17 -1.3155185142164403e-16 -0.524235057030918 0.8515736051449698
12656169333.333334 -0.5140224663354841 0.8577767215902966 3.296541709841113e-17 -1.3193254164369897e-16 3.296541709841113e-17 -1.3193254164369897e-16 -0.5140230596994642 0.8577763660168145
12656786666.666666 -0.5037370833437321 0.8638570199194779 3.13688829436047e-17 -1.322939681171222e-16 3.13688829436047e-17 -1.322939681171222e-16 -0.5037376808845985 0.8638566714778657
12657404000.0 -0.493379787286027 0.869813994769805 2.9768426598039004e-17 -1.3263608599746478e-16 2.9768426598039004e-17 -1.3263608599746478e-16 -0.4933803889180719 0.8698136535091081
12658021333.333334 -0.48295205676100106 0.8756467957288088 2.816428144579262e-17 -1.3295885325458974e-16 2.816428144579262e-17 -1.3295885325458974e-16 -0.48295266239794155 0.8756464616970427
12658638666.666666 -0.47245538042254914 0.881354590110925 2.6556681314242777e-17 -1.3326223067766092e-16 2.6556681314242777e-17 -1.3326223067766092e-16 -0.47245598997753846 0.8813542633550683
12659256000.0 -0.46189125676700854 0.8869365630765284 2.4945860439981827e-17 -1.3354618187973052e-16 2.4945860439981827e-17 -1.3354618187973052e-16 -0.4618918701526497 0.8869362436425176
12659873333.333334 -0.4512611939195099 0.8923919177481099 2.3332053434774943e-17 -1.3381067330189977e-16 2.3332053434774943e-17 -1.3381067330189977e-16 -0.4512618110478671 0.8923916056808303
12660490666.666666 -0.44056670941875614 0.8977198753240018 2.1715495251446602e-17 -1.3405567421707455e-16 2.1715495251446602e-17 -1.3405567421707455e-16 -0.44056733020136774 0.8977195706672829
12661108000.0 -0.4298093299999473 0.9029196751897743 2.009642114965467e-17 -1.342811567333217e-16 2.009642114965467e-17 -1.342811567333217e-16 -0.4298099543478392 0.9029193779863846
12661725333.333334 -0.41899059137736144 0.9079905750265582 1.8475066661782158e-17 -1.3448709579679014e-16 1.8475066661782158e-17 -1.3448709579679014e-16 -0.4189912192010591 0.9079902853181977
12662342666.666666 -0.40811203802475926 0.9129318509171912 1.6851667558646293e-17 -1.3467346919424346e-16 1.6851667558646293e-17 -1.3467346919424346e-16 -0.40811266923430034 0.9129315687444852
12662960000.0 -0.39717522295497254 0.9177427974495249 1.5226459815308556e-17 -1.3484025755516176e-16 1.5226459815308556e-17 -1.3484025755516176e-16 -0.39717585745992035 0.917742522852019
12663577333.333334 -0.38618170749822245 0.9224227278171159 1.3599679576784585e-17 -1.3498744435344402e-16 1.3599679576784585e-17 -1.3498744435344402e-16 -0.3861823452076789 0.9224224608332715
12664194666.666666 -0.37513306107930555 0.9269709739172431 1.1971563123807702e-17 -1.3511501590868843e-16 1.1971563123807702e-17 -1.3511501590868843e-16 -0.3751337019019241 0.926970714584431
12664812000.0 -0.36403086099335924 0.9313868864463601 1.0342346838528751e-17 -1.3522296138706714e-16 1.0342346838528751e-17 -1.3522296138706714e-16 -0.3640315048373574 0.9313866348008546
12665429333.333334 -0.35287669218084705 0.9356698349927267 8.712267170249101e-18 -1.3531127280178452e-16 8.712267170249101e-18 -1.3531127280178452e-16 -0.3528773389540202 0.9356695910697009
12666046666.666666 -0.3416721470013464 0.9398192081263828 7.081560601180432e-18 -1.3537994501312253e-16 7.081560601180432e-18 -1.3537994501312253e-16 -0.34167279661108113 0.939818971959906
12666664000.0 -0.3304188250058547 0.9438344134865828 5.450463612112996e-18 -1.3542897572807878e-16 5.450463612112996e-18 -1.3542897572807878e-16 -0.33041947735914096 0.9438341851096113
12667281333.333334 -0.3191183327089953 0.9477148778661452 3.8192126482476144e-18 -1.3545836549958523e-16 3.8192126482476144e-18 -1.3545836549958523e-16 -0.319118987712441 0.9477146573105215
12667898666.666666 -0.30777228335922147 0.951460047293454 2.18804408491525e-18 -1.3546811772532094e-16 2.18804408491525e-18 -1.3546811772532094e-16 -0.30777294091906526 0.9514598345899007
12668516000.0 -0.29638229670858834 0.9550693871115093 5.5719419335855655e-19 -1.3545823864611095e-16 5.5719419335855655e-19 -1.3545823864611095e-16 -0.29638295673071274 0.9550691822896246
12669133333.333334 -0.2849499987818155 0.9585423820541558 -1.0731008933850128e-18 -1.354287373439139e-16 -1.0731008933850128e-18 -1.354287373439139e-16 -0.28495066117176115 0.9585421851424109
12669750666.666666 -0.27347702164383453 0.9618785363197522 -2.7026052146938375e-18 -1.3537962573939966e-16 -2.7026052146938375e-18 -1.3537962573939966e-16 -0.2734776863068133 0.9618783473454865
12670368000.0 -0.26196500316682153 0.9650773736419371 -4.331083016442051e-18 -1.3531091858911611e-16 -4.331083016442051e-18 -1.3531091858911611e-16 -0.26196567000772963 0.9650771926313528
