! Parameters = {f0=12700.012000; bw=77.238000; Q=6100.000000; N=10; m_0_1=1.180876; m_1_1=-1.051608; m_1_2=1.015688; m_2_2=-1.052257; m_2_3=0.652651; m_2_8=-0.003893; m_2_9=0.032811; m_3_3=-1.054194; m_3_4=0.541180; m_3_7=-0.003293; m_3_8=-0.100381; m_3_9=-0.003893; m_4_4=-1.057119; m_4_5=0.377515; m_4_6=0.000224; m_4_7=-0.120930; m_4_8=-0.003293; m_5_5=-1.056737; m_5_6=0.784870; m_5_7=0.000224; m_6_6=-1.056738; m_6_7=0.377857; m_7_7=-1.057105; m_7_8=0.541298; m_8_8=-1.054196; m_8_9=0.652964; m_9_9=-1.052262; m_9_10=1.016766; m_10_10=-1.051618; m_10_11=1.181671}
!
! Created with skrf (http://scikit-rf.org).
# Hz S RI R 50.0 
!freq ReS11 ImS11 ReS21 ImS21 ReS12 ImS12 ReS22 ImS22
12607400000.0 -0.3603783487020321 -0.9328062209197816 4.348496156171225e-17 5.641515286307097e-17 4.348496156171225e-17 5.641515286307097e-17 -0.3603777682091321 -0.9328064451859521
12608017333.333334 -0.3677252257619567 -0.9299344914230062 4.3924985348824755e-17 5.605550483199674e-17 4.3924985348824755e-17 5.605550483199674e-17 -0.36772464708449626 -0.9299347202499916
12608634666.666666 -0.37504922169393995 -0.9270048982106934 4.436204109401092e-17 5.569242992426684e-17 4.436204109401092e-17 5.569242992426684e-17 -0.37504864486774636 -0.9270051315838086
12609252000.0 -0.3823498807738321 -0.9240176235722363 4.479610215115458e-17 5.532595258390634e-17 4.479610215115458e-17 5.532595258390634e-17 -0.382349305834615 -0.9240178614765165
12609869333.333334 -0.389626748729611 -0.9209728533861572 4.522714207507163e-17 5.495609746178264e-17 4.522714207507163e-17 5.495609746178264e-17 -0.38962617571295816 -0.9209730958063553
12610486666.666666 -0.39687937276951435 -0.9178707771085889 4.565513462309585e-17 5.4582889413971246e-17 4.565513462309585e-17 5.4582889413971246e-17 -0.3968788017108909 -0.9178710240291794
12611104000.0 -0.40410730161050384 -0.9147115877613691 4.6080053756691455e-17 5.4206353500075215e-17 4.6080053756691455e-17 5.4206353500075215e-17 -0.40410673254524965 -0.9147118391665483
12611721333.333334 -0.41131008550595344 -0.9114954819201979 4.650187364300599e-17 5.382651498157168e-17 4.650187364300599e-17 5.382651498157168e-17 -0.41130951846928043 -0.9114957377938834
12612338666.666666 -0.4184872762740237 -0.9082226597022324 4.692056865644771e-17 5.344339932011327e-17 4.692056865644771e-17 5.344339932011327e-17 -0.41848671130101495 -0.9082229200280667
12612956000.0 -0.4256384273252652 -0.9048933247537653 4.733611338023382e-17 5.3057032175830385e-17 4.733611338023382e-17 5.3057032175830385e-17 -0.4256378644508714 -0.9048935895151151
12613573333.333334 -0.43276309369053506 -0.9015076842374922 4.7748482607911385e-17 5.266743940563402e-17 4.7748482607911385e-17 5.266743940563402e-17 -0.4327625329495727 -0.9015079534174488
12614190666.666666 -0.43986083204865883 -0.8980659488196335 4.81576513448915e-17 5.2274647061482396e-17 4.81576513448915e-17 5.2274647061482396e-17 -0.4398602734758093 -0.8980662224010174
12614808000.0 -0.44693120075401715 -0.89456833265683 4.856359480995396e-17 5.187868138864907e-17 4.856359480995396e-17 5.187868138864907e-17 -0.446930644383822 -0.8945686106221865
12615425333.333334 -0.453973759864023 -0.8910150533828094 4.8966288436732346e-17 5.1479568823985426e-17 4.8966288436732346e-17 5.1479568823985426e-17 -0.4539732057308845 -0.8910153357144147
12616042666.666666 -0.46098807116649987 -0.8874063320948519 4.9365707875197633e-17 5.1077335994158734e-17 4.9365707875197633e-17 5.1077335994158734e-17 -0.4609875193046774 -0.8874066187747118
12616660000.0 -0.4679736982069466 -0.8837423933400284 4.9761828993120846e-17 5.067200971388642e-17 4.9761828993120846e-17 5.067200971388642e-17 -0.4679731486505552 -0.8837426843498807
12617277333.333334 -0.47493020631572186 -0.8800234651012178 5.015462787752349e-17 5.0263616984155637e-17 5.015462787752349e-17 5.0263616984155637e-17 -0.4749296590987291 -0.880023760422531
12617894666.666666 -0.4818571626349633 -0.8762497787829848 5.0544080836105227e-17 4.98521849904406e-17 5.0544080836105227e-17 4.98521849904406e-17 -0.4818566177911889 -0.8762500783969629
12618512000.0 -0.48875413614577506 -0.8724215691970518 5.093016439867837e-17 4.943774110088734e-17 5.093016439867837e-17 4.943774110088734e-17 -0.48875359370888616 -0.8724218730846313
12619129333.333334 -0.4956206976947923 -0.8685390745478149 5.1312855318559117e-17 4.9020312864516186e-17 5.1312855318559117e-17 4.9020312864516186e-17 -0.495620157698305 -0.868539382689671
12619746666.666666 -0.5024564200209908 -0.8646025364174789 5.169213057396413e-17 4.8599928009393535e-17 5.169213057396413e-17 4.8599928009393535e-17 -0.5024558824982645 -0.8646028487940215
12620364000.0 -0.5092608777823648 -0.8606121997509569 5.206796736939161e-17 4.817661444079236e-17 5.206796736939161e-17 4.817661444079236e-17 -0.509260342766603 -0.860612516342337
12620981333.333334 -0.5160336475821532 -0.8565683128407823 5.2440343136969055e-17 4.77504002393636e-17 5.2440343136969055e-17 4.77504002393636e-17 -0.5160331151063987 -0.8565686336268876
12621598666.666666 -0.5227743079954249 -0.8524711273115068 5.28092355378124e-17 4.732131365926662e-17 5.28092355378124e-17 4.732131365926662e-17 -0.5227737780925603 -0.8524714522719677
12622216000.0 -0.5294824395951822 -0.8483208981041201 5.3174622463350456e-17 4.688938312631234e-17 5.3174622463350456e-17 4.688938312631234e-17 -0.5294819122979265 -0.8483212272183094
12622833333.333334 -0.5361576249785059 -0.8441178834601567 5.353648203664315e-17 4.6454637236085375e-17 5.353648203664315e-17 4.6454637236085375e-17 -0.5361571003194131 -0.8441182167071899
12623450666.666666 -0.5427994487924327 -0.8398623449056862 5.389479261367559e-17 4.6017104752067005e-17 5.389479261367559e-17 4.6017104752067005e-17 -0.5427989268038887 -0.8398626822644245
12624068000.0 -0.549407497759919 -0.8355545472349677 5.424953278465497e-17 4.557681460372646e-17 5.424953278465497e-17 4.557681460372646e-17 -0.5494069784741413 -0.8355548886840184
12624685333.333334 -0.5559813607055797 -0.8311947584939523 5.460068137527363e-17 4.513379588462403e-17 5.460068137527363e-17 4.513379588462403e-17 -0.5559808441546137 -0.8311951040116696
12625302666.666666 -0.5625206285810359 -0.8267832499637641 5.4948217447956084e-17 4.4688077850506357e-17 5.4948217447956084e-17 4.4688077850506357e-17 -0.5625201147967543 -0.8267835995282522
12625920000.0 -0.5690248944906987 -0.8223202961435989 5.5292120303115207e-17 4.423968991736051e-17 5.5292120303115207e-17 4.423968991736051e-17 -0.569024383504799 -0.8223206497327125
12626537333.333334 -0.5754937537168514 -0.8178061747338025 5.563236948035811e-17 4.378866165950297e-17 5.563236948035811e-17 4.378866165950297e-17 -0.5754932455608539 -0.8178065323251474
12627154666.666666 -0.5819268037448341 -0.8132411666185922 5.596894475970097e-17 4.333502280762754e-17 5.596894475970097e-17 4.333502280762754e-17 -0.581926298450079 -0.8132415281895271
12627772000.0 -0.5883236442883198 -0.8086255558484153 5.630182616276691e-17 4.287880324684559e-17 5.630182616276691e-17 4.287880324684559e-17 -0.588323141885967 -0.8086259213760536
12628389333.333334 -0.5946838773138765 -0.8039596296225219 5.6630993953951e-17 4.242003301473977e-17 5.6630993953951e-17 4.242003301473977e-17 -0.5946833778349033 -0.8039599990837342
12629006666.666666 -0.6010071070660791 -0.7992436782708451 5.695642864158488e-17 4.195874229938773e-17 5.695642864158488e-17 4.195874229938773e-17 -0.6010066105412776 -0.7992440516422589
12629624000.0 -0.6072929400918822 -0.7944779952361211 5.727811097908474e-17 4.149496143737895e-17 5.727811097908474e-17 4.149496143737895e-17 -0.6072924465518569 -0.7944783724941219
12630241333.333334 -0.6135409852652376 -0.7896628770555246 5.759602196607295e-17 4.1028720911835434e-17 5.759602196607295e-17 4.1028720911835434e-17 -0.6135404947404053 -0.78966325817626
12630858666.666666 -0.6197508538113 -0.7847986233423272 5.791014284948956e-17 4.056005135041811e-17 5.791014284948956e-17 4.056005135041811e-17 -0.6197503663318866 -0.784799008301706
12631476000.0 -0.6259221593308378 -0.7798855367670746 5.82204551246988e-17 4.008898352330565e-17 5.82204551246988e-17 4.008898352330565e-17 -0.6259216749268764 -0.7798859255407689
12632093333.333334 -0.6320545178240776 -0.7749239230389134 5.852694053655433e-17 3.9615548341204073e-17 5.852694053655433e-17 3.9615548341204073e-17 -0.6320540365254077 -0.7749243156023609
12632710666.666666 -0.6381475477145979 -0.7699140908865696 5.882958108046928e-17 3.913977685331609e-17 5.882958108046928e-17 3.913977685331609e-17 -0.6381470695508619 -0.7699144872149738
12633328000.0 -0.6442008698732701 -0.7648563520389767 5.912835900346729e-17 3.8661700245305726e-17 5.912835900346729e-17 3.8661700245305726e-17 -0.6442003948739132 -0.7648567521073096
12633945333.333334 -0.6502141076416292 -0.7597510212060578 5.942325680520787e-17 3.818134983727048e-17 5.942325680520787e-17 3.818134983727048e-17 -0.6502136358358974 -0.7597514249890627
12634562666.666666 -0.6561868868554229 -0.7545984160590568 5.971425723899909e-17 3.7698757081698613e-17 5.971425723899909e-17 3.7698757081698613e-17 -0.6561864182723596 -0.7545988235312462
12635180000.0 -0.6621188358678668 -0.7493988572107838 6.000134331279855e-17 3.721395356141248e-17 6.000134331279855e-17 3.721395356141248e-17 -0.6621183705363127 -0.7493992683464447
12635797333.333334 -0.6680095855727959 -0.7441526681956531 6.028449829019433e-17 3.672697098750915e-17 6.028449829019433e-17 3.672697098750915e-17 -0.6680091235213862 -0.744153082968846
12636414666.666666 -0.6738587694275427 -0.7388601754496219 6.056370569136497e-17 3.623784119730054e-17 6.056370569136497e-17 3.623784119730054e-17 -0.6738583106847057 -0.7388605938341841
12637032000.0 -0.6796660234758745 -0.7335217082897686 6.083894929403355e-17 3.5746596152229416e-17 6.083894929403355e-17 3.5746596152229416e-17 -0.6796655680698301 -0.7335221302593152
12637649333.333334 -0.6854309863705534 -0.728137598893875 6.111021313439428e-17 3.5253267935795246e-17 6.111021313439428e-17 3.5253267935795246e-17 -0.6854305343293114 -0.7281380244218006
12638266666.666666 -0.6911532993958238 -0.7227081822797596 6.13774815080268e-17 3.4757888751466364e-17 6.13774815080268e-17 3.4757888751466364e-17 -0.6911528507471815 -0.7227086113392399
12638884000.0 -0.6968326064898123 -0.717233796284351 6.164073897079728e-17 3.426049092057836e-17 6.164073897079728e-17 3.426049092057836e-17 -0.6968321612613533 -0.717234228848345
12639501333.333334 -0.702468554266581 -0.711714781542766 6.189997033973372e-17 3.3761106880241257e-17 6.189997033973372e-17 3.3761106880241257e-17 -0.7024681124856732 -0.7117152175840167
12640118666.666666 -0.708060792038078 -0.7061514814671552 6.215516069388799e-17 3.325976918123552e-17 6.215516069388799e-17 3.325976918123552e-17 -0.708060353731872 -0.7061519209581917
12640736000.0 -0.7136089718362592 -0.7005442422250323 6.24062953751957e-17 3.2756510485870785e-17 6.24062953751957e-17 3.2756510485870785e-17 -0.7136085370316883 -0.7005446851381733
12641353333.333334 -0.7191127484342597 -0.6948934127182195 6.265335998928383e-17 3.2251363565908296e-17 6.265335998928383e-17 3.2251363565908296e-17 -0.7191123171580341 -0.6948938590255715
12641970666.666666 -0.724571779368293 -0.6891993445607114 6.289634040630213e-17 3.174436130039657e-17 6.289634040630213e-17 3.174436130039657e-17 -0.7245713516469034 -0.6891997942341742
12642588000.0 -0.7299857249587628 -0.683462392057001 6.313522276170812e-17 3.123553667355842e-17 6.313522276170812e-17 3.123553667355842e-17 -0.7299853008184748 -0.6834628450682667
12643205333.333334 -0.735354248331419 -0.6776829121800119 6.336999345705073e-17 3.072492277264174e-17 6.336999345705073e-17 3.072492277264174e-17 -0.7353538277982726 -0.6776833685005679
12643822666.666666 -0.7406770154383958 -0.6718612645488043 6.360063916072453e-17 3.0212552785787646e-17 6.360063916072453e-17 3.0212552785787646e-17 -0.7406765985382043 -0.6718617241499348
12644440000.0 -0.7459536950788999 -0.6659978114063012 6.382714680872135e-17 2.969845999986461e-17 6.382714680872135e-17 2.969845999986461e-17 -0.7459532818372488 -0.6659982742590898
12645057333.333334 -0.751183958919822 -0.6600929175967503 6.404950360534777e-17 2.918267779833121e-17 6.404950360534777e-17 2.918267779833121e-17 -0.7511835493620662 -0.6600933836720803
12645674666.666666 -0.7563674815162428 -0.6541469505429374 6.426769702393845e-17 2.8665239659066556e-17 6.426769702393845e-17 2.8665239659066556e-17 -0.7563670756675045 -0.6541474198114945
12646292000.0 -0.7615039403316972 -0.6481602802233009 6.448171480755201e-17 2.814617915219349e-17 6.448171480755201e-17 2.814617915219349e-17 -0.7615035382168664 -0.6481607526555748
12646909333.333334 -0.7665930157580799 -0.6421332791491036 6.469154496963519e-17 2.7625529937931785e-17 6.469154496963519e-17 2.7625529937931785e-17 -0.7665926174018125 -0.6421337547153912
12647526666.666666 -0.7716343911357 -0.6360663223410635 6.489717579468711e-17 2.7103325764404108e-17 6.489717579468711e-17 2.7103325764404108e-17 -0.7716339965624146 -0.636066801011469
12648144000.0 -0.7766277527729631 -0.6299597873060355 6.509859583889657e-17 2.6579600465459263e-17 6.509859583889657e-17 2.6579600465459263e-17 -0.7766273620068408 -0.6299602690504724
12648761333.333334 -0.7815727899658178 -0.6238140540136108 6.529579393076422e-17 2.605438795848739e-17 6.529579393076422e-17 2.605438795848739e-17 -0.7815724030308002 -0.6238145388018044
12649378666.666666 -0.7864691950170903 -0.6176295048724741 6.548875917170159e-17 2.5527722242241538e-17 6.548875917170159e-17 2.5527722242241538e-17 -0.7864688119368796 -0.6176299926739645
12649996000.0 -0.7913166632557214 -0.6114065247064999 6.567748093662451e-17 2.49996373946273e-17 6.567748093662451e-17 2.49996373946273e-17 -0.7913162840537756 -0.6114070154906408
12650613333.333334 -0.7961148930556479 -0.6051455007308927 6.586194887451884e-17 2.447016757051228e-17 6.586194887451884e-17 2.447016757051228e-17 -0.7961145177551829 -0.6051459944668564
12651230666.666666 -0.8008635858545762 -0.5988468225280966 6.60421529089892e-17 2.3939346999531756e-17 6.60421529089892e-17 2.3939346999531756e-17 -0.8008632144785629 -0.5988473191848747
12651848000.0 -0.805562446172627 -0.5925108820234622 6.621808323879896e-17 2.3407209983863962e-17 6.621808323879896e-17 2.3407209983863962e-17 -0.8055620787437894 -0.5925113815698676
12652465333.333334 -0.8102111816306332 -0.5861380734609725 6.638973033837955e-17 2.287379089603936e-17 6.638973033837955e-17 2.287379089603936e-17 -0.8102108181714477 -0.5861385758656409
12653082666.666666 -0.8148095029683208 -0.5797287933787365 6.655708495833132e-17 2.2339124176719966e-17 6.655708495833132e-17 2.2339124176719966e-17 -0.8148091435010137 -0.5797292986101288
12653700000.0 -0.8193571240624707 -0.5732834405840843 6.672013812590616e-17 2.180324433247501e-17 6.672013812590616e-17 2.180324433247501e-17 -0.8193567686090193 -0.5732839486104894
12654317333.333334 -0.8238537619444917 -0.5668024161290748 6.687888114546398e-17 2.1266185933579973e-17 6.687888114546398e-17 2.1266185933579973e-17 -0.8238534105266208 -0.5668029269186103
12654934666.666666 -0.8282991368181936 -0.5602861232853109 6.703330559892315e-17 2.0727983611776355e-17 6.703330559892315e-17 2.0727983611776355e-17 -0.8282987894573748 -0.5602866368059256
12655552000.0 -0.8326929720771954 -0.5537349675188445 6.718340334618707e-17 2.0188672058045346e-17 6.718340334618707e-17 2.0188672058045346e-17 -0.832692628794645 -0.5537354837383202
12656169333.333334 -0.8370349943219892 -0.5471493564651568 6.732916652554853e-17 1.9648286020396065e-17 6.732916652554853e-17 1.9648286020396065e-17 -0.8370346551386696 -0.5471498753511114
12656786666.666666 -0.8413249333771183 -0.5405296999035628 6.747058755408617e-17 1.9106860301614406e-17 6.747058755408617e-17 1.9106860301614406e-17 -0.8413245983137329 -0.5405302214234502
12657404000.0 -0.8455625223079025 -0.5338764097318274 6.760765912803564e-17 1.8564429757038286e-17 6.760765912803564e-17 1.8564429757038286e-17 -0.8455621913848974 -0.5338769338529417
12658021333.333334 -0.8497474974370681 -0.5271898999405139 6.774037422314505e-17 1.8021029292318673e-17 6.774037422314505e-17 1.8021029292318673e-17 -0.8497471706746289 -0.52719042662999
12658638666.666666 -0.8538795983611361 -0.5204705865872474 6.786872609501267e-17 1.747669386118236e-17 6.786872609501267e-17 1.747669386118236e-17 -0.853879275779189 -0.5204711158120645
12659256000.0 -0.8579585679666883 -0.5137188877707305 6.799270827940811e-17 1.6931458463182684e-17 6.799270827940811e-17 1.6931458463182684e-17 -0.8579582495848973 -0.5137194194977129
12659873333.333334 -0.8619841524462906 -0.5069352236048486 6.811231459257162e-17 1.638535814146573e-17 6.811231459257162e-17 1.638535814146573e-17 -0.8619838382840546 -0.5069357578006674
12660490666.666666 -0.8659561013142694 -0.5001200161925522 6.822753913149805e-17 1.5838427980526995e-17 6.822753913149805e-17 1.5838427980526995e-17 -0.8659557913907245 -0.5001205528237289
12661108000.0 -0.8698741674224452 -0.4932736895993499 6.83383762742063e-17 1.529070310394467e-17 6.83383762742063e-17 1.529070310394467e-17 -0.8698738617564615 -0.49327422863225734
12661725333.333334 -0.873738106975309 -0.48639666982726326 6.844482067998183e-17 1.4742218672158267e-17 6.844482067998183e-17 1.4742218672158267e-17 -0.8737378055854899 -0.48639721122812857
12662342666.666666 -0.8775476795453482 -0.47948938478804976 6.854686728961042e-17 1.4193009880198856e-17 6.854686728961042e-17 1.4193009880198856e-17 -0.8775473824500295 -0.4794899285229558
12662960000.0 -0.8813026480879379 -0.4725522642767001 6.864451132558974e-17 1.3643111955439517e-17 6.864451132558974e-17 1.3643111955439517e-17 -0.8813023553051862 -0.47255281031158797
12663577333.333334 -0.8850027789561019 -0.4655857399446693 6.873774829232096e-17 1.3092560155352324e-17 6.873774829232096e-17 1.3092560155352324e-17 -0.8850024905037133 -0.4655862882453399
12664194666.666666 -0.8886478419150537 -0.45859024527301845 6.882657397628686e-17 1.2541389765246905e-17 6.882657397628686e-17 1.2541389765246905e-17 -0.8886475578105535 -0.4585907958051354
12664812000.0 -0.8922376101565063 -0.45156621554546683 6.89109844462087e-17 1.1989636096017634e-17 6.89109844462087e-17 1.1989636096017634e-17 -0.892237330417148 -0.4515667682745583
12665429333.333334 -0.8957718603128542 -0.4445140878211817 6.8990976053187e-17 1.1437334481886403e-17 6.8990976053187e-17 1.1437334481886403e-17 -0.8957715849556181 -0.4445146427126428
12666046666.666666 -0.8992503724709262 -0.43743430090786023 6.906654543082143e-17 1.0884520278156358e-17 6.906654543082143e-17 1.0884520278156358e-17 -0.8992501015125179 -0.4374348579269546
12666664000.0 -0.9026729301858637 -0.43032729533404585 6.913768949531834e-17 1.0331228858933901e-17 6.913768949531834e-17 1.0331228858933901e-17 -0.9026726636427131 -0.43032785444590776
12667281333.333334 -0.9060393204943965 -0.4231935133220975 6.920440544557211e-17 9.7774956149014e-18 6.920440544557211e-17 9.7774956149014e-18 -0.9060390583826576 -0.4231940744917348
12667898666.666666 -0.9093493339282228 -0.4160333987604196 6.926669076323723e-17 9.223355951032735e-18 6.926669076323723e-17 9.223355951032735e-18 -0.9093490762637719 -0.41603396195271547
12668516000.0 -0.9126027645270368 -0.4088473971758392 6.9324543212776e-17 8.668845284348073e-18 6.9324543212776e-17 8.668845284348073e-18 -0.9126025113254729 -0.40884796235555443
12669133333.333334 -0.9157994098512419 -0.4016359557061177 6.937796084148976e-17 8.113999041666957e-18 6.937796084148976e-17 8.113999041666957e-18 -0.9157991611278837 -0.40163652283789275
12669750666.666666 -0.9189390709946612 -0.39439952307186843 6.94269419795347e-17 7.558852657333935e-18 6.94269419795347e-17 7.558852657333935e-18 -0.918938826764549 -0.39440009212022636
12670368000.0 -0.9220215525968605 -0.3871385495487673 6.94714852399166e-17 7.003441570970226e-18 6.94714852399166e-17 7.003441570970226e-18 -0.9220213128747515 -0.38713912047811444
