! Parameters = {f0=12700.012000; bw=77.238000; Q=6100.000000; N=10; m_0_1=1.315410; m_1_1=0.966410; m_1_2=1.150222; m_2_2=0.965761; m_2_3=0.787185; m_2_8=0.002834; m_2_9=0.039538; m_3_3=0.963824; m_3_4=0.675714; m_3_7=0.003434; m_3_8=-0.093654; m_3_9=0.002834; m_4_4=0.960899; m_4_5=0.512049; m_4_6=0.006951; m_4_7=-0.114203; m_4_8=0.003434; m_5_5=0.961281; m_5_6=0.919404; m_5_7=0.006951; m_6_6=0.961280; m_6_7=0.512391; m_7_7=0.960913; m_7_8=0.675832; m_8_8=0.963822; m_8_9=0.787498; m_9_9=0.965756; m_9_10=1.151300; m_10_10=0.966400; m_10_11=1.316205}
!
! Created with skrf (http://scikit-rf.org).
# Hz S RI R 50.0 
!freq ReS11 ImS11 ReS21 ImS21 ReS12 ImS12 ReS22 ImS22
12607400000.0 0.0354561901384157 -0.999371231615499 3.407504059476845e-17 1.3204561104779365e-16 3.407504059476845e-17 1.3204561104779365e-16 0.03545688265349487 -0.9993712070458641
12608017333.333334 0.02359603477656022 -0.999721574811024 3.564407222330397e-17 1.316030762942879e-16 3.564407222330397e-17 1.316030762942879e-16 0.02359672750049833 -0.9997215584606935
12608634666.666666 0.011732557425467872 -0.9999311711793311 3.7207395958977686e-17 1.3114190884238547e-16 3.7207395958977686e-17 1.3114190884238547e-16 0.011733250260723397 -0.9999311630498025
12609252000.0 -0.0001325717029783647 -0.9999999912122771 3.876479066903824e-17 1.3066218187988888e-16 3.876479066903824e-17 1.3066218187988888e-16 -0.00013187885395307632 -0.9999999913038892
12609869333.333334 -0.011997682164463938 -0.9999280252210617 4.0316036154365425e-17 1.301639712173669e-16 4.0316036154365425e-17 1.301639712173669e-16 -0.011996989399208912 -0.9999280335329969
12610486666.666666 -0.023861103517162162 -0.999715283337588 4.186091318052481e-17 1.296473552763083e-16 4.186091318052481e-17 1.296473552763083e-16 -0.0238604109331961 -0.9997152998678721
12611104000.0 -0.035721165557278535 -0.999361795513036 4.339920350875381e-17 1.291124150768823e-16 4.339920350875381e-17 1.291124150768823e-16 -0.03572047325208507 -0.9993618202585377
12611721333.333334 -0.047576198553680685 -0.9988676115136537 4.493068992667925e-17 1.2855923422537015e-16 4.493068992667925e-17 1.2855923422537015e-16 -0.04757550662469464 -0.9988676444700842
12612338666.666666 -0.05942453348342767 -0.9982328009137391 4.6455156279001353e-17 1.2798789890119031e-16 4.6455156279001353e-17 1.2798789890119031e-16 -0.059423842028021354 -0.998232842075655
12612956000.0 -0.07126450226665966 -0.9974574530858429 4.7972387497944575e-17 1.2739849784358433e-16 4.7972387497944575e-17 1.2739849784358433e-16 -0.07126381138212927 -0.9974575024466471
12613573333.333334 -0.08309443800110003 -0.9965416771882111 4.9482169633509327e-17 1.267911223379558e-16 4.9482169633509327e-17 1.267911223379558e-16 -0.08309374778465183 -0.9965417347401523
12614190666.666666 -0.09491267519721398 -0.9954856021493828 5.0984289883653163e-17 1.2616586620181213e-16 5.0984289883653163e-17 1.2616586620181213e-16 -0.09491198574595064 -0.9954856678835569
12614808000.0 -0.10671755001231774 -0.9942893766500673 5.2478536624209565e-17 1.2552282577038334e-16 5.2478536624209565e-17 1.2552282577038334e-16 -0.10671686142322473 -0.9942894505564197
12615425333.333334 -0.11850740048505086 -0.9929531691021926 5.396469943864862e-17 1.2486209988187919e-16 5.396469943864862e-17 1.2486209988187919e-16 -0.11850671285498278 -0.992953251169519
12616042666.666666 -0.13028056676927205 -0.9914771676252002 5.5442569147682095e-17 1.2418378986238234e-16 5.5442569147682095e-17 1.2418378986238234e-16 -0.130279880194939 -0.9914772578411485
12616660000.0 -0.142035391367658 -0.9898615800195744 5.691193783864447e-17 1.2348799951040704e-16 5.691193783864447e-17 1.2348799951040704e-16 -0.14203470594561202 -0.9898616783706471
12617277333.333334 -0.15377021936525284 -0.9881066337375599 5.837259889470617e-17 1.2277483508109965e-16 5.837259889470617e-17 1.2277483508109965e-16 -0.15376953519187453 -0.9881067402091162
12617894666.666666 -0.16548339866220457 -0.9862125758511786 5.982434702384919e-17 1.220444052701154e-16 5.982434702384919e-17 1.220444052701154e-16 -0.16548271583368887 -0.9862126904274338
12618512000.0 -0.1771732802067215 -0.9841796730173826 6.126697828773494e-17 1.2129682119710594e-16 6.126697828773494e-17 1.2129682119710594e-16 -0.17717259881906483 -0.9841797956814138
12619129333.333334 -0.1888382182267314 -0.9820082114405992 6.270029013022958e-17 1.2053219638893638e-16 6.270029013022958e-17 1.2053219638893638e-16 -0.18883753837571815 -0.9820083421743473
12619746666.666666 -0.20047657046203232 -0.9796984968323633 6.412408140585547e-17 1.197506467624978e-16 6.412408140585547e-17 1.197506467624978e-16 -0.20047589224322102 -0.9796986356166348
12620364000.0 -0.2120866983954142 -0.9772508543682852 6.553815240795696e-17 1.189522906072202e-16 6.553815240795696e-17 1.189522906072202e-16 -0.21208602190412407 -0.9772510011827538
12620981333.333334 -0.22366696748300538 -0.9746656286423405 6.694230489664052e-17 1.1813724856726166e-16 6.694230489664052e-17 1.1813724856726166e-16 -0.22366629281430328 -0.9746657834655517
12621598666.666666 -0.23521574738486647 -0.9719431836182552 6.833634212653808e-17 1.1730564362334222e-16 6.833634212653808e-17 1.1730564362334222e-16 -0.23521507463355368 -0.9719433464276314
12622216000.0 -0.2467314121941596 -0.969083902578351 6.972006887432937e-17 1.164576010742617e-16 6.972006887432937e-17 1.164576010742617e-16 -0.2467307414547577 -0.9690840733501899
12622833333.333334 -0.25821234066632803 -0.9660881880695098 7.109329146602872e-17 1.1559324851809607e-16 7.109329146602872e-17 1.1559324851809607e-16 -0.2582116720330664 -0.9660883667789912
12623450666.666666 -0.26965691644701506 -0.9629564618465879 7.245581780402122e-17 1.1471271583308647e-16 7.245581780402122e-17 1.1471271583308647e-16 -0.2696562500138176 -0.9629566484677783
12624068000.0 -0.281063528299955 -0.9596891648129571 7.380745739392166e-17 1.13816135158173e-16 7.380745739392166e-17 1.13816135158173e-16 -0.28106286416042636 -0.9596893593188103
12624685333.333334 -0.29243057033372855 -0.9562867569584457 7.514802137115122e-17 1.1290364087323878e-16 7.514802137115122e-17 1.1290364087323878e-16 -0.29242990858114126 -0.9562869593208077
12625302666.666666 -0.30375644222763126 -0.9527497172946425 7.647732252723619e-17 1.119753695790669e-16 7.647732252723619e-17 1.119753695790669e-16 -0.3037557829549133 -0.9527499274842578
12625920000.0 -0.3150395494572783 -0.9490785437873761 7.779517533596846e-17 1.1103146007691355e-16 7.779517533596846e-17 1.1103146007691355e-16 -0.3150388927569984 -0.9490787617738873
12626537333.333334 -0.3262783035188974 -0.9452737532866557 7.910139597919486e-17 1.1007205334785893e-16 7.910139597919486e-17 1.1007205334785893e-16 -0.3262776494832544 -0.945273979038614
12627154666.666666 -0.3374711221529186 -0.9413358814539369 8.039580237241553e-17 1.0909729253180952e-16 8.039580237241553e-17 1.0909729253180952e-16 -0.3374704708737263 -0.9413361149388013
12627772000.0 -0.3486164295670812 -0.9372654826865823 8.167821419015279e-17 1.0810732290618083e-16 8.167821419015279e-17 1.0810732290618083e-16 -0.34861578113575653 -0.9372657238707266
12628389333.333334 -0.35971265665780044 -0.9330631300399771 8.294845289096548e-17 1.0710229186435099e-16 8.294845289096548e-17 1.0710229186435099e-16 -0.3597120111653506 -0.9330633788886956
12629006666.666666 -0.3707582412315304 -0.9287294151466898 8.420634174230694e-17 1.0608234889373989e-16 8.420634174230694e-17 1.0608234889373989e-16 -0.3707575987685405 -0.9287296716242013
12629624000.0 -0.3817516282243003 -0.9242649481333297 8.545170584501688e-17 1.0504764555367292e-16 8.545170584501688e-17 1.0504764555367292e-16 -0.3817509888809191 -0.9242652122027809
12630241333.333334 -0.3926912699209882 -0.9196703575345094 8.668437215762384e-17 1.0399833545289319e-16 8.668437215762384e-17 1.0399833545289319e-16 -0.3926906337869171 -0.9196706291579829
12630858666.666666 -0.40357562617285164 -0.9149462902045135 8.79041695203068e-17 1.0293457422684319e-16 8.79041695203068e-17 1.0293457422684319e-16 -0.4035749933373315 -0.914946569343032
12631476000.0 -0.41440316461482896 -0.910093411226027 8.911092867864635e-17 1.0185651951460856e-16 8.911092867864635e-17 1.0185651951460856e-16 -0.41440253516662734 -0.9100936978395594
12632093333.333334 -0.4251723608808564 -0.9051124038166809 9.030448230701e-17 1.0076433093565778e-16 9.030448230701e-17 1.0076433093565778e-16 -0.42517173490825544 -0.9051126978641472
12632710666.666666 -0.4358816988185589 -0.9000039692328352 9.148466503172303e-17 9.965817006624798e-17 9.148466503172303e-17 9.965817006624798e-17 -0.43588107640934337 -0.9000042706721144
12633328000.0 -0.44652967070298516 -0.8947688266707186 9.26513134539472e-17 9.853820041556164e-17 9.26513134539472e-17 9.853820041556164e-17 -0.4465290519444285 -0.8947691354586508
12633945333.333334 -0.45711477744853934 -0.8894077131653314 9.380426617221539e-17 9.74045874016265e-17 9.380426617221539e-17 9.74045874016265e-17 -0.4571141624273931 -0.8894080292577277
12634562666.666666 -0.46763552882021014 -0.8839213834865939 9.494336380472242e-17 9.625749832692498e-17 9.494336380472242e-17 9.625749832692498e-17 -0.46763491762269155 -0.8839217068382414
12635180000.0 -0.4780904436432505 -0.8783106100331536 9.606844901130265e-17 9.509710235376043e-17 9.606844901130265e-17 9.509710235376043e-17 -0.47808983635502994 -0.8783109405978227
12635797333.333334 -0.4884780500119069 -0.8725761827235357 9.717936651509837e-17 9.392357047937441e-17 9.717936651509837e-17 9.392357047937441e-17 -0.4884774467180955 -0.8725765204539837
12636414666.666666 -0.4987968854963401 -0.8667189088850903 9.827596312394192e-17 9.27370755107965e-17 9.827596312394192e-17 9.27370755107965e-17 -0.49879628628147965 -0.8667192537330737
12637032000.0 -0.5090454973488446 -0.8607396131401641 9.935808775141798e-17 9.153779203945812e-17 9.935808775141798e-17 9.153779203945812e-17 -0.5090449022968928 -0.8607399650564382
12637649333.333334 -0.5192224427081936 -0.8546391372900889 1.0042559143763034e-16 9.03258964155484e-17 1.0042559143763034e-16 9.03258964155484e-17 -0.5192218519025152 -0.8546394962244224
12638266666.666666 -0.5293262888027322 -0.848418340196709 1.0147832736964063e-16 8.910156672214485e-17 1.0147832736964063e-16 8.910156672214485e-17 -0.5293257023260849 -0.8484187060978844
12638884000.0 -0.5393556131522325 -0.8420780976613697 1.0251615090160582e-16 8.7864982749093e-17 1.0251615090160582e-16 8.7864982749093e-17 -0.5393550310867578 -0.8420784704771963
12639501333.333334 -0.5493090037681129 -0.8356193023016494 1.0353891957458565e-16 8.661632596666694e-17 1.0353891957458565e-16 8.661632596666694e-17 -0.5493084261953224 -0.8356196819789669
12640118666.666666 -0.5591850593520115 -0.8290428634258297 1.045464931360378e-16 8.535577949899151e-17 1.045464931360378e-16 8.535577949899151e-17 -0.5591844863527767 -0.8290432499105173
12640736000.0 -0.5689823894935913 -0.8223497069045353 1.0553873355902093e-16 8.408352809719947e-17 1.0553873355902093e-16 8.408352809719947e-17 -0.5689818211481318 -0.8223501001415193
12641353333.333334 -0.5786996148656505 -0.815540775040806 1.0651550506097683e-16 8.279975811248661e-17 1.0651550506097683e-16 8.279975811248661e-17 -0.5786990512535235 -0.815541174974068
12641970666.666666 -0.5883353674187412 -0.8086170264371553 1.0747667412231384e-16 8.150465746878724e-17 1.0747667412231384e-16 8.150465746878724e-17 -0.5883348086188286 -0.8086174330097378
12642588000.0 -0.5978882905736715 -0.8015794358606663 1.084221095045638e-16 8.019841563535512e-17 1.084221095045638e-16 8.019841563535512e-17 -0.5978877366641716 -0.8015798490146855
12643205333.333334 -0.6073570394124292 -0.7944289941058172 1.0935168226823344e-16 7.888122359910231e-17 1.0935168226823344e-16 7.888122359910231e-17 -0.6073564904708427 -0.7944294137824661
12643822666.666666 -0.6167402808676591 -0.7871667078548817 1.102652657903476e-16 7.7553273836695e-17 1.102652657903476e-16 7.7553273836695e-17 -0.6167397369707805 -0.7871671339944419
12644440000.0 -0.6260366939101389 -0.7797935995363608 1.111627357816104e-16 7.621476028650509e-17 1.111627357816104e-16 7.621476028650509e-17 -0.6260361551340456 -0.7797940320782101
12645057333.333334 -0.6352449697349437 -0.7723107071809008 1.1204397030325545e-16 7.486587832032833e-17 1.1204397030325545e-16 7.486587832032833e-17 -0.6352444361549837 -0.7723111460635206
12645674666.666666 -0.6443638119455264 -0.7647190842752931 1.129088497835373e-16 7.350682471492992e-17 1.129088497835373e-16 7.350682471492992e-17 -0.6443632836363095 -0.7647195294362794
12646292000.0 -0.653391936736564 -0.7570197996138903 1.1375725703391598e-16 7.213779762334264e-17 1.1375725703391598e-16 7.213779762334264e-17 -0.6533914137719506 -0.7570202509899606
12646909333.333334 -0.6623280730742401 -0.7492139371485128 1.1458907726482303e-16 7.075899654609315e-17 1.1458907726482303e-16 7.075899654609315e-17 -0.6623275555273315 -0.7492143946755169
12647526666.666666 -0.6711709628755594 -0.7413025958355379 1.1540419810115623e-16 6.937062230212357e-17 1.1540419810115623e-16 6.937062230212357e-17 -0.6711704508186862 -0.7413030594484645
12648144000.0 -0.679919361185355 -0.7332868894812656 1.1620250959737852e-16 6.797287699960738e-17 1.1620250959737852e-16 6.797287699960738e-17 -0.6799188546900686 -0.733287359114254
12648761333.333334 -0.6885720363515229 -0.7251679465851538 1.1698390425227044e-16 6.656596400658351e-17 1.1698390425227044e-16 6.656596400658351e-17 -0.6885715354885841 -0.7251684221715017
12649378666.666666 -0.6971277701983358 -0.7169469101810176 1.1774827702332462e-16 6.515008792142819e-17 1.1774827702332462e-16 6.515008792142819e-17 -0.6971272750377061 -0.7169473916531913
12649996000.0 -0.7055853581981755 -0.7086249376758929 1.1849552534081088e-16 6.372545454311301e-17 1.1849552534081088e-16 6.372545454311301e-17 -0.705584868809007 -0.7086254249655372
12650613333.333334 -0.7139436096409881 -0.7002032006872062 1.1922554912145101e-16 6.229227084135931e-17 1.1922554912145101e-16 6.229227084135931e-17 -0.7139431260916127 -0.7002036937251523
12651230666.666666 -0.7222013478017782 -0.6916828848779669 1.1993825078173227e-16 6.085074492664124e-17 1.1993825078173227e-16 6.085074492664124e-17 -0.7222008701597001 -0.6916833835942449
12651848000.0 -0.7303574101065969 -0.6830651897895218 1.2063353525089882e-16 5.940108601995918e-17 1.2063353525089882e-16 5.940108601995918e-17 -0.7303569384384822 -0.683065694113369
12652465333.333334 -0.7384106482959754 -0.6743513286729174 1.2131130998353022e-16 5.794350442256154e-17 1.2131130998353022e-16 5.794350442256154e-17 -0.7384101826676416 -0.674351838532788
12653082666.666666 -0.7463599285865283 -0.6655425283181565 1.2197148497177068e-16 5.647821148549403e-17 1.2197148497177068e-16 5.647821148549403e-17 -0.7463594690629374 -0.6655430436417332
12653700000.0 -0.7542041318309014 -0.6566400288811272 1.226139727572218e-16 5.500541957894469e-17 1.226139727572218e-16 5.500541957894469e-17 -0.7542036784761493 -0.6566405495953301
12654317333.333334 -0.7619421536749132 -0.6476450837094708 1.2323868844241184e-16 5.352534206157344e-17 1.2323868844241184e-16 5.352534206157344e-17 -0.76194170655222 -0.6476456097404677
12654934666.666666 -0.7695729047133524 -0.6385589591657655 1.238455497019407e-16 5.203819324961148e-17 1.238455497019407e-16 5.203819324961148e-17 -0.7695724638850566 -0.6385594904389843
12655552000.0 -0.7770953106432746 -0.6293829344493255 1.2443447679323643e-16 5.054418838587037e-17 1.2443447679323643e-16 5.054418838587037e-17 -0.7770948761708218 -0.6293834708894626
12656169333.333334 -0.784508312415123 -0.62011830141626 1.2500539256692043e-16 4.9043543608681184e-17 1.2500539256692043e-16 4.9043543608681184e-17 -0.7845078843590575 -0.6201188429472915
12656786666.666666 -0.7918108663819362 -0.6107663643974678 1.2555822247683938e-16 4.7536475920611016e-17 1.2555822247683938e-16 4.7536475920611016e-17 -0.7918104448018932 -0.6107669109426608
12657404000.0 -0.7990019444462958 -0.6013284400149818 1.2609289458968023e-16 4.602320315717505e-17 1.2609289458968023e-16 4.602320315717505e-17 -0.7990015294009937 -0.6013289914969049
12658021333.333334 -0.8060805342050494 -0.5918058569966284 1.2660933959423798e-16 4.4503943955363304e-17 1.2660933959423798e-16 4.4503943955363304e-17 -0.8060801257522812 -0.5918064133371639
12658638666.666666 -0.8130456390917102 -0.5821999559891469 1.2710749081028246e-16 4.297891772213002e-17 1.2710749081028246e-16 4.297891772213002e-17 -0.813045237288334 -0.5822005171094992
12659256000.0 -0.8198962785170255 -0.5725120893690748 1.2758728419707064e-16 4.1448344602709103e-17 1.2758728419707064e-16 4.1448344602709103e-17 -0.8198958834189589 -0.5725126551897841
12659873333.333334 -0.8266314880068306 -0.5627436210526301 1.2804865836144977e-16 3.991244544892749e-17 1.2804865836144977e-16 3.991244544892749e-17 -0.8266310996690402 -0.5627441914935816
12660490666.666666 -0.8332503193377842 -0.5528959263037605 1.284915545656023e-16 3.8371441787360993e-17 1.284915545656023e-16 3.8371441787360993e-17 -0.833249937814282 -0.5528965012841981
12661108000.0 -0.8397518406711424 -0.5429703915401287 1.289159167344062e-16 3.6825555787401887e-17 1.289159167344062e-16 3.6825555787401887e-17 -0.839751466014974 -0.5429709709786643
12661725333.333334 -0.8461351366835957 -0.5329684141384418 1.2932169146239034e-16 3.527501022933561e-17 1.2932169146239034e-16 3.527501022933561e-17 -0.8461347689468353 -0.532968997953068
12662342666.666666 -0.8523993086964173 -0.5228914022372937 1.2970882802033828e-16 3.3720028472217686e-17 1.2970882802033828e-16 3.3720028472217686e-17 -0.8523989479301604 -0.522891990345395
12662960000.0 -0.8585434748018429 -0.5127407745391321 1.3007727836148325e-16 3.216083442177228e-17 1.3007727836148325e-16 3.216083442177228e-17 -0.8585431210561986 -0.5127413668574969
12663577333.333334 -0.8645667699872811 -0.5025179601104556 1.3042699712732387e-16 3.059765249820344e-17 1.3042699712732387e-16 3.059765249820344e-17 -0.8645664233113636 -0.5025185565552864
12664194666.666666 -0.8704683462570283 -0.49222439818071373 1.3075794165305988e-16 2.9030707603915515e-17 1.3075794165305988e-16 2.9030707603915515e-17 -0.8704680066989551 -0.4922249986676426
12664812000.0 -0.8762473727517532 -0.4818615379395439 1.310700719726343e-16 2.7460225091210828e-17 1.310700719726343e-16 2.7460225091210828e-17 -0.8762470403586317 -0.48186214238363967
12665429333.333334 -0.8819030358654286 -0.471430838332787 1.313633508233877e-16 2.5886430729931787e-17 1.313633508233877e-16 2.5886430729931787e-17 -0.8819027106833546 -0.47143144664857106
12666046666.666666 -0.8874345393597733 -0.4609337678572918 1.3163774365032907e-16 2.4309550675045202e-17 1.3163774365032907e-16 2.4309550675045202e-17 -0.8874342214338236 -0.46093437995874903
12666664000.0 -0.8928411044765946 -0.45037180435372093 1.3189321861002028e-16 2.2729811434157497e-17 1.3189321861002028e-16 2.2729811434157497e-17 -0.8928407938508192 -0.45037242015431117
12667281333.333334 -0.898121970047133 -0.43974643479904396 1.3212974657405764e-16 2.1147439835086287e-17 1.3212974657405764e-16 2.1147439835086287e-17 -0.8981216667645492 -0.4397470542117144
12667898666.666666 -0.9032763925994449 -0.4290591550967611 1.3234730113218393e-16 1.9562662993274926e-17 1.3234730113218393e-16 1.9562662993274926e-17 -0.9032760967020336 -0.4290597780339596
12668516000.0 -0.908303646463034 -0.41831146986637807 1.3254585859499883e-16 1.797570827925373e-17 1.3254585859499883e-16 1.797570827925373e-17 -0.9083033579917317 -0.41831209624006466
12669133333.333334 -0.9132030238708665 -0.40750489223188247 1.327253979962787e-16 1.63868032860888e-17 1.327253979962787e-16 1.63868032860888e-17 -0.9132027428655611 -0.4075055219535422
12669750666.666666 -0.917973835059215 -0.3966409436083092 1.3288590109491352e-16 1.4796175796762903e-17 1.3288590109491352e-16 1.4796175796762903e-17 -0.9179735615587378 -0.3966415765889637
12670368000.0 -0.9226154083646743 -0.38572115348772207 1.330273523764513e-16 1.320405375155303e-17 1.330273523764513e-16 1.320405375155303e-17 -0.9226151424067974 -0.3857217896379435
