! Parameters = {f0=12700.012000; bw=77.238000; Q=6100.000000; N=10; m_0_1=1.338033; m_1_1=1.305750; m_1_2=1.172845; m_2_2=1.305101; m_2_3=0.809808; m_2_8=0.003965; m_2_9=0.040669; m_3_3=1.303164; m_3_4=0.698337; m_3_7=0.004565; m_3_8=-0.092523; m_3_9=0.003965; m_4_4=1.300239; m_4_5=0.534672; m_4_6=0.008082; m_4_7=-0.113072; m_4_8=0.004565; m_5_5=1.300621; m_5_6=0.942027; m_5_7=0.008082; m_6_6=1.300620; m_6_7=0.535014; m_7_7=1.300253; m_7_8=0.698455; m_8_8=1.303162; m_8_9=0.810121; m_9_9=1.305096; m_9_10=1.173923; m_10_10=1.305740; m_10_11=1.338828}
!
! Created with skrf (http://scikit-rf.org).
# Hz S RI R 50.0 
!freq ReS11 ImS11 ReS21 ImS21 ReS12 ImS12 ReS22 ImS22
12607400000.0 -0.8749462963017746 -0.48421996921607036 1.473119927171501e-16 3.2549529892581216e-17 1.473119927171501e-16 3.2549529892581216e-17 -0.8749459550111837 -0.4842205859000337
12608017333.333334 -0.8809467102626289 -0.47321548334480323 1.4768219306701152e-16 3.0681477451252586e-17 1.4768219306701152e-16 3.0681477451252586e-17 -0.8809463767446017 -0.47321610422761606
12608634666.666666 -0.8868087242547538 -0.4621366535836133 1.4802871792388008e-16 2.8809267885762186e-17 1.4802871792388008e-16 2.8809267885762186e-17 -0.8868083985609234 -0.4621372785673261
12609252000.0 -0.8925314173343164 -0.4509852204573903 1.48351521352009e-16 2.6933201091431338e-17 1.48351521352009e-16 2.6933201091431338e-17 -0.8925310995150821 -0.4509858494434193
12609869333.333334 -0.8981138904452609 -0.43976293589737925 1.4865056121231994e-16 2.5053577460582246e-17 1.4865056121231994e-16 2.5053577460582246e-17 -0.8981135805497801 -0.4397635687865214
12610486666.666666 -0.903555266560583 -0.4284715629658963 1.489257991676255e-16 2.3170697834515388e-17 1.489257991676255e-16 2.3170697834515388e-17 -0.9035549646367638 -0.4284721996583453
12611104000.0 -0.908854690820284 -0.4171128755789852 1.4917720068725234e-16 2.1284863455374812e-17 1.4917720068725234e-16 2.1284863455374812e-17 -0.9088543969147763 -0.4171135159743468
12611721333.333334 -0.9140113306653758 -0.4056886582283432 1.4940473505103936e-16 1.93963759180958e-17 1.4940473505103936e-16 1.93963759180958e-17 -0.9140110448235667 -0.4056893022256517
12612338666.666666 -0.9190243759688327 -0.3942007057006662 1.496083753527495e-16 1.7505537122153927e-17 1.496083753527495e-16 1.7505537122153927e-17 -0.9190240982348367 -0.39420135319839905
12612956000.0 -0.923893039162994 -0.38265082279536455 1.497880985028602e-16 1.561264922336925e-17 1.497880985028602e-16 1.561264922336925e-17 -0.9238927695796505 -0.3826514736914609
12613573333.333334 -0.9286165553630074 -0.37104082404170435 1.4994388523074272e-16 1.371801458572275e-17 1.4994388523074272e-16 1.371801458572275e-17 -0.9286162939718676 -0.37104147823357775
12614190666.666666 -0.9331941824872523 -0.3593725334131058 1.5007572008624012e-16 1.1821935733081796e-17 1.5007572008624012e-16 1.1821935733081796e-17 -0.933193929328578 -0.3593731907976627
12614808000.0 -0.9376252013737362 -0.3476477840410668 1.5018359144063176e-16 9.924715300961661e-18 1.5018359144063176e-16 9.924715300961661e-18 -0.9376249564864934 -0.3476484445147228
12615425333.333334 -0.9419089158932255 -0.3358684179268015 1.5026749148698987e-16 8.026655988288162e-18 1.5026749148698987e-16 8.026655988288162e-18 -0.9419086793150744 -0.33586908138549626
12616042666.666666 -0.9460446530585402 -0.3240362856520112 1.5032741623992873e-16 6.128060509126331e-18 1.5032741623992873e-16 6.128060509126331e-18 -0.9460444248258327 -0.32403695199122573
12616660000.0 -0.9500317631302295 -0.3121532460883134 1.503633655347407e-16 4.22923154451526e-18 1.503633655347407e-16 4.22923154451526e-18 -0.9500315432780054 -0.3121539152030873
12617277333.333334 -0.9538696197187846 -0.30022116610483224 1.5037534302593055e-16 2.330471694220334e-18 1.5037534302593055e-16 2.330471694220334e-18 -0.9538694082807607 -0.3002218378897782
12617894666.666666 -0.9575576198828769 -0.28824192027538903 1.5036335618513683e-16 4.320834286111913e-19 1.5036335618513683e-16 4.320834286111913e-19 -0.9575574168914462 -0.28824259462471125
12618512000.0 -0.9610951842242931 -0.27621739058335115 1.5032741629844939e-16 -1.4656309595233806e-18 1.5032741629844939e-16 -1.4656309595233806e-18 -0.9610949897105191 -0.2762180673908613
12619129333.333334 -0.9644817569787411 -0.2641494661266714 1.5026753846311843e-16 -3.3623694029638746e-18 1.5026753846311843e-16 -3.3623694029638746e-18 -0.9644815709723501 -0.2641501452858048
12619746666.666666 -0.9677168061032663 -0.2520400428207782 1.5018374158366055e-16 -5.257830108160459e-18 1.5018374158366055e-16 -5.257830108160459e-18 -0.967716628632648 -0.2520407242246119
12620364000.0 -0.9707998233599207 -0.23989102310038987 1.5007604836735497e-16 -7.151711603185428e-18 1.5007604836735497e-16 -7.151711603185428e-18 -0.9707996544521208 -0.23989170664165874
12620981333.333334 -0.9737303243954359 -0.22770431562129492 1.499444853191425e-16 -9.043712785581642e-18 1.499444853191425e-16 -9.043712785581642e-18 -0.9737301640761521 -0.22770500119240838
12621598666.666666 -0.9765078488174211 -0.21548183496011084 1.4978908273591675e-16 -1.0933532970210192e-17 1.4978908273591675e-16 -1.0933532970210192e-17 -0.9765076971109976 -0.2154825224531696
12622216000.0 -0.9791319602666978 -0.20322550131344017 1.4960987470021533e-16 -1.2820871936970192e-17 1.4960987470021533e-16 -1.2820871936970192e-17 -0.9791318171961247 -0.20322619062025385
12622833333.333334 -0.9816022464858261 -0.19093724019631098 1.4940689907331076e-16 -1.4705429978434404e-17 1.4940689907331076e-16 -1.4705429978434404e-17 -0.9816021120727355 -0.190937931208415
12623450666.666666 -0.983918319383846 -0.17861898213984007 1.4918019748770245e-16 -1.6586907947384628e-17 1.4918019748770245e-16 -1.6586907947384628e-17 -0.9839181936485065 -0.17861967474851237
12624068000.0 -0.9860798150973085 -0.1662726623876037 1.489298153390114e-16 -1.846500730423073e-17 1.489298153390114e-16 -1.846500730423073e-17 -0.9860796980586248 -0.16627335648388228
12624685333.333334 -0.9880863940474071 -0.1539002205917714 1.4865580177727354e-16 -2.0339430164356694e-17 1.4865580177727354e-16 -2.0339430164356694e-17 -0.9880862857229151 -0.15390091606647097
12625302666.666666 -0.9899377409933022 -0.14150360050854777 1.4835820969765179e-16 -2.2209879345250916e-17 1.4835820969765179e-16 -2.2209879345250916e-17 -0.9899376413991663 -0.14150429725227714
12625920000.0 -0.9916335650817054 -0.12908474969240824 1.4803709573053442e-16 -2.4076058413641185e-17 1.4803709573053442e-16 -2.4076058413641185e-17 -0.9916334742327184 -0.12908544759558777
12626537333.333334 -0.9931735998925184 -0.11664561919052474 1.476925202310701e-16 -2.5937671732323516e-17 1.476925202310701e-16 -2.5937671732323516e-17 -0.9931735178020973 -0.1166463181434033
12627154666.666666 -0.9945576034807053 -0.10418816323613675 1.473245472680867e-16 -2.7794424507014365e-17 1.473245472680867e-16 -2.7794424507014365e-17 -0.9945575301608905 -0.10418886312880908
12627772000.0 -0.9957853584143502 -0.09171433894113892 1.4693324461243198e-16 -2.9646022832973874e-17 1.4693324461243198e-16 -2.9646022832973874e-17 -0.995785293875801 -0.09171503966356263
12628389333.333334 -0.9968566718087265 -0.07922610598934506 1.4651868372475014e-16 -3.149217374138642e-17 1.4651868372475014e-16 -3.149217374138642e-17 -0.9968566160607247 -0.07922680743135851
12629006666.666666 -0.9977713753566759 -0.066725426327994 1.460809397426333e-16 -3.3332585245774145e-17 1.460809397426333e-16 -3.3332585245774145e-17 -0.9977713284071201 -0.06672612837933313
12629624000.0 -0.9985293253550174 -0.05421426385980264 1.4562009146723696e-16 -3.516696638801893e-17 1.4562009146723696e-16 -3.516696638801893e-17 -0.9985292872104222 -0.054214966410118394
12630241333.333334 -0.9991304027271273 -0.041694584134316204 1.451362213492788e-16 -3.699502728438586e-17 1.451362213492788e-16 -3.699502728438586e-17 -0.9991303733926262 -0.04169528707319204
12630858666.666666 -0.9995745130416442 -0.02916835403934062 1.4462941547450368e-16 -3.8816479171175235e-17 1.4462941547450368e-16 -3.8816479171175235e-17 -0.9995744925209838 -0.02916905725630964
12631476000.0 -0.9998615865273165 -0.016637541491539475 1.4409976354852153e-16 -4.063103445039295e-17 1.4409976354852153e-16 -4.063103445039295e-17 -0.9998615748228586 -0.016638244876101917
12632093333.333334 -0.9999915780839477 -0.004104115127664725 1.4354735888112684e-16 -4.243840673501981e-17 1.4354735888112684e-16 -4.243840673501981e-17 -0.99999157519667 -0.004104818569305321
12632710666.666666 -0.9999644672894941 0.008429956004836885 1.4297229837002854e-16 -4.423831089415262e-17 1.4297229837002854e-16 -4.423831089415262e-17 -0.9999644732189885 0.008429252616631579
12633328000.0 -0.9997802584032671 0.02096270275756637 1.423746824839923e-16 -4.6030463098000886e-17 1.423746824839923e-16 -4.6030463098000886e-17 -0.9997802731477408 0.020961999533290605
12633945333.333334 -0.9994389803652659 0.03349215618979397 1.417546152454675e-16 -4.781458086250386e-17 1.417546152454675e-16 -4.781458086250386e-17 -0.9994390039215417 0.03349145323990547
12634562666.666666 -0.9989406867916328 0.0460163478784124 1.4111220421262069e-16 -4.959038309382992e-17 1.4111220421262069e-16 -4.959038309382992e-17 -0.9989407191551475 0.04601564531331491
12635180000.0 -0.9982854559662184 0.05853331022695552 1.4044756046081383e-16 -5.1357590132628503e-17 1.4044756046081383e-16 -5.1357590132628503e-17 -0.9982854971310291 0.05853260815698169
12635797333.333334 -0.9974733908283019 0.07104107677460192 1.3976079856355221e-16 -5.3115923797972106e-17 1.3976079856355221e-16 -5.3115923797972106e-17 -0.9974734407870816 0.07104037530999574
12636414666.666666 -0.9965046189564113 0.08353768250522661 1.39052036572873e-16 -5.486510743107827e-17 1.39052036572873e-16 -5.486510743107827e-17 -0.9965046777004518 0.08353698175612617
12637032000.0 -0.9953792925482672 0.09602116415622546 1.383213959991556e-16 -5.660486593885106e-17 1.383213959991556e-16 -5.660486593885106e-17 -0.9953793600674828 0.0960204642326458
12637649333.333334 -0.9940975883968897 0.1084895605267811 1.3756900179044776e-16 -5.833492583700548e-17 1.3756900179044776e-16 -5.833492583700548e-17 -0.9940976646798159 0.10848886153859678
12638266666.666666 -0.9926597078628066 0.12094091278608761 1.3679498231120546e-16 -6.00550152930377e-17 1.3679498231120546e-16 -6.00550152930377e-17 -0.9926597928966044 0.1209402148430156
12638884000.0 -0.9910658768424518 0.13337326478086461 1.3599946932052069e-16 -6.17648641688604e-17 1.3599946932052069e-16 -6.17648641688604e-17 -0.9910659706129078 0.13337256799244687
12639501333.333334 -0.9893163457326236 0.14578466334307075 1.3518259794979095e-16 -6.346420406320572e-17 1.3518259794979095e-16 -6.346420406320572e-17 -0.9893164482241532 0.14578396781865716
12640118666.666666 -0.9874113893912161 0.1581731585962468 1.3434450667992203e-16 -6.515276835360387e-17 1.3434450667992203e-16 -6.515276835360387e-17 -0.9874115005868662 0.15817246444497793
12640736000.0 -0.9853513070939278 0.17053680426257894 1.334853373178938e-16 -6.683029223830034e-17 1.334853373178938e-16 -6.683029223830034e-17 -0.9853514269753803 0.17053611159336912
12641353333.333334 -0.983136422487405 0.18287365796765573 1.3260523497295323e-16 -6.849651277756098e-17 1.3260523497295323e-16 -6.849651277756098e-17 -0.9831365510349794 0.18287296688917595
12641970666.666666 -0.9807670835382425 0.19518178154657653 1.317043480321554e-16 -7.015116893493841e-17 1.317043480321554e-16 -7.015116893493841e-17 -0.9807672207308977 0.19518109216723697
12642588000.0 -0.9782436624783943 0.2074592413479383 1.3078282813547207e-16 -7.179400161805979e-17 1.3078282813547207e-16 -7.179400161805979e-17 -0.9782438082937345 0.20745855377587197
12643205333.333334 -0.9755665557466825 0.21970410853773295 1.2984083015036922e-16 -7.342475371913482e-17 1.2984083015036922e-16 -7.342475371913482e-17 -0.9755667101609584 0.21970342288077813
12643822666.666666 -0.9727361839265107 0.23191445940237315 1.2887851214586358e-16 -7.504317015516114e-17 1.2887851214586358e-16 -7.504317015516114e-17 -0.9727363469146244 0.23191377576805675
12644440000.0 -0.9697529916797759 0.24408837565097022 1.278960353661205e-16 -7.664899790771746e-17 1.278960353661205e-16 -7.664899790771746e-17 -0.9697531632152866 0.24408769414649117
12645057333.333334 -0.9666174476770532 0.25622394471653953 1.2689356420351194e-16 -7.824198606249429e-17 1.2689356420351194e-16 -7.824198606249429e-17 -0.9666176277321783 0.25622326544875135
12645674666.666666 -0.9633300445239389 0.26831926005658197 1.2587126617122921e-16 -7.982188584839283e-17 1.2587126617122921e-16 -7.982188584839283e-17 -0.9633302330695607 0.26831858313197676
12646292000.0 -0.9598912986836133 0.2803724214527735 1.248293118753392e-16 -8.138845067638323e-17 1.248293118753392e-16 -8.138845067638323e-17 -0.9598914956892834 0.28037174697746453
12646909333.333334 -0.9563017503958104 0.2923815353091124 1.2376787498644907e-16 -8.294143617785672e-17 1.2376787498644907e-16 -8.294143617785672e-17 -0.9563019558297551 0.29238086338881825
12647526666.666666 -0.952561963591836 0.3043447149497939 1.2268713221083022e-16 -8.448060024270912e-17 1.2268713221083022e-16 -8.448060024270912e-17 -0.9525621774209586 0.30434404568982093
12648144000.0 -0.9486725258060305 0.3162600809153938 1.2158726326107382e-16 -8.600570305704209e-17 1.2158726326107382e-16 -8.600570305704209e-17 -0.9486727479959207 0.31625941442062055
12648761333.333334 -0.9446340480834361 0.3281257612582482 1.2046845082632225e-16 -8.751650714042135e-17 1.2046845082632225e-16 -8.751650714042135e-17 -0.9446342785983728 0.32812509763310854
12649378666.666666 -0.9404471648838717 0.339939891836328 1.1933088054199083e-16 -8.901277738281876e-17 1.1933088054199083e-16 -8.901277738281876e-17 -0.9404474036868286 0.3399392311847944
12649996000.0 -0.9361125339821215 0.35170061660647683 1.1817474095905458e-16 -9.049428108112678e-17 1.1817474095905458e-16 -9.049428108112678e-17 -0.9361127810347764 0.35169995903204543
12650613333.333334 -0.9316308363647383 0.3634060879156302 1.1700022351287964e-16 -9.196078797528328e-17 1.1700022351287964e-16 -9.196078797528328e-17 -0.9316310916274743 0.3634054335213027
12651230666.666666 -0.9270027761230162 0.3750544667911946 1.1580752249161185e-16 -9.341207028398629e-17 1.1580752249161185e-16 -9.341207028398629e-17 -0.9270030395549309 0.37505381567946317
12651848000.0 -0.9222290803422479 0.3866439232302728 1.1459683500409634e-16 -9.484790274003208e-17 1.1459683500409634e-16 -9.484790274003208e-17 -0.9222293519011612 0.38664327550310473
12652465333.333334 -0.9173104989876661 0.39817263648674267 1.1336836094740936e-16 -9.626806262518149e-17 1.1336836094740936e-16 -9.626806262518149e-17 -0.917310778630124 0.398171992245563
12653082666.666666 -0.9122478047866044 0.4096387953573569 1.121223029739376e-16 -9.767232980463236e-17 1.121223029739376e-16 -9.767232980463236e-17 -0.9122480924678874 0.4096381547030331
12653700000.0 -0.9070417931069606 0.4210405984666019 1.1085886645797567e-16 -9.906048676113108e-17 1.1085886645797567e-16 -9.906048676113108e-17 -0.9070420887810915 0.4210399614994286
12654317333.333334 -0.901693281832429 0.43237625454928597 1.0957825946200872e-16 -1.0043231862853259e-16 1.0957825946200872e-16 -1.0043231862853259e-16 -0.9016935854521778 0.43237562136896807
12654934666.666666 -0.8962031112338408 0.4436439827323148 1.0828069270250207e-16 -1.0178761322501443e-16 1.0828069270250207e-16 -1.0178761322501443e-16 -0.8962034227507352 0.443643353437953
12655552000.0 -0.8905721438372225 0.45484201281431696 1.0696637951528617e-16 -1.0312616108584267e-16 1.0696637951528617e-16 -1.0312616108584267e-16 -0.8905724632015551 0.4548413875043924
12656169333.333334 -0.884801264288373 0.4659685855435995 1.0563553582059125e-16 -1.0444775549563845e-16 1.0563553582059125e-16 -1.0444775549563845e-16 -0.8848015914492066 0.46596796431595666
12656786666.666666 -0.878891379213725 0.47702195289483523 1.042883800876243e-16 -1.0575219252025376e-16 1.042883800876243e-16 -1.0575219252025376e-16 -0.8788917141189039 0.47702133584666867
12657404000.0 -0.8728434170779861 0.4880003783435321 1.0292513329878426e-16 -1.0703927103816233e-16 1.0292513329878426e-16 -1.0703927103816233e-16 -0.8728437596741432 0.48799976557137015
12658021333.333334 -0.8666583280383312 0.4989021371387476 1.0154601891348473e-16 -1.0830879277139639e-16 1.0154601891348473e-16 -1.0830879277139639e-16 -0.8666586782708958 0.49890152873843724
12658638666.666666 -0.8603370837951052 0.5097255165741067 1.001512628316026e-16 -1.0956056231601253e-16 1.001512628316026e-16 -1.0956056231601253e-16 -0.860337441608312 0.5097249126407987
12659256000.0 -0.8538806774389609 0.5204688162572149 9.874109335652061e-17 -1.1079438717211601e-16 9.874109335652061e-17 -1.1079438717211601e-16 -0.8538810427758604 0.5204682168853495
12659873333.333334 -0.8472901232951858 0.5311303483762084 9.73157411578647e-17 -1.120100777733551e-16 9.73157411578647e-17 -1.120100777733551e-16 -0.8472904960976516 0.5311297536595
12660490666.666666 -0.8405664567641836 0.5417084379652138 9.587543923381657e-17 -1.1320744751599308e-16 9.587543923381657e-17 -1.1320744751599308e-16 -0.8405668369729203 0.5417078479966351
12661108000.0 -0.8337107341586125 0.552201423167772 9.442042287309999e-17 -1.1438631278746742e-16 9.442042287309999e-17 -1.1438631278746742e-16 -0.8337111217131703 0.5522008380395425
12661725333.333334 -0.826724032537843 0.5626076554973045 9.295092961661338e-17 -1.1554649299447004e-16 9.295092961661338e-17 -1.1554649299447004e-16 -0.8267244273766217 0.5626070753008733
12662342666.666666 -0.8196074495383695 0.5729255000966658 9.1467199218716e-17 -1.1668781059053243e-16 9.1467199218716e-17 -1.1668781059053243e-16 -0.8196078515986321 0.5729249249226991
12662960000.0 -0.8123621032016561 0.5831533359945618 8.996947360818542e-17 -1.1781009110311227e-16 8.996947360818542e-17 -1.1781009110311227e-16 -0.8123625124195368 0.5831527659329275
12663577333.333334 -0.8049891317982628 0.5932895563605386 8.84579968488096e-17 -1.1891316316020424e-16 8.84579968488096e-17 -1.1891316316020424e-16 -0.8049895481087761 0.5932889915002924
12664194666.666666 -0.7974896936491096 0.6033325687572773 8.693301509972091e-17 -1.199968585163956e-16 8.693301509972091e-17 -1.199968585163956e-16 -0.7974901169861645 0.6033320091866496
12664812000.0 -0.7898649669436102 0.6132807953906401 8.539477657534589e-17 -1.2106101207846518e-16 8.539477657534589e-17 -1.2106101207846518e-16 -0.7898653972400163 0.6132802411970214
12665429333.333334 -0.7821161495543296 0.6231326733578617 8.384353150507629e-17 -1.221054619304449e-16 8.384353150507629e-17 -1.221054619304449e-16 -0.7821165867418116 0.6231321246277902
12666046666.666666 -0.7742444588491104 0.632886654892686 8.22795320926352e-17 -1.231300493581657e-16 8.22795320926352e-17 -1.231300493581657e-16 -0.7742449028583165 0.6328861117118324
12666664000.0 -0.7662511314993938 0.6425412076090568 8.070303247510232e-17 -1.2413461887331142e-16 8.070303247510232e-17 -1.2413461887331142e-16 -0.7662515822599063 0.6425406700622114
12667281333.333334 -0.7581374232863953 0.6520948147412862 7.911428868176047e-17 -1.2511901823687682e-16 7.911428868176047e-17 -1.2511901823687682e-16 -0.7581378807267438 0.6520942829123464
12667898666.666666 -0.7499046089036085 0.6615459753826121 7.751355859247995e-17 -1.260830984822128e-16 7.751355859247995e-17 -1.260830984822128e-16 -0.7499050729512808 0.6615454493545698
12668516000.0 -0.7415539817563204 0.6708932047212535 7.590110189600109e-17 -1.2702671393742733e-16 7.590110189600109e-17 -1.2702671393742733e-16 -0.7415544523377718 0.6708926845761796
12669133333.333334 -0.7330868537588534 0.6801350342731594 7.427718004783227e-17 -1.2794972224732676e-16 7.427718004783227e-17 -1.2794972224732676e-16 -0.7330873307995215 0.6801345200921939
12669750666.666666 -0.7245045551282082 0.6892700121130204 7.264205622792483e-17 -1.2885198439479193e-16 7.264205622792483e-17 -1.2885198439479193e-16 -0.724505038552522 0.6892695039763577
