! Parameters = {f0=12700.012000; bw=77.238000; Q=6100.000000; N=10; m_0_1=1.329625; m_1_1=1.179624; m_1_2=1.164437; m_2_2=1.178975; m_2_3=0.801400; m_2_8=0.003545; m_2_9=0.040249; m_3_3=1.177038; m_3_4=0.689929; m_3_7=0.004145; m_3_8=-0.092943; m_3_9=0.003545; m_4_4=1.174113; m_4_5=0.526264; m_4_6=0.007662; m_4_7=-0.113492; m_4_8=0.004145; m_5_5=1.174495; m_5_6=0.933619; m_5_7=0.007662; m_6_6=1.174494; m_6_7=0.526606; m_7_7=1.174127; m_7_8=0.690047; m_8_8=1.177036; m_8_9=0.801713; m_9_9=1.178970; m_9_10=1.165515; m_10_10=1.179614; m_10_11=1.330420}
!
! Created with skrf (http://scikit-rf.org).
# Hz S RI R 50.0 
!freq ReS11 ImS11 ReS21 ImS21 ReS12 ImS12 ReS22 ImS22
12607400000.0 -0.7662030870804694 0.6425984977792631 8.024626910890682e-17 -1.2118171247480794e-16 8.024626910890682e-17 -1.2118171247480794e-16 -0.766203537163837 0.6425979611214393
12608017333.333334 -0.7582507493356007 0.6519630366299977 7.872520787962872e-17 -1.2214148041020154e-16 7.872520787962872e-17 -1.2214148041020154e-16 -0.758251205955649 0.6519625055680814
12608634666.666666 -0.7501839655741909 0.6612291719178665 7.719268782190889e-17 -1.230821702403775e-16 7.719268782190889e-17 -1.230821702403775e-16 -0.7501844286613641 0.6612286465314617
12609252000.0 -0.7420039533503845 0.6703955050656341 7.564894805271989e-17 -1.2400364541519135e-16 7.564894805271989e-17 -1.2400364541519135e-16 -0.742004422834157 0.67039498543348
12609869333.333334 -0.7337119473083581 0.679460652559649 7.409422931293102e-17 -1.2490577237938197e-16 7.409422931293102e-17 -1.2490577237938197e-16 -0.7337124231172454 0.6794601387596084
12610486666.666666 -0.725309198996068 0.6884232461585599 7.252877392985975e-17 -1.2578842059182076e-16 7.252877392985975e-17 -1.2578842059182076e-16 -0.7253096810576392 0.6884227382676084
12611104000.0 -0.7167969766761373 0.6972819331000589 7.09528257794806e-17 -1.2665146254435768e-16 7.09528257794806e-17 -1.2665146254435768e-16 -0.7167974649170242 0.6972814311942729
12611721333.333334 -0.7081765651347031 0.7060353763047712 6.93666302485912e-17 -1.274947737800935e-16 6.93666302485912e-17 -1.274947737800935e-16 -0.7081770594806123 0.7060348804593155
12612338666.666666 -0.6994492654873027 0.7146822545782701 6.77704341965892e-17 -1.283182329112755e-16 6.77704341965892e-17 -1.283182329112755e-16 -0.6994497658630263 0.7146817648673878
12612956000.0 -0.6906163949824877 0.7232212628104894 6.616448591711048e-17 -1.2912172163667482e-16 6.616448591711048e-17 -1.2912172163667482e-16 -0.6906169013119154 0.7232207793074906
12613573333.333334 -0.6816792868031697 0.7316511121725499 6.454903509952928e-17 -1.2990512475845206e-16 6.454903509952928e-17 -1.2990512475845206e-16 -0.6816797990093 0.7316506349498005
12614190666.666666 -0.6726392898652748 0.7399705303114074 6.292433279012051e-17 -1.3066833019861264e-16 6.292433279012051e-17 -1.3066833019861264e-16 -0.6726398078702276 0.7399700594403196
12614808000.0 -0.6634977686141259 0.7481782615419149 6.129063135313939e-17 -1.3141122901492163e-16 6.129063135313939e-17 -1.3141122901492163e-16 -0.6634982923391525 0.7481777970929333
12615425333.333334 -0.6542561028185628 0.7562730670362876 5.964818443167097e-17 -1.3213371541635542e-16 5.964818443167097e-17 -1.3213371541635542e-16 -0.654256632184059 0.7562726090788818
12616042666.666666 -0.6449156873626648 0.7642537250111038 5.799724690830613e-17 -1.3283568677806097e-16 5.799724690830613e-17 -1.3283568677806097e-16 -0.6449162222881836 0.764253273613757
12616660000.0 -0.6354779320352186 0.7721190309117169 5.633807486564376e-17 -1.335170436558247e-16 5.633807486564376e-17 -1.335170436558247e-16 -0.6354784724394814 0.772118586141915
12617277333.333334 -0.6259442613169074 0.7798677975940772 5.4670925546620484e-17 -1.341776898000505e-16 5.4670925546620484e-17 -1.341776898000505e-16 -0.6259448071178166 0.7798673595182999
12617894666.666666 -0.6163161141654221 0.7874988555038293 5.2996057314701534e-17 -1.3481753216923443e-16 5.2996057314701534e-17 -1.3481753216923443e-16 -0.6163166652800733 0.7874984241875383
12618512000.0 -0.6065949437980248 0.7950110528530264 5.1313729613854426e-17 -1.3543648094296686e-16 5.1313729613854426e-17 -1.3543648094296686e-16 -0.6065955001427207 0.7950106283606585
12619129333.333334 -0.5967822174725246 0.8024032557937338 4.962420292846862e-17 -1.3603444953439963e-16 4.962420292846862e-17 -1.3603444953439963e-16 -0.5967827789627855 0.8024028381886879
12619746666.666666 -0.5868794162655911 0.8096743485893361 4.792773874303984e-17 -1.3661135460224905e-16 4.792773874303984e-17 -1.3661135460224905e-16 -0.5868799828161705 0.809673937933967
12620364000.0 -0.5768880348492116 0.8168232337829421 4.622459950175483e-17 -1.3716711606228135e-16 4.622459950175483e-17 -1.3716711606228135e-16 -0.5768886063741062 0.8168228301385484
12620981333.333334 -0.5668095812652714 0.8238488323628885 4.451504856798094e-17 -1.377016570982857e-16 4.451504856798094e-17 -1.377016570982857e-16 -0.5668101576777371 0.8238484357897066
12621598666.666666 -0.5566455766978077 0.8307500839257081 4.279935018355606e-17 -1.3821490417256502e-16 4.279935018355606e-17 -1.3821490417256502e-16 -0.5566461579103698 0.8307496944828993
12622216000.0 -0.5463975552433837 0.8375259468361926 4.1077769428019417e-17 -1.3870678703590443e-16 4.1077769428019417e-17 -1.3870678703590443e-16 -0.546398141167852 0.8375255645818364
12622833333.333334 -0.536067063679585 0.8441753983845741 3.935057217769789e-17 -1.391772387370398e-16 3.935057217769789e-17 -1.391772387370398e-16 -0.536067654227067 0.8441750233756602
12623450666.666666 -0.5256556612316343 0.8506974349408492 3.7618025064730604e-17 -1.3962619563160728e-16 3.7618025064730604e-17 -1.3962619563160728e-16 -0.5256562563125488 0.8506970672332682
12624068000.0 -0.515164919336929 0.8570910721063327 3.588039543591827e-17 -1.4005359739060365e-16 3.588039543591827e-17 -1.4005359739060365e-16 -0.5151655188610182 0.8570907117548671
12624685333.333334 -0.5045964214078315 0.863355344862252 3.413795131153451e-17 -1.404593870083195e-16 3.413795131153451e-17 -1.404593870083195e-16 -0.5045970252841772 0.8633549919205697
12625302666.666666 -0.49395176259292317 0.8694893077152538 3.239096134407474e-17 -1.4084351080975701e-16 3.239096134407474e-17 -1.4084351080975701e-16 -0.49395237072995885 0.8694889622358988
12625920000.0 -0.4832325495358752 0.8754920348403319 3.0639694776828245e-17 -1.4120591845755691e-16 3.0639694776828245e-17 -1.4120591845755691e-16 -0.4832331618413998 0.8754916968747166
12626537333.333334 -0.472440400133268 0.8813626202203749 2.8884421402492106e-17 -1.415465629583854e-16 2.8884421402492106e-17 -1.415465629583854e-16 -0.4724410165144605 0.8813622898187728
12627154666.666666 -0.46157694329037496 0.8871001777829387 2.7125411521637218e-17 -1.4186540066882523e-16 2.7125411521637218e-17 -1.4186540066882523e-16 -0.4615775636538086 0.8870998549944767
12627772000.0 -0.4506438186748774 0.8927038415342077 2.5362935901112468e-17 -1.4216239130074975e-16 2.5362935901112468e-17 -1.4216239130074975e-16 -0.4506444429265333 0.8927035264068589
12628389333.333334 -0.43964267647008604 0.8981727656893332 2.35972657324748e-17 -1.4243749792616819e-16 2.35972657324748e-17 -1.4243749792616819e-16 -0.439643304515368 0.8981724582699105
12629006666.666666 -0.42857517712521653 0.9035061248004327 2.1828672590253074e-17 -1.4269068698157398e-16 2.1828672590253074e-17 -1.4269068698157398e-16 -0.4285758088689649 0.9035058251345809
12629624000.0 -0.41744299110517535 0.9087031138809701 2.0057428390275043e-17 -1.4292192827175994e-16 2.0057428390275043e-17 -1.4292192827175994e-16 -0.41744362645168104 0.908702822013158
12630241333.333334 -0.4062477986382502 0.9137629485273422 1.828380534788939e-17 -1.4313119497312632e-16 1.828380534788939e-17 -1.4313119497312632e-16 -0.40624843749127054 0.9137626645008585
12630858666.666666 -0.39499128946266376 0.9186848650372064 1.650807593620718e-17 -1.4331846363646663e-16 1.650807593620718e-17 -1.4331846363646663e-16 -0.39499193172543545 0.9186845888941516
12631476000.0 -0.383675162571245 0.92346812052487 1.4730512844250605e-17 -1.4348371418924132e-16 1.4730512844250605e-17 -1.4348371418924132e-16 -0.38367580814650065 0.9234678523061519
12632093333.333334 -0.37230112595530823 0.9281119930332848 1.2951388935179197e-17 -1.436269299373261e-16 1.2951388935179197e-17 -1.436269299373261e-16 -0.3723017747452895 0.9281117327786106
12632710666.666666 -0.36087089634683334 0.9326157816430302 1.1170977204448396e-17 -1.4374809756624794e-16 1.1170977204448396e-17 -1.4374809756624794e-16 -0.3608715482533059 0.9326155293909001
12633328000.0 -0.34938619895895523 0.9369788065782605 9.389550737927472e-18 -1.4384720714190494e-16 9.389550737927472e-18 -1.4384720714190494e-16 -0.34938685388322444 0.9369785623659646
12633945333.333334 -0.33784876722607177 0.9412004093091069 7.607382670118073e-18 -1.4392425211076208e-16 7.607382670118073e-18 -1.4392425211076208e-16 -0.3378494250689973 0.9412001731727183
12634562666.666666 -0.32626034254194647 0.9452799526511811 5.824746142304007e-18 -1.439792292995353e-16 5.824746142304007e-18 -1.439792292995353e-16 -0.3262610032039568 0.9452797246255497
12635180000.0 -0.3146226739969232 0.949216820861721 4.041914260744911e-18 -1.4401213891435499e-16 4.041914260744911e-18 -1.4401213891435499e-16 -0.31462333737803133 0.9492166009804699
12635797333.333334 -0.302937518113876 0.9530104197325509 2.2591600548835043e-18 -1.4402298453941523e-16 2.2591600548835043e-18 -1.4402298453941523e-16 -0.30293818411369405 0.9530102080280699
12636414666.666666 -0.2912066385833048 0.9566601766796916 4.767564356013287e-19 -1.440117731351041e-16 4.767564356013287e-19 -1.440117731351041e-16 -0.2912073071010601 0.9566599731831347
12637032000.0 -0.27943180599681133 0.960165540829896 -1.3050238465319535e-18 -1.4397851503562015e-16 -1.3050238465319535e-18 -1.4397851503562015e-16 -0.27943247693136036 0.9601653455711742
12637649333.333334 -0.2676147975800706 0.9635259831037175 -3.0859082429274958e-18 -1.4392322394607152e-16 -3.0859082429274958e-18 -1.4392322394607152e-16 -0.26761547082991505 0.963525796111495
12638266666.666666 -0.2557573969245333 0.9667409962953858 -4.865624448619467e-18 -1.438459169390617e-16 -4.865624448619467e-18 -1.438459169390617e-16 -0.2557580723878356 0.9667408175970778
12638884000.0 -0.24386139371822066 0.9698100951493621 -6.64390044384962e-18 -1.4374661445076083e-16 -6.64390044384962e-18 -1.4374661445076083e-16 -0.2438620712928192 0.9698099247711294
12639501333.333334 -0.23192858347554454 0.9727328164335952 -8.420464535596028e-18 -1.4362534027646336e-16 -8.420464535596028e-18 -1.4362534027646336e-16 -0.23192926305896883 0.9727326544003397
12640118666.666666 -0.21996076726660638 0.9755087190093659 -1.0195045399007081e-17 -1.434821215656356e-16 -1.0195045399007081e-17 -1.434821215656356e-16 -0.21996144875609266 0.9755085653447271
12640736000.0 -0.20795975144460613 0.9781373838980413 -1.1967372118852583e-17 -1.4331698881644465e-16 -1.1967372118852583e-17 -1.4331698881644465e-16 -0.2079604347371136 0.9781372386243957
12641353333.333334 -0.1959273473742561 0.9806184143440786 -1.3737174230733012e-17 -1.431299758697905e-16 -1.3737174230733012e-17 -1.431299758697905e-16 -0.19592803236648107 0.980618277482531
12641970666.666666 -0.18386537115749485 0.9829514358751018 -1.550418176239107e-17 -1.429211199028131e-16 -1.550418176239107e-17 -1.429211199028131e-16 -0.1838660577458878 0.9829513074454876
12642588000.0 -0.1717756433597927 0.9851360963583345 -1.7268125274785164e-17 -1.4269046142190386e-16 -1.7268125274785164e-17 -1.4269046142190386e-16 -0.17177633144057294 0.9851359763792132
12643205333.333334 -0.1596599887353098 0.9871720660537597 -1.9028735903146705e-17 -1.4243804425520372e-16 -1.9028735903146705e-17 -1.4243804425520372e-16 -0.1596606782044819 0.987171954542415
12643822666.666666 -0.14752023595136693 0.9890590376639103 -2.0785745397925128e-17 -1.4216391554459445e-16 -2.0785745397925128e-17 -1.4216391554459445e-16 -0.14752092670473596 0.989058934636346
12644440000.0 -0.13535821731257644 0.9907967263802243 -2.253888616557025e-17 -1.4186812573719408e-16 -2.253888616557025e-17 -1.4186812573719408e-16 -0.13535890924576363 0.9907966318511606
12645057333.333334 -0.12317576848425701 0.9923848699260382 -2.4287891309238804e-17 -1.4155072857634437e-16 -2.4287891309238804e-17 -1.4155072857634437e-16 -0.12317646149271591 0.9923847839089134
12645674666.666666 -0.11097472821536936 0.9938232285961787 -2.6032494669394723e-17 -1.412117810920956e-16 -2.6032494669394723e-17 -1.412117810920956e-16 -0.11097542219440137 0.9938231511031437
12646292000.0 -0.0987569380607879 0.9951115852931599 -2.7772430864272075e-17 -1.4085134359118992e-16 -2.7772430864272075e-17 -1.4085134359118992e-16 -0.09875763290555818 0.9951115163350781
12646909333.333334 -0.08652424210368599 0.9962497455599137 -2.9507435330143574e-17 -1.404694796465617e-16 -2.9507435330143574e-17 -1.404694796465617e-16 -0.0865249377092392 0.9962496851463594
12647526666.666666 -0.07427848667705943 0.9972375376091562 -3.12372443615361e-17 -1.400662560863238e-16 -3.12372443615361e-17 -1.400662560863238e-16 -0.07427918293833595 0.9972374857484153
12648144000.0 -0.06202152008479729 0.9980748123493443 -3.296159515125498e-17 -1.396417429822679e-16 -3.296159515125498e-17 -1.396417429822679e-16 -0.06202221689664839 0.9980747690484076
12648761333.333334 -0.04975519232307648 0.9987614434071346 -3.468022583024355e-17 -1.3919601363787698e-16 -3.468022583024355e-17 -1.3919601363787698e-16 -0.049755889580280786 0.9987614086717017
12649378666.666666 -0.037481354801106696 0.9992973271464713 -3.639287550729933e-17 -1.387291445758441e-16 -3.639287550729933e-17 -1.387291445758441e-16 -0.037482052398385965 0.9992973009809503
12649996000.0 -0.02520186006140557 0.9996823826842474 -3.809928430864496e-17 -1.3824121552509795e-16 -3.809928430864496e-17 -1.3824121552509795e-16 -0.025202557893440395 0.9996823650917506
12650613333.333334 -0.01291856150038479 0.9999165519024921 -3.979919341729606e-17 -1.3773230940735077e-16 -3.979919341729606e-17 -1.3773230940735077e-16 -0.01291925946183063 0.9999165428848382
12651230666.666666 -0.0006333130886946082 0.9999997994571496 -4.149234511224859e-17 -1.3720251232316495e-16 -4.149234511224859e-17 -1.3720251232316495e-16 -0.0006340110741976824 0.9999997990148629
12651848000.0 0.011652030908888056 0.9999321127834162 -4.317848280753758e-17 -1.3665191353752173e-16 -4.317848280753758e-17 -1.3665191353752173e-16 0.011651333004674885 0.9999321209157264
12652465333.333334 0.023935616213075935 0.9997135020976299 -4.485735109103656e-17 -1.3608060546493238e-16 -4.485735109103656e-17 -1.3608060546493238e-16 0.023934918495477263 0.9997135188024735
12653082666.666666 0.036215588809945756 0.9993440003957382 -4.652869576307484e-17 -1.3548868365407148e-16 -4.652869576307484e-17 -1.3548868365407148e-16 0.03621489138424771 0.999344025669757
12653700000.0 0.0484900952310564 0.9988236634483041 -4.819226387495338e-17 -1.348762467719005e-16 -4.819226387495338e-17 -1.348762467719005e-16 0.04848939820249082 0.998823697286848
12654317333.333334 0.06075728283280334 0.9981525697921053 -4.98478037670663e-17 -1.3424339658738668e-16 -4.98478037670663e-17 -1.3424339658738668e-16 0.06075658630653178 0.9981526121892307
12654934666.666666 0.07301530007632974 0.9973308207182661 -5.149506510699441e-17 -1.3359023795468892e-16 -5.149506510699441e-17 -1.3359023795468892e-16 0.07301460415742789 0.9973308716667415
12655552000.0 0.0852622968070158 0.9963585402569708 -5.3133798927303656e-17 -1.3291687879590344e-16 -5.3133798927303656e-17 -1.3291687879590344e-16 0.08526160160045707 0.9963585997482695
12656169333.333334 0.0974964245333611 0.995235875158758 -5.476375766305198e-17 -1.3222343008337506e-16 -5.476375766305198e-17 -1.3222343008337506e-16 0.09749573014400159 0.9952359431830705
12656786666.666666 0.10971583670643979 0.9939629948723514 -5.638469518921107e-17 -1.315100058214917e-16 -5.638469518921107e-17 -1.315100058214917e-16 0.10971514323900178 0.9939630714185783
12657404000.0 0.12191868899835236 0.9925400915190942 -5.79963668577393e-17 -1.3077672302806672e-16 -5.79963668577393e-17 -1.3077672302806672e-16 0.12191799655740876 0.9925401765748507
12658021333.333334 0.13410313958068282 0.990967379863945 -5.959852953446345e-17 -1.3002370171524774e-16 -5.959852953446345e-17 -1.3002370171524774e-16 0.13410244827064155 0.9909674734155647
12658638666.666666 0.14626734940235323 0.9892450972830842 -6.119094163568468e-17 -1.2925106486998802e-16 -6.119094163568468e-17 -1.2925106486998802e-16 0.14626665932744123 0.9892451993156186
12659256000.0 0.1584094824674806 0.9873735037280438 -6.277336316458771e-17 -1.284589384340435e-16 -6.277336316458771e-17 -1.284589384340435e-16 0.15840879373172836 0.9873736142252671
12659873333.333334 0.17052770611223847 0.9853528816865087 -6.434555574732389e-17 -1.2764745128355987e-16 -6.434555574732389e-17 -1.2764745128355987e-16 0.1705270188194641 0.9853530006309179
12660490666.666666 0.18262019128146906 0.9831835361396815 -6.590728266886437e-17 -1.2681673520820187e-16 -6.590728266886437e-17 -1.2681673520820187e-16 0.18261950553526285 0.9831836635125014
12661108000.0 0.1946851128050302 0.9808657945162023 -6.74583089086214e-17 -1.2596692488982615e-16 -6.74583089086214e-17 -1.2596692488982615e-16 0.1946844287087391 0.9808659302973878
12661725333.333334 0.2067206496728848 0.9784000066427992 -6.899840117571058e-17 -1.2509815788076564e-16 -6.899840117571058e-17 -1.2509815788076564e-16 0.2067199673295962 0.9784001508110365
12662342666.666666 0.218724985310288 0.9757865446914213 -7.05273279440235e-17 -1.242105745816345e-16 -7.05273279440235e-17 -1.242105745816345e-16 0.218724304822815 0.9757866972241341
12662960000.0 0.23069630785172063 0.9730258031231201 -7.204485948696014e-17 -1.233043182187374e-16 -7.204485948696014e-17 -1.233043182187374e-16 0.23069562932258642 0.9730259639964722
12663577333.333334 0.24263281041455587 0.9701181986284669 -7.355076791189315e-17 -1.223795348210429e-16 -7.355076791189315e-17 -1.223795348210429e-16 0.24263213394597777 0.9701183678173653
12664194666.666666 0.2545326913716693 0.9670641700646877 -7.504482719433498e-17 -1.2143637319673947e-16 -7.504482719433498e-17 -1.2143637319673947e-16 0.2545320170655435 0.9670643475427856
12664812000.0 0.2663941546233924 0.9638641783894123 -7.652681321180527e-17 -1.2047498490937463e-16 -7.652681321180527e-17 -1.2047498490937463e-16 0.2663934825812793 0.9638643641291164
12665429333.333334 0.2782154098686346 0.960518706591099 -7.799650377740103e-17 -1.194955242535776e-16 -7.799650377740103e-17 -1.194955242535776e-16 0.2782147401917425 0.9605189005635698
12666046666.666666 0.289994672874963 0.957028259616168 -7.945367867301719e-17 -1.1849814823040066e-16 -7.945367867301719e-17 -1.1849814823040066e-16 0.2899940056641342 0.9570284617913295
12666664000.0 0.30173016574820616 0.9533933642927086 -8.089811968235993e-17 -1.174830165221831e-16 -8.089811968235993e-17 -1.174830165221831e-16 0.30172950110389996 0.953393574639246
12667281333.333334 0.313420117200415 0.9496145692510652 -8.232961062347366e-17 -1.1645029146712834e-16 -8.232961062347366e-17 -1.1645029146712834e-16 0.31341945522269427 0.9496147877364366
12667898666.666666 0.32506276281748664 0.94569244484096 -8.374793738110453e-17 -1.1540013803337552e-16 -8.374793738110453e-17 -1.1540013803337552e-16 0.3250621036060013 0.9456926714313952
12668516000.0 0.33665634532546995 0.941627583045393 -8.5152887938667e-17 -1.143327237927224e-16 -8.5152887938667e-17 -1.143327237927224e-16 0.3366556889794434 0.9416278177059045
12669133333.333334 0.3481991148555588 0.9374205973913814 -8.654425240981968e-17 -1.132482188940058e-16 -8.654425240981968e-17 -1.132482188940058e-16 0.3481984614737726 0.9374208400857674
12669750666.666666 0.3596893292085032 0.9330721228572559 -8.792182306982585e-17 -1.1214679603600513e-16 -8.792182306982585e-17 -1.1214679603600513e-16 0.359688678889281 0.9330723735481038
