! Parameters = {f0=12700.012000; bw=77.238000; Q=6100.000000; N=10; m_0_1=1.233328; m_1_1=-0.264821; m_1_2=1.068140; m_2_2=-0.265470; m_2_3=0.705103; m_2_8=-0.001270; m_2_9=0.035434; m_3_3=-0.267407; m_3_4=0.593632; m_3_7=-0.000670; m_3_8=-0.097758; m_3_9=-0.001270; m_4_4=-0.270332; m_4_5=0.429967; m_4_6=0.002847; m_4_7=-0.118307; m_4_8=-0.000670; m_5_5=-0.269950; m_5_6=0.837322; m_5_7=0.002847; m_6_6=-0.269951; m_6_7=0.430309; m_7_7=-0.270318; m_7_8=0.593750; m_8_8=-0.267409; m_8_9=0.705416; m_9_9=-0.265475; m_9_10=1.069218; m_10_10=-0.264831; m_10_11=1.234123}
!
! Created with skrf (http://scikit-rf.org).
# Hz S RI R 50.0 
!freq ReS11 ImS11 ReS21 ImS21 ReS12 ImS12 ReS22 ImS22
12607400000.0 -0.5981643565621242 -0.8013734476125678 7.429937221320701e-17 5.550167598662709e-17 7.429937221320701e-17 5.550167598662709e-17 -0.5981638357847093 -0.8013738363330538
12608017333.333334 -0.6057016312550699 -0.7956918586329639 7.481013121324632e-17 5.4780547826137445e-17 7.481013121324632e-17 5.4780547826137445e-17 -0.605701114195187 -0.7956922522323199
12608634666.666666 -0.6131849434044089 -0.7899393807008014 7.53138986107068e-17 5.405472889758995e-17 7.53138986107068e-17 5.405472889758995e-17 -0.613184430107757 -0.7899397791434848
12609252000.0 -0.6206136263146967 -0.7841165263099332 7.581063141963131e-17 5.332428691707179e-17 7.581063141963131e-17 5.332428691707179e-17 -0.6206131168266352 -0.7841169295599741
12609869333.333334 -0.6279870181574828 -0.7782238142240997 7.630028730926069e-17 5.258928999366516e-17 7.630028730926069e-17 5.258928999366516e-17 -0.6279865125230281 -0.7782242222451041
12610486666.666666 -0.6353044620301432 -0.7722617694308218 7.678282460760736e-17 5.184980662312945e-17 7.678282460760736e-17 5.184980662312945e-17 -0.6353039602939625 -0.7722621821859723
12611104000.0 -0.6425653060147316 -0.7662309230943547 7.725820230499967e-17 5.110590568150234e-17 7.725820230499967e-17 5.110590568150234e-17 -0.6425648082211417 -0.7662313405464176
12611721333.333334 -0.649768903235623 -0.7601318125087313 7.772638005751447e-17 5.0357656418746114e-17 7.772638005751447e-17 5.0357656418746114e-17 -0.6497684094285839 -0.7601322346200565
12612338666.666666 -0.6569146119174488 -0.7539649810496382 7.81873181903954e-17 4.960512845228975e-17 7.81873181903954e-17 4.960512845228975e-17 -0.6569141221405628 -0.7539654077821659
12612956000.0 -0.6640017954422314 -0.747730978126042 7.864097770139428e-17 4.884839176056205e-17 7.864097770139428e-17 4.884839176056205e-17 -0.6640013097387355 -0.7477314094413029
12613573333.333334 -0.67102982240599 -0.7414303591313338 7.90873202640257e-17 4.808751667653503e-17 7.90873202640257e-17 4.808751667653503e-17 -0.6710293408187561 -0.7414307949904558
12614190666.666666 -0.6779980666750839 -0.7350636853937781 7.952630823079885e-17 4.732257388117254e-17 7.952630823079885e-17 4.732257388117254e-17 -0.6779975892466109 -0.735064125757486
12614808000.0 -0.6849059074419676 -0.7286315241265152 7.995790463635777e-17 4.6553634396897224e-17 7.995790463635777e-17 4.6553634396897224e-17 -0.6849054342143819 -0.7286319689551388
12615425333.333334 -0.691752729280485 -0.7221344483770554 8.038207320057487e-17 4.57807695810019e-17 8.038207320057487e-17 4.57807695810019e-17 -0.6917522602955333 -0.7221348976305287
12616042666.666666 -0.6985379222007758 -0.7155730369761403 8.079877833156593e-17 4.5004051119058003e-17 8.079877833156593e-17 4.5004051119058003e-17 -0.6985374574998234 -0.7155734906140083
12616660000.0 -0.705260881703499 -0.708947874486296 8.12079851286555e-17 4.422355101827426e-17 8.12079851286555e-17 4.422355101827426e-17 -0.7052604213275252 -0.7089483324677163
12617277333.333334 -0.7119210088337904 -0.7022595511496539 8.160965938527109e-17 4.343934160084008e-17 8.160965938527109e-17 4.343934160084008e-17 -0.7119205528233845 -0.7022600134334008
12617894666.666666 -0.7185177102344811 -0.6955086628355048 8.200376759177423e-17 4.26514954972432e-17 8.200376759177423e-17 4.26514954972432e-17 -0.7185172586298416 -0.6955091293799752
12618512000.0 -0.7250503981992648 -0.6886958109869127 8.239027693823305e-17 4.186008563954746e-17 8.239027693823305e-17 4.186008563954746e-17 -0.7250499510401918 -0.6886962817501262
12619129333.333334 -0.7315184907246531 -0.6818216025675329 8.27691553171141e-17 4.106518525468172e-17 8.27691553171141e-17 4.106518525468172e-17 -0.7315180480505479 -0.6818220775071383
12619746666.666666 -0.7379214115621102 -0.6748866500072563 8.314037132592961e-17 4.026686785766188e-17 8.314037132592961e-17 4.026686785766188e-17 -0.7379209734119696 -0.6748871290805335
12620364000.0 -0.744258590269364 -0.667891571147662 8.350389426981471e-17 3.9465207244798755e-17 8.350389426981471e-17 3.9465207244798755e-17 -0.7442581566817794 -0.6678920543115282
12620981333.333334 -0.7505294622610416 -0.6608369891871873 8.385969416401912e-17 3.866027748692854e-17 8.385969416401912e-17 3.866027748692854e-17 -0.7505290332741927 -0.6608374763981985
12621598666.666666 -0.7567334688592302 -0.6537235326253071 8.42077417363637e-17 3.785215292255411e-17 8.42077417363637e-17 3.785215292255411e-17 -0.7567330445108847 -0.6537240238396638
12622216000.0 -0.7628700573430469 -0.6465518352067773 8.454800842961535e-17 3.704090815100061e-17 8.454800842961535e-17 3.704090815100061e-17 -0.762869637670554 -0.6465523303803266
12622833333.333334 -0.7689386809979887 -0.6393225358650418 8.488046640379362e-17 3.6226618025554805e-17 8.488046640379362e-17 3.6226618025554805e-17 -0.7689382660382794 -0.6393230349532839
12623450666.666666 -0.7749387991645352 -0.6320362786654441 8.520508853841648e-17 3.5409357646574674e-17 8.520508853841648e-17 3.5409357646574674e-17 -0.7749383889541149 -0.6320367816235336
12624068000.0 -0.7808698772864755 -0.6246937127476465 8.552184843468212e-17 3.458920235457184e-17 8.552184843468212e-17 3.458920235457184e-17 -0.7808694718614247 -0.6246942195303985
12624685333.333334 -0.786731386958443 -0.6172954922679076 8.583072041758645e-17 3.376622772327e-17 8.583072041758645e-17 3.376622772327e-17 -0.7867309863544113 -0.6172960028298001
12625302666.666666 -0.7925228059728864 -0.6098422763409379 8.613167953795405e-17 3.29405095526962e-17 8.613167953795405e-17 3.29405095526962e-17 -0.7925224102250905 -0.6098427906361172
12625920000.0 -0.7982436183668209 -0.6023347289808871 8.642470157443578e-17 3.2112123862168766e-17 8.642470157443578e-17 3.2112123862168766e-17 -0.7982432275100422 -0.6023352469631713
12626537333.333334 -0.8038933144676226 -0.5947735190424113 8.670976303540687e-17 3.128114688335387e-17 8.670976303540687e-17 3.128114688335387e-17 -0.8038929285362025 -0.5947740406652946
12627154666.666666 -0.8094713909384361 -0.5871593201610851 8.698684116082197e-17 3.044765505324161e-17 8.698684116082197e-17 3.044765505324161e-17 -0.8094710099662743 -0.5871598453777417
12627772000.0 -0.8149773508231861 -0.5794928106931577 8.725591392399336e-17 2.96117250071307e-17 8.725591392399336e-17 2.96117250071307e-17 -0.8149769748437373 -0.5794933394564464
12628389333.333334 -0.8204107035905845 -0.5717746736554852 8.751696003329388e-17 2.877343357162544e-17 8.751696003329388e-17 2.877343357162544e-17 -0.8204103326368551 -0.5717752059179534
12629006666.666666 -0.8257709651781464 -0.564005596664241 8.776995893381574e-17 2.7932857757546e-17 8.776995893381574e-17 2.7932857757546e-17 -0.8257705992826927 -0.5640061323781298
12629624000.0 -0.8310576580350361 -0.5561862718740502 8.801489080893339e-17 2.7090074752911575e-17 8.801489080893339e-17 2.7090074752911575e-17 -0.8310572972299594 -0.5561868109912966
12630241333.333334 -0.8362703111647758 -0.5483173959160906 8.82517365818209e-17 2.6245161915843323e-17 8.82517365818209e-17 2.6245161915843323e-17 -0.8362699554817217 -0.5483179383883342
12630858666.666666 -0.8414084601670966 -0.540399669836196 8.848047791688741e-17 2.539819676749942e-17 8.848047791688741e-17 2.539819676749942e-17 -0.8414081096372505 -0.5404002156147815
12631476000.0 -0.8464716472794672 -0.5324337990321604 8.870109722116175e-17 2.454925698494038e-17 8.870109722116175e-17 2.454925698494038e-17 -0.8464713019335534 -0.5324343480681432
12632093333.333334 -0.8514594214177372 -0.5244204931911078 8.891357764558421e-17 2.3698420394068424e-17 8.891357764558421e-17 2.3698420394068424e-17 -0.8514590812860149 -0.5244210454352581
12632710666.666666 -0.8563713382163285 -0.516360466226269 8.911790308625251e-17 2.2845764962483497e-17 8.911790308625251e-17 2.2845764962483497e-17 -0.8563710033285877 -0.5163610216290744
12633328000.0 -0.8612069600679517 -0.5082544362131549 8.931405818559217e-17 2.199136879234621e-17 8.931405818559217e-17 2.199136879234621e-17 -0.8612066304535154 -0.5082549947248289
12633945333.333334 -0.865965856162439 -0.5001031253258557 8.950202833345565e-17 2.1135310113252153e-17 8.950202833345565e-17 2.1135310113252153e-17 -0.8659655318501557 -0.5001036868963383
12634562666.666666 -0.87064760252525 -0.4919072597724782 8.968179966815477e-17 2.027766727508704e-17 8.968179966815477e-17 2.027766727508704e-17 -0.8706472835434937 -0.4919078243514423
12635180000.0 -0.8752517820551466 -0.4836675697306208 8.985335907742781e-17 1.941851874086367e-17 8.985335907742781e-17 1.941851874086367e-17 -0.8752514684318126 -0.4836681372674753
12635797333.333334 -0.8797779845614213 -0.47538478928219563 9.001669419933524e-17 1.855794307956152e-17 9.001669419933524e-17 1.855794307956152e-17 -0.8797776763239266 -0.4753853597260923
12636414666.666666 -0.884225806800363 -0.4670596563481813 9.017179342308872e-17 1.769601895895716e-17 9.017179342308872e-17 1.769601895895716e-17 -0.8842255039756404 -0.4670602296480167
12637032000.0 -0.8885948525113148 -0.45869291262262835 9.031864588981024e-17 1.6832825138448217e-17 9.031864588981024e-17 1.6832825138448217e-17 -0.8885945551258131 -0.4586934887270501
12637649333.333334 -0.8928847324518411 -0.4502853035068312 9.045724149322311e-17 1.5968440461874622e-17 9.045724149322311e-17 1.5968440461874622e-17 -0.8928844405315223 -0.4502858823642424
12638266666.666666 -0.897095064432477 -0.4418375780427962 9.05875708802771e-17 1.5102943850322154e-17 9.05875708802771e-17 1.5102943850322154e-17 -0.8970947780028135 -0.44183815960135936
12638884000.0 -0.9012254733507619 -0.4333504888465325 9.070962545169923e-17 1.4236414294947335e-17 9.070962545169923e-17 1.4236414294947335e-17 -0.9012251924367344 -0.4333510730541747
12639501333.333334 -0.9052755912246584 -0.42482479204100104 9.082339736248206e-17 1.336893084977063e-17 9.082339736248206e-17 1.336893084977063e-17 -0.9052753158507529 -0.424825378845418
12640118666.666666 -0.9092450572253102 -0.41626124718880175 9.092887952229766e-17 1.2500572624500242e-17 9.092887952229766e-17 1.2500572624500242e-17 -0.9092447874155184 -0.41626183653746385
12640736000.0 -0.913133517709311 -0.40766061722424674 9.102606559585289e-17 1.1631418777281265e-17 9.102606559585289e-17 1.1631418777281265e-17 -0.9131332534871257 -0.4076612090644022
12641353333.333334 -0.9169406262499714 -0.39902366838590486 9.111495000315914e-17 1.0761548507572622e-17 9.111495000315914e-17 1.0761548507572622e-17 -0.9169403676383857 -0.3990242626645854
12641970666.666666 -0.9206660436684087 -0.390351170147847 9.119552791975175e-17 9.8910410488807e-18 9.119552791975175e-17 9.8910410488807e-18 -0.9206657906899135 -0.3903517668118722
12642588000.0 -0.9243094380636925 -0.3816438951512467 9.126779527682859e-17 9.019975661588555e-18 9.126779527682859e-17 9.019975661588555e-18 -0.9243091907402737 -0.38164449414722856
12643205333.333334 -0.9278704848423549 -0.3729026191356753 9.13317487613259e-17 8.148431625741433e-18 9.13317487613259e-17 8.148431625741433e-18 -0.9278702431954949 -0.372903220410024
12643822666.666666 -0.9313488667474047 -0.36412812086978263 9.138738581592226e-17 7.276488233851385e-18 9.138738581592226e-17 7.276488233851385e-18 -0.9313486307980753 -0.3641287243687098
12644440000.0 -0.9347442738865082 -0.3553211820820978 9.143470463897609e-17 6.4042247837011455e-18 9.143470463897609e-17 6.4042247837011455e-18 -0.9347440436551735 -0.35532178775162254
12645057333.333334 -0.9380564037596549 -0.3464825873912531 9.147370418439326e-17 5.5317205711501765e-18 9.147370418439326e-17 5.5317205711501765e-18 -0.9380561792662674 -0.3464831951772066
12645674666.666666 -0.9412849612860491 -0.3376131242362422 9.150438416142818e-17 4.659054882930833e-18 9.150438416142818e-17 4.659054882930833e-18 -0.9412847425500469 -0.33761373408427187
12646292000.0 -0.9444296588305015 -0.32871358280597096 9.15267450344145e-17 3.786306989455838e-18 9.15267450344145e-17 3.786306989455838e-18 -0.9444294458708103 -0.3287141946615467
12646909333.333334 -0.9474902162289142 -0.31978475596926126 9.154078802242743e-17 2.913556137656162e-18 9.154078802242743e-17 2.913556137656162e-18 -0.9474900090639417 -0.31978536977767896
12647526666.666666 -0.9504663608133738 -0.3108274392038386 9.15465150988796e-17 2.0408815437795676e-18 9.15465150988796e-17 2.0408815437795676e-18 -0.9504661594610095 -0.3108280549102252
12648144000.0 -0.9533578274363745 -0.3018424305256484 9.154392899104677e-17 1.1683623862077363e-18 9.154392899104677e-17 1.1683623862077363e-18 -0.9533576319139886 -0.30184304807496737
12648761333.333334 -0.9561643584944417 -0.29283053041776097 9.15330331795262e-17 2.9607779831349753e-19 9.15330331795262e-17 2.9607779831349753e-19 -0.9561641688188839 -0.2928311497548172
12649378666.666666 -0.9588857039510775 -0.2837925417590841 9.151383189762658e-17 -5.758931387089286e-19 9.151383189762658e-17 -5.758931387089286e-19 -0.9588855201386738 -0.2837931628285282
12649996000.0 -0.9615216213590676 -0.27472926975272366 9.148633013069031e-17 -1.4474714030191377e-18 9.148633013069031e-17 -1.4474714030191377e-18 -0.9615214434256216 -0.2747298924990577
12650613333.333334 -0.9640718758820882 -0.26564152185422063 9.145053361534742e-17 -2.3185780392533543e-18 9.145053361534742e-17 -2.3185780392533543e-18 -0.9640717038428778 -0.26564214622180266
12651230666.666666 -0.9665362403155502 -0.2565301076998868 9.140644883870217e-17 -3.1891341656618526e-18 9.140644883870217e-17 -3.1891341656618526e-18 -0.9665360741853262 -0.25653073363293577
12651848000.0 -0.9689144951069484 -0.24739583903429097 9.135408303745076e-17 -4.05906098125768e-18 9.135408303745076e-17 -4.05906098125768e-18 -0.9689143348999347 -0.24739646647689192
12652465333.333334 -0.9712064283753402 -0.23823952963824097 9.129344419693269e-17 -4.928279772921504e-18 9.129344419693269e-17 -4.928279772921504e-18 -0.9712062741052296 -0.23824015853434952
12653082666.666666 -0.9734118359302476 -0.2290619952561729 9.122454105011468e-17 -5.7967119224931246e-18 9.122454105011468e-17 -5.7967119224931246e-18 -0.9734116876102059 -0.22906262554962142
12653700000.0 -0.9755305212898818 -0.21986405352336658 9.11473830765046e-17 -6.664278913903487e-18 9.11473830765046e-17 -6.664278913903487e-18 -0.9755303789325408 -0.21986468515786772
12654317333.333334 -0.977562295698577 -0.21064652389337665 9.1061980501003e-17 -7.530902340216902e-18 9.1061980501003e-17 -7.530902340216902e-18 -0.9775621593160367 -0.21064715681252938
12654934666.666666 -0.9795069781436614 -0.2014102275648062 9.096834429268158e-17 -8.396503910738293e-18 9.096834429268158e-17 -8.396503910738293e-18 -0.9795068477474898 -0.2014108617121008
12655552000.0 -0.9813643953716062 -0.19215598740803383 9.086648616349846e-17 -9.261005458055336e-18 9.086648616349846e-17 -9.261005458055336e-18 -0.9813642709728349 -0.19215662272685619
12656169333.333334 -0.9831343819033701 -0.18288462789231977 9.075641856694797e-17 -1.0124328945066778e-17 9.075641856694797e-17 -1.0124328945066778e-17 -0.9831342635124969 -0.18288526432595736
12656786666.666666 -0.9848167800492278 -0.17359697501196472 9.06381546966376e-17 -1.0986396472045193e-17 9.06381546966376e-17 -1.0986396472045193e-17 -0.9848166676762131 -0.173597612503611
12657404000.0 -0.9864114399227764 -0.16429385621291556 9.051170848480507e-17 -1.1847130283622542e-17 9.051170848480507e-17 -1.1847130283622542e-17 -0.9864113335770437 -0.16429449470567523
12658021333.333334 -0.9879182194543169 -0.15497610031887918 9.037709460076457e-17 -1.2706452775803847e-17 9.037709460076457e-17 -1.2706452775803847e-17 -0.9879181191447529 -0.15497673975577356
12658638666.666666 -0.989336984403465 -0.14564453745779102 9.023432844929098e-17 -1.3564286502930944e-17 9.023432844929098e-17 -1.3564286502930944e-17 -0.9893368901384169 -0.1456451777817627
12659256000.0 -0.9906676083711689 -0.13629999898746456 9.00834261689294e-17 -1.4420554184682913e-17 9.00834261689294e-17 -1.4420554184682913e-17 -0.9906675201584454 -0.1363006401413828
12659873333.333334 -0.9919099728109307 -0.12694331742180628 8.99244046302509e-17 -1.5275178712984583e-17 8.99244046302509e-17 -1.5275178712984583e-17 -0.9919098906577997 -0.12694395934847183
12660490666.666666 -0.993063967039363 -0.11757532635667424 8.975728143403511e-17 -1.6128083158945418e-17 8.975728143403511e-17 -1.6128083158945418e-17 -0.9930638909525521 -0.11757596899882466
12661108000.0 -0.9941294882461001 -0.10819686039521745 8.958207490938417e-17 -1.6979190779789404e-17 8.958207490938417e-17 -1.6979190779789404e-17 -0.9941294182317962 -0.10819750369553217
12661725333.333334 -0.9951064415028893 -0.09880875507408471 8.93988041117811e-17 -1.7828425025719757e-17 8.93988041117811e-17 -1.7828425025719757e-17 -0.9951063775667386 -0.09880939897519021
12662342666.666666 -0.9959947397721001 -0.08941184678856265 8.920748882107476e-17 -1.8675709546801362e-17 8.920748882107476e-17 -1.8675709546801362e-17 -0.9959946819192045 -0.08941249123303725
12662960000.0 -0.9967943039144509 -0.08000697271825752 8.900814953940334e-17 -1.9520968199807312e-17 8.900814953940334e-17 -1.9520968199807312e-17 -0.9967942521493713 -0.08000761764863687
12663577333.333334 -0.9975050626960782 -0.07059497075236923 8.880080748905323e-17 -2.036412505504402e-17 8.880080748905323e-17 -2.036412505504402e-17 -0.9975050170228325 -0.0705956161111513
12664194666.666666 -0.9981269527948652 -0.06117667941521257 8.858548461025036e-17 -2.1205104403166843e-17 8.858548461025036e-17 -2.1205104403166843e-17 -0.9981269132169289 -0.06117732514486279
12664812000.0 -0.9986599188060941 -0.05175293779139906 8.836220355889319e-17 -2.204383076194792e-17 8.836220355889319e-17 -2.204383076194792e-17 -0.9986598853263984 -0.051753583834355375
12665429333.333334 -0.9991039132473792 -0.04232458545111045 8.813098770421573e-17 -2.2880228883045968e-17 8.813098770421573e-17 -2.2880228883045968e-17 -0.9991038858683121 -0.042325231749788535
12666046666.666666 -0.9994588965628968 -0.03289246237532896 8.789186112639058e-17 -2.3714223758737064e-17 8.789186112639058e-17 -2.3714223758737064e-17 -0.9994588752863028 -0.03289310887212734
12666664000.0 -0.9997248371269127 -0.023457408880860578 8.76448486140633e-17 -2.4545740628638525e-17 8.76448486140633e-17 -2.4545740628638525e-17 -0.9997248219540924 -0.023458055518165707
12667281333.333334 -0.9999017112465917 -0.014020265545754465 8.738997566183424e-17 -2.537470498637029e-17 8.738997566183424e-17 -2.537470498637029e-17 -0.9999017021783019 -0.014020912265945934
12667898666.666666 -0.9999895031641165 -0.004581873134187871 8.712726846766514e-17 -2.6201042586235688e-17 8.712726846766514e-17 -2.6201042586235688e-17 -0.9999895002005709 -0.0045825198796434876
12668516000.0 -0.9999882050580913 0.0048569274785521446 8.685675393022411e-17 -2.7024679449865558e-17 8.685675393022411e-17 -2.7024679449865558e-17 -0.9999882081989576 0.004856280765451213
12669133333.333334 -0.9998978170442306 0.014295295380556777 8.657845964618403e-17 -2.784554187278885e-17 8.657845964618403e-17 -2.784554187278885e-17 -0.9998978262886348 0.014294648757420859
12669750666.666666 -0.9997183471753572 0.023732389698610988 8.629241390743568e-17 -2.866355643104744e-17 8.629241390743568e-17 -2.866355643104744e-17 -0.9997183625218808 0.023731743223036787
12670368000.0 -0.999449811440681 0.03316736967296563 8.599864569825465e-17 -2.9478649987733444e-17 8.599864569825465e-17 -2.9478649987733444e-17 -0.9994498328873616 0.03316672340253107
