! Parameters = {f0=12700.012000; bw=77.238000; Q=6100.000000; N=10; m_0_1=1.236331; m_1_1=-0.219776; m_1_2=1.071143; m_2_2=-0.220425; m_2_3=0.708106; m_2_8=-0.001120; m_2_9=0.035584; m_3_3=-0.222362; m_3_4=0.596635; m_3_7=-0.000520; m_3_8=-0.097608; m_3_9=-0.001120; m_4_4=-0.225287; m_4_5=0.432970; m_4_6=0.002997; m_4_7=-0.118157; m_4_8=-0.000520; m_5_5=-0.224905; m_5_6=0.840325; m_5_7=0.002997; m_6_6=-0.224906; m_6_7=0.433312; m_7_7=-0.225273; m_7_8=0.596753; m_8_8=-0.222364; m_8_9=0.708419; m_9_9=-0.220430; m_9_10=1.072221; m_10_10=-0.219786; m_10_11=1.237126}
!
! Created with skrf (http://scikit-rf.org).
# Hz S RI R 50.0 
!freq ReS11 ImS11 ReS21 ImS21 ReS12 ImS12 ReS22 ImS22
12607400000.0 -0.6335703581629664 0.7736850788641877 3.648830043518149e-17 -8.674998732994043e-17 3.648830043518149e-17 -8.674998732994043e-17 -0.6335708621667326 0.7736846661354579
12608017333.333334 -0.6261703418620802 0.7796862849711791 3.564542983944284e-17 -8.70797957000311e-17 3.564542983944284e-17 -8.70797957000311e-17 -0.6261708497503612 0.7796858770830357
12608634666.666666 -0.6187134851281346 0.7856167152756054 3.479959274880226e-17 -8.740142148547369e-17 3.479959274880226e-17 -8.740142148547369e-17 -0.6187139968544482 0.7856163122645978
12609252000.0 -0.6112004648552454 0.7914758314443753 3.395086853463473e-17 -8.771483815231616e-17 3.395086853463473e-17 -8.771483815231616e-17 -0.6112009803727668 0.7914754333466083
12609869333.333334 -0.6036319630357135 0.7972631016179563 3.309933680412256e-17 -8.802001993589166e-17 3.309933680412256e-17 -8.802001993589166e-17 -0.6036324822972781 0.7972627084690841
12610486666.666666 -0.5960086666982511 0.8029780004585466 3.224507739282031e-17 -8.83169418428928e-17 3.224507739282031e-17 -8.83169418428928e-17 -0.596009189656358 0.8029776122937704
12611104000.0 -0.5883312678453902 0.8086200091979355 3.1388170357161366e-17 -8.86055796533887e-17 3.1388170357161366e-17 -8.86055796533887e-17 -0.5883317944522083 0.8086196260520008
12611721333.333334 -0.5806004633908922 0.8141886156844214 3.0528695966997414e-17 -8.888590992275185e-17 3.0528695966997414e-17 -8.888590992275185e-17 -0.5806009935982644 0.8141882375916157
12612338666.666666 -0.5728169550963979 0.8196833144293745 2.966673469808571e-17 -8.915790998352483e-17 2.966673469808571e-17 -8.915790998352483e-17 -0.5728174888558446 0.8196829414235225
12612956000.0 -0.5649814495076289 0.8251036066531837 2.8802367224560217e-17 -8.942155794721406e-17 2.8802367224560217e-17 -8.942155794721406e-17 -0.5649819867703529 0.8251032387676451
12613573333.333334 -0.5570946578904865 0.8304490003303729 2.793567441142572e-17 -8.96768327059995e-17 2.793567441142572e-17 -8.96768327059995e-17 -0.5570951986073772 0.8304486375980396
12614190666.666666 -0.5491572961662747 0.8357190102344089 2.706673730697327e-17 -8.992371393439058e-17 2.706673730697327e-17 -8.992371393439058e-17 -0.5491578402879134 0.835718652687702
12614808000.0 -0.5411700848467373 0.8409131579817313 2.6195637135245628e-17 -9.016218209079016e-17 2.6195637135245628e-17 -9.016218209079016e-17 -0.5411706323234006 0.8409128056525979
12615425333.333334 -0.5331337489687706 0.8460309720750993 2.5322455288448438e-17 -9.039221841899739e-17 2.5322455288448438e-17 -9.039221841899739e-17 -0.5331342997504351 0.8460306249950094
12616042666.666666 -0.5250490180285137 0.8510719879464527 2.4447273319364276e-17 -9.061380494963328e-17 2.4447273319364276e-17 -9.061380494963328e-17 -0.5250495720648617 0.8510716461463975
12616660000.0 -0.516916625915153 0.8560357479990697 2.357017293375478e-17 -9.082692450149275e-17 2.357017293375478e-17 -9.082692450149275e-17 -0.5169171831555759 0.8560354115095575
12617277333.333334 -0.5087373108442792 0.8609218016491185 2.2691235982736117e-17 -9.103156068282731e-17 2.2691235982736117e-17 -9.103156068282731e-17 -0.5087378712378827 0.8609214705001732
12617894666.666666 -0.5005118152910224 0.8657297053664719 2.181054445518544e-17 -9.122769789254418e-17 2.181054445518544e-17 -9.122769789254418e-17 -0.5005123787866307 0.8657293795876291
12618512000.0 -0.49224088592228665 0.8704590227151854 2.0928180470070155e-17 -9.141532132134783e-17 2.0928180470070155e-17 -9.141532132134783e-17 -0.49224145246844736 0.8704587023354904
12619129333.333334 -0.48392527352946185 0.8751093243928255 2.0044226268848723e-17 -9.159441695278958e-17 2.0044226268848723e-17 -9.159441695278958e-17 -0.4839258430744515 0.8751090094408319
12619746666.666666 -0.475565732959929 0.879680188269645 1.9158764207785077e-17 -9.176497156426085e-17 1.9158764207785077e-17 -9.176497156426085e-17 -0.47556630545175593 0.8796798787734093
12620364000.0 -0.4671630230485593 0.8841711994268783 1.8271876750307358e-17 -9.192697272790071e-17 1.8271876750307358e-17 -9.192697272790071e-17 -0.46716359843497 0.8841708954139595
12620981333.333334 -0.45871790654908295 0.8885819501942744 1.738364645935745e-17 -9.208040881143159e-17 1.738364645935745e-17 -9.208040881143159e-17 -0.4587184847775665 0.8885816516917321
12621598666.666666 -0.4502311500645 0.8929120401872905 1.6494155989697473e-17 -9.222526897892721e-17 1.6494155989697473e-17 -9.222526897892721e-17 -0.4502317310822925 0.8929117472216809
12622216000.0 -0.4417035239777683 0.8971610763432919 1.560348808025023e-17 -9.236154319149999e-17 1.560348808025023e-17 -9.236154319149999e-17 -0.44170410773185725 0.897160788940665
12622833333.333334 -0.43313580238171934 0.901328672957306 1.4711725546403258e-17 -9.248922220791946e-17 1.4711725546403258e-17 -9.248922220791946e-17 -0.4331363888188498 0.9013283911432056
12623450666.666666 -0.4245287630089186 0.9054144517169748 1.3818951272350864e-17 -9.260829758514972e-17 1.3818951272350864e-17 -9.260829758514972e-17 -0.42452935207559755 0.9054141755164355
12624068000.0 -0.4158831871609677 0.9094180417369503 1.2925248203383082e-17 -9.271876167882226e-17 1.2925248203383082e-17 -9.271876167882226e-17 -0.4158837788034675 0.9094177711744926
12624685333.333334 -0.40719985963744676 0.9133390795926103 1.2030699338197898e-17 -9.282060764362814e-17 1.2030699338197898e-17 -9.282060764362814e-17 -0.4072004538018123 0.9133388146922427
12625302666.666666 -0.3984795686650933 0.9171772093528686 1.1135387721225169e-17 -9.291382943363753e-17 1.1135387721225169e-17 -9.291382943363753e-17 -0.39848016529714514 0.9171769501380815
12625920000.0 -0.38972310582575476 0.9209320826126977 1.0239396434909357e-17 -9.299842180254732e-17 1.0239396434909357e-17 -9.299842180254732e-17 -0.3897237048710956 0.9209318291064653
12626537333.333334 -0.3809312659849265 0.9246033585245919 9.342808592042225e-18 -9.307438030385112e-17 9.342808592042225e-18 -9.307438030385112e-17 -0.38093186738894463 0.9246031107493662
12627154666.666666 -0.3721048472194397 0.9281907038295695 8.445707328056002e-18 -9.314170129093887e-17 8.445707328056002e-18 -9.314170129093887e-17 -0.37210545092731495 0.9281904618072806
12627772000.0 -0.3632446507448852 0.9316937928874808 7.548175793317353e-18 -9.320038191712152e-17 7.548175793317353e-18 -9.320038191712152e-17 -0.36324525670159347 0.9316935566395351
12628389333.333334 -0.3543514808431464 0.9351123077064607 6.65029714546288e-18 -9.325042013558008e-17 6.65029714546288e-18 -9.325042013558008e-17 -0.35435208899346515 0.9351120772537378
12629006666.666666 -0.34542614478915346 0.9384459379718874 5.75215454168644e-18 -9.329181469924268e-17 5.75215454168644e-18 -9.329181469924268e-17 -0.3454267550776661 0.9384457133347391
12629624000.0 -0.3364694527777882 0.941694381074481 4.853831131072052e-18 -9.332456516058654e-17 4.853831131072052e-18 -9.332456516058654e-17 -0.3364700651488895 0.941694162272728
12630241333.333334 -0.3274822178502058 0.9448573421378194 3.955410046901333e-18 -9.334867187136706e-17 3.955410046901333e-18 -9.334867187136706e-17 -0.32748283224810726 0.944857129190753
12630858666.666666 -0.31846525582021956 0.9479345340450447 3.056974398981338e-18 -9.336413598227288e-17 3.056974398981338e-18 -9.336413598227288e-17 -0.3184658721889539 0.9479343269714215
12631476000.0 -0.309419385199842 0.9509256774650608 2.158607265958955e-18 -9.337095944250697e-17 2.158607265958955e-18 -9.337095944250697e-17 -0.3094200034832687 0.9509254762831033
12632093333.333334 -0.300345427125496 0.9538305008777174 1.2603916876783902e-18 -9.336914499929413e-17 1.2603916876783902e-18 -9.336914499929413e-17 -0.30034604726730596 0.9538303056051102
12632710666.666666 -0.2912442052832071 0.9566487405985477 3.624106575080275e-19 -9.33586961973154e-17 3.624106575080275e-19 -9.33586961973154e-17 -0.2912448272269283 0.9566485512524385
12633328000.0 -0.282116545833725 0.9593801408027375 -5.352528853227349e-19 -9.333961737806834e-17 -5.352528853227349e-19 -9.333961737806834e-17 -0.2821171695227276 0.9593799573997349
12633945333.333334 -0.2729632773378011 0.9620244535482666 -1.4325160633547763e-18 -9.331191367915464e-17 -1.4325160633547763e-18 -9.331191367915464e-17 -0.27296390271530185 0.9620242761044362
12634562666.666666 -0.26378523068072957 0.9645814387984812 -2.3292960685324737e-18 -9.327559103349372e-17 -2.3292960685324737e-18 -9.327559103349372e-17 -0.2637858576897979 0.964581267329348
12635180000.0 -0.2545832389971162 0.9670508644438359 -3.22551016983813e-18 -9.323065616846374e-17 -3.22551016983813e-18 -9.323065616846374e-17 -0.25458386758067886 0.9670506989643802
12635797333.333334 -0.24535813759511435 0.9694325063229984 -4.121075720905687e-18 -9.317711660496904e-17 -4.121075720905687e-18 -9.317711660496904e-17 -0.24535876769596068 0.9694323468476551
12636414666.666666 -0.2361107638807364 0.9717261482431607 -5.015910167626316e-18 -9.311498065643546e-17 -5.015910167626316e-18 -9.311498065643546e-17 -0.23611139544152376 0.9717259947858191
12637032000.0 -0.22684195728170164 0.9739315819997011 -5.909931055742455e-18 -9.304425742773122e-17 -5.909931055742455e-18 -9.304425742773122e-17 -0.2268425902449605 0.9739314345737026
12637649333.333334 -0.21755255917123703 0.976048607395082 -6.8030560384297245e-18 -9.296495681401713e-17 -6.8030560384297245e-18 -9.296495681401713e-17 -0.21755319347937607 0.9760484660132194
12638266666.666666 -0.20824341279183964 0.9780770322569893 -7.695202883865896e-18 -9.287708949952243e-17 -7.695202883865896e-18 -9.287708949952243e-17 -0.20824404838715121 0.9780768969315053
12638884000.0 -0.198915363178622 0.980016672455806 -8.586289482783658e-18 -9.278066695624967e-17 -8.586289482783658e-18 -9.278066695624967e-17 -0.19891600000328702 0.9800165431983919
12639501333.333334 -0.1895692570826022 0.9818673519213188 -9.476233856024942e-18 -9.267570144260506e-17 -9.476233856024942e-18 -9.267570144260506e-17 -0.189569895078696 0.9818672287431155
12640118666.666666 -0.18020594289403785 0.9836289026586729 -1.0364954162035457e-17 -9.256220600196153e-17 -1.0364954162035457e-17 -9.256220600196153e-17 -0.1802065820035347 0.983628785570266
12640736000.0 -0.17082627056485336 0.9853011647637172 -1.1252368704427796e-17 -9.244019446114047e-17 -1.1252368704427796e-17 -9.244019446114047e-17 -0.17082691072963246 0.9853010537751408
12641353333.333334 -0.1614310915323252 0.9868839864373712 -1.2138395939409936e-17 -9.230968142883595e-17 -1.2138395939409936e-17 -9.230968142883595e-17 -0.16143173269417557 0.986883881558104
12641970666.666666 -0.15202125864109337 0.9883772239995278 -1.3022954483314819e-17 -9.217068229395189e-17 -1.3022954483314819e-17 -9.217068229395189e-17 -0.1520219007417192 0.9883771252384932
12642588000.0 -0.14259762606605264 0.9897807419020437 -1.3905963120044068e-17 -9.202321322387744e-17 -1.3905963120044068e-17 -9.202321322387744e-17 -0.14259826904707876 0.9897806492676098
12643205333.333334 -0.1331610492347875 0.9910944127410483 -1.478734080849588e-17 -9.186729116269034e-17 -1.478734080849588e-17 -9.186729116269034e-17 -0.13316169303776426 0.9910943262410247
12643822666.666666 -0.12371238474983609 0.9923181172685216 -1.566700669000784e-17 -9.170293382928393e-17 -1.566700669000784e-17 -9.170293382928393e-17 -0.12371302931624478 0.9923180369101589
12644440000.0 -0.11425249031095988 0.9934517444031075 -1.6544880095740864e-17 -9.153015971543024e-17 -1.6544880095740864e-17 -9.153015971543024e-17 -0.1142531355822188 0.9934516701931025
12645057333.333334 -0.10478222463742871 0.9944951912401911 -1.7420880554073984e-17 -9.134898808376659e-17 -1.7420880554073984e-17 -9.134898808376659e-17 -0.10478287055489743 0.9944951231846787
12645674666.666666 -0.09530244738995704 0.9954483630612484 -1.8294927797949403e-17 -9.115943896571728e-17 -1.8294927797949403e-17 -9.115943896571728e-17 -0.09530309389494232 0.9954483011658044
12646292000.0 -0.08581401909249872 0.9963111733424579 -1.9166941772239738e-17 -9.09615331593356e-17 -1.9166941772239738e-17 -9.09615331593356e-17 -0.08581466612625988 0.9963111176121003
12646909333.333334 -0.0763178010545299 0.9970835437625245 -2.003684264102844e-17 -9.07552922270907e-17 -2.003684264102844e-17 -9.07552922270907e-17 -0.0763184485582838 0.9970834942017094
12647526666.666666 -0.06681465529246697 0.9977654042098179 -2.090455079492612e-17 -9.054073849357034e-17 -2.090455079492612e-17 -9.054073849357034e-17 -0.06681530320739364 0.9977653608224419
12648144000.0 -0.05730544445161576 0.9983566927887231 -2.1769986858347892e-17 -9.031789504311843e-17 -2.1769986858347892e-17 -9.031789504311843e-17 -0.0573060927188636 0.9983566555781209
12648761333.333334 -0.04779103172786494 0.9988573558252548 -2.263307169673264e-17 -9.008678571741056e-17 -2.263307169673264e-17 -9.008678571741056e-17 -0.04779168028855622 0.9988573247942023
12649378666.666666 -0.038272280789358536 0.9992673478719362 -2.34937264237734e-17 -8.984743511295277e-17 -2.34937264237734e-17 -8.984743511295277e-17 -0.03827292958459456 0.9992673230226468
12649996000.0 -0.02875005569795447 0.9995866317119281 -2.4351872408619156e-17 -8.959986857851117e-17 -2.4351872408619156e-17 -8.959986857851117e-17 -0.028750704668820983 0.9995866130460531
12650613333.333334 -0.01922522083090314 0.9998151783623994 -2.5207431283045147e-17 -8.934411221247465e-17 -2.5207431283045147e-17 -8.934411221247465e-17 -0.01922586991847576 0.9998151658810301
12651230666.666666 -0.009698640802383944 0.999952967077162 -2.6060324948568292e-17 -8.908019286015733e-17 -2.6060324948568292e-17 -8.908019286015733e-17 -0.009699289947733409 0.9999529607808277
12651848000.0 -0.00017118038490646455 0.9999999853485544 -2.6910475583595514e-17 -8.880813811101522e-17 -2.6910475583595514e-17 -8.880813811101522e-17 -0.00017182952910403334 0.9999999852372236
12652465333.333334 0.009356295569046925 0.9999562289085748 -2.77578056504833e-17 -8.852797629581365e-17 -2.77578056504833e-17 -8.852797629581365e-17 0.009355646484924145 0.9999562349816532
12653082666.666666 0.01888292220549936 0.9998217017292705 -2.8602237902590735e-17 -8.82397364837201e-17 -2.8602237902590735e-17 -8.82397364837201e-17 0.01888227324036306 0.9998217139856038
12653700000.0 0.02840783474774211 0.9995964160223749 -2.9443695391340704e-17 -8.794344847931794e-17 -2.9443695391340704e-17 -8.794344847931794e-17 0.02840718596048745 0.9995964344602478
12654317333.333334 0.037930168574550366 0.9992803922382042 -3.02821014731655e-17 -8.763914281958118e-17 -3.02821014731655e-17 -8.763914281958118e-17 0.03792952002405055 0.9992804168553387
12654934666.666666 0.047449059298782494 0.9988736590637955 -3.111737981650667e-17 -8.73268507707546e-17 -3.111737981650667e-17 -8.73268507707546e-17 0.04744841104388349 0.9988736898573535
12655552000.0 0.05696364284595808 0.9983762534202988 -3.1949454408743057e-17 -8.700660432518055e-17 -3.1949454408743057e-17 -8.700660432518055e-17 0.05696299494547342 0.9983762903868841
12656169333.333334 0.06647305553241038 0.9977882204596419 -3.2778249563079835e-17 -8.667843619806386e-17 -3.2778249563079835e-17 -8.667843619806386e-17 0.0664724080451156 0.997788263595297
12656786666.666666 0.07597643414394231 0.9971096135604175 -3.3603689925426305e-17 -8.634237982416166e-17 -3.3603689925426305e-17 -8.634237982416166e-17 0.07597578712856966 0.9971096628606245
12657404000.0 0.08547291601415584 0.9963404943230353 -3.44257004812286e-17 -8.599846935441393e-17 -3.44257004812286e-17 -8.599846935441393e-17 0.08547226952938912 0.9963405497827187
12658021333.333334 0.09496163910264717 0.9954809325641415 -3.524420656227266e-17 -8.564673965250607e-17 -3.524420656227266e-17 -8.564673965250607e-17 0.09496099320711614 0.995480994177665
12658638666.666666 0.10444174207322969 0.9945310063102826 -3.605913385343605e-17 -8.528722629137517e-17 -3.605913385343605e-17 -8.528722629137517e-17 0.10444109682550502 0.9945310740714539
12659256000.0 0.11391236437237649 0.9934908017908011 -3.687040839945265e-17 -8.491996554963063e-17 -3.687040839945265e-17 -8.491996554963063e-17 0.11391171983096438 0.9934908756928702
12659873333.333334 0.12337264630708213 0.992360413430031 -3.767795661157127e-17 -8.454499440794129e-17 -3.767795661157127e-17 -8.454499440794129e-17 0.12337200253041879 0.9923604934656903
12660490666.666666 0.1328217291228728 0.9911399438387315 -3.848170527422412e-17 -8.416235054533993e-17 -3.848170527422412e-17 -8.416235054533993e-17 0.1328210861693196 0.9911400300001189
12661108000.0 0.14225875508215483 0.9898295038047253 -3.928158155166718e-17 -8.377207233545907e-17 -3.928158155166718e-17 -8.377207233545907e-17 0.1422581130099925 0.9898295960834221
12661725333.333334 0.15168286754151142 0.9884292122829124 -4.0077512994540335e-17 -8.337419884272494e-17 -4.0077512994540335e-17 -8.337419884272494e-17 0.15168222640893494 0.9884293106699449
12662342666.666666 0.1610932110298867 0.9869391963844149 -4.08694275464244e-17 -8.29687698184711e-17 -4.08694275464244e-17 -8.29687698184711e-17 0.1610925708950004 0.9869393008702578
12662960000.0 0.1704889313260723 0.9853595913650652 -4.1657253550345724e-17 -8.255582569699837e-17 -4.1657253550345724e-17 -8.255582569699837e-17 0.17048829224688403 0.9853597019396393
12663577333.333334 0.17986917553624884 0.9836905406131258 -4.2440919755240823e-17 -8.213540759157194e-17 -4.2440919755240823e-17 -8.213540759157194e-17 0.1798685375706653 0.9836906572658015
12664194666.666666 0.18923309217151976 0.981932195636257 -4.3220355322393e-17 -8.170755729035222e-17 -4.3220355322393e-17 -8.170755729035222e-17 0.18923245537734035 0.9819323183558513
12664812000.0 0.1985798312250355 0.9800847160477869 -4.399548983180471e-17 -8.127231725227619e-17 -4.399548983180471e-17 -8.127231725227619e-17 0.19857919565994822 0.9800848448225703
12665429333.333334 0.20790854424929434 0.9781482695522057 -4.47662532885547e-17 -8.082973060286578e-17 -4.47662532885547e-17 -8.082973060286578e-17 0.2079079099708698 0.9781484043698989
12666046666.666666 0.21721838443299135 0.976123031929969 -4.5532576129087833e-17 -8.03798411299895e-17 -4.5532576129087833e-17 -8.03798411299895e-17 0.21721775149867784 0.9761231727777459
12666664000.0 0.2265085066781668 0.9740091870214888 -4.629438922749903e-17 -7.992269327954399e-17 -4.629438922749903e-17 -7.992269327954399e-17 0.22650787514528473 0.9740093338859759
12667281333.333334 0.23577806767664033 0.9718069267104982 -4.70516239017291e-17 -7.945833215110281e-17 -4.70516239017291e-17 -7.945833215110281e-17 0.23577743760237757 0.9718070795777785
12667898666.666666 0.2450262259866745 0.9695164509066163 -4.7804211919748697e-17 -7.898680349348784e-17 -4.7804211919748697e-17 -7.898680349348784e-17 0.24502559742808094 0.9695166097622286
12668516000.0 0.254252142109466 0.967137967527168 -4.8552085505698163e-17 -7.850815370028208e-17 -4.8552085505698163e-17 -7.850815370028208e-17 0.2542515151234484 0.96713813235611
12669133333.333334 0.2634549785650754 0.9646716924783842 -4.9295177345951804e-17 -7.802242980530457e-17 -4.9295177345951804e-17 -7.802242980530457e-17 0.263454353208392 0.9646718632651115
12669750666.666666 0.27263389996869675 0.962117849635736 -5.00334205951791e-17 -7.752967947800078e-17 -5.00334205951791e-17 -7.752967947800078e-17 0.27263327629795286 0.9621180263641659
12670368000.0 0.28178807310648996 0.9594766708236142 -5.076674888234049e-17 -7.702995101878906e-17 -5.076674888234049e-17 -7.702995101878906e-17 0.2817874511781319 0.9594768534771259
