! Parameters = {f0=12700.012000; bw=77.238000; Q=6100.000000; N=10; m_0_1=1.256952; m_1_1=0.089534; m_1_2=1.091764; m_2_2=0.088885; m_2_3=0.728727; m_2_8=-0.000089; m_2_9=0.036615; m_3_3=0.086948; m_3_4=0.617256; m_3_7=0.000511; m_3_8=-0.096577; m_3_9=-0.000089; m_4_4=0.084023; m_4_5=0.453591; m_4_6=0.004028; m_4_7=-0.117126; m_4_8=0.000511; m_5_5=0.084405; m_5_6=0.860946; m_5_7=0.004028; m_6_6=0.084404; m_6_7=0.453933; m_7_7=0.084037; m_7_8=0.617374; m_8_8=0.086946; m_8_9=0.729040; m_9_9=0.088880; m_9_10=1.092842; m_10_10=0.089524; m_10_11=1.257747}
!
! Created with skrf (http://scikit-rf.org).
# Hz S RI R 50.0 
!freq ReS11 ImS11 ReS21 ImS21 ReS12 ImS12 ReS22 ImS22
12607400000.0 -0.7137605053641622 0.7003898492854699 5.046494345445429e-17 -9.089143993777524e-17 5.046494345445429e-17 -9.089143993777524e-17 -0.713760969204638 0.700389376589824
12608017333.333334 -0.7066239524797624 0.7075892804315974 4.952317397722982e-17 -9.138482821386402e-17 4.952317397722982e-17 -9.138482821386402e-17 -0.7066244210651954 0.7075888124851214
12608634666.666666 -0.6994147853681035 0.7147159981477378 4.8576594365923744e-17 -9.186846656894143e-17 4.8576594365923744e-17 -9.186846656894143e-17 -0.6994152586498784 0.714715534998051
12609252000.0 -0.6921337448591227 0.7217692700767441 4.762530547614675e-17 -9.23423082536152e-17 4.762530547614675e-17 -9.23423082536152e-17 -0.692134222788146 0.7217688117709684
12609869333.333334 -0.68478157916852 0.7287483714090176 4.666940861631682e-17 -9.280630756092318e-17 4.666940861631682e-17 -9.280630756092318e-17 -0.6847820616952269 0.7287479179937743
12610486666.666666 -0.6773590438211424 0.7356525849567416 4.5709005536888145e-17 -9.32604198307054e-17 4.5709005536888145e-17 -9.32604198307054e-17 -0.6773595308954994 0.7356521364781423
12611104000.0 -0.6698669015729667 0.7424812012279233 4.474419841952161e-17 -9.370460145387152e-17 4.474419841952161e-17 -9.370460145387152e-17 -0.6698673931444787 0.7424807577315704
12611721333.333334 -0.662305922333074 0.749233518498981 4.377508986628157e-17 -9.413880987652616e-17 4.377508986628157e-17 -9.413880987652616e-17 -0.6623064183507876 0.7492330800299584
12612338666.666666 -0.6546768830843844 0.7559088428869853 4.280178288870455e-17 -9.456300360402341e-17 4.280178288870455e-17 -9.456300360402341e-17 -0.6546773834968956 0.7559084094898572
12612956000.0 -0.6469805678036865 0.7625064884210799 4.18243808968802e-17 -9.497714220488496e-17 4.18243808968802e-17 -9.497714220488496e-17 -0.6469810725591433 0.7625060601398833
12613573333.333334 -0.6392177673813267 0.769025777112744 4.0842987688519335e-17 -9.538118631459551e-17 4.0842987688519335e-17 -9.538118631459551e-17 -0.639218276427437 0.7690253539909876
12614190666.666666 -0.63138927953979 0.7754660390255993 3.9857707437910196e-17 -9.577509763931851e-17 3.9857707437910196e-17 -9.577509763931851e-17 -0.6313897928238257 0.775465621106257
12614808000.0 -0.623495908751678 0.7818266123442885 3.8868644684904414e-17 -9.615883895946972e-17 3.8868644684904414e-17 -9.615883895946972e-17 -0.623496426220481 0.7818261996697956
12615425333.333334 -0.6155384661571929 0.7881068434423573 3.7875904323852936e-17 -9.653237413318475e-17 3.7875904323852936e-17 -9.653237413318475e-17 -0.6155389877571801 0.7881064360546058
12616042666.666666 -0.6075177694806307 0.7943060869495502 3.6879591592487623e-17 -9.689566809968165e-17 3.6879591592487623e-17 -9.689566809968165e-17 -0.6075182951577991 0.7943056848898842
12616660000.0 -0.5994346429464116 0.8004237058180717 3.58798120607954e-17 -9.724868688249819e-17 3.58798120607954e-17 -9.724868688249819e-17 -0.5994351726463454 0.8004233091272848
12617277333.333334 -0.5912899171944307 0.8064590713880218 3.487667161985992e-17 -9.759139759261734e-17 3.487667161985992e-17 -9.759139759261734e-17 -0.5912904508623058 0.806458680106351
12617894666.666666 -0.5830844291946766 0.8124115634520146 3.3870276470665487e-17 -9.79237684314801e-17 3.3870276470665487e-17 -9.79237684314801e-17 -0.5830849667752663 0.8124111776191374
12618512000.0 -0.5748190221610363 0.818280570319043 3.286073311285334e-17 -9.824576869388946e-17 3.286073311285334e-17 -9.824576869388946e-17 -0.5748195635987178 0.8182801899740739
12619129333.333334 -0.5664945454650389 0.8240654888770587 3.184814833352111e-17 -9.855736877077636e-17 3.184814833352111e-17 -9.855736877077636e-17 -0.5664950907037984 0.8240651140585444
12619746666.666666 -0.5581118545481795 0.8297657246552298 3.0832629195901545e-17 -9.885854015188109e-17 3.0832629195901545e-17 -9.885854015188109e-17 -0.558112403531618 0.8297653554011446
12620364000.0 -0.5496718108341947 0.8353806918848946 2.981428302808649e-17 -9.914925542829515e-17 2.981428302808649e-17 -9.914925542829515e-17 -0.5496723635055332 0.835380328232637
12620981333.333334 -0.54117528164059 0.8409098135597275 2.879321741171129e-17 -9.942948829489424e-17 2.879321741171129e-17 -9.942948829489424e-17 -0.5411758379426774 0.8409094555461182
12621598666.666666 -0.5326231400893484 0.8463525214951458 2.776954017059156e-17 -9.969921355266152e-17 2.776954017059156e-17 -9.969921355266152e-17 -0.5326236999646649 0.8463521691564206
12622216000.0 -0.5240162650173926 0.8517082563865686 2.674335935938113e-17 -9.995840711088135e-17 2.674335935938113e-17 -9.995840711088135e-17 -0.5240168284080582 0.8517079097583787
12622833333.333334 -0.515355540886064 0.8569764678670356 2.571478325216566e-17 -1.0020704598923102e-16 2.571478325216566e-17 -1.0020704598923102e-16 -0.5153561077338419 0.8569761269844408
12623450666.666666 -0.5066418576905171 0.8621566145635784 2.4683920331079672e-17 -1.0044510831974187e-16 2.4683920331079672e-17 -1.0044510831974187e-16 -0.5066424279368215 0.8621562794610445
12624068000.0 -0.49787611086797473 0.8672481641530337 2.365087927488123e-17 -1.0067257334865202e-16 2.365087927488123e-17 -1.0067257334865202e-16 -0.49787668445387695 0.8672478348644304
12624685333.333334 -0.4890592012057578 0.8722505934167163 2.2615768947493065e-17 -1.0088942143814461e-16 2.2615768947493065e-17 -1.0088942143814461e-16 -0.48905977807199064 0.872250269975311
12625302666.666666 -0.4801920347490371 0.8771633882939984 2.1578698386603422e-17 -1.0109563406795241e-16 2.1578698386603422e-17 -1.0109563406795241e-16 -0.4801926148360027 0.8771630707324553
12625920000.0 -0.4712755227071836 0.881986043935446 2.0539776792138356e-17 -1.0129119383686977e-16 2.0539776792138356e-17 -1.0129119383686977e-16 -0.4712761059549591 0.8819857322858222
12626537333.333334 -0.46231058136067715 0.8867180647543953 1.9499113514833728e-17 -1.0147608446412363e-16 1.9499113514833728e-17 -1.0147608446412363e-16 -0.46231116770902037 0.8867177590481367
12627154666.666666 -0.45329813196662405 0.8913589644780586 1.845681804473846e-17 -1.0165029079063931e-16 1.845681804473846e-17 -1.0165029079063931e-16 -0.45329872135498034 0.8913586647459976
12627772000.0 -0.4442391006640078 0.8959082661975286 1.7412999999681465e-17 -1.018137987801918e-16 1.7412999999681465e-17 -1.018137987801918e-16 -0.44423969303151606 0.8959079724698805
12628389333.333334 -0.4351344183789491 0.9003655024165693 1.6367769113813747e-17 -1.0196659552042537e-16 1.6367769113813747e-17 -1.0196659552042537e-16 -0.43513501366444823 0.9003652147229301
12629006666.666666 -0.42598502072850913 0.9047302150999266 1.5321235226058897e-17 -1.021086692237697e-16 1.5321235226058897e-17 -1.021086692237697e-16 -0.4259856188705438 0.9047299334692687
12629624000.0 -0.4167918479248976 0.909001955720216 1.427350826860631e-17 -1.0224000922822948e-16 1.427350826860631e-17 -1.0224000922822948e-16 -0.41679244886172523 0.9090016801808862
12630241333.333334 -0.40755584467877987 0.9131802853040546 1.3224698255375991e-17 -1.0236060599805978e-16 1.3224698255375991e-17 -1.0236060599805978e-16 -0.4075564483483767 0.9131800158837712
12630858666.666666 -0.39827796010217104 0.9172647744771852 1.2174915270514302e-17 -1.0247045112431956e-16 1.2174915270514302e-17 -1.0247045112431956e-16 -0.39827856644223864 0.9172645112030352
12631476000.0 -0.38895914761082445 0.9212550035086319 1.1124269456811052e-17 -1.0256953732531536e-16 1.1124269456811052e-17 -1.0256953732531536e-16 -0.38895975655879594 0.9212547464070673
12632093333.333334 -0.37960036482638604 0.9251505623537731 1.007287100421123e-17 -1.0265785844691686e-16 1.007287100421123e-17 -1.0265785844691686e-16 -0.3796009763194328 0.9251503114506102
12632710666.666666 -0.3702025734780414 0.9289510506964637 9.020830138270835e-18 -1.0273540946276013e-16 9.020830138270835e-18 -1.0273540946276013e-16 -0.37020318745307934 0.9289508060168785
12633328000.0 -0.3607667393033701 0.9326560779902974 7.968257108590214e-18 -1.0280218647433505e-16 7.968257108590214e-18 -1.0280218647433505e-16 -0.36076735569706603 0.9326558395588237
12633945333.333334 -0.35129383194941877 0.9362652634986095 6.91526217731649e-18 -1.0285818671094865e-16 6.91526217731649e-18 -1.0285818671094865e-16 -0.3512944506981981 0.9362650313391387
12634562666.666666 -0.3417848248730095 0.9397782363336334 5.861955607608362e-18 -1.0290340852957501e-16 5.861955607608362e-18 -1.0290340852957501e-16 -0.34178544591306076 0.9397780104694077
12635180000.0 -0.33224069524056826 0.9431946354946539 4.808447652096464e-18 -1.0293785141458655e-16 4.808447652096464e-18 -1.0293785141458655e-16 -0.33224131850785127 0.9431944159482669
12635797333.333334 -0.3226624238277639 0.9465141099050877 3.7548485413698315e-18 -1.0296151597736706e-16 3.7548485413698315e-18 -1.0296151597736706e-16 -0.3226630492580161 0.946513896698483
12636414666.666666 -0.31305099491891036 0.9497363184484989 2.7012684724838156e-18 -1.0297440395580678e-16 2.7012684724838156e-18 -1.0297440395580678e-16 -0.3130516224476527 0.9497361116029651
12637032000.0 -0.30340739620546825 0.9528609300037679 1.6478175974174387e-18 -1.0297651821368156e-16 1.6478175974174387e-18 -1.0297651821368156e-16 -0.3034080257680129 0.9528607295399388
12637649333.333334 -0.29373261868487216 0.9558876234790128 5.946060116131535e-19 -1.0296786273991257e-16 5.946060116131535e-19 -1.0296786273991257e-16 -0.2937332502163282 0.9558874294168637
12638266666.666666 -0.28402765655847656 0.9588160878446546 -4.582562575315468e-19 -1.0294844264771059e-16 -4.582562575315468e-19 -1.0294844264771059e-16 -0.2840282899937571 0.9588159002035009
12638884000.0 -0.2742935071294708 0.9616460221653513 -1.5106592621287255e-18 -1.029182641736015e-16 -1.5106592621287255e-18 -1.029182641736015e-16 -0.27429414240329997 0.961645840963848
12639501333.333334 -0.2645311707004485 0.9643771356309097 -2.5624931452547315e-18 -1.0287733467633582e-16 -2.5624931452547315e-18 -1.0287733467633582e-16 -0.2645318077473679 0.9643769608870474
12640118666.666666 -0.25474165047061575 0.9670091475861715 -3.6136481523968245e-18 -1.02825662635682e-16 -3.6136481523968245e-18 -1.02825662635682e-16 -0.25474228922499087 0.9670089793172754
12640736000.0 -0.24492595243234203 0.9695417875599479 -4.664014642922555e-18 -1.0276325765109933e-16 -4.664014642922555e-18 -1.0276325765109933e-16 -0.24492659282836945 0.9695416257826759
12641353333.333334 -0.23508508526852376 0.9719747952926142 -5.713483101415978e-18 -1.0269013044030167e-16 -5.713483101415978e-18 -1.0269013044030167e-16 -0.2350857272402379 0.9719746400229564
12641970666.666666 -0.22522006024816113 0.9743079207630626 -6.7619441491569405e-18 -1.0260629283769624e-16 -6.7619441491569405e-18 -1.0260629283769624e-16 -0.22522070372944117 0.9743077720163394
12642588000.0 -0.21533189112293297 0.9765409242142641 -7.809288555447294e-18 -1.0251175779271285e-16 -7.809288555447294e-18 -1.0251175779271285e-16 -0.2153325360475089 0.9765407820051224
12643205333.333334 -0.2054215940228003 0.9786735761779614 -8.855407248993131e-18 -1.0240653936801411e-16 -8.855407248993131e-18 -1.0240653936801411e-16 -0.2054222403242606 0.978673440520376
12643822666.666666 -0.19549018735155854 0.9807056574982528 -9.900191329242524e-18 -1.0229065273759022e-16 -9.900191329242524e-18 -1.0229065273759022e-16 -0.19549083496335667 0.9807055284055237
12644440000.0 -0.18553869168240708 0.9826369593540687 -1.0943532077692276e-17 -1.0216411418473962e-16 -1.0943532077692276e-17 -1.0216411418473962e-16 -0.18553934053786822 0.9826368368388196
12645057333.333334 -0.17556812965284926 0.9844672832806729 -1.1985320969171308e-17 -1.020269410999351e-16 -1.1985320969171308e-17 -1.020269410999351e-16 -0.1755687796851776 0.9844671673548515
12645674666.666666 -0.16557952585982882 0.9861964411900206 -1.3025449683128475e-17 -1.0187915197857201e-16 -1.3025449683128475e-17 -1.0187915197857201e-16 -0.16558017700211392 0.986196331864896
12646292000.0 -0.1555739067540474 0.9878242553901542 -1.406381011487119e-17 -1.0172076641860269e-16 -1.406381011487119e-17 -1.0172076641860269e-16 -0.1555745589392712 0.9878241526763147
12646909333.333334 -0.1455523005349315 0.9893505586033782 -1.5100294386762906e-17 -1.0155180511806108e-16 -1.5100294386762906e-17 -1.0155180511806108e-16 -0.1455529536959757 0.9893504625107348
12647526666.666666 -0.13551573704477846 0.9907751939834982 -1.6134794859429892e-17 -1.0137228987246634e-16 -1.6134794859429892e-17 -1.0137228987246634e-16 -0.13551639111443073 0.9907751045212775
12648144000.0 -0.1254652476627568 0.992098015131948 -1.7167204142907016e-17 -1.0118224357211788e-16 -1.7167204142907016e-17 -1.0118224357211788e-16 -0.12546590257371812 0.9920979323086963
12648761333.333334 -0.11540186519925803 0.9933188861127934 -1.8197415107770438e-17 -1.0098169019927478e-16 -1.8197415107770438e-17 -1.0098169019927478e-16 -0.11540252088414939 0.9933188099363726
12649378666.666666 -0.10532662378956557 0.9944376814667267 -1.922532089622439e-17 -1.007706548252244e-16 -1.922532089622439e-17 -1.007706548252244e-16 -0.10532728018093512 0.9944376119443161
12649996000.0 -0.0952405587875283 0.9954542862239669 -2.0250814933169554e-17 -1.005491636072359e-16 -2.0250814933169554e-17 -1.005491636072359e-16 -0.09524121581785822 0.995454223362061
12650613333.333334 -0.08514470665933453 0.996368595916052 -2.127379093724319e-17 -1.0031724378539948e-16 -2.127379093724319e-17 -1.0031724378539948e-16 -0.08514536426104781 0.9963685397204598
12651230666.666666 -0.07504010487691785 0.9971805165865852 -2.229414293177877e-17 -1.0007492367936435e-16 -2.229414293177877e-17 -1.0007492367936435e-16 -0.0750407629823855 0.9971804670624315
12651848000.0 -0.06492779181128791 0.9978899648008989 -2.3311765255812017e-17 -9.982223268494668e-17 -2.3311765255812017e-17 -9.982223268494668e-17 -0.06492845035283566 0.9978899219526208
12652465333.333334 -0.05480880662588097 0.9984968676546132 -2.4326552574967015e-17 -9.955920127064424e-17 -2.4326552574967015e-17 -9.955920127064424e-17 -0.05480946553579646 0.9984968314859637
12653082666.666666 -0.044684189169859154 0.9990011627811358 -2.5338399892330003e-17 -9.928586097403627e-17 -2.5338399892330003e-17 -9.928586097403627e-17 -0.04468484838039863 0.9990011332951779
12653700000.0 -0.03455497987105395 0.999402798358069 -2.634720255933678e-17 -9.900224439805777e-17 -2.634720255933678e-17 -9.900224439805777e-17 -0.03455563931444953 0.9994027755571817
12654317333.333334 -0.02442221962924883 0.9997017331125364 -2.7352856286526833e-17 -9.870838520718925e-17 -2.7352856286526833e-17 -9.870838520718925e-17 -0.0244228792377152 0.9997017169984098
12654934666.666666 -0.01428694970915698 0.9998979363254213 -2.8355257154323004e-17 -9.840431812351804e-17 -2.8355257154323004e-17 -9.840431812351804e-17 -0.014287609414898546 0.9998979268990588
12655552000.0 -0.004150211633219891 0.9999913878345291 -2.935430162376555e-17 -9.809007892269191e-17 -2.935430162376555e-17 -9.809007892269191e-17 -0.004150871368437667 0.9999913850962472
12656169333.333334 0.005986952925080818 0.9999820780366526 -3.034988654715202e-17 -9.776570442977869e-17 -3.034988654715202e-17 -9.776570442977869e-17 0.005986293228182237 0.99998208198608
12656786666.666666 0.01612350224846694 0.9998700078885614 -3.134190917868477e-17 -9.74312325150014e-17 -3.134190917868477e-17 -9.74312325150014e-17 0.016122842657672415 0.9998700185246404
12657404000.0 0.026258394682941312 0.9996551889069074 -3.2330267185056147e-17 -9.708670208937243e-17 -3.2330267185056147e-17 -9.708670208937243e-17 0.02625773526601816 0.9996552062278918
12658021333.333334 0.03639058874480188 0.999337643167031 -3.331485865598019e-17 -9.673215310022003e-17 -3.331485865598019e-17 -9.673215310022003e-17 0.03638992956949299 0.9993376671704896
12658638666.666666 0.04651904322743982 0.9989174033007097 -3.429558211465756e-17 -9.636762652661767e-17 -3.429558211465756e-17 -9.636762652661767e-17 0.046518384361456624 0.9989174339835243
12659256000.0 0.056642717308818875 0.9983945124927828 -3.5272336528256346e-17 -9.599316437468214e-17 -3.5272336528256346e-17 -9.599316437468214e-17 0.056642058819834445 0.9983945498511496
12659873333.333334 0.06676057065794988 0.9977690244767341 -3.624502131826585e-17 -9.560880967279421e-17 -3.624502131826585e-17 -9.560880967279421e-17 0.06675991261359185 0.9977690685061621
12660490666.666666 0.07687156354199616 0.9970410035291619 -3.7213536370823905e-17 -9.521460646670642e-17 -3.7213536370823905e-17 -9.521460646670642e-17 0.07687090600983996 0.9970410542244765
12661108000.0 0.08697465693331707 0.9962105244631583 -3.817778204704526e-17 -9.481059981452413e-17 -3.817778204704526e-17 -9.481059981452413e-17 0.08697399998087894 0.9962105818185003
12661725333.333334 0.09706881261575924 0.9952776726206592 -3.913765919319127e-17 -9.439683578162523e-17 -3.913765919319127e-17 -9.439683578162523e-17 0.09706815631048922 0.9952777366294853
12662342666.666666 0.1071529932918556 0.9942425438636314 -4.009306915089251e-17 -9.397336143543268e-17 -4.009306915089251e-17 -9.397336143543268e-17 0.10715233770113065 0.9942426145187159
12662960000.0 0.11722616268905227 0.9931052445642548 -4.1043913767245746e-17 -9.354022484011305e-17 -4.1043913767245746e-17 -9.354022484011305e-17 0.11722550788016946 0.9931053218576894
12663577333.333334 0.1272872856664249 0.9918658915939703 -4.199009540487045e-17 -9.309747505116671e-17 -4.199009540487045e-17 -9.309747505116671e-17 0.12728663170659427 0.9918659755171655
12664194666.666666 0.13733532832096662 0.9905246123114768 -4.293151695192871e-17 -9.264516210990704e-17 -4.293151695192871e-17 -9.264516210990704e-17 0.1373346752773044 0.9905247028551617
12664812000.0 0.14736925809374976 0.9890815445496525 -4.3868081832062275e-17 -9.218333703784897e-17 -4.3868081832062275e-17 -9.218333703784897e-17 0.14736860603327165 0.9890816417038782
12665429333.333334 0.1573880438762595 0.9875368366013655 -4.4799694014272676e-17 -9.171205183099669e-17 -4.4799694014272676e-17 -9.171205183099669e-17 0.1573873928658736 0.9875369403555049
12666046666.666666 0.1673906561159873 0.9858906472042872 -4.57262580227484e-17 -9.123135945402819e-17 -4.57262580227484e-17 -9.123135945402819e-17 0.16739000622248704 0.9858907575470338
12666664000.0 0.17737606692273483 0.9841431455244964 -4.664767894664802e-17 -9.074131383437082e-17 -4.664767894664802e-17 -9.074131383437082e-17 0.17737541821279276 0.984143262443871
12667281333.333334 0.1873432501737658 0.9822945111391789 -4.756386244975621e-17 -9.024196985621229e-17 -4.756386244975621e-17 -9.024196985621229e-17 0.18734260271392603 0.9822946346225252
12667898666.666666 0.19729118161944903 0.9803449340181394 -4.8474714780160826e-17 -8.973338335436986e-17 -4.8474714780160826e-17 -8.973338335436986e-17 0.19729053547612102 0.9803450640521298
12668516000.0 0.2072188389886797 0.9782946145042463 -4.9380142779816093e-17 -8.92156111080875e-17 -4.9380142779816093e-17 -8.92156111080875e-17 0.20721819422813098 0.9782947510748801
12669133333.333334 0.21712520209359532 0.9761437632929092 -5.02800538940176e-17 -8.868871083475027e-17 -5.02800538940176e-17 -8.868871083475027e-17 0.21712455878194487 0.976143906385516
12669750666.666666 0.22700925293460794 0.9738926014103912 -5.117435618088389e-17 -8.815274118346217e-17 -5.117435618088389e-17 -8.815274118346217e-17 0.22700861113781948 0.973892751009631
