! Parameters = {f0=12700.012000; bw=77.238000; Q=6100.000000; N=10; m_0_1=1.297593; m_1_1=0.699143; m_1_2=1.132405; m_2_2=0.698494; m_2_3=0.769368; m_2_8=0.001943; m_2_9=0.038647; m_3_3=0.696557; m_3_4=0.657897; m_3_7=0.002543; m_3_8=-0.094545; m_3_9=0.001943; m_4_4=0.693632; m_4_5=0.494232; m_4_6=0.006060; m_4_7=-0.115094; m_4_8=0.002543; m_5_5=0.694014; m_5_6=0.901587; m_5_7=0.006060; m_6_6=0.694013; m_6_7=0.494574; m_7_7=0.693646; m_7_8=0.658015; m_8_8=0.696555; m_8_9=0.769681; m_9_9=0.698489; m_9_10=1.133483; m_10_10=0.699133; m_10_11=1.298388}
!
! Created with skrf (http://scikit-rf.org).
# Hz S RI R 50.0 
!freq ReS11 ImS11 ReS21 ImS21 ReS12 ImS12 ReS22 ImS22
12607400000.0 -0.9809097013780226 0.19446376974206414 1.1132304078592355e-16 -5.848334252996825e-17 1.1132304078592355e-16 -5.848334252996825e-17 -0.9809098343127493 0.1944630991945519
12608017333.333334 -0.9786417359757066 0.20557322930350344 1.1062581098558703e-16 -5.973992276747587e-17 1.1062581098558703e-16 -5.973992276747587e-17 -0.9786418764979535 0.205572560339117
12608634666.666666 -0.9762479527138612 0.21665625959526214 1.0991440803150866e-16 -6.098820975081641e-17 1.0991440803150866e-16 -6.098820975081641e-17 -0.97624810080482 0.21665559229984682
12609252000.0 -0.9737286593463497 0.2277114357413274 1.0918893035947577e-16 -6.222804374276566e-17 1.0918893035947577e-16 -6.222804374276566e-17 -0.9737288149862404 0.22771077020050542
12609869333.333334 -0.9710841797630768 0.23873733644674866 1.0844947820414834e-16 -6.34592661721732e-17 1.0844947820414834e-16 -6.34592661721732e-17 -0.9710843429311524 0.23873667274590868
12610486666.666666 -0.9683148539483871 0.249732544180228 1.0769615358527986e-16 -6.468171965418826e-17 1.0769615358527986e-16 -6.468171965418826e-17 -0.9683150246229344 0.24973188240451358
12611104000.0 -0.9654210379372765 0.26069564535666573 1.0692906029368164e-16 -6.589524801037202e-17 1.0692906029368164e-16 -6.589524801037202e-17 -0.9654212160956188 0.26069498559096455
12611721333.333334 -0.9624031037697156 0.2716252305185104 1.0614830387700759e-16 -6.709969628856831e-17 1.0614830387700759e-16 -6.709969628856831e-17 -0.9624032893882171 0.2716245728474437
12612338666.666666 -0.9592614394427533 0.2825198945172404 1.0535399162527314e-16 -6.829491078267681e-17 1.0535399162527314e-16 -6.829491078267681e-17 -0.9592616324968208 0.2825192390251515
12612956000.0 -0.9559964488606261 0.29337823669401303 1.0454623255615996e-16 -6.948073905223967e-17 1.0454623255615996e-16 -6.948073905223967e-17 -0.9559966493247131 0.29337758346495707
12613573333.333334 -0.9526085517829047 0.3041988610594934 1.0372513740013971e-16 -7.065702994179939e-17 1.0372513740013971e-16 -7.065702994179939e-17 -0.9526087596305151 0.3041982101772264
12614190666.666666 -0.9490981837704492 0.31498037647360133 1.0289081858532201e-16 -7.182363360016735e-17 1.0289081858532201e-16 -7.182363360016735e-17 -0.9490983989741395 0.3149797280215692
12614808000.0 -0.945465796129458 0.3257213968241971 1.0204339022212719e-16 -7.298040149945562e-17 1.0204339022212719e-16 -7.298040149945562e-17 -0.9454660186608431 0.32572075088552577
12615425333.333334 -0.9417118558534066 0.3364205412054219 1.0118296808773073e-16 -7.412718645394872e-17 1.0118296808773073e-16 -7.412718645394872e-17 -0.9417120856831606 0.33641989786290527
12616042666.666666 -0.9378368455630586 0.3470764340950693 1.0030966961029887e-16 -7.526384263879035e-17 1.0030966961029887e-16 -7.526384263879035e-17 -0.9378370826609209 0.34707579343115974
12616660000.0 -0.933841263444383 0.35768770553153484 9.94236138530146e-17 -7.639022560848504e-17 9.94236138530146e-17 -7.639022560848504e-17 -0.9338415077791631 0.35768706762833297
12617277333.333334 -0.9297256231845087 0.3682529912899456 9.852492149789461e-17 -7.75061923152155e-17 9.852492149789461e-17 -7.75061923152155e-17 -0.9297258747240864 0.3682523562291881
12617894666.666666 -0.9254904539057284 0.37877093305741477 9.761371482941426e-17 -7.861160112695344e-17 9.761371482941426e-17 -7.861160112695344e-17 -0.9254907126170614 0.3787703009204653
12618512000.0 -0.9211363000973615 0.38924017860796367 9.669011771789417e-17 -7.970631184542282e-17 9.669011771789417e-17 -7.970631184542282e-17 -0.9211365659464891 0.3892395494758022
12619129333.333334 -0.916663721545899 0.3996593819759992 9.575425560274294e-17 -8.07901857238005e-17 9.575425560274294e-17 -8.07901857238005e-17 -0.9166639944979466 0.39965875592921163
12619746666.666666 -0.9120732932629319 0.4100272036296212 9.480625547544918e-17 -8.186308548428326e-17 9.480625547544918e-17 -8.186308548428326e-17 -0.9120735732821129 0.410026580748388
12620364000.0 -0.9073656054112148 0.42034231064283284 9.384624586238854e-17 -8.292487533544206e-17 9.384624586238854e-17 -8.292487533544206e-17 -0.9073658924608409 0.42034169100692104
12620981333.333334 -0.9025412632289062 0.43060337686667705 9.287435680748235e-17 -8.397542098932537e-17 9.287435680748235e-17 -8.397542098932537e-17 -0.9025415572713873 0.4306027605554281
12621598666.666666 -0.8976008869516355 0.4408090830999892 9.189071985459613e-17 -8.501458967843635e-17 9.189071985459613e-17 -8.501458967843635e-17 -0.8976011879484854 0.4408084701923088
12622216000.0 -0.8925451117328208 0.4509581172588672 9.089546802979715e-17 -8.604225017245243e-17 9.089546802979715e-17 -8.604225017245243e-17 -0.8925454196446646 0.4509575078332168
12622833333.333334 -0.8873745875619894 0.46104917454541194 8.988873582340557e-17 -8.705827279475804e-17 8.988873582340557e-17 -8.705827279475804e-17 -0.8873749023485658 0.46104856867979677
12623450666.666666 -0.8820899791812618 0.47108095761537344 8.887065917187735e-17 -8.806252943875363e-17 8.887065917187735e-17 -8.806252943875363e-17 -0.882090300801431 0.47108035538733434
12624068000.0 -0.8766919659998422 0.48105217674504636 8.784137543948205e-17 -8.905489358397539e-17 8.784137543948205e-17 -8.905489358397539e-17 -0.8766922944115891 0.48105157823164824
12624685333.333334 -0.8711812420065841 0.49096154999722774 8.680102339981188e-17 -9.003524031199192e-17 8.680102339981188e-17 -9.003524031199192e-17 -0.8711815771670249 0.49096095527505096
12625302666.666666 -0.8655585156810593 0.5008078033855073 8.574974321714502e-17 -9.100344632205614e-17 8.574974321714502e-17 -9.100344632205614e-17 -0.8655588575464466 0.500807212530637
12625920000.0 -0.8598245099020693 0.5105896710387738 8.468767642755663e-17 -9.195938994661278e-17 8.468767642755663e-17 -9.195938994661278e-17 -0.8598248584277972 0.5105890841267902
12626537333.333334 -0.8539799618550433 0.5203058953633661 8.36149659199578e-17 -9.290295116649522e-17 8.36149659199578e-17 -9.290295116649522e-17 -0.8539803169956567 0.5203053124693364
12627154666.666666 -0.848025622937191 0.5299552272049086 8.253175591690242e-17 -9.383401162595895e-17 8.253175591690242e-17 -9.383401162595895e-17 -0.8480259846463856 0.5299546484033745
12627772000.0 -0.8419622586606638 0.5395364260092637 8.143819195520043e-17 -9.4752454647515e-17 8.143819195520043e-17 -9.4752454647515e-17 -0.8419626268912981 0.5395358513742351
12628389333.333334 -0.8357906485545058 0.549048259981447 8.03344208664715e-17 -9.565816524644754e-17 8.03344208664715e-17 -9.565816524644754e-17 -0.8357910232586031 0.5490476895863899
12629006666.666666 -0.8295115860641276 0.5584895062444702 7.922059075741908e-17 -9.65510301452069e-17 7.922059075741908e-17 -9.65510301452069e-17 -0.8295119671928841 0.5584889401622988
12629624000.0 -0.823125878449481 0.5678589509962713 7.809685099003199e-17 -9.743093778750035e-17 7.809685099003199e-17 -9.743093778750035e-17 -0.8231262659532723 0.5678583892993383
12630241333.333334 -0.8166343466811864 0.5771553896659101 7.696335216158173e-17 -9.829777835219452e-17 7.696335216158173e-17 -9.829777835219452e-17 -0.8166347405095717 0.5771548324259965
12630858666.666666 -0.8100378253350758 0.5863776270682897 7.582024608449894e-17 -9.915144376695865e-17 7.582024608449894e-17 -9.915144376695865e-17 -0.8100382254368083 0.5863770743565979
12631476000.0 -0.8033371624847211 0.5955244775580708 7.466768576605106e-17 -9.999182772171051e-17 7.466768576605106e-17 -9.999182772171051e-17 -0.8033375688077514 0.5955239294452134
12632093333.333334 -0.7965332195926159 0.6045947651818023 7.350582538794063e-17 -1.008188256817768e-16 7.350582538794063e-17 -1.008188256817768e-16 -0.7965336320840997 0.6045942217377934
12632710666.666666 -0.7896268713993235 0.6135873238292446 7.233482028570716e-17 -1.0163233490085512e-16 7.233482028570716e-17 -1.0163233490085512e-16 -0.7896272900056291 0.6135867851234919
12633328000.0 -0.7826190058109297 0.6225009973834007 7.115482692797381e-17 -1.0243225443374356e-16 7.115482692797381e-17 -1.0243225443374356e-16 -0.7826194304776454 0.6225004634846961
12633945333.333334 -0.7755105237850656 0.6313346398689283 6.996600289562465e-17 -1.0321848514878312e-16 6.996600289562465e-17 -1.0321848514878312e-16 -0.7755109544570051 0.6313341108454391
12634562666.666666 -0.7683023392149164 0.6400871155996691 6.876850686077499e-17 -1.0399092974010654e-16 6.876850686077499e-17 -1.0399092974010654e-16 -0.7683027758361264 0.6400865915189282
12635180000.0 -0.7609953788118528 0.6487572993245022 6.756249856563935e-17 -1.047494927396217e-16 6.756249856563935e-17 -1.047494927396217e-16 -0.7609958213256209 0.6487567802534012
12635797333.333334 -0.7535905819862002 0.6573440763721213 6.634813880125948e-17 -1.0549408052875695e-16 6.634813880125948e-17 -1.0549408052875695e-16 -0.7535910303350624 0.6573435623769012
12636414666.666666 -0.7460889007265569 0.6658463427942323 6.512558938611859e-17 -1.0622460134995062e-16 6.512558938611859e-17 -1.0622460134995062e-16 -0.7460893548523048 0.6658458339404757
12637032000.0 -0.7384912994772916 0.6742630055076118 6.389501314460011e-17 -1.0694096531791217e-16 6.389501314460011e-17 -1.0694096531791217e-16 -0.7384917593209793 0.6742625018602327
12637649333.333334 -0.7307987550146241 0.6825929824345487 6.265657388535296e-17 -1.0764308443061531e-16 6.265657388535296e-17 -1.0764308443061531e-16 -0.730799220516577 0.6825924840577867
12638266666.666666 -0.7230122563210287 0.6908352026419842 6.141043637952272e-17 -1.0833087258005135e-16 6.141043637952272e-17 -1.0833087258005135e-16 -0.7230127274208503 0.6908347095993943
12638884000.0 -0.7151328044580886 0.6989886064791946 6.015676633887113e-17 -1.0900424556272686e-16 6.015676633887113e-17 -1.0900424556272686e-16 -0.7151332810946681 0.6989881188336399
12639501333.333334 -0.7071614124377724 0.7070521457140426 5.889573039375976e-17 -1.0966312108992053e-16 5.889573039375976e-17 -1.0966312108992053e-16 -0.7071618945492942 0.7070516635276864
12640118666.666666 -0.6990991050923221 0.715024783667624 5.762749607109433e-17 -1.1030741879764825e-16 5.762749607109433e-17 -1.1030741879764825e-16 -0.6990995926162722 0.7150243070019215
12640736000.0 -0.6909469189421696 0.7229054953478637 5.635223177201325e-17 -1.1093706025644978e-16 5.635223177201325e-17 -1.1093706025644978e-16 -0.690947411815345 0.7229050242635554
12641353333.333334 -0.6827059020631678 0.7306932675808175 5.507010674967519e-17 -1.1155196898081427e-16 5.507010674967519e-17 -1.1155196898081427e-16 -0.6827064002216842 0.7306928021379203
12641970666.666666 -0.6743771139514184 0.7383870991413468 5.378129108675171e-17 -1.1215207043844567e-16 5.378129108675171e-17 -1.1215207043844567e-16 -0.6743776173307167 0.7383866393991448
12642588000.0 -0.6659616253872593 0.7459860008816368 5.248595567293747e-17 -1.1273729205921105e-16 5.248595567293747e-17 -1.1273729205921105e-16 -0.6659621339221165 0.7459855468986768
12643205333.333334 -0.6574605182976075 0.7534889958583733 5.1184272182325974e-17 -1.1330756324384873e-16 5.1184272182325974e-17 -1.1330756324384873e-16 -0.6574610319221441 0.7534885476924558
12643822666.666666 -0.6488748856166892 0.7608951194584881 4.987641305068495e-17 -1.1386281537241776e-16 4.987641305068495e-17 -1.1386281537241776e-16 -0.6488754042643784 0.7608946771666604
12644440000.0 -0.6402058311457628 0.7682034195229678 4.856255145265125e-17 -1.1440298181248184e-16 4.856255145265125e-17 -1.1440298181248184e-16 -0.6402063547494383 0.7682029831615167
12645057333.333334 -0.6314544694110827 0.7754129564693801 4.72428612788671e-17 -1.1492799792701787e-16 4.72428612788671e-17 -1.1492799792701787e-16 -0.6314549979029477 0.7754125260938242
12645674666.666666 -0.6226219255207447 0.7825228034125629 4.5917517112973974e-17 -1.1543780108208742e-16 4.5917517112973974e-17 -1.1543780108208742e-16 -0.6226224588323799 0.7825223790776455
12646292000.0 -0.6137093350196602 0.7895320462840909 4.4586694208533485e-17 -1.1593233065423604e-16 4.4586694208533485e-17 -1.1593233065423604e-16 -0.6137098730820336 0.7895316280437732
12646909333.333334 -0.6047178437440747 0.7964397839493784 4.325056846594971e-17 -1.164115280375993e-16 4.325056846594971e-17 -1.164115280375993e-16 -0.6047183864875513 0.7964393718568346
12647526666.666666 -0.5956486076739264 0.8032451283238078 4.190931640921054e-17 -1.168753366507824e-16 4.190931640921054e-17 -1.168753366507824e-16 -0.5956491550282749 0.8032447224314141
12648144000.0 -0.5865027927842659 0.8099472044868563 4.056311516260889e-17 -1.1732370194345205e-16 4.056311516260889e-17 -1.1732370194345205e-16 -0.5865033446786702 0.8099468048461886
12648761333.333334 -0.57728157489545 0.8165451507945205 3.921214242740238e-17 -1.1775657140265998e-16 3.921214242740238e-17 -1.1775657140265998e-16 -0.5772821312585165 0.8165447574563454
12649378666.666666 -0.5679861395219723 0.8230381189900882 3.785657645839267e-17 -1.1817389455890181e-16 3.785657645839267e-17 -1.1817389455890181e-16 -0.567986700281741 0.8230377320043577
12649996000.0 -0.5586176817199363 0.8294252743132811 3.649659604042546e-17 -1.1857562299191278e-16 3.649659604042546e-17 -1.1857562299191278e-16 -0.5586182468038872 0.829424893729124
12650613333.333334 -0.5491774059334779 0.8357057956075169 3.5132380464856867e-17 -1.1896171033618427e-16 3.5132380464856867e-17 -1.1896171033618427e-16 -0.5491779752685438 0.8357054214732363
12651230666.666666 -0.5396665258400192 0.8418788754254269 3.37641095059669e-17 -1.1933211228621085e-16 3.37641095059669e-17 -1.1933211228621085e-16 -0.5396670993525927 0.8418785077884909
12651848000.0 -0.5300862641939907 0.8479437201328138 3.239196339727446e-17 -1.1968678660147726e-16 3.239196339727446e-17 -1.1968678660147726e-16 -0.5300868418099351 0.847943359039851
12652465333.333334 -0.5204378526698475 0.8538995500105477 3.101612280784616e-17 -1.2002569311116238e-16 3.101612280784616e-17 -1.2002569311116238e-16 -0.5204384343145053 0.8538991955073403
12653082666.666666 -0.5107225317037185 0.8597455993548099 2.963676881858138e-17 -1.2034879371856556e-16 2.963676881858138e-17 -1.2034879371856556e-16 -0.5107231173019224 0.8597452514862899
12653700000.0 -0.500941550333692 0.8654811165756848 2.8254082898333245e-17 -1.206560524052904e-16 2.8254082898333245e-17 -1.206560524052904e-16 -0.5009421398097729 0.8654807753859254
12654317333.333334 -0.491096166039572 0.8711053642935795 2.6868246880155977e-17 -1.2094743523511441e-16 2.6868246880155977e-17 -1.2094743523511441e-16 -0.49109675931737024 0.8711050298257921
12654934666.666666 -0.4811876445809959 0.8766176194341582 2.547944293737681e-17 -1.2122291035761818e-16 2.547944293737681e-17 -1.2122291035761818e-16 -0.48118824158386986 0.8766172917306846
12655552000.0 -0.4712172598345998 0.882017173321352 2.4087853559687814e-17 -1.2148244801152796e-16 2.4087853559687814e-17 -1.2148244801152796e-16 -0.4712178604854374 0.882016852423662
12656169333.333334 -0.46118629363061986 0.8873033317682681 2.2693661529233374e-17 -1.217260205277791e-16 2.2693661529233374e-17 -1.217260205277791e-16 -0.4611868978518466 0.8873030177169506
12656786666.666666 -0.4510960355877447 0.8924754151666242 2.1297049896603222e-17 -1.2195360233231818e-16 2.1297049896603222e-17 -1.2195360233231818e-16 -0.4510966433013355 0.8924751080013856
12657404000.0 -0.44094778294746834 0.8975327585740422 1.9898201956851583e-17 -1.2216516994862036e-16 1.9898201956851583e-17 -1.2216516994862036e-16 -0.44094839407495656 0.8975324583336997
12658021333.333334 -0.43074284040726124 0.9024747117995624 1.8497301225469616e-17 -1.2236070199993656e-16 1.8497301225469616e-17 -1.2236070199993656e-16 -0.4307434548697484 0.9024744185220376
12658638666.666666 -0.4204825199529601 0.9073006394871692 1.7094531414366286e-17 -1.2254017921126221e-16 1.7094531414366286e-17 -1.2254017921126221e-16 -0.4204831376711278 0.9073003532094874
12659256000.0 -0.41016814068984014 0.9120099211976029 1.5690076407763276e-17 -1.2270358441103953e-16 1.5690076407763276e-17 -1.2270358441103953e-16 -0.41016876158395826 0.9120096419558839
12659873333.333334 -0.3998010286732535 0.9166019514880086 1.428412023817778e-17 -1.228509025325712e-16 1.428412023817778e-17 -1.228509025325712e-16 -0.39980165266319195 0.9166016793174652
12660490666.666666 -0.3893825167381514 0.9210761399897844 1.2876847062329382e-17 -1.2298212061516926e-16 1.2876847062329382e-17 -1.2298212061516926e-16 -0.38938314374338956 0.9210758749247164
12661108000.0 -0.3789139443274664 0.9254319114845884 1.1468441137022221e-17 -1.2309722780502754e-16 1.1468441137022221e-17 -1.2309722780502754e-16 -0.3789145742671042 0.9254316535583794
12661725333.333334 -0.36839665732027566 0.929668705978138 1.0059086795104181e-17 -1.2319621535581214e-16 1.0059086795104181e-17 -1.2319621535581214e-16 -0.36839729011304334 0.9296684552232498
12662342666.666666 -0.3578320078584812 0.9337859787723236 8.648968421338e-18 -1.2327907662898522e-16 8.648968421338e-18 -1.2327907662898522e-16 -0.3578326434227503 0.9337857352202935
12662960000.0 -0.3472213541731042 0.9377832005351844 7.238270428330992e-18 -1.233458070938476e-16 7.238270428330992e-18 -1.233458070938476e-16 -0.3472219924268983 0.9377829642166211
12663577333.333334 -0.33656606040964043 0.9416598573689711 5.827177232449532e-18 -1.2339640432730865e-16 5.827177232449532e-18 -1.2339640432730865e-16 -0.33656670127064514 0.9416596283135504
12664194666.666666 -0.32586749645270746 0.9454154508762069 4.415873229745947e-18 -1.2343086801338095e-16 4.415873229745947e-18 -1.2343086801338095e-16 -0.3258681398382807 0.9454152291126667
12664812000.0 -0.3151270377498182 0.9490494982237978 3.0045427719009304e-18 -1.234491999423993e-16 3.0045427719009304e-18 -1.234491999423993e-16 -0.31512768357700194 0.9490492837799365
12665429333.333334 -0.3043460651346833 0.9525615322050607 1.5933701421566127e-18 -1.2345140400996717e-16 1.5933701421566127e-18 -1.2345140400996717e-16 -0.3043467133202136 0.9525613251077334
12666046666.666666 -0.29352596464971403 0.9559511012997851 1.8253953134507505e-19 -1.234374862156258e-16 1.8253953134507505e-19 -1.234374862156258e-16 -0.2935266151100322 0.9559509015749
12666664000.0 -0.28266812736755653 0.9592177697323667 -1.2277649862055288e-18 -1.2340745466125187e-16 -1.2277649862055288e-18 -1.2340745466125187e-16 -0.28266878001881907 0.9592175774048813
12667281333.333334 -0.2717739492126293 0.9623611175277138 -2.637359476564867e-18 -1.2336131954918057e-16 -2.637359476564867e-18 -1.2336131954918057e-16 -0.2717746039707193 0.9623609326216311
12667898666.666666 -0.26084483078138637 0.9653807405653215 -4.0460601702070085e-18 -1.2329909318005477e-16 -4.0460601702070085e-18 -1.2329909318005477e-16 -0.26084548756192466 0.9653805631036905
12668516000.0 -0.2498821771622515 0.9682762506312291 -5.453683485930014e-18 -1.232207899504006e-16 -5.453683485930014e-18 -1.232207899504006e-16 -0.24988283588060717 0.9682760806361391
12669133333.333334 -0.23888739775522053 0.9710472754678606 -6.860046054713687e-18 -1.2312642634993383e-16 -6.860046054713687e-18 -1.2312642634993383e-16 -0.23888805832652152 0.9710471129604379
12669750666.666666 -0.2278619060903903 0.9736934588219592 -8.264964743606823e-18 -1.2301602095858934e-16 -8.264964743606823e-18 -1.2301602095858934e-16 -0.2278625684295346 0.9736933038223654
12670368000.0 -0.2168071196463382 0.976214460490355 -9.668256679525323e-18 -1.2288959444328186e-16 -9.668256679525323e-18 -1.2288959444328186e-16 -0.21680778366800474 0.9762143130177845
