! Parameters = {f0=12700.012000; bw=77.238000; Q=6100.000000; N=10; m_0_1=1.224720; m_1_1=-0.393950; m_1_2=1.059532; m_2_2=-0.394599; m_2_3=0.696495; m_2_8=-0.001700; m_2_9=0.035004; m_3_3=-0.396536; m_3_4=0.585024; m_3_7=-0.001100; m_3_8=-0.098188; m_3_9=-0.001700; m_4_4=-0.399461; m_4_5=0.421359; m_4_6=0.002417; m_4_7=-0.118737; m_4_8=-0.001100; m_5_5=-0.399079; m_5_6=0.828714; m_5_7=0.002417; m_6_6=-0.399080; m_6_7=0.421701; m_7_7=-0.399447; m_7_8=0.585142; m_8_8=-0.396538; m_8_9=0.696808; m_9_9=-0.394604; m_9_10=1.060610; m_10_10=-0.393960; m_10_11=1.225515}
!
! Created with skrf (http://scikit-rf.org).
# Hz S RI R 50.0 
!freq ReS11 ImS11 ReS21 ImS21 ReS12 ImS12 ReS22 ImS22
12607400000.0 -0.988345795330428 0.1522254540229708 8.039951472748577e-17 -3.793194722957688e-17 8.039951472748577e-17 -3.793194722957688e-17 -0.9883458935666675 0.15222481620859898
12608017333.333334 -0.98690603996804 0.16129621283352552 8.002864200973128e-17 -3.8668278065621217e-17 8.002864200973128e-17 -3.8668278065621217e-17 -0.9869061440528623 0.1612955759794628
12608634666.666666 -0.9853830375411269 0.17035336605438395 7.965103205158268e-17 -3.940099502362271e-17 7.965103205158268e-17 -3.940099502362271e-17 -0.9853831474651805 0.17035273021425335
12609252000.0 -0.9837769165173802 0.17939614970057421 7.926671995927319e-17 -4.013003651915477e-17 7.926671995927319e-17 -4.013003651915477e-17 -0.9837770322708224 0.1793955149279081
12609869333.333334 -0.9820878123756708 0.1884238009992496 7.887574140140928e-17 -4.085534130787417e-17 7.887574140140928e-17 -4.085534130787417e-17 -0.9820879339481661 0.1884231673474847
12610486666.666666 -0.9803158675946593 0.19743555845380556 7.847813260569977e-17 -4.1576848490622075e-17 7.847813260569977e-17 -4.1576848490622075e-17 -0.980315994975384 0.19743492597627907
12611104000.0 -0.9784612316406849 0.20643066190861628 7.807393035560205e-17 -4.2294497518562855e-17 7.807393035560205e-17 -4.2294497518562855e-17 -0.9784613648183257 0.206430030658561
12611721333.333334 -0.9765240609552779 0.2154083526125412 7.766317198696362e-17 -4.300822819821289e-17 7.766317198696362e-17 -4.300822819821289e-17 -0.9765241999180341 0.21540772264308133
12612338666.666666 -0.974504518941867 0.2243678732834006 7.724589538458849e-17 -4.371798069649015e-17 7.724589538458849e-17 -4.371798069649015e-17 -0.9745046636774516 0.22436724464754715
12612956000.0 -0.9724027759520117 0.2333084681717693 7.682213897875885e-17 -4.442369554572837e-17 7.682213897875885e-17 -4.442369554572837e-17 -0.9724029264476511 0.23330784092241547
12613573333.333334 -0.970219009271109 0.2422293831243932 7.639194174173356e-17 -4.5125313648618554e-17 7.639194174173356e-17 -4.5125313648618554e-17 -0.9702191655135454 0.24222875731431007
12614190666.666666 -0.9679534031033362 0.25112986564824596 7.595534318417816e-17 -4.582277628315836e-17 7.595534318417816e-17 -4.582277628315836e-17 -0.9679535650788289 0.25112924133007825
12614808000.0 -0.9656061485561659 0.26000916497378185 7.551238335155648e-17 -4.6516025107553835e-17 7.551238335155648e-17 -4.6516025107553835e-17 -0.9656063162504913 0.26000854220004316
12615425333.333334 -0.96317744362426 0.2688665321182098 7.506310282048272e-17 -4.720500216508051e-17 7.506310282048272e-17 -4.720500216508051e-17 -0.9631776170227132 0.2688659109412781
12616042666.666666 -0.9606674931727237 0.2777012199488349 7.460754269502984e-17 -4.788964988890699e-17 7.460754269502984e-17 -4.788964988890699e-17 -0.9606676722601214 0.27770060042094885
12616660000.0 -0.9580765089198491 0.28651248324599926 7.414574460298284e-17 -4.856991110690277e-17 7.414574460298284e-17 -4.856991110690277e-17 -0.9580766936805296 0.2865118654192532
12617277333.333334 -0.9554047094192731 0.2952995787658876 7.367775069205835e-17 -4.92457290463928e-17 7.367775069205835e-17 -4.92457290463928e-17 -0.9554048998370956 0.2952989626922267
12617894666.666666 -0.952652320041521 0.30406176530327433 7.320360362609051e-17 -4.991704733886387e-17 7.320360362609051e-17 -4.991704733886387e-17 -0.9526525160998716 0.30406115103449166
12618512000.0 -0.9498195729549773 0.31279830375412887 7.272334658113767e-17 -5.0583810024685897e-17 7.272334658113767e-17 -5.0583810024685897e-17 -0.9498197746367669 0.3127976913418597
12619129333.333334 -0.9469067071063588 0.32150845717776916 7.223702324159612e-17 -5.124596155772643e-17 7.223702324159612e-17 -5.124596155772643e-17 -0.9469069143940247 0.32150784667348675
12619746666.666666 -0.9439139682004959 0.3301914908592124 7.17446777962364e-17 -5.190344680997683e-17 7.17446777962364e-17 -5.190344680997683e-17 -0.9439141810760069 0.3301908823142253
12620364000.0 -0.940841608679638 0.33884667237107086 7.12463549341993e-17 -5.25562110761387e-17 7.12463549341993e-17 -5.25562110761387e-17 -0.9408418271244909 0.33884606583651605
12620981333.333334 -0.9376898877021823 0.34747327163524927 7.07420998409773e-17 -5.320420007813576e-17 7.07420998409773e-17 -5.320420007813576e-17 -0.9376901116974086 0.3474726671620902
12621598666.666666 -0.9344590711207552 0.35607056098471984 7.023195819432632e-17 -5.384735996962553e-17 7.023195819432632e-17 -5.384735996962553e-17 -0.9344593006469161 0.3560699586237399
12622216000.0 -0.9311494314598522 0.3646378152246834 6.971597616014597e-17 -5.448563734046007e-17 6.971597616014597e-17 -5.448563734046007e-17 -0.9311496664970486 0.3646372150264843
12622833333.333334 -0.9277612478927743 0.3731743116939853 6.91942003883225e-17 -5.511897922110367e-17 6.91942003883225e-17 -5.511897922110367e-17 -0.9277614884206412 0.37317371370898
12623450666.666666 -0.9242948062181909 0.38167933032575024 6.8666678008541e-17 -5.574733308699891e-17 6.8666678008541e-17 -5.574733308699891e-17 -0.9242950522159044 0.38167873460416146
12624068000.0 -0.9207503988359169 0.3901521537084433 6.813345662603009e-17 -5.637064686292833e-17 6.813345662603009e-17 -5.637064686292833e-17 -0.9207506502821919 0.39015156030029674
12624685333.333334 -0.9171283247222578 0.398592067146326 6.759458431728731e-17 -5.698886892730997e-17 6.759458431728731e-17 -5.698886892730997e-17 -0.917128581595353 0.39859147610144813
12625302666.666666 -0.9134288894049428 0.4069983587194059 6.705010962578438e-17 -5.76019481164317e-17 6.705010962578438e-17 -5.76019481164317e-17 -0.9134291516826601 0.4069977700874183
12625920000.0 -0.9096524049371121 0.4153703193440337 6.650008155757792e-17 -5.820983372870919e-17 6.650008155757792e-17 -5.820983372870919e-17 -0.9096526725968022 0.41536973317435066
12626537333.333334 -0.905799189871192 0.42370724283227507 6.594454957694494e-17 -5.881247552883037e-17 6.594454957694494e-17 -5.881247552883037e-17 -0.9057994628897511 0.42370665917409744
12627154666.666666 -0.9018695692319904 0.4320084259515564 6.538356360194773e-17 -5.940982375189634e-17 6.538356360194773e-17 -5.940982375189634e-17 -0.9018698475858655 0.43200784485386834
12627772000.0 -0.8978638744891334 0.4402731684842917 6.481717399994572e-17 -6.000182910753633e-17 6.481717399994572e-17 -6.000182910753633e-17 -0.8978641581543256 0.4402725899958574
12628389333.333334 -0.8937824435293175 0.4485007732865124 6.424543158312014e-17 -6.058844278392705e-17 6.424543158312014e-17 -6.058844278392705e-17 -0.8937827324813797 0.44850019745587016
12629006666.666666 -0.8896256206276526 0.4566905463469766 6.366838760391236e-17 -6.116961645182242e-17 6.366838760391236e-17 -6.116961645182242e-17 -0.8896259148416966 0.45668997322243704
12629624000.0 -0.8853937564186796 0.46484179684561155 6.308609375045575e-17 -6.174530226850951e-17 6.308609375045575e-17 -6.174530226850951e-17 -0.8853940558693744 0.4648412264752514
12630241333.333334 -0.8810872078668124 0.47295383721173073 6.249860214195765e-17 -6.231545288173517e-17 6.249860214195765e-17 -6.231545288173517e-17 -0.8810875125283886 0.4729532696433903
12630858666.666666 -0.8767063382362231 0.48102598318206213 6.190596532406761e-17 -6.288002143356812e-17 6.190596532406761e-17 -6.288002143356812e-17 -0.8767066480824732 0.48102541846333996
12631476000.0 -0.8722515170600844 0.4890575538586618 6.130823626416431e-17 -6.343896156426255e-17 6.130823626416431e-17 -6.343896156426255e-17 -0.8722518320643666 0.48905699203691194
12632093333.333334 -0.8677231201096198 0.49704787176595217 6.070546834666714e-17 -6.399222741601964e-17 6.070546834666714e-17 -6.399222741601964e-17 -0.8677234402448609 0.49704731288827997
12632710666.666666 -0.863121529362245 0.5049962629081678 6.009771536828004e-17 -6.453977363673792e-17 6.009771536828004e-17 -6.453977363673792e-17 -0.8631218546009404 0.5049957070214253
12633328000.0 -0.8584471329693129 0.5129020568262541 5.948503153318647e-17 -6.508155538373189e-17 5.948503153318647e-17 -6.508155538373189e-17 -0.8584474632835316 0.512901503977037
12633945333.333334 -0.8537003252235468 0.5207645866541287 5.886747144825368e-17 -6.561752832736635e-17 5.886747144825368e-17 -6.561752832736635e-17 -0.8537006605849308 0.520764036888771
12634562666.666666 -0.848881506525607 0.528583189175225 5.824509011817879e-17 -6.614764865466927e-17 5.824509011817879e-17 -6.614764865466927e-17 -0.8488818469053759 0.5285826425397965
12635180000.0 -0.8439910833504486 0.5363572048782165 5.761794294059644e-17 -6.667187307290338e-17 5.761794294059644e-17 -6.667187307290338e-17 -0.8439914287194017 0.5363566614185186
12635797333.333334 -0.8390294682129141 0.5440859780128422 5.698608570116795e-17 -6.719015881308035e-17 5.698608570116795e-17 -6.719015881308035e-17 -0.8390298185414338 0.5440854377744044
12636414666.666666 -0.833997079633046 0.5517688566450512 5.634957456864861e-17 -6.770246363342011e-17 5.634957456864861e-17 -6.770246363342011e-17 -0.8339974348910978 0.5517683196731263
12637032000.0 -0.8288943421007363 0.5594051927120667 5.570846608988783e-17 -6.820874582279508e-17 5.570846608988783e-17 -6.820874582279508e-17 -0.8288947022578732 0.5594046590516276
12637649333.333334 -0.8237216860398879 0.5669943420770974 5.506281718483471e-17 -6.870896420409582e-17 5.506281718483471e-17 -6.870896420409582e-17 -0.8237220510652538 0.566993811772834
12638266666.666666 -0.818479547772141 0.574535664583625 5.441268514150447e-17 -6.920307813755833e-17 5.441268514150447e-17 -6.920307813755833e-17 -0.8184799176344708 0.5745351376799388
12638884000.0 -0.8131683694801151 0.5820285241093316 5.375812761089942e-17 -6.969104752405612e-17 5.375812761089942e-17 -6.969104752405612e-17 -0.8131687441477395 0.5820280006503337
12639501333.333334 -0.8077885991699986 0.5894722886199217 5.3099202601916125e-17 -7.017283280833198e-17 5.3099202601916125e-17 -7.017283280833198e-17 -0.8077889786108451 0.5894717686494271
12640118666.666666 -0.8023406906339043 0.5968663302222252 5.2435968476238254e-17 -7.064839498217155e-17 5.2435968476238254e-17 -7.064839498217155e-17 -0.8023410748155027 0.596865813783752
12640736000.0 -0.7968251034113762 0.6042100252174617 5.176848394313862e-17 -7.111769558757467e-17 5.176848394313862e-17 -7.111769558757467e-17 -0.7968254923008585 0.6042095123542253
12641353333.333334 -0.7912423027509137 0.6115027541534611 5.109680805435246e-17 -7.158069671980603e-17 5.109680805435246e-17 -7.158069671980603e-17 -0.791242696315018 0.6115022449083706
12641970666.666666 -0.7855927595705046 0.6187439018772111 5.042100019883183e-17 -7.203736103046272e-17 5.042100019883183e-17 -7.203736103046272e-17 -0.7855931577755786 0.618743396292867
12642588000.0 -0.7798769504179555 0.6259328575866794 4.974112009751803e-17 -7.248765173046111e-17 4.974112009751803e-17 -7.248765173046111e-17 -0.7798773532299578 0.6259323557053685
12643205333.333334 -0.7740953574307272 0.6330690148822891 4.905722779808339e-17 -7.293153259297718e-17 4.905722779808339e-17 -7.293153259297718e-17 -0.7740957648152318 0.6330685167459822
12643822666.666666 -0.7682484682952482 0.6401517718180918 4.8369383669640907e-17 -7.336896795634166e-17 4.8369383669640907e-17 -7.336896795634166e-17 -0.7682488802174471 0.6401512774684399
12644440000.0 -0.76233677620576 0.6471805309525657 4.767764839742813e-17 -7.379992272688546e-17 4.767764839742813e-17 -7.379992272688546e-17 -0.7623371926304655 0.6471800404308964
12645057333.333334 -0.7563607798227532 0.6541546993989676 4.6982082977472776e-17 -7.422436238173155e-17 4.6982082977472776e-17 -7.422436238173155e-17 -0.7563612007144008 0.6541542127462808
12645674666.666666 -0.7503209832309574 0.661073688875277 4.628274871123525e-17 -7.464225297153484e-17 4.628274871123525e-17 -7.464225297153484e-17 -0.7503214085536102 0.6610732061322431
12646292000.0 -0.7442178958965635 0.6679369157541217 4.557970720019321e-17 -7.505356112319265e-17 4.557970720019321e-17 -7.505356112319265e-17 -0.744218325613914 0.6679364369610772
12646909333.333334 -0.7380520326246404 0.6747438011115569 4.487302034046461e-17 -7.545825404246758e-17 4.487302034046461e-17 -7.545825404246758e-17 -0.7380524667000145 0.6747433263085015
12647526666.666666 -0.7318239135153933 0.6814937707762636 4.416275031735791e-17 -7.585629951658875e-17 4.416275031735791e-17 -7.585629951658875e-17 -0.7318243519117514 0.6814933000028555
12648144000.0 -0.7255340639203616 0.6881862553778888 4.344895959990395e-17 -7.624766591679925e-17 4.344895959990395e-17 -7.624766591679925e-17 -0.7255345066003046 0.6881857886734435
12648761333.333334 -0.7191830143982447 0.6948206903949325 4.273171093539153e-17 -7.663232220083767e-17 4.273171093539153e-17 -7.663232220083767e-17 -0.7191834613240154 0.6948202277984179
12649378666.666666 -0.7127713006700311 0.7013965162024893 4.2011067343872677e-17 -7.701023791537366e-17 4.2011067343872677e-17 -7.701023791537366e-17 -0.7127717518035181 0.7013960577525231
12649996000.0 -0.7062994635737704 0.7079131781194936 4.12870921126161e-17 -7.738138319840845e-17 4.12870921126161e-17 -7.738138319840845e-17 -0.7062999188765108 0.7079127238543401
12650613333.333334 -0.699768049019069 0.7143701264553851 4.055984879057653e-17 -7.774572878160281e-17 4.055984879057653e-17 -7.774572878160281e-17 -0.6997685084522527 0.7143696764129523
12651230666.666666 -0.6931776079410071 0.7207668165565201 3.9829401182846793e-17 -7.810324599255311e-17 3.9829401182846793e-17 -7.810324599255311e-17 -0.6931780714654788 0.7207663707743557
12651848000.0 -0.6865286962535202 0.7271027088522497 3.9095813345038573e-17 -7.845390675704087e-17 3.9095813345038573e-17 -7.845390675704087e-17 -0.6865291638297831 0.7271022673675381
12652465333.333334 -0.6798218748027514 0.7333772689001955 3.835914957770613e-17 -7.879768360119855e-17 3.835914957770613e-17 -7.879768360119855e-17 -0.6798223463909719 0.7333768317497563
12653082666.666666 -0.6730577093196031 0.7395899674314719 3.761947442073139e-17 -7.913454965363324e-17 3.761947442073139e-17 -7.913454965363324e-17 -0.6730581848796122 0.7395895346517541
12653700000.0 -0.6662367703719729 0.7457402803953672 3.687685264764773e-17 -7.94644786475182e-17 3.687685264764773e-17 -7.94644786475182e-17 -0.6662372498632705 0.745739852022448
12654317333.333334 -0.6593596333167703 0.751827689003412 3.6131349260020237e-17 -7.978744492259614e-17 3.6131349260020237e-17 -7.978744492259614e-17 -0.6593601166985296 0.7518272650729942
12654934666.666666 -0.6524268782512405 0.7578516797732772 3.5383029481754517e-17 -8.010342342715526e-17 3.5383029481754517e-17 -8.010342342715526e-17 -0.6524273654823093 0.7578512603206844
12655552000.0 -0.6454390899640925 0.7638117445720259 3.463195875339071e-17 -8.041238971995089e-17 3.463195875339071e-17 -8.041238971995089e-17 -0.6454395810029985 0.7638113296322008
12656169333.333334 -0.6383968578862368 0.7697073806589216 3.387820272642208e-17 -8.071431997205561e-17 3.387820272642208e-17 -8.071431997205561e-17 -0.6383973526911905 0.7697069702664229
12656786666.666666 -0.6313007760409151 0.7755380907279642 3.312182725755452e-17 -8.100919096867544e-17 3.312182725755452e-17 -8.100919096867544e-17 -0.6313012745698141 0.7755376849169644
12657404000.0 -0.6241514429937681 0.7813033829496927 3.2362898402964076e-17 -8.129698011090599e-17 3.2362898402964076e-17 -8.129698011090599e-17 -0.6241519452041996 0.7813029817539741
12658021333.333334 -0.6169494618021468 0.7870027710128332 3.160148241254447e-17 -8.15776654174335e-17 3.160148241254447e-17 -8.15776654174335e-17 -0.6169499676513912 0.787002374465785
12658638666.666666 -0.6096954399645326 0.7926357741650898 3.08376457241563e-17 -8.1851225526176e-17 3.08376457241563e-17 -8.1851225526176e-17 -0.6096959494095678 0.7926353822997066
12659256000.0 -0.6023899893689145 0.7982019172539959 3.007145495780661e-17 -8.211763969589153e-17 3.007145495780661e-17 -8.211763969589153e-17 -0.6023905023664197 0.7982015301028739
12659873333.333334 -0.5950337262414431 0.8037007307667826 2.930297690988021e-17 -8.237688780770802e-17 2.930297690988021e-17 -8.237688780770802e-17 -0.5950342427478013 0.8037003483621166
12660490666.666666 -0.5876272710945206 0.8091317508699329 2.853227854733733e-17 -8.262895036660747e-17 2.853227854733733e-17 -8.262895036660747e-17 -0.5876277910658241 0.8091313732435158
12661108000.0 -0.5801712486740965 0.8144945194485823 2.7759427001854126e-17 -8.287380850287089e-17 2.7759427001854126e-17 -8.287380850287089e-17 -0.5801717720661487 0.8144941466317989
12661725333.333334 -0.5726662879073546 0.8197885841448682 2.698448956402885e-17 -8.311144397344244e-17 2.698448956402885e-17 -8.311144397344244e-17 -0.5726668146756755 0.8197882161686963
12662342666.666666 -0.565113021849483 0.8250134983962282 2.6207533677517955e-17 -8.334183916325948e-17 2.6207533677517955e-17 -8.334183916325948e-17 -0.5651135519493113 0.8250131352912331
12662960000.0 -0.5575120876302475 0.8301688214730786 2.542862693317755e-17 -8.356497708652171e-17 2.542862693317755e-17 -8.356497708652171e-17 -0.5575126210165462 0.8301684632694127
12663577333.333334 -0.5498641264002971 0.8352541185159609 2.4647837063201953e-17 -8.378084138790476e-17 2.4647837063201953e-17 -8.378084138790476e-17 -0.5498646630277559 0.8352537652433598
12664194666.666666 -0.5421697832771526 0.8402689605721746 2.3865231935254356e-17 -8.398941634371707e-17 2.3865231935254356e-17 -8.398941634371707e-17 -0.5421703231001922 0.8402686122599553
12664812000.0 -0.534429707290623 0.8452129246320699 2.3080879546567123e-17 -8.419068686300969e-17 2.3080879546567123e-17 -8.419068686300969e-17 -0.534430250263399 0.8452125813091272
12665429333.333334 -0.5266445513282267 0.8500855936646196 2.2294848018051982e-17 -8.438463848862463e-17 2.2294848018051982e-17 -8.438463848862463e-17 -0.526645097404634 0.8500852553594265
12666046666.666666 -0.518814972080072 0.8548865566526302 2.150720558841658e-17 -8.457125739818545e-17 2.150720558841658e-17 -8.457125739818545e-17 -0.5188155212137481 0.8548862233932328
12666664000.0 -0.5109416299832706 0.8596154086275304 2.0718020608213003e-17 -8.475053040504827e-17 2.0718020608213003e-17 -8.475053040504827e-17 -0.5109421821275991 0.8596150804415459
12667281333.333334 -0.5030251891666395 0.8642717507032747 1.992736153396074e-17 -8.492244495917637e-17 1.992736153396074e-17 -8.492244495917637e-17 -0.503025744274755 0.8642714276178903
12667898666.666666 -0.4950663173942942 0.8688551901102329 1.9135296922205314e-17 -8.50869891479757e-17 1.9135296922205314e-17 -8.50869891479757e-17 -0.49506687541908595 0.868854872152203
12668516000.0 -0.4870656860093913 0.8733653402282683 1.8341895423572608e-17 -8.524415169707246e-17 1.8341895423572608e-17 -8.524415169707246e-17 -0.48706624690350686 0.8733650274239115
12669133333.333334 -0.4790239698777969 0.8778018206191831 1.7547225776861256e-17 -8.539392197102724e-17 1.7547225776861256e-17 -8.539392197102724e-17 -0.4790245335936468 0.8778015129943821
12669750666.666666 -0.4709418473307417 0.8821642570590505 1.675135680308372e-17 -8.553628997400386e-17 1.675135680308372e-17 -8.553628997400386e-17 -0.47094241382050267 0.8821639546392471
12670368000.0 -0.4628200001078971 0.8864522815696079 1.5954357399514624e-17 -8.56712463503797e-17 1.5954357399514624e-17 -8.56712463503797e-17 -0.46282056932351734 0.8864519843798042
12670985333.333334 -0.4546591132997743 0.8906655324493598 1.5156296533754362e-17 -8.57987823852975e-17 1.5156296533754362e-17 -8.57987823852975e-17 -0.4546596851929758 0.8906652405141123
