! Parameters = {f0=12700.012000; bw=77.238000; Q=6100.000000; N=10; m_0_1=1.181476; m_1_1=-1.042599; m_1_2=1.016288; m_2_2=-1.043248; m_2_3=0.653251; m_2_8=-0.003862; m_2_9=0.032842; m_3_3=-1.045185; m_3_4=0.541780; m_3_7=-0.003262; m_3_8=-0.100350; m_3_9=-0.003862; m_4_4=-1.048110; m_4_5=0.378115; m_4_6=0.000255; m_4_7=-0.120899; m_4_8=-0.003262; m_5_5=-1.047728; m_5_6=0.785470; m_5_7=0.000255; m_6_6=-1.047729; m_6_7=0.378457; m_7_7=-1.048096; m_7_8=0.541898; m_8_8=-1.045187; m_8_9=0.653564; m_9_9=-1.043253; m_9_10=1.017366; m_10_10=-1.042609; m_10_11=1.182271}
!
! Created with skrf (http://scikit-rf.org).
# Hz S RI R 50.0 
!freq ReS11 ImS11 ReS21 ImS21 ReS12 ImS12 ReS22 ImS22
12607400000.0 -0.6680003793438167 -0.7441609323233549 6.086624090493597e-17 3.7423747791900244e-17 6.086624090493597e-17 3.7423747791900244e-17 -0.6679999160115769 -0.7441613482359679
12608017333.333334 -0.67386274749835 -0.7388565473309564 6.115150186402653e-17 3.69287181066162e-17 6.115150186402653e-17 3.69287181066162e-17 -0.6738622874912729 -0.7388569668730723
12608634666.666666 -0.6796829966280725 -0.733505980953482 6.143274165251049e-17 3.6431521461843954e-17 6.143274165251049e-17 3.6431521461843954e-17 -0.679682539974583 -0.7335064040985233
12609252000.0 -0.6854607629449601 -0.7281095676220445 6.170994387128095e-17 3.59321904828551e-17 6.170994387128095e-17 3.59321904828551e-17 -0.6854603096732707 -0.7281099943432111
12609869333.333334 -0.6911956853163898 -0.7226676446333081 6.198309238562012e-17 3.543075791851238e-17 6.198309238562012e-17 3.543075791851238e-17 -0.6911952354544996 -0.72266807490358
12610486666.666666 -0.6968874052875701 -0.7171805521285457 6.225217132612993e-17 3.4927256639124576e-17 6.225217132612993e-17 3.4927256639124576e-17 -0.6968869588632614 -0.7171809859206825
12611104000.0 -0.7025355671041278 -0.7116486330721985 6.251716508964409e-17 3.4421719634293796e-17 6.251716508964409e-17 3.4421719634293796e-17 -0.7025351241449664 -0.7116490703587436
12611721333.333334 -0.708139817734102 -0.7060722332306801 6.277805834011408e-17 3.391418001077428e-17 6.277805834011408e-17 3.391418001077428e-17 -0.7081393782674337 -0.7060726739839603
12612338666.666666 -0.7136998068902718 -0.7004517011505047 6.303483600949061e-17 3.3404670990299324e-17 6.303483600949061e-17 3.3404670990299324e-17 -0.7136993709432217 -0.7004521453426331
12612956000.0 -0.719215187051909 -0.69478738813664 6.328748329857797e-17 3.2893225907419484e-17 6.328748329857797e-17 3.2893225907419484e-17 -0.7192147546513797 -0.6947878357395177
12613573333.333334 -0.7246856134864819 -0.6890796482305728 6.353598567787286e-17 3.2379878207333227e-17 6.353598567787286e-17 3.2379878207333227e-17 -0.7246851846591507 -0.6890800992158896
12614190666.666666 -0.7301107442712373 -0.683328838188135 6.378032888838784e-17 3.186466144370332e-17 6.378032888838784e-17 3.186466144370332e-17 -0.7301103190435578 -0.6833292925273741
12614808000.0 -0.7354902403146398 -0.6775353174571502 6.402049894245953e-17 3.134760927646607e-17 6.402049894245953e-17 3.134760927646607e-17 -0.7354898187128356 -0.6775357751215856
12615425333.333334 -0.7408237653774192 -0.6716994481551035 6.425648212452923e-17 3.0828755469652354e-17 6.425648212452923e-17 3.0828755469652354e-17 -0.740823347427486 -0.6716999091158057
12616042666.666666 -0.7461109860937483 -0.6658215950463465 6.448826499191942e-17 3.03081338891756e-17 6.448826499191942e-17 3.03081338891756e-17 -0.7461105718214518 -0.665822059274183
12616660000.0 -0.7513515719919259 -0.6599021255194659 6.471583437557883e-17 2.9785778500643584e-17 6.471583437557883e-17 2.9785778500643584e-17 -0.7513511614227973 -0.6599025929851016
12617277333.333334 -0.7565451955151995 -0.6539414095641262 6.493917738082388e-17 2.926172336713323e-17 6.493917738082388e-17 2.926172336713323e-17 -0.7565447886745377 -0.6539418802380271
12617894666.666666 -0.7616915320419981 -0.6479398197482246 6.515828138804433e-17 2.8736002647000906e-17 6.515828138804433e-17 2.8736002647000906e-17 -0.7616911289548661 -0.6479402936006595
12618512000.0 -0.7667902599065755 -0.6418977311941949 6.537313405341689e-17 2.820865059162798e-17 6.537313405341689e-17 2.820865059162798e-17 -0.7667898605977991 -0.6418982081952367
12619129333.333334 -0.7718410604187069 -0.6358155215560354 6.558372330956814e-17 2.7679701543237618e-17 6.558372330956814e-17 2.7679701543237618e-17 -0.7718406649128738 -0.6358160016755633
12619746666.666666 -0.7768436178839434 -0.6296935709953162 6.579003736625158e-17 2.7149189932632248e-17 6.579003736625158e-17 2.7149189932632248e-17 -0.7768432262054007 -0.6296940542030165
12620364000.0 -0.7817976196231922 -0.6235322621575871 6.599206471098536e-17 2.6617150276974417e-17 6.599206471098536e-17 2.6617150276974417e-17 -0.7817972317960458 -0.6235327484229574
12620981333.333334 -0.7867027559922463 -0.6173319801484872 6.618979410967891e-17 2.608361717755038e-17 6.618979410967891e-17 2.608361717755038e-17 -0.7867023720403584 -0.6173324694408359
12621598666.666666 -0.791558720401173 -0.6110931125096278 6.638321460724241e-17 2.5548625317523193e-17 6.638321460724241e-17 2.5548625317523193e-17 -0.7915583403481626 -0.6110936047980782
12622216000.0 -0.7963652093335316 -0.6048160491943049 6.657231552818007e-17 2.501220945967984e-17 6.657231552818007e-17 2.501220945967984e-17 -0.7963648332027702 -0.6048165444477948
12622833333.333334 -0.8011219223652356 -0.5985011825432567 6.67570864771577e-17 2.4474404444190816e-17 6.67570864771577e-17 2.4474404444190816e-17 -0.8011215501798482 -0.5985016807305427
12623450666.666666 -0.8058285621834034 -0.592148907260054 6.693751733956041e-17 2.393524518634715e-17 6.693751733956041e-17 2.393524518634715e-17 -0.8058281939662657 -0.5921494083497115
12624068000.0 -0.8104848346048895 -0.5857596203864965 6.711359828202652e-17 2.3394766674306444e-17 6.711359828202652e-17 2.3394766674306444e-17 -0.8104844703786273 -0.5857601243469234
12624685333.333334 -0.8150904485948218 -0.5793337212775894 6.728531975297143e-17 2.285300396681239e-17 6.728531975297143e-17 2.285300396681239e-17 -0.8150900883818094 -0.5793342280770072
12625302666.666666 -0.8196451162845099 -0.5728716115769736 6.745267248307609e-17 2.2309992190962342e-17 6.745267248307609e-17 2.2309992190962342e-17 -0.8196447601068686 -0.5728721211834292
12625920000.0 -0.8241485529897375 -0.5663736951914079 6.761564748578297e-17 2.1765766539892792e-17 6.761564748578297e-17 2.1765766539892792e-17 -0.8241482008693328 -0.5663742075727752
12626537333.333334 -0.8286004772283557 -0.5598403782657967 6.777423605774576e-17 2.1220362270547855e-17 6.777423605774576e-17 2.1220362270547855e-17 -0.828600129186799 -0.5598408933897803
12627154666.666666 -0.8330006107379441 -0.5532720691577158 6.792842977928347e-17 2.0673814701375545e-17 6.792842977928347e-17 2.0673814701375545e-17 -0.8330002667965904 -0.5532725869918524
12627772000.0 -0.8373486784932527 -0.5466691784118165 6.807822051480528e-17 2.0126159210051506e-17 6.807822051480528e-17 2.0126159210051506e-17 -0.8373483386731972 -0.5466696989234759
12628389333.333334 -0.8416444087232795 -0.5400321187343304 6.822360041321634e-17 1.9577431231207918e-17 6.822360041321634e-17 1.9577431231207918e-17 -0.8416440730453576 -0.5400326418907181
12629006666.666666 -0.8458875329283797 -0.5333613049670819 6.836456190831125e-17 1.902766625413419e-17 6.836456190831125e-17 1.902766625413419e-17 -0.8458872014131666 -0.5333618307352415
12629624000.0 -0.8500777858969283 -0.5266571540617515 6.850109771914474e-17 1.8476899820494773e-17 6.850109771914474e-17 1.8476899820494773e-17 -0.8500774585647383 -0.5266576824085675
12630241333.333334 -0.8542149057220195 -0.5199200850536246 6.863320085038398e-17 1.7925167522042315e-17 6.863320085038398e-17 1.7925167522042315e-17 -0.8542145825929012 -0.5199206159458222
12630858666.666666 -0.8582986338177124 -0.5131505190355894 6.876086459264462e-17 1.7372504998320858e-17 6.876086459264462e-17 1.7372504998320858e-17 -0.8582983149114508 -0.5131510524397387
12631476000.0 -0.8623287149353307 -0.5063488791316016 6.888408252280894e-17 1.681894793436484e-17 6.888408252280894e-17 1.681894793436484e-17 -0.8623284002714439 -0.5063494150141182
12632093333.333334 -0.8663048971792511 -0.49951559047050254 6.900284850432156e-17 1.6264532058413836e-17 6.900284850432156e-17 1.6264532058413836e-17 -0.8663045867769922 -0.4995161287976517
12632710666.666666 -0.8702269320227859 -0.49265108015923137 6.91171566874707e-17 1.570929313960768e-17 6.91171566874707e-17 1.570929313960768e-17 -0.8702266259011384 -0.4926516208971281
12633328000.0 -0.8740945743236811 -0.4857557772561744 6.922700150965013e-17 1.5153266985681786e-17 6.922700150965013e-17 1.5153266985681786e-17 -0.8740942725013596 -0.4857563203707866
12633945333.333334 -0.8779075823394272 -0.4788301127443732 6.933237769560188e-17 1.4596489440668966e-17 6.933237769560188e-17 1.4596489440668966e-17 -0.8779072848348753 -0.4788306582015233
12634562666.666666 -0.8816657177423272 -0.47187451950466125 6.943328025763931e-17 1.4038996382601625e-17 6.943328025763931e-17 1.4038996382601625e-17 -0.8816654245737174 -0.47187506727002887
12635180000.0 -0.8853687456344876 -0.46488943228843166 6.952970449585609e-17 1.348082372119303e-17 6.952970449585609e-17 1.348082372119303e-17 -0.8853684568197201 -0.46488998232755574
12635797333.333334 -0.8890164345624103 -0.45787528769064106 6.96216459983112e-17 1.2922007395545086e-17 6.96216459983112e-17 1.2922007395545086e-17 -0.8890161501191096 -0.45787583996892106
12636414666.666666 -0.8926085565315055 -0.45083252412241703 6.970910064119979e-17 1.2362583371833453e-17 6.970910064119979e-17 1.2362583371833453e-17 -0.892608276477023 -0.4508330786051164
12637032000.0 -0.8961448870203231 -0.44376158178370917 6.979206458900301e-17 1.1802587641003593e-17 6.979206458900301e-17 1.1802587641003593e-17 -0.8961446113717333 -0.4437621384359569
12637649333.333334 -0.8996252049946342 -0.43666290263567203 6.987053429462197e-17 1.1242056216454386e-17 6.987053429462197e-17 1.1242056216454386e-17 -0.8996249337687344 -0.4366634614224648
12638266666.666666 -0.9030492929211562 -0.4295369303732186 6.99445064994889e-17 1.0681025131742881e-17 6.99445064994889e-17 1.0681025131742881e-17 -0.9030490261344671 -0.4295374912594235
12638884000.0 -0.9064169367812539 -0.42238411039708446 7.00139782336653e-17 1.0119530438259011e-17 7.00139782336653e-17 1.0119530438259011e-17 -0.9064166744500153 -0.4223846733474401
12639501333.333334 -0.9097279260842246 -0.41520488978616626 7.007894681591661e-17 9.557608202929829e-18 7.007894681591661e-17 9.557608202929829e-18 -0.9097276682243975 -0.41520545476528653
12640118666.666666 -0.9129820538804873 -0.4079997172695295 7.013940985377157e-17 8.995294505905774e-18 7.013940985377157e-17 8.995294505905774e-18 -0.9129818005077506 -0.4080002842419041
12640736000.0 -0.9161791167746003 -0.4007690431981491 7.019536524356343e-17 8.432625438234932e-18 7.019536524356343e-17 8.432625438234932e-18 -0.916178867904353 -0.40076961212814766
12641353333.333334 -0.9193189149378015 -0.39351331951718155 7.024681117044866e-17 7.869637099585582e-18 7.024681117044866e-17 7.869637099585582e-18 -0.9193186705851573 -0.39351389036905376
12641970666.666666 -0.922401252120636 -0.38623299973737346 7.029374610841201e-17 7.306365595910967e-18 7.029374610841201e-17 7.306365595910967e-18 -0.9224010123004267 -0.3862335724752534
12642588000.0 -0.925425935665209 -0.3789285389067718 7.033616882025144e-17 6.74284703714472e-18 7.033616882025144e-17 6.74284703714472e-18 -0.9254257003919795 -0.378929113494678
12643205333.333334 -0.9283927765171418 -0.3716003935824608 7.037407835754244e-17 6.17911753490681e-18 7.037407835754244e-17 6.17911753490681e-18 -0.9283925458051541 -0.3716009699843008
12643822666.666666 -0.9313015892375271 -0.36424902180171403 7.040747406058814e-17 5.6152132001723444e-18 7.040747406058814e-17 5.6152132001723444e-18 -0.9313013631007542 -0.36424959998128476
12644440000.0 -0.9341521920143707 -0.3568748830537037 7.043635555834631e-17 5.051170140991305e-18 7.043635555834631e-17 5.051170140991305e-18 -0.9341519704665003 -0.35687546297469513
12645057333.333334 -0.9369444066740602 -0.34947843825054653 7.046072276834202e-17 4.487024460167385e-18 7.046072276834202e-17 4.487024460167385e-18 -0.9369441897284915 -0.3494790198765432
12645674666.666666 -0.9396780586924159 -0.3420601496987065 7.048057589655925e-17 3.922812252960016e-18 7.048057589655925e-17 3.922812252960016e-18 -0.9396778463622576 -0.34206073299318945
12646292000.0 -0.9423529772057454 -0.33462048106969805 7.04959154373156e-17 3.3585696047737967e-18 7.04959154373156e-17 3.3585696047737967e-18 -0.9423527695038184 -0.3346210659960483
12646909333.333334 -0.9449689950213226 -0.3271598973716666 7.050674217311781e-17 2.794332588869509e-18 7.050674217311781e-17 2.794332588869509e-18 -0.9449687919601565 -0.3271604838931663
12647526666.666666 -0.9475259486280097 -0.31967886491984226 7.05130571744991e-17 2.230137264060718e-18 7.05130571744991e-17 2.230137264060718e-18 -0.9475257502198424 -0.3196794529996776
12648144000.0 -0.950023678206398 -0.3121778513076066 7.051486179983885e-17 1.6660196724022182e-18 7.051486179983885e-17 1.6660196724022182e-18 -0.9500234844631767 -0.3121784409088701
12648761333.333334 -0.9524620276387931 -0.30465732537729445 7.051215769516271e-17 1.1020158369185103e-18 7.051215769516271e-17 1.1020158369185103e-18 -0.952461838572171 -0.3046579164629869
12649378666.666666 -0.9548408445189891 -0.29711775719083533 7.050494679392568e-17 5.38161759294305e-19 7.050494679392568e-17 5.38161759294305e-19 -0.9548406601403259 -0.29711834972386825
12649996000.0 -0.9571599801618191 -0.2895596180002907 7.049323131677607e-17 -2.550658241066894e-20 7.049323131677607e-17 -2.550658241066894e-20 -0.9571598004821819 -0.28956021194348935
12650613333.333334 -0.9594192896123999 -0.2819833802185628 7.047701377130158e-17 -5.889532360604803e-19 7.047701377130158e-17 -5.889532360604803e-19 -0.9594191146425595 -0.28198397553466736
12651230666.666666 -0.9616186316552161 -0.27438951738978484 7.045629695175745e-17 -1.152142277705208e-18 7.045629695175745e-17 -1.152142277705208e-18 -0.9616184614056483 -0.27439011404145364
12651848000.0 -0.9637578688229699 -0.2667785041596408 7.043108393877527e-17 -1.7150378139005521e-18 7.043108393877527e-17 -1.7150378139005521e-18 -0.9637577033038556 -0.2667791021094525
12652465333.333334 -0.9658368674051282 -0.2591508162458625 7.04013780990552e-17 -2.2776039839545053e-18 7.04013780990552e-17 -2.2776039839545053e-18 -0.9658367066263508 -0.2591514154563179
12653082666.666666 -0.9678554974563024 -0.2515069304084133 7.036718308503897e-17 -2.839804962221119e-18 7.036718308503897e-17 -2.839804962221119e-18 -0.967855341427447 -0.25150753084193805
12653700000.0 -0.96981363280439 -0.24384732441960558 7.032850283456464e-17 -3.4016049603790997e-18 7.032850283456464e-17 -3.4016049603790997e-18 -0.9698134815347458 -0.2438479260385529
12654317333.333334 -0.971711151058421 -0.23617247703440422 7.028534157050445e-17 -3.9629682296911605e-18 7.028534157050445e-17 -3.9629682296911605e-18 -0.9717110045569785 -0.23617307980105695
12654934666.666666 -0.9735479336162229 -0.22848286796044748 7.023770380038346e-17 -4.523859063275944e-18 7.023770380038346e-17 -4.523859063275944e-18 -0.9735477918916721 -0.2284834718370199
12655552000.0 -0.9753238656718816 -0.22077897782784114 7.018559431597949e-17 -5.084241798388351e-18 7.018559431597949e-17 -5.084241798388351e-18 -0.9753237287326146 -0.2207795827764822
12656169333.333334 -0.9770388362228111 -0.21306128815958866 7.012901819290857e-17 -5.644080818646287e-18 7.012901819290857e-17 -5.644080818646287e-18 -0.9770387040769201 -0.21306189414238413
12656786666.666666 -0.9786927380768067 -0.20533028134099576 7.00679807901875e-17 -6.203340556323413e-18 7.00679807901875e-17 -6.203340556323413e-18 -0.9786926107320828 -0.2053308883199702
12657404000.0 -0.9802854678586592 -0.1975864405898788 7.000248774978233e-17 -6.761985494576006e-18 7.000248774978233e-17 -6.761985494576006e-18 -0.9802853453225941 -0.1975870485269985
12658021333.333334 -0.981816926016683 -0.18983024992608535 6.993254499613656e-17 -7.319980169711636e-18 6.993254499613656e-17 -7.319980169711636e-18 -0.9818168082964649 -0.18983085878326011
12658638666.666666 -0.9832870168288574 -0.18206219414160207 6.985815873568491e-17 -7.877289173407744e-18 6.985815873568491e-17 -7.877289173407744e-18 -0.9832869039313756 -0.1820628038806882
12659256000.0 -0.9846956484089149 -0.17428275876975194 6.97793354563426e-17 -8.433877154987396e-18 6.97793354563426e-17 -8.433877154987396e-18 -0.9846955403407539 -0.17428336935255415
12659873333.333334 -0.9860427327119872 -0.16649243005532055 6.96960819269852e-17 -8.989708823620995e-18 6.96960819269852e-17 -8.989708823620995e-18 -0.9860426294794304 -0.16649304144359456
12660490666.666666 -0.9873281855401552 -0.15869169492394103 6.960840519690508e-17 -9.54474895057301e-18 6.960840519690508e-17 -9.54474895057301e-18 -0.9873280871491839 -0.15869230707939622
12661108000.0 -0.9885519265477204 -0.15088104095160326 6.951631259525067e-17 -1.0098962371431768e-17 6.951631259525067e-17 -1.0098962371431768e-17 -0.9885518330040111 -0.1508816538359044
12661725333.333334 -0.9897138792461945 -0.14306095633434582 6.94198117304515e-17 -1.0652313988316649e-17 6.94198117304515e-17 -1.0652313988316649e-17 -0.9897137905551214 -0.14306156990911617
12662342666.666666 -0.9908139710090998 -0.13523192985765878 6.931891048962064e-17 -1.1204768772109699e-17 6.931891048962064e-17 -1.1204768772109699e-17 -0.9908138871757332 -0.1352325440844821
12662960000.0 -0.991852133076518 -0.1273944508658479 6.921361703794489e-17 -1.1756291764650469e-17 6.921361703794489e-17 -1.1756291764650469e-17 -0.9918520541056224 -0.12739506570627074
12663577333.333334 -0.9928283005593568 -0.1195490092316452 6.910393981805204e-17 -1.230684808095695e-17 6.910393981805204e-17 -1.230684808095695e-17 -0.9928282264553955 -0.1195496246471799
12664194666.666666 -0.9937424124434437 -0.11169609532536562 6.898988754936622e-17 -1.2856402911409537e-17 6.898988754936622e-17 -1.2856402911409537e-17 -0.9937423432105731 -0.11169671127749208
12664812000.0 -0.9945944115933043 -0.10383619998448189 6.887146922744008e-17 -1.3404921523960714e-17 6.887146922744008e-17 -1.3404921523960714e-17 -0.9945943472353764 -0.10383681643465026
12665429333.333334 -0.9953842447557654 -0.09596981448269139 6.874869412327504e-17 -1.3952369266309502e-17 6.874869412327504e-17 -1.3952369266309502e-17 -0.9953841852763279 -0.09597043139232454
12666046666.666666 -0.9961118625632466 -0.08809743049957727 6.862157178262102e-17 -1.4498711568089683e-17 6.862157178262102e-17 -1.4498711568089683e-17 -0.9961118079655404 -0.08809804783007298
12666664000.0 -0.9967772195368945 -0.08021954008933882 6.849011202525745e-17 -1.5043913943051647e-17 6.849011202525745e-17 -1.5043913943051647e-17 -0.996777169823857 -0.08022015780207244
12667281333.333334 -0.9973802740893727 -0.07233663565065913 6.83543249442627e-17 -1.5587941991220787e-17 6.83543249442627e-17 -1.5587941991220787e-17 -0.9973802292636341 -0.0723372537069858
12667898666.666666 -0.9979209885275008 -0.06444920989541832 6.821422090526142e-17 -1.613076140106494e-17 6.821422090526142e-17 -1.613076140106494e-17 -0.9979209485913868 -0.06444982825667556
12668516000.0 -0.9983993290545948 -0.05655775581812396 6.806981054565238e-17 -1.667233795166691e-17 6.806981054565238e-17 -1.667233795166691e-17 -0.998399294010125 -0.05655837444563398
12669133333.333334 -0.998815265772577 -0.04866276666512532 6.792110477383162e-17 -1.7212637514842174e-17 6.792110477383162e-17 -1.7212637514842174e-17 -0.9988152356214641 -0.04866338552019741
12669750666.666666 -0.9991687726838491 -0.040764735903698425 6.776811476838087e-17 -1.7751626057317278e-17 6.776811476838087e-17 -1.7751626057317278e-17 -0.9991687474275014 -0.04076535494763148
12670368000.0 -0.9994598276929186 -0.03286415719123097 6.76108519772543e-17 -1.8289269642843502e-17 6.76108519772543e-17 -1.8289269642843502e-17 -0.9994598073324364 -0.032864776385315805
