! Parameters = {f0=12700.012000; bw=77.238000; Q=6100.000000; N=10; m_0_1=1.252748; m_1_1=0.026471; m_1_2=1.087560; m_2_2=0.025822; m_2_3=0.724523; m_2_8=-0.000299; m_2_9=0.036405; m_3_3=0.023885; m_3_4=0.613052; m_3_7=0.000301; m_3_8=-0.096787; m_3_9=-0.000299; m_4_4=0.020960; m_4_5=0.449387; m_4_6=0.003818; m_4_7=-0.117336; m_4_8=0.000301; m_5_5=0.021342; m_5_6=0.856742; m_5_7=0.003818; m_6_6=0.021341; m_6_7=0.449729; m_7_7=0.020974; m_7_8=0.613170; m_8_8=0.023883; m_8_9=0.724836; m_9_9=0.025817; m_9_10=1.088638; m_10_10=0.026461; m_10_11=1.253543}
!
! Created with skrf (http://scikit-rf.org).
# Hz S RI R 50.0 
!freq ReS11 ImS11 ReS21 ImS21 ReS12 ImS12 ReS22 ImS22
12607400000.0 0.1919756645886749 -0.9813996862673054 9.648177649115906e-18 1.0143214029860641e-16 9.648177649115906e-18 1.0143214029860641e-16 0.19197631236456988 -0.9813995595529523
12608017333.333334 0.18213952370953168 -0.9832726955950178 1.067020612753808e-17 1.0130966036896171e-16 1.067020612753808e-17 1.0130966036896171e-16 0.18214017268993674 -0.983272575378927
12608634666.666666 0.17228512191919618 -0.985047124134229 1.1690745448649025e-17 1.0117688970513306e-16 1.1690745448649025e-17 1.0117688970513306e-16 0.17228577203893106 -0.9850470104278154
12609252000.0 0.1624134471986334 -0.9867227939846553 1.2709692068691273e-17 1.0103384588424337e-16 1.2709692068691273e-17 1.0103384588424337e-16 0.16241409839241017 -0.9867226867986809
12609869333.333334 0.15252548926052556 -0.9882995371473496 1.3726942646937892e-17 1.0088054752451778e-16 1.3726942646937892e-17 1.0088054752451778e-16 0.15252614146295504 -0.9882994364919222
12610486666.666666 0.142622239450186 -0.9897771955415228 1.4742394056138694e-17 1.0071701428297928e-16 1.4742394056138694e-17 1.0071701428297928e-16 0.14262289259578423 -0.989777101426094
12611104000.0 0.13270469064586032 -0.9911556210204405 1.5755943392986387e-17 1.0054326685303247e-16 1.5755943392986387e-17 1.0054326685303247e-16 0.132705344669055 -0.9911555334538042
12611721333.333334 0.12277383715954729 -0.9924346753862189 1.6767487988484276e-17 1.0035932696195318e-16 1.6767487988484276e-17 1.0035932696195318e-16 0.1227744919946849 -0.9924345943765138
12612338666.666666 0.11283067463714345 -0.993614230403709 1.7776925418354553e-17 1.0016521736826297e-16 1.7776925418354553e-17 1.0016521736826297e-16 0.11283133021849545 -0.9936141559584148
12612956000.0 0.10287619995845229 -0.9946941678133727 1.8784153513391862e-17 9.996096185900352e-17 1.8784153513391862e-17 9.996096185900352e-17 0.1028768562202215 -0.9946940999393091
12613573333.333334 0.09291141113760522 -0.9956743793430896 1.9789070369747045e-17 9.974658524691465e-17 1.9789070369747045e-17 9.974658524691465e-17 0.09291206801393309 -0.9956743180464198
12614190666.666666 0.08293730722269374 -0.9965547667190587 2.0791574359262192e-17 9.952211336749372e-17 2.0791574359262192e-17 9.952211336749372e-17 0.08293796464766619 -0.9965547120052825
12614808000.0 0.0729548881957469 -0.9973352416756237 2.1791564139702437e-17 9.928757307596449e-17 2.1791564139702437e-17 9.928757307596449e-17 0.07295554610340149 -0.9973351935495823
12615425333.333334 0.06296515487244789 -0.9980157259641336 2.2788938664986007e-17 9.904299224413847e-17 2.2788938664986007e-17 9.904299224413847e-17 0.06296581319678027 -0.9980156844300079
12616042666.666666 0.05296910880179407 -0.9985961513607851 2.3783597195374225e-17 9.87883997571737e-17 2.3783597195374225e-17 9.87883997571737e-17 0.052969767476764455 -0.9985961164220927
12616660000.0 0.04296775216568393 -0.9990764596734614 2.4775439307626324e-17 9.852382551023217e-17 2.4775439307626324e-17 9.852382551023217e-17 0.042968411125223926 -0.9990764313330599
12617277333.333334 0.032962087678383586 -0.9994566027475685 2.5764364905120865e-17 9.824930040503477e-17 2.5764364905120865e-17 9.824930040503477e-17 0.03296274685640274 -0.999456581007654
12617894666.666666 0.02295311848625266 -0.9997365424708575 2.6750274227923174e-17 9.796485634631931e-17 2.6750274227923174e-17 9.796485634631931e-17 0.022953777816645066 -0.9997365273329631
12618512000.0 0.012941848066687947 -0.999916250777257 2.77330678628588e-17 9.767052623818502e-17 2.77330678628588e-17 9.767052623818502e-17 0.0129425074833389 -0.999916242242255
12619129333.333334 0.0029292801280283946 -0.9999957096496767 2.871264675348136e-17 9.736634398035629e-17 2.871264675348136e-17 9.736634398035629e-17 0.0029299395648209967 -0.9999957077177756
12619746666.666666 -0.007083581491387142 -0.9999749111218164 2.9688912210052597e-17 9.705234446433049e-17 2.9688912210052597e-17 9.705234446433049e-17 -0.007082922100565322 -0.9999749157925641
12620364000.0 -0.017095732923862485 -0.9998538572789651 3.066176591948098e-17 9.672856356942579e-17 3.066176591948098e-17 9.672856356942579e-17 -0.017095073645112806 -0.999853868551248
12620981333.333334 -0.027106170372733978 -0.999632560257794 3.1631109955165885e-17 9.639503815874677e-17 3.1631109955165885e-17 9.639503815874677e-17 -0.027105511272140125 -0.9996325781298367
12621598666.666666 -0.03711389021332164 -0.9993110422451373 3.259684678686445e-17 9.605180607502996e-17 3.259684678686445e-17 9.605180607502996e-17 -0.03711323135694291 -0.9993110667145014
12622216000.0 -0.04711788909329449 -0.9988893354757679 3.3558879290470055e-17 9.569890613640503e-17 3.3558879290470055e-17 9.569890613640503e-17 -0.0471172305471593 -0.9988893665393553
12622833333.333334 -0.05711716403349192 -0.9983674822291638 3.451711075776489e-17 9.533637813205225e-17 3.451711075776489e-17 9.533637813205225e-17 -0.05711650586359112 -0.9983675198832157
12623450666.666666 -0.06711071252825299 -0.9977455348252776 3.547144490611014e-17 9.496426281776866e-17 3.547144490611014e-17 9.496426281776866e-17 -0.06711005480053317 -0.9977455790653735
12624068000.0 -0.07709753264609571 -0.9970235556192816 3.642178588811303e-17 9.458260191142779e-17 3.642178588811303e-17 9.458260191142779e-17 -0.07709687542645277 -0.9970236064403422
12624685333.333334 -0.08707662313019672 -0.99620161699531 3.736803830123492e-17 9.419143808834697e-17 3.736803830123492e-17 9.419143808834697e-17 -0.08707596648446927 -0.9962016743915983
12625302666.666666 -0.09704698349849217 -0.9952798013592319 3.831010719732112e-17 9.379081497657158e-17 3.831010719732112e-17 9.379081497657158e-17 -0.09704632749245465 -0.9952798653243495
12625920000.0 -0.10700761414440811 -0.9942582011303454 3.924789809214966e-17 9.338077715203446e-17 3.924789809214966e-17 9.338077715203446e-17 -0.1070069588437645 -0.9942582716572376
12626537333.333334 -0.1169575164367112 -0.9931369187321476 4.018131697483888e-17 9.296137013365927e-17 4.018131697483888e-17 9.296137013365927e-17 -0.1169568619070884 -0.9931369958131027
12627154666.666666 -0.12689569281968632 -0.991916066582067 4.1110270317282683e-17 9.253264037833561e-17 4.1110270317282683e-17 9.253264037833561e-17 -0.12689503912662742 -0.9919161502087159
12627772000.0 -0.1368211469134879 -0.9905957670801475 4.203466508350587e-17 9.209463527581092e-17 4.203466508350587e-17 9.209463527581092e-17 -0.13682049412244568 -0.9905958572434664
12628389333.333334 -0.14673288361352665 -0.9891761525968406 4.295440873892676e-17 9.164740314350804e-17 4.295440873892676e-17 9.164740314350804e-17 -0.14673223178985717 -0.9891762492871512
12629006666.666666 -0.1566299091906879 -0.9876573654596749 4.3869409259638245e-17 9.119099322121622e-17 4.3869409259638245e-17 9.119099322121622e-17 -0.1566292583996438 -0.9876574686666457
12629624000.0 -0.16651123139065077 -0.9860395579390293 4.4779575141565163e-17 9.072545566572183e-17 4.4779575141565163e-17 9.072545566572183e-17 -0.16651058169737498 -0.9860396676516775
12630241333.333334 -0.1763758595335388 -0.9843228922328459 4.5684815409609405e-17 9.025084154532652e-17 4.5684815409609405e-17 9.025084154532652e-17 -0.1763752110030573 -0.9843230084395341
12630858666.666666 -0.18622280461307375 -0.982507540450387 4.6585039626706566e-17 8.976720283429022e-17 4.6585039626706566e-17 8.976720283429022e-17 -0.18622215731029026 -0.9825076631388325
12631476000.0 -0.19605107939606875 -0.9805936845949322 4.748015790286754e-17 8.927459240716113e-17 4.748015790286754e-17 8.927459240716113e-17 -0.1960504333857572 -0.9805938137522006
12632093333.333334 -0.20585969852092947 -0.9785815165456072 4.8370080904102306e-17 8.877306403304712e-17 4.8370080904102306e-17 8.877306403304712e-17 -0.20585905386772804 -0.9785816521581185
12632710666.666666 -0.215647678596781 -0.9764712380380942 4.925471986131919e-17 8.826267236977925e-17 4.925471986131919e-17 8.826267236977925e-17 -0.21564703536518523 -0.9764713800916212
12633328000.0 -0.22541403830208642 -0.9742630606443896 5.013398657918547e-17 8.774347295797447e-17 5.013398657918547e-17 8.774347295797447e-17 -0.22541339655644343 -0.9742632091240622
12633945333.333334 -0.23515779848281115 -0.9719572057516459 5.100779344486588e-17 8.721552221504386e-17 5.100779344486588e-17 8.721552221504386e-17 -0.23515715828731235 -0.9719573606419497
12634562666.666666 -0.24487798225072754 -0.9695539045399391 5.1876053436745553e-17 8.667887742908693e-17 5.1876053436745553e-17 8.667887742908693e-17 -0.24487734366940317 -0.9695540658247203
12635180000.0 -0.25457361508133025 -0.9670533979591053 5.2738680133072476e-17 8.613359675271045e-17 5.2738680133072476e-17 8.613359675271045e-17 -0.25457297817804203 -0.9670535656215692
12635797333.333334 -0.2642437249115657 -0.9644559367045702 5.359558772053954e-17 8.557973919675717e-17 5.359558772053954e-17 8.557973919675717e-17 -0.2642430897500012 -0.964456110727285
12636414666.666666 -0.2738873422372074 -0.9617617811922389 5.444669100278963e-17 8.501736462395834e-17 5.444669100278963e-17 8.501736462395834e-17 -0.27388670888087324 -0.961761961557137
12637032000.0 -0.2835035002101108 -0.958971201532373 5.529190540887835e-17 8.44465337424856e-17 5.529190540887835e-17 8.44465337424856e-17 -0.28350286872232666 -0.9589713882207539
12637649333.333334 -0.29309123473520343 -0.9560844775024968 5.613114700164569e-17 8.386730809943519e-17 5.613114700164569e-17 8.386730809943519e-17 -0.2930906051790949 -0.956084670495025
12638266666.666666 -0.3026495845670587 -0.9531018985193641 5.69643324860317e-17 8.3279750074221e-17 5.69643324860317e-17 8.3279750074221e-17 -0.3026489570055519 -0.9531020977960756
12638884000.0 -0.3121775914062968 -0.9500237636099383 5.779137921732358e-17 8.26839228718856e-17 5.779137921732358e-17 8.26839228718856e-17 -0.3121769659021121 -0.9500239691502423
12639501333.333334 -0.3216742999956893 -0.9468503813814051 5.861220520932352e-17 8.207989051633592e-17 5.861220520932352e-17 8.207989051633592e-17 -0.32167367661133406 -0.9468505931640828
12640118666.666666 -0.3311387582157684 -0.9435820699902833 5.942672914245395e-17 8.146771784349372e-17 5.942672914245395e-17 8.146771784349372e-17 -0.33113813701353184 -0.9435822879934935
12640736000.0 -0.3405700171807153 -0.9402191571103815 6.023487037181822e-17 8.084747049434471e-17 6.023487037181822e-17 8.084747049434471e-17 -0.34056939822266147 -0.940219381311661
12641353333.333334 -0.3499671313328751 -0.9367619799001597 6.103654893510984e-17 8.021921490796873e-17 6.103654893510984e-17 8.021921490796873e-17 -0.3499665146808373 -0.9367622102764263
12641970666.666666 -0.3593291585380137 -0.9332108849687684 6.183168556054927e-17 7.958301831441533e-17 6.183168556054927e-17 7.958301831441533e-17 -0.35932854425358796 -0.9332111214963235
12642588000.0 -0.36865516017966576 -0.9295662283413346 6.262020167467676e-17 7.893894872755527e-17 6.262020167467676e-17 7.893894872755527e-17 -0.36865454832420474 -0.929566470995865
12643205333.333334 -0.37794420125315853 -0.9258283754232969 6.340201941009548e-17 7.828707493783539e-17 6.340201941009548e-17 7.828707493783539e-17 -0.3779435918877651 -0.925828624179877
12643822666.666666 -0.3871953504594859 -0.9219977009637201 6.417706161314693e-17 7.76274665049522e-17 6.417706161314693e-17 7.76274665049522e-17 -0.38719474364500767 -0.9219979557968155
12644440000.0 -0.3964076802985459 -0.9180745890177741 6.494525185149e-17 7.696019375046572e-17 6.494525185149e-17 7.696019375046572e-17 -0.3964070760955688 -0.9180748499012439
12645057333.333334 -0.4055802671621578 -0.9140594329082224 6.570651442161934e-17 7.628532775032596e-17 6.570651442161934e-17 7.628532775032596e-17 -0.40557966563099995 -0.9140596998153215
12645674666.666666 -0.4147121914266609 -0.9099526351859892 6.646077435629358e-17 7.560294032733697e-17 6.646077435629358e-17 7.560294032733697e-17 -0.41471159262736634 -0.9099529080893707
12646292000.0 -0.4238025375453196 -0.9057546075897032 6.72079574319213e-17 7.491310404351439e-17 6.72079574319213e-17 7.491310404351439e-17 -0.4238019415376533 -0.9057548864614227
12646909333.333334 -0.43285039413967685 -0.9014657710046212 6.794799017580524e-17 7.421589219242908e-17 6.794799017580524e-17 7.421589219242908e-17 -0.43284980098311787 -0.9014660558161384
12647526666.666666 -0.44185485409133846 -0.8970865554202399 6.868079987336578e-17 7.351137879142446e-17 6.868079987336578e-17 7.351137879142446e-17 -0.44185426384507404 -0.8970868461424216
12648144000.0 -0.45081501463279056 -0.8926173998872461 6.940631457525922e-17 7.279963857378662e-17 6.940631457525922e-17 7.279963857378662e-17 -0.4508144273557102 -0.8926176964903692
12648761333.333334 -0.4597299774378297 -0.88805875247353 7.012446310440887e-17 7.20807469808502e-17 7.012446310440887e-17 7.20807469808502e-17 -0.45972939318852035 -0.8880590549272861
12649378666.666666 -0.468598848711632 -0.8834110702192736 7.083517506296367e-17 7.135478015402793e-17 7.083517506296367e-17 7.135478015402793e-17 -0.46859826754837086 -0.8834113784927695
12649996000.0 -0.47742073928048695 -0.8786748190910577 7.153838083918379e-17 7.062181492676105e-17 7.153838083918379e-17 7.062181492676105e-17 -0.4774201612612358 -0.8786751331528195
12650613333.333334 -0.48619476468089257 -0.8738504739351703 7.223401161422763e-17 6.98819288164186e-17 7.223401161422763e-17 6.98819288164186e-17 -0.4861941898632926 -0.8738507937531474
12651230666.666666 -0.49492004524803146 -0.8689385184301112 7.292199936885367e-17 6.91352000161327e-17 7.292199936885367e-17 6.91352000161327e-17 -0.4949194736893977 -0.8689388439716798
12651848000.0 -0.503595706204363 -0.8639394450378791 7.360227689006537e-17 6.838170738653885e-17 7.360227689006537e-17 6.838170738653885e-17 -0.503595137961678 -0.8639397762698442
12652465333.333334 -0.5122208777470015 -0.8588537549547769 7.427477777763591e-17 6.76215304474885e-17 7.427477777763591e-17 6.76215304474885e-17 -0.5122203128769097 -0.8588540918433762
12653082666.666666 -0.5207946951349494 -0.8536819580611525 7.493943645055607e-17 6.685474936969002e-17 7.493943645055607e-17 6.685474936969002e-17 -0.5207941336937514 -0.8536823005720602
12653700000.0 -0.5293162987760358 -0.848424572870133 7.559618815343362e-17 6.60814449662439e-17 7.559618815343362e-17 6.60814449662439e-17 -0.5293157408196827 -0.8484249209684616
12654317333.333334 -0.5377848343127573 -0.8430821264758424 7.624496896274183e-17 6.530169868418797e-17 7.624496896274183e-17 6.530169868418797e-17 -0.5377842798968465 -0.8430824801261497
12654934666.666666 -0.5461994527081793 -0.8376551545004154 7.688571579303498e-17 6.451559259591929e-17 7.688571579303498e-17 6.451559259591929e-17 -0.5461989018879467 -0.8376555136667048
12655552000.0 -0.5545593103310525 -0.8321442010402865 7.751836640305548e-17 6.372320939057911e-17 7.751836640305548e-17 6.372320939057911e-17 -0.554558763161369 -0.8321445656860127
12656169333.333334 -0.562863569040207 -0.8265498186117697 7.81428594017367e-17 6.292463236539854e-17 7.81428594017367e-17 6.292463236539854e-17 -0.5628630255755716 -0.8265501886998413
12656786666.666666 -0.5711113962687244 -0.8208725680955715 7.875913425415034e-17 6.21199454169432e-17 7.875913425415034e-17 6.21199454169432e-17 -0.5711108565632594 -0.8208729435883546
12657404000.0 -0.5793019651074308 -0.8151130186805378 7.936713128733769e-17 6.130923303233361e-17 7.936713128733769e-17 6.130923303233361e-17 -0.579301429214877 -0.8151133995398617
12658021333.333334 -0.5874344543877561 -0.809271747806624 7.99667916960632e-17 6.049258028039335e-17 7.99667916960632e-17 6.049258028039335e-17 -0.5874339223614665 -0.8092721339937833
12658638666.666666 -0.5955080487639698 -0.803349341107068 8.055805754846503e-17 5.967007280275684e-17 8.055805754846503e-17 5.967007280275684e-17 -0.5955075206569037 -0.8033497325828252
12659256000.0 -0.6035219387951524 -0.7973463923495043 8.114087179164146e-17 5.884179680488584e-17 8.114087179164146e-17 5.884179680488584e-17 -0.603521414659873 -0.7973467890740988
12659873333.333334 -0.6114753210261479 -0.7912635033765931 8.171517825710543e-17 5.800783904708704e-17 8.171517825710543e-17 5.800783904708704e-17 -0.611474800914813 -0.7912639053097389
12660490666.666666 -0.6193673980681116 -0.7851012840456746 8.228092166617851e-17 5.716828683543312e-17 8.228092166617851e-17 5.716828683543312e-17 -0.619366882032472 -0.7851016911465695
12661108000.0 -0.627197378678706 -0.7788603521674403 8.283804763529112e-17 5.632322801263069e-17 8.283804763529112e-17 5.632322801263069e-17 -0.6271968667700984 -0.7788607643947674
12661725333.333334 -0.6349644778410242 -0.7725413334443051 8.338650268115963e-17 5.5472750948882464e-17 8.338650268115963e-17 5.5472750948882464e-17 -0.6349639701103661 -0.7725417507562369
12662342666.666666 -0.6426679168426731 -0.7661448614073767 8.39262342259075e-17 5.461694453264231e-17 8.39262342259075e-17 5.461694453264231e-17 -0.6426674133404588 -0.766145283761581
12662960000.0 -0.650306923353646 -0.7596715773530986 8.445719060206697e-17 5.3755898161358965e-17 8.445719060206697e-17 5.3755898161358965e-17 -0.6503064241299409 -0.7596720047067413
12663577333.333334 -0.6578807315037986 -0.7531221302789197 8.497932105749515e-17 5.2889701732157147e-17 8.497932105749515e-17 5.2889701732157147e-17 -0.6578802366082335 -0.7531225625886695
12664194666.666666 -0.6653885819596315 -0.7464971768182249 8.549257576019358e-17 5.2018445632473855e-17 8.549257576019358e-17 5.2018445632473855e-17 -0.6653880914414003 -0.7464976140402594
12664812000.0 -0.6728297220004251 -0.7397973811745078 8.5996905803032e-17 5.1142220730648324e-17 8.5996905803032e-17 5.1142220730648324e-17 -0.6728292359082766 -0.7397978232645149
12665429333.333334 -0.6802034055937409 -0.7330234150547354 8.649226320837862e-17 5.026111836646148e-17 8.649226320837862e-17 5.026111836646148e-17 -0.6802029239759755 -0.7330238619679194
12666046666.666666 -0.687508893470033 -0.7261759576021793 8.697860093261824e-17 4.9375230341658243e-17 8.697860093261824e-17 4.9375230341658243e-17 -0.6875084163744978 -0.7261764092932654
12666664000.0 -0.6947454531971176 -0.7192556953279984 8.74558728706106e-17 4.848464891036249e-17 8.74558728706106e-17 4.848464891036249e-17 -0.6947449806712027 -0.7192561517512382
12667281333.333334 -0.7019123592532347 -0.71226332204276 8.792403386000136e-17 4.758946676953573e-17 8.792403386000136e-17 4.758946676953573e-17 -0.7019118913438667 -0.7122637831519343
12667898666.666666 -0.7090088931000124 -0.705199538786666 8.838303968547638e-17 4.668977704932287e-17 8.838303968547638e-17 4.668977704932287e-17 -0.7090084298536502 -0.7052000045350901
12668516000.0 -0.7160343432545028 -0.6980650537592634 8.883284708290134e-17 4.5785673303384226e-17 8.883284708290134e-17 4.5785673303384226e-17 -0.7160338847171344 -0.6980655240997934
12669133333.333334 -0.7229880053603371 -0.690860582248627 8.927341374335267e-17 4.4877249499211725e-17 8.927341374335267e-17 4.4877249499211725e-17 -0.7229875515774731 -0.6908610571336619
12669750666.666666 -0.7298691822585395 -0.6835868465594411 8.970469831707298e-17 4.396460000835803e-17 8.970469831707298e-17 4.396460000835803e-17 -0.7298687332752096 -0.6835873259409294
12670368000.0 -0.7366771840573644 -0.6762445759406449 9.012666041730931e-17 4.3047819596663883e-17 9.012666041730931e-17 4.3047819596663883e-17 -0.7366767399181126 -0.676245059770089
