! Parameters = {f0=12700.012000; bw=77.238000; Q=6100.000000; N=10; m_0_1=1.226121; m_1_1=-0.372929; m_1_2=1.060933; m_2_2=-0.373578; m_2_3=0.697896; m_2_8=-0.001630; m_2_9=0.035074; m_3_3=-0.375515; m_3_4=0.586425; m_3_7=-0.001030; m_3_8=-0.098118; m_3_9=-0.001630; m_4_4=-0.378440; m_4_5=0.422760; m_4_6=0.002487; m_4_7=-0.118667; m_4_8=-0.001030; m_5_5=-0.378058; m_5_6=0.830115; m_5_7=0.002487; m_6_6=-0.378059; m_6_7=0.423102; m_7_7=-0.378426; m_7_8=0.586543; m_8_8=-0.375517; m_8_9=0.698209; m_9_9=-0.373583; m_9_10=1.062011; m_10_10=-0.372939; m_10_11=1.226916}
!
! Created with skrf (http://scikit-rf.org).
# Hz S RI R 50.0 
!freq ReS11 ImS11 ReS21 ImS21 ReS12 ImS12 ReS22 ImS22
12607400000.0 -0.5407584298606671 0.8411779363098285 2.502429680767973e-17 -8.59461544499777e-17 2.502429680767973e-17 -8.59461544499777e-17 -0.5407589733213539 0.8411775869412303
12608017333.333334 -0.5329750109905853 0.8461309813849274 2.4217936778721053e-17 -8.61586329181246e-17 2.4217936778721053e-17 -8.61586329181246e-17 -0.5329755576245255 0.8461306370618322
12608634666.666666 -0.5251462283463312 0.8510120086423332 2.3409791168628318e-17 -8.636355215628973e-17 2.3409791168628318e-17 -8.636355215628973e-17 -0.5251467781066893 0.8510116693935512
12609252000.0 -0.5172727482689692 0.8558206026370846 2.2599930784339475e-17 -8.656089734829727e-17 2.2599930784339475e-17 -8.656089734829727e-17 -0.5172733011086493 0.8558202684909936
12609869333.333334 -0.5093552409040254 0.8605563540892815 2.1788426553774618e-17 -8.675065434068932e-17 2.1788426553774618e-17 -8.675065434068932e-17 -0.5093557967756739 0.8605560250738208
12610486666.666666 -0.5013943801443761 0.8652188599189647 2.0975349519657886e-17 -8.69328096436886e-17 2.0975349519657886e-17 -8.69328096436886e-17 -0.501394939000385 0.8652185360616332
12611104000.0 -0.493390843572814 0.8698077232804632 2.016077083329233e-17 -8.710735043211237e-17 2.016077083329233e-17 -8.710735043211237e-17 -0.49339140536532755 0.8698074046083207
12611721333.333334 -0.48534531240452605 0.8743225535960908 1.9344761748365163e-17 -8.727426454622113e-17 1.9344761748365163e-17 -8.727426454622113e-17 -0.4853458770854424 0.8743222401357514
12612338666.666666 -0.4772584714290625 0.8787629665894158 1.8527393614723978e-17 -8.743354049251306e-17 1.8527393614723978e-17 -8.743354049251306e-17 -0.47725903895003874 0.8787626583670479
12612956000.0 -0.46913100895187726 0.8831285843180652 1.7708737872132314e-17 -8.758516744446397e-17 1.7708737872132314e-17 -8.758516744446397e-17 -0.46913157926433363 0.883128281359389
12613573333.333334 -0.4609636167360414 0.8874190352057274 1.6888866044082e-17 -8.772913524319652e-17 1.6888866044082e-17 -8.772913524319652e-17 -0.4609641897911653 0.8874187375360124
12614190666.666666 -0.4527569899431916 0.891633954073877 1.6067849731516026e-17 -8.786543439810786e-17 1.6067849731516026e-17 -8.786543439810786e-17 -0.4527575656919418 0.8916336617179405
12614808000.0 -0.44451182707430975 0.8957729821728805 1.5245760606609425e-17 -8.799405608742724e-17 1.5245760606609425e-17 -8.799405608742724e-17 -0.44451240546742044 0.8957726951550841
12615425333.333334 -0.4362288299104474 0.8998357672124384 1.4422670406531513e-17 -8.811499215871809e-17 1.4422670406531513e-17 -8.811499215871809e-17 -0.43622941089843315 0.8998354855566888
12616042666.666666 -0.4279087034527927 0.903821963391677 1.3598650927182395e-17 -8.822823512932617e-17 1.3598650927182395e-17 -8.822823512932617e-17 -0.427909286985951 0.9038216871214202
12616660000.0 -0.4195521558628667 0.907731231428476 1.2773774016964387e-17 -8.833377818676268e-17 1.2773774016964387e-17 -8.833377818676268e-17 -0.41955274189128416 0.9077309605666987
12617277333.333334 -0.41115989840201883 0.9115632385884578 1.1948111570511206e-17 -8.843161518903578e-17 1.1948111570511206e-17 -8.843161518903578e-17 -0.4111604868755743 0.9115629731576838
12617894666.666666 -0.4027326453712245 0.9153176587131551 1.1121735522455838e-17 -8.852174066491824e-17 1.1121735522455838e-17 -8.852174066491824e-17 -0.40273323623959373 0.9153173987354439
12618512000.0 -0.39427111404979426 0.9189941722479908 1.0294717841157004e-17 -8.86041498141612e-17 1.0294717841157004e-17 -8.86041498141612e-17 -0.3942717072624541 0.9189939177449356
12619129333.333334 -0.3857760246348961 0.922592466269226 9.467130522463116e-18 -8.867883850764652e-17 9.467130522463116e-18 -8.867883850764652e-17 -0.3857766201411284 0.922592217261951
12619746666.666666 -0.3772481001797862 0.9261122345107949 8.63904558345343e-18 -8.874580328748214e-17 8.63904558345343e-18 -8.874580328748214e-17 -0.3772486979286835 0.9261119910199569
12620364000.0 -0.368688066532477 0.9295531773902881 7.810535056164792e-18 -8.880504136704132e-17 7.810535056164792e-18 -8.880504136704132e-17 -0.3686886664729449 0.9295529394360695
12620981333.333334 -0.360096652274008 0.9329150020344232 6.981670981382578e-18 -8.885655063093791e-17 6.981670981382578e-18 -8.885655063093791e-17 -0.3600972543547716 0.932914769636536
12621598666.666666 -0.3514745886562509 0.9361974223040538 6.152525402347492e-18 -8.890032963495061e-17 6.152525402347492e-18 -8.890032963495061e-17 -0.35147519282585743 0.9361971954817331
12622216000.0 -0.34282260953987986 0.9394001588184366 5.323170358527734e-18 -8.893637760588401e-17 5.323170358527734e-18 -8.893637760588401e-17 -0.3428232157467037 0.9393999375904412
12622833333.333334 -0.33414145133166984 0.9425229389791013 4.493677879376231e-18 -8.896469444137258e-17 4.493677879376231e-18 -8.896469444137258e-17 -0.3341420595239177 0.9425227233637133
12623450666.666666 -0.3254318529221391 0.9455654969929362 3.6641199780811414e-18 -8.898528070962823e-17 3.6641199780811414e-18 -8.898528070962823e-17 -0.3254324630478537 0.9455652870079587
12624068000.0 -0.3166945556223124 0.948527573894941 2.834568645335295e-18 -8.899813764912785e-17 2.834568645335295e-18 -8.899813764912785e-17 -0.3166951676293764 0.9485273695576933
12624685333.333334 -0.307930303100809 0.9514089175701893 2.0050958430797204e-18 -8.900326716824439e-17 2.0050958430797204e-18 -8.900326716824439e-17 -0.3079309169369506 0.9514087188975116
12625302666.666666 -0.2991398413206033 0.9542092827752833 1.1757734983204132e-18 -8.900067184481869e-17 1.1757734983204132e-18 -8.900067184481869e-17 -0.29914045693339997 0.95420908978353
12625920000.0 -0.29032391847534156 0.9569284311592791 3.466734968493302e-19 -8.89903549256742e-17 3.466734968493302e-19 -8.89903549256742e-17 -0.2903245358122246 0.9569282438643204
12626537333.333334 -0.2814832849258232 0.9595661312839273 -4.821323229298896e-19 -8.897232032607407e-17 -4.821323229298896e-19 -8.897232032607407e-17 -0.2814839039340824 0.9595659497011468
12627154666.666666 -0.2726186931361894 0.9621221586433567 -1.3105721762203129e-18 -8.894657262912012e-17 -1.3105721762203129e-18 -8.894657262912012e-17 -0.2726193137629776 0.9621219827876502
12627772000.0 -0.2637308976095224 0.9645962956832828 -2.1385743380682618e-18 -8.89131170850934e-17 -2.1385743380682618e-18 -8.89131170850934e-17 -0.2637315198018597 0.9645961255690577
12628389333.333334 -0.2548206548240915 0.9669883318193953 -2.9660671495037962e-18 -8.887195961073979e-17 -2.9660671495037962e-18 -8.887195961073979e-17 -0.2548212785288699 0.9669881674605683
12629006666.666666 -0.2458887231686372 0.9692980634553717 -3.7929790237867655e-18 -8.882310678849401e-17 -3.7929790237867655e-18 -8.882310678849401e-17 -0.24588934833262505 0.9692979048653683
12629624000.0 -0.23693586287793064 0.971525294000175 -4.61923845253807e-18 -8.876656586565048e-17 -4.61923845253807e-18 -8.876656586565048e-17 -0.23693648944777784 0.9715251411919299
12630241333.333334 -0.227962835968123 0.9736698338847755 -5.4447740119425314e-18 -8.870234475347342e-17 -5.4447740119425314e-18 -8.870234475347342e-17 -0.22796346389036462 0.9736696868707285
12630858666.666666 -0.21897040617183147 0.975731500578299 -6.2695143688865084e-18 -8.863045202625274e-17 -6.2695143688865084e-18 -8.863045202625274e-17 -0.21897103539289267 0.9757313593703958
12631476000.0 -0.2099593388730515 0.9777101186035805 -7.093388287128068e-18 -8.85508969202994e-17 -7.093388287128068e-18 -8.85508969202994e-17 -0.2099599693392522 0.9777099832132716
12632093333.333334 -0.2009304010421499 0.9796055195520683 -7.916324633421108e-18 -8.846368933288722e-17 -7.916324633421108e-18 -8.846368933288722e-17 -0.2009310326997095 0.9796053899903086
12632710666.666666 -0.19188436117064128 0.9814175420981484 -8.738252383638256e-18 -8.836883982113657e-17 -8.738252383638256e-18 -8.836883982113657e-17 -0.1918849939656829 0.9814174183753954
12633328000.0 -0.1828219892054166 0.9831460320129514 -9.55910062891956e-18 -8.826635960083795e-17 -9.55910062891956e-18 -8.826635960083795e-17 -0.18282262308397165 0.9831459141391636
12633945333.333334 -0.1737440564836822 0.9847908421773786 -1.0378798581733457e-17 -8.815626054522607e-17 -1.0378798581733457e-17 -8.815626054522607e-17 -0.1737446913916955 0.9847907301620177
12634562666.666666 -0.16465133566697487 0.9863518325946974 -1.1197275581997679e-17 -8.803855518369036e-17 -1.1197275581997679e-17 -8.803855518369036e-17 -0.1646519715503086 0.9863517264467239
12635180000.0 -0.1555446006755075 0.9878288704024267 -1.2014461103146464e-17 -8.791325670043264e-17 -1.2014461103146464e-17 -8.791325670043264e-17 -0.15554523747994622 0.987828770130301
12635797333.333334 -0.14642462662235425 0.9892218298836419 -1.2830284758189023e-17 -8.778037893306904e-17 -1.2830284758189023e-17 -8.778037893306904e-17 -0.14642526429360958 0.9892217354953248
12636414666.666666 -0.13729218974739354 0.990530592477689 -1.3644676305765895e-17 -8.763993637117356e-17 -1.3644676305765895e-17 -8.763993637117356e-17 -0.13729282823110858 0.9905305039806395
12637032000.0 -0.12814806735129491 0.9917550467902673 -1.445756565617791e-17 -8.749194415476765e-17 -1.445756565617791e-17 -8.749194415476765e-17 -0.12814870659304864 0.9917549641914399
12637649333.333334 -0.11899303772924642 0.9928950886029211 -1.5268882877412024e-17 -8.733641807275173e-17 -1.5268882877412024e-17 -8.733641807275173e-17 -0.11899367767455897 0.992895011908771
12638266666.666666 -0.10982788010490878 0.9939506208818916 -1.607855820113877e-17 -8.717337456128358e-17 -1.607855820113877e-17 -8.717337456128358e-17 -0.1098285206992456 0.9939505500983691
12638884000.0 -0.10065337456386621 0.9949215537863992 -1.6886522028690617e-17 -8.700283070210115e-17 -1.6886522028690617e-17 -8.700283070210115e-17 -0.10065401575264282 0.994921488918951
12639501333.333334 -0.09147030198742749 0.9958078046762668 -1.769270493705066e-17 -8.68248042207859e-17 -1.769270493705066e-17 -8.68248042207859e-17 -0.09147094371601418 0.9958077457298357
12640118666.666666 -0.0822794439861058 0.9966092981189637 -1.8497037684769265e-17 -8.663931348498073e-17 -1.8497037684769265e-17 -8.663931348498073e-17 -0.08228008619983236 0.9966092450979898
12640736000.0 -0.07308158283286596 0.9973259658960459 -1.9299451217956295e-17 -8.644637750253381e-17 -1.9299451217956295e-17 -8.644637750253381e-17 -0.07308222547702593 0.9973259188044606
12641353333.333334 -0.06387750139702271 0.9979577470089145 -2.0099876676117153e-17 -8.624601591961791e-17 -2.0099876676117153e-17 -8.624601591961791e-17 -0.06387814441687868 0.9979577058501491
12641970666.666666 -0.054667983077098366 0.998504587684062 -2.0898245398117e-17 -8.603824901876173e-17 -2.0898245398117e-17 -8.603824901876173e-17 -0.05466862641788608 0.9985045524610383
12642588000.0 -0.04545381173451198 0.9989664413776065 -2.169448892802475e-17 -8.582309771684953e-17 -2.169448892802475e-17 -8.582309771684953e-17 -0.045454455341445335 0.9989664120927434
12643205333.333334 -0.036235771626635396 0.9993432687792814 -2.248853902096419e-17 -8.560058356306153e-17 -2.248853902096419e-17 -8.560058356306153e-17 -0.036236415444910866 0.9993432454344902
12643822666.666666 -0.02701464734015466 0.9996350378157643 -2.3280327648975882e-17 -8.537072873675069e-17 -2.3280327648975882e-17 -8.537072873675069e-17 -0.027015291314956218 0.9996350204124526
12644440000.0 -0.01779122372420569 0.9998417236534148 -2.4069787006799836e-17 -8.513355604528208e-17 -2.4069787006799836e-17 -8.513355604528208e-17 -0.017791867800709293 0.999841712192484
12645057333.333334 -0.008566285823771221 0.999963308700385 -2.485684951769002e-17 -8.488908892180424e-17 -2.485684951769002e-17 -8.488908892180424e-17 -0.00856692994714951 0.9999633031822304
12645674666.666666 0.0006593811873650848 0.9999997826081194 -2.5641447839165456e-17 -8.463735142297786e-17 -2.5641447839165456e-17 -8.463735142297786e-17 0.0006587370719381014 0.9999997830326295
12646292000.0 0.0098849920734197 0.9999511422722339 -2.6423514868791938e-17 -8.437836822663633e-17 -2.6423514868791938e-17 -8.437836822663633e-17 0.009884348020763973 0.9999511486387928
12646909333.333334 0.019109761603301866 0.9998173918327794 -2.7202983749868463e-17 -8.411216462941498e-17 -2.7202983749868463e-17 -8.411216462941498e-17 0.019109117668226663 0.999817404140265
12647526666.666666 0.028332904617504887 0.9995985426738944 -2.7979787877145544e-17 -8.383876654431106e-17 -2.7979787877145544e-17 -8.383876654431106e-17 0.028332260854804087 0.9995985609206787
12648144000.0 0.037553636095133125 0.9992946134228238 -2.875386090251665e-17 -8.355820049819057e-17 -2.875386090251665e-17 -8.355820049819057e-17 0.03755299255958067 0.9992946376067756
12648761333.333334 0.04677117122037775 0.9989056299483504 -2.952513674064258e-17 -8.32704936292584e-17 -2.952513674064258e-17 -8.32704936292584e-17 0.0467705279667228 0.9989056600668305
12649378666.666666 0.05598472544951451 0.998431625358582 -3.029354957459846e-17 -8.29756736844601e-17 -3.029354957459846e-17 -8.29756736844601e-17 0.055984082532476935 0.9984316614084477
12649996000.0 0.06519351457773624 0.9978726399981306 -3.1059033861468746e-17 -8.267376901684017e-17 -3.1059033861468746e-17 -8.267376901684017e-17 0.06519287205200197 0.9978726819757355
12650613333.333334 0.0743967548057299 0.9972287214446907 -3.1821524337933357e-17 -8.236480858284371e-17 -3.1821524337933357e-17 -8.236480858284371e-17 0.07439611272594614 0.9972287693458831
12651230666.666666 0.08359366280647387 0.996499924504982 -3.258095602580114e-17 -8.204882193957622e-17 -3.258095602580114e-17 -8.204882193957622e-17 0.08359302122724455 0.9964999783251066
12651848000.0 0.09278345579196706 0.9956863112100803 -3.3337264237549285e-17 -8.172583924199923e-17 -3.3337264237549285e-17 -8.172583924199923e-17 0.09278281476784826 0.9956863709439796
12652465333.333334 0.10196535157982693 0.9947879508101404 -3.409038458181465e-17 -8.139589124008462e-17 -3.409038458181465e-17 -8.139589124008462e-17 0.1019647111653221 0.9947880164521528
12653082666.666666 0.11113856865963827 0.9938049197685248 -3.484025296884313e-17 -8.105900927592335e-17 -3.484025296884313e-17 -8.105900927592335e-17 0.11113792890919359 0.9938049913124866
12653700000.0 0.1203023262599792 0.9927373017552394 -3.558680561597072e-17 -8.071522528075862e-17 -3.558680561597072e-17 -8.071522528075862e-17 0.12030168722797926 0.9927373791944866
12654317333.333334 0.12945584441425537 0.9915851876398866 -3.6329979052984157e-17 -8.036457177200963e-17 -3.6329979052984157e-17 -8.036457177200963e-17 0.12945520615501796 0.9915852709672519
12654934666.666666 0.13859834402759325 0.9903486754838648 -3.7069710127541466e-17 -8.00070818502056e-17 -3.7069710127541466e-17 -8.00070818502056e-17 0.13859770659536544 0.9903487646916826
12655552000.0 0.14772904694292743 0.9890278705320544 -3.780593601051703e-17 -7.964278919589062e-17 -3.780593601051703e-17 -7.964278919589062e-17 0.14772841039188048 0.9890279656121584
12656169333.333334 0.15684717600717635 0.9876228852038669 -3.8538594201296564e-17 -7.927172806649004e-17 -3.8538594201296564e-17 -7.927172806649004e-17 0.15684654039140108 0.9876229861475914
12656786666.666666 0.16595195513758562 0.9861338390836456 -3.9267622533106863e-17 -7.889393329309629e-17 -3.9267622533106863e-17 -7.889393329309629e-17 0.16595132051108819 0.9861339458818275
12657404000.0 0.1750426093875595 0.9845608589105251 -3.9992959178246924e-17 -7.850944027723879e-17 -3.9992959178246924e-17 -7.850944027723879e-17 0.1750419758042565 0.9845609715535035
12658021333.333334 0.18411836501287213 0.9829040785676006 -4.071454265333711e-17 -7.811828498758175e-17 -4.071454265333711e-17 -7.811828498758175e-17 0.18411773252658611 0.9829041970452184
12658638666.666666 0.19317844953716012 0.9811636390705966 -4.1432311824498436e-17 -7.772050395659311e-17 -4.1432311824498436e-17 -7.772050395659311e-17 0.19317781820161514 0.981163763372201
12659256000.0 0.2022220918181749 0.9793396885557731 -4.214620591253273e-17 -7.731613427714831e-17 -4.214620591253273e-17 -7.731613427714831e-17 0.20222146168699173 0.9793398186702169
12659873333.333334 0.2112485221129427 0.9774323822674051 -4.285616449805016e-17 -7.690521359909774e-17 -4.285616449805016e-17 -7.690521359909774e-17 0.21124789323963436 0.977432518183047
12660490666.666666 0.22025697214350404 0.9754418825445272 -4.356212752655075e-17 -7.64877801257945e-17 -4.356212752655075e-17 -7.64877801257945e-17 0.22025634458147156 0.9754420242492345
12661108000.0 0.2292466751623614 0.9733683588071063 -4.426403531352845e-17 -7.606387261054343e-17 -4.426403531352845e-17 -7.606387261054343e-17 0.22924604896488843 0.9733685062882528
12661725333.333334 0.23821686601757197 0.9712119875416503 -4.49618285494548e-17 -7.563353035305384e-17 -4.49618285494548e-17 -7.563353035305384e-17 0.23821624123782142 0.9712121407861214
12662342666.666666 0.2471667812179582 0.9689729522861775 -4.565544830481426e-17 -7.519679319579559e-17 -4.565544830481426e-17 -7.519679319579559e-17 0.24716615790896673 0.9689731112803679
12662960000.0 0.25609565899814574 0.9666514436145751 -4.634483603504883e-17 -7.475370152034288e-17 -4.634483603504883e-17 -7.475370152034288e-17 0.25609503721281995 0.9666516083443923
12663577333.333334 0.26500273938334573 0.964247659120394 -4.702993358548016e-17 -7.430429624366498e-17 -4.702993358548016e-17 -7.430429624366498e-17 0.2650021191744574 0.964247829571259
12664194666.666666 0.2738872642539569 0.9617618034000511 -4.771068319621522e-17 -7.384861881436018e-17 -4.771068319621522e-17 -7.384861881436018e-17 0.27388664567413823 0.9617619795568992
12664812000.0 0.28274847741028514 0.9591940880353691 -4.838702750698397e-17 -7.338671120886498e-17 -4.838702750698397e-17 -7.338671120886498e-17 0.28274786051202444 0.9591942698826499
12665429333.333334 0.29158562463671306 0.9565447315756096 -4.9058909561976214e-17 -7.291861592759611e-17 -4.9058909561976214e-17 -7.291861592759611e-17 0.29158500947235094 0.9565449190972923
12666046666.666666 0.30039795376597983 0.9538139595188617 -4.9726272814595784e-17 -7.244437599107899e-17 -4.9726272814595784e-17 -7.244437599107899e-17 0.3003973403877041 0.9538141526984335
12666664000.0 0.3091847147432803 0.9510020042928155 -5.038906113224127e-17 -7.196403493598892e-17 -5.038906113224127e-17 -7.196403493598892e-17 0.30918410320312145 0.951002203113283
12667281333.333334 0.31794515968994363 0.9481091052350323 -5.104721880097741e-17 -7.147763681119912e-17 -5.104721880097741e-17 -7.147763681119912e-17 0.31794455003977057 0.9481093096789233
12667898666.666666 0.326678542967142 0.9451355085725556 -5.170069053021714e-17 -7.098522617375122e-17 -5.170069053021714e-17 -7.098522617375122e-17 0.32667793525865796 0.945135718621922
12668516000.0 0.33538412123957134 0.9420814674008818 -5.234942145736495e-17 -7.048684808478301e-17 -5.234942145736495e-17 -7.048684808478301e-17 0.33538351552430906 0.9420816830373
12669133333.333334 0.3440611535382617 0.9389472416625747 -5.299335715237353e-17 -6.998254810545007e-17 -5.299335715237353e-17 -6.998254810545007e-17 0.34406054986758 0.9389474628671484
12669750666.666666 0.35270890132410254 0.935733098124984 -5.363244362233057e-17 -6.947237229275286e-17 -5.363244362233057e-17 -6.947237229275286e-17 0.3527082997491804 0.9357333248783432
12670368000.0 0.36132662855051256 0.9324393103576003 -5.4266627315946605e-17 -6.895636719536792e-17 -5.4266627315946605e-17 -6.895636719536792e-17 0.36132602912234557 0.9324395426399047
