! Parameters = {f0=12700.012000; bw=77.238000; Q=6100.000000; N=10; m_0_1=1.208103; m_1_1=-0.643199; m_1_2=1.042915; m_2_2=-0.643848; m_2_3=0.679878; m_2_8=-0.002531; m_2_9=0.034173; m_3_3=-0.645785; m_3_4=0.568407; m_3_7=-0.001931; m_3_8=-0.099019; m_3_9=-0.002531; m_4_4=-0.648710; m_4_5=0.404742; m_4_6=0.001586; m_4_7=-0.119568; m_4_8=-0.001931; m_5_5=-0.648328; m_5_6=0.812097; m_5_7=0.001586; m_6_6=-0.648329; m_6_7=0.405084; m_7_7=-0.648696; m_7_8=0.568525; m_8_8=-0.645787; m_8_9=0.680191; m_9_9=-0.643853; m_9_10=1.043993; m_10_10=-0.643209; m_10_11=1.208898}
!
! Created with skrf (http://scikit-rf.org).
# Hz S RI R 50.0 
!freq ReS11 ImS11 ReS21 ImS21 ReS12 ImS12 ReS22 ImS22
12607400000.0 0.8955576178305182 0.44494556200232754 -8.061411717125578e-17 -1.409573345694091e-17 -8.061411717125578e-17 -1.409573345694091e-17 0.8955573345741592 0.44494613212193224
12608017333.333334 0.899391692190252 0.43714366519371584 -8.07189801889705e-17 -1.3384639943302298e-17 -8.07189801889705e-17 -1.3384639943302298e-17 0.8993914139142738 0.43714423772608896
12608634666.666666 0.903157799770633 0.42930873356281596 -8.081757602300384e-17 -1.267279254766118e-17 -8.081757602300384e-17 -1.267279254766118e-17 0.9031575264955772 0.4293093084644578
12609252000.0 0.9068556559680335 0.4214413591932179 -8.090989952510894e-17 -1.1960246458723007e-17 -8.090989952510894e-17 -1.1960246458723007e-17 0.9068553877140604 0.4214419364204533
12609869333.333334 0.9104849813365393 0.4135421366202506 -8.09959460326203e-17 -1.1247056897438823e-17 -8.09959460326203e-17 -1.1247056897438823e-17 0.9104847181234275 0.4135427161292326
12610486666.666666 0.9140455016090796 0.40561166278602734 -8.107571136862147e-17 -1.0533279112747982e-17 -8.107571136862147e-17 -1.0533279112747982e-17 0.9140452434562258 0.4056122445327417
12611104000.0 0.9175369477182374 0.39765053699415515 -8.114919184208008e-17 -9.818968377281159e-18 -8.114919184208008e-17 -9.818968377281159e-18 0.9175366946446543 0.3976511209344226
12611721333.333334 0.9209590558164303 0.38965936086478187 -8.121638424793704e-17 -9.1041799831324e-18 -8.121638424793704e-17 -9.1041799831324e-18 0.9209588078407431 0.3896599469542611
12612338666.666666 0.9243115672959737 0.3816387382888447 -8.127728586716772e-17 -8.38896923755294e-18 -8.127728586716772e-17 -8.38896923755294e-18 0.9243113244364228 0.3816393264830372
12612956000.0 0.9275942288085821 0.3735892753825409 -8.133189446679964e-17 -7.6733914586916e-18 -8.133189446679964e-17 -7.6733914586916e-18 0.9275939910830185 0.37358986563679314
12613573333.333334 0.9308067922844808 0.3655115804416012 -8.138020829989309e-17 -6.957501971345396e-18 -8.138020829989309e-17 -6.957501971345396e-18 0.9308065597103649 0.36551217271110803
12614190666.666666 0.9339490149512133 0.35740626389516283 -8.142222610548705e-17 -6.241356102669557e-18 -8.142222610548705e-17 -6.241356102669557e-18 0.933948787545617 0.3574068581349721
12614808000.0 0.937020659351952 0.34927393825974656 -8.14579471085054e-17 -5.5250091779238275e-18 -8.14579471085054e-17 -5.5250091779238275e-18 0.9370204371315531 0.3492745344247608
12615425333.333334 0.9400214933634474 0.34111521809294104 -8.148737101962667e-17 -4.808516516204333e-18 -8.148737101962667e-17 -4.808516516204333e-18 0.9400212763445303 0.3411158161379218
12616042666.666666 0.9429512902135806 0.33293071994693446 -8.151049803511548e-17 -4.091933426191496e-18 -8.151049803511548e-17 -4.091933426191496e-18 0.9429510784120355 0.3329313198265061
12616660000.0 0.9458098284984636 0.3247210623220296 -8.152732883661842e-17 -3.3753152018772853e-18 -8.152732883661842e-17 -3.3753152018772853e-18 0.9458096219297852 0.3247216639906819
12617277333.333334 0.9485968921992362 0.31648686561971556 -8.153786459092065e-17 -2.65871711831606e-18 -8.153786459092065e-17 -2.65871711831606e-18 0.948596690878521 0.3164874690318077
12617894666.666666 0.9513122706983059 0.3082287520960265 -8.154210694966623e-17 -1.9421944273809182e-18 -8.154210694966623e-17 -1.9421944273809182e-18 0.9513120746402545 0.3082293572057906
12618512000.0 0.9539557587953753 0.2999473458141946 -8.154005804904147e-17 -1.2258023534886893e-18 -8.154005804904147e-17 -1.2258023534886893e-18 0.9539555680142877 0.2999479525757387
12619129333.333334 0.9565271567228301 0.29164327259784006 -8.153172050941995e-17 -5.095960893866654e-19 -8.153172050941995e-17 -5.095960893866654e-19 0.956526971232607 0.29164388096515215
12619746666.666666 0.9590262701608934 0.2833171599835169 -8.151709743497158e-17 2.063692081145123e-19 -8.151709743497158e-17 2.063692081145123e-19 0.9590260899750327 0.28331776991046764
12620364000.0 0.9614529102523536 0.27496963717312584 -8.149619241323346e-17 9.22038422368768e-19 -8.149619241323346e-17 9.22038422368768e-19 0.9614527353839527 0.27497024861347297
12620981333.333334 0.9638068936167341 0.26660133498671973 -8.146900951464495e-17 1.63735648112008e-18 -8.146900951464495e-17 1.63735648112008e-18 0.9638067240784876 0.26660194789411124
12621598666.666666 0.9660880423642413 0.25821288581453394 -8.143555329204425e-17 2.3522683607437373e-18 -8.143555329204425e-17 2.3522683607437373e-18 0.9660878781684374 0.258213500142511
12622216000.0 0.9682961841091607 0.24980492356933115 -8.139582878012911e-17 3.066719090459033e-18 -8.139582878012911e-17 3.066719090459033e-18 0.9682960252676857 0.24980553927133267
12622833333.333334 0.9704311519829142 0.24137808363841648 -8.134984149487989e-17 3.780653756550121e-18 -8.134984149487989e-17 3.780653756550121e-18 0.9704309985072475 0.24137870066778197
12623450666.666666 0.9724927846466107 0.2329330028358406 -8.129759743294671e-17 4.4940175065692754e-18 -8.129759743294671e-17 4.4940175065692754e-18 0.9724926365478244 0.23293362114581367
12624068000.0 0.9744809263033144 0.22447031935397316 -8.12391030709989e-17 5.206755553543023e-18 -8.12391030709989e-17 5.206755553543023e-18 0.9744807835920741 0.2244709388977054
12624685333.333334 0.9763954267097978 0.21599067271535707 -8.117436536503677e-17 5.9188131801854144e-18 -8.117436536503677e-17 5.9188131801854144e-18 0.9763952893963603 0.21599129344591123
12625302666.666666 0.978236141187837 0.2074947037246292 -8.110339174967083e-17 6.630135743055865e-18 -8.110339174967083e-17 6.630135743055865e-18 0.9782360092820507 0.2074953255949831
12625920000.0 0.9800029306352442 0.19898305441965106 -8.102619013735783e-17 7.340668676778805e-18 -8.102619013735783e-17 7.340668676778805e-18 0.9800028041465483 0.19898367738270104
12626537333.333334 0.9816956615362732 0.1904563680234907 -8.094276891760735e-17 8.050357498186567e-18 -8.094276891760735e-17 8.050357498186567e-18 0.9816955404736961 0.1904569920320551
12627154666.666666 0.9833142059717808 0.1819152888954809 -8.08531369561473e-17 8.759147810500412e-18 -8.08531369561473e-17 8.759147810500412e-18 0.9833140903439399 0.18191591390230355
12627772000.0 0.9848584416289001 0.17336046248246859 -8.075730359405197e-17 9.466985307505409e-18 -8.075730359405197e-17 9.466985307505409e-18 0.9848583314440014 0.17336108844022255
12628389333.333334 0.9863282518102147 0.16479253527040147 -8.065527864684172e-17 1.017381577765948e-17 -8.065527864684172e-17 1.017381577765948e-17 0.9863281470760525 0.1647931621316927
12629006666.666666 0.9877235254426576 0.15621215473505465 -8.054707240353431e-17 1.0879585108282852e-17 -8.054707240353431e-17 1.0879585108282852e-17 0.987723426166613 0.1562127824524254
12629624000.0 0.9890441570858515 0.14761996929338023 -8.043269562567146e-17 1.1584239289655845e-17 -8.043269562567146e-17 1.1584239289655845e-17 0.9890440632748928 0.1476205978193126
12630241333.333334 0.9902900469400887 0.13901662825445094 -8.031215954630219e-17 1.2287724419157418e-17 -8.031215954630219e-17 1.2287724419157418e-17 0.9902899586007713 0.1390172575413708
12630858666.666666 0.9914611008538782 0.13040278177039263 -8.018547586893521e-17 1.2989986705364274e-17 -8.018547586893521e-17 1.2989986705364274e-17 0.9914610179923414 0.13040341177067274
12631476000.0 0.9925572303310781 0.12177908078705448 -8.005265676644768e-17 1.3690972472180604e-17 -8.005265676644768e-17 1.3690972472180604e-17 0.9925571529530481 0.12177971145301844
12632093333.333334 0.9935783525375447 0.11314617699515551 -7.991371487997064e-17 1.4390628162891524e-17 -7.991371487997064e-17 1.4390628162891524e-17 0.993578280648333 0.11314680827908147
12632710666.666666 0.994524390307417 0.10450472278083968 -7.976866331772686e-17 1.5088900344271635e-17 -7.976866331772686e-17 1.5088900344271635e-17 0.9945243239119201 0.10450535463496363
12633328000.0 0.9953952721489516 0.09585537117634663 -7.961751565383681e-17 1.5785735710657285e-17 -7.961751565383681e-17 1.5785735710657285e-17 0.9953952112516485 0.095856003552866
12633945333.333334 0.9961909322499113 0.0871987758107466 -7.946028592709427e-17 1.6481081087987224e-17 -7.946028592709427e-17 1.6481081087987224e-17 0.9961908768548673 0.08719940866182428
12634562666.666666 0.9969113104825476 0.07853559086051833 -7.929698863970027e-17 1.7174883437860916e-17 -7.929698863970027e-17 1.7174883437860916e-17 0.9969112605934102 0.0785362241382858
12635180000.0 0.9975563524081387 0.06986647100011237 -7.912763875596456e-17 1.7867089861571183e-17 -7.912763875596456e-17 1.7867089861571183e-17 0.9975563080281407 0.06986710465667374
12635797333.333334 0.9981260092811116 0.061192071352449896 -7.895225170097049e-17 1.85576476041313e-17 -7.895225170097049e-17 1.85576476041313e-17 0.998125970413067 0.061192705339885155
12636414666.666666 0.9986202380527134 0.052513047439499666 -7.87708433592105e-17 1.924650405826705e-17 -7.87708433592105e-17 1.924650405826705e-17 0.9986202046990216 0.052513681709868615
12637032000.0 0.9990390013742736 0.04383005513268414 -7.858343007317555e-17 1.9933606768440594e-17 -7.858343007317555e-17 1.9933606768440594e-17 0.9990389735369165 0.04383068963802987
12637649333.333334 0.9993822676000295 0.03514375060325867 -7.839002864192094e-17 2.0618903434816307e-17 -7.839002864192094e-17 2.0618903434816307e-17 0.9993822452805707 0.03514438529561112
12638266666.666666 0.9996500107895075 0.02645479027280964 -7.819065631959193e-17 2.1302341917235443e-17 -7.819065631959193e-17 2.1302341917235443e-17 0.9996499939890949 0.026455425104189387
12638884000.0 0.999842210709491 0.017763830763620835 -7.798533081391621e-17 2.198387023917255e-17 -7.798533081391621e-17 2.198387023917255e-17 0.9998421994288551 0.01776446568604261
12639501333.333334 0.9999588528355466 0.009071528848995647 -7.77740702846607e-17 2.2663436591679702e-17 -7.77740702846607e-17 2.2663436591679702e-17 0.9999588470750007 0.009072163814471991
12640118666.666666 0.9999999283531203 0.0003785414039091784 -7.755689334205917e-17 2.334098933730341e-17 -7.755689334205917e-17 2.334098933730341e-17 0.9999999281125604 0.000379176364454061
12640736000.0 0.9999654341582092 -0.008314474645256895 -7.733381904519314e-17 2.4016477014023863e-17 -7.733381904519314e-17 2.4016477014023863e-17 0.9999654394371128 -0.008313839737624427
12641353333.333334 0.9998553728575866 -0.017006862369562243 -7.710486690036021e-17 2.4689848339113385e-17 -7.710486690036021e-17 2.4689848339113385e-17 0.9998553836550179 -0.017006227562814485
12641970666.666666 0.999669752768617 -0.02569796488777715 -7.687005685938406e-17 2.5361052213056378e-17 -7.687005685938406e-17 2.5361052213056378e-17 0.9996697690832199 -0.025697330229874058
12642588000.0 0.9994085879186165 -0.034387125415738545 -7.662940931790853e-17 2.6030037723396398e-17 -7.662940931790853e-17 2.6030037723396398e-17 0.9994086097486198 -0.03438649095462417
12643205333.333334 0.9990718980437997 -0.0430736873160399 -7.638294511365221e-17 2.6696754148589642e-17 -7.638294511365221e-17 2.6696754148589642e-17 0.9990719253870148 -0.04307305309963873
12643822666.666666 0.998659708587786 -0.051756994147653175 -7.613068552462508e-17 2.7361150961850384e-17 -7.613068552462508e-17 2.7361150961850384e-17 0.9986597414416079 -0.051756360223866496
12644440000.0 0.9981720506996727 -0.06043638971556405 -7.587265226732387e-17 2.802317783494987e-17 -7.587265226732387e-17 2.802317783494987e-17 0.9981720890610808 -0.06043575613226639
12645057333.333334 0.9976089612316908 -0.06911121812027551 -7.560886749488162e-17 2.868278464203312e-17 -7.560886749488162e-17 2.868278464203312e-17 0.9976090050972487 -0.06911058492531101
12645674666.666666 0.9969704827364163 -0.0777808238074023 -7.533935379519268e-17 2.9339921463394635e-17 -7.533935379519268e-17 2.9339921463394635e-17 0.9969705321022722 -0.07778019104858112
12646292000.0 0.9962566634635377 -0.08644455161743775 -7.50641341889953e-17 2.999453858926262e-17 -7.50641341889953e-17 2.999453858926262e-17 0.9962567183254238 -0.08644391934253232
12646909333.333334 0.9954675573562474 -0.09510174683478219 -7.478323212793908e-17 3.064658652352066e-17 -7.478323212793908e-17 3.064658652352066e-17 0.9954676177094812 -0.09510111509152377
12647526666.666666 0.9946032240471293 -0.10375175523767312 -7.449667149260087e-17 3.129601598746059e-17 -7.449667149260087e-17 3.129601598746059e-17 0.9946032898866136 -0.10375112407374808
12648144000.0 0.9936637288536595 -0.11239392314748234 -7.420447659047627e-17 3.194277792349568e-17 -7.420447659047627e-17 3.194277792349568e-17 0.9936638001738843 -0.11239329261052876
12648761333.333334 0.9926491427732851 -0.12102759747803013 -7.390667215394671e-17 3.2586823498838566e-17 -7.390667215394671e-17 3.2586823498838566e-17 0.9926492195683255 -0.12102696761563393
12649378666.666666 0.9915595424780502 -0.1296521257849664 -7.360328333820193e-17 3.322810410919003e-17 -7.360328333820193e-17 3.322810410919003e-17 0.9915596247415693 -0.12965149664465803
12649996000.0 0.9903950103088062 -0.13826685631510494 -7.329433571913499e-17 3.386657138239804e-17 -7.329433571913499e-17 3.386657138239804e-17 0.9903950980340528 -0.13826622794435536
12650613333.333334 0.9891556342689695 -0.14687113805575946 -7.297985529120854e-17 3.450217718209118e-17 -7.297985529120854e-17 3.450217718209118e-17 0.9891557274487824 -0.1468705105019772
12651230666.666666 0.9878415080179098 -0.15546432078371653 -7.265986846529198e-17 3.51348736112886e-17 -7.265986846529198e-17 3.51348736112886e-17 0.9878416066447152 -0.15546369409424357
12651848000.0 0.9864527308638239 -0.16404575511468136 -7.233440206645199e-17 3.576461301602084e-17 -7.233440206645199e-17 3.576461301602084e-17 0.9864528349296366 -0.16404512933678966
12652465333.333334 0.9849894077562652 -0.17261479255209827 -7.200348333173658e-17 3.639134798888119e-17 -7.200348333173658e-17 3.639134798888119e-17 0.9849895172526911 -0.17261416773298652
12653082666.666666 0.9834516492782164 -0.1811707855361867 -7.166713990790904e-17 3.701503137259593e-17 -7.166713990790904e-17 3.701503137259593e-17 0.983451764196451 -0.18117016172297631
12653700000.0 0.9818395716376979 -0.18971308749304405 -7.132539984915035e-17 3.76356162635733e-17 -7.132539984915035e-17 3.76356162635733e-17 0.9818396919685289 -0.18971246473277614
12654317333.333334 0.980153296659032 -0.1982410528832844 -7.097829161475207e-17 3.825305601539345e-17 -7.097829161475207e-17 3.825305601539345e-17 0.9801534223928381 -0.1982404312229157
12654934666.666666 0.9783929517736006 -0.20675403725098873 -7.06258440667538e-17 3.886730424232355e-17 -7.06258440667538e-17 3.886730424232355e-17 0.9783930829003529 -0.20675341673738817
12655552000.0 0.9765586700102079 -0.21525139727243345 -7.026808646756108e-17 3.9478314822791085e-17 -7.026808646756108e-17 3.9478314822791085e-17 0.9765588065194722 -0.2152507779523791
12656169333.333334 0.974650589985079 -0.22373249080448468 -6.990504847754312e-17 4.008604190281984e-17 -6.990504847754312e-17 4.008604190281984e-17 0.9746507318660145 -0.22373187272465958
12656786666.666666 0.9726688558913452 -0.23219667693329107 -6.95367601525843e-17 4.069043989947154e-17 -6.95367601525843e-17 4.069043989947154e-17 0.9726690031327062 -0.23219606014028002
12657404000.0 0.9706136174881432 -0.24064331602274533 -6.916325194161232e-17 4.12914635042555e-17 -6.916325194161232e-17 4.12914635042555e-17 0.97061377007828 -0.2406427005630313
12658021333.333334 0.9684850300893072 -0.24907176976276538 -6.878455468410005e-17 4.188906768650968e-17 -6.878455468410005e-17 4.188906768650968e-17 0.9684851880161678 -0.24907115568272623
12658638666.666666 0.9662832545516631 -0.25748140121742163 -6.840069960754113e-17 4.248320769675531e-17 -6.840069960754113e-17 4.248320769675531e-17 0.9662834178027937 -0.2574807885633267
12659256000.0 0.9640084572627947 -0.2658715748733731 -6.801171832487936e-17 4.3073839070055656e-17 -6.801171832487936e-17 4.3073839070055656e-17 0.964008625825339 -0.26587096369137875
12659873333.333334 0.9616608101285596 -0.2742416566875345 -6.761764283193287e-17 4.366091762931477e-17 -6.761764283193287e-17 4.366091762931477e-17 0.961660983989262 -0.2742410470236818
12660490666.666666 0.9592404905600597 -0.2825910141351565 -6.721850550477761e-17 4.4244399488572306e-17 -6.721850550477761e-17 4.4244399488572306e-17 0.9592406697052657 -0.28259040603536745
12661108000.0 0.9567476814601861 -0.29091901625778965 -6.681433909709555e-17 4.482424105628364e-17 -6.681433909709555e-17 4.482424105628364e-17 0.9567478658758422 -0.29091840976786315
12661725333.333334 0.9541825712098949 -0.2992250337106092 -6.640517673751366e-17 4.540039903855003e-17 -6.640517673751366e-17 4.540039903855003e-17 0.9541827608815524 -0.29922442887621836
12662342666.666666 0.9515453536538905 -0.3075084388102761 -6.599105192689464e-17 4.597283044235235e-17 -6.599105192689464e-17 4.597283044235235e-17 0.9515455485667039 -0.3075078356769645
12662960000.0 0.9488362280860048 -0.3157686055822612 -6.557199853561526e-17 4.654149257874014e-17 -6.557199853561526e-17 4.654149257874014e-17 0.9488364282247341 -0.31576800419543927
12663577333.333334 0.9460553992341605 -0.324004909808068 -6.514805080080998e-17 4.7106343066005014e-17 -6.514805080080998e-17 4.7106343066005014e-17 0.9460556045831734 -0.32400431021301007
12664194666.666666 0.9432030772448546 -0.3322167290725688 -6.471924332358795e-17 4.766733983282941e-17 -6.471924332358795e-17 4.766733983282941e-17 0.9432032877881255 -0.33221613131440925
12664812000.0 0.9402794776673085 -0.34040344281093116 -6.42856110662294e-17 4.8224441121400794e-17 -6.42856110662294e-17 4.8224441121400794e-17 0.9402796933884193 -0.3404028469346606
12665429333.333334 0.9372848214371566 -0.34856443235556683 -6.384718934934063e-17 4.8777605490520756e-17 -6.384718934934063e-17 4.8777605490520756e-17 0.9372850423193023 -0.34856383840603
12666046666.666666 0.9342193348597977 -0.35669908098277914 -6.340401384900428e-17 4.93267918186594e-17 -6.340401384900428e-17 4.93267918186594e-17 0.9342195608857837 -0.3566984890046705
12666664000.0 0.9310832495932166 -0.3648067739595534 -6.295612059387406e-17 4.9871959307021565e-17 -6.295612059387406e-17 4.9871959307021565e-17 0.9310834807454624 -0.3648061839974146
12667281333.333334 0.9278768026305649 -0.3728868985898021 -6.25035459622803e-17 5.041306748254078e-17 -6.25035459622803e-17 5.041306748254078e-17 0.9278770388911028 -0.3728863106880174
12667898666.666666 0.924600236282184 -0.3809388442608223 -6.204632667927375e-17 5.095007620089117e-17 -6.204632667927375e-17 5.095007620089117e-17 0.9246004776326628 -0.3809382584636163
12668516000.0 0.9212537981572863 -0.3889620024894674 -6.158449981366578e-17 5.148294564944637e-17 -6.158449981366578e-17 5.148294564944637e-17 0.9212540445789719 -0.3889614188409012
12669133333.333334 0.9178377411453367 -0.3969557669678917 -6.111810277504161e-17 5.201163635021369e-17 -6.111810277504161e-17 5.201163635021369e-17 0.9178379926191149 -0.39695518551186043
12669750666.666666 0.914352323396827 -0.4049195336096599 -6.064717331073506e-17 5.253610916275674e-17 -6.064717331073506e-17 5.253610916275674e-17 0.914352579903202 -0.40491895438988795
12670368000.0 0.910797808303853 -0.41285270059518697 -6.017174950279213e-17 5.3056325287075594e-17 -6.017174950279213e-17 5.3056325287075594e-17 0.9107980698229505 -0.4128521236552255
