! Parameters = {f0=12700.012000; bw=77.238000; Q=6100.000000; N=10; m_0_1=1.320015; m_1_1=1.035480; m_1_2=1.154827; m_2_2=1.034831; m_2_3=0.791790; m_2_8=0.003064; m_2_9=0.039768; m_3_3=1.032894; m_3_4=0.680319; m_3_7=0.003664; m_3_8=-0.093424; m_3_9=0.003064; m_4_4=1.029969; m_4_5=0.516654; m_4_6=0.007181; m_4_7=-0.113973; m_4_8=0.003664; m_5_5=1.030351; m_5_6=0.924009; m_5_7=0.007181; m_6_6=1.030350; m_6_7=0.516996; m_7_7=1.029983; m_7_8=0.680437; m_8_8=1.032892; m_8_9=0.792103; m_9_9=1.034826; m_9_10=1.155905; m_10_10=1.035470; m_10_11=1.320810}
!
! Created with skrf (http://scikit-rf.org).
# Hz S RI R 50.0 
!freq ReS11 ImS11 ReS21 ImS21 ReS12 ImS12 ReS22 ImS22
12607400000.0 -0.38503440195050503 0.922902220884979 1.4901680001947712e-17 -1.3842840581930056e-16 1.4901680001947712e-17 -1.3842840581930056e-16 -0.385035043706889 0.9229019531442347
12608017333.333334 -0.373930706844699 0.927456643988512 1.3224413214203303e-17 -1.385713104316438e-16 1.3224413214203303e-17 -1.385713104316438e-16 -0.3739313517365125 0.927456383981648
12608634666.666666 -0.3627731527013587 0.9318774810450812 1.1545870148981969e-17 -1.3869390390610572e-16 1.1545870148981969e-17 -1.3869390390610572e-16 -0.3627738006354124 0.9318772288087884
12609252000.0 -0.3515633465967651 0.9361640953003336 9.866296629107078e-18 -1.3879617627865064e-16 9.866296629107078e-18 -1.3879617627865064e-16 -0.3515639974794405 0.9361638508701801
12609869333.333334 -0.34030290313324424 0.9403158693326915 8.185938531709012e-18 -1.3887812055873368e-16 8.185938531709012e-18 -1.3887812055873368e-16 -0.3403035568705077 0.940315632743118
12610486666.666666 -0.3289934442068503 0.9443322051421957 6.505041752329109e-18 -1.3893973272915492e-16 6.505041752329109e-18 -1.3893973272915492e-16 -0.32899410070426616 0.9443319764265108
12611104000.0 -0.3176365987732752 0.9482125242368161 4.823852168912591e-18 -1.3898101174548574e-16 4.823852168912591e-18 -1.3898101174548574e-16 -0.3176372579360191 0.9482123034271892
12611721333.333334 -0.30623400261380945 0.9519562677155573 3.142615605960307e-18 -1.3900195953505441e-16 3.142615605960307e-18 -1.3900195953505441e-16 -0.30623466434668306 0.9519560548430184
12612338666.666666 -0.2947872980992791 0.9555628963491285 1.4615777985878006e-18 -1.3900258099550264e-16 1.4615777985878006e-18 -1.3900258099550264e-16 -0.2947879623067228 0.9555626914435598
12612956000.0 -0.28329813395356473 0.9590318906575722 -2.190156433489988e-19 -1.3898288399290676e-16 -2.190156433489988e-19 -1.3898288399290676e-16 -0.2832988005396717 0.9590316937477052
12613573333.333334 -0.27176816501645423 0.9623627509849912 -1.898919271040449e-18 -1.3894287935946658e-16 -1.898919271040449e-18 -1.3894287935946658e-16 -0.2717688338849851 0.9623625620984043
12614190666.666666 -0.26019905200485405 0.965554997571648 -3.5778878325908204e-18 -1.3888258089076098e-16 -3.5778878325908204e-18 -1.3888258089076098e-16 -0.26019972305924977 0.9655548167347614
12614808000.0 -0.24859246127380558 0.9686081706230035 -5.255676308724646e-18 -1.3880200534257334e-16 -5.255676308724646e-18 -1.3880200534257334e-16 -0.2485931344172018 0.9686079978610751
12615425333.333334 -0.23695006457652645 0.9715218303759261 -6.9320399485280064e-18 -1.3870117242728347e-16 -6.9320399485280064e-18 -1.3870117242728347e-16 -0.23695073971176747 0.9715216657130481
12616042666.666666 -0.2252735388234562 0.9742955571620798 -8.606734305089269e-18 -1.385801048098309e-16 -8.606734305089269e-18 -1.385801048098309e-16 -0.22527421585310875 0.9742954006211754
12616660000.0 -0.21356456584080355 0.9769289514683441 -1.0279515271105131e-17 -1.3843882810324724e-16 -1.0279515271105131e-17 -1.3843882810324724e-16 -0.21356524466717144 0.9769288030711657
12617277333.333334 -0.2018248321283623 0.9794216339943526 -1.1950139114403428e-17 -1.3827737086376074e-16 -1.1950139114403428e-17 -1.3827737086376074e-16 -0.2018255126534999 0.9794214937614766
12617894666.666666 -0.1900560286165679 0.9817732457071278 -1.3618362513413e-17 -1.380957645854724e-16 -1.3618362513413e-17 -1.380957645854724e-16 -0.19005671074229422 0.981773113657952
12618512000.0 -0.1782598504227217 0.9839834478928386 -1.5283942592587095e-17 -1.378940436946009e-16 -1.5283942592587095e-17 -1.378940436946009e-16 -0.17826053405063524 0.9839833240455816
12619129333.333334 -0.1664379966073096 0.9860519222054971 -1.6946636957649732e-17 -1.3767224554331234e-16 -1.6946636957649732e-17 -1.3767224554331234e-16 -0.16643868163880196 0.9860518065771937
12619746666.666666 -0.1545921699288314 0.9879783707128951 -1.860620373088736e-17 -1.3743041040311127e-16 -1.860620373088736e-17 -1.3743041040311127e-16 -0.15459285626510177 0.9879782633193952
12620364000.0 -0.14272407659862718 0.9897625159394955 -2.026240158627659e-17 -1.371685814578141e-16 -2.026240158627659e-17 -1.371685814578141e-16 -0.1427247641406965 0.9897624167954614
12620981333.333334 -0.1308354260354611 0.9914041009063508 -2.1914989784482778e-17 -1.3688680479610783e-16 -2.1914989784482778e-17 -1.3688680479610783e-16 -0.13083611468418618 0.991404010025255
12621598666.666666 -0.11892793061885579 0.9929028891681845 -2.3563728207868348e-17 -1.3658512940367002e-16 -2.3563728207868348e-17 -1.3658512940367002e-16 -0.11892862027494386 0.9929028065623077
12622216000.0 -0.10700330544267475 0.9942586648474095 -2.5208377395298973e-17 -1.3626360715488298e-16 -2.5208377395298973e-17 -1.3626360715488298e-16 -0.10700399600669772 0.9942585905278406
12622833333.333334 -0.09506326806811762 0.9954712326652234 -2.684869857689102e-17 -1.3592229280412168e-16 -2.684869857689102e-17 -1.3592229280412168e-16 -0.0950639594405264 0.9954711666418571
12623450666.666666 -0.08310953827624731 0.9965404179697479 -2.8484453708597907e-17 -1.3556124397663293e-16 -2.8484453708597907e-17 -1.3556124397663293e-16 -0.08311023035738588 0.9965403602512808
12624068000.0 -0.0711438378203658 0.9974660667611696 -3.01154055067503e-17 -1.3518052115898442e-16 -3.01154055067503e-17 -1.3518052115898442e-16 -0.07114453051048604 0.9974660173551038
12624685333.333334 -0.05916789017779578 0.9982480457139483 -3.174131748242131e-17 -1.3478018768910828e-16 -3.174131748242131e-17 -1.3478018768910828e-16 -0.059168583377071475 0.998248004626586
12625302666.666666 -0.0471834203020361 0.9988862421959823 -3.33619539756204e-17 -1.3436030974594364e-16 -3.33619539756204e-17 -1.3436030974594364e-16 -0.047184113910577495 0.9988862094324277
12625920000.0 -0.035192154373826605 0.9993805642848671 -3.4977080189482657e-17 -1.3392095633863608e-16 -3.4977080189482657e-17 -1.3392095633863608e-16 -0.03519284829169478 0.9993805398490244
12626537333.333334 -0.02319581955302874 0.9997309407811051 -3.6586462224173536e-17 -1.3346219929536405e-16 -3.6586462224173536e-17 -1.3346219929536405e-16 -0.02319651368025005 0.9997309246756806
12627154666.666666 -0.011196143729513944 0.999937321218384 -3.818986711072585e-17 -1.3298411325173915e-16 -3.818986711072585e-17 -1.3298411325173915e-16 -0.011196837966094319 0.9999373134448833
12627772000.0 0.0008051447257982027 0.9999996758708375 -3.9787062844764757e-17 -1.3248677563878835e-16 -3.9787062844764757e-17 -1.3248677563878835e-16 0.0008044504798588092 0.9999996764295654
12628389333.333334 0.01280631720940239 0.9999179957573231 -4.1377818419946876e-17 -1.319702666705718e-16 -4.1377818419946876e-17 -1.319702666705718e-16 0.01280562305409559 0.9999180046473842
12629006666.666666 0.024805645134783446 0.9996922926427194 -4.296190386140602e-17 -1.3143466933134926e-16 -4.296190386140602e-17 -1.3143466933134926e-16 0.024804951170078016 0.9996923098620193
12629624000.0 0.03680140018099509 0.9993225990362313 -4.453909025889646e-17 -1.3088006936238974e-16 -4.453909025889646e-17 -1.3088006936238974e-16 0.0368007065068226 0.9993226245814756
12630241333.333334 0.048791854541683555 0.9988089681867064 -4.610914979985323e-17 -1.3030655524835488e-16 -4.610914979985323e-17 -1.3030655524835488e-16 0.04879116125792396 0.9988090020534023
12630858666.666666 0.060775281173952055 0.998151474074971 -4.767185580221308e-17 -1.29714218203312e-16 -4.767185580221308e-17 -1.29714218203312e-16 0.06077458838041928 0.9981515162574268
12631476000.0 0.07274995404734182 0.9973502114031556 -4.922698274715643e-17 -1.2910315215631578e-16 -4.922698274715643e-17 -1.2910315215631578e-16 0.0727492618437695 0.9973502618944841
12632093333.333334 0.08471414839201513 0.9964052955810828 -5.077430631154544e-17 -1.2847345373664482e-16 -5.077430631154544e-17 -1.2847345373664482e-16 0.08471345687804216 0.9964053543731997
12632710666.666666 0.09666614094740945 0.9953168627096325 -5.2313603400244544e-17 -1.2782522225862352e-16 -5.2313603400244544e-17 -1.2782522225862352e-16 0.09666545022256565 0.9953169297932587
12633328000.0 0.10860421021064469 0.9940850695611169 -5.384465217827787e-17 -1.2715855970604493e-16 -5.384465217827787e-17 -1.2715855970604493e-16 0.10860352037433658 0.9940851449257808
12633945333.333334 0.12052663668414026 0.992710093556734 -5.5367232102702734e-17 -1.2647357071624583e-16 -5.5367232102702734e-17 -1.2647357071624583e-16 0.12052594783563646 0.9927101771907708
12634562666.666666 0.13243170312347977 0.9911921327409863 -5.688112395435447e-17 -1.2577036256376947e-16 -5.688112395435447e-17 -1.2577036256376947e-16 0.13243101536189714 0.9911922246315427
12635180000.0 0.14431769478461376 0.9895314057531798 -5.838610986934216e-17 -1.2504904514366908e-16 -5.838610986934216e-17 -1.2504904514366908e-16 0.14431700820890297 0.9895315058862154
12635797333.333334 0.15618289967103968 0.9877281517959059 -5.988197337038073e-17 -1.2430973095441354e-16 -5.988197337038073e-17 -1.2430973095441354e-16 0.15618221437997074 0.9877282601561924
12636414666.666666 0.16802560878019135 0.9857826306006089 -6.136849939783693e-17 -1.2355253508045242e-16 -6.136849939783693e-17 -1.2355253508045242e-16 0.1680249248723397 0.9857827471717358
12637032000.0 0.1798441163496799 0.9836951223901708 -6.284547434064448e-17 -1.2277757517436805e-16 -6.284547434064448e-17 -1.2277757517436805e-16 0.17984343392341223 0.9836952471545467
12637649333.333334 0.1916367201030388 0.9814659278385373 -6.431268606692178e-17 -1.219849714386951e-16 -6.431268606692178e-17 -1.219849714386951e-16 0.19163603925649864 0.9814660607773922
12638266666.666666 0.2034017214948541 0.9790953680274154 -6.576992395439953e-17 -1.211748466073554e-16 -6.576992395439953e-17 -1.211748466073554e-16 0.20340104232594808 0.9790955091208046
12638884000.0 0.21513742595533178 0.976583784400051 -6.721697892059254e-17 -1.2034732592674382e-16 -6.721697892059254e-17 -1.2034732592674382e-16 0.21513674856171508 0.9765839336268559
12639501333.333334 0.22684214313459608 0.9739315387119948 -6.865364345277534e-17 -1.1950253713643095e-16 -6.865364345277534e-17 -1.1950253713643095e-16 0.226841467613659 0.9739316960499291
12640118666.666666 0.23851418714574385 0.9711390129790971 -7.007971163763867e-17 -1.186406104495542e-16 -7.007971163763867e-17 -1.186406104495542e-16 0.23851351359459727 0.9711391784047073
12640736000.0 0.2501518768084452 0.9682066094222983 -7.14949791908459e-17 -1.1776167853276933e-16 -7.14949791908459e-17 -1.1776167853276933e-16 0.2501512053239066 0.9682067829109683
12641353333.333334 0.2617535358900689 0.96513475040994 -7.289924348611813e-17 -1.168658764859845e-16 -7.289924348611813e-17 -1.168658764859845e-16 0.2617528665686489 0.965134931935895
12641970666.666666 0.2733174933478926 0.9619238783967451 -7.429230358430349e-17 -1.1595334182160292e-16 -7.429230358430349e-17 -1.1595334182160292e-16 0.27331682628578097 0.9619240679330556
12642588000.0 0.28484208356954155 0.9585744558601443 -7.567396026201512e-17 -1.1502421444352667e-16 -7.567396026201512e-17 -1.1502421444352667e-16 0.28484141886259345 0.958574653378731
12643205333.333334 0.2963256466128417 0.9550869652336864 -7.704401604009701e-17 -1.140786366257649e-16 -7.704401604009701e-17 -1.140786366257649e-16 0.29632498435656296 0.9550871707053199
12643822666.666666 0.30776652844504265 0.951461908837499 -7.840227521179688e-17 -1.1311675299071874e-16 -7.840227521179688e-17 -1.1311675299071874e-16 0.3077658687345777 0.9514621222318106
12644440000.0 0.3191630811809498 0.9476998088059816 -7.974854387066008e-17 -1.1213871048714002e-16 -7.974854387066008e-17 -1.1213871048714002e-16 0.3191624241110664 0.947700030091462
12645057333.333334 0.33051366332022125 0.943801207012609 -8.108262993814968e-17 -1.1114465836775843e-16 -8.108262993814968e-17 -1.1114465836775843e-16 0.3305130089852982 0.9438014361566177
12645674666.666666 0.3418166399838587 0.9397666649918781 -8.24043431910176e-17 -1.1013474816656069e-16 -8.24043431910176e-17 -1.1013474816656069e-16 0.34181598847787104 0.9397669019606435
12646292000.0 0.3530703831499237 0.935596763858328 -8.371349528838608e-17 -1.091091336757482e-16 -8.371349528838608e-17 -1.091091336757482e-16 0.35306973456643087 0.935597008616958
12646909333.333334 0.36427327188763164 0.9312921042229928 -8.500989979848303e-17 -1.0806797092242263e-16 -8.500989979848303e-17 -1.0806797092242263e-16 0.3642726263197621 0.9312923567354742
12647526666.666666 0.3754236925910071 0.9268533061068206 -8.629337222518623e-17 -1.0701141814487717e-16 -8.629337222518623e-17 -1.0701141814487717e-16 0.37542305013144606 0.9268535663360271
12648144000.0 0.38652003921143246 0.9222810088513175 -8.75637300342097e-17 -1.0593963576862432e-16 -8.75637300342097e-17 -1.0593963576862432e-16 0.38651939995240864 0.922281276759016
12648761333.333334 0.39756071348878846 0.9175758710265309 -8.882079267900266e-17 -1.0485278638210655e-16 -8.882079267900266e-17 -1.0485278638210655e-16 0.3975600775220607 0.9175761465733862
12649378666.666666 0.4085441251815826 0.9127385703362302 -9.006438162634233e-17 -1.037510347121058e-16 -9.006438162634233e-17 -1.037510347121058e-16 0.40854349259842654 0.9127388534818108
12649996000.0 0.4194686922962873 0.9077698035201726 -9.129432038167e-17 -1.0263454759880947e-16 -9.129432038167e-17 -1.0263454759880947e-16 0.41946806318748214 0.9077700942229552
12650613333.333334 0.43033284131504296 0.9026702862538086 -9.25104345140509e-17 -1.0150349397063567e-16 -9.25104345140509e-17 -1.0150349397063567e-16 0.4303322157708588 0.9026705844711869
12651230666.666666 0.4411350074221207 0.8974407530452896 -9.371255168086497e-17 -1.00358044818728e-16 -9.371255168086497e-17 -1.00358044818728e-16 0.44113438553230544 0.8974410587335786
12651848000.0 0.4518736347297219 0.8920819571294789 -9.490050165219055e-17 -9.91983731711503e-17 -9.490050165219055e-17 -9.91983731711503e-17 0.45187301658348833 0.8920822702439218
12652465333.333334 0.46254717650177035 0.8865946703596024 -9.607411633483225e-17 -9.802465406682772e-17 -9.607411633483225e-17 -9.802465406682772e-17 0.46254656218778345 0.8865949908543775
12653082666.666666 0.47315409537662345 0.8809796830961198 -9.723322979603825e-17 -9.683706452919866e-17 -9.723322979603825e-17 -9.683706452919866e-17 0.473153484982988 0.8809800109243481
12653700000.0 0.48369286358890945 0.8752378040926776 -9.837767828694827e-17 -9.563578353952689e-17 -9.837767828694827e-17 -9.563578353952689e-17 0.4836922572031561 0.8752381392064259
12654317333.333334 0.49416196318914785 0.8693698603798364 -9.950730026560785e-17 -9.442099201004756e-17 -9.950730026560785e-17 -9.442099201004756e-17 0.4941613608982228 0.8693702027301298
12654934666.666666 0.5045598862625701 0.8633766971458717 -1.0062193641975692e-16 -9.319287275673207e-17 -1.0062193641975692e-16 -9.319287275673207e-17 0.5045592881528194 0.863377046682694
12655552000.0 0.5148851351464494 0.857259177614934 -1.0172142968922632e-16 -9.195161047184433e-17 -1.0172142968922632e-16 -9.195161047184433e-17 0.5148845413036107 0.8572595342872433
12656169333.333334 0.5251362226455302 0.8510181829228999 -1.0280562528798997e-16 -9.069739169624284e-17 -1.0280562528798997e-16 -9.069739169624284e-17 0.5251356331547169 0.851018546678629
12656786666.666666 0.5353116722464032 0.8446546119903507 -1.038743707259098e-16 -8.943040479138597e-17 -1.038743707259098e-16 -8.943040479138597e-17 0.5353110871920935 0.8446549827764174
12657404000.0 0.5454100183301994 0.8381693813930831 -1.0492751583012352e-16 -8.815083991109633e-17 -1.0492751583012352e-16 -8.815083991109633e-17 0.5454094377962246 0.8381697591553978
12658021333.333334 0.5554298063836639 0.8315634252301002 -1.0596491276608028e-16 -8.685888897308016e-17 -1.0596491276608028e-16 -8.685888897308016e-17 0.5554292304531968 0.8315638099135751
12658638666.666666 0.5653695932084711 0.8248376949892015 -1.069864160582101e-16 -8.555474563022182e-17 -1.069864160582101e-16 -8.555474563022182e-17 0.5653690219640123 0.8248380865377563
12659256000.0 0.5752279471294698 0.8179931594096782 -1.0799188261029862e-16 -8.423860524156282e-17 -1.0799188261029862e-16 -8.423860524156282e-17 0.5752273806528375 0.8179935577662496
12659873333.333334 0.585003448200611 0.8110308043429699 -1.0898117172543829e-16 -8.291066484312807e-17 -1.0898117172543829e-16 -8.291066484312807e-17 0.5850028865729293 0.8110312094495203
12660490666.666666 0.5946946884094061 0.8039516326107253 -1.0995414512564376e-16 -8.157112311849155e-17 -1.0995414512564376e-16 -8.157112311849155e-17 0.5946941317110911 0.8039520444082485
12661108000.0 0.6043002718800924 0.7967566638600884 -1.1091066697115026e-16 -8.022018036905357e-17 -1.1091066697115026e-16 -8.022018036905357e-17 0.6042997201908442 0.7967570822886225
12661725333.333334 0.6138188150743019 0.7894469344171217 -1.1185060387926933e-16 -7.885803848419913e-17 -1.1185060387926933e-16 -7.885803848419913e-17 0.6138182684730904 0.7894473594157547
12662342666.666666 0.6232489469905207 0.7820234971374054 -1.1277382494294956e-16 -7.7484900911139e-17 -1.1277382494294956e-16 -7.7484900911139e-17 0.6232484055555763 0.7820239286442859
12662960000.0 0.6325893093615838 0.7744874212543706 -1.13680201748918e-16 -7.610097262460389e-17 -1.13680201748918e-16 -7.610097262460389e-17 0.6325887731703836 0.7744878592067144
12663577333.333334 0.6418385568502651 0.7668397922253252 -1.14569608395487e-16 -7.470646009627715e-17 -1.14569608395487e-16 -7.470646009627715e-17 0.6418380259795249 0.7668402365594268
12664194666.666666 0.6509953572429896 0.7590817115751662 -1.1544192150996387e-16 -7.3301571264052e-17 -1.1544192150996387e-16 -7.3301571264052e-17 0.6509948317686506 0.7590821622264069
12664812000.0 0.6600583916418487 0.7512142967376129 -1.1629702026568525e-16 -7.188651550108693e-17 -1.1629702026568525e-16 -7.188651550108693e-17 0.6600578716390683 0.7512147536404712
12665429333.333334 0.6690263546545244 0.7432386808942941 -1.1713478639869374e-16 -7.046150358463093e-17 -1.1713478639869374e-16 -7.046150358463093e-17 0.6690258401976634 0.7432391439823532
12666046666.666666 0.6778979545821383 0.7351560128116783 -1.1795510422400072e-16 -6.902674766470832e-17 -1.1795510422400072e-16 -6.902674766470832e-17 0.6778974457447532 0.7351564820176387
12666664000.0 0.686671913605686 0.7269674566752743 -1.1875786065150937e-16 -6.758246123254168e-17 -1.1875786065150937e-16 -6.758246123254168e-17 0.6866714104605154 0.7269679319309605
12667281333.333334 0.6953469679696224 0.718674191922365 -1.1954294520149317e-16 -6.612885908889589e-17 -1.1954294520149317e-16 -6.612885908889589e-17 0.6953464705885781 0.7186746731587375
12667898666.666666 0.7039218681642434 0.7102774130718036 -1.2031025001975163e-16 -6.466615731212804e-17 -1.2031025001975163e-16 -6.466615731212804e-17 0.7039213766184008 0.7102779002189683
12668516000.0 0.712395379105591 0.7017783295520117 -1.21059669892339e-16 -6.319457322612691e-17 -1.21059669892339e-16 -6.319457322612691e-17 0.7123948934651783 0.7017788225392301
12669133333.333334 0.7207662803131112 0.6931781655270258 -1.2179110225988827e-16 -6.171432536811518e-17 -1.2179110225988827e-16 -6.171432536811518e-17 0.720765800647498 0.6931786642827246
12669750666.666666 0.7290333660857636 0.6844781597198497 -1.225044472315901e-16 -6.022563345618987e-17 -1.225044472315901e-16 -6.022563345618987e-17 0.7290328924634532 0.6844786641716325
