! Parameters = {f0=12700.012000; bw=77.238000; Q=6100.000000; N=10; m_0_1=1.273168; m_1_1=0.332777; m_1_2=1.107980; m_2_2=0.332128; m_2_3=0.744943; m_2_8=0.000722; m_2_9=0.037426; m_3_3=0.330191; m_3_4=0.633472; m_3_7=0.001322; m_3_8=-0.095766; m_3_9=0.000722; m_4_4=0.327266; m_4_5=0.469807; m_4_6=0.004839; m_4_7=-0.116315; m_4_8=0.001322; m_5_5=0.327648; m_5_6=0.877162; m_5_7=0.004839; m_6_6=0.327647; m_6_7=0.470149; m_7_7=0.327280; m_7_8=0.633590; m_8_8=0.330189; m_8_9=0.745256; m_9_9=0.332123; m_9_10=1.109058; m_10_10=0.332767; m_10_11=1.273963}
!
! Created with skrf (http://scikit-rf.org).
# Hz S RI R 50.0 
!freq ReS11 ImS11 ReS21 ImS21 ReS12 ImS12 ReS22 ImS22
12607400000.0 0.4103309147941834 -0.9119366975640307 -1.5088344132049106e-17 1.1124599425286502e-16 -1.5088344132049106e-17 1.1124599425286502e-16 0.4103315264983388 -0.9119364223241473
12608017333.333334 0.4006262991791317 -0.9162415447936505 -1.389385984769265e-17 1.1137932625817365e-16 -1.389385984769265e-17 1.1137932625817365e-16 0.4006269137407818 -0.9162412760765359
12608634666.666666 0.3908765284659084 -0.9204431212705443 -1.26982509801253e-17 1.1149984102634577e-16 -1.26982509801253e-17 1.1149984102634577e-16 0.39087714581550875 -0.9204428591058459
12609252000.0 0.38108270156362256 -0.9245409534297504 -1.1501654973850005e-17 1.1160752976722345e-16 -1.1501654973850005e-17 1.1160752976722345e-16 0.3810833216313214 -0.9245406978463744
12609869333.333334 0.3712459223470113 -0.9285345793994637 -1.0304209332633419e-17 1.117023851635723e-16 -1.0304209332633419e-17 1.117023851635723e-16 0.3712465450626571 -0.9285343304255707
12610486666.666666 0.36136729953204605 -0.9324235490530783 -9.106051603750564e-18 1.1178440137134168e-16 -9.106051603750564e-18 1.1178440137134168e-16 0.36136792482519603 -0.9324233067160825
12611104000.0 0.351447946550837 -0.9362074240599794 -7.907319362176649e-18 1.118535740197596e-16 -7.907319362176649e-18 1.118535740197596e-16 0.35144857435076476 -0.9362071883865435
12611721333.333334 0.34148898142640083 -0.9398857779348415 -6.7081501948645495e-18 1.1190990021125332e-16 -6.7081501948645495e-18 1.1190990021125332e-16 0.3414896116621041 -0.939885548950875
12612338666.666666 0.3314915266464082 -0.9434581960857916 -5.5086816849348495e-18 1.1195337852120702e-16 -5.5086816849348495e-18 1.1195337852120702e-16 0.33149215924661757 -0.9434579738164479
12612956000.0 0.3214567090366662 -0.9469242758611369 -4.309051395936156e-18 1.1198400899754728e-16 -4.309051395936156e-18 1.1198400899754728e-16 0.32145734392985265 -0.9469240603308098
12613573333.333334 0.3113856596343807 -0.950283626594652 -3.109396856110616e-18 1.1200179316016039e-16 -3.109396856110616e-18 1.1200179316016039e-16 0.3113862967487634 -0.9502834178269729
12614190666.666666 0.3012795135602992 -0.9535358696497436 -1.909855542628279e-18 1.1200673400014337e-16 -1.909855542628279e-18 1.1200673400014337e-16 0.3012801528238543 -0.9535356676675797
12614808000.0 0.291139409891066 -0.9566806384620239 -7.105648658621086e-19 1.1199883597888456e-16 -7.105648658621086e-19 1.1199883597888456e-16 0.29114005123153464 -0.9566804432874763
12615425333.333334 0.28096649153070086 -0.9597175785806736 4.883378463104593e-19 1.1197810502697704e-16 4.883378463104593e-19 1.1197810502697704e-16 0.280967134875597 -0.9597173902350734
12616042666.666666 0.2707619050818082 -0.9626463477083846 1.686715364219006e-18 1.119445485429644e-16 1.686715364219006e-18 1.119445485429644e-16 0.27076255035842706 -0.9626461662122913
12616660000.0 0.2605268007163688 -0.9654666157399315 2.8844305720783164e-18 1.1189817539191856e-16 2.8844305720783164e-18 1.1189817539191856e-16 0.26052744785179477 -0.96546644111313
12617277333.333334 0.2502623320459651 -0.9681780647994135 4.081346483653743e-18 1.1183899590384997e-16 4.081346483653743e-18 1.1183899590384997e-16 0.2502629809670808 -0.9681778970609137
12617894666.666666 0.23996965599205944 -0.970780389276007 5.27732625788337e-18 1.1176702187195242e-16 5.27732625788337e-18 1.1176702187195242e-16 0.23997030662555258 -0.9707802284440393
12618512000.0 0.22964993265518174 -0.973273295858513 6.472233214544115e-18 1.116822665506762e-16 6.472233214544115e-18 1.116822665506762e-16 0.22965058492755483 -0.9732731419505289
12619129333.333334 0.21930432518458826 -0.9756565035683182 7.665930849782173e-18 1.1158474465364225e-16 7.665930849782173e-18 1.1158474465364225e-16 0.21930497902216595 -0.9756563566009859
12619746666.666666 0.20893399964688356 -0.9779297437911258 8.858282851725093e-18 1.114744723513825e-16 8.858282851725093e-18 1.114744723513825e-16 0.20893465497582184 -0.9779296037803319
12620364000.0 0.1985401248945939 -0.9800927603072388 1.0049153116014971e-17 1.1135146726891802e-16 1.0049153116014971e-17 1.1135146726891802e-16 0.19854078164088704 -0.9800926272680807
12620981333.333334 0.18812387243469875 -0.9821453093203653 1.1238405761302323e-17 1.112157484831722e-16 1.1238405761302323e-17 1.112157484831722e-16 0.18812453052418934 -0.9821451832671567
12621598666.666666 0.1776864162962025 -0.9840871594851928 1.242590514473685e-17 1.1106733652021608e-16 1.242590514473685e-17 1.1106733652021608e-16 0.17768707565458858 -0.9840870404314569
12622216000.0 0.16722893289811278 -0.9859180919333926 1.3611515877409019e-17 1.109062533523508e-16 1.3611515877409019e-17 1.109062533523508e-16 0.16722959345095667 -0.9859179798918625
12622833333.333334 0.15675260091667773 -0.9876379002983231 1.4795102839762788e-17 1.1073252239502395e-16 1.4795102839762788e-17 1.1073252239502395e-16 0.15675326258941452 -0.9876377952809409
12623450666.666666 0.14625860115267592 -0.9892463907382655 1.5976531196955753e-17 1.1054616850358487e-16 1.5976531196955753e-17 1.1054616850358487e-16 0.14625926387062183 -0.9892462927561807
12624068000.0 0.13574811639821535 -0.990743381958295 1.715566641420589e-17 1.1034721796987238e-16 1.715566641420589e-17 1.1034721796987238e-16 0.13574878008657595 -0.9907432910218618
12624685333.333334 0.12522233130327742 -0.9921287052307256 1.833237427210086e-17 1.1013569851863841e-16 1.833237427210086e-17 1.1013569851863841e-16 0.12522299588715635 -0.9921286213495045
12625302666.666666 0.11468243224264467 -0.9934022044140702 1.9506520881799582e-17 1.0991163930381966e-16 1.9506520881799582e-17 1.0991163930381966e-16 0.11468309764705197 -0.9934021275968257
12625920000.0 0.10412960718164754 -0.9945637359707109 2.0677972700299462e-17 1.0967507090462912e-16 2.0677972700299462e-17 1.0967507090462912e-16 0.10413027333150808 -0.9945636662254103
12626537333.333334 0.09356504554269031 -0.9956131689830231 2.1846596545551776e-17 1.0942602532150393e-16 2.1846596545551776e-17 1.0942602532150393e-16 0.09356571236285213 -0.9956131063168339
12627154666.666666 0.0829899380710205 -0.9965503851681514 2.3012259611592423e-17 1.0916453597188172e-16 2.3012259611592423e-17 1.0916453597188172e-16 0.0829906054862637 -0.9965503295874459
12627772000.0 0.07240547670034869 -0.9973752788913596 2.417482948363872e-17 1.0889063768581085e-16 2.417482948363872e-17 1.0889063768581085e-16 0.07240614463539355 -0.9973752304017088
12628389333.333334 0.06181285441892886 -0.998087757177898 2.5334174153042894e-17 1.0860436670142254e-16 2.5334174153042894e-17 1.0860436670142254e-16 0.06181352279844438 -0.9980877157840736
12629006666.666666 0.05121326513455659 -0.9986877397235238 2.649016203231368e-17 1.083057606602152e-16 2.649016203231368e-17 1.083057606602152e-16 0.0512139338831691 -0.9986877054294969
12629624000.0 0.04060790354048423 -0.999175158903517 2.7642661969985034e-17 1.0799485860220353e-16 2.7642661969985034e-17 1.0799485860220353e-16 0.04060857258278587 -0.9991751317124603
12630241333.333334 0.029997964980482114 -0.9995499597803266 2.8791543265500036e-17 1.076717009608923e-16 2.8791543265500036e-17 1.076717009608923e-16 0.029998634241039202 -0.9995499396946087
12630858666.666666 0.019384645314308228 -0.999812100109746 2.993667568396961e-17 1.0733632955810886e-16 2.993667568396961e-17 1.0733632955810886e-16 0.019385314717669928 -0.999812087130937
12631476000.0 0.008769140782609154 -0.9999615503456911 3.1077929470954946e-17 1.0698878759865759e-16 3.1077929470954946e-17 1.0698878759865759e-16 0.008769810253315882 -0.9999615444745582
12632093333.333334 -0.0018473521275405983 -0.9999982936435137 3.2215175367100486e-17 1.0662911966484187e-16 3.2215175367100486e-17 1.0662911966484187e-16 -0.0018466826649486193 -0.9999982948800253
12632710666.666666 -0.012463636817638098 -0.9999223258619148 3.3348284622765584e-17 1.0625737171081392e-16 3.3348284622765584e-17 1.0625737171081392e-16 -0.01246296743861237 -0.999922334205236
12633328000.0 -0.023078516712877976 -0.9997336555633989 3.4477129012585505e-17 1.0587359105676961e-16 3.4477129012585505e-17 1.0587359105676961e-16 -0.023077847492853198 -0.9997336710118949
12633945333.333334 -0.03369079539659357 -0.9994323040133175 3.5601580849940045e-17 1.0547782638299983e-16 3.5601580849940045e-17 1.0547782638299983e-16 -0.03369012641097917 -0.999432326564553
12634562666.666666 -0.04429927674536236 -0.9990183051774681 3.672151300136637e-17 1.0507012772378257e-16 3.672151300136637e-17 1.0507012772378257e-16 -0.044298608069533986 -0.999018334828208
12635180000.0 -0.05490276506376577 -0.9984917057182684 3.783679890091529e-17 1.0465054646111975e-16 3.783679890091529e-17 1.0465054646111975e-16 -0.0549020967730567 -0.9984917424644757
12635797333.333334 -0.0655000652191857 -0.9978525649894908 3.8947312564427595e-17 1.0421913531832436e-16 3.8947312564427595e-17 1.0421913531832436e-16 -0.06549939738887861 -0.9978526088263324
12636414666.666666 -0.07608998277636786 -0.9971009550295871 4.005292860372365e-17 1.0377594835346258e-16 4.005292860372365e-17 1.0377594835346258e-16 -0.07608931548168607 -0.997101005951429
12637032000.0 -0.08667132413233167 -0.9962369605535483 4.115352224076332e-17 1.0332104095262809e-16 4.115352224076332e-17 1.0332104095262809e-16 -0.08667065744843078 -0.9962370185539585
12637649333.333334 -0.09724289665061887 -0.9952606789433713 4.224896932167155e-17 1.028544698230904e-16 4.224896932167155e-17 1.028544698230904e-16 -0.09724223065257834 -0.9952607440151219
12638266666.666666 -0.10780350879585929 -0.9941722202370795 4.3339146330731105e-17 1.0237629298627646e-16 4.3339146330731105e-17 1.0237629298627646e-16 -0.10780284355867398 -0.994172292372146
12638884000.0 -0.11835197026804173 -0.9929717071163189 4.442393040427928e-17 1.0188656977061232e-16 4.442393040427928e-17 1.0188656977061232e-16 -0.11835130586661333 -0.9929717863058806
12639501333.333334 -0.1288870921367023 -0.9916592748925249 4.550319934452725e-17 1.0138536080421627e-16 4.550319934452725e-17 1.0138536080421627e-16 -0.1288864286458311 -0.9916593611269683
12640118666.666666 -0.13940768697473338 -0.9902350714917029 4.657683163329223e-17 1.0087272800744884e-16 4.657683163329223e-17 1.0087272800744884e-16 -0.1394070244691096 -0.99023516476062
12640736000.0 -0.14991256899278305 -0.9886992574376742 4.7644706445680226e-17 1.003487345853007e-16 4.7644706445680226e-17 1.003487345853007e-16 -0.14991190754697864 -0.9886993577298658
12641353333.333334 -0.16040055417206198 -0.987052005834099 4.870670366359929e-17 9.981344501967882e-17 4.870670366359929e-17 9.981344501967882e-17 -0.16039989386052242 -0.9870521131375772
12641970666.666666 -0.17087046039850037 -0.9852935023448743 4.9762703889299734e-17 9.926692506149312e-17 4.9762703889299734e-17 9.926692506149312e-17 -0.17086980129553558 -0.9852936166468592
12642588000.0 -0.18132110759567463 -0.9834239451732407 5.0812588458738745e-17 9.870924172264434e-17 5.0812588458738745e-17 9.870924172264434e-17 -0.18132044977545142 -0.9834240664601673
12643205333.333334 -0.19175131785781702 -0.9814435450394561 5.1856239454901113e-17 9.814046326784834e-17 5.1856239454901113e-17 9.814046326784834e-17 -0.19175066139435004 -0.9814436732969714
12643822666.666666 -0.2021599155828011 -0.9793525251569928 5.2893539721009084e-17 9.756065920632916e-17 5.2893539721009084e-17 9.756065920632916e-17 -0.20215926054994543 -0.979352660369962
12644440000.0 -0.21254572760433915 -0.9771511212074445 5.3924372873643504e-17 9.696990028337285e-17 5.3924372873643504e-17 9.696990028337285e-17 -0.2125450740757808 -0.9771512633599485
12645057333.333334 -0.22290758332435007 -0.9748395813139317 5.4948623315773394e-17 9.636825847174043e-17 5.4948623315773394e-17 9.636825847174043e-17 -0.22290693137359885 -0.9748397303892722
12645674666.666666 -0.2332443148448724 -0.9724181660131458 5.596617624968834e-17 9.57558069629461e-17 5.596617624968834e-17 9.57558069629461e-17 -0.23324366454525272 -0.9724183219938448
12646292000.0 -0.24355475709989216 -0.9698871482259346 5.697691768986588e-17 9.513262015837868e-17 5.697691768986588e-17 9.513262015837868e-17 -0.2435541085245354 -0.9698873110937383
12646909333.333334 -0.25383774798630004 -0.9672468132266278 5.798073447566067e-17 9.449877366033798e-17 5.798073447566067e-17 9.449877366033798e-17 -0.2538371012081361 -0.9672469829625076
12647526666.666666 -0.26409212849512226 -0.9644974586108247 5.897751428398249e-17 9.385434426288205e-17 5.897751428398249e-17 9.385434426288205e-17 -0.2640914835868711 -0.9644976351949798
12648144000.0 -0.2743167428422353 -0.9616393942618252 5.996714564182792e-17 9.319940994257014e-17 5.996714564182792e-17 9.319940994257014e-17 -0.27431609987639965 -0.9616395776736857
12648761333.333334 -0.284510438598362 -0.9586729423157789 6.094951793871808e-17 9.25340498490689e-17 6.094951793871808e-17 9.25340498490689e-17 -0.2845097976472177 -0.958673132534005
12649378666.666666 -0.2946720668190719 -0.9555984371253436 6.192452143901624e-17 9.185834429563766e-17 6.192452143901624e-17 9.185834429563766e-17 -0.29467142795466195 -0.955598634127835
12649996000.0 -0.30480048217439254 -0.9524162252219777 6.289204729418074e-17 9.117237474945884e-17 6.289204729418074e-17 9.117237474945884e-17 -0.3047998454685165 -0.9524164289858671
12650613333.333334 -0.3148945430778156 -0.9491266652768944 6.385198755487656e-17 9.047622382186219e-17 6.385198755487656e-17 9.047622382186219e-17 -0.3148939086020231 -0.9491268757785565
12651230666.666666 -0.3249531118148327 -0.945730128060685 6.480423518298016e-17 8.976997525842245e-17 6.480423518298016e-17 8.976997525842245e-17 -0.3249524796404157 -0.945730345275739
12651848000.0 -0.33497505467154765 -0.9422269964014062 6.574868406350789e-17 8.905371392890662e-17 6.574868406350789e-17 8.905371392890662e-17 -0.33497442486953116 -0.9422272203047152
12652465333.333334 -0.34495924206205303 -0.9386176651415623 6.66852290163986e-17 8.832752581712264e-17 6.66852290163986e-17 8.832752581712264e-17 -0.3449586147031875 -0.9386178957072372
12653082666.666666 -0.35490454865585525 -0.9349025410935663 6.761376580818224e-17 8.759149801064629e-17 6.761376580818224e-17 8.759149801064629e-17 -0.3549039238106094 -0.9349027782949716
12653700000.0 -0.36480985350495393 -0.9310820429938051 6.85341911635856e-17 8.684571869038792e-17 6.85341911635856e-17 8.684571869038792e-17 -0.3648092312435063 -0.9310822868035595
12654317333.333334 -0.37467404016981043 -0.9271566014555764 6.944640277695136e-17 8.60902771200934e-17 6.944640277695136e-17 8.60902771200934e-17 -0.37467342056204156 -0.9271568518455569
12654934666.666666 -0.3844959968454247 -0.9231266589204679 7.035029932360122e-17 8.532526363567876e-17 7.035029932360122e-17 8.532526363567876e-17 -0.3844953799609088 -0.9231269158618115
12655552000.0 -0.3942746164867507 -0.918992669608441 7.124578047106948e-17 8.455076963445549e-17 7.124578047106948e-17 8.455076963445549e-17 -0.39427400239474847 -0.9189929330715496
12656169333.333334 -0.4040087969330789 -0.9147550994667969 7.213274689017304e-17 8.376688756427696e-17 7.213274689017304e-17 8.376688756427696e-17 -0.4040081857025299 -0.9147553694213412
12656786666.666666 -0.41369744103263156 -0.9104144261175108 7.301110026603187e-17 8.29737109125104e-17 7.301110026603187e-17 8.29737109125104e-17 -0.4136968327321456 -0.9104147025324313
12657404000.0 -0.42333945676606405 -0.9059711388034595 7.38807433089209e-17 8.217133419493405e-17 7.38807433089209e-17 8.217133419493405e-17 -0.42333885146391453 -0.9059714216469732
12658021333.333334 -0.43293375736960255 -0.9014257383332595 7.474157976501956e-17 8.135985294450509e-17 7.474157976501956e-17 8.135985294450509e-17 -0.432933155133718 -0.9014260275728609
12658638666.666666 -0.44247926145737865 -0.8967787370248906 7.559351442701987e-17 8.053936370003237e-17 7.559351442701987e-17 8.053936370003237e-17 -0.44247866235533523 -0.8967790326273567
12659256000.0 -0.4519748931436721 -0.8920306586477791 7.643645314465626e-17 7.97099639946949e-17 7.643645314465626e-17 7.97099639946949e-17 -0.45197429724268673 -0.8920309605791737
12659873333.333334 -0.46141958216379303 -0.8871820383639508 7.727030283504398e-17 7.887175234451397e-17 7.727030283504398e-17 7.887175234451397e-17 -0.4614189895307151 -0.8871823465896275
12660490666.666666 -0.4708122639948148 -0.8822334226676636 7.809497149293511e-17 7.80248282366762e-17 7.809497149293511e-17 7.80248282366762e-17 -0.47081167469611873 -0.8822337371522696
12661108000.0 -0.48015187997578557 -0.8771853693236932 7.8910368200855e-17 7.716929211774061e-17 7.8910368200855e-17 7.716929211774061e-17 -0.48015129407756324 -0.8771856900311732
12661725333.333334 -0.48943737742669646 -0.8720384473046485 7.971640313907061e-17 7.630524538178006e-17 7.971640313907061e-17 7.630524538178006e-17 -0.4894367949946508 -0.872038774198251
12662342666.666666 -0.49866770976738556 -0.8667932367267154 8.051298759546258e-17 7.543279035838614e-17 8.051298759546258e-17 7.543279035838614e-17 -0.4986671308668218 -0.866793569768994
12662960000.0 -0.5078418366354692 -0.8614503287842759 8.130003397525292e-17 7.455203030058431e-17 8.130003397525292e-17 7.455203030058431e-17 -0.5078412613312892 -0.8614506679370962
12663577333.333334 -0.5169587240034832 -0.8560103256833503 8.207745581060357e-17 7.366306937264613e-17 8.207745581060357e-17 7.366306937264613e-17 -0.5169581523601753 -0.8560106709078908
12664194666.666666 -0.5260173442955228 -0.8504738405736587 8.284516777007976e-17 7.276601263780397e-17 8.284516777007976e-17 7.276601263780397e-17 -0.5260167763771587 -0.8504741918304202
12664812000.0 -0.5350166765030439 -0.8448414974795341 8.360308566799026e-17 7.186096604585628e-17 8.360308566799026e-17 7.186096604585628e-17 -0.5350161123732674 -0.8448418547283386
12665429333.333334 -0.5439557062999604 -0.839113931229566 8.435112647357342e-17 7.094803642069648e-17 8.435112647357342e-17 7.094803642069648e-17 -0.543955146021983 -0.8391142944295656
12666046666.666666 -0.5528334261568297 -0.8332917873851428 8.508920832005677e-17 7.002733144773823e-17 8.508920832005677e-17 7.002733144773823e-17 -0.5528328697934226 -0.8332921564948228
12666664000.0 -0.5616488354547706 -0.8273757221674589 8.581725051360082e-17 6.909895966121978e-17 8.581725051360082e-17 6.909895966121978e-17 -0.5616482830682582 -0.8273760971446432
12667281333.333334 -0.570400940597767 -0.821366402383861 8.653517354205601e-17 6.816303043147682e-17 8.653517354205601e-17 6.816303043147682e-17 -0.5704003922500182 -0.8213667831857149
12667898666.666666 -0.5790887551249913 -0.815264505352473 8.724289908363745e-17 6.721965395205369e-17 8.724289908363745e-17 6.721965395205369e-17 -0.5790882108774142 -0.8152648919355103
12668516000.0 -0.5877112998219621 -0.8090707188258665 8.79403500154207e-17 6.62689412267741e-17 8.79403500154207e-17 6.62689412267741e-17 -0.5877107597354976 -0.809071111145954
12669133333.333334 -0.5962676028307062 -0.8027857409136933 8.86274504217004e-17 6.531100405672263e-17 8.86274504217004e-17 6.531100405672263e-17 -0.5962670669658195 -0.802786138926055
12669750666.666666 -0.6047566997595067 -0.7964102800038527 8.930412560223228e-17 6.434595502710423e-17 8.930412560223228e-17 6.434595502710423e-17 -0.6047561681761812 -0.7964106836630751
12670368000.0 -0.6131776337915966 -0.7899450546826428 8.997030208030929e-17 6.337390749405192e-17 8.997030208030929e-17 6.337390749405192e-17 -0.6131771065493279 -0.7899454639426816
