! Parameters = {f0=12700.012000; bw=77.238000; Q=6100.000000; N=10; m_0_1=1.286982; m_1_1=0.539984; m_1_2=1.121794; m_2_2=0.539335; m_2_3=0.758757; m_2_8=0.001413; m_2_9=0.038117; m_3_3=0.537398; m_3_4=0.647286; m_3_7=0.002013; m_3_8=-0.095075; m_3_9=0.001413; m_4_4=0.534473; m_4_5=0.483621; m_4_6=0.005530; m_4_7=-0.115624; m_4_8=0.002013; m_5_5=0.534855; m_5_6=0.890976; m_5_7=0.005530; m_6_6=0.534854; m_6_7=0.483963; m_7_7=0.534487; m_7_8=0.647404; m_8_8=0.537396; m_8_9=0.759070; m_9_9=0.539330; m_9_10=1.122872; m_10_10=0.539974; m_10_11=1.287777}
!
! Created with skrf (http://scikit-rf.org).
# Hz S RI R 50.0 
!freq ReS11 ImS11 ReS21 ImS21 ReS12 ImS12 ReS22 ImS22
12607400000.0 -0.997645519456747 0.0685814662113343 1.1220805744195718e-16 -4.1806102340961624e-17 1.1220805744195718e-16 -4.1806102340961624e-17 -0.9976455659566199 0.0685807897804757
12608017333.333334 -0.9968287941649739 0.07957609643244265 1.1171463791632023e-16 -4.3042107626038817e-17 1.1171463791632023e-16 -4.3042107626038817e-17 -0.9968288481168631 0.07957542058843384
12608634666.666666 -0.9958909053962237 0.09056105426124614 1.1120761296668986e-16 -4.4272312468868694e-17 1.1120761296668986e-16 -4.4272312468868694e-17 -0.9958909667928451 0.09056037908617402
12609252000.0 -0.994831967149967 0.10153500448784049 1.106870505375131e-16 -4.549656721345468e-17 1.106870505375131e-16 -4.549656721345468e-17 -0.9948320359831272 0.10153433006370219
12609869333.333334 -0.9936521081391001 0.11249661324031311 1.1015302021821644e-16 -4.671472299711941e-17 1.1015302021821644e-16 -4.671472299711941e-17 -0.9936521843997052 0.11249593964900663
12610486666.666666 -0.9923514717743247 0.12344454814673325 1.0960559323397855e-16 -4.7926631768553925e-17 1.0960559323397855e-16 -4.7926631768553925e-17 -0.9923515554523782 0.12344387547004734
12611104000.0 -0.990930216146675 0.13437747849741047 1.0904484243627547e-16 -4.913214630582479e-17 1.0904484243627547e-16 -4.913214630582479e-17 -0.9909303072312815 0.1343768068170149
12611721333.333334 -0.9893885140083597 0.14529407540621847 1.0847084229327753e-16 -5.03311202341633e-17 1.0847084229327753e-16 -5.03311202341633e-17 -0.9893886124877221 0.14529340480365355
12612338666.666666 -0.987726552751708 0.15619301197251387 1.0788366888000322e-16 -5.152340804374862e-17 1.0788366888000322e-16 -5.152340804374862e-17 -0.9877266586131335 0.15619234252918118
12612956000.0 -0.9859445343864142 0.16707296344225028 1.0728339986829847e-16 -5.270886510733016e-17 1.0728339986829847e-16 -5.270886510733016e-17 -0.9859446476163135 0.1670722952394025
12613573333.333334 -0.9840426755150093 0.177932607368861 1.0667011451663625e-16 -5.3887347697710547e-17 1.0667011451663625e-16 -5.3887347697710547e-17 -0.9840427960988986 0.177931940487592
12614190666.666666 -0.9820212073064911 0.18877062377425313 1.0604389365969646e-16 -5.5058713005164977e-17 1.0604389365969646e-16 -5.5058713005164977e-17 -0.9820213352289953 0.1887699582954885
12614808000.0 -0.9798803754682501 0.19958569530910977 1.0540481969777042e-16 -5.622281915471019e-17 1.0540481969777042e-16 -5.622281915471019e-17 -0.979880510713102 0.19958503131359634
12615425333.333334 -0.9776204402162026 0.21037650741301195 1.0475297658598293e-16 -5.737952522323935e-17 1.0475297658598293e-16 -5.737952522323935e-17 -0.9776205827662486 0.21037584498130876
12616042666.666666 -0.9752416762431422 0.221141748474334 1.0408844982331223e-16 -5.852869125655976e-17 1.0408844982331223e-16 -5.852869125655976e-17 -0.9752418260803404 0.22114108768680177
12616660000.0 -0.972744372685381 0.23188010998950095 1.0341132644143175e-16 -5.96701782862893e-17 1.0341132644143175e-16 -5.96701782862893e-17 -0.9727445297908077 0.23187945092629306
12617277333.333334 -0.9701288330875815 0.24259028672217545 1.0272169499336356e-16 -6.080384834663047e-17 1.0272169499336356e-16 -6.080384834663047e-17 -0.9701289974414293 0.24258962946322743
12617894666.666666 -0.967395375365894 0.2532709768617408 1.0201964554196091e-16 -6.192956449099378e-17 1.0201964554196091e-16 -6.192956449099378e-17 -0.9673955469474786 0.2532703214867616
12618512000.0 -0.9645443317692448 0.26392088218183946 1.0130526964817145e-16 -6.304719080854965e-17 1.0130526964817145e-16 -6.304719080854965e-17 -0.9645445105570042 0.2639202287703008
12619129333.333334 -0.9615760488390542 0.27453870819775716 1.0057866035918302e-16 -6.415659244054489e-17 1.0057866035918302e-16 -6.415659244054489e-17 -0.9615762348105525 0.2745380568288845
12619746666.666666 -0.9584908873670124 0.28512316432415075 9.983991219632898e-17 -6.525763559658085e-17 9.983991219632898e-17 -6.525763559658085e-17 -0.9584910804989445 0.2851225150769139
12620364000.0 -0.9552892223512712 0.29567296403175297 9.908912114284366e-17 -6.635018757071003e-17 9.908912114284366e-17 -6.635018757071003e-17 -0.9552894226194623 0.29567231698485563
12620981333.333334 -0.9519714429509039 0.3061868250036127 9.832638463145905e-17 -6.743411675736744e-17 9.832638463145905e-17 -6.743411675736744e-17 -0.9519716503303146 0.3061861802354837
12621598666.666666 -0.9485379524385289 0.3166634692912038 9.755180153178237e-17 -6.850929266722751e-17 9.755180153178237e-17 -6.850929266722751e-17 -0.9485381669032587 0.3166628268799874
12622216000.0 -0.9449891681513367 0.3271016234696233 9.676547213754816e-17 -6.957558594284638e-17 9.676547213754816e-17 -6.957558594284638e-17 -0.9449893896746252 0.3271009834931694
12622833333.333334 -0.9413255214403411 0.33750001879242775 9.596749815366762e-17 -7.063286837420638e-17 9.596749815366762e-17 -7.063286837420638e-17 -0.9413257499945731 0.3374993813282827
12623450666.666666 -0.9375474576179994 0.3478573913457147 9.515798268313015e-17 -7.16810129140824e-17 9.515798268313015e-17 -7.16810129140824e-17 -0.937547693174708 0.34785675647111214
12624068000.0 -0.933655435903998 0.3581724822019909 9.433703021371947e-17 -7.271989369328304e-17 9.433703021371947e-17 -7.271989369328304e-17 -0.9336556784338684 0.3581718499938422
12624685333.333334 -0.9296499293694815 0.368444037573059 9.350474660456085e-17 -7.374938603574252e-17 9.350474660456085e-17 -7.374938603574252e-17 -0.9296501788423546 0.36844340810794407
12625302666.666666 -0.925531424879615 0.3786708089622564 9.266123907254965e-17 -7.47693664734043e-17 9.266123907254965e-17 -7.47693664734043e-17 -0.9255316812644894 0.3786701823164138
12625920000.0 -0.9213004230342591 0.3888515533165781 9.180661617854272e-17 -7.577971276104189e-17 9.180661617854272e-17 -7.577971276104189e-17 -0.9213006862992976 0.38885092956589673
12626537333.333334 -0.9169574381072711 0.3989850331773993 9.09409878134621e-17 -7.67803038908337e-17 9.09409878134621e-17 -7.67803038908337e-17 -0.9169577082198029 0.39898441239740856
12627154666.666666 -0.9125029979839454 0.4090700168310203 9.006446518419737e-17 -7.777102010683196e-17 9.006446518419737e-17 -7.777102010683196e-17 -0.9125032749104711 0.40906939909688145
12627772000.0 -0.9079376440967334 0.4191052784586394 8.91771607993389e-17 -7.875174291928342e-17 8.91771607993389e-17 -7.875174291928342e-17 -0.9079379278029276 0.4191046638451356
12628389333.333334 -0.903261931359661 0.42908959828482957 8.827918845482347e-17 -7.972235511871227e-17 8.827918845482347e-17 -7.972235511871227e-17 -0.9032622218103787 0.4290889868663577
12629006666.666666 -0.8984764281006585 0.4390217627262928 8.73706632193386e-17 -8.06827407899378e-17 8.73706632193386e-17 -8.06827407899378e-17 -0.898476725259939 0.4390211545768547
12629624000.0 -0.8935817159926284 0.4489005645390629 8.645170141964628e-17 -8.163278532584953e-17 8.645170141964628e-17 -8.163278532584953e-17 -0.8935820198236976 0.4488999597322548
12630241333.333334 -0.8885783899826615 0.4587248029653944 8.55224206257153e-17 -8.257237544105966e-17 8.55224206257153e-17 -8.257237544105966e-17 -0.8885787004479392 0.4587242015744
12630858666.666666 -0.8834670582198207 0.4684932838795402 8.458293963573678e-17 -8.350139918535573e-17 8.458293963573678e-17 -8.350139918535573e-17 -0.8834673752809231 0.4684926859771202
12631476000.0 -0.8782483419810181 0.478204819933271 8.363337846094149e-17 -8.441974595703586e-17 8.363337846094149e-17 -8.441974595703586e-17 -0.8782486655987639 0.47820422559175535
12632093333.333334 -0.872922875595753 0.48785823069972034 8.267385831035445e-17 -8.53273065159911e-17 8.267385831035445e-17 -8.53273065159911e-17 -0.8729232057301677 0.4878576399909988
12632710666.666666 -0.8674913063688782 0.497452342817115 8.170450157533852e-17 -8.622397299668369e-17 8.170450157533852e-17 -8.622397299668369e-17 -0.8674916429791999 0.49745175581262935
12633328000.0 -0.8619542945018643 0.5069859901314957 8.072543181401193e-17 -8.710963892093614e-17 8.072543181401193e-17 -8.710963892093614e-17 -0.8619546375465474 0.5069854069022302
12633945333.333334 -0.856312513012676 0.5164580138382362 7.973677373556228e-17 -8.798419921051139e-17 7.973677373556228e-17 -8.798419921051139e-17 -0.8563128624493969 0.5164574344547092
12634562666.666666 -0.8505666476539135 0.5258672626229968 7.873865318437792e-17 -8.884755019955928e-17 7.873865318437792e-17 -8.884755019955928e-17 -0.8505670034395761 0.5258666871552525
12635180000.0 -0.8447173968294148 0.5352125928017355 7.773119712408498e-17 -8.969958964684708e-17 7.773119712408498e-17 -8.969958964684708e-17 -0.844717758920156 0.5352120213193359
12635797333.333334 -0.8387654715094401 0.5444928684596023 7.671453362142265e-17 -9.05402167478369e-17 7.671453362142265e-17 -9.05402167478369e-17 -0.8387658398606339 0.5444923010316174
12636414666.666666 -0.8327115951442545 0.553706961589008 7.568879183001365e-17 -9.13693321465582e-17 7.568879183001365e-17 -9.13693321465582e-17 -0.8327119697105182 0.5537063982840082
12637032000.0 -0.8265565035761163 0.5628537522268519 7.465410197398165e-17 -9.218683794731946e-17 7.465410197398165e-17 -9.218683794731946e-17 -0.8265568843113172 0.5628531931129004
12637649333.333334 -0.820300944949898 0.5719321285905562 7.361059533145514e-17 -9.299263772622315e-17 7.361059533145514e-17 -9.299263772622315e-17 -0.8203013318071579 0.5719315737352001
12638266666.666666 -0.8139456796221356 0.5809409872132274 7.255840421796144e-17 -9.378663654248503e-17 7.255840421796144e-17 -9.378663654248503e-17 -0.813946072553837 0.5809404366834897
12638884000.0 -0.807491480068624 0.5898792330777572 7.149766196967502e-17 -9.456874094958399e-17 7.149766196967502e-17 -9.456874094958399e-17 -0.8074918790264151 0.5898786869401279
12639501333.333334 -0.8009391307904378 0.5987457797500345 7.04285029265572e-17 -9.533885900621523e-17 7.04285029265572e-17 -9.533885900621523e-17 -0.8009395357252398 0.5987452380704643
12640118666.666666 -0.7942894282187828 0.6075395495107291 6.935106241539764e-17 -9.609690028703975e-17 6.935106241539764e-17 -9.609690028703975e-17 -0.7942898390807938 0.6075390123546192
12640736000.0 -0.7875431806178438 0.616259473486737 6.826547673266636e-17 -9.68427758932946e-17 6.826547673266636e-17 -9.68427758932946e-17 -0.7875435973565488 0.6162589409189341
12641353333.333334 -0.7807012079869763 0.6249044917805409 6.717188312739043e-17 -9.757639846311378e-17 6.717188312739043e-17 -9.757639846311378e-17 -0.780701630551149 0.6249039638653261
12641970666.666666 -0.7737643419606709 0.6334735535995089 6.607041978376851e-17 -9.829768218176234e-17 6.607041978376851e-17 -9.829768218176234e-17 -0.7737647702983832 0.6334730304005926
12642588000.0 -0.7667334257076425 0.6419656173833946 6.496122580377527e-17 -9.900654279160474e-17 6.496122580377527e-17 -9.900654279160474e-17 -0.766733859766269 0.6419650989639073
12643205333.333334 -0.7596093138283465 0.6503796509309379 6.384444118963021e-17 -9.970289760190021e-17 6.384444118963021e-17 -9.970289760190021e-17 -0.7596097535545714 0.6503791373534231
12643822666.666666 -0.7523928722509556 0.658714631525502 6.272020682613827e-17 -1.0038666549841356e-16 6.272020682613827e-17 -1.0038666549841356e-16 -0.7523933175907803 0.6587141228519087
12644440000.0 -0.7450849781263075 0.6669695460591427 6.158866446298288e-17 -1.0105776695279397e-16 6.158866446298288e-17 -1.0105776695279397e-16 -0.7450854290250563 0.6669690423508184
12645057333.333334 -0.7376865197212022 0.6751433911558655 6.044995669687395e-17 -1.0171612403178385e-16 6.044995669687395e-17 -1.0171612403178385e-16 -0.7376869761235274 0.6751428924735463
12645674666.666666 -0.7301983963104454 0.6832351732935548 5.930422695361475e-17 -1.0236166040621534e-16 5.930422695361475e-17 -1.0236166040621534e-16 -0.7301988581603385 0.6832346796973625
12646292000.0 -0.7226215180674161 0.6912439089248915 5.815161947005067e-17 -1.0299430135981939e-16 5.815161947005067e-17 -1.0299430135981939e-16 -0.72262198530821 0.6912434204743223
12646909333.333334 -0.7149568059536802 0.699168624596623 5.6992279275983e-17 -1.0361397379779888e-16 5.6992279275983e-17 -1.0361397379779888e-16 -0.7149572785280586 0.699168141350542
12647526666.666666 -0.7072051916068772 0.7070083570680767 5.582635217592761e-17 -1.0422060625523448e-16 5.582635217592761e-17 -1.0422060625523448e-16 -0.7072056694568825 0.7070078790847121
12648144000.0 -0.6993676172274205 0.7147621534283003 5.465398473080256e-17 -1.0481412890527595e-16 5.465398473080256e-17 -1.0481412890527595e-16 -0.6993681002944577 0.7147616807652332
12648761333.333334 -0.69144503546417 0.7224290712116817 5.347532423956812e-17 -1.0539447356710766e-16 5.347532423956812e-17 -1.0539447356710766e-16 -0.6914455236890168 0.722428603925842
12649378666.666666 -0.6834384092985631 0.7300081785125895 5.229051872074141e-17 -1.0596157371373016e-16 5.229051872074141e-17 -1.0596157371373016e-16 -0.6834389026213761 0.7300077166602482
12649996000.0 -0.6753487119274829 0.7374985540987248 5.1099716893832214e-17 -1.0651536447953251e-16 5.1099716893832214e-17 -1.0651536447953251e-16 -0.6753492102878037 0.7374980977354855
12650613333.333334 -0.667176926645025 0.7448992875230311 4.9903068160705124e-17 -1.0705578266765279e-16 4.9903068160705124e-17 -1.0705578266765279e-16 -0.6671774299817901 0.7448988367038262
12651230666.666666 -0.6589240467230884 0.7522094792342688 4.870072258689877e-17 -1.0758276675711538e-16 4.870072258689877e-17 -1.0758276675711538e-16 -0.6589245549746349 0.7522090340133513
12651848000.0 -0.6505910752903464 0.7594282406866177 4.749283088279699e-17 -1.080962569097916e-16 4.749283088279699e-17 -1.080962569097916e-16 -0.6505915883944209 0.7594278011175548
12652465333.333334 -0.6421790252106361 0.7665546944473945 4.627954438480085e-17 -1.0859619497711636e-16 4.627954438480085e-17 -1.0859619497711636e-16 -0.6421795431044004 0.7665542605830612
12653082666.666666 -0.6336889189597618 0.7735879743037826 4.506101503640409e-17 -1.0908252450660759e-16 4.506101503640409e-17 -1.0908252450660759e-16 -0.6336894415798023 0.7735875461963555
12653700000.0 -0.6251217885010178 0.7805272253682819 4.383739536915331e-17 -1.0955519074819076e-16 4.383739536915331e-17 -1.0955519074819076e-16 -0.6251223157833534 0.7805268030692333
12654317333.333334 -0.6164786751600627 0.787371604182367 4.260883848364954e-17 -1.1001414066026948e-16 4.260883848364954e-17 -1.1001414066026948e-16 -0.6164792070401501 0.7873711877424571
12654934666.666666 -0.6077606294981466 0.79412027881917 4.1375498030380735e-17 -1.1045932291562459e-16 4.1375498030380735e-17 -1.1045932291562459e-16 -0.6077611659108909 0.7941198682884427
12655552000.0 -0.5989687111843274 0.8007724289846689 4.0137528190540553e-17 -1.1089068790708039e-16 4.0137528190540553e-17 -1.1089068790708039e-16 -0.5989692520640894 0.8007720244124445
12656169333.333334 -0.590103988867005 0.8073272461171311 3.8895083656814485e-17 -1.1130818775294777e-16 3.8895083656814485e-17 -1.1130818775294777e-16 -0.590104534147609 0.8073268475520016
12656786666.666666 -0.581167540043715 0.8137839334856378 3.764831961405375e-17 -1.11711776302273e-16 3.764831961405375e-17 -1.11711776302273e-16 -0.5811680896584569 0.8137835409754607
12657404000.0 -0.5721604509302942 0.8201417062868233 3.63973917199271e-17 -1.1210140913985852e-16 3.63973917199271e-17 -1.1210140913985852e-16 -0.5721610048119494 0.8201413198787144
12658021333.333334 -0.5630838163288067 0.8263997917402973 3.5142456085531744e-17 -1.124770435910653e-16 3.5142456085531744e-17 -1.124770435910653e-16 -0.5630843744096382 0.8263994114806266
12658638666.666666 -0.553938739494611 0.8325574291824808 3.388366925594633e-17 -1.128386387264017e-16 3.388366925594633e-17 -1.128386387264017e-16 -0.5539393017063786 0.8325570551168663
12659256000.0 -0.5447263320019342 0.8386138701592873 3.2621188190705725e-17 -1.131861553659044e-16 3.2621188190705725e-17 -1.131861553659044e-16 -0.5447268982759023 0.8386135023325908
12659873333.333334 -0.5354477136091115 0.8445683785168583 3.1355170244289996e-17 -1.1351955608328438e-16 3.1355170244289996e-17 -1.1351955608328438e-16 -0.5354482838760569 0.8445680169731772
12660490666.666666 -0.526104012122389 0.8504202304911052 3.008577314654694e-17 -1.1383880520986349e-16 3.008577314654694e-17 -1.1383880520986349e-16 -0.526104586312611 0.8504198752737706
12661108000.0 -0.5166963632586257 0.8561687147958228 2.88131549830269e-17 -1.1414386883830406e-16 2.88131549830269e-17 -1.1414386883830406e-16 -0.5166969413019524 0.8561683659473917
12661725333.333334 -0.5072259105075801 0.8618131327089275 2.7537474175391618e-17 -1.144347148260911e-16 2.7537474175391618e-17 -1.144347148260911e-16 -0.5072264923333792 0.8618127902711793
12662342666.666666 -0.49769380499266136 0.8673527981575591 2.6258889461675987e-17 -1.1471131279882554e-16 2.6258889461675987e-17 -1.1471131279882554e-16 -0.4976943905298468 0.8673524621714893
12662960000.0 -0.4881012053311508 0.8727870378013747 2.4977559876589518e-17 -1.1497363415327847e-16 2.4977559876589518e-17 -1.1497363415327847e-16 -0.48810179450819297 0.8727867083071913
12663577333.333334 -0.4784492774932543 0.8781151911144707 2.3693644731750027e-17 -1.1522165206023576e-16 2.3693644731750027e-17 -1.1522165206023576e-16 -0.47844987023818786 0.8781148681515883
12664194666.666666 -0.4687391946605263 0.883336610465581 2.2407303595926645e-17 -1.1545534146711418e-16 2.2407303595926645e-17 -1.1545534146711418e-16 -0.4687397909009597 0.8833362940726173
12664812000.0 -0.4589721370831725 0.8884506611968527 2.1118696275226187e-17 -1.1567467910036472e-16 2.1118696275226187e-17 -1.1567467910036472e-16 -0.4589727367462962 0.8884503514116224
12665429333.333334 -0.449149291936592 0.8934567217009891 1.982798279327102e-17 -1.1587964346765217e-16 1.982798279327102e-17 -1.1587964346765217e-16 -0.449149894949187 0.8934564185604997
12666046666.666666 -0.4392718531772271 0.8983541834967241 1.8535323371377462e-17 -1.160702148598105e-16 1.8535323371377462e-17 -1.160702148598105e-16 -0.4392724594656751 0.8983538870371729
12666664000.0 -0.42934102139706 0.9031424513029765 1.7240878408648407e-17 -1.162463753525892e-16 1.7240878408648407e-17 -1.162463753525892e-16 -0.42934163088735194 0.9031421615597454
12667281333.333334 -0.41935800367819154 0.9078209431109542 1.594480846216724e-17 -1.1640810880816017e-16 1.594480846216724e-17 -1.1640810880816017e-16 -0.41935861629593574 0.9078206601186042
12667898666.666666 -0.4093240134457636 0.9123890902550693 1.464727422706762e-17 -1.165554008764207e-16 1.464727422706762e-17 -1.165554008764207e-16 -0.40932462911619605 0.9123888140473385
12668516000.0 -0.3992402703204929 0.9168463374820451 1.3348436516643511e-17 -1.1668823899606684e-16 1.3348436516643511e-17 -1.1668823899606684e-16 -0.3992408889684858 0.9168460680918439
12669133333.333334 -0.38910799997066153 0.9211921430183022 1.2048456242479144e-17 -1.168066123954446e-16 1.2048456242479144e-17 -1.168066123954446e-16 -0.38910862152073217 0.9211918804777082
12669750666.666666 -0.3789284339628782 0.9254259786359261 1.074749439451462e-17 -1.16910512093185e-16 1.074749439451462e-17 -1.16910512093185e-16 -0.37892905833919865 0.9254257229761819
12670368000.0 -0.36870280961248597 0.9295473297168249 9.44571202113964e-18 -1.1699993089861492e-16 9.44571202113964e-18 -1.1699993089861492e-16 -0.3687034367388925 0.9295470809683335
