! Parameters = {f0=12700.012000; bw=77.238000; Q=6100.000000; N=10; m_0_1=1.156852; m_1_1=-1.411968; m_1_2=0.991664; m_2_2=-1.412617; m_2_3=0.628627; m_2_8=-0.005094; m_2_9=0.031610; m_3_3=-1.414554; m_3_4=0.517156; m_3_7=-0.004494; m_3_8=-0.101582; m_3_9=-0.005094; m_4_4=-1.417479; m_4_5=0.353491; m_4_6=-0.000977; m_4_7=-0.122131; m_4_8=-0.004494; m_5_5=-1.417097; m_5_6=0.760846; m_5_7=-0.000977; m_6_6=-1.417098; m_6_7=0.353833; m_7_7=-1.417465; m_7_8=0.517274; m_8_8=-1.414556; m_8_9=0.628940; m_9_9=-1.412622; m_9_10=0.992742; m_10_10=-1.411978; m_10_11=1.157647}
!
! Created with skrf (http://scikit-rf.org).
# Hz S RI R 50.0 
!freq ReS11 ImS11 ReS21 ImS21 ReS12 ImS12 ReS22 ImS22
12607400000.0 0.9999683241155605 0.007959319403807166 -6.03508140612793e-17 1.735738444663216e-17 -6.03508140612793e-17 1.735738444663216e-17 0.9999683192626702 0.007959929072811027
12608017333.333334 0.9999996946966732 0.0007814130879101025 -6.021129431476695e-17 1.7791986343888097e-17 -6.021129431476695e-17 1.7791986343888097e-17 0.999999694220092 0.0007820227461820596
12608634666.666666 0.9999795419703373 -0.006396533486830516 -6.006864869201327e-17 1.8225478173136878e-17 -6.006864869201327e-17 1.8225478173136878e-17 0.999979545869661 -0.006395923870699494
12609252000.0 0.9999078669749332 -0.013574150488810959 -5.992288594985624e-17 1.865783747932011e-17 -5.992288594985624e-17 1.865783747932011e-17 0.9999078752495324 -0.01357354094622466
12609869333.333334 0.9997846734034405 -0.020751068103323455 -5.977401500623811e-17 1.9089041875958176e-17 -5.977401500623811e-17 1.9089041875958176e-17 0.9997846860524607 -0.020750458665678803
12610486666.666666 0.9996099676032487 -0.027926916551695588 -5.962204493967277e-17 1.9519069046301233e-17 -5.962204493967277e-17 1.9519069046301233e-17 0.999609984625609 -0.027926307250381005
12611104000.0 0.9993837585758241 -0.03510132611045609 -5.946698498870131e-17 1.9947896744486093e-17 -5.946698498870131e-17 1.9947896744486093e-17 0.9993837799702199 -0.03510071697684993
12611721333.333334 0.9991060579762571 -0.042273927130071776 -5.930884455134634e-17 2.0375502796670597e-17 -5.930884455134634e-17 2.0375502796670597e-17 0.9991060837411573 -0.04227331819554065
12612338666.666666 0.9987768801126482 -0.049444350054362346 -5.914763318454924e-17 2.0801865102187138e-17 -5.914763318454924e-17 2.0801865102187138e-17 0.9987769102462984 -0.0494437413502596
12612956000.0 0.9983962419453807 -0.05661222543934244 -5.898336060360466e-17 2.1226961634676672e-17 -5.898336060360466e-17 2.1226961634676672e-17 0.9983962764457996 -0.05661161699700637
12613573333.333334 0.9979641630862435 -0.06377718397222802 -5.881603668159056e-17 2.1650770443210333e-17 -5.881603668159056e-17 2.1650770443210333e-17 0.9979642019512269 -0.06377657582298048
12614190666.666666 0.9974806657974236 -0.07093885649052166 -5.864567144877722e-17 2.207326965343974e-17 -5.864567144877722e-17 2.207326965343974e-17 0.9974807090245411 -0.07093824866566625
12614808000.0 0.9969457749903488 -0.07809687400111784 -5.847227509204384e-17 2.249443746870119e-17 -5.847227509204384e-17 2.249443746870119e-17 0.9969458225769471 -0.07809626653193848
12615425333.333334 0.996359518224422 -0.08525086769911644 -5.829585795427422e-17 2.2914252171150396e-17 -5.829585795427422e-17 2.2914252171150396e-17 0.9963595701676218 -0.08525026061687555
12616042666.666666 0.9957219257055789 -0.09240046898705125 -5.811643053375475e-17 2.3332692122864168e-17 -5.811643053375475e-17 2.3332692122864168e-17 0.9957219820022787 -0.09239986232298841
12616660000.0 0.9950330302847543 -0.09954530949368341 -5.793400348355485e-17 2.3749735766964267e-17 -5.793400348355485e-17 2.3749735766964267e-17 0.9950330909316267 -0.09954470327901345
12617277333.333334 0.9942928674561735 -0.106685021093094 -5.77485876109083e-17 2.4165361628711355e-17 -5.77485876109083e-17 2.4165361628711355e-17 0.9942929324496683 -0.1066844153590056
12617894666.666666 0.9935014753555339 -0.11381923592359483 -5.756019387658136e-17 2.4579548316611178e-17 -5.756019387658136e-17 2.4579548316611178e-17 0.993501544691877 -0.11381863070124887
12618512000.0 0.992658894758025 -0.12094758640679482 -5.736883339423143e-17 2.49922745235153e-17 -5.736883339423143e-17 2.49922745235153e-17 0.9926589684332198 -0.12094698172732277
12619129333.333334 0.9917651690762479 -0.12806970526636932 -5.717451742976569e-17 2.540351902770284e-17 -5.717451742976569e-17 2.540351902770284e-17 0.9917652470860732 -0.12806910116087158
12619746666.666666 0.9908203443579723 -0.13518522554704016 -5.697725740068514e-17 2.5813260693969852e-17 -5.697725740068514e-17 2.5813260693969852e-17 0.9908204266979843 -0.1351846220465845
12620364000.0 0.9898244692837311 -0.1422937806337072 -5.677706487541722e-17 2.6221478474723766e-17 -5.677706487541722e-17 2.6221478474723766e-17 0.9898245559492651 -0.1422931777693274
12620981333.333334 0.9887775951643835 -0.14939500426985972 -5.657395157265889e-17 2.6628151411032137e-17 -5.657395157265889e-17 2.6628151411032137e-17 0.9887776861505513 -0.1493944020725536
12621598666.666666 0.9876797759383957 -0.15648853057695325 -5.636792936068584e-17 2.703325863372287e-17 -5.636792936068584e-17 2.703325863372287e-17 0.9876798712400857 -0.15648792907768108
12622216000.0 0.9865310681691152 -0.1635739940728951 -5.615901025667779e-17 2.7436779364429405e-17 -5.615901025667779e-17 2.7436779364429405e-17 0.9865311677809951 -0.16357339330257828
12622833333.333334 0.985331531041812 -0.17065102969115603 -5.594720642601815e-17 2.783869291666747e-17 -5.594720642601815e-17 2.783869291666747e-17 0.9853316349583294 -0.17065042968067562
12623450666.666666 0.9840812263606911 -0.17771927279924396 -5.573253018160375e-17 2.823897869687162e-17 -5.573253018160375e-17 2.823897869687162e-17 0.9840813345760697 -0.1777186735794385
12624068000.0 0.982780218545638 -0.1847783592178546 -5.551499398312712e-17 2.863761620546616e-17 -5.551499398312712e-17 2.863761620546616e-17 0.9827803310538819 -0.1847777608195189
12624685333.333334 0.9814285746289308 -0.19182792523946648 -5.5294610436366887e-17 2.9034585037898826e-17 -5.5294610436366887e-17 2.9034585037898826e-17 0.9814286914238252 -0.19182732769335054
12625302666.666666 0.9800263642518282 -0.19886760764688677 -5.507139229246751e-17 2.942986488567722e-17 -5.507139229246751e-17 2.942986488567722e-17 0.9800264853269351 -0.19886701098369303
12625920000.0 0.9785736596608785 -0.20589704373246592 -5.4845352447203424e-17 2.9823435537413705e-17 -5.4845352447203424e-17 2.9823435537413705e-17 0.9785737850095413 -0.20589644798284856
12626537333.333334 0.9770705357043151 -0.2129158713162009 -5.461650394024741e-17 3.0215276879844636e-17 -5.461650394024741e-17 3.0215276879844636e-17 0.9770706653196575 -0.212915276510764
12627154666.666666 0.9755170698281225 -0.2199237287647859 -5.4384859954427736e-17 3.0605368898850036e-17 -5.4384859954427736e-17 3.0605368898850036e-17 0.9755172037030506 -0.21992313493408222
12627772000.0 0.9739133420720574 -0.2269202550101893 -5.4150433814964506e-17 3.099369168049257e-17 -5.4150433814964506e-17 3.099369168049257e-17 0.973913480199256 -0.22691966218471799
12628389333.333334 0.9722594350655582 -0.23390508956809 -5.391323898873006e-17 3.1380225411995175e-17 -5.391323898873006e-17 3.1380225411995175e-17 0.9722595774374951 -0.23390449777829547
12629006666.666666 0.9705554340234457 -0.24087787255664497 -5.367328908346267e-17 3.176495038278226e-17 -5.367328908346267e-17 3.176495038278226e-17 0.9705555806323712 -0.2408772818329156
12629624000.0 0.9688014267415523 -0.2478382447149487 -5.3430597847010375e-17 3.2147846985450666e-17 -5.3430597847010375e-17 3.2147846985450666e-17 0.968801577579499 -0.24783765508761482
12630241333.333334 0.9669975035922111 -0.25478584742148824 -5.318517916653819e-17 3.252889571678534e-17 -5.318517916653819e-17 3.252889571678534e-17 0.966997658650994 -0.2547852589208207
12630858666.666666 0.9651437575195865 -0.2617203227126756 -5.293704706775265e-17 3.2908077178727795e-17 -5.293704706775265e-17 3.2908077178727795e-17 0.9651439167908041 -0.2617197353688844
12631476000.0 0.963240284034865 -0.26864131330137453 -5.268621571409466e-17 3.328537207937981e-17 -5.268621571409466e-17 3.328537207937981e-17 0.9632404475098991 -0.2686407271446067
12632093333.333334 0.9612871812113652 -0.27554846259516974 -5.243269940594858e-17 3.366076123396328e-17 -5.243269940594858e-17 3.366076123396328e-17 0.9612873488813836 -0.27554787765550876
12632710666.666666 0.9592845496795022 -0.2824414147147151 -5.217651257983029e-17 3.403422556579655e-17 -5.217651257983029e-17 3.403422556579655e-17 0.959284721535455 -0.2824408310221783
12633328000.0 0.9572324926215315 -0.28931981451228683 -5.191766980757039e-17 3.4405746107261803e-17 -5.191766980757039e-17 3.4405746107261803e-17 0.9572326686541563 -0.2893192320968248
12633945333.333334 0.955131115766286 -0.2961833075899182 -5.1656185795494086e-17 3.4775304000760174e-17 -5.1656185795494086e-17 3.4775304000760174e-17 0.9551312959661049 -0.2961827264814126
12634562666.666666 0.9529805273837417 -0.30303154031760515 -5.1392075383595945e-17 3.5142880499659476e-17 -5.1392075383595945e-17 3.5142880499659476e-17 0.9529807117410635 -0.3030309605458675
12635180000.0 0.9507808382793822 -0.3098641598517168 -5.112535354469718e-17 3.550845696925003e-17 -5.112535354469718e-17 3.550845696925003e-17 0.9507810267843019 -0.3098635814464864
12635797333.333334 0.948532161788549 -0.3166808141529847 -5.0856035383611146e-17 3.587201488767423e-17 -5.0856035383611146e-17 3.587201488767423e-17 0.9485323544309493 -0.3166802371439281
12636414666.666666 0.9462346137705667 -0.32348115200474986 -5.0584136136290386e-17 3.623353584686537e-17 -5.0584136136290386e-17 3.623353584686537e-17 0.9462348105401192 -0.3234805764214589
12637032000.0 0.9438883126027955 -0.33026482303100546 -5.0309671168973645e-17 3.659300155347168e-17 -5.0309671168973645e-17 3.659300155347168e-17 0.9438885134889583 -0.33026424890299505
12637649333.333334 0.9414933791744886 -0.33703147771455516 -5.0032655977319916e-17 3.695039382978241e-17 -5.0032655977319916e-17 3.695039382978241e-17 0.9414935841665093 -0.3370309050712625
12638266666.666666 0.9390499368806332 -0.3437807674148344 -4.975310618554743e-17 3.730569461463174e-17 -4.975310618554743e-17 3.730569461463174e-17 0.93905014596755 -0.34378019628561757
12638884000.0 0.9365581116155163 -0.3505123443860878 -4.947103754555071e-17 3.765888596431773e-17 -4.947103754555071e-17 3.765888596431773e-17 0.9365583247861564 -0.350511774800224
12639501333.333334 0.9340180317663053 -0.3572258617950995 -4.918646593602694e-17 3.800995005349322e-17 -4.918646593602694e-17 3.800995005349322e-17 0.9340182490092863 -0.3572252937817832
12640118666.666666 0.931429828206413 -0.3639209737391156 -4.8899407361586446e-17 3.8358869176063093e-17 -4.8899407361586446e-17 3.8358869176063093e-17 0.9314300495101453 -0.3639204073274578
12640736000.0 0.9287936342886652 -0.37059733526390615 -4.860987795185005e-17 3.8705625746082793e-17 -4.860987795185005e-17 3.8705625746082793e-17 0.9287938596413499 -0.3705967704829322
12641353333.333334 0.9261095858386427 -0.37725460238098063 -4.8317893960566936e-17 3.90502022986174e-17 -4.8317893960566936e-17 3.90502022986174e-17 0.9261098152282746 -0.3772540392596296
12641970666.666666 0.9233778211474377 -0.38389243208594803 -4.802347176469415e-17 3.9392581490633787e-17 -4.802347176469415e-17 3.9392581490633787e-17 0.9233780545618036 -0.3838918706530699
12642588000.0 0.9205984809647046 -0.3905104823757393 -4.772662786348645e-17 3.973274610186527e-17 -4.772662786348645e-17 3.973274610186527e-17 0.9205987183913853 -0.39050992266009465
12643205333.333334 0.9177717084913122 -0.397108412266466 -4.742737887758457e-17 4.007067903566402e-17 -4.742737887758457e-17 4.007067903566402e-17 0.9177719499176831 -0.39710785429672385
12643822666.666666 0.9148976493719955 -0.40368588181090886 -4.7125741548082985e-17 4.0406363319864484e-17 -4.7125741548082985e-17 4.0406363319864484e-17 0.9148978947852289 -0.40368532561564635
12644440000.0 0.9119764516878813 -0.41024255211598354 -4.682173273560182e-17 4.073978210762759e-17 -4.682173273560182e-17 4.073978210762759e-17 0.9119767010749431 -0.41024199772368264
12645057333.333334 0.9090082659488175 -0.41677808536027705 -4.6515369419357357e-17 4.1070918678272695e-17 -4.6515369419357357e-17 4.1070918678272695e-17 0.9090085192964709 -0.4167775327993245
12645674666.666666 0.9059932450856445 -0.42329214481140287 -4.6206668696210556e-17 4.139975643812118e-17 -4.6206668696210556e-17 4.139975643812118e-17 0.90599350238045 -0.42329159411008815
12646292000.0 0.9029315444422686 -0.4297843948434539 -4.5895647779719925e-17 4.172627892132097e-17 -4.5895647779719925e-17 4.172627892132097e-17 0.9029318056705852 -0.42978384602996805
12646909333.333334 0.8998233217677288 -0.4362545009541393 -4.558232399919511e-17 4.205046979065791e-17 -4.558232399919511e-17 4.205046979065791e-17 0.899823586915713 -0.43625395405657325
12647526666.666666 0.8966687372080329 -0.44270212978209755 -4.526671479872863e-17 4.2372312838376285e-17 -4.526671479872863e-17 4.2372312838376285e-17 0.8966690062616423 -0.44270158482844096
12648144000.0 0.8934679532978844 -0.44912694912412365 -4.4948837736234267e-17 4.269179198697969e-17 -4.4948837736234267e-17 4.269179198697969e-17 0.8934682262428751 -0.449126406142263
12648761333.333334 0.8902211349523151 -0.45552862795225774 -4.462871048247868e-17 4.300889129002608e-17 -4.462871048247868e-17 4.300889129002608e-17 0.8902214117742447 -0.4555280869699753
12649378666.666666 0.8869284494582809 -0.4619068364306649 -4.4306350820101236e-17 4.332359493292169e-17 -4.4306350820101236e-17 4.332359493292169e-17 0.8869287301425084 -0.46190629747563705
12649996000.0 0.883590066465875 -0.468261245932958 -4.3981776642634484e-17 4.363588723370161e-17 -4.3981776642634484e-17 4.363588723370161e-17 0.883590350997563 -0.4682607090327547
12650613333.333334 0.8802061579797291 -0.47459152905885166 -4.365500595351166e-17 4.3945752643810315e-17 -4.365500595351166e-17 4.3945752643810315e-17 0.8802064463438429 -0.4745909942409338
12651230666.666666 0.8767768983501011 -0.4808973596511328 -4.332605686508258e-17 4.425317574886134e-17 -4.332605686508258e-17 4.425317574886134e-17 0.8767771905314095 -0.48089682694285135
12651848000.0 0.8733024642638619 -0.48717841281251434 -4.2994947597605384e-17 4.4558141269408227e-17 -4.2994947597605384e-17 4.4558141269408227e-17 0.873302760246939 -0.48717788224110886
12652465333.333334 0.869783034735406 -0.4934343649223493 -4.266169647825177e-17 4.486063406168922e-17 -4.266169647825177e-17 4.486063406168922e-17 0.8697833345046312 -0.49343383651494677
12653082666.666666 0.8662187910975252 -0.4996648936531322 -4.232632194009459e-17 4.516063911837741e-17 -4.232632194009459e-17 4.516063911837741e-17 0.8662190946370852 -0.4996643674367455
12653700000.0 0.8626099169918864 -0.5058696779874287 -4.198884252108968e-17 4.5458141569322475e-17 -4.198884252108968e-17 4.5458141569322475e-17 0.8626102242857742 -0.5058691539889547
12654317333.333334 0.8589565983597213 -0.5120483982341422 -4.1649276863064914e-17 4.575312668227508e-17 -4.1649276863064914e-17 4.575312668227508e-17 0.8589569093917384 -0.5120478764803617
12654934666.666666 0.8552590234322066 -0.5182007360450617 -4.1307643710693124e-17 4.6045579863612394e-17 -4.1307643710693124e-17 4.6045579863612394e-17 0.8552593381859632 -0.5182002165626363
12655552000.0 0.8515173827206456 -0.5243263744314561 -4.096396191045243e-17 4.633548665906353e-17 -4.096396191045243e-17 4.633548665906353e-17 0.8515177011795632 -0.5243258572469288
12656169333.333334 0.8477318690069074 -0.5304249977799971 -4.061825040961453e-17 4.662283275439804e-17 -4.061825040961453e-17 4.662283275439804e-17 0.8477321911542164 -0.5304244829197892
12656786666.666666 0.8439026773332221 -0.5364962918694535 -4.0270528255181835e-17 4.690760397614751e-17 -4.0270528255181835e-17 4.690760397614751e-17 0.8439030031519656 -0.5364957793598644
12657404000.0 0.8400300049923303 -0.5425399438865692 -3.992081459286054e-17 4.718978629228318e-17 -3.992081459286054e-17 4.718978629228318e-17 0.8400303344653626 -0.5425394337537736
12658021333.333334 0.8361140515171603 -0.5485556424424175 -3.956912866599879e-17 4.746936581291297e-17 -3.956912866599879e-17 4.746936581291297e-17 0.8361143846271523 -0.5485551347124673
12658638666.666666 0.8321550186707577 -0.55454307758814 -3.921548981455057e-17 4.774632879094403e-17 -3.921548981455057e-17 4.774632879094403e-17 0.8321553554001907 -0.5545425722869586
12659256000.0 0.8281531104355991 -0.5605019408313386 -3.8859917473993136e-17 4.8020661622772597e-17 -3.8859917473993136e-17 4.8020661622772597e-17 0.8281534507667719 -0.5605014379847227
12659873333.333334 0.8241085330033546 -0.5664319251515696 -3.850243117428725e-17 4.8292350848926667e-17 -3.850243117428725e-17 4.8292350848926667e-17 0.824108876918382 -0.5664314247851872
12660490666.666666 0.8200214947641378 -0.572332725016352 -3.814305053879918e-17 4.856138315472933e-17 -3.814305053879918e-17 4.856138315472933e-17 0.8200218422449516 -0.5723322271557402
12661108000.0 0.8158922062957358 -0.5782040363969555 -3.7781795283225684e-17 4.8827745370946374e-17 -3.7781795283225684e-17 4.8827745370946374e-17 0.8158925573240849 -0.5782035410675199
12661725333.333334 0.8117208803528532 -0.5840455567839239 -3.741868521452626e-17 4.909142447441838e-17 -3.741868521452626e-17 4.909142447441838e-17 0.8117212349103073 -0.5840450640109377
12662342666.666666 0.8075077318560915 -0.5898569852027563 -3.7053740229838055e-17 4.935240758869389e-17 -3.7053740229838055e-17 4.935240758869389e-17 0.807508089924039 -0.5898564950113583
12662960000.0 0.8032529778809046 -0.5956380222293683 -3.668698031538679e-17 4.961068198465495e-17 -3.668698031538679e-17 4.961068198465495e-17 0.803253339440555 -0.5956375346445615
12663577333.333334 0.7989568376463472 -0.6013883700056085 -3.6318425545407063e-17 4.986623508112377e-17 -3.6318425545407063e-17 4.986623508112377e-17 0.7989572026787324 -0.6013878850522596
12664194666.666666 0.7946195325039004 -0.6071077322544484 -3.594809608103764e-17 5.0119054445477307e-17 -3.594809608103764e-17 5.0119054445477307e-17 0.7946199009898737 -0.607107249957285
12664812000.0 0.7902412859259262 -0.612795814295425 -3.557601216923497e-17 5.036912779423698e-17 -3.557601216923497e-17 5.036912779423698e-17 0.790241657846168 -0.6127953346790381
12665429333.333334 0.7858223234942805 -0.6184523230596718 -3.5202194141658645e-17 5.061644299366794e-17 -3.5202194141658645e-17 5.061644299366794e-17 0.7858226988292935 -0.6184518461485096
12666046666.666666 0.7813628728886327 -0.6240769671050806 -3.482666241358278e-17 5.086098806034882e-17 -3.482666241358278e-17 5.086098806034882e-17 0.7813632516187465 -0.62407649292345
12666664000.0 0.7768631638746858 -0.6296694566313881 -3.444943748276579e-17 5.1102751161759195e-17 -3.444943748276579e-17 5.1102751161759195e-17 0.7768635459800567 -0.6296689852034532
12667281333.333334 0.7723234282924402 -0.6352295034949704 -3.407053992835431e-17 5.1341720616833463e-17 -3.407053992835431e-17 5.1341720616833463e-17 0.7723238137530525 -0.635229034844751
12667898666.666666 0.7677439000441995 -0.6407568212237597 -3.368999040975381e-17 5.157788489652594e-17 -3.368999040975381e-17 5.157788489652594e-17 0.7677442888398676 -0.6407563553751304
12668516000.0 0.7631248150824629 -0.646251125032067 -3.330780966551137e-17 5.1811232624356573e-17 -3.330780966551137e-17 5.1811232624356573e-17 0.7631252071928297 -0.6462506620087556
12669133333.333334 0.7584664113978756 -0.6517121318351251 -3.2924018512193934e-17 5.2041752576950604e-17 -3.2924018512193934e-17 5.2041752576950604e-17 0.7584668068024171 -0.6517116716607115
12669750666.666666 0.753768929006916 -0.6571395602637404 -3.253863784325615e-17 5.226943368457233e-17 -3.253863784325615e-17 5.226943368457233e-17 0.7537693276849391 -0.6571391029616556
12670368000.0 0.7490326099394512 -0.6625331306788745 -3.2151688627902094e-17 5.2494265031653167e-17 -3.2151688627902094e-17 5.2494265031653167e-17 0.749033011870096 -0.6625326762723983
