! Parameters = {f0=12700.012000; bw=77.238000; Q=6100.000000; N=10; m_0_1=1.262958; m_1_1=0.179624; m_1_2=1.097770; m_2_2=0.178975; m_2_3=0.734733; m_2_8=0.000212; m_2_9=0.036916; m_3_3=0.177038; m_3_4=0.623262; m_3_7=0.000812; m_3_8=-0.096276; m_3_9=0.000212; m_4_4=0.174113; m_4_5=0.459597; m_4_6=0.004329; m_4_7=-0.116825; m_4_8=0.000812; m_5_5=0.174495; m_5_6=0.866952; m_5_7=0.004329; m_6_6=0.174494; m_6_7=0.459939; m_7_7=0.174127; m_7_8=0.623380; m_8_8=0.177036; m_8_9=0.735046; m_9_9=0.178970; m_9_10=1.098848; m_10_10=0.179614; m_10_11=1.263753}
!
! Created with skrf (http://scikit-rf.org).
# Hz S RI R 50.0 
!freq ReS11 ImS11 ReS21 ImS21 ReS12 ImS12 ReS22 ImS22
12607400000.0 0.3031494033717577 -0.9529430409185916 -2.1380036841424906e-18 1.0695663381266888e-16 -2.1380036841424906e-18 1.0695663381266888e-16 0.30315003747347646 -0.9529428391984773
12608017333.333334 0.29330406685203664 -0.9560192071124313 -1.0249889172036104e-18 1.0695213906679235e-16 -1.0249889172036104e-18 1.0695213906679235e-16 0.29330470296953476 -0.9560190119530982
12608634666.666666 0.28342752470325205 -0.958993659124195 8.770091386632713e-20 1.0693606974874381e-16 8.770091386632713e-20 1.0693606974874381e-16 0.2834281627686569 -0.9589934705457639
12609252000.0 0.27352082772487 -0.9618660804917322 1.1999455218465456e-18 1.0690843213056519e-16 1.1999455218465456e-18 1.0690843213056519e-16 0.2735214676701082 -0.9618658985136209
12609869333.333334 0.2635850299244951 -0.9646361656083237 2.3116247147892227e-18 1.0686923373353316e-16 2.3116247147892227e-18 1.0686923373353316e-16 0.2635856716812997 -0.9646359902492458
12610486666.666666 0.2536211884060861 -0.9673036197550956 3.422618408990747e-18 1.0681848332685689e-16 3.422618408990747e-18 1.0681848332685689e-16 0.2536218319060046 -0.96730345103306
12611104000.0 0.24363036325696694 -0.9698681591325203 4.532806641964359e-18 1.0675619092623898e-16 4.532806641964359e-18 1.0675619092623898e-16 0.24363100843136792 -0.9698679970648273
12611721333.333334 0.23361361743564424 -0.9723295108904482 5.642069585318771e-18 1.0668236779230656e-16 5.642069585318771e-18 1.0668236779230656e-16 0.2336142642157246 -0.9723293554936877
12612338666.666666 0.2235720166582478 -0.9746874131572593 6.750287557720367e-18 1.0659702642890323e-16 6.750287557720367e-18 1.0659702642890323e-16 0.22357266497504075 -0.9746872644473116
12612956000.0 0.21350662928522718 -0.9769416150676997 7.857341037758583e-18 1.065001805812502e-16 7.857341037758583e-18 1.065001805812502e-16 0.21350727906960898 -0.976941473059731
12613573333.333334 0.20341852620801834 -0.979091876789499 8.963110676810248e-18 1.0639184523397446e-16 8.963110676810248e-18 1.0639184523397446e-16 0.20341917739071577 -0.9790917414979606
12614190666.666666 0.19330878073463562 -0.9811379695489898 1.0067477311889209e-17 1.062720366090014e-16 1.0067477311889209e-17 1.062720366090014e-16 0.19330943324623376 -0.9811378409876184
12614808000.0 0.1831784684758406 -0.9830796756553721 1.1170321978473912e-17 1.0614077216331516e-16 1.1170321978473912e-17 1.0614077216331516e-16 0.18317912224678984 -0.9830795538371865
12615425333.333334 0.17302866723045307 -0.9849167885239233 1.2271525923278218e-17 1.0599807058658818e-16 1.2271525923278218e-17 1.0599807058658818e-16 0.1730293221910766 -0.9849166734612234
12616042666.666666 0.162860456870904 -0.9866491126979374 1.337097061703675e-17 1.0584395179867514e-16 1.337097061703675e-17 1.0584395179867514e-16 0.16286111295140515 -0.9866490044023027
12616660000.0 0.1526749192281198 -0.9882764638695557 1.44685377672307e-17 1.0567843694697698e-16 1.44685377672307e-17 1.0567843694697698e-16 0.15267557635858994 -0.9882763623518467
12617277333.333334 0.14247313797661937 -0.9897986688993483 1.5564109330786174e-17 1.0550154840367358e-16 1.5564109330786174e-17 1.0550154840367358e-16 0.14247379608704475 -0.9897985741697012
12617894666.666666 0.13225619851913395 -0.9912155658347455 1.665756752675264e-17 1.0531330976282387e-16 1.665756752675264e-17 1.0531330976282387e-16 0.1322568575394033 -0.9912154779025737
12618512000.0 0.12202518787104255 -0.9925270039272803 1.774879484895088e-17 1.0511374583733302e-16 1.774879484895088e-17 1.0511374583733302e-16 0.12202584773095503 -0.9925269228012749
12619129333.333334 0.11178119454489004 -0.9937328436486055 1.883767407855954e-17 1.0490288265579467e-16 1.883767407855954e-17 1.0490288265579467e-16 0.11178185517416207 -0.9937327693367308
12619746666.666666 0.10152530843452014 -0.9948329567053463 1.992408829668948e-17 1.0468074745919822e-16 1.992408829668948e-17 1.0468074745919822e-16 0.10152596976279334 -0.9948328892148419
12620364000.0 0.09125862069889171 -0.9958272260527732 2.100792089693856e-17 1.044473686975027e-16 2.100792089693856e-17 1.044473686975027e-16 0.09125928265574017 -0.9958271653901525
12620981333.333334 0.08098222364646726 -0.996715545907206 2.2089055597833513e-17 1.0420277602609629e-16 2.2089055597833513e-17 1.0420277602609629e-16 0.08098288616140494 -0.9967154920782536
12621598666.666666 0.07069721061848908 -0.9974978217573162 2.316737645533266e-17 1.0394700030210601e-16 2.316737645533266e-17 1.0394700030210601e-16 0.07069787362097762 -0.9974977747670911
12622216000.0 0.06040467587302337 -0.9981739703741537 2.4242767875213124e-17 1.0368007358059435e-16 2.4242767875213124e-17 1.0368007358059435e-16 0.0604053392924794 -0.9981739302269853
12622833333.333334 0.05010571446825439 -0.9987439198200165 2.531511462543608e-17 1.0340202911062336e-16 2.531511462543608e-17 1.0340202911062336e-16 0.050106378234057135 -0.9987438865195079
12623450666.666666 0.03980142214631835 -0.9992076094560911 2.6384301848479965e-17 1.0311290133118922e-16 2.6384301848479965e-17 1.0311290133118922e-16 0.03980208618781703 -0.9992075830051149
12624068000.0 0.029492895216382806 -0.9995649899489182 2.7450215073610453e-17 1.0281272586703277e-16 2.7450215073610453e-17 1.0281272586703277e-16 0.029493559462904263 -0.9995649703496187
12624685333.333334 0.019181230438063246 -0.9998160232756359 2.851274022913901e-17 1.0250153952431477e-16 2.851274022913901e-17 1.0250153952431477e-16 0.0191818948189194 -0.9998160105294284
12625302666.666666 0.008867524905104446 -0.9999606827280181 2.9571763654554766e-17 1.0217938028618667e-16 2.9571763654554766e-17 1.0217938028618667e-16 0.008868189349599834 -0.9999606768355871
12625920000.0 -0.0014471240719682453 -0.9999989529153244 3.0627172112726403e-17 1.018462873082019e-16 3.0627172112726403e-17 1.018462873082019e-16 -0.0014464596345289185 -0.9999989538766287
12626537333.333334 -0.011761619081998747 -0.9999308297659368 3.167885280192294e-17 1.0150230091364042e-16 3.167885280192294e-17 1.0150230091364042e-16 -0.011760954722303131 -0.9999308375802028
12627154666.666666 -0.022074862730213446 -0.999756320527792 3.272669336788706e-17 1.0114746258867779e-16 3.272669336788706e-17 1.0114746258867779e-16 -0.02207419851893399 -0.9997563351935175
12627772000.0 -0.03238575775523248 -0.9994754437676027 3.377058191580859e-17 1.0078181497744342e-16 3.377058191580859e-17 1.0078181497744342e-16 -0.03238509376301895 -0.9994754652825583
12628389333.333334 -0.0426932071452145 -0.9990882293688992 3.4810407022230047e-17 1.0040540187696176e-16 3.4810407022230047e-17 1.0040540187696176e-16 -0.042692543442686456 -0.9990882577301269
12629006666.666666 -0.052996114255196604 -0.9985947185288313 3.584605774695018e-17 1.0001826823195125e-16 3.584605774695018e-17 1.0001826823195125e-16 -0.052995450912935886 -0.9985947537326444
12629624000.0 -0.06329338292337239 -0.997994963753796 3.6877423644796945e-17 9.962046012952765e-17 3.6877423644796945e-17 9.962046012952765e-17 -0.0632927200119156 -0.9979950057957803
12630241333.333334 -0.07358391758780168 -0.997289028853851 3.7904394777418854e-17 9.921202479375823e-17 3.7904394777418854e-17 9.921202479375823e-17 -0.07358325517763267 -0.9972890777288647
12630858666.666666 -0.08386662340299958 -0.996476988935924 3.8926861724940546e-17 9.879301058012328e-17 3.8926861724940546e-17 9.879301058012328e-17 -0.08386596156454203 -0.9964770446380995
12631476000.0 -0.0941404063565058 -0.9955589303958146 3.9944715597650615e-17 9.83634669698219e-17 3.9944715597650615e-17 9.83634669698219e-17 -0.09413974516011563 -0.9955589929185585
12632093333.333334 -0.10440417338513856 -0.994534950909012 4.095784804751534e-17 9.792344456400234e-17 4.095784804751534e-17 9.792344456400234e-17 -0.10440351290109663 -0.9945350202450072
12632710666.666666 -0.11465683249123357 -0.9934051594203164 4.1966151279727376e-17 9.747299507783469e-17 4.1966151279727376e-17 9.747299507783469e-17 -0.1146561727897378 -0.9934052355615184
12633328000.0 -0.12489729285919172 -0.992169676132198 4.296951806414216e-17 9.70121713344833e-17 4.296951806414216e-17 9.70121713344833e-17 -0.12489663401035041 -0.9921697590698433
12633945333.333334 -0.13512446497105582 -0.9908286324920728 4.396784174665222e-17 9.654102725896238e-17 4.396784174665222e-17 9.654102725896238e-17 -0.13512380704487925 -0.9908287222166727
12634562666.666666 -0.14533726072279396 -0.9893821711782663 4.4961016260505307e-17 9.605961787186876e-17 4.4961016260505307e-17 9.605961787186876e-17 -0.14533660378918756 -0.9893822676796118
12635180000.0 -0.15553459353981353 -0.9878304460848691 4.594893613753833e-17 9.556799928300672e-17 4.594893613753833e-17 9.556799928300672e-17 -0.15553393766857032 -0.987830549352031
12635797333.333334 -0.1657153784928186 -0.9861736223053258 4.693149651937492e-17 9.506622868488196e-17 4.693149651937492e-17 9.506622868488196e-17 -0.16571472375361188 -0.9861737323266577
12636414666.666666 -0.17587853241290266 -0.9844118761149265 4.790859316849827e-17 9.455436434610716e-17 4.790859316849827e-17 9.455436434610716e-17 -0.17587787887527828 -0.9844119928780627
12637032000.0 -0.18602297400718287 -0.9825453949519829 4.888012247932275e-17 9.403246560465897e-17 4.888012247932275e-17 9.403246560465897e-17 -0.1860223217405523 -0.9825455184438433
12637649333.333334 -0.19614762397350702 -0.9805743773979483 4.984598148912293e-17 9.350059286105737e-17 4.984598148912293e-17 9.350059286105737e-17 -0.19614697304713935 -0.9805745076047361
12638266666.666666 -0.20625140511553486 -0.9784990331562387 5.0806067888945095e-17 9.295880757140377e-17 5.0806067888945095e-17 9.295880757140377e-17 -0.2062507555985502 -0.9784991700634464
12638884000.0 -0.21633324245712254 -0.9763195830299701 5.176028003439828e-17 9.240717224033128e-17 5.176028003439828e-17 9.240717224033128e-17 -0.21633259441848415 -0.9763197266223773
12639501333.333334 -0.22639206335694267 -0.9740362588984106 5.270851695641451e-17 9.184575041382047e-17 5.270851695641451e-17 9.184575041382047e-17 -0.22639141686545008 -0.9740364091600888
12640118666.666666 -0.23642679762221905 -0.9716493036924015 5.365067837187131e-17 9.127460667193881e-17 5.365067837187131e-17 9.127460667193881e-17 -0.23642615274649995 -0.9716494606067121
12640736000.0 -0.24643637762325102 -0.9691589713683496 5.4586664694231904e-17 9.069380662141507e-17 5.4586664694231904e-17 9.069380662141507e-17 -0.24643573443175482 -0.9691591349179492
12641353333.333334 -0.25641973840611854 -0.9665655268814238 5.551637704397717e-17 9.010341688818304e-17 5.551637704397717e-17 9.010341688818304e-17 -0.256419096967109 -0.9665656970482652
12641970666.666666 -0.2663758178067872 -0.9638692461571697 5.643971725907217e-17 8.9503505109747e-17 5.643971725907217e-17 8.9503505109747e-17 -0.26637517818833467 -0.9638694229225029
12642588000.0 -0.2763035565636195 -0.9610704160622783 5.735658790529782e-17 8.889413992747471e-17 5.735658790529782e-17 8.889413992747471e-17 -0.2763029188335939 -0.9610705994066526
12643205333.333334 -0.286201898430292 -0.9581693343740042 5.826689228648921e-17 8.827539097879055e-17 5.826689228648921e-17 8.827539097879055e-17 -0.28620126265635615 -0.958169524277272
12643822666.666666 -0.29606979028820146 -0.9551663097484785 5.917053445473824e-17 8.764732888923344e-17 5.917053445473824e-17 8.764732888923344e-17 -0.296069156537803 -0.9551665061897952
12644440000.0 -0.30590618225829064 -0.9520616616879313 6.006741922044873e-17 8.701002526445227e-17 6.006741922044873e-17 8.701002526445227e-17 -0.30590555059865554 -0.952061864645759
12645057333.333334 -0.3157100278129663 -0.9488557205066336 6.095745216236007e-17 8.636355268206128e-17 6.095745216236007e-17 8.636355268206128e-17 -0.31570939831109185 -0.948855929958745
12645674666.666666 -0.3254802838872277 -0.9455488272958281 6.184053963744263e-17 8.570798468342329e-17 6.184053963744263e-17 8.570798468342329e-17 -0.32547965660987477 -0.9455490432193058
12646292000.0 -0.3352159109900453 -0.9421413338872999 6.271658879075789e-17 8.504339576529259e-17 6.271658879075789e-17 8.504339576529259e-17 -0.3352152860037315 -0.9421415562585395
12646909333.333334 -0.34491587331439005 -0.9386336028161353 6.35855075651572e-17 8.436986137141107e-17 6.35855075651572e-17 8.436986137141107e-17 -0.34491525068538315 -0.9386338316108505
12647526666.666666 -0.3545791388479214 -0.9350260072819868 6.444720471094619e-17 8.368745788396462e-17 6.444720471094619e-17 8.368745788396462e-17 -0.3545785186422315 -0.9350262424752089
12648144000.0 -0.3642046794825439 -0.9313189311094481 6.530158979545503e-17 8.299626261494233e-17 6.530158979545503e-17 8.299626261494233e-17 -0.36420406176591713 -0.931319172675531
12648761333.333334 -0.3737914711238985 -0.9275127687071804 6.614857321247416e-17 8.229635379743197e-17 6.614857321247416e-17 8.229635379743197e-17 -0.37379085596180955 -0.9275130166198018
12649378666.666666 -0.38333849380010737 -0.9236079250260313 6.698806619164429e-17 8.158781057678228e-17 6.698806619164429e-17 8.158781057678228e-17 -0.38333788125775337 -0.9236081792581977
12649996000.0 -0.39284473177063695 -0.9196048155158186 6.781998080772647e-17 8.087071300169046e-17 6.781998080772647e-17 8.087071300169046e-17 -0.39284412191292917 -0.9196050760398654
12650613333.333334 -0.4023091736340735 -0.9155038660812385 6.864422998979509e-17 8.014514201517982e-17 6.864422998979509e-17 8.014514201517982e-17 -0.4023085665256318 -0.9155041328688354
12651230666.666666 -0.4117308124358383 -0.9113055130365177 6.946072753029693e-17 7.941117944551793e-17 6.946072753029693e-17 7.941117944551793e-17 -0.4117302081409833 -0.9113057860586693
12651848000.0 -0.4211086457753697 -0.9070102030589627 7.026938809407854e-17 7.866890799698518e-17 7.026938809407854e-17 7.866890799698518e-17 -0.4211080443581168 -0.9070104822860146
12652465333.333334 -0.4304416759127473 -0.9026183931414494 7.107012722724998e-17 7.791841124060935e-17 7.107012722724998e-17 7.791841124060935e-17 -0.4304410774367995 -0.9026186785430899
12653082666.666666 -0.4397289098746389 -0.8981305505438996 7.186286136597123e-17 7.715977360479306e-17 7.186286136597123e-17 7.715977360479306e-17 -0.43972831440338 -0.8981308420891627
12653700000.0 -0.4489693595604088 -0.8935471527433471 7.264750784518188e-17 7.639308036581082e-17 7.264750784518188e-17 7.639308036581082e-17 -0.44896876715689693 -0.8935474504006167
12654317333.333334 -0.4581620418466817 -0.8888686873834101 7.342398490714528e-17 7.561841763829794e-17 7.342398490714528e-17 7.561841763829794e-17 -0.45816145257364194 -0.8888689911204218
12654934666.666666 -0.4673059786923996 -0.8840956522221818 7.419221170997806e-17 7.483587236557025e-17 7.419221170997806e-17 7.483587236557025e-17 -0.4673053926122187 -0.8840959620060292
12655552000.0 -0.4764001972426759 -0.879228555079375 7.495210833602096e-17 7.404553230991152e-17 7.495210833602096e-17 7.404553230991152e-17 -0.47639961441739437 -0.8792288708765111
12656169333.333334 -0.4854437299322755 -0.8742679137823068 7.570359580012205e-17 7.324748604276221e-17 7.570359580012205e-17 7.324748604276221e-17 -0.48544315042358127 -0.874268235558547
12656786666.666666 -0.4944356145886073 -0.8692142561107775 7.644659605782137e-17 7.244182293481733e-17 7.644659605782137e-17 7.244182293481733e-17 -0.49443503845783016 -0.869214583831306
12657404000.0 -0.5033748945341454 -0.8640681197408949 7.718103201343148e-17 7.162863314604243e-17 7.718103201343148e-17 7.162863314604243e-17 -0.5033743218422487 -0.8640684533702654
12658021333.333334 -0.5122606186881831 -0.8588300521878746 7.790682752800488e-17 7.080800761561367e-17 7.790682752800488e-17 7.080800761561367e-17 -0.5122600494957597 -0.8588303916900173
12658638666.666666 -0.5210918416678296 -0.8535006107479102 7.862390742718206e-17 6.998003805179425e-17 7.862390742718206e-17 6.998003805179425e-17 -0.5210912760350939 -0.8535009560861336
12659256000.0 -0.5298676238890088 -0.8480803624386325 7.933219750898133e-17 6.914481692167492e-17 7.933219750898133e-17 6.914481692167492e-17 -0.5298670618757898 -0.8480807135756271
12659873333.333334 -0.538587031666006 -0.8425698839390282 8.003162455141284e-17 6.830243744091295e-17 8.003162455141284e-17 6.830243744091295e-17 -0.5385864733317424 -0.8425702408368713
12660490666.666666 -0.5472491373110052 -0.8369697615279706 8.072211632003401e-17 6.74529935633383e-17 8.072211632003401e-17 6.74529935633383e-17 -0.5472485827147384 -0.8369701241481307
12661108000.0 -0.5558530192328336 -0.8312805910218104 8.140360157538176e-17 6.659657997049647e-17 8.140360157538176e-17 6.659657997049647e-17 -0.5558524684332018 -0.831280959325151
12661725333.333334 -0.564397762034871 -0.8255029777110773 8.207601008028035e-17 6.573329206113624e-17 8.207601008028035e-17 6.573329206113624e-17 -0.5643972150901028 -0.8255033516578617
12662342666.666666 -0.5728824566125142 -0.8196375362960381 8.273927260705417e-17 6.486322594060226e-17 8.273927260705417e-17 6.486322594060226e-17 -0.5728819135804212 -0.8196379158459309
12662960000.0 -0.581306200249966 -0.8136848908212402 8.3393320944627e-17 6.398647841015829e-17 8.3393320944627e-17 6.398647841015829e-17 -0.5813056611879401 -0.8136852759333172
12663577333.333334 -0.589668096716121 -0.8076456746092403 8.403808790550102e-17 6.310314695624817e-17 8.403808790550102e-17 6.310314695624817e-17 -0.5896675616811242 -0.807646065241987
12664194666.666666 -0.5979672563600986 -0.8015205301930847 8.467350733262057e-17 6.22133297396897e-17 8.467350733262057e-17 6.22133297396897e-17 -0.5979667254086601 -0.8015209263044043
12664812000.0 -0.6062027962057148 -0.7953101092480841 8.529951410613997e-17 6.13171255847758e-17 8.529951410613997e-17 6.13171255847758e-17 -0.606202269393924 -0.7953105107953014
12665429333.333334 -0.6143738400456302 -0.7890150725223272 8.591604415005124e-17 6.041463396834157e-17 8.591604415005124e-17 6.041463396834157e-17 -0.6143733174291297 -0.7890154794621917
12666046666.666666 -0.6224795185342781 -0.7826360897666041 8.652303443871475e-17 5.950595500874142e-17 8.652303443871475e-17 5.950595500874142e-17 -0.6224790001682593 -0.7826365020552972
12666664000.0 -0.6305189692807843 -0.7761738396628203 8.712042300327205e-17 5.859118945476013e-17 8.712042300327205e-17 5.859118945476013e-17 -0.6305184552199805 -0.7761742572559568
12667281333.333334 -0.6384913369402268 -0.7696290097521715 8.770814893792853e-17 5.76704386744832e-17 8.770814893792853e-17 5.76704386744832e-17 -0.6384908272389093 -0.769629432604809
12667898666.666666 -0.6463957733050434 -0.7630022963616829 8.828615240613088e-17 5.674380464408426e-17 8.828615240613088e-17 5.674380464408426e-17 -0.646395268017013 -0.7630027244283211
12668516000.0 -0.654231437395093 -0.7562944045302586 8.885437464663609e-17 5.581138993653572e-17 8.885437464663609e-17 5.581138993653572e-17 -0.6542309365736759 -0.756294837764848
12669133333.333334 -0.6619974955471103 -0.7495060479336914 8.941275797942242e-17 5.487329771032286e-17 8.941275797942242e-17 5.487329771032286e-17 -0.6619969992451533 -0.7495064862896377
12669750666.666666 -0.6696931215034493 -0.7426379488087005 8.996124581153475e-17 5.3929631698012715e-17 8.996124581153475e-17 5.3929631698012715e-17 -0.6696926297733123 -0.7426383922388685
12670368000.0 -0.6773174965000712 -0.7356908378760081 9.049978264277165e-17 5.2980496194825944e-17 9.049978264277165e-17 5.2980496194825944e-17 -0.677317009393624 -0.7356912863327282
