! Parameters = {f0=12700.012000; bw=77.238000; Q=6100.000000; N=10; m_0_1=1.172868; m_1_1=-1.171728; m_1_2=1.007680; m_2_2=-1.172377; m_2_3=0.644643; m_2_8=-0.004293; m_2_9=0.032411; m_3_3=-1.174314; m_3_4=0.533172; m_3_7=-0.003693; m_3_8=-0.100781; m_3_9=-0.004293; m_4_4=-1.177239; m_4_5=0.369507; m_4_6=-0.000176; m_4_7=-0.121330; m_4_8=-0.003693; m_5_5=-1.176857; m_5_6=0.776862; m_5_7=-0.000176; m_6_6=-1.176858; m_6_7=0.369849; m_7_7=-1.177225; m_7_8=0.533290; m_8_8=-1.174316; m_8_9=0.644956; m_9_9=-1.172382; m_9_10=1.008758; m_10_10=-1.171738; m_10_11=1.173663}
!
! Created with skrf (http://scikit-rf.org).
# Hz S RI R 50.0 
!freq ReS11 ImS11 ReS21 ImS21 ReS12 ImS12 ReS22 ImS22
12607400000.0 -0.9705893972190031 0.2407409853055812 5.891225039713488e-17 -3.460783175059823e-17 5.891225039713488e-17 -3.460783175059823e-17 -0.9705895460212168 0.2407403853826301
12608017333.333334 -0.9687189823716348 0.24816029737392245 5.863113156042418e-17 -3.505591232104498e-17 5.863113156042418e-17 -3.505591232104498e-17 -0.9687191357522262 0.24815969863640003
12608634666.666666 -0.9667918542175753 0.25556508098406716 5.834660926964693e-17 -3.5501716587684135e-17 5.834660926964693e-17 -3.5501716587684135e-17 -0.9667920121671164 0.25556448346690824
12609252000.0 -0.9648081255799021 0.2629549026256133 5.805870190313624e-17 -3.594521873521222e-17 5.805870190313624e-17 -3.594521873521222e-17 -0.9648082880886989 0.26295430636367817
12609869333.333334 -0.9627679125953417 0.27032932966413004 5.776742803475109e-17 -3.6386393096310836e-17 5.776742803475109e-17 -3.6386393096310836e-17 -0.9627680796534345 0.2703287346922021
12610486666.666666 -0.9606713347074993 0.2776879303663771 5.747280643269306e-17 -3.682521415311731e-17 5.747280643269306e-17 -3.682521415311731e-17 -0.9606715063046618 0.27768733671916057
12611104000.0 -0.9585185146598105 0.28503027392577096 5.717485605829461e-17 -3.7261656538711583e-17 5.717485605829461e-17 -3.7261656538711583e-17 -0.958518690785554 0.28502968163788944
12611721333.333334 -0.956309578488422 0.29235593048738834 5.687359606482343e-17 -3.769569503855323e-17 5.687359606482343e-17 -3.769569503855323e-17 -0.9563097591319913 0.2923553395933822
12612338666.666666 -0.9540446555147613 0.2996644711732955 5.656904579624981e-17 -3.812730459194753e-17 5.656904579624981e-17 -3.812730459194753e-17 -0.9540448406651388 0.2996638817076202
12612956000.0 -0.9517238783379572 0.3069554681076832 5.626122478601362e-17 -3.855646029348538e-17 5.626122478601362e-17 -3.855646029348538e-17 -0.9517240679838633 0.30695488010470745
12613573333.333334 -0.9493473828271549 0.3142284944416731 5.595015275578965e-17 -3.898313739446095e-17 5.595015275578965e-17 -3.898313739446095e-17 -0.9493475769570473 0.3142279079356765
12614190666.666666 -0.9469153081134752 0.32148312437857857 5.563584961422643e-17 -3.9407311304301474e-17 5.563584961422643e-17 -3.9407311304301474e-17 -0.9469155067155492 0.32148253940374927
12614808000.0 -0.9444277965819008 0.328718933198723 5.531833545568015e-17 -3.982895759197917e-17 5.531833545568015e-17 -3.982895759197917e-17 -0.9444279996440926 0.3287183497891567
12615425333.333334 -0.9418849938629715 0.3359354972842254 5.4997630558942016e-17 -4.024805198740664e-17 5.4997630558942016e-17 -4.024805198740664e-17 -0.9418852013729577 0.3359349154739231
12616042666.666666 -0.9392870488242043 0.34313239414396346 5.4673755385950954e-17 -4.066457038282844e-17 5.4673755385950954e-17 -4.066457038282844e-17 -0.9392872607694 0.34313181396682824
12616660000.0 -0.9366341135614075 0.3503092024381971 5.4346730580496814e-17 -4.1078488834200863e-17 5.4346730580496814e-17 -4.1078488834200863e-17 -0.9366343299289728 0.3503086239280344
12617277333.333334 -0.9339263433897685 0.3574655020032938 5.401657696691233e-17 -4.1489783562563024e-17 5.401657696691233e-17 -4.1489783562563024e-17 -0.9339265641666029 0.3574649251938071
12617894666.666666 -0.931163896834799 0.3646008738761892 5.368331554876112e-17 -4.1898430955387895e-17 5.368331554876112e-17 -4.1898430955387895e-17 -0.9311641220075471 0.3646002988009797
12618512000.0 -0.9283469356229531 0.37171490031921134 5.3346967507497437e-17 -4.230440756794789e-17 5.3346967507497437e-17 -4.230440756794789e-17 -0.9283471651780023 0.3717143270117753
12619129333.333334 -0.925475624672296 0.3788071648441635 5.3007554201144924e-17 -4.2707690124631424e-17 5.3007554201144924e-17 -4.2707690124631424e-17 -0.9254758585957779 0.37880659333788974
12619746666.666666 -0.9225501320827362 0.38587725223699815 5.266509716293561e-17 -4.3108255520286757e-17 5.266509716293561e-17 -4.3108255520286757e-17 -0.9225503703605296 0.3858766825651679
12620364000.0 -0.9195706291262271 0.39292474858202153 5.2319618099958184e-17 -4.350608082153111e-17 5.2319618099958184e-17 -4.350608082153111e-17 -0.9195708717439569 0.3929241807778047
12620981333.333334 -0.9165372902367724 0.3999492412860461 5.197113889178795e-17 -4.3901143268059444e-17 5.197113889178795e-17 -4.3901143268059444e-17 -0.9165375371798106 0.39994867538250034
12621598666.666666 -0.9134502930001484 0.40695031910270374 5.1619681589114377e-17 -4.42934202739334e-17 5.1619681589114377e-17 -4.42934202739334e-17 -0.9134505442536155 0.4069497551327721
12622216000.0 -0.9103098181435508 0.4139275721564171 5.1265268412346567e-17 -4.46828894288742e-17 5.1265268412346567e-17 -4.46828894288742e-17 -0.9103100736923158 0.41392701015292593
12622833333.333334 -0.9071160495249894 0.42088059196644634 5.0907921750219913e-17 -4.5069528499530915e-17 5.0907921750219913e-17 -4.5069528499530915e-17 -0.9071163093536724 0.4208800319621044
12623450666.666666 -0.9038691741225768 0.4278089714707029 5.05476641583942e-17 -4.5453315430738366e-17 5.05476641583942e-17 -4.5453315430738366e-17 -0.9038694382155478 0.427808413498098
12624068000.0 -0.9005693820235171 0.4347123050497074 5.018451835803114e-17 -4.5834228346774796e-17 5.018451835803114e-17 -4.5834228346774796e-17 -0.900569650364899 0.43471174914130567
12624685333.333334 -0.8972168664129672 0.4415901885503629 4.981850723436783e-17 -4.6212245552602585e-17 4.981850723436783e-17 -4.6212245552602585e-17 -0.8972171389866348 0.44158963473850615
12625302666.666666 -0.8938118235628368 0.4484422193093853 4.944965383529612e-17 -4.658734553508275e-17 4.944965383529612e-17 -4.658734553508275e-17 -0.8938121003524189 0.44844166762628934
12625920000.0 -0.8903544528201596 0.4552679961771572 4.907798136989858e-17 -4.695950696421226e-17 4.907798136989858e-17 -4.695950696421226e-17 -0.8903547338090405 0.45526744665491065
12626537333.333334 -0.8868449565955273 0.46206711954101143 4.8703513207015185e-17 -4.7328708694310317e-17 4.8703513207015185e-17 -4.7328708694310317e-17 -0.8868452417668471 0.46206657221157305
12627154666.666666 -0.8832835403512114 0.4688391913486759 4.832627287377344e-17 -4.769492976522044e-17 4.832627287377344e-17 -4.769492976522044e-17 -0.8832838296878656 0.4688386462438725
12627772000.0 -0.8796704125890428 0.4755838151317533 4.7946284054109625e-17 -4.8058149403500755e-17 4.7946284054109625e-17 -4.8058149403500755e-17 -0.8796707060736867 0.47558327228327907
12628389333.333334 -0.876005784838391 0.4823005960285813 4.756357058730758e-17 -4.8418347023577226e-17 4.756357058730758e-17 -4.8418347023577226e-17 -0.8760060824534377 0.4823000554679948
12629006666.666666 -0.8722898716435799 0.4889891408077248 4.717815646649523e-17 -4.8775502228917247e-17 4.717815646649523e-17 -4.8775502228917247e-17 -0.8722901733712025 0.48898860256644794
12629624000.0 -0.8685228905514742 0.4956490578907231 4.679006583715519e-17 -4.9129594813170363e-17 4.679006583715519e-17 -4.9129594813170363e-17 -0.8685231963736071 0.4956485220000384
12630241333.333334 -0.8647050620986639 0.5022799573751638 4.6399322995616604e-17 -4.9480604761306037e-17 4.6399322995616604e-17 -4.9480604761306037e-17 -0.8647053719970026 0.5022794238662134
12630858666.666666 -0.8608366097986189 0.5088814510573852 4.6005952387548756e-17 -4.982851225073079e-17 4.6005952387548756e-17 -4.982851225073079e-17 -0.8608369237546241 0.508880919961169
12631476000.0 -0.8569177601285101 0.5154531524553779 4.560997860642335e-17 -5.017329765241383e-17 4.560997860642335e-17 -5.017329765241383e-17 -0.8569180781234046 0.5154526238027511
12632093333.333334 -0.8529487425160451 0.5219946768312377 4.521142639200289e-17 -5.0514941531969707e-17 4.521142639200289e-17 -5.0514941531969707e-17 -0.8529490645308179 0.5219941506529095
12632710666.666666 -0.8489297893260108 0.5285056412137392 4.4810320628793964e-17 -5.0853424650753783e-17 4.4810320628793964e-17 -5.0853424650753783e-17 -0.8489301153414183 0.5285051175402716
12633328000.0 -0.8448611358465806 0.5349856644209035 4.440668634449322e-17 -5.118872796694334e-17 4.440668634449322e-17 -5.118872796694334e-17 -0.8448614658431463 0.5349851432827085
12633945333.333334 -0.8407430202756728 0.541434367082095 4.400054870844633e-17 -5.152083263658967e-17 4.400054870844633e-17 -5.152083263658967e-17 -0.840743354233689 0.5414338485094332
12634562666.666666 -0.8365756837069311 0.5478513716603537 4.3591933030078377e-17 -5.1849720014674996e-17 4.3591933030078377e-17 -5.1849720014674996e-17 -0.8365760216064592 0.5478508556833317
12635180000.0 -0.8323593701156234 0.5542363024744715 4.3180864757323685e-17 -5.217537165615089e-17 4.3180864757323685e-17 -5.217537165615089e-17 -0.8323597119364973 0.5542357891230424
12635797333.333334 -0.8280943263443435 0.5605887857210123 4.276736947505275e-17 -5.249776931696082e-17 4.276736947505275e-17 -5.249776931696082e-17 -0.8280946720661694 0.560588275024972
12636414666.666666 -0.8237808020886087 0.5669084494961247 4.235147290348397e-17 -5.2816894955056325e-17 4.235147290348397e-17 -5.2816894955056325e-17 -0.8237811516907657 0.5669079414851105
12637032000.0 -0.8194190498822076 0.5731949238173616 4.193320089658773e-17 -5.3132730731400426e-17 4.193320089658773e-17 -5.3132730731400426e-17 -0.819419403343851 0.5731944185208513
12637649333.333334 -0.8150093250823858 0.5794478406453889 4.151257944049096e-17 -5.344525901095295e-17 4.151257944049096e-17 -5.344525901095295e-17 -0.8150096823824461 0.5794473380926983
12638266666.666666 -0.8105518858549428 0.5856668339054609 4.108963465186806e-17 -5.375446236364751e-17 4.108963465186806e-17 -5.375446236364751e-17 -0.8105522469721275 0.5856663341257421
12638884000.0 -0.8060469931590998 0.5918515395088746 4.066439277632634e-17 -5.4060323565355045e-17 4.066439277632634e-17 -5.4060323565355045e-17 -0.8060473580718958 0.5918510425311145
12639501333.333334 -0.8014949107322087 0.5980015953743094 4.023688018678278e-17 -5.436282559883576e-17 4.023688018678278e-17 -5.436282559883576e-17 -0.8014952794188825 0.5980011012273284
12640118666.666666 -0.7968959050743947 0.6041166414489111 3.9807123381844705e-17 -5.466195165467014e-17 3.9807123381844705e-17 -5.466195165467014e-17 -0.7968962775129936 0.6041161501613606
12640736000.0 -0.7922502454327658 0.6101963197296193 3.9375148984149056e-17 -5.495768513220205e-17 3.9375148984149056e-17 -5.495768513220205e-17 -0.7922506216011209 0.6101958313299813
12641353333.333334 -0.7875582037858926 0.6162402742838125 3.8940983738757936e-17 -5.5250009640424506e-17 3.8940983738757936e-17 -5.5250009640424506e-17 -0.7875585836616174 0.6162397888003962
12641970666.666666 -0.7828200548276747 0.6222481512704131 3.850465451147638e-17 -5.55389089989021e-17 3.850465451147638e-17 -5.55389089989021e-17 -0.7828204383881684 0.6222476687313548
12642588000.0 -0.778036075951418 0.6282195989604038 3.8066188287212436e-17 -5.582436723864648e-17 3.8066188287212436e-17 -5.582436723864648e-17 -0.778036463173866 0.6282191193936645
12643205333.333334 -0.7732065472334891 0.6341542677575528 3.762561216831211e-17 -5.610636860299209e-17 3.762561216831211e-17 -5.610636860299209e-17 -0.7732069380948655 0.634153791190917
12643822666.666666 -0.7683317514169176 0.6400518102188791 3.7182953372890615e-17 -5.638489754845626e-17 3.7182953372890615e-17 -5.638489754845626e-17 -0.768332145893985 0.6400513366799526
12644440000.0 -0.7634119738949129 0.6459118810749057 3.673823923315624e-17 -5.66599387455879e-17 3.673823923315624e-17 -5.66599387455879e-17 -0.7634123719642257 0.6459114105911153
12645057333.333334 -0.7584475026941432 0.6517341372498979 3.62914971937342e-17 -5.693147707979846e-17 3.62914971937342e-17 -5.693147707979846e-17 -0.758447904332046 0.6517336698484876
12645674666.666666 -0.7534386284578674 0.6575182378819452 3.5842754809977944e-17 -5.719949765218377e-17 3.5842754809977944e-17 -5.719949765218377e-17 -0.7534390336404995 0.6575177735899768
12646292000.0 -0.7483856444287947 0.6632638443430705 3.5392039746264816e-17 -5.746398578033896e-17 3.5392039746264816e-17 -5.746398578033896e-17 -0.7483860531320897 0.6632633831874206
12646909333.333334 -0.7432888464321357 0.6689706202587946 3.493937977431844e-17 -5.772492699913987e-17 3.493937977431844e-17 -5.772492699913987e-17 -0.7432892586318233 0.6689701622661538
12647526666.666666 -0.7381485328581754 0.6746382315279609 3.4484802771487824e-17 -5.798230706153417e-17 3.4484802771487824e-17 -5.798230706153417e-17 -0.7381489485297837 0.6746377767248323
12648144000.0 -0.732965004644707 0.6802663463423985 3.402833671903859e-17 -5.823611193930817e-17 3.402833671903859e-17 -5.823611193930817e-17 -0.7329654237635629 0.6802658947550955
12648761333.333334 -0.7277385652595654 0.6858546352061787 3.3570009700443895e-17 -5.848632782383714e-17 3.3570009700443895e-17 -5.848632782383714e-17 -0.7277389878007964 0.6858541868608243
12649378666.666666 -0.7224695206828431 0.6914027709549287 3.310984989966311e-17 -5.873294112682658e-17 3.310984989966311e-17 -5.873294112682658e-17 -0.7224699466213785 0.6914023258774533
12649996000.0 -0.7171581793888802 0.696910428775088 3.2647885599405306e-17 -5.897593848104515e-17 3.2647885599405306e-17 -5.897593848104515e-17 -0.7171586086994535 0.6969099869912282
12650613333.333334 -0.7118048523282617 0.7023772862228617 3.2184145179410746e-17 -5.921530674103131e-17 3.2184145179410746e-17 -5.921530674103131e-17 -0.711805284985411 0.7023768477581588
12651230666.666666 -0.7064098529096933 0.707803023243017 3.171865711470221e-17 -5.945103298380016e-17 3.171865711470221e-17 -5.945103298380016e-17 -0.7064102888877634 0.7078025881228156
12651848000.0 -0.7009734969814339 0.7131873221878453 3.1251449973849643e-17 -5.968310450952641e-17 3.1251449973849643e-17 -5.968310450952641e-17 -0.7009739362545777 0.7131868904372916
12652465333.333334 -0.6954961028130637 0.7185298678354924 3.0782552417219976e-17 -5.991150884221966e-17 3.0782552417219976e-17 -5.991150884221966e-17 -0.6954965453552435 0.7185294394795325
12653082666.666666 -0.6899779910767326 0.7238303474085387 3.031199319523393e-17 -6.013623373037953e-17 3.031199319523393e-17 -6.013623373037953e-17 -0.6899784368617227 0.7238299224719187
12653700000.0 -0.6844194848282632 0.7290884505924266 2.983980114659069e-17 -6.035726714765076e-17 2.983980114659069e-17 -6.035726714765076e-17 -0.6844199338296492 0.7290880290996887
12654317333.333334 -0.6788209094885019 0.7343038695533709 2.936600519653094e-17 -6.057459729344368e-17 2.936600519653094e-17 -6.057459729344368e-17 -0.6788213616796852 0.7343034515288545
12654934666.666666 -0.6731825928240653 0.739476298956579 2.889063435505422e-17 -6.078821259356091e-17 2.889063435505422e-17 -6.078821259356091e-17 -0.6731830481782622 0.7394758844244171
12655552000.0 -0.6675048649281468 0.7446054359841235 2.841371771514889e-17 -6.09981017008018e-17 2.841371771514889e-17 -6.09981017008018e-17 -0.6675053234183922 0.7446050249682437
12656169333.333334 -0.6617880582013828 0.7496909803525005 2.79352844510336e-17 -6.120425349554591e-17 2.79352844510336e-17 -6.120425349554591e-17 -0.661788519800529 0.7496905728766203
12656786666.666666 -0.656032507332159 0.7547326343304176 2.745536381636166e-17 -6.140665708633809e-17 2.745536381636166e-17 -6.140665708633809e-17 -0.65603297201288 0.754732230418046
12657404000.0 -0.6502385492772071 0.759730102756053 2.6973985142445437e-17 -6.160530181044809e-17 2.6973985142445437e-17 -6.160530181044809e-17 -0.6502390170119997 0.7597297024304888
12658021333.333334 -0.64440652324171 0.7646830930544904 2.649117783647362e-17 -6.180017723441824e-17 2.649117783647362e-17 -6.180017723441824e-17 -0.6444069940028931 0.7646826963388187
12658638666.666666 -0.6385367706596313 0.7695913152546752 2.60069713797193e-17 -6.199127315459953e-17 2.60069713797193e-17 -6.199127315459953e-17 -0.6385372444193512 0.7695909221717685
12659256000.0 -0.6326296351734928 0.7744544820065957 2.5521395325735346e-17 -6.217857959767705e-17 2.5521395325735346e-17 -6.217857959767705e-17 -0.6326301119037221 0.7744540925791116
12659873333.333334 -0.6266854626144486 0.779272308597941 2.503447929857102e-17 -6.236208682117145e-17 2.503447929857102e-17 -6.236208682117145e-17 -0.626685942286989 0.7792719228483209
12660490666.666666 -0.6207046009820423 0.7840445129707717 2.4546252990970972e-17 -6.254178531393225e-17 2.4546252990970972e-17 -6.254178531393225e-17 -0.6207050835685255 0.7840441309212387
12661108000.0 -0.6146874004236085 0.7887708157382071 2.4056746162552824e-17 -6.271766579662373e-17 2.4056746162552824e-17 -6.271766579662373e-17 -0.6146878858954995 0.7887704374107669
12661725333.333334 -0.6086342132140877 0.793450940200538 2.3565988638024508e-17 -6.288971922218084e-17 2.3565988638024508e-17 -6.288971922218084e-17 -0.6086347015426847 0.7934505656169755
12662342666.666666 -0.6025453937351343 0.7980846123616357 2.307401030535351e-17 -6.305793677626734e-17 2.307401030535351e-17 -6.305793677626734e-17 -0.60254588489157 0.7980842415435137
12662960000.0 -0.5964212984545688 0.8026715609448348 2.258084111396187e-17 -6.322230987770958e-17 2.258084111396187e-17 -6.322230987770958e-17 -0.5964217924098149 0.8026711939134946
12663577333.333334 -0.590262285905353 0.8072115174089364 2.2086511072907193e-17 -6.338283017891966e-17 2.2086511072907193e-17 -6.338283017891966e-17 -0.5902627826302199 0.8072111541854964
12664194666.666666 -0.5840687166646915 0.811704215963864 2.1591050249061148e-17 -6.353948956630507e-17 2.1591050249061148e-17 -6.353948956630507e-17 -0.5840692161298292 0.8117038565692154
12664812000.0 -0.5778409533328952 0.8161493935862364 2.1094488765293955e-17 -6.369228016066054e-17 2.1094488765293955e-17 -6.369228016066054e-17 -0.5778414555087976 0.8161490380410463
12665429333.333334 -0.5715793605121331 0.8205467900347861 2.0596856798636434e-17 -6.384119431755254e-17 2.0596856798636434e-17 -6.384119431755254e-17 -0.5715798653691374 0.8205464383594933
12666046666.666666 -0.5652843047852023 0.8248961478655125 2.0098184578468576e-17 -6.398622462768022e-17 2.0098184578468576e-17 -6.398622462768022e-17 -0.5652848122934915 0.8248958000803267
12666664000.0 -0.5589561546938093 0.8291972124469315 1.959850238466741e-17 -6.412736391723398e-17 1.959850238466741e-17 -6.412736391723398e-17 -0.5589566648234148 0.8291968685718342
12667281333.333334 -0.552595280717321 0.833449731974758 1.909784054580006e-17 -6.426460524822545e-17 1.909784054580006e-17 -6.426460524822545e-17 -0.5525957934381235 0.833449392029499
12667898666.666666 -0.5462020552508193 0.8376534574868243 1.8596229437270708e-17 -6.439794191881643e-17 1.8596229437270708e-17 -6.439794191881643e-17 -0.5462025705325508 0.8376531214909215
12668516000.0 -0.5397768525833916 0.8418081428775914 1.8093699479483765e-17 -6.452736746362773e-17 1.8093699479483765e-17 -6.452736746362773e-17 -0.5397773703956361 0.8418078108503287
12669133333.333334 -0.5333200488762879 0.8459135449125076 1.7590281136021572e-17 -6.465287565402972e-17 1.7590281136021572e-17 -6.465287565402972e-17 -0.5333205691884859 0.8459132168729371
12669750666.666666 -0.5268320221407599 0.8499694232423474 1.7086004911785348e-17 -6.477446049842774e-17 1.7086004911785348e-17 -6.477446049842774e-17 -0.5268325449222073 0.8499690992092835
12670368000.0 -0.5203131522159988 0.8539755404172317 1.6580901351160186e-17 -6.489211624252665e-17 1.6580901351160186e-17 -6.489211624252665e-17 -0.5203136774358503 0.8539752204092533
