! Parameters = {f0=12700.012000; bw=77.238000; Q=6100.000000; N=10; m_0_1=1.303398; m_1_1=0.786230; m_1_2=1.138210; m_2_2=0.785581; m_2_3=0.775173; m_2_8=0.002234; m_2_9=0.038938; m_3_3=0.783644; m_3_4=0.663702; m_3_7=0.002834; m_3_8=-0.094254; m_3_9=0.002234; m_4_4=0.780719; m_4_5=0.500037; m_4_6=0.006351; m_4_7=-0.114803; m_4_8=0.002834; m_5_5=0.781101; m_5_6=0.907392; m_5_7=0.006351; m_6_6=0.781100; m_6_7=0.500379; m_7_7=0.780733; m_7_8=0.663820; m_8_8=0.783642; m_8_9=0.775486; m_9_9=0.785576; m_9_10=1.139288; m_10_10=0.786220; m_10_11=1.304193}
!
! Created with skrf (http://scikit-rf.org).
# Hz S RI R 50.0 
!freq ReS11 ImS11 ReS21 ImS21 ReS12 ImS12 ReS22 ImS22
12607400000.0 0.8463938945016762 -0.532557391602163 -8.526397558628399e-17 9.698603804164475e-17 -8.526397558628399e-17 9.698603804164475e-17 0.8463942601795205 -0.5325568104296263
12608017333.333334 0.8402080715765635 -0.5422641390110596 -8.411685181405298e-17 9.794928340392954e-17 -8.411685181405298e-17 9.794928340392954e-17 0.8402084439012734 -0.5422635621142319
12608634666.666666 0.8339109333920668 -0.5518990443631757 -8.295886038392645e-17 9.889897375391659e-17 -8.295886038392645e-17 9.889897375391659e-17 0.8339113123136653 -0.5518984718180643
12609252000.0 0.827503314226822 -0.5614608311747494 -8.179016132235233e-17 9.983498664912276e-17 -8.179016132235233e-17 9.983498664912276e-17 0.827503699694465 -0.561460263056779
12609869333.333334 0.8209860629965603 -0.5709482326491803 -8.061091603327563e-17 1.007572015346168e-16 -8.061091603327563e-17 1.007572015346168e-16 0.8209864549585406 -0.5709476690331808
12610486666.666666 0.8143600431417197 -0.5803599918447434 -7.942128727590809e-17 1.0166549975848145e-16 -7.942128727590809e-17 1.0166549975848145e-16 0.8143604415454748 -0.5803594328049416
12611104000.0 0.8076261325128559 -0.5896948618413953 -7.822143914227738e-17 1.0255976458704875e-16 -7.822143914227738e-17 1.0255976458704875e-16 0.8076265373049749 -0.5896943074514039
12611721333.333334 0.8007852232546334 -0.5989516059055535 -7.701153703467669e-17 1.03439881219819e-16 -7.701153703467669e-17 1.03439881219819e-16 0.8007856343808648 -0.5989510562383624
12612338666.666666 0.7938382216873707 -0.6081289976543198 -7.579174764289348e-17 1.043057368041529e-16 -7.579174764289348e-17 1.043057368041529e-16 0.7938386390926289 -0.608128452782286
12612956000.0 0.786786048187024 -0.6172258212178588 -7.456223892125643e-17 1.0515722044970913e-16 -7.456223892125643e-17 1.0515722044970913e-16 0.7867864718153974 -0.6172252812126974
12613573333.333334 0.7796296370633933 -0.6262408714003069 -7.332318006562257e-17 1.0599422324253954e-16 -7.332318006562257e-17 1.0599422324253954e-16 0.7796300668581508 -0.6262403363330806
12614190666.666666 0.7723699364361658 -0.635172953839666 -7.2074741490075e-17 1.068166382590067e-16 -7.2074741490075e-17 1.068166382590067e-16 0.7723703723397655 -0.6351724237807767
12614808000.0 0.7650079081093926 -0.6440208851659286 -7.081709480355881e-17 1.0762436057936293e-16 -7.081709480355881e-17 1.0762436057936293e-16 0.7650083500634874 -0.644020360185107
12615425333.333334 0.7575445274440411 -0.6527834931578761 -6.955041278632936e-17 1.0841728730107944e-16 -6.955041278632936e-17 1.0841728730107944e-16 0.7575449753894908 -0.6527829733241752
12616042666.666666 0.7499807832287623 -0.6614596168984062 -6.827486936625844e-17 1.0919531755189536e-16 -6.827486936625844e-17 1.0919531755189536e-16 0.7499812371056369 -0.661459102280189
12616660000.0 0.7423176775489607 -0.6700481069282498 -6.699063959499537e-17 1.0995835250258824e-16 -6.699063959499537e-17 1.0995835250258824e-16 0.7423181372965506 -0.6700475975931817
12617277333.333334 0.7345562256539034 -0.678547825398407 -6.569789962397997e-17 1.1070629537946895e-16 -6.569789962397997e-17 1.1070629537946895e-16 0.7345566912107265 -0.6785473214134466
12617894666.666666 0.7266974558223828 -0.6869576462207037 -6.439682668035164e-17 1.1143905147657428e-16 -6.439682668035164e-17 1.1143905147657428e-16 0.726697927126196 -0.6869571476520966
12618512000.0 0.7187424092262588 -0.6952764552172377 -6.308759904264137e-17 1.121565281676256e-16 -6.308759904264137e-17 1.121565281676256e-16 0.7187428862140608 -0.6952759621305028
12619129333.333334 0.7106921397927634 -0.703503150267713 -6.177039601644252e-17 1.1285863491763838e-16 -6.177039601644252e-17 1.1285863491763838e-16 0.7106926224008081 -0.7035026627276381
12619746666.666666 0.702547714064784 -0.7116366414555683 -6.044539790986093e-17 1.1354528329429904e-16 -6.044539790986093e-17 1.1354528329429904e-16 0.702548202228585 -0.7116361595261983
12620364000.0 0.6943102110593311 -0.7196758512125873 -5.91127860088746e-17 1.1421638697903374e-16 -5.91127860088746e-17 1.1421638697903374e-16 0.6943107047136746 -0.7196753749572198
12620981333.333334 0.6859807221250536 -0.7276197144612041 -5.777274255260118e-17 1.1487186177777505e-16 -5.777274255260118e-17 1.1487186177777505e-16 0.6859812212040038 -0.7276192439423779
12621598666.666666 0.6775603507972262 -0.7354671787560305 -5.642545070838501e-17 1.1551162563146945e-16 -5.642545070838501e-17 1.1551162563146945e-16 0.6775608552341347 -0.735466714035518
12622216000.0 0.6690502126517461 -0.7432172044230866 -5.507109454681479e-17 1.1613559862627107e-16 -5.507109454681479e-17 1.1613559862627107e-16 0.6690507223792619 -0.7432167455618868
12622833333.333334 0.6604514351572564 -0.7508687646976234 -5.370985901662273e-17 1.167437030034454e-16 -5.370985901662273e-17 1.167437030034454e-16 0.6604519501073337 -0.7508683117559523
12623450666.666666 0.6517651575259411 -0.7584208458600015 -5.2341929919463225e-17 1.1733586316898785e-16 -5.2341929919463225e-17 1.1733586316898785e-16 0.6517656776298494 -0.7584203988972853
12624068000.0 0.6429925305623629 -0.7658724473702015 -5.0967493884588786e-17 1.1791200570294312e-16 -5.0967493884588786e-17 1.1791200570294312e-16 0.6429930557506961 -0.7658720064450696
12624685333.333334 0.6341347165110623 -0.7732225820003255 -4.958673834342179e-17 1.1847205936843123e-16 -4.958673834342179e-17 1.1847205936843123e-16 0.6341352467137452 -0.7732221471705991
12625302666.666666 0.6251928889027681 -0.7804702759652196 -4.8199851504068914e-17 1.1901595512036035e-16 -4.8199851504068914e-17 1.1901595512036035e-16 0.6251934240490709 -0.7804698472879095
12625920000.0 0.616168232398601 -0.7876145690517663 -4.680702232565625e-17 1.1954362611387459e-16 -4.680702232565625e-17 1.1954362611387459e-16 0.616168772417144 -0.787614146583061
12626537333.333334 0.6070619426334023 -0.7946545147458572 -4.540844049266854e-17 1.200550077124655e-16 -4.540844049266854e-17 1.200550077124655e-16 0.6070624874521692 -0.7946540985411191
12627154666.666666 0.5978752260572954 -0.80158918035784 -4.4004296389150284e-17 1.2055003749580427e-16 -4.4004296389150284e-17 1.2055003749580427e-16 0.5978757756036389 -0.8015887704715935
12627772000.0 0.5886092997755693 -0.8084176471462815 -4.259478107278798e-17 1.2102865526728364e-16 -4.259478107278798e-17 1.2102865526728364e-16 0.5886098539762245 -0.8084172436322111
12628389333.333334 0.5792653913878436 -0.8151390104393876 -4.1180086249015195e-17 1.2149080306122183e-16 -4.1180086249015195e-17 1.2149080306122183e-16 0.5792659501689355 -0.8151386133503273
12629006666.666666 0.5698447388250618 -0.8217523797551252 -3.976040424492376e-17 1.2193642514980468e-16 -3.976040424492376e-17 1.2193642514980468e-16 0.5698453021121165 -0.8217519891430536
12629624000.0 0.5603485901857379 -0.8282568789190172 -3.8335927983194435e-17 1.2236546804969172e-16 -3.8335927983194435e-17 1.2236546804969172e-16 0.5603491579036902 -0.8282564948350476
12630241333.333334 0.5507782035704596 -0.8346516461803166 -3.690685095589912e-17 1.2277788052833817e-16 -3.690685095589912e-17 1.2277788052833817e-16 0.5507787756436667 -0.8346512686746951
12630858666.666666 0.5411348469153536 -0.8409358343260868 -3.5473367198278494e-17 1.2317361360999864e-16 -3.5473367198278494e-17 1.2317361360999864e-16 0.5411354232676019 -0.8409354634481814
12631476000.0 0.5314197978238153 -0.8471086107936275 -3.4035671262393705e-17 1.2355262058144297e-16 -3.4035671262393705e-17 1.2355262058144297e-16 0.5314203783783322 -0.8471082465919242
12632093333.333334 0.5216343433976518 -0.853169157780517 -3.259395819082071e-17 1.239148569973371e-16 -3.259395819082071e-17 1.239148569973371e-16 0.5216349280771148 -0.8531688003026114
12632710666.666666 0.5117797800662707 -0.8591166723531413 -3.114842349018711e-17 1.242602806853455e-16 -3.114842349018711e-17 1.242602806853455e-16 0.5117803687928197 -0.8591163216457357
12633328000.0 0.501857413414901 -0.8649503665530878 -2.9699263104695414e-17 1.2458885175091423e-16 -2.9699263104695414e-17 1.2458885175091423e-16 0.5018580061101464 -0.8649500226619815
12633945333.333334 0.49186855801181123 -0.8706694675014144 -2.8246673389629786e-17 1.249005325817391e-16 -2.8246673389629786e-17 1.249005325817391e-16 0.49186915459684594 -0.8706691304715003
12634562666.666666 0.48181453723403134 -0.8762732175011242 -2.679085108477181e-17 1.2519528785193588e-16 -2.679085108477181e-17 1.2519528785193588e-16 0.48181513762943995 -0.8762728873763802
12635180000.0 0.47169668309202006 -0.8817608741375416 -2.533199328779627e-17 1.2547308452589645e-16 -2.533199328779627e-17 1.2547308452589645e-16 0.471697287217891 -0.8817605509610285
12635797333.333334 0.46151633605327164 -0.8871317103766372 -2.3870297427622014e-17 1.2573389186183738e-16 -2.3870297427622014e-17 1.2573389186183738e-16 0.4615169438292066 -0.8871313941904904
12636414666.666666 0.45127484486467195 -0.8923850146613743 -2.2405961237743105e-17 1.2597768141503587e-16 -2.2405961237743105e-17 1.2597768141503587e-16 0.4512754562097963 -0.8923847055067977
12637032000.0 0.4409735663737582 -0.8975200910060032 -2.0939182729511297e-17 1.2620442704075782e-16 -2.0939182729511297e-17 1.2620442704075782e-16 0.44097418120673343 -0.8975197889232673
12637649333.333334 0.43061386534903284 -0.9025362590882318 -1.947016016539192e-17 1.2641410489687743e-16 -1.947016016539192e-17 1.2641410489687743e-16 0.4306144835880658 -0.9025359641166653
12638266666.666666 0.42019711429912715 -0.9074328543393729 -1.799909203221415e-17 1.2660669344618147e-16 -1.799909203221415e-17 1.2660669344618147e-16 0.4201977358619813 -0.9074325665173582
12638884000.0 0.40972469329093636 -0.912209228032398 -1.6526177014387262e-17 1.2678217345836563e-16 -1.6526177014387262e-17 1.2678217345836563e-16 0.4097253180949431 -0.9122089473973671
12639501333.333334 0.39919798976685994 -0.9168647473678511 -1.505161396710075e-17 1.2694052801171995e-16 -1.505161396710075e-17 1.2694052801171995e-16 0.39919861772892945 -0.9168644739562805
12640118666.666666 0.38861839836098644 -0.9213987955576873 -1.3575601889537317e-17 1.270817424945003e-16 -1.3575601889537317e-17 1.270817424945003e-16 0.38861902939761866 -0.9213985294050928
12640736000.0 0.3779873207140108 -0.925810771907121 -1.2098339897993682e-17 1.272058046059966e-16 -1.2098339897993682e-17 1.272058046059966e-16 0.37798795474130625 -0.9258105130480531
12641353333.333334 0.36730616528813853 -0.9301000918939518 -1.0620027199159069e-17 1.2731270435727572e-16 -1.0620027199159069e-17 1.2731270435727572e-16 0.36730680222181017 -0.9300998403619922
12641970666.666666 0.3565763471799363 -0.9342661872462409 -9.140863063192826e-18 1.2740243407162975e-16 -9.140863063192826e-18 1.2740243407162975e-16 0.3565769869353199 -0.9342659430739961
12642588000.0 0.3457992879330875 -0.938308506017496 -7.661046796952526e-18 1.2747498838470146e-16 -7.661046796952526e-18 1.2747498838470146e-16 0.3457999304251534 -0.9383082692365949
12643205333.333334 0.3349764153501382 -0.9422265126597673 -6.180777717169574e-18 1.2753036424430294e-16 -6.180777717169574e-18 1.2753036424430294e-16 0.3349770604935028 -0.9422262833008576
12643822666.666666 0.32410916330306955 -0.9460196880947032 -4.700255123626774e-18 1.2756856090992387e-16 -4.700255123626774e-18 1.2756856090992387e-16 0.3241098110120058 -0.9460194661874444
12644440000.0 0.3131989715435686 -0.9496875297822257 -3.2196782723812278e-18 1.2758957995192706e-16 -3.2196782723812278e-18 1.2758957995192706e-16 0.3131996217320185 -0.9496873153552887
12645057333.333334 0.30224728551223135 -0.9532295517871353 -1.7392463489818854e-18 1.275934252504362e-16 -1.7392463489818854e-18 1.275934252504362e-16 0.3022479380938164 -0.9532293448681967
12645674666.666666 0.29125555614706194 -0.9566452848434893 -2.5915844171057027e-19 1.275801029939115e-16 -2.5915844171057027e-19 1.275801029939115e-16 0.29125621103509547 -0.956645085459229
12646292000.0 0.2802252396910282 -0.95993427641684 1.2203864851824145e-18 1.2754962167741582e-16 1.2203864851824145e-18 1.2754962167741582e-16 0.28022589679852583 -0.9599340845929357
12646909333.333334 0.2691577974995913 -0.9630960907640443 2.6991896181249298e-18 1.2750199210057264e-16 2.6991896181249298e-18 1.2750199210057264e-16 0.2691584567392839 -0.9630959065251717
12647526666.666666 0.25805469584666485 -0.9661303089911324 4.1770523209586205e-18 1.2743722736521312e-16 4.1770523209586205e-18 1.2743722736521312e-16 0.25805535713100886 -0.9661301323609583
12648144000.0 0.2469174057304883 -0.969036529108754 5.653776161564105e-18 1.2735534287271544e-16 5.653776161564105e-18 1.2735534287271544e-16 0.2469180689716779 -0.9690363601099359
12648761333.333334 0.2357474026788243 -0.9718143660854186 7.129162938455582e-18 1.2725635632103578e-16 7.129162938455582e-18 1.2725635632103578e-16 0.23574806778880303 -0.9718142047395999
12649378666.666666 0.2245461665534741 -0.9744634518985072 8.603014707344987e-18 1.2714028770143324e-16 8.603014707344987e-18 1.2714028770143324e-16 0.2245468334439467 -0.9744632982263168
12649996000.0 0.21331518135407912 -0.9769834355830667 1.0075133807679196e-17 1.2700715929488418e-16 1.0075133807679196e-17 1.2700715929488418e-16 0.21331584993652272 -0.9769832896041132
12650613333.333334 0.20205593502156682 -0.979373983278286 1.1545322889103375e-17 1.2685699566819228e-16 1.1545322889103375e-17 1.2685699566819228e-16 0.20205660520724333 -0.9793738450111578
12651230666.666666 0.1907699192412442 -0.9816347782716874 1.3013384937847242e-17 1.2668982366979664e-16 1.3013384937847242e-17 1.2668982366979664e-16 0.1907705909412118 -0.98163464773395
12651848000.0 0.17945862924472553 -0.9837655210411774 1.447912330316367e-17 1.2650567242526233e-16 1.447912330316367e-17 1.2650567242526233e-16 0.17945930236985036 -0.9837653982493701
12652465333.333334 0.1681235636121978 -0.9857659292946531 1.5942341723549825e-17 1.2630457333248375e-16 1.5942341723549825e-17 1.2630457333248375e-16 0.16812423807316593 -0.9857658142642872
12653082666.666666 0.15676622407385374 -0.9876357380074103 1.7402844353028143e-17 1.2608656005657165e-16 1.7402844353028143e-17 1.2608656005657165e-16 0.156766899781183 -0.9876356307529675
12653700000.0 0.14538811531062612 -0.9893746994573084 1.886043578733938e-17 1.2585166852443795e-16 1.886043578733938e-17 1.2585166852443795e-16 0.14538879217467796 -0.9893745999922393
12654317333.333334 0.1339907447553446 -0.9909825832575074 2.03149210900017e-17 1.2559993691908857e-16 2.03149210900017e-17 1.2559993691908857e-16 0.13399142268633601 -0.9909824915942292
12654934666.666666 0.1225756223925742 -0.9924591763870638 2.1766105818379013e-17 1.2533140567360315e-16 2.1766105818379013e-17 1.2533140567360315e-16 0.12257630130058945 -0.992459092536958
12655552000.0 0.11114426055867539 -0.9938042832191262 2.321379604963675e-17 1.2504611746481864e-16 2.321379604963675e-17 1.2504611746481864e-16 0.11114494035367828 -0.9938042071925396
12656169333.333334 0.09969817374166841 -0.995017725546833 2.4657798406589513e-17 1.247441172067207e-16 2.4657798406589513e-17 1.247441172067207e-16 0.09969885433351391 -0.9950176573530742
12656786666.666666 0.08823887838030317 -0.9960993426069517 2.609792008351481e-17 1.244254520435265e-16 2.609792008351481e-17 1.244254520435265e-16 0.08823955967874962 -0.9960992822542919
12657404000.0 0.07676789266329492 -0.997048991101166 2.753396887186222e-17 1.2409017134247435e-16 2.753396887186222e-17 1.2409017134247435e-16 0.07676857457801564 -0.9970489385968349
12658021333.333334 0.0652867363281009 -0.9978665452150606 2.896575318586142e-17 1.2373832668631807e-16 2.896575318586142e-17 1.2373832668631807e-16 0.06528741876869652 -0.9978665005652491
12658638666.666666 0.05379693045983316 -0.9985518966347796 3.0393082088029927e-17 1.2336997186553076e-16 3.0393082088029927e-17 1.2336997186553076e-16 0.053797613335843396 -0.9985518598446367
12659256000.0 0.04229999728928299 -0.9991049545614019 3.1815765314632263e-17 1.2298516287019964e-16 3.1815765314632263e-17 1.2298516287019964e-16 0.04230068051019876 -0.9991049256350353
12659873333.333334 0.030797459991616642 -0.9995256457229503 3.323361330097252e-17 1.2258395788164767e-16 3.323361330097252e-17 1.2258395788164767e-16 0.03079814346689191 -0.9995256246634241
12660490666.666666 0.019290842484548328 -0.9998139143840983 3.4646437206614464e-17 1.2216641726375455e-16 3.4646437206614464e-17 1.2216641726375455e-16 0.01929152612361229 -0.999813901193436
12661108000.0 0.007781669226159728 -0.9999697223535672 3.605404894053237e-17 1.217326035539767e-16 3.605404894053237e-17 1.217326035539767e-16 0.007782352938428669 -0.9999697170327495
12661725333.333334 -0.0037285349866707763 -0.9999930489891761 3.745626118605102e-17 1.2128258145410792e-16 3.745626118605102e-17 1.2128258145410792e-16 -0.003727851291781435 -0.9999930515381401
12662342666.666666 -0.015238245220622301 -0.9998838912005787 3.8852887425792924e-17 1.2081641782071696e-16 3.8852887425792924e-17 1.2081641782071696e-16 -0.015237561633686012 -0.9998839016182204
12662960000.0 -0.026745936607707042 -0.9996422634496764 4.02437419664183e-17 1.2033418165532555e-16 4.02437419664183e-17 1.2033418165532555e-16 -0.026745253219274095 -0.9996422817338471
12663577333.333334 -0.03825008454749178 -0.9992681977486948 4.162863996328265e-17 1.1983594409429021e-16 4.162863996328265e-17 1.1983594409429021e-16 -0.0382494014480774 -0.9992682238962068
12664194666.666666 -0.049749164908971535 -0.9987617436559506 4.3007397444964e-17 1.1932177839840424e-16 4.3007397444964e-17 1.1932177839840424e-16 -0.049748482189043784 -0.9987617776625725
12664812000.0 -0.061241654232522966 -0.9981229682692809 4.437983133766274e-17 1.1879175994221666e-16 4.437983133766274e-17 1.1879175994221666e-16 -0.06124097198249079 -0.998123010129741
12665429333.333334 -0.07272602993179697 -0.9973519562171492 4.574575948947814e-17 1.1824596620306924e-16 4.574575948947814e-17 1.1824596620306924e-16 -0.07272534824199835 -0.9973520059251374
12666046666.666666 -0.08420077049515597 -0.9964488096474587 4.710500069451141e-17 1.1768447674987103e-16 4.710500069451141e-17 1.1768447674987103e-16 -0.08420008945584577 -0.9964488671956242
12666664000.0 -0.095664355687875 -0.9954136482139669 4.845737471693896e-17 1.1710737323155304e-16 4.845737471693896e-17 1.1710737323155304e-16 -0.09566367538921318 -0.9954137135939218
12667281333.333334 -0.10711526675275748 -0.9942466090604992 4.980270231477888e-17 1.165147393653148e-16 4.980270231477888e-17 1.165147393653148e-16 -0.1071145872847971 -0.9942466822628193
12667898666.666666 -0.11855198661194304 -0.9929478468027293 5.114080526367813e-17 1.1590666092453172e-16 5.114080526367813e-17 1.1590666092453172e-16 -0.1185513080646183 -0.9929479278169546
12668516000.0 -0.12997300006775628 -0.9915175335077047 5.247150638046654e-17 1.1528322572642482e-16 5.247150638046654e-17 1.1528322572642482e-16 -0.1299723225308706 -0.9915176223223404
12669133333.333334 -0.14137679400322214 -0.989955858671075 5.3794629546552675e-17 1.14644523619467e-16 5.3794629546552675e-17 1.14644523619467e-16 -0.14137611756643648 -0.9899559552735957
12669750666.666666 -0.15276185758281466 -0.9882630291919572 5.510999973122589e-17 1.1399064647049304e-16 5.510999973122589e-17 1.1399064647049304e-16 -0.15276118233563535 -0.9882631335688056
12670368000.0 -0.16412668245253476 -0.9864392693455284 5.641744301476066e-17 1.133216881515634e-16 5.641744301476066e-17 1.133216881515634e-16 -0.16412600848430195 -0.98643938148212
