! Parameters = {f0=12700.012000; bw=77.238000; Q=6100.000000; N=10; m_0_1=1.313809; m_1_1=0.942386; m_1_2=1.148621; m_2_2=0.941737; m_2_3=0.785584; m_2_8=0.002754; m_2_9=0.039458; m_3_3=0.939800; m_3_4=0.674113; m_3_7=0.003354; m_3_8=-0.093734; m_3_9=0.002754; m_4_4=0.936875; m_4_5=0.510448; m_4_6=0.006871; m_4_7=-0.114283; m_4_8=0.003354; m_5_5=0.937257; m_5_6=0.917803; m_5_7=0.006871; m_6_6=0.937256; m_6_7=0.510790; m_7_7=0.936889; m_7_8=0.674231; m_8_8=0.939798; m_8_9=0.785897; m_9_9=0.941732; m_9_10=1.149699; m_10_10=0.942376; m_10_11=1.314604}
!
! Created with skrf (http://scikit-rf.org).
# Hz S RI R 50.0 
!freq ReS11 ImS11 ReS21 ImS21 ReS12 ImS12 ReS22 ImS22
12607400000.0 0.8431150567943385 -0.5377332061594211 -8.876735203211222e-17 1.0222740455615908e-16 -8.876735203211222e-17 1.0222740455615908e-16 0.843115428964712 -0.5377326226308577
12608017333.333334 0.8367013696909477 -0.5476593995880136 -8.752675176665372e-17 1.0325684039411792e-16 -8.752675176665372e-17 1.0325684039411792e-16 0.8367017487127847 -0.5476588205267752
12608634666.666666 0.8301708249447523 -0.557509104329572 -8.627422863671009e-17 1.0427123444098365e-16 -8.627422863671009e-17 1.0427123444098365e-16 0.8301712107644489 -0.5575085298160917
12609252000.0 0.8235243346424242 -0.5672809447280623 -8.500996485691395e-17 1.0527044879587401e-16 -8.500996485691395e-17 1.0527044879587401e-16 0.8235247272054329 -0.5672803748421307
12609869333.333334 0.8167628270640588 -0.5769735560024719 -8.373414423456274e-17 1.0625434776334727e-16 -8.373414423456274e-17 1.0625434776334727e-16 0.8167632263148936 -0.5769729908232241
12610486666.666666 0.8098872465537302 -0.5865855844371124 -8.244695214297139e-17 1.0722279787174913e-16 -8.244695214297139e-17 1.0722279787174913e-16 0.8098876524359786 -0.5865850240430198
12611104000.0 0.8028985533873105 -0.5961156875711083 -8.114857549453495e-17 1.0817566789129927e-16 -8.114857549453495e-17 1.0817566789129927e-16 0.8028989658436387 -0.5961151320399661
12611721333.333334 0.795797723638631 -0.605562534385496 -7.98392027137054e-17 1.09112828851759e-16 -7.98392027137054e-17 1.09112828851759e-16 0.7957981426107923 -0.6055619837944122
12612338666.666666 0.7885857490430443 -0.6149248054892827 -7.851902370964573e-17 1.1003415405986299e-16 -7.851902370964573e-17 1.1003415405986299e-16 0.7885861744718886 -0.6149242599146681
12612956000.0 0.7812636368588105 -0.6242011933038536 -7.718822984874449e-17 1.109395191163738e-16 -7.718822984874449e-17 1.109395191163738e-16 0.7812640686842921 -0.6242006528214119
12613573333.333334 0.7738324097266259 -0.6333904022453251 -7.584701392696489e-17 1.1182880193278712e-16 -7.584701392696489e-17 1.1182880193278712e-16 0.7738328478878098 -0.6333898669300394
12614190666.666666 0.7662931055266731 -0.6424911489056464 -7.449557014191295e-17 1.1270188274776348e-16 -7.449557014191295e-17 1.1270188274776348e-16 0.7662935499617468 -0.6424906188317726
12614808000.0 0.7586467772336514 -0.6515021622318735 -7.313409406479395e-17 1.1355864414317174e-16 -7.313409406479395e-17 1.1355864414317174e-16 0.758647227879932 -0.6515016374729272
12615425333.333334 0.7508944927697422 -0.6604221837036385 -7.176278261216632e-17 1.1439897105980688e-16 -7.176278261216632e-17 1.1439897105980688e-16 0.7508949495636862 -0.6604216643323869
12616042666.666666 0.7430373348555214 -0.669249967508863 -7.038183401749046e-17 1.152227508127852e-16 -7.038183401749046e-17 1.152227508127852e-16 0.7430377977327323 -0.6692494535973131
12616660000.0 0.7350764008586255 -0.6779842807178802 -6.899144780253086e-17 1.1602987310657732e-16 -6.899144780253086e-17 1.1602987310657732e-16 0.7350768697538625 -0.6779837723372688
12617277333.333334 0.7270128026405224 -0.6866239034555844 -6.759182474858343e-17 1.1682023004969908e-16 -6.759182474858343e-17 1.1682023004969908e-16 0.7270132774877134 -0.686623400676371
12617894666.666666 0.7188476664013858 -0.695167629071646 -6.618316686752708e-17 1.1759371616906354e-16 -6.618316686752708e-17 1.1759371616906354e-16 0.7188481471336313 -0.6951671319634988
12618512000.0 0.7105821325224467 -0.7036142643094031 -6.476567737268691e-17 1.1835022842399507e-16 -6.476567737268691e-17 1.1835022842399507e-16 0.7105826190720339 -0.703613772941193
12619129333.333334 0.7022173554071609 -0.7119626294720711 -6.33395606496239e-17 1.1908966621984913e-16 -6.33395606496239e-17 1.1908966621984913e-16 0.7022178477055687 -0.7119621439118586
12619746666.666666 0.6937545033196371 -0.7202115585878464 -6.19050222266582e-17 1.1981193142133962e-16 -6.19050222266582e-17 1.1981193142133962e-16 0.693755001297551 -0.7202110789028772
12620364000.0 0.6851947582215356 -0.7283598995726938 -6.046226874530609e-17 1.2051692836547783e-16 -6.046226874530609e-17 1.2051692836547783e-16 0.6851952618088526 -0.7283594258293837
12620981333.333334 0.6765393156072279 -0.7364065143910085 -5.901150793060192e-17 1.2120456387414126e-16 -5.901150793060192e-17 1.2120456387414126e-16 0.676539824733071 -0.73640604665494
12621598666.666666 0.6677893843364889 -0.7443502792149028 -5.755294856118225e-17 1.2187474726633364e-16 -5.755294856118225e-17 1.2187474726633364e-16 0.6677898989292118 -0.7443498175508104
12622216000.0 0.6589461864659231 -0.7521900845809043 -5.608680043931455e-17 1.2252739037004444e-16 -5.608680043931455e-17 1.2252739037004444e-16 0.6589467064531243 -0.7521896290526692
12622833333.333334 0.6500109570780793 -0.759924835545103 -5.4613274360768743e-17 1.2316240753376152e-16 -5.4613274360768743e-17 1.2316240753376152e-16 0.6500114823866103 -0.7599243862157423
12623450666.666666 0.6409849441092077 -0.7675534518358489 -5.3132582084545865e-17 1.2377971563762768e-16 -5.3132582084545865e-17 1.2377971563762768e-16 0.6409854746651861 -0.7675530087675105
12624068000.0 0.6318694081747145 -0.7750748680048584 -5.164493630250299e-17 1.2437923410422522e-16 -5.164493630250299e-17 1.2437923410422522e-16 0.6318699439035295 -0.7750744312588065
12624685333.333334 0.6226656223931313 -0.7824880335759686 -5.015055060881877e-17 1.2496088490901138e-16 -5.015055060881877e-17 1.2496088490901138e-16 0.6226661632194592 -0.7824876032125812
12625302666.666666 0.6133748722086 -0.7897919131916296 -4.864963946942174e-17 1.2552459259035783e-16 -4.864963946942174e-17 1.2552459259035783e-16 0.6133754180564115 -0.7897914892703859
12625920000.0 0.6039984552108727 -0.796985486757877 -4.7142418191195823e-17 1.2607028425926503e-16 -4.7142418191195823e-17 1.2607028425926503e-16 0.603999006003445 -0.7969850693373507
12626537333.333334 0.5945376809544629 -0.8040677495865011 -4.562910289120095e-17 1.2659788960866266e-16 -4.562910289120095e-17 1.2659788960866266e-16 0.5945382366143896 -0.804067338724353
12627154666.666666 0.5849938707756828 -0.8110377125354249 -4.4109910465701164e-17 1.2710734092237462e-16 -4.4109910465701164e-17 1.2710734092237462e-16 0.5849944312248863 -0.8110373082883942
12627772000.0 0.5753683576078011 -0.8178944021470697 -4.2585058559094017e-17 1.2759857308371164e-16 -4.2585058559094017e-17 1.2759857308371164e-16 0.5753689227675418 -0.8178940045709655
12628389333.333334 0.5656624857953845 -0.8246368607839436 -4.1054765532836636e-17 1.280715235836616e-16 -4.1054765532836636e-17 1.280715235836616e-16 0.565663055586273 -0.8246364699336387
12629006666.666666 0.5558776109060324 -0.8312641467627558 -3.951925043415918e-17 1.2852613252874882e-16 -3.951925043415918e-17 1.2852613252874882e-16 0.5558781852480401 -0.831263762692178
12629624000.0 0.5460150995413989 -0.8377753344856883 -3.7978732964809655e-17 1.289623426484818e-16 -3.7978732964809655e-17 1.289623426484818e-16 0.5460156783538694 -0.8377749572478133
12630241333.333334 0.5360763291461409 -0.844169514569799 -3.6433433449615997e-17 1.2938009930245786e-16 -3.6433433449615997e-17 1.2938009930245786e-16 0.5360769123478016 -0.844169144216643
12630858666.666666 0.5260626878157744 -0.8504457939738751 -3.4883572805071275e-17 1.29779350487064e-16 -3.4883572805071275e-17 1.29779350487064e-16 0.5260632753247477 -0.8504454305564882
12631476000.0 0.5159755741023765 -0.8566032961234349 -3.3329372507729363e-17 1.301600468418333e-16 -3.3329372507729363e-17 1.301600468418333e-16 0.5159761658361919 -0.8566029396918942
12632093333.333334 0.5058163968197632 -0.8626411610328385 -3.1771054562659185e-17 1.305221416553914e-16 -3.1771054562659185e-17 1.305221416553914e-16 0.5058169926953664 -0.8626408116362378
12632710666.666666 0.4955865748463872 -0.8685585454256028 -3.020884147176619e-17 1.3086559087104367e-16 -3.020884147176619e-17 1.3086559087104367e-16 0.4955871747801548 -0.8685582031120516
12633328000.0 0.48528753692724425 -0.874354622852136 -2.864295620202599e-17 1.311903530919904e-16 -2.864295620202599e-17 1.311903530919904e-16 0.4852881408349947 -0.8743542876687492
12633945333.333334 0.47492072147437747 -0.8800285838051332 -2.7073622153753843e-17 1.3149638958614289e-16 -2.7073622153753843e-17 1.3149638958614289e-16 0.47492132927138236 -0.8800282557980255
12634562666.666666 0.46448757636593213 -0.8855796358326641 -2.5501063128750486e-17 1.3178366429057606e-16 -2.5501063128750486e-17 1.3178366429057606e-16 0.4644881879669274 -0.8855793150469428
12635180000.0 0.45398955874403735 -0.8910070036487961 -2.3925503298448518e-17 1.3205214381559256e-16 -2.3925503298448518e-17 1.3205214381559256e-16 0.45399017406323644 -0.8910066901285557
12635797333.333334 0.44342813481109483 -0.8963099292419818 -2.234716717197014e-17 1.3230179744841552e-16 -2.234716717197014e-17 1.3230179744841552e-16 0.44342875376220015 -0.8963096230302975
12636414666.666666 0.43280477962530445 -0.9014876719807673 -2.076627956422445e-17 1.325325971564868e-16 -2.076627956422445e-17 1.325325971564868e-16 0.43280540212152013 -0.9014873731196911
12637032000.0 0.42212097689432326 -0.9065395087174061 -1.9183065563880096e-17 1.3274451759040069e-16 -1.9183065563880096e-17 1.3274451759040069e-16 0.4221216028483659 -0.9065392172479567
12637649333.333334 0.41137821876821695 -0.911464733888756 -1.7597750501386676e-17 1.3293753608644315e-16 -1.7597750501386676e-17 1.3293753608644315e-16 0.4113788480923302 -0.9114644498509192
12638266666.666666 0.40057800563111695 -0.9162626596148118 -1.6010559916955822e-17 1.3311163266875373e-16 -1.6010559916955822e-17 1.3311163266875373e-16 0.40057863823708123 -0.9162623830475292
12638884000.0 0.3897218458915105 -0.9209326157948398 -1.4421719528494697e-17 1.332667900511093e-16 -1.4421719528494697e-17 1.332667900511093e-16 0.38972248169065676 -0.9209323467360061
12639501333.333334 0.37881125577162167 -0.9254739502009438 -1.2831455199557033e-17 1.3340299363832115e-16 -1.2831455199557033e-17 1.3340299363832115e-16 0.37881189467484383 -0.9254736886874024
12640118666.666666 0.3678477590958859 -0.9298860285690644 -1.1239992907312789e-17 1.3352023152725018e-16 -1.1239992907312789e-17 1.3352023152725018e-16 0.36784840101365285 -0.9298857746366006
12640736000.0 0.35683288707751953 -0.9341682346878074 -9.647558710392632e-18 1.3361849450744836e-16 -9.647558710392632e-18 1.3361849450744836e-16 0.3568335319198879 -0.9341679883711442
12641353333.333334 0.34576817810550764 -0.9383199704841687 -8.054378716942354e-18 1.3369777606140368e-16 -8.054378716942354e-18 1.3369777606140368e-16 0.3457688257821343 -0.9383197318169619
12641970666.666666 0.3346551775290053 -0.9423406561073567 -6.4606790524548075e-18 1.3375807236441912e-16 -6.4606790524548075e-18 1.3375807236441912e-16 0.3346558279491607 -0.9423404251221921
12642588000.0 0.32349543744185066 -0.9462297300096408 -4.866685827767729e-18 1.337993822840995e-16 -4.866685827767729e-18 1.337993822840995e-16 0.3234960905144308 -0.9462295067380275
12643205333.333334 0.31229051646584766 -0.9499866490247676 -3.272625107034357e-18 1.3382170737946086e-16 -3.272625107034357e-18 1.3382170737946086e-16 0.3122911720993865 -0.9499864334971332
12643822666.666666 0.30104197953281114 -0.9536108884439077 -1.6787228756675023e-18 1.3382505189965888e-16 -1.6787228756675023e-18 1.3382505189965888e-16 0.3010426376354944 -0.953610680689597
12644440000.0 0.2897513976662173 -0.9571019420888696 -8.520500837960819e-20 1.3380942278233616e-16 -8.520500837960819e-20 1.3380942278233616e-16 0.28975205814589466 -0.9571017421361376
12645057333.333334 0.2784203477618421 -0.9604593223827795 1.5077027627947161e-18 1.3377482965158878e-16 1.5077027627947161e-18 1.3377482965158878e-16 0.27842101052604024 -0.9604591302587897
12645674666.666666 0.2670504123673344 -0.9636825604182379 3.099774880416825e-18 1.3372128481555456e-16 3.099774880416825e-18 1.3372128481555456e-16 0.26705107732327 -0.9636823761490573
12646292000.0 0.2556431794612164 -0.9667712060227971 4.690785993593366e-18 1.336488032636187e-16 4.690785993593366e-18 1.336488032636187e-16 0.2556438465158093 -0.9667710296333941
12646909333.333334 0.2442002422312364 -0.9697248278217987 6.2805109897508925e-18 1.335574026632458e-16 6.2805109897508925e-18 1.335574026632458e-16 0.2442009112911226 -0.9697246593360396
12647526666.666666 0.2327231988518022 -0.972543013298639 7.868725026508659e-18 1.3344710335642816e-16 7.868725026508659e-18 1.3344710335642816e-16 0.23272386982334617 -0.972542852739281
12648144000.0 0.22121365226060677 -0.9752253688524191 9.4552035634171e-18 1.333179283557592e-16 9.4552035634171e-18 1.333179283557592e-16 0.2212143250499153 -0.9752252162411117
12648761333.333334 0.20967320993494643 -0.9777715198528687 1.1039722393652568e-17 1.3316990334013038e-16 1.1039722393652568e-17 1.3316990334013038e-16 0.20967388444788204 -0.9777713752101506
12649378666.666666 0.19810348366729852 -0.9801811106926575 1.262205767564488e-17 1.3300305665005267e-16 1.262205767564488e-17 1.3300305665005267e-16 0.19810415980949214 -0.980180974037952
12649996000.0 0.18650608933990526 -0.9824538048371271 1.4201985964701346e-17 1.3281741928259824e-16 1.4201985964701346e-17 1.3281741928259824e-16 0.18650676701676885 -0.982453676188738
12650613333.333334 0.17488264669925657 -0.9845892848712476 1.577928424447508e-17 1.326130248859734e-16 1.577928424447508e-17 1.326130248859734e-16 0.17488332581599772 -0.9845891642463613
12651230666.666666 0.1632347791300668 -0.9865872525439249 1.7353729958413516e-17 1.323899097537161e-16 1.7353729958413516e-17 1.323899097537161e-16 0.16323545959170094 -0.9865871399586045
12651848000.0 0.15156411342809664 -0.9884474288097312 1.8925101041144177e-17 1.321481128185151e-16 1.8925101041144177e-17 1.321481128185151e-16 0.15156479513946058 -0.9884473242789145
12652465333.333334 0.13987227957328247 -0.9901695538678141 2.049317594970741e-17 1.3188767564566996e-16 2.049317594970741e-17 1.3188767564566996e-16 0.13987296243904815 -0.9901694574053158
12653082666.666666 0.12816091050217168 -0.9917533871981818 2.205773369477052e-17 1.316086424261703e-16 2.205773369477052e-17 1.316086424261703e-16 0.12816159442685882 -0.9917532988166857
12653700000.0 0.11643164187938006 -0.9931987075953551 2.3618553871754756e-17 1.3131105996940362e-16 2.3618553871754756e-17 1.3131105996940362e-16 0.11643232676736986 -0.9931986273064162
12654317333.333334 0.10468611186976681 -0.9945053131991818 2.5175416691777745e-17 1.3099497769551158e-16 2.5175416691777745e-17 1.3099497769551158e-16 0.1046867976253153 -0.9945052410132234
12654934666.666666 0.09292596090916183 -0.9956730215230908 2.6728103012619937e-17 1.3066044762735756e-16 2.6728103012619937e-17 1.3066044762735756e-16 0.09292664743641316 -0.9956729574494033
12655552000.0 0.08115283147533858 -0.9967016694795627 2.827639436951599e-17 1.303075243821393e-16 2.827639436951599e-17 1.303075243821393e-16 0.08115351867833856 -0.9967016135263035
12656169333.333334 0.06936836785895796 -0.9975911134028798 2.9820073005805375e-17 1.2993626516264764e-16 2.9820073005805375e-17 1.2993626516264764e-16 0.06936905564166733 -0.997591065577071
12656786666.666666 0.057574215933465844 -0.998341229069229 3.1358921903574215e-17 1.2954672974813792e-16 3.1358921903574215e-17 1.2954672974813792e-16 0.05757490419977384 -0.9983411893767575
12657404000.0 0.04577202292544933 -0.9989519117140353 3.289272481409161e-17 1.2913898048486024e-16 3.289272481409161e-17 1.2913898048486024e-16 0.04577271157918694 -0.9989518801596508
12658021333.333334 0.03396343718460552 -0.9994230760465864 3.4421266288151033e-17 1.2871308227622327e-16 3.4421266288151033e-17 1.2871308227622327e-16 0.03396412612955904 -0.9994230526339022
12658638666.666666 0.022150107953468882 -0.9997546562619568 3.594433170629424e-17 1.2826910257259939e-16 3.594433170629424e-17 1.2826910257259939e-16 0.02215079709339335 -0.9997546409934488
12659256000.0 0.010333685137013236 -0.9999466060501937 3.7461707308927175e-17 1.2780711136076455e-16 3.7461707308927175e-17 1.2780711136076455e-16 0.010334374375645812 -0.9999465989272008
12659873333.333334 -0.0014841809277532508 -0.9999988986027871 3.897318022623339e-17 1.273271811530037e-16 3.897318022623339e-17 1.273271811530037e-16 -0.0014834916866798143 -0.9999988996255087
12660490666.666666 -0.01330183970205457 -0.999911526616407 4.0478538508015356e-17 1.2682938697584408e-16 4.0478538508015356e-17 1.2682938697584408e-16 -0.013301150554798457 -0.9999115357839066
12661108000.0 -0.02511764067635194 -0.9996845022939321 4.197757115339676e-17 1.263138063584337e-16 4.197757115339676e-17 1.263138063584337e-16 -0.025116951719148857 -0.9996845196041353
12661725333.333334 -0.03692993360037857 -0.9993178573427394 4.34700681402928e-17 1.2578051932059877e-16 4.34700681402928e-17 1.2578051932059877e-16 -0.03692924492942831 -0.999317882792435
12662342666.666666 -0.04873706871384885 -0.9988116429702821 4.4955820454855844e-17 1.2522960836051128e-16 4.4955820454855844e-17 1.2522960836051128e-16 -0.048736380425301803 -0.9988116765551217
12662960000.0 -0.06053739697689978 -0.9981659298769286 4.643462012065552e-17 1.2466115844204685e-16 4.643462012065552e-17 1.2466115844204685e-16 -0.0605367091668436 -0.998165971591429
12663577333.333334 -0.07232927030034698 -0.9973808082460944 4.79062602277759e-17 1.2407525698177366e-16 4.79062602277759e-17 1.2407525698177366e-16 -0.07232858306479312 -0.997380858083637
12664194666.666666 -0.08411104177577929 -0.996456387731649 4.937053496171029e-17 1.2347199383561088e-16 4.937053496171029e-17 1.2347199383561088e-16 -0.08411035521064958 -0.996456445684482
12664812000.0 -0.09588106590574409 -0.9953927974425932 5.0827239632090554e-17 1.2285146128514915e-16 5.0827239632090554e-17 1.2285146128514915e-16 -0.09588038010685748 -0.9953928635018322
12665429333.333334 -0.10763769883350828 -0.9941901859250277 5.227617070128376e-17 1.2221375402361513e-16 5.227617070128376e-17 1.2221375402361513e-16 -0.10763701389656721 -0.9941902600806563
12666046666.666666 -0.11937929857242059 -0.9928487211414284 5.371712581274167e-17 1.2155896914153211e-16 5.371712581274167e-17 1.2155896914153211e-16 -0.119378614592998 -0.9928488033823019
12666664000.0 -0.1311042252357486 -0.9913685904471397 5.51499038192789e-17 1.2088720611199866e-16 5.51499038192789e-17 1.2088720611199866e-16 -0.13110354230927418 -0.9913686807609832
12667281333.333334 -0.14281084126509055 -0.9897500005642684 5.657430481104464e-17 1.2019856677569143e-16 5.657430481104464e-17 1.2019856677569143e-16 -0.14281015948683803 -0.9897500989376847
12667898666.666666 -0.15449751165956582 -0.9879931775527674 5.799013014341131e-17 1.1949315532549113e-16 5.799013014341131e-17 1.1949315532549113e-16 -0.15449683112463883 -0.9879932839712311
12668516000.0 -0.16616260420408013 -0.9860983667788584 5.939718246461803e-17 1.1877107829080652e-16 5.939718246461803e-17 1.1877107829080652e-16 -0.16616192500739937 -0.986098481226722
12669133333.333334 -0.1778044896969519 -0.9840658328808193 6.07952657432241e-17 1.1803244452157272e-16 6.07952657432241e-17 1.1803244452157272e-16 -0.17780381193324235 -0.9840659553413179
12669750666.666666 -0.18942154217790394 -0.9818958597319563 6.218418529539786e-17 1.17277365171909e-16 6.218418529539786e-17 1.17277365171909e-16 -0.1894208659416811 -0.9818959901872072
12670368000.0 -0.20101213915495555 -0.9795887504009841 6.356374781195743e-17 1.165059536834812e-16 6.356374781195743e-17 1.165059536834812e-16 -0.20101146454051227 -0.9795888888319888
