! Parameters = {f0=12700.012000; bw=77.238000; Q=6100.000000; N=10; m_0_1=1.204499; m_1_1=-0.697253; m_1_2=1.039311; m_2_2=-0.697902; m_2_3=0.676274; m_2_8=-0.002711; m_2_9=0.033993; m_3_3=-0.699839; m_3_4=0.564803; m_3_7=-0.002111; m_3_8=-0.099199; m_3_9=-0.002711; m_4_4=-0.702764; m_4_5=0.401138; m_4_6=0.001406; m_4_7=-0.119748; m_4_8=-0.002111; m_5_5=-0.702382; m_5_6=0.808493; m_5_7=0.001406; m_6_6=-0.702383; m_6_7=0.401480; m_7_7=-0.702750; m_7_8=0.564921; m_8_8=-0.699841; m_8_9=0.676587; m_9_9=-0.697907; m_9_10=1.040389; m_10_10=-0.697263; m_10_11=1.205294}
!
! Created with skrf (http://scikit-rf.org).
# Hz S RI R 50.0 
!freq ReS11 ImS11 ReS21 ImS21 ReS12 ImS12 ReS22 ImS22
12607400000.0 -0.8759429603682634 0.48241468694591505 5.648416514837089e-17 -5.716838618405778e-17 5.648416514837089e-17 -5.716838618405778e-17 -0.8759432665644095 0.48241413097080055
12608017333.333334 -0.8717684278182208 0.48991816485938566 5.597512919457084e-17 -5.764495131031512e-17 5.597512919457084e-17 -5.764495131031512e-17 -0.8717687387617186 0.4899176115610087
12608634666.666666 -0.867529620739653 0.4973855216420707 5.5462079157126695e-17 -5.811699061980043e-17 5.5462079157126695e-17 -5.811699061980043e-17 -0.8675299364071122 0.49738497106096063
12609252000.0 -0.8632268516551767 0.5048162067340265 5.4945055217795326e-17 -5.858447036214715e-17 5.4945055217795326e-17 -5.858447036214715e-17 -0.8632271720228626 0.5048156589105094
12609869333.333334 -0.8588604378033016 0.5122096722790006 5.4424097841564033e-17 -5.904735714325812e-17 5.4424097841564033e-17 -5.904735714325812e-17 -0.8588607628471343 0.5122091272531943
12610486666.666666 -0.8544307011149948 0.5195653731648968 5.389924777351801e-17 -5.950561792765785e-17 5.389924777351801e-17 -5.950561792765785e-17 -0.8544310308105527 0.5195648309767101
12611104000.0 -0.849937968189903 0.5268827670640407 5.3370546035633396e-17 -5.995922004086572e-17 5.3370546035633396e-17 -5.995922004086572e-17 -0.8499383025124234 0.5268822277531683
12611721333.333334 -0.8453825702723592 0.5341613144730167 5.2838033923621064e-17 -6.04081311716789e-17 5.2838033923621064e-17 -6.04081311716789e-17 -0.8453829091967406 0.5341607780789376
12612338666.666666 -0.8407648432269174 0.5414004787525196 5.2301753003682517e-17 -6.085231937448774e-17 5.2301753003682517e-17 -6.085231937448774e-17 -0.8407651867277233 0.5413999453144948
12612956000.0 -0.8360851275135452 0.5485997261669925 5.176174510929098e-17 -6.129175307152312e-17 5.176174510929098e-17 -6.129175307152312e-17 -0.8360854755650019 0.5485991957240598
12613573333.333334 -0.8313437681626107 0.5557585259238333 5.1218052337942285e-17 -6.172640105508636e-17 5.1218052337942285e-17 -6.172640105508636e-17 -0.8313441207386129 0.5557579985148068
12614190666.666666 -0.8265411147494002 0.5628763502126024 5.0670717047881277e-17 -6.215623248975454e-17 5.0670717047881277e-17 -6.215623248975454e-17 -0.8265414718235107 0.5628758258760684
12614808000.0 -0.8216775213682945 0.5699526742440076 5.011978185480862e-17 -6.258121691455832e-17 5.011978185480862e-17 -6.258121691455832e-17 -0.8216778829137487 0.5699521530183226
12615425333.333334 -0.8167533466067785 0.5769869762884334 4.956528962858685e-17 -6.300132424511645e-17 4.956528962858685e-17 -6.300132424511645e-17 -0.8167537125964819 0.5769864582117195
12616042666.666666 -0.811768953518865 0.5839787377145904 4.90072834899022e-17 -6.341652477576264e-17 4.90072834899022e-17 -6.341652477576264e-17 -0.8117693239254019 0.5839782228247359
12616660000.0 -0.8067247095984691 0.5909274430275739 4.8445806806937285e-17 -6.38267891816203e-17 4.8445806806937285e-17 -6.38267891816203e-17 -0.8067250843940976 0.5909269313622265
12617277333.333334 -0.8016209867521532 0.597832579907072 4.7880903191995897e-17 -6.42320885206715e-17 4.7880903191995897e-17 -6.42320885206715e-17 -0.8016213659088118 0.5978320715036386
12617894666.666666 -0.7964581612719325 0.604693639244844 4.731261649815107e-17 -6.463239423576678e-17 4.731261649815107e-17 -6.463239423576678e-17 -0.7964585447612413 0.6046931341404881
12618512000.0 -0.7912366138072064 0.6115101151826897 4.674099081581716e-17 -6.502767815664753e-17 4.674099081581716e-17 -6.502767815664753e-17 -0.791237001600469 0.6115096134143275
12619129333.333334 -0.785956729337071 0.6182815051492457 4.61660704693814e-17 -6.541791250188432e-17 4.61660704693814e-17 -6.541791250188432e-17 -0.785957121405275 0.618281006753543
12619746666.666666 -0.7806188971416215 0.6250073098974445 4.5587900013744984e-17 -6.580306988083809e-17 4.5587900013744984e-17 -6.580306988083809e-17 -0.7806192934554442 0.6250068149108167
12620364000.0 -0.775223510773394 0.6316870335411464 4.5006524230896406e-17 -6.618312329555682e-17 4.5006524230896406e-17 -6.618312329555682e-17 -0.7752239113032026 0.631686541999753
12620981333.333334 -0.7697709680283669 0.6383201835916776 4.442198812645637e-17 -6.655804614265153e-17 4.442198812645637e-17 -6.655804614265153e-17 -0.7697713727442171 0.6383196955314194
12621598666.666666 -0.7642616709165719 0.6449062709942041 4.3834336926201095e-17 -6.69278122151452e-17 4.3834336926201095e-17 -6.69278122151452e-17 -0.764262079788219 0.6449057864507245
12622216000.0 -0.7586960256325023 0.6514448101637521 4.3243616072568835e-17 -6.729239570429262e-17 4.3243616072568835e-17 -6.729239570429262e-17 -0.7586964386293937 0.6514443291724289
12622833333.333334 -0.7530744425250606 0.6579353190211108 4.2649871221168556e-17 -6.765177120135834e-17 4.2649871221168556e-17 -6.765177120135834e-17 -0.7530748596163449 0.6579348416170578
12623450666.666666 -0.7473973360675155 0.6643773190281428 4.205314823725487e-17 -6.800591369937662e-17 4.205314823725487e-17 -6.800591369937662e-17 -0.7473977572220424 0.6643768452462064
12624068000.0 -0.7416651248266992 0.6707703352233452 4.145349319220177e-17 -6.835479859487079e-17 4.145349319220177e-17 -6.835479859487079e-17 -0.741665550013021 0.6707698650981003
12624685333.333334 -0.7358782314322753 0.6771138962567148 4.085095235993948e-17 -6.869840168955738e-17 4.085095235993948e-17 -6.869840168955738e-17 -0.735878660618651 0.6771134298224644
12625302666.666666 -0.73003708254562 0.6834075344244619 4.0245572213429436e-17 -6.903669919198609e-17 4.0245572213429436e-17 -6.903669919198609e-17 -0.730037515700017 0.6834070717152327
12625920000.0 -0.7241421088282298 0.6896507857036381 3.963739942104607e-17 -6.936966771919695e-17 3.963739942104607e-17 -6.936966771919695e-17 -0.7241425459183254 0.6896503267531799
12626537333.333334 -0.718193744910085 0.6958431897862254 3.9026480843033366e-17 -6.969728429829427e-17 3.9026480843033366e-17 -6.969728429829427e-17 -0.7181941859032693 0.6958427346280063
12627154666.666666 -0.7121924293576454 0.7019842901130315 3.841286352787752e-17 -7.001952636802997e-17 3.841286352787752e-17 -7.001952636802997e-17 -0.7121928742210245 0.7019838387802373
12627772000.0 -0.7061386046412373 0.7080736339076386 3.779659470869827e-17 -7.033637178033689e-17 3.779659470869827e-17 -7.033637178033689e-17 -0.7061390533416346 0.7080731864331692
12628389333.333334 -0.7000327171028692 0.7141107722093379 3.7177721799636295e-17 -7.064779880182721e-17 3.7177721799636295e-17 -7.064779880182721e-17 -0.7000331696068293 0.7141103286258069
12629006666.666666 -0.6938752169228622 0.7200952599066969 3.6556292392201706e-17 -7.095378611527196e-17 3.6556292392201706e-17 -7.095378611527196e-17 -0.6938756731966523 0.7200948202464271
12629624000.0 -0.6876665580870424 0.7260266557699946 3.593235425163118e-17 -7.12543128210384e-17 3.593235425163118e-17 -7.12543128210384e-17 -0.6876670180966552 0.7260262200650169
12630241333.333334 -0.681407198352984 0.7319045224840323 3.530595531323144e-17 -7.154935843849722e-17 3.530595531323144e-17 -7.154935843849722e-17 -0.6814076620641397 0.731904090766082
12630858666.666666 -0.6750975992165267 0.7377284266801195 3.467714367870312e-17 -7.183890290740093e-17 3.467714367870312e-17 -7.183890290740093e-17 -0.675098066594676 0.7377279989806355
12631476000.0 -0.6687382258774595 0.7434979389683001 3.404596761245137e-17 -7.212292658923088e-17 3.404596761245137e-17 -7.212292658923088e-17 -0.6687386968877866 0.7434975153184218
12632093333.333334 -0.6623295472054525 0.7492126339687966 3.3412475537902423e-17 -7.240141026850524e-17 3.3412475537902423e-17 -7.240141026850524e-17 -0.6623300218128771 0.7492122143993623
12632710666.666666 -0.6558720357054032 0.7548720903434516 3.277671603380324e-17 -7.267433515405686e-17 3.277671603380324e-17 -7.267433515405686e-17 -0.6558725138745829 0.7548716748849947
12633328000.0 -0.6493661674825353 0.7604758908268466 3.213873783047997e-17 -7.294168288029273e-17 3.213873783047997e-17 -7.294168288029273e-17 -0.6493666491778686 0.7604754795095953
12633945333.333334 -0.6428124222074446 0.7660236222569371 3.1498589806148534e-17 -7.320343550839341e-17 3.1498589806148534e-17 -7.320343550839341e-17 -0.6428129073930743 0.7660232151108115
12634562666.666666 -0.6362112830805648 0.7715148756056643 3.0856320983153575e-17 -7.345957552750748e-17 3.0856320983153575e-17 -7.345957552750748e-17 -0.6362117717203786 0.7715144726602727
12635180000.0 -0.6295632367967098 0.776949246008961 3.0211980524243255e-17 -7.371008585589298e-17 3.0211980524243255e-17 -7.371008585589298e-17 -0.6295637288543451 0.7769488472936006
12635797333.333334 -0.622868773508997 0.7823263327967688 2.9565617728797987e-17 -7.395494984204258e-17 2.9565617728797987e-17 -7.395494984204258e-17 -0.622869268947843 0.7823259383404217
12636414666.666666 -0.6161283867929732 0.787645739522363 2.891728202909399e-17 -7.419415126575766e-17 2.891728202909399e-17 -7.419415126575766e-17 -0.6161288855761735 0.7876453493536953
12637032000.0 -0.609342573609913 0.7929070739918324 2.8267022986503704e-17 -7.442767433921136e-17 2.8267022986503704e-17 -7.442767433921136e-17 -0.6093430757003677 0.7929066881391897
12637649333.333334 -0.6025118342704459 0.7981099482927807 2.7614890287742896e-17 -7.465550370795718e-17 2.7614890287742896e-17 -7.465550370795718e-17 -0.6025123396308144 0.7981095667841881
12638266666.666666 -0.5956366723974644 0.8032539788230844 2.6960933741065352e-17 -7.487762445192197e-17 2.6960933741065352e-17 -7.487762445192197e-17 -0.5956371809901703 0.803253601686245
12638884000.0 -0.5887175948891792 0.8083387863190419 2.6305203272485922e-17 -7.509402208635189e-17 2.6305203272485922e-17 -7.509402208635189e-17 -0.58871810667641 0.8083384135813325
12639501333.333334 -0.5817551118815344 0.8133639958834818 2.564774892196011e-17 -7.53046825627387e-17 2.564774892196011e-17 -7.53046825627387e-17 -0.5817556268252463 0.8133636275719532
12640118666.666666 -0.5747497367108989 0.8183292370131928 2.4988620839605695e-17 -7.550959226969596e-17 2.4988620839605695e-17 -7.550959226969596e-17 -0.5747502547728192 0.8183288731545658
12640736000.0 -0.5677019858757778 0.8232341436265499 2.4327869281835935e-17 -7.570873803382849e-17 2.4327869281835935e-17 -7.570873803382849e-17 -0.567702507017408 0.8232337842472163
12641353333.333334 -0.5606123789992435 0.8280783540901496 2.366554460760694e-17 -7.590210712053054e-17 2.366554460760694e-17 -7.590210712053054e-17 -0.5606129031818605 0.8280779992161654
12641970666.666666 -0.5534814387901787 0.8328615112457747 2.3001697274527182e-17 -7.608968723479166e-17 2.3001697274527182e-17 -7.608968723479166e-17 -0.5534819659748407 0.8328611609028642
12642588000.0 -0.5463096910050229 0.8375832624365416 2.2336377835062545e-17 -7.627146652193752e-17 2.2336377835062545e-17 -7.627146652193752e-17 -0.5463102211525692 0.8375829166500908
12643205333.333334 -0.5390976644089339 0.8422432595329421 2.1669636932677513e-17 -7.644743356835581e-17 2.1669636932677513e-17 -7.644743356835581e-17 -0.539098197479991 0.8422429183280006
12643822666.666666 -0.5318458907366409 0.8468411589586273 2.1001525297998948e-17 -7.66175774021795e-17 2.1001525297998948e-17 -7.66175774021795e-17 -0.531846426691622 0.8468408223599023
12644440000.0 -0.5245549046535224 0.8513766217155461 2.0332093744959815e-17 -7.67818874939415e-17 2.0332093744959815e-17 -7.67818874939415e-17 -0.5245554434526322 0.8513762897474034
12645057333.333334 -0.5172252437159719 0.855849313409081 1.9661393166959848e-17 -7.694035375718993e-17 1.9661393166959848e-17 -7.694035375718993e-17 -0.5172257853192095 0.8558489860955428
12645674666.666666 -0.509857448331959 0.8602589042725834 1.8989474532989087e-17 -7.709296654907835e-17 1.8989474532989087e-17 -7.709296654907835e-17 -0.5098579926991208 0.8602585816373267
12646292000.0 -0.5024520617208196 0.8646050691919062 1.8316388883766627e-17 -7.723971667091658e-17 1.8316388883766627e-17 -7.723971667091658e-17 -0.5024526088115017 0.86460475125826
12646909333.333334 -0.495009629873716 0.8688874877290663 1.764218732788468e-17 -7.738059536868734e-17 1.764218732788468e-17 -7.738059536868734e-17 -0.4950101796473191 0.8688871745200127
12647526666.666666 -0.48753070151294575 0.8731058441461363 1.696692103793336e-17 -7.751559433353153e-17 1.696692103793336e-17 -7.751559433353153e-17 -0.4875312539286747 0.873105535684304
12648144000.0 -0.4800158280517 0.8772598274283869 1.629064124661128e-17 -7.764470570220301e-17 1.629064124661128e-17 -7.764470570220301e-17 -0.4800163830685703 0.8772595237360549
12648761333.333334 -0.47246556355331304 0.8813491313072783 1.5613399242874908e-17 -7.776792205747988e-17 1.5613399242874908e-17 -7.776792205747988e-17 -0.4724661211301515 0.8813488324063696
12649378666.666666 -0.46488046469060934 0.8853734542829289 1.4935246368041335e-17 -7.788523642855264e-17 1.4935246368041335e-17 -7.788523642855264e-17 -0.4648810247860591 0.8853731601950134
12649996000.0 -0.45726109070453885 0.889332499646526 1.4256234011912618e-17 -7.799664229137237e-17 1.4256234011912618e-17 -7.799664229137237e-17 -0.45726165327706064 0.8893322103928153
12650613333.333334 -0.4496080033632169 0.8932259755020477 1.3576413608880423e-17 -7.810213356896915e-17 1.3576413608880423e-17 -7.810213356896915e-17 -0.4496085683710932 0.8932256911033954
12651230666.666666 -0.44192176692040686 0.897053594787841 1.2895836634066558e-17 -7.820170463172997e-17 1.2895836634066558e-17 -7.820170463172997e-17 -0.44192233432174455 0.8970533152647406
12651848000.0 -0.4342029480738685 0.900815075297813 1.2214554599395317e-17 -7.829535029765436e-17 1.2214554599395317e-17 -7.829535029765436e-17 -0.434203517826602 0.9008148006703963
12652465333.333334 -0.4264521159235982 0.9045101397022195 1.1532619049742257e-17 -7.838306583256267e-17 1.1532619049742257e-17 -7.838306583256267e-17 -0.4264526879854931 0.9045098699902561
12653082666.666666 -0.41866984193005236 0.9081385155680318 1.0850081559026694e-17 -7.846484695028129e-17 1.0850081559026694e-17 -7.846484695028129e-17 -0.41867041625870743 0.9081382507909258
12653700000.0 -0.41085669987167883 0.9116999353791782 1.0166993726316512e-17 -7.854068981278961e-17 1.0166993726316512e-17 -7.854068981278961e-17 -0.4108572764245304 0.9116996755559689
12654317333.333334 -0.40301326580289526 0.915194136556134 9.48340717195073e-18 -7.861059103033262e-17 9.48340717195073e-18 -7.861059103033262e-17 -0.4030138445372204 0.9151938817054948
12654934666.666666 -0.3951401180115435 0.9186208614753236 8.799373533644017e-18 -7.867454766150143e-17 8.799373533644017e-18 -7.867454766150143e-17 -0.3951406988844615 0.9186206116155575
12655552000.0 -0.3872378369760407 0.921979857488199 8.114944462577981e-18 -7.873255721328133e-17 8.114944462577981e-18 -7.873255721328133e-17 -0.38723841994451796 0.92197961263724
12656169333.333334 -0.37930700532302647 0.9252708769396778 7.430171619548949e-18 -7.878461764106034e-17 7.430171619548949e-18 -7.878461764106034e-17 -0.379307590343879 0.9252706371150887
12656786666.666666 -0.3713482077839364 0.9284936771866038 6.745106671038178e-18 -7.883072734861223e-17 6.745106671038178e-18 -7.883072734861223e-17 -0.3713487948138329 0.9284934424055754
12657404000.0 -0.36336203115223004 0.931648020615494 6.059801285352553e-18 -7.887088518803857e-17 6.059801285352553e-18 -7.887088518803857e-17 -0.363362620147696 0.9316477908948443
12658021333.333334 -0.3553490642398654 0.9347336746601654 5.37430712871518e-18 -7.890509045968231e-17 5.37430712871518e-18 -7.890509045968231e-17 -0.3553496551572845 0.9347334500163351
12658638666.666666 -0.3473098978342281 0.9377504118187421 4.688675861409175e-18 -7.893334291200316e-17 4.688675861409175e-18 -7.893334291200316e-17 -0.3473104906298482 0.9377501922678003
12659256000.0 -0.33924512465409934 0.940698009670621 4.0029591338539055e-18 -7.89556427414245e-17 4.0029591338539055e-18 -7.89556427414245e-17 -0.33924571928403247 0.9406977952282558
12659873333.333334 -0.33115533930640284 0.9435762508926897 3.3172085827619984e-18 -7.897199059214117e-17 3.3172085827619984e-18 -7.897199059214117e-17 -0.33115593572663116 0.9435760415742133
12660490666.666666 -0.32304113824215597 0.9463849232754364 2.6314758272428186e-18 -7.898238755589785e-17 2.6314758272428186e-18 -7.898238755589785e-17 -0.3230417364085339 0.946384719095782
12661108000.0 -0.31490311971243884 0.9491238197386132 1.9458124649222238e-18 -7.898683517173208e-17 1.9458124649222238e-18 -7.898683517173208e-17 -0.3149037195806956 0.9491236207123314
12661725333.333334 -0.30674188372444583 0.951792738346443 1.2602700680834152e-18 -7.89853354256837e-17 1.2602700680834152e-18 -7.89853354256837e-17 -0.3067424852501902 0.9517925444877049
12662342666.666666 -0.29855803199716946 0.9543914823225422 5.749001797910022e-19 -7.897789075047132e-17 5.749001797910022e-19 -7.897789075047132e-17 -0.29855863513589187 0.9543912936451361
12662960000.0 -0.2903521679169528 0.9569198600644506 -1.1024568998123139e-19 -7.896450402513513e-17 -1.1024568998123139e-19 -7.896450402513513e-17 -0.2903527726240295 0.9569196765817816
12663577333.333334 -0.2821248964931667 0.9593776851577085 -7.951160681961127e-19 -7.894517857464619e-17 -7.951160681961127e-19 -7.894517857464619e-17 -0.2821255027238625 0.9593775068827969
12664194666.666666 -0.27387682431352073 0.9617647763896241 -1.4796595226282513e-18 -7.891991816948226e-17 -1.4796595226282513e-18 -7.891991816948226e-17 -0.27387743202299264 0.9617646033351062
12664812000.0 -0.26560855949925893 0.9640809577626615 -2.163824665698734e-18 -7.88887270251709e-17 -2.163824665698734e-18 -7.88887270251709e-17 -0.2656091686425593 0.9640807899407867
12665429333.333334 -0.2573207116604873 0.9663260585073669 -2.8475601583430953e-18 -7.885160980179815e-17 -2.8475601583430953e-18 -7.885160980179815e-17 -0.2573213221925668 0.9663258959299976
12666046666.666666 -0.24901389185114545 0.9684999130949824 -3.530814713824809e-18 -7.880857160348573e-17 -3.530814713824809e-18 -7.880857160348573e-17 -0.2490145037268571 0.9684997557735932
12666664000.0 -0.2406887125238729 0.9706023612496744 -4.213537101615063e-18 -7.875961797783207e-17 -4.213537101615063e-18 -7.875961797783207e-17 -0.24068932569797505 0.9706022091953518
12667281333.333334 -0.23234578748501727 0.9726332479603038 -4.895676151174966e-18 -7.870475491532474e-17 -4.895676151174966e-18 -7.870475491532474e-17 -0.23234640191217693 0.9726331011837444
12667898666.666666 -0.2239857318493254 0.9745924234918739 -5.577180755821329e-18 -7.864398884871486e-17 -5.577180755821329e-18 -7.864398884871486e-17 -0.22398634748412163 0.9745922820033849
12668516000.0 -0.2156091619943696 0.9764797433966194 -6.257999876527916e-18 -7.857732665236166e-17 -6.257999876527916e-18 -7.857732665236166e-17 -0.21560977879129678 0.9764796072061162
12669133333.333334 -0.2072166955155735 0.9782950685245478 -6.938082545735839e-18 -7.850477564154374e-17 -6.938082545735839e-18 -7.850477564154374e-17 -0.20721731342904467 0.9782949376415543
12669750666.666666 -0.1988089511801782 0.9800382650338102 -7.617377871163768e-18 -7.84263435717365e-17 -7.617377871163768e-18 -7.84263435717365e-17 -0.19880957016452877 0.9800381394674587
12670368000.0 -0.19038654888195525 0.9817092044005005 -8.295835039615455e-18 -7.834203863785632e-17 -8.295835039615455e-18 -7.834203863785632e-17 -0.1903871688914459 0.9817090841595298
