! Parameters = {f0=12700.012000; bw=77.238000; Q=6100.000000; N=10; m_0_1=1.291386; m_1_1=0.606050; m_1_2=1.126198; m_2_2=0.605401; m_2_3=0.763161; m_2_8=0.001633; m_2_9=0.038337; m_3_3=0.603464; m_3_4=0.651690; m_3_7=0.002233; m_3_8=-0.094855; m_3_9=0.001633; m_4_4=0.600539; m_4_5=0.488025; m_4_6=0.005750; m_4_7=-0.115404; m_4_8=0.002233; m_5_5=0.600921; m_5_6=0.895380; m_5_7=0.005750; m_6_6=0.600920; m_6_7=0.488367; m_7_7=0.600553; m_7_8=0.651808; m_8_8=0.603462; m_8_9=0.763474; m_9_9=0.605396; m_9_10=1.127276; m_10_10=0.606040; m_10_11=1.292181}
!
! Created with skrf (http://scikit-rf.org).
# Hz S RI R 50.0 
!freq ReS11 ImS11 ReS21 ImS21 ReS12 ImS12 ReS22 ImS22
12607400000.0 0.9162839794958932 0.4005292360352573 -1.2126879305663842e-16 -1.5125384344526988e-17 -1.2126879305663842e-16 -1.5125384344526988e-17 0.9162837069998284 0.40052985941933245
12608017333.333334 0.9206948547787338 0.3902832104815469 -1.2140741315208523e-16 -1.3758231440682488e-17 -1.2140741315208523e-16 -1.3758231440682488e-17 0.9206945892664432 0.39028383683585
12608634666.666666 0.9249911616834453 0.37998861931290356 -1.215306297482311e-16 -1.2389874485797031e-17 -1.215306297482311e-16 -1.2389874485797031e-17 0.9249909031872839 0.3799892485592063
12609252000.0 0.9291723655911684 0.3696467435559649 -1.2163843330157416e-16 -1.1020486922896104e-17 -1.2163843330157416e-16 -1.1020486922896104e-17 0.9291721141426131 0.369647375615686
12609869333.333334 0.9332379462061082 0.35925887012128566 -1.2173081622038918e-16 -9.650242257338418e-18 -1.2173081622038918e-16 -9.650242257338418e-18 0.9332377018357573 0.3592595049155023
12610486666.666666 0.9371873976202297 0.3488262916433319 -1.2180777286492157e-16 -8.279314034882994e-18 -1.2180777286492157e-16 -8.279314034882994e-18 0.9371871603577974 0.3488269290927884
12611104000.0 0.9410202283763233 0.33835030631933777 -1.2186929954733837e-16 -6.907875819704295e-18 -1.2186929954733837e-16 -6.907875819704295e-18 0.9410199982506368 0.338350946344456
12611721333.333334 0.9447359615290176 0.32783221774813354 -1.2191539453142671e-16 -5.5361011725002115e-18 -1.2191539453142671e-16 -5.5361011725002115e-18 0.9447357385680132 0.32783286026902253
12612338666.666666 0.9483341347042314 0.31727333476766423 -1.219460580320515e-16 -4.1641636285259656e-18 -1.219460580320515e-16 -4.1641636285259656e-18 0.9483339189349504 0.31727397970413024
12612956000.0 0.9518143001567034 0.3066749712921204 -1.219612922143638e-16 -2.7922366756744248e-18 -1.219612922143638e-16 -2.7922366756744248e-18 0.9518140916052904 0.30667561856367703
12613573333.333334 0.9551760248256291 0.296038446148681 -1.2196110119276278e-16 -1.4204937326022038e-18 -1.2196110119276278e-16 -1.4204937326022038e-18 0.9551758235173287 0.2960390956745595
12614190666.666666 0.9584188903886427 0.285365082913135 -1.2194549102961414e-16 -4.91081268072252e-20 -1.2194549102961414e-16 -4.91081268072252e-20 0.9584186963477936 0.28536573461229336
12614808000.0 0.9615424933138198 0.2746562097453121 -1.219144697337205e-16 1.3217469272181882e-18 -1.219144697337205e-16 1.3217469272181882e-18 0.9615423065638558 0.2746568635364462
12615425333.333334 0.9645464449099065 0.2639131592237852 -1.2186804725854753e-16 2.6918983498494855e-18 -1.2186804725854753e-16 2.6918983498494855e-18 0.9645462654733518 0.26391381502533867
12616042666.666666 0.9674303713746849 0.2531372681800483 -1.218062355002055e-16 4.06117321812837e-18 -1.218062355002055e-16 4.06117321812837e-18 0.9674301992731511 0.25313792591022244
12616660000.0 0.9701939138414875 0.24232987753216503 -1.2172904829518496e-16 5.4293987875675824e-18 -1.2172904829518496e-16 5.4293987875675824e-18 0.9701937490956719 0.2423305371089295
12617277333.333334 0.9728367284238616 0.2314923321178821 -1.2163650141784895e-16 6.796402513910742e-18 -1.2163650141784895e-16 6.796402513910742e-18 0.9728365710535436 0.23149299345898436
12617894666.666666 0.9753584862583257 0.22062598052741908 -1.2152861257768259e-16 8.162012074841137e-18 -1.2152861257768259e-16 8.162012074841137e-18 0.9753583362823661 0.22062664355039552
12618512000.0 0.9777588735453674 0.20973217493535082 -1.2140540141629442e-16 9.526055391709164e-18 -1.2140540141629442e-16 9.526055391709164e-18 0.9777587309817031 0.20973283955753613
12619129333.333334 0.9800375915883979 0.19881227093273368 -1.212668895041824e-16 1.0888360651134232e-17 -1.212668895041824e-16 1.0888360651134232e-17 0.9800374564540442 0.19881293707127226
12619746666.666666 0.9821943568309832 0.18786762735817208 -1.2111310033725092e-16 1.2248756326647563e-17 -1.2111310033725092e-16 1.2248756326647563e-17 0.9821942291420276 0.18786829493002727
12620364000.0 0.9842289008921492 0.17689960612858763 -1.2094405933308687e-16 1.3607071200255553e-17 -1.2094405933308687e-16 1.3607071200255553e-17 0.9842287806637524 0.17690027505055286
12620981333.333334 0.9861409705996781 0.16590957207027732 -1.207597938270001e-16 1.4963134383925055e-17 -1.207597938270001e-16 1.4963134383925055e-17 0.9861408578460696 0.16591024225898593
12621598666.666666 0.9879303280217141 0.1548988927485486 -1.2056033306781456e-16 1.6316775341083713e-17 -1.2056033306781456e-16 1.6316775341083713e-17 0.9879302227561932 0.15489956412048464
12622216000.0 0.9895967504963364 0.1438689382977105 -1.203457082134254e-16 1.766782390801596e-17 -1.203457082134254e-16 1.766782390801596e-17 0.9895966527312688 0.14386961076921886
12622833333.333334 0.9911400306592558 0.13282108125063485 -1.20115952326114e-16 1.9016110315227607e-17 -1.20115952326114e-16 1.9016110315227607e-17 0.991139940406073 0.13282175473793192
12623450666.666666 0.9925599764696095 0.12175669636807578 -1.1987110036762702e-16 2.036146520873172e-17 -1.1987110036762702e-16 2.036146520873172e-17 0.9925598937388068 0.12175737078725957
12624068000.0 0.993856411233888 0.11067716046734492 -1.1961118919401245e-16 2.1703719671304432e-17 -1.1961118919401245e-16 2.1703719671304432e-17 0.9938563360350254 0.11067783573440598
12624685333.333334 0.9950291736279285 0.09958385225095659 -1.193362575502204e-16 2.3042705243663446e-17 -1.193362575502204e-16 2.3042705243663446e-17 0.9950291059696251 0.09958452828178785
12625302666.666666 0.9960781177169323 0.08847815213548897 -1.1904634606447557e-16 2.4378253945539915e-17 -1.1904634606447557e-16 2.4378253945539915e-17 0.9960780576068704 0.08847882884589678
12625920000.0 0.9970031129736922 0.07736144207927365 -1.1874149724239216e-16 2.5710198296786336e-17 -1.1874149724239216e-16 2.5710198296786336e-17 0.9970030604186133 0.07736211938498794
12626537333.333334 0.9978040442947881 0.06623510541082417 -1.1842175546088586e-16 2.7038371338264366e-17 -1.1842175546088586e-16 2.7038371338264366e-17 0.9978039993004921 0.06623578322750902
12627154666.666666 0.9984808120149208 0.055100526656671464 -1.1808716696182354e-16 2.836260665279046e-17 -1.1808716696182354e-16 2.836260665279046e-17 0.9984807745862676 0.0551012048999357
12627772000.0 0.9990333319193423 0.043959091368623776 -1.1773777984544442e-16 2.968273838597391e-17 -1.1773777984544442e-16 2.968273838597391e-17 0.99903330206025 0.04395976995403138
12628389333.333334 0.9994615352542924 0.03281218595203368 -1.1737364406357535e-16 3.0998601266875544e-17 -1.1737364406357535e-16 3.0998601266875544e-17 0.9994615129677358 0.032812864795114235
12629006666.666666 0.9997653687355847 0.02166119749271059 -1.1699481141256964e-16 3.231003062876174e-17 -1.1699481141256964e-16 3.231003062876174e-17 0.999765354023597 0.021661876508969974
12629624000.0 0.9999447945552226 0.01050751358465691 -1.1660133552605938e-16 3.361686242960371e-17 -1.1660133552605938e-16 3.361686242960371e-17 0.9999447874188936 0.010508192689587659
12630241333.333334 0.9999997903861084 -0.0006474778427702619 -1.1619327186744979e-16 3.491893327259993e-17 -1.1619327186744979e-16 3.491893327259993e-17 0.999999790825586 -0.0006467987336783626
12630858666.666666 0.9999303493848226 -0.011802388697398162 -1.1577067772220188e-16 3.621608042654916e-17 -1.1577067772220188e-16 3.621608042654916e-17 0.9999303573993115 -0.011801709668647596
12631476000.0 0.9997364801924723 -0.02295583089728084 -1.1533361218986925e-16 3.750814184619073e-17 -1.1533361218986925e-16 3.750814184619073e-17 0.9997364957802348 -0.02295515203335583
12632093333.333334 0.9994182069336188 -0.03410641654305825 -1.1488213617593453e-16 3.8794956192371405e-17 -1.1488213617593453e-16 3.8794956192371405e-17 0.9994182300919753 -0.034105737928414245
12632710666.666666 0.998975569213277 -0.04525275809083262 -1.144163123834004e-16 4.007636285217751e-17 -1.144163123834004e-16 4.007636285217751e-17 0.998975599938606 -0.04525207980988582
12633328000.0 0.9984086221119792 -0.05639346852497209 -1.1393620530415748e-16 4.1352201958963884e-17 -1.1393620530415748e-16 4.1352201958963884e-17 0.9984086603997181 -0.056392790662088896
12633945333.333334 0.9977174361789303 -0.06752716153045084 -1.1344188121014535e-16 4.2622314412235325e-17 -1.1344188121014535e-16 4.2622314412235325e-17 0.9977174820235761 -0.06752648416993744
12634562666.666666 0.996902097423225 -0.07865245166550003 -1.1293340814427672e-16 4.3886541897468956e-17 -1.1293340814427672e-16 4.3886541897468956e-17 0.9969021508183337 -0.07865177489159175
12635180000.0 0.9959627073031414 -0.08976795453397891 -1.1241085591114754e-16 4.514472690580992e-17 -1.1241085591114754e-16 4.514472690580992e-17 0.9959627682413333 -0.08976727843083007
12635797333.333334 0.9948993827135219 -0.10087228695767375 -1.1187429606752582e-16 4.639671275366408e-17 -1.1187429606752582e-16 4.639671275366408e-17 0.9948994511864757 -0.10087161160934674
12636414666.666666 0.9937122559712281 -0.11196406714830226 -1.113238019126303e-16 4.7642343602163133e-17 -1.113238019126303e-16 4.7642343602163133e-17 0.993712331969689 -0.11196339263875758
12637032000.0 0.992401474798669 -0.1230419148796296 -1.1075944847817818e-16 4.888146447654671e-17 -1.1075944847817818e-16 4.888146447654671e-17 0.9924015583124435 -0.12304124129271485
12637649333.333334 0.9909672023054185 -0.13410445165910487 -1.1018131251823285e-16 5.011392128539298e-17 -1.1018131251823285e-16 5.011392128539298e-17 0.9909672933233823 -0.13410377907854507
12638266666.666666 0.9894096169679295 -0.14515030089942657 -1.095894724988257e-16 5.1339560839762197e-17 -1.095894724988257e-16 5.1339560839762197e-17 0.9894097154780227 -0.14514962940881296
12638884000.0 0.9877289126073105 -0.15617808808983877 -1.0898400858737858e-16 5.255823087218324e-17 -1.0898400858737858e-16 5.255823087218324e-17 0.9877290185965453 -0.15617741777261918
12639501333.333334 0.9859252983652157 -0.16718644096720078 -1.0836500264190204e-16 5.376978005555158e-17 -1.0836500264190204e-16 5.376978005555158e-17 0.9859254118196716 -0.1671857719066685
12640118666.666666 0.983998998677837 -0.17817398968657758 -1.0773253820000104e-16 5.497405802186357e-17 -1.0773253820000104e-16 5.497405802186357e-17 0.9839991195826687 -0.1781733219658617
12640736000.0 0.9819502532479069 -0.18913936699214814 -1.0708670046763659e-16 5.617091538089252e-17 -1.0708670046763659e-16 5.617091538089252e-17 0.9819503815873422 -0.18913870069420285
12641353333.333334 0.979779317014984 -0.2000812083866703 -1.0642757630774539e-16 5.736020373861227e-17 -1.0642757630774539e-16 5.736020373861227e-17 0.9797794527723275 -0.20008054359426455
12641970666.666666 0.9774864601236273 -0.21099815230186206 -1.0575525422858147e-16 5.854177571562429e-17 -1.0575525422858147e-16 5.854177571562429e-17 0.9774866032812616 -0.21099748909756938
12642588000.0 0.9750719678898273 -0.22188884026755096 -1.0506982437190516e-16 5.971548496535545e-17 -1.0506982437190516e-16 5.971548496535545e-17 0.9750721184292175 -0.2218881787337395
12643205333.333334 0.9725361407655017 -0.23275191708074663 -1.0437137850095244e-16 6.088118619215163e-17 -1.0437137850095244e-16 6.088118619215163e-17 0.9725362986671958 -0.23275125729956864
12643822666.666666 0.9698792943010811 -0.24358603097438833 -1.0366000998819821e-16 6.203873516923983e-17 -1.0366000998819821e-16 6.203873516923983e-17 0.9698794595447111 -0.2435853730277694
12644440000.0 0.9671017591062729 -0.2543898337854158 -1.0293581380293743e-16 6.318798875652228e-17 -1.0293581380293743e-16 6.318798875652228e-17 0.9671019316705609 -0.25438917775504566
12645057333.333334 0.9642038808089184 -0.26516198112255873 -1.0219888649865832e-16 6.432880491824339e-17 -1.0219888649865832e-16 6.432880491824339e-17 0.9642040606716774 -0.26516132708988066
12645674666.666666 0.9611860200119844 -0.2759011325336292 -1.0144932620022288e-16 6.546104274050798e-17 -1.0144932620022288e-16 6.546104274050798e-17 0.961186207150122 -0.27590048057983024
12646292000.0 0.9580485522486378 -0.2866059516725145 -1.0068723259083928e-16 6.658456244867016e-17 -1.0068723259083928e-16 6.658456244867016e-17 0.9580487466381572 -0.2866053018785146
12646909333.333334 0.9547918679356122 -0.2972751064651118 -9.991270689888162e-17 6.769922542451498e-17 -9.991270689888162e-17 6.769922542451498e-17 0.9547920695516179 -0.2972744589115545
12647526666.666666 0.9514163723245599 -0.30790726927533413 -9.912585188447695e-17 6.880489422334957e-17 -9.912585188447695e-17 6.880489422334957e-17 0.9514165811412592 -0.30790662404257635
12648144000.0 0.9479224854515943 -0.3185011170703975 -9.832677182591586e-17 6.990143259092252e-17 -9.832677182591586e-17 6.990143259092252e-17 0.9479227014423011 -0.3185004742384996
12648761333.333334 0.944310642085096 -0.3290553315852102 -9.751557250589883e-17 7.098870548015162e-17 -9.751557250589883e-17 7.098870548015162e-17 0.9443108652222341 -0.3290546912339259
12649378666.666666 0.9405812916716193 -0.3395685994864163 -9.669236119758475e-17 7.206657906771683e-17 -9.669236119758475e-17 7.206657906771683e-17 0.9405815219267266 -0.339567961695183
12649996000.0 0.9367348982798817 -0.35003961253606386 -9.585724665042368e-17 7.313492077053197e-17 -9.585724665042368e-17 7.313492077053197e-17 0.9367351356236125 -0.3500389773839926
12650613333.333334 0.9327719405430267 -0.36046706775434256 -9.501033907586235e-17 7.419359926198189e-17 -9.501033907586235e-17 7.419359926198189e-17 0.9327721849451565 -0.36046643532020817
12651230666.666666 0.9286929115992111 -0.3708496675813513 -9.415175013285529e-17 7.524248448801772e-17 -9.415175013285529e-17 7.524248448801772e-17 0.928693163028639 -0.37084903794358254
12651848000.0 0.9244983190299916 -0.38118612003919833 -9.32815929131485e-17 7.628144768314566e-17 -9.32815929131485e-17 7.628144768314566e-17 0.9244985774547473 -0.3811854932758689
12652465333.333334 0.9201886847973619 -0.39147513889226837 -9.239998192646987e-17 7.731036138614559e-17 -9.239998192646987e-17 7.731036138614559e-17 0.9201889501846058 -0.3914745150810863
12653082666.666666 0.9157645451788027 -0.4017154438072788 -9.150703308549452e-17 7.83290994556829e-17 -9.150703308549452e-17 7.83290994556829e-17 0.9157648174948347 -0.4017148230255778
12653700000.0 0.9112264507003422 -0.4119057605130989 -9.06028636906291e-17 7.933753708575692e-17 -9.06028636906291e-17 7.933753708575692e-17 0.911226729910601 -0.41190514283782753
12654317333.333334 0.9065749660683158 -0.42204482095868723 -8.968759241467887e-17 8.03355508209159e-17 -8.968759241467887e-17 8.03355508209159e-17 0.9065752521373864 -0.42204420646640023
12654934666.666666 0.901810670098926 -0.43213136347127634 -8.876133928729239e-17 8.132301857135634e-17 -8.876133928729239e-17 8.132301857135634e-17 0.9018109629905435 -0.4321307522381249
12655552000.0 0.8969341556462267 -0.4421641329133431 -8.782422567926385e-17 8.229981962781849e-17 -8.782422567926385e-17 8.229981962781849e-17 0.8969344553232805 -0.4421635250150655
12656169333.333334 0.8919460295284599 -0.45214188083856455 -8.687637428669355e-17 8.326583467627974e-17 -8.687637428669355e-17 8.326583467627974e-17 0.8919463359529991 -0.45214127635047663
12656786666.666666 0.8868469124524211 -0.46206336564742523 -8.59179091149417e-17 8.422094581251222e-17 -8.59179091149417e-17 8.422094581251222e-17 0.8868472255856598 -0.4620627646444117
12657404000.0 0.8816374389362848 -0.47192735274159153 -8.494895546245926e-17 8.516503655642046e-17 -8.494895546245926e-17 8.516503655642046e-17 0.8816377587386048 -0.47192675529809563
12658021333.333334 0.8763182572306193 -0.48173261467759143 -8.396963990444447e-17 8.609799186621002e-17 -8.396963990444447e-17 8.609799186621002e-17 0.8763185836615763 -0.4817320208676059
12658638666.666666 0.8708900292377879 -0.49147793131942746 -8.298009027636432e-17 8.70196981523502e-17 -8.298009027636432e-17 8.70196981523502e-17 0.870890362256118 -0.4914773412164867
12659256000.0 0.8653534304294482 -0.5011620899906575 -8.198043565727373e-17 8.793004329139475e-17 -8.198043565727373e-17 8.793004329139475e-17 0.8653537699930712 -0.5011615036678269
12659873333.333334 0.8597091497626229 -0.5107838856250723 -8.09708063530534e-17 8.882891663954616e-17 -8.09708063530534e-17 8.882891663954616e-17 0.859709495828648 -0.5107833031549394
12660490666.666666 0.853957889593967 -0.5203421209166494 -7.995133387946751e-17 8.971620904605887e-17 -7.995133387946751e-17 8.971620904605887e-17 0.8539582421186992 -0.5203415423713162
12661108000.0 0.8481003655922268 -0.5298356064687887 -7.892215094502346e-17 9.059181286649316e-17 -7.892215094502346e-17 9.059181286649316e-17 0.8481007245311716 -0.5298350319198615
12661725333.333334 0.8421373066493891 -0.5392631609419762 -7.788339143379802e-17 9.145562197567682e-17 -7.788339143379802e-17 9.145562197567682e-17 0.8421376719572574 -0.5392625904605561
12662342666.666666 0.8360694547898146 -0.5486236112010502 -7.68351903880187e-17 9.230753178055954e-17 -7.68351903880187e-17 9.230753178055954e-17 0.8360698264205301 -0.5486230448577267
12662960000.0 0.8298975650779808 -0.5579157924610658 -7.577768399056224e-17 9.314743923281948e-17 -7.577768399056224e-17 9.314743923281948e-17 0.8298979429846846 -0.5579152303259057
12663577333.333334 0.8236224055245052 -0.5671385484322565 -7.471100954729763e-17 9.397524284128516e-17 -7.471100954729763e-17 9.397524284128516e-17 0.8236227896595627 -0.567137990574797
12664194666.666666 0.817244756990582 -0.5762907314639248 -7.363530546929728e-17 9.479084268415425e-17 -7.363530546929728e-17 9.479084268415425e-17 0.8172451473055872 -0.5762901779531628
12664812000.0 0.8107654130908069 -0.585371202687246 -7.255071125491456e-17 9.559414042100817e-17 -7.255071125491456e-17 9.559414042100817e-17 0.8107658095365913 -0.5853706535916324
12665429333.333334 0.8041851800944134 -0.5943788321570143 -7.145736747172901e-17 9.638503930462519e-17 -7.145736747172901e-17 9.638503930462519e-17 0.8041855826210484 -0.5943782875444426
12666046666.666666 0.7975048768250202 -0.6033124989921304 -7.035541573837977e-17 9.716344419257545e-17 -7.035541573837977e-17 9.716344419257545e-17 0.7975052853818267 -0.6033119589299305
12666664000.0 0.7907253345585579 -0.6121710915153347 -6.92449987062287e-17 9.79292615586399e-17 -6.92449987062287e-17 9.79292615586399e-17 0.7907257490941114 -0.6121705560702634
12667281333.333334 0.7838473969200642 -0.6209535073912208 -6.812626004097017e-17 9.868239950397188e-17 -6.812626004097017e-17 9.868239950397188e-17 0.7838478173822007 -0.6209529766294538
12667898666.666666 0.7768719197785352 -0.6296586537636344 -6.699934440405249e-17 9.94227677680956e-17 -6.699934440405249e-17 9.94227677680956e-17 0.776872346114359 -0.6296581277507587
12668516000.0 0.769799771140421 -0.6382854473916623 -6.586439743400863e-17 1.0015027773967322e-16 -6.586439743400863e-17 1.0015027773967322e-16 0.76980020329631 -0.6382849261926672
12669133333.333334 0.7626318310417755 -0.6468328147842296 -6.4721565727697e-17 1.0086484246704353e-16 -6.4721565727697e-17 1.0086484246704353e-16 0.7626322689633885 -0.6468322984634987
12669750666.666666 0.7553689914385655 -0.6552996923339004 -6.357099682137361e-17 1.0156637666858147e-16 -6.357099682137361e-17 1.0156637666858147e-16 0.7553694350708509 -0.6552991809552051
12670368000.0 0.7480121560957544 -0.663685026449143 -6.241283917169327e-17 1.0225479674281689e-16 -6.241283917169327e-17 1.0225479674281689e-16 0.7480126053829542 -0.6636845200756333
