! Parameters = {f0=12700.012000; bw=77.238000; Q=6100.000000; N=10; m_0_1=1.239935; m_1_1=-0.165722; m_1_2=1.074747; m_2_2=-0.166371; m_2_3=0.711710; m_2_8=-0.000940; m_2_9=0.035764; m_3_3=-0.168308; m_3_4=0.600239; m_3_7=-0.000340; m_3_8=-0.097428; m_3_9=-0.000940; m_4_4=-0.171233; m_4_5=0.436574; m_4_6=0.003177; m_4_7=-0.117977; m_4_8=-0.000340; m_5_5=-0.170851; m_5_6=0.843929; m_5_7=0.003177; m_6_6=-0.170852; m_6_7=0.436916; m_7_7=-0.171219; m_7_8=0.600357; m_8_8=-0.168310; m_8_9=0.712023; m_9_9=-0.166376; m_9_10=1.075825; m_10_10=-0.165732; m_10_11=1.240730}
!
! Created with skrf (http://scikit-rf.org).
# Hz S RI R 50.0 
!freq ReS11 ImS11 ReS21 ImS21 ReS12 ImS12 ReS22 ImS22
12607400000.0 0.9968108257134325 0.07980086303002683 -9.371048858061587e-17 1.9789896595402776e-17 -9.371048858061587e-17 1.9789896595402776e-17 0.9968107735773052 0.0798015142716348
12608017333.333334 0.9975333668682037 0.07019388851187958 -9.34953341808482e-17 2.0696024203577777e-17 -9.34953341808482e-17 2.0696024203577777e-17 0.9975333210108002 0.0701945401936328
12608634666.666666 0.9981633209407956 0.06058039887847949 -9.327142471754103e-17 2.1599840269139062e-17 -9.327142471754103e-17 2.1599840269139062e-17 0.9981632813657564 0.06058105093985127
12609252000.0 0.9987006294614478 0.0509612864156688 -9.303878478451359e-17 2.2501260265297516e-17 -9.303878478451359e-17 2.2501260265297516e-17 0.9987005961718322 0.05096193879610328
12609869333.333334 0.9991452425593894 0.04133744393126254 -9.279743979102142e-17 2.3400199924812425e-17 -9.279743979102142e-17 2.3400199924812425e-17 0.9991452155576716 0.04133809657018006
12610486666.666666 0.9994971189674698 0.031709764672096366 -9.254741595904207e-17 2.429657524783089e-17 -9.254741595904207e-17 2.429657524783089e-17 0.9994970982555391 0.03171041750889919
12611104000.0 0.9997562260259912 0.02207914224103372 -9.228874032046668e-17 2.519030250976719e-17 -9.228874032046668e-17 2.519030250976719e-17 0.9997562116051542 0.022079795215111744
12611721333.333334 0.9999225396857353 0.01244647051419571 -9.202144071424432e-17 2.6081298269047983e-17 -9.202144071424432e-17 2.6081298269047983e-17 0.9999225315567154 0.012447123564932015
12612338666.666666 0.9999960445102007 0.002812643557938228 -9.174554578342265e-17 2.6969479374932742e-17 -9.174554578342265e-17 2.6969479374932742e-17 0.9999960426731365 0.0028132966247146913
12612956000.0 0.9999767336770335 -0.006821444454359128 -9.146108497213202e-17 2.785476297523525e-17 -9.146108497213202e-17 2.785476297523525e-17 0.9999767381314781 -0.006820791432156173
12613573333.333334 0.9998646089786569 -0.016454899324803488 -9.116808852249224e-17 2.873706652403013e-17 -9.116808852249224e-17 2.873706652403013e-17 0.9998646197235824 -0.016454246407777644
12614190666.666666 0.9996596808221114 -0.026086826914496205 -9.08665874714365e-17 2.961630778935033e-17 -9.08665874714365e-17 2.961630778935033e-17 0.999659697855904 -0.026086174163235366
12614808000.0 0.9993619682280838 -0.03571633322615375 -9.055661364747427e-17 3.0492404860813205e-17 -9.055661364747427e-17 3.0492404860813205e-17 0.9993619915485479 -0.03571568070122452
12615425333.333334 0.9989714988291439 -0.04534252448734087 -9.023819966736773e-17 3.136527615725474e-17 -9.023819966736773e-17 3.136527615725474e-17 0.9989715284334995 -0.0453418722492829
12616042666.666666 0.9984883088671811 -0.05496450723319955 -8.991137893274774e-17 3.223484043428816e-17 -8.991137893274774e-17 3.223484043428816e-17 0.998488344752065 -0.054963855342519935
12616660000.0 0.9979124431900358 -0.06458138838957579 -8.957618562664398e-17 3.3101016791869184e-17 -8.957618562664398e-17 3.3101016791869184e-17 0.9979124853515033 -0.0645807369067435
12617277333.333334 0.997243955247337 -0.0741922753558543 -8.923265470995522e-17 3.396372468178705e-17 -8.923265470995522e-17 3.396372468178705e-17 0.9972440036808604 -0.07419162434129445
12617894666.666666 0.996482907085559 -0.08379627608757936 -8.888082191784055e-17 3.4822883915142826e-17 -8.888082191784055e-17 3.4822883915142826e-17 0.9964829617860295 -0.08379562560166777
12618512000.0 0.9956293693422217 -0.09339249917976088 -8.852072375603084e-17 3.567841466980532e-17 -8.852072375603084e-17 3.567841466980532e-17 0.9956294303039497 -0.09339184928281845
12619129333.333334 0.9946834212393882 -0.10298005394898814 -8.815239749709598e-17 3.653023749776711e-17 -8.815239749709598e-17 3.653023749776711e-17 0.9946834884561032 -0.10297940470127513
12619746666.666666 0.9936451505762671 -0.11255805051660901 -8.777588117660505e-17 3.73782733325472e-17 -8.777588117660505e-17 3.73782733325472e-17 0.9936452240411177 -0.11255740197831945
12620364000.0 0.9925146537210782 -0.12212559989109811 -8.739121358924242e-17 3.8222443496492454e-17 -8.739121358924242e-17 3.8222443496492454e-17 0.9925147334266352 -0.12212495212235448
12620981333.333334 0.9912920356021179 -0.1316818140505418 -8.699843428484623e-17 3.9062669708056846e-17 -8.699843428484623e-17 3.9062669708056846e-17 0.9912921215403736 -0.13168116711138922
12621598666.666666 0.989977409698013 -0.14122580602511722 -8.659758356437404e-17 3.9898874089047984e-17 -8.659758356437404e-17 3.9898874089047984e-17 0.9899775018603815 -0.1412251599755179
12622216000.0 0.9885708980271755 -0.15075668997950187 -8.618870247579866e-17 4.0730979171832474e-17 -8.618870247579866e-17 4.0730979171832474e-17 0.9885709964044939 -0.15075604487932956
12622833333.333334 0.9870726311364988 -0.16027358129492386 -8.577183280993825e-17 4.155890790649229e-17 -8.577183280993825e-17 4.155890790649229e-17 0.987072735719029 -0.16027293720395847
12623450666.666666 0.9854827480892292 -0.16977559665138203 -8.534701709622583e-17 4.23825836679246e-17 -8.534701709622583e-17 4.23825836679246e-17 0.9854828588666574 -0.1697749536293038
12624068000.0 0.983801396452068 -0.17926185410954748 -8.491429859838737e-17 4.320193026294464e-17 -8.491429859838737e-17 4.320193026294464e-17 0.9838015134135069 -0.17926121221593175
12624685333.333334 0.9820287322814335 -0.18873147319287392 -8.447372131007492e-17 4.401687193729872e-17 -8.447372131007492e-17 4.401687193729872e-17 0.9820288554154234 -0.18873083248718545
12625302666.666666 0.9801649201090661 -0.19818357496881642 -8.402532995042732e-17 4.482733338264573e-17 -8.402532995042732e-17 4.482733338264573e-17 0.9801650494035745 -0.1981829355104038
12625920000.0 0.978210132926642 -0.2076172821310249 -8.356916995955171e-17 4.5633239743514736e-17 -8.356916995955171e-17 4.5633239743514736e-17 0.9782102683690668 -0.2076166439791153
12626537333.333334 0.9761645521698086 -0.21703171908029797 -8.310528749395631e-17 4.643451662418653e-17 -8.310528749395631e-17 4.643451662418653e-17 0.976164693746978 -0.21703108229399148
12627154666.666666 0.974028367701331 -0.22642601200593696 -8.263372942191153e-17 4.723109009553832e-17 -8.263372942191153e-17 4.723109009553832e-17 0.974028515399505 -0.22642537664420104
12627772000.0 0.971801777793389 -0.23579928896720972 -8.215454331872587e-17 4.8022886701877134e-17 -8.215454331872587e-17 4.8022886701877134e-17 0.9718019315982608 -0.23579865508887396
12628389333.333334 0.96948498910931 -0.24515067997367082 -8.166777746199719e-17 4.8809833467655186e-17 -8.166777746199719e-17 4.8809833467655186e-17 0.9694851490060085 -0.24515004763742151
12629006666.666666 0.9670782166842429 -0.25447931706654797 -8.117348082676001e-17 4.959185790420535e-17 -8.117348082676001e-17 4.959185790420535e-17 0.9670783826573317 -0.2544786863309223
12629624000.0 0.9645816839053224 -0.2637843343987764 -8.067170308059105e-17 5.0368888016390526e-17 -8.067170308059105e-17 5.0368888016390526e-17 0.964581855938803 -0.2637837053221574
12630241333.333334 0.9619956224908376 -0.2730648683157497 -8.016249457864816e-17 5.114085230920856e-17 -8.016249457864816e-17 5.114085230920856e-17 0.9619958005681514 -0.27306424095636084
12630858666.666666 0.959320272468833 -0.28232005743509725 -7.964590635864289e-17 5.190767979435459e-17 -7.964590635864289e-17 5.190767979435459e-17 0.9593204565728611 -0.2823194318509966
12631476000.0 0.9565558821546769 -0.2915490427271525 -7.912199013573842e-17 5.266929999674774e-17 -7.912199013573842e-17 5.266929999674774e-17 0.9565560722677442 -0.29154841897622824
12632093333.333334 0.9537027081281872 -0.3007509675941134 -7.859079829742308e-17 5.342564296095383e-17 -7.859079829742308e-17 5.342564296095383e-17 0.9537029042320596 -0.3007503457340771
12632710666.666666 0.9507610152096948 -0.30992497794992774 -7.80523838982778e-17 5.417663925762108e-17 -7.80523838982778e-17 5.417663925762108e-17 0.9507612172855879 -0.30992435803831075
12633328000.0 0.9477310764354986 -0.3190702222994866 -7.750680065470679e-17 5.4922219989827517e-17 -7.750680065470679e-17 5.4922219989827517e-17 0.9477312844640734 -0.3190696043936334
12633945333.333334 0.9446131730325318 -0.3281858518176007 -7.695410293960511e-17 5.566231679938071e-17 -7.695410293960511e-17 5.566231679938071e-17 0.9446133869938995 -0.32818523597466415
12634562666.666666 0.9414075943922462 -0.3372710204278396 -7.639434577696933e-17 5.639686187305929e-17 -7.639434577696933e-17 5.639686187305929e-17 0.9414078142659683 -0.3372704067047751
12635180000.0 0.9381146380437879 -0.34632488488095386 -7.582758483643273e-17 5.712578794882257e-17 -7.582758483643273e-17 5.712578794882257e-17 0.9381148638088793 -0.3463242733345147
12635797333.333334 0.9347346096263045 -0.35534660483335584 -7.525387642776449e-17 5.784902832193532e-17 -7.525387642776449e-17 5.784902832193532e-17 0.9347348412612367 -0.35534599552008805
12636414666.666666 0.9312678228606976 -0.36433534292479747 -7.467327749529414e-17 5.856651685105915e-17 -7.467327749529414e-17 5.856651685105915e-17 0.9312680603433985 -0.3643347359010341
12637032000.0 0.927714599520362 -0.3732902648564631 -7.408584561227784e-17 5.927818796428778e-17 -7.408584561227784e-17 5.927818796428778e-17 0.927714842828219 -0.3732896601783192
12637649333.333334 0.9240752694014419 -0.38221053946808636 -7.349163897522483e-17 5.998397666510559e-17 -7.349163897522483e-17 5.998397666510559e-17 0.924075518511305 -0.38220993719145424
12638266666.666666 0.9203501702921288 -0.391095338815335 -7.289071639814147e-17 6.068381853832071e-17 -7.289071639814147e-17 6.068381853832071e-17 0.9203504251803106 -0.39109473899587793
12638884000.0 0.9165396479413939 -0.39994383824644514 -7.228313730674651e-17 6.137764975590754e-17 -7.228313730674651e-17 6.137764975590754e-17 0.9165399085836725 -0.3999432409395931
12639501333.333334 0.9126440560267955 -0.4087552164789982 -7.166896173260158e-17 6.206540708282651e-17 -7.166896173260158e-17 6.206540708282651e-17 0.9126443223984185 -0.40875462173994265
12640118666.666666 0.9086637561218149 -0.4175286556757846 -7.104825030722715e-17 6.274702788273902e-17 -7.104825030722715e-17 6.274702788273902e-17 0.9086640281975007 -0.4175280635594736
12640736000.0 0.9045991176620166 -0.42626334152133555 -7.042106425609814e-17 6.342245012373783e-17 -7.042106425609814e-17 6.342245012373783e-17 0.9045993954159559 -0.4262627520824678
12641353333.333334 0.900450517911133 -0.4349584632966745 -6.978746539267554e-17 6.409161238391811e-17 -6.978746539267554e-17 6.409161238391811e-17 0.9004508013169932 -0.4349578765896956
12641970666.666666 0.896218341925709 -0.44361321395531683 -6.91475161123037e-17 6.475445385697849e-17 -6.91475161123037e-17 6.475445385697849e-17 0.8962186309566342 -0.4436126300344128
12642588000.0 0.8919029825195729 -0.45222679019770984 -6.850127938609301e-17 6.541091435771989e-17 -6.850127938609301e-17 6.541091435771989e-17 0.8919032771481882 -0.45222620911680317
12643205333.333334 0.8875048402272832 -0.460798392545999 -6.784881875475775e-17 6.606093432747573e-17 -6.784881875475775e-17 6.606093432747573e-17 0.8875051404256975 -0.4607978143587437
12643822666.666666 0.8830243232669378 -0.46932722541825755 -6.71901983223681e-17 6.67044548395182e-17 -6.71901983223681e-17 6.67044548395182e-17 0.8830246290067446 -0.4693266501780328
12644440000.0 0.8784618475023855 -0.47781249720212365 -6.652548275009684e-17 6.734141760435363e-17 -6.652548275009684e-17 6.734141760435363e-17 0.8784621587546675 -0.47781192496203073
12645057333.333334 0.8738178364045259 -0.48625342032848 -6.585473724987596e-17 6.797176497499888e-17 -6.585473724987596e-17 6.797176497499888e-17 0.8738181531398583 -0.4862528511413371
12645674666.666666 0.8690927210121152 -0.49464921134435325 -6.517802757803495e-17 6.859543995216202e-17 -6.517802757803495e-17 6.859543995216202e-17 0.8690930432005652 -0.4946486452626888
12646292000.0 0.8642869398915443 -0.5029990909859999 -6.449542002884793e-17 6.921238618940076e-17 -6.449542002884793e-17 6.921238618940076e-17 0.8642872675026774 -0.5029985280620501
12646909333.333334 0.8594009390964328 -0.5113022842507184 -6.38069814280911e-17 6.982254799816219e-17 -6.38069814280911e-17 6.982254799816219e-17 0.8594012720993123 -0.5113017245364203
12647526666.666666 0.8544351721259694 -0.519558020469223 -6.311277912650733e-17 7.042587035280034e-17 -6.311277912650733e-17 7.042587035280034e-17 0.8544355104891628 -0.5195574640162112
12648144000.0 0.8493900998829517 -0.5277655333769553 -6.241288099322554e-17 7.102229889552732e-17 -6.241288099322554e-17 7.102229889552732e-17 0.8493904435745318 -0.5277649802365567
12648761333.333334 0.8442661906309449 -0.5359240611853008 -6.170735540916957e-17 7.161177994126702e-17 -6.170735540916957e-17 7.161177994126702e-17 0.8442665396184932 -0.5359235114085298
12649378666.666666 0.8390639199509424 -0.5440328466521037 -6.099627126038132e-17 7.219426048247924e-17 -6.099627126038132e-17 7.219426048247924e-17 0.8390642742015517 -0.5440323002896577
12649996000.0 0.8337837706970268 -0.5520911371522641 -6.027969793132095e-17 7.276968819389835e-17 -6.027969793132095e-17 7.276968819389835e-17 0.8337841301773051 -0.5520905942545186
12650613333.333334 0.8284262329517212 -0.5600981847473295 -5.955770529810815e-17 7.333801143721789e-17 -5.955770529810815e-17 7.333801143721789e-17 0.8284265976277941 -0.5600976453643333
12651230666.666666 0.8229918039804393 -0.5680532462550096 -5.88303637217424e-17 7.389917926568933e-17 -5.88303637217424e-17 7.389917926568933e-17 0.8229921738179538 -0.568052710436481
12651848000.0 0.8174809881853013 -0.5759555833182062 -5.809774404125086e-17 7.445314142867762e-17 -5.809774404125086e-17 7.445314142867762e-17 0.8174813631494283 -0.5759550511135271
12652465333.333334 0.8118942970583477 -0.5838044624734936 -5.735991756681293e-17 7.499984837613434e-17 -5.735991756681293e-17 7.499984837613434e-17 0.8118946771137854 -0.5838039339317058
12653082666.666666 0.8062322491341111 -0.5915991552191269 -5.661695607285542e-17 7.553925126299278e-17 -5.661695607285542e-17 7.553925126299278e-17 0.80623263424509 -0.5915986303889283
12653700000.0 0.80049536994138 -0.5993389380828245 -5.586893179105118e-17 7.607130195353707e-17 -5.586893179105118e-17 7.607130195353707e-17 0.8004957600716629 -0.5993384170125623
12654317333.333334 0.7946841919545273 -0.6070230926887487 -5.5115917403363113e-17 7.659595302563814e-17 -5.5115917403363113e-17 7.659595302563814e-17 0.7946845870674173 -0.6070225754264184
12654934666.666666 0.7887992545440671 -0.6146509058242389 -5.435798603496456e-17 7.711315777498342e-17 -5.435798603496456e-17 7.711315777498342e-17 0.7887996546024063 -0.6146503924174764
12655552000.0 0.7828411039264438 -0.6222216695061813 -5.359521124716286e-17 7.762287021920383e-17 -5.359521124716286e-17 7.762287021920383e-17 0.7828415088926203 -0.6222211600022608
12656169333.333334 0.7768102931136367 -0.6297346810463433 -5.2827667030305704e-17 7.812504510191926e-17 -5.2827667030305704e-17 7.812504510191926e-17 0.776810702949585 -0.6297341754921711
12656786666.666666 0.7707073818615113 -0.6371892431169943 -5.2055427796584817e-17 7.861963789675677e-17 -5.2055427796584817e-17 7.861963789675677e-17 0.7707077965287197 -0.637188741559107
12657404000.0 0.7645329366180996 -0.6445846638153424 -5.1278568372869424e-17 7.910660481125333e-17 -5.1278568372869424e-17 7.910660481125333e-17 0.7645333560776111 -0.6445841662999006
12658021333.333334 0.7582875304708413 -0.6519202567279723 -5.0497163993451855e-17 7.958590279072198e-17 -5.0497163993451855e-17 7.958590279072198e-17 0.7582879546832578 -0.6519197633007566
12658638666.666666 0.7519717430936329 -0.6591953409942737 -4.9711290292809724e-17 8.00574895220136e-17 -4.9711290292809724e-17 8.00574895220136e-17 0.7519721720191183 -0.6591948517006807
12659256000.0 0.7455861606926879 -0.6664092413700231 -4.892102329826441e-17 8.05213234372493e-17 -4.892102329826441e-17 8.05213234372493e-17 0.7455865942909741 -0.6664087562550624
12659873333.333334 0.7391313759524488 -0.6735612882896947 -4.812643942267182e-17 8.097736371744046e-17 -4.812643942267182e-17 8.097736371744046e-17 0.7391318141828365 -0.6735608073979825
12660490666.666666 0.7326079879804419 -0.6806508179287548 -4.7327615457059144e-17 8.142557029604978e-17 -4.7327615457059144e-17 8.142557029604978e-17 0.7326084308018066 -0.6806503413045114
12661108000.0 0.7260166022515373 -0.6876771722654217 -4.6524628563182134e-17 8.186590386250579e-17 -4.6524628563182134e-17 8.186590386250579e-17 0.7260170496223328 -0.6876766999524676
12661725333.333334 0.7193578305520802 -0.6946396991413881 -4.571755626614119e-17 8.229832586559367e-17 -4.571755626614119e-17 8.229832586559367e-17 0.7193582824303416 -0.6946392311831389
12662342666.666666 0.7126322909227559 -0.7015377523227228 -4.4906476446870037e-17 8.272279851682605e-17 -4.4906476446870037e-17 8.272279851682605e-17 0.712632747266104 -0.7015372887621855
12662960000.0 0.7058406076014818 -0.7083706915595855 -4.409146733466893e-17 8.313928479369936e-17 -4.409146733466893e-17 8.313928479369936e-17 0.705841068367127 -0.7083702324393548
12663577333.333334 0.698983410965287 -0.7151378826458338 -4.327260749965831e-17 8.354774844290338e-17 -4.327260749965831e-17 8.354774844290338e-17 0.6989838761100345 -0.7151374280080891
12664194666.666666 0.6920613374719684 -0.7218386974777288 -4.244997584522929e-17 8.394815398344292e-17 -4.244997584522929e-17 8.394815398344292e-17 0.6920618069522201 -0.7218382473642283
12664812000.0 0.6850750296008502 -0.7284725141123908 -4.162365160046551e-17 8.434046670968539e-17 -4.162365160046551e-17 8.434046670968539e-17 0.6850755033726108 -0.7284720685644697
12665429333.333334 0.6780251357932978 -0.7350387168253883 -4.079371431251102e-17 8.472465269434716e-17 -4.079371431251102e-17 8.472465269434716e-17 0.6780256138121767 -0.7350382758839527
12666046666.666666 0.6709123103924695 -0.7415366961679458 -3.99602438389615e-17 8.510067879138081e-17 -3.99602438389615e-17 8.510067879138081e-17 0.6709127926136873 -0.7415362598734715
12666664000.0 0.663737213582519 -0.747965849023568 -3.9123320340151764e-17 8.546851263882365e-17 -3.9123320340151764e-17 8.546851263882365e-17 0.6637376999609106 -0.7479654174160949
12667281333.333334 0.6565005113274489 -0.754325578663904 -3.828302427151724e-17 8.582812266152547e-17 -3.828302427151724e-17 8.582812266152547e-17 0.6565010018174666 -0.7543251517830327
12667898666.666666 0.6492028753092512 -0.7606152948041699 -3.7439436375835573e-17 8.617947807384377e-17 -3.7439436375835573e-17 8.617947807384377e-17 0.6492033698649727 -0.7606148726890608
12668516000.0 0.6418449828654005 -0.7668344136580904 -3.659263767549277e-17 8.652254888224129e-17 -3.659263767549277e-17 8.652254888224129e-17 0.6418454814405282 -0.7668339963474553
12669133333.333334 0.6344275169263448 -0.7729823579917628 -3.574270946474828e-17 8.685730588779872e-17 -3.574270946474828e-17 8.685730588779872e-17 0.6344280194742139 -0.772981945523865
12669750666.666666 0.6269511659517559 -0.779058557177551 -3.4889733301906055e-17 8.718372068868153e-17 -3.4889733301906055e-17 8.718372068868153e-17 0.6269516724253367 -0.7790581495902
12670368000.0 0.6194166238667775 -0.7850624472469164 -3.403379100153505e-17 8.750176568250042e-17 -3.403379100153505e-17 8.750176568250042e-17 0.6194171342186806 -0.7850620445774651
