! Parameters = {f0=12700.012000; bw=77.238000; Q=6100.000000; N=10; m_0_1=1.155851; m_1_1=-1.426983; m_1_2=0.990663; m_2_2=-1.427632; m_2_3=0.627626; m_2_8=-0.005144; m_2_9=0.031560; m_3_3=-1.429569; m_3_4=0.516155; m_3_7=-0.004544; m_3_8=-0.101632; m_3_9=-0.005144; m_4_4=-1.432494; m_4_5=0.352490; m_4_6=-0.001027; m_4_7=-0.122181; m_4_8=-0.004544; m_5_5=-1.432112; m_5_6=0.759845; m_5_7=-0.001027; m_6_6=-1.432113; m_6_7=0.352832; m_7_7=-1.432480; m_7_8=0.516273; m_8_8=-1.429571; m_8_9=0.627939; m_9_9=-1.427637; m_9_10=0.991741; m_10_10=-1.426993; m_10_11=1.156646}
!
! Created with skrf (http://scikit-rf.org).
# Hz S RI R 50.0 
!freq ReS11 ImS11 ReS21 ImS21 ReS12 ImS12 ReS22 ImS22
12607400000.0 0.8180976744012208 0.575079294653502 -5.920006131593522e-17 -1.992702468586297e-17 -5.920006131593522e-17 -1.992702468586297e-17 0.8180973240843489 0.5750797930077886
12608017333.333334 0.8221876329621468 0.5692165635361954 -5.933109882312294e-17 -1.9494251225297273e-17 -5.933109882312294e-17 -1.9494251225297273e-17 0.8221872862336128 0.569217064357404
12608634666.666666 0.8262355782459049 0.5633247458087643 -5.945897642338651e-17 -1.9060625918199455e-17 -5.945897642338651e-17 -1.9060625918199455e-17 0.826235235123073 0.5633252490710621
12609252000.0 0.8302413034050491 0.55740414253945 -5.958368865716003e-17 -1.8626171809227415e-17 -5.958368865716003e-17 -1.8626171809227415e-17 0.8302409639050984 0.5574046482168827
12609869333.333334 0.8342046037495718 0.551455056267393 -5.970523023274265e-17 -1.8190911977396045e-17 -5.970523023274265e-17 -1.8190911977396045e-17 0.8342042678894956 0.551455564333886
12610486666.666666 0.8381252767573019 0.5454777909872689 -5.982359602650498e-17 -1.7754869534871158e-17 -5.982359602650498e-17 -1.7754869534871158e-17 0.8381249445539042 0.5454783014166268
12611104000.0 0.8420031220843592 0.5394726521335866 -5.99387810830974e-17 -1.7318067625726426e-17 -5.99387810830974e-17 -1.7318067625726426e-17 0.8420027935542574 0.5394731648994975
12611721333.333334 0.8458379415752719 0.5334399465652732 -6.005078061563663e-17 -1.6880529424743538e-17 -6.005078061563663e-17 -1.6880529424743538e-17 0.8458376167348927 0.533440461641307
12612338666.666666 0.8496295392731908 0.5273799825498486 -6.015959000589563e-17 -1.6442278136168506e-17 -6.015959000589563e-17 -1.6442278136168506e-17 0.8496292181387718 0.527380499909461
12612956000.0 0.853377721429922 0.5212930697476514 -6.026520480447724e-17 -1.6003336992492498e-17 -6.026520480447724e-17 -1.6003336992492498e-17 0.853377404017508 0.5212935893641825
12613573333.333334 0.8570822965156983 0.5151795191962032 -6.03676207309797e-17 -1.5563729253230063e-17 -6.03676207309797e-17 -1.5563729253230063e-17 0.8570819828411446 0.5151800410428817
12614190666.666666 0.8607430752290672 0.5090396432941767 -6.0466833674157e-17 -1.512347820368093e-17 -6.0466833674157e-17 -1.512347820368093e-17 0.8607427653080358 0.5090401673441196
12614808000.0 0.8643598705065713 0.5028737557854028 -6.056283969206628e-17 -1.4682607153708106e-17 -6.056283969206628e-17 -1.4682607153708106e-17 0.8643595643545305 0.5028742820116172
12615425333.333334 0.8679324975322658 0.4966821717429146 -6.065563501220797e-17 -1.424113943650659e-17 -6.065563501220797e-17 -1.424113943650659e-17 0.8679321951644896 0.4966827001182984
12616042666.666666 0.8714607737471742 0.49046520755281947 -6.074521603165745e-17 -1.3799098407371335e-17 -6.074521603165745e-17 -1.3799098407371335e-17 0.8714604751787431 0.4904657380501646
12616660000.0 0.8749445188586357 0.4842231808981114 -6.083157931718565e-17 -1.3356507442473189e-17 -6.083157931718565e-17 -1.3356507442473189e-17 0.874944224104433 0.4842237134901029
12617277333.333334 0.878383554849471 0.47795641074250783 -6.091472160537494e-17 -1.2913389937615189e-17 -6.091472160537494e-17 -1.2913389937615189e-17 0.8783832639241849 0.47795694540172734
12617894666.666666 0.8817777059870974 0.47166521731412986 -6.099463980272018e-17 -1.2469769307016042e-17 -6.099463980272018e-17 -1.2469769307016042e-17 0.8817774189052187 0.4716657540130555
12618512000.0 0.8851267988326033 0.46534992208896236 -6.107133098572824e-17 -1.2025668982056643e-17 -6.107133098572824e-17 -1.2025668982056643e-17 0.8851265156084234 0.4653504607999702
12619129333.333334 0.8884306622494292 0.4590108477747495 -6.114479240099964e-17 -1.1581112410071376e-17 -6.114479240099964e-17 -1.1581112410071376e-17 0.8884303828970441 0.45901138847011713
12619746666.666666 0.8916891274122699 0.45264831829423396 -6.121502146530993e-17 -1.1136123053095636e-17 -6.121502146530993e-17 -1.1136123053095636e-17 0.8916888519455742 0.452648860946139
12620364000.0 0.8949020278156399 0.4462626587687009 -6.128201576567669e-17 -1.0690724386639056e-17 -6.128201576567669e-17 -1.0690724386639056e-17 0.8949017562483286 0.44626320334922387
12620981333.333334 0.8980691992823462 0.43985419550144145 -6.134577305941842e-17 -1.024493989845689e-17 -6.134577305941842e-17 -1.024493989845689e-17 0.898068931627914 0.4398547419825674
12621598666.666666 0.9011904799719547 0.4334232559609277 -6.140629127420708e-17 -9.798793087305485e-18 -6.140629127420708e-17 -9.798793087305485e-18 0.9011902162436953 0.43342380431454736
12622216000.0 0.9042657103890105 0.42697016876418065 -6.146356850810879e-17 -9.352307461715148e-18 -6.146356850810879e-17 -9.352307461715148e-18 0.9042654506000154 0.4269707189620915
12622833333.333334 0.9072947333912088 0.4204952636599255 -6.151760302961677e-17 -8.905506538752391e-18 -6.151760302961677e-17 -8.905506538752391e-18 0.9072944775543668 0.42049581567383365
12623450666.666666 0.9102773941973917 0.4139988715118203 -6.156839327767487e-17 -8.458413842792893e-18 -6.156839327767487e-17 -8.458413842792893e-18 0.9102771423253891 0.4139994253133421
12624068000.0 0.9132135403954706 0.40748132428152345 -6.161593786169367e-17 -8.011052904276916e-18 -6.161593786169367e-17 -8.011052904276916e-18 0.9132132925007894 0.4074818798421865
12624685333.333334 0.9161030219502942 0.4009429550115489 -6.166023556155575e-17 -7.563447258480661e-18 -6.166023556155575e-17 -7.563447258480661e-18 0.9161027780452118 0.40094351230279357
12625302666.666666 0.9189456912111528 0.39438409780861095 -6.170128532761248e-17 -7.115620444289729e-18 -6.170128532761248e-17 -7.115620444289729e-18 0.9189454513077409 0.3943846568017918
12625920000.0 0.9217414029195056 0.3878050878261349 -6.173908628067382e-17 -6.667596002946364e-18 -6.173908628067382e-17 -6.667596002946364e-18 0.9217411670296319 0.3878056484925231
12626537333.333334 0.9244900142162484 0.3812062612474977 -6.177363771198561e-17 -6.219397476839379e-18 -6.177363771198561e-17 -6.219397476839379e-18 0.9244897823515735 0.3812068235582811
12627154666.666666 0.9271913846490891 0.3745879552686649 -6.180493908320116e-17 -5.771048408261018e-18 -6.180493908320116e-17 -5.771048408261018e-18 0.927191156821067 0.3745885191949505
12627772000.0 0.9298453761797475 0.36795050808090823 -6.183299002634321e-17 -5.322572338164315e-18 -6.183299002634321e-17 -5.322572338164315e-18 0.9298451523996246 0.3679510735937232
12628389333.333334 0.9324518531909225 0.36129425885373445 -6.185779034375511e-17 -4.873992804954462e-18 -6.185779034375511e-17 -4.873992804954462e-18 0.9324516334697374 0.3612948259240275
12629006666.666666 0.9350106824933481 0.3546195477172369 -6.187934000804572e-17 -4.425333343238522e-18 -6.187934000804572e-17 -4.425333343238522e-18 0.9350104668419312 0.35462011631588036
12629624000.0 0.9375217333324559 0.34792671574508655 -6.189763916202379e-17 -3.9766174826040155e-18 -6.189763916202379e-17 -3.9766174826040155e-18 0.9375215217614277 0.3479272858428772
12630241333.333334 0.9399848773951762 0.3412161049367836 -6.191268811862398e-17 -3.5278687463858944e-18 -6.191268811862398e-17 -3.5278687463858944e-18 0.9399846699149489 0.34121667650444476
12630858666.666666 0.9423999888163985 0.3344880582004496 -6.19244873608239e-17 -3.079110650444937e-18 -6.19244873608239e-17 -3.079110650444937e-18 0.9423997854371732 0.33448863120863204
12631476000.0 0.9447669441855163 0.3277429193349823 -6.193303754155235e-17 -2.6303667019275706e-18 -6.193303754155235e-17 -2.6303667019275706e-18 0.9447667449172847 0.3277434937542664
12632093333.333334 0.947085622552611 0.32098103301283737 -6.193833948358869e-17 -2.181660398053132e-18 -6.193833948358869e-17 -2.181660398053132e-18 0.9470854274051532 0.3209816088137344
12632710666.666666 0.9493559054346988 0.3142027447622279 -6.194039417945351e-17 -1.7330152248756401e-18 -6.194039417945351e-17 -1.7330152248756401e-18 0.949355714417583 0.31420332191518086
12633328000.0 0.9515776768217936 0.30740840094944083 -6.193920279128992e-17 -1.2844546560660398e-18 -6.193920279128992e-17 -1.2844546560660398e-18 0.9515774899443769 0.307408979424827
12633945333.333334 0.9537508231828082 0.3005983487612192 -6.193476665073681e-17 -8.360021516867641e-19 -6.193476665073681e-17 -8.360021516867641e-19 0.9537506404542334 0.30059892852935055
12634562666.666666 0.9558752334713605 0.29377293618699235 -6.192708725879268e-17 -3.8768115696923624e-19 -6.192708725879268e-17 -3.8768115696923624e-19 0.9558750549005606 0.29377351721811873
12635180000.0 0.9579507991314636 0.28693251200106923 -6.191616628567091e-17 6.048489890912488e-20 -6.191616628567091e-17 6.048489890912488e-20 0.9579506247271566 0.2869330942653784
12635797333.333334 0.9599774141030358 0.2800774257449241 -6.1902005570646e-17 5.08472604039545e-19 -6.1902005570646e-17 5.08472604039545e-19 0.959977243873725 0.2800780092125432
12636414666.666666 0.9619549748273746 0.27320802770914315 -6.188460712189171e-17 9.562585650039572e-19 -6.188460712189171e-17 9.562585650039572e-19 0.9619548087813504 0.2732086123501413
12637032000.0 0.9638833802523894 0.2663246689157451 -6.186397311630937e-17 1.4038194080956137e-18 -6.186397311630937e-17 1.4038194080956137e-18 0.9638832183977285 0.26632525470013463
12637649333.333334 0.9657625318378201 0.25942770110005237 -6.184010589934842e-17 1.8511317805293997e-18 -6.184010589934842e-17 1.8511317805293997e-18 0.9657623741823816 0.25942828799778944
12638266666.666666 0.9675923335602351 0.25251747669282587 -6.181300798481735e-17 2.2981723516576062e-18 -6.181300798481735e-17 2.2981723516576062e-18 0.9675921801116658 0.2525180646738134
12638884000.0 0.9693726919179617 0.24559434880220302 -6.178268205468668e-17 2.7449178141840815e-18 -6.178268205468668e-17 2.7449178141840815e-18 0.9693725426836904 0.2455949378362908
12639501333.333334 0.9711035159358349 0.23865867119573486 -6.174913095888293e-17 3.191344885367892e-18 -6.174913095888293e-17 3.191344885367892e-18 0.9711033709230753 0.2386592612527223
12640118666.666666 0.9727847171698517 0.23171079828231025 -6.171235771507362e-17 3.637430308241047e-18 -6.171235771507362e-17 3.637430308241047e-18 0.972784576385601 0.23171138933194735
12640736000.0 0.9744162097117702 0.22475108509371403 -6.167236550844306e-17 4.083150852819087e-18 -6.167236550844306e-17 4.083150852819087e-18 0.974416073162809 0.22475167710570298
12641353333.333334 0.975997910193344 0.21777988726711997 -6.162915769146225e-17 4.528483317283553e-18 -6.162915769146225e-17 4.528483317283553e-18 0.9759977778862359 0.21778048021111684
12641970666.666666 0.9775297377907238 0.2107975610263384 -6.158273778364579e-17 4.973404529213299e-18 -6.158273778364579e-17 4.973404529213299e-18 0.9775296097318147 0.21079815487195455
12642588000.0 0.9790116142285261 0.2038044631638615 -6.153310947130366e-17 5.4178913467700074e-18 -6.153310947130366e-17 5.4178913467700074e-18 0.9790114904239443 0.20380505788066516
12643205333.333334 0.9804434637838175 0.19680095102271533 -6.148027660728275e-17 5.861920659900888e-18 -6.148027660728275e-17 5.861920659900888e-18 0.9804433442394733 0.19680154658023322
12643822666.666666 0.9818252132900405 0.1897873824779214 -6.142424321070022e-17 6.30546939153576e-18 -6.142424321070022e-17 6.30546939153576e-18 0.9818250980116267 0.18978797884564033
12644440000.0 0.9831567921407034 0.18276411591846042 -6.136501346666785e-17 6.7485144987836664e-18 -6.136501346666785e-17 6.7485144987836664e-18 0.9831566811336937 0.18276471306582878
12645057333.333334 0.9844381322929968 0.17573151022890277 -6.130259172600915e-17 7.191032974120314e-18 -6.130259172600915e-17 7.191032974120314e-18 0.9844380255626458 0.17573210812533188
12645674666.666666 0.9856691682712784 0.16868992477104205 -6.123698250496641e-17 7.633001846580091e-18 -6.123698250496641e-17 7.633001846580091e-18 0.9856690658226231 0.16869052338590843
12646292000.0 0.9868498371704346 0.16163971936544833 -6.116819048489802e-17 8.074398182956174e-18 -6.116819048489802e-17 8.074398182956174e-18 0.9868497390082906 0.16164031866809422
12646909333.333334 0.987980078659057 0.1545812542732768 -6.109622051197237e-17 8.515199088963454e-18 -6.109622051197237e-17 8.515199088963454e-18 0.987979984788021 0.15458185423301246
12647526666.666666 0.9890598349825549 0.1475148901776907 -6.102107759684682e-17 8.95538171044061e-18 -6.102107759684682e-17 8.95538171044061e-18 0.9890597454070053 0.14751549076379608
12648144000.0 0.9900890509661137 0.14044098816540312 -6.094276691434282e-17 9.3949232345219e-18 -6.094276691434282e-17 9.3949232345219e-18 0.9900889656902083 0.140441589347129
12648761333.333334 0.9910676740174756 0.1333599097084496 -6.086129380310999e-17 9.833800890818378e-18 -6.086129380310999e-17 9.833800890818378e-18 0.9910675930451516 0.1333605114550192
12649378666.666666 0.9919956541296545 0.12627201664554882 -6.077666376528435e-17 1.0271991952586184e-17 -6.077666376528435e-17 1.0271991952586184e-17 0.9919955774646291 0.1262726189261597
12649996000.0 0.9928729438834953 0.11917767116358503 -6.068888246613438e-17 1.0709473737909244e-17 -6.068888246613438e-17 1.0709473737909244e-17 0.9928728715292657 0.1191782739474104
12650613333.333334 0.9936994984500892 0.11207723577915638 -6.059795573370188e-17 1.114622361086369e-17 -6.059795573370188e-17 1.114622361086369e-17 0.9936994304099307 0.11207783903534664
12651230666.666666 0.9944752755930472 0.10497107332016334 -6.05038895584344e-17 1.1582218982679439e-17 -6.05038895584344e-17 1.1582218982679439e-17 0.9944752118700168 0.10497167701784804
12651848000.0 0.995200235670701 0.09785954690695854 -6.040669009280613e-17 1.2017437312914265e-17 -6.040669009280613e-17 1.2017437312914265e-17 0.9952001762676327 0.09786015101524742
12652465333.333334 0.9958743416380823 0.09074301993415794 -6.03063636509338e-17 1.2451856110609502e-17 -6.03063636509338e-17 1.2451856110609502e-17 0.9958742865575893 0.09074362442214283
12653082666.666666 0.996497559048837 0.08362185605190264 -6.020291670818475e-17 1.2885452935440985e-17 -6.020291670818475e-17 1.2885452935440985e-17 0.9964975082933116 0.08362246088865902
12653700000.0 0.9970698560569986 0.07649641914710642 -6.009635590077045e-17 1.3318205398892465e-17 -6.009635590077045e-17 1.3318205398892465e-17 0.9970698096286138 0.07649702430169511
12654317333.333334 0.9975912034185886 0.0693670733252299 -5.998668802534227e-17 1.3750091165383287e-17 -5.998668802534227e-17 1.3750091165383287e-17 0.9975911613192923 0.06936767876669822
12654934666.666666 0.9980615744931269 0.062234182891362545 -5.987392003856866e-17 1.4181087953435422e-17 -5.987392003856866e-17 1.4181087953435422e-17 0.9980615367246491 0.062234788588746426
12655552000.0 0.9984809452449932 0.05509811233172107 -5.975805905670993e-17 1.4611173536811616e-17 -5.975805905670993e-17 1.4611173536811616e-17 0.9984809118088414 0.055098718254046296
12656169333.333334 0.9988492942446474 0.04795922629510917 -5.96391123551853e-17 1.5040325745652082e-17 -5.96391123551853e-17 1.5040325745652082e-17 0.9988492651421061 0.047959832411392976
12656786666.666666 0.9991666026697299 0.04081788957411381 -5.951708736812698e-17 1.5468522467622862e-17 -5.951708736812698e-17 1.5468522467622862e-17 0.9991665779018648 0.040818495853366686
12657404000.0 0.9994328543060261 0.03367446708657846 -5.939199168793104e-17 1.5895741649043908e-17 -5.939199168793104e-17 1.5895741649043908e-17 0.9994328338736783 0.03367507349780546
12658021333.333334 0.9996480355482877 0.026529323856898823 -5.92638330647975e-17 1.632196129602381e-17 -5.92638330647975e-17 1.632196129602381e-17 0.9996480194520796 0.026529930369101416
12658638666.666666 0.9998121354009324 0.019382824997484283 -5.913261940626493e-17 1.6747159475580802e-17 -5.913261940626493e-17 1.6747159475580802e-17 0.9998121236412624 0.019383431579661697
12659256000.0 0.9999251454786049 0.012235335689930195 -5.899835877673218e-17 1.71713143167769e-17 -5.899835877673218e-17 1.71713143167769e-17 0.9999251380556516 0.012235942311081167
12659873333.333334 0.9999870600066076 0.005087221166442722 -5.886105939697678e-17 1.7594404011833423e-17 -5.886105939697678e-17 1.7594404011833423e-17 0.9999870569203267 0.005087827795566986
12660490666.666666 0.9999978758211906 -0.0020611533087107415 -5.872072964366556e-17 1.8016406817240878e-17 -5.872072964366556e-17 1.8016406817240878e-17 0.9999978770713174 -0.002060546702610818
12661108000.0 0.9999575923697173 -0.009209422458178887 -5.857737804884989e-17 1.843730105489032e-17 -5.857737804884989e-17 1.843730105489032e-17 0.9999575979557648 -0.009208815906096743
12661725333.333334 0.9998662117106925 -0.016357221009822502 -5.843101329946568e-17 1.8857065113159014e-17 -5.843101329946568e-17 1.8857065113159014e-17 0.9998662216319515 -0.016356614542745777
12662342666.666666 0.9997237385136564 -0.023504183715578594 -5.828164423681205e-17 1.927567744803552e-17 -5.828164423681205e-17 1.927567744803552e-17 0.9997237527691971 -0.02350357736448757
12662960000.0 0.9995301800589423 -0.030649945370152684 -5.812927985603311e-17 1.9693116584205932e-17 -5.812927985603311e-17 1.9693116584205932e-17 0.9995301986476152 -0.03064933916601873
12663577333.333334 0.9992855462373146 -0.03779414082959549 -5.797392930558366e-17 2.0109361116162656e-17 -5.797392930558366e-17 2.0109361116162656e-17 0.9992855691577464 -0.03779353480337941
12664194666.666666 0.9989898495494508 -0.044936405030018174 -5.781560188669235e-17 2.0524389709290764e-17 -5.781560188669235e-17 2.0524389709290764e-17 0.9989898768000476 -0.044935799212668645
12664812000.0 0.9986431051053131 -0.05207637300613334 -5.765430705281508e-17 2.093818110095863e-17 -5.765430705281508e-17 2.093818110095863e-17 0.9986431366842609 -0.0520757674285854
12665429333.333334 0.9982453306233695 -0.059213679910103435 -5.749005440908002e-17 2.135071410160427e-17 -5.749005440908002e-17 2.135071410160427e-17 0.9982453665286317 -0.059213074603276794
12666046666.666666 0.9977965464296951 -0.06634796102992851 -5.732285371172857e-17 2.1761967595809374e-17 -5.732285371172857e-17 2.1761967595809374e-17 0.9977965866590158 -0.06634735602472608
12666664000.0 0.9972967754569203 -0.07347885180842355 -5.715271486754088e-17 2.2171920543386732e-17 -5.715271486754088e-17 2.2171920543386732e-17 0.9972968200078228 -0.07347824713572984
12667281333.333334 0.9967460432430796 -0.08060598786144983 -5.697964793326435e-17 2.258055198043929e-17 -5.697964793326435e-17 2.258055198043929e-17 0.9967460921128655 -0.08060538355212925
12667898666.666666 0.996144377930287 -0.08772900499684662 -5.680366311502458e-17 2.2987841020437125e-17 -5.680366311502458e-17 2.2987841020437125e-17 0.9961444311160387 -0.08772840108174214
12668516000.0 0.9954918102633054 -0.09484753923292785 -5.662477076773223e-17 2.3393766855282017e-17 -5.662477076773223e-17 2.3393766855282017e-17 0.9954918677618843 -0.0948469357428592
12669133333.333334 0.9947883735879842 -0.10196122681699643 -5.644298139448927e-17 2.3798308756351485e-17 -5.644298139448927e-17 2.3798308756351485e-17 0.9947884353960322 -0.10196062378275865
12669750666.666666 0.9940341038495412 -0.10906970424410176 -5.625830564597418e-17 2.420144607557032e-17 -5.625830564597418e-17 2.420144607557032e-17 0.9940341699634784 -0.10906910169646346
12670368000.0 0.9932290395907252 -0.11617260827552887 -5.607075431983197e-17 2.4603158246446868e-17 -5.607075431983197e-17 2.4603158246446868e-17 0.9932291100067563 -0.11617200624523116
