! Parameters = {f0=12700.012000; bw=77.238000; Q=6100.000000; N=10; m_0_1=1.240936; m_1_1=-0.150707; m_1_2=1.075748; m_2_2=-0.151356; m_2_3=0.712711; m_2_8=-0.000890; m_2_9=0.035814; m_3_3=-0.153293; m_3_4=0.601240; m_3_7=-0.000290; m_3_8=-0.097378; m_3_9=-0.000890; m_4_4=-0.156218; m_4_5=0.437575; m_4_6=0.003227; m_4_7=-0.117927; m_4_8=-0.000290; m_5_5=-0.155836; m_5_6=0.844930; m_5_7=0.003227; m_6_6=-0.155837; m_6_7=0.437917; m_7_7=-0.156204; m_7_8=0.601358; m_8_8=-0.153295; m_8_9=0.713024; m_9_9=-0.151361; m_9_10=1.076826; m_10_10=-0.150717; m_10_11=1.241731}
!
! Created with skrf (http://scikit-rf.org).
# Hz S RI R 50.0 
!freq ReS11 ImS11 ReS21 ImS21 ReS12 ImS12 ReS22 ImS22
12607400000.0 0.8653962039496806 -0.5010882259535869 -6.61602348137787e-17 6.989825455329448e-17 -6.61602348137787e-17 6.989825455329448e-17 0.8653965315864477 -0.5010876601134551
12608017333.333334 0.8605134861429053 -0.5094276594041749 -6.546259890548944e-17 7.05263281175079e-17 -6.546259890548944e-17 7.05263281175079e-17 0.8605138192161084 -0.5094270967841596
12608634666.666666 0.8555504074926484 -0.517719518889325 -6.475900947274736e-17 7.114744729557434e-17 -6.475900947274736e-17 7.114744729557434e-17 0.8555507459706533 -0.5177189595416508
12609252000.0 0.8505074314864126 -0.5259630300565019 -6.404953575868225e-17 7.176155574283452e-17 -6.404953575868225e-17 7.176155574283452e-17 0.8505077753370813 -0.5259624740330813
12609869333.333334 0.8453850290730772 -0.5341574230682773 -6.333424753879019e-17 7.236859780327971e-17 -6.333424753879019e-17 7.236859780327971e-17 0.8453853782637751 -0.5341568704207083
12610486666.666666 0.8401836786189407 -0.5423019326742038 -6.261321511409445e-17 7.296851851457129e-17 -6.261321511409445e-17 7.296851851457129e-17 0.8401840331165349 -0.5423013834537622
12611104000.0 0.834903865862962 -0.5503957982823933 -6.188650930423779e-17 7.356126361300951e-17 -6.188650930423779e-17 7.356126361300951e-17 0.8349042256338302 -0.550395252540032
12611721333.333334 0.8295460838715604 -0.5584382640303122 -6.115420144056846e-17 7.41467795384012e-17 -6.115420144056846e-17 7.41467795384012e-17 0.8295464488815902 -0.5584377218166536
12612338666.666666 0.8241108329924288 -0.5664285788555835 -6.041636335914993e-17 7.472501343888225e-17 -6.041636335914993e-17 7.472501343888225e-17 0.8241112032070215 -0.5664280402209153
12612956000.0 0.8185986208078021 -0.5743659965661225 -5.967306739372635e-17 7.52959131756715e-17 -5.967306739372635e-17 7.52959131756715e-17 0.8185989961918764 -0.5743654615603931
12613573333.333334 0.8130099620872208 -0.5822497759095895 -5.892438636867276e-17 7.585942732773114e-17 -5.892438636867276e-17 7.585942732773114e-17 0.8130103426052161 -0.5822492445824039
12614190666.666666 0.8073453787392293 -0.5900791806429393 -5.817039359186083e-17 7.641550519638875e-17 -5.817039359186083e-17 7.641550519638875e-17 0.8073457643551095 -0.590078653043554
12614808000.0 0.8016053997628159 -0.5978534796009207 -5.741116284750301e-17 7.696409680987244e-17 -5.741116284750301e-17 7.696409680987244e-17 0.8016057904400725 -0.5978529557782395
12615425333.333334 0.79579056119793 -0.605571946764474 -5.664676838896273e-17 7.750515292776838e-17 -5.664676838896273e-17 7.750515292776838e-17 0.7957909568995858 -0.6055714267670438
12616042666.666666 0.7899014060754397 -0.6132338613285103 -5.587728493150346e-17 7.803862504542179e-17 -5.587728493150346e-17 7.803862504542179e-17 0.7899018067640506 -0.6132333452045148
12616660000.0 0.7839384843664358 -0.6208385077692005 -5.5102787645009837e-17 7.856446539825708e-17 -5.5102787645009837e-17 7.856446539825708e-17 0.7839388900040963 -0.6208379955664574
12617277333.333334 0.7779023529307832 -0.6283851759109076 -5.432335214665246e-17 7.90826269660359e-17 -5.432335214665246e-17 7.90826269660359e-17 0.7779027634791303 -0.6283846676768644
12617894666.666666 0.7717935754653148 -0.6358731609922661 -5.3539054493549747e-17 7.959306347701936e-17 -5.3539054493549747e-17 7.959306347701936e-17 0.7717939908855297 -0.6358726567739946
12618512000.0 0.76561272245092 -0.6433017637323271 -5.2749971175331036e-17 8.009572941209587e-17 -5.2749971175331036e-17 8.009572941209587e-17 0.7656131427037322 -0.6433012635765187
12619129333.333334 0.7593603710995376 -0.6506702903955315 -5.1956179106730835e-17 8.059058000879179e-17 -5.1956179106730835e-17 8.059058000879179e-17 0.7593607961452306 -0.6506697943484954
12619746666.666666 0.7530371053000926 -0.657978052856696 -5.115775562008991e-17 8.107757126524359e-17 -5.115775562008991e-17 8.107757126524359e-17 0.753037535098506 -0.6579775609643523
12620364000.0 0.7466435155638911 -0.6652243686653592 -5.035477845783132e-17 8.155665994408884e-17 -5.035477845783132e-17 8.155665994408884e-17 0.7466439500744236 -0.6652238809732353
12620981333.333334 0.7401801989697517 -0.6724085611091889 -4.954732576494424e-17 8.202780357625564e-17 -4.954732576494424e-17 8.202780357625564e-17 0.7401806381513673 -0.6724080776624161
12621598666.666666 0.7336477591079889 -0.6795299592774826 -4.873547608136553e-17 8.249096046471933e-17 -4.873547608136553e-17 8.249096046471933e-17 0.7336482029192185 -0.6795294801207911
12622216000.0 0.7270468060241543 -0.6865878981236911 -4.791930833437287e-17 8.294608968815549e-17 -4.791930833437287e-17 8.294608968815549e-17 0.7270472544231003 -0.6865874233014053
12622833333.333334 0.7203779561620276 -0.6935817185275654 -4.7098901830928003e-17 8.339315110452808e-17 -4.7098901830928003e-17 8.339315110452808e-17 0.7203784091063695 -0.6935812480836027
12623450666.666666 0.7136418323061515 -0.7005107673566131 -4.6274336249989055e-17 8.383210535460042e-17 -4.6274336249989055e-17 8.383210535460042e-17 0.713642289753147 -0.7005103013344754
12624068000.0 0.7068390635234889 -0.7073743975272704 -4.544569163479306e-17 8.426291386536925e-17 -4.544569163479306e-17 8.426291386536925e-17 0.7068395254299804 -0.707373935970044
12624685333.333334 0.6999702851047774 -0.7141719680652329 -4.46130483850923e-17 8.468553885343026e-17 -4.46130483850923e-17 8.468553885343026e-17 0.6999707514271947 -0.7141715110155826
12625302666.666666 0.6930361385053223 -0.7209028441651925 -4.3776487249400927e-17 8.509994332824595e-17 -4.3776487249400927e-17 8.509994332824595e-17 0.6930366091996869 -0.7209023916653574
12625920000.0 0.6860372712848084 -0.7275663972503996 -4.2936089317136365e-17 8.550609109537543e-17 -4.2936089317136365e-17 8.550609109537543e-17 0.6860377463067383 -0.7275659493421909
12626537333.333334 0.6789743370471328 -0.7341620050310678 -4.209193601082606e-17 8.590394675957914e-17 -4.209193601082606e-17 8.590394675957914e-17 0.6789748163518464 -0.7341615617558633
12627154666.666666 0.6718479953791648 -0.7406890515626853 -4.124410907821287e-17 8.629347572788353e-17 -4.124410907821287e-17 8.629347572788353e-17 0.671848478921484 -0.7406886129614256
12627772000.0 0.6646589117891407 -0.7471469273035309 -4.039269058434411e-17 8.667464421256084e-17 -4.039269058434411e-17 8.667464421256084e-17 0.6646593995234971 -0.747146493416717
12628389333.333334 0.6574077576447306 -0.7535350291714107 -3.953776290368354e-17 8.704741923400957e-17 -3.953776290368354e-17 8.704741923400957e-17 0.6574082495251687 -0.7535346000390993
12629006666.666666 0.6500952101100439 -0.7598527606002426 -3.867940871211251e-17 8.741176862359458e-17 -3.867940871211251e-17 8.741176862359458e-17 0.6500957060902249 -0.7598523362620422
12629624000.0 0.6427219520826437 -0.7660995315955406 -3.7817710978994955e-17 8.776766102636911e-17 -3.7817710978994955e-17 8.776766102636911e-17 0.6427224521158517 -0.7660991120906085
12630241333.333334 0.6352886721295615 -0.7722747587897003 -3.69527529591505e-17 8.81150659037481e-17 -3.69527529591505e-17 8.81150659037481e-17 0.6352891761687052 -0.7722743441567382
12630858666.666666 0.627796064423252 -0.7783778654962563 -3.608461818484873e-17 8.845395353608407e-17 -3.608461818484873e-17 8.845395353608407e-17 0.6277965724208712 -0.7783774557735069
12631476000.0 0.620244828676439 -0.7844082817640102 -3.5213390457722054e-17 8.878429502518699e-17 -3.5213390457722054e-17 8.878429502518699e-17 0.6202453405847089 -0.784407876989255
12632093333.333334 0.6126356700770795 -0.7903654444300046 -3.433915384074201e-17 8.91060622967312e-17 -3.433915384074201e-17 8.91060622967312e-17 0.6126361858478151 -0.7903650446405592
12632710666.666666 0.6049692992223785 -0.7962487971722265 -3.3461992650100765e-17 8.941922810261242e-17 -3.3461992650100765e-17 8.941922810261242e-17 0.6049698188070372 -0.7962484024049357
12633328000.0 0.597246432052332 -0.802057790561622 -3.258199144708652e-17 8.97237660232182e-17 -3.258199144708652e-17 8.97237660232182e-17 0.5972469554020222 -0.802057400852861
12633945333.333334 0.5894677897829872 -0.8077918821133275 -3.1699235029974765e-17 9.001965046960661e-17 -3.1699235029974765e-17 9.001965046960661e-17 0.5894683168484685 -0.8077914974989928
12634562666.666666 0.5816340988391071 -0.8134505363373072 -3.0813808425851477e-17 9.030685668562203e-17 -3.0813808425851477e-17 9.030685668562203e-17 0.5816346295707977 -0.8134501568528175
12635180000.0 0.573746090786266 -0.8190332247884149 -2.9925796882458845e-17 9.058536074991693e-17 -2.9925796882458845e-17 9.058536074991693e-17 0.5737466251342469 -0.8190328504687063
12635797333.333334 0.565804502262532 -0.8245394261157445 -2.903528585999231e-17 9.08551395779037e-17 -2.903528585999231e-17 9.08551395779037e-17 0.5658050401765505 -0.8245390569952671
12636414666.666666 0.5578100749097877 -0.8299686261112342 -2.8142361022906525e-17 9.11161709236182e-17 -2.8142361022906525e-17 9.11161709236182e-17 0.557810616339264 -0.8299682622239493
12637032000.0 0.5497635553042395 -0.8353203177578494 -2.724710823167912e-17 9.13684333815107e-17 -2.724710823167912e-17 9.13684333815107e-17 0.5497641001982704 -0.8353199591372269
12637649333.333334 0.5416656948869298 -0.8405940012767705 -2.634961353457207e-17 9.161190638815224e-17 -2.634961353457207e-17 9.161190638815224e-17 0.5416662431942928 -0.8405936479557843
12638266666.666666 0.533517249893445 -0.8457891841741456 -2.544996315939128e-17 9.184657022385622e-17 -2.544996315939128e-17 9.184657022385622e-17 0.5335178015626044 -0.8457888361852722
12638884000.0 0.5253189812833164 -0.8509053812870677 -2.4548243505209227e-17 9.207240601422695e-17 -2.4548243505209227e-17 9.207240601422695e-17 0.5253195362624277 -0.8509050386622821
12639501333.333334 0.5170716546689327 -0.855942114828897 -2.3644541134087225e-17 9.228939573162211e-17 -2.3644541134087225e-17 9.228939573162211e-17 0.5170722129058466 -0.8559417775996699
12640118666.666666 0.5087760402442105 -0.8608989144337763 -2.2738942762788417e-17 9.249752219653506e-17 -2.2738942762788417e-17 9.249752219653506e-17 0.5087766016864796 -0.8608985826310726
12640736000.0 0.5004329127121824 -0.8657753172008511 -2.1831535254447337e-17 9.269676907890212e-17 -2.1831535254447337e-17 9.269676907890212e-17 0.5004334773070647 -0.8657749908551249
12641353333.333334 0.4920430512133805 -0.8705708677370602 -2.0922405610308314e-17 9.288712089931154e-17 -2.0922405610308314e-17 9.288712089931154e-17 0.49204361890784526 -0.8705705468782544
12641970666.666666 0.48360723925246635 -0.8752851182000296 -2.001164096134804e-17 9.306856303015408e-17 -2.001164096134804e-17 9.306856303015408e-17 0.48360780999319747 -0.8752848028575699
12642588000.0 0.47512626462532687 -0.8799176283397304 -1.909932855997129e-17 9.324108169667491e-17 -1.909932855997129e-17 9.324108169667491e-17 0.4751268383587299 -0.879917318542526
12643205333.333334 0.46660091934550885 -0.8844679655395996 -1.8185555771655727e-17 9.340466397795217e-17 -1.8185555771655727e-17 9.340466397795217e-17 0.46660149601771483 -0.8844676613160385
12643822666.666666 0.4580319995700529 -0.8889357048570445 -1.7270410066608e-17 9.355929780779083e-17 -1.7270410066608e-17 9.355929780779083e-17 0.458032579126924 -0.8889354062349922
12644440000.0 0.4494203055254191 -0.8933204290629824 -1.6353979011410356e-17 9.37049719755354e-17 -1.6353979011410356e-17 9.37049719755354e-17 0.4494208879125528 -0.893320136069777
12645057333.333334 0.4407666414326305 -0.8976217286808691 -1.5436350260661514e-17 9.384167612680115e-17 -1.5436350260661514e-17 9.384167612680115e-17 0.44076722659536555 -0.8976214413433214
12645674666.666666 0.43207181543219536 -0.901839202024928 -1.451761154859899e-17 9.396940076412603e-17 -1.451761154859899e-17 9.396940076412603e-17 0.4320724033156172 -0.901838920369319
12646292000.0 0.4233366395084846 -0.9059724552377386 -1.3597850680725042e-17 9.408813724753846e-17 -1.3597850680725042e-17 9.408813724753846e-17 0.4233372300574292 -0.9059721792898144
12646909333.333334 0.41456192941413045 -0.9100211023269003 -1.2677155525456075e-17 9.419787779504091e-17 -1.2677155525456075e-17 9.419787779504091e-17 0.41456252257319054 -0.9100208321118725
12647526666.666666 0.405748504593746 -0.913984765201134 -1.1755614005720992e-17 9.429861548301796e-17 -1.1755614005720992e-17 9.429861548301796e-17 0.4057491003072764 -0.9139845007436768
12648144000.0 0.3968971881073205 -0.9178630737056236 -1.0833314090587147e-17 9.439034424655823e-17 -1.0833314090587147e-17 9.439034424655823e-17 0.3968977863194426 -0.9178628150298704
12648761333.333334 0.38800880655348624 -0.9216556656565253 -9.910343786879816e-18 9.447305887969575e-17 -9.910343786879816e-18 9.447305887969575e-17 0.3880094072080934 -0.9216554127860671
12649378666.666666 0.37908418999232457 -0.9253621868747913 -8.98679113081749e-18 9.454675503556787e-17 -8.98679113081749e-18 9.454675503556787e-17 0.37908479303308795 -0.9253619398326759
12649996000.0 0.37012417186774627 -0.9289822912192932 -8.062744179607336e-18 9.461142922649555e-17 -8.062744179607336e-18 9.461142922649555e-17 0.37012477723811943 -0.928982050028021
12650613333.333334 0.3611295889296298 -0.932515640619153 -7.138291003076833e-18 9.4667078823978e-17 -7.138291003076833e-18 9.4667078823978e-17 0.3611301965728544 -0.9325154053006759
12651230666.666666 0.35210128115594463 -0.935961905105211 -6.213519675310273e-18 9.471370205860696e-17 -6.213519675310273e-18 9.471370205860696e-17 0.3521018910150553 -0.9359616756809299
12651848000.0 0.34304009167393745 -0.9393207628409848 -5.288518266236874e-18 9.475129801990138e-17 -5.288518266236874e-18 9.475129801990138e-17 0.34304070369176803 -0.9393205393317494
12652465333.333334 0.33394686668166046 -0.9425919001526237 -4.363374833300716e-18 9.477986665605631e-17 -4.363374833300716e-18 9.477986665605631e-17 0.3339474808008485 -0.9425916825787286
12653082666.666666 0.3248224553689747 -0.9457750115581943 -3.4381774130839392e-18 9.479940877361383e-17 -3.4381774130839392e-18 9.479940877361383e-17 0.32482307153196727 -0.945774799939378
12653700000.0 0.3156677098378714 -0.9488697997963396 -2.513014012924393e-18 9.480992603705152e-17 -2.513014012924393e-18 9.480992603705152e-17 0.31566832798693006 -0.9488695941517823
12654317333.333334 0.30648348502343326 -0.9518759758538519 -1.5879726025878724e-18 9.481142096828913e-17 -1.5879726025878724e-18 9.481142096828913e-17 0.30648410510064006 -0.9518757762021746
12654934666.666666 0.29727063861361896 -0.9547932589927958 -6.63141105909403e-19 9.480389694611412e-17 -6.63141105909403e-19 9.480389694611412e-17 0.297271260560881 -0.9547930653520568
12655552000.0 0.28803003096919116 -0.9576213767767088 2.6139260755780607e-19 9.478735820552594e-17 2.6139260755780607e-19 9.478735820552594e-17 0.2880306547282473 -0.957621189164405
12656169333.333334 0.278762525043643 -0.9603600650959644 1.1855407308472884e-18 9.476180983700006e-17 1.1855407308472884e-18 9.476180983700006e-17 0.2787631505560684 -0.960359883529028
12656786666.666666 0.2694689863022273 -0.9630090681925494 2.109215527926244e-18 9.47272577856692e-17 2.109215527926244e-18 9.47272577856692e-17 0.26946961350943893 -0.9630088926873454
12657404000.0 0.2601502826414342 -0.9655681386838603 3.032329342005523e-18 9.468370885042555e-17 3.032329342005523e-18 9.468370885042555e-17 0.2601509114846962 -0.9655679692561858
12658021333.333334 0.25080728430777544 -0.9680370375858516 3.954794603830753e-18 9.463117068294067e-17 3.954794603830753e-18 9.463117068294067e-17 0.25080791472820557 -0.968036874250936
12658638666.666666 0.24144086381668084 -0.9704155343353116 4.876523839970021e-18 9.456965178660645e-17 4.876523839970021e-18 9.456965178660645e-17 0.2414414957552548 -0.9704153771078126
12659256000.0 0.23205189587074068 -0.9727034068114636 5.7974296811133895e-18 9.449916151539306e-17 5.7974296811133895e-18 9.449916151539306e-17 0.2320525292682986 -0.9727032557054689
12659873333.333334 0.22264125727829523 -0.9749004413566402 6.717424870324301e-18 9.441971007262825e-17 6.717424870324301e-18 9.441971007262825e-17 0.22264189207554655 -0.9749002963856631
12660490666.666666 0.21320982687144252 -0.9770064327962644 7.63642227127451e-18 9.433130850969802e-17 7.63642227127451e-18 9.433130850969802e-17 0.21321046300897165 -0.9770062939732441
12661108000.0 0.20375848542385502 -0.9790211844580333 8.55433487651788e-18 9.423396872466156e-17 8.55433487651788e-18 9.423396872466156e-17 0.20375912284212702 -0.9790210517953332
12661725333.333334 0.19428811556880438 -0.9809445081902222 9.471075815671049e-18 9.41277034607939e-17 9.471075815671049e-18 9.41277034607939e-17 0.19428875420817068 -0.9809443816996303
12662342666.666666 0.1847996017164579 -0.9827762243793207 1.0386558363644808e-17 9.401252630504223e-17 1.0386558363644808e-17 9.401252630504223e-17 0.1848002415171618 -0.9827761040720475
12662960000.0 0.1752938299714522 -0.9845161619667668 1.1300695948829e-17 9.388845168640541e-17 1.1300695948829e-17 9.388845168640541e-17 0.17529447087363423 -0.9845160478534443
12663577333.333334 0.16577168805000317 -0.9861641584649509 1.2213402161248972e-17 9.375549487423532e-17 1.2213402161248972e-17 9.375549487423532e-17 0.165772329993707 -0.9861640505556319
12664194666.666666 0.1562340651971726 -0.9877200599723579 1.3124590760727531e-17 9.361367197645655e-17 1.3124590760727531e-17 9.361367197645655e-17 0.15623470812235019 -0.9877199582765135
12664812000.0 0.1466818521037118 -0.9891837211879592 1.4034175685011567e-17 9.346299993770884e-17 1.4034175685011567e-17 9.346299993770884e-17 0.14668249595022947 -0.9891836257144799
12665429333.333334 0.13711594082288292 -0.9905550054247813 1.4942071057897134e-17 9.330349653740752e-17 1.4942071057897134e-17 9.330349653740752e-17 0.13711658553052686 -0.9905549161819766
12666046666.666666 0.12753722468732168 -0.9918337846226495 1.5848191197291442e-17 9.313518038773358e-17 1.5848191197291442e-17 9.313518038773358e-17 0.12753787019580354 -0.9918337016182459
12666664000.0 0.11794659822518877 -0.9930199393602018 1.6752450623321825e-17 9.295807093153168e-17 1.6752450623321825e-17 9.295807093153168e-17 0.11794724447415122 -0.9930198626013417
12667281333.333334 0.10834495707719619 -0.9941133588659666 1.765476406634326e-17 9.277218844014606e-17 1.765476406634326e-17 9.277218844014606e-17 0.10834560400621877 -0.9941132883592096
12667898666.666666 0.09873319791257154 -0.9951139410287598 1.855504647498602e-17 9.257755401116563e-17 1.855504647498602e-17 9.257755401116563e-17 0.09873384546117607 -0.9951138767800808
12668516000.0 0.08911221834534837 -0.9960215924072147 1.945321302416622e-17 9.237418956609418e-17 1.945321302416622e-17 9.237418956609418e-17 0.08911286645300476 -0.9960215344220034
12669133333.333334 0.07948291685079525 -0.9968362282384811 2.034917912302185e-17 9.216211784795332e-17 2.034917912302185e-17 9.216211784795332e-17 0.07948356545692711 -0.9968361765215423
12669750666.666666 0.06984619268125547 -0.9975577724461706 2.1242860422899633e-17 9.19413624187929e-17 2.1242860422899633e-17 9.19413624187929e-17 0.06984684172524568 -0.997557727001722
12670368000.0 0.060202945782167804 -0.9981861576474514 2.2134172825265735e-17 9.171194765713398e-17 2.2134172825265735e-17 9.171194765713398e-17 0.060203595203364296 -0.9981861184791254
12670985333.333334 0.05055407670827872 -0.9987213251593291 2.3023032489592588e-17 9.147389875533642e-17 2.3023032489592588e-17 9.147389875533642e-17 0.0505547264460002 -0.9987212922701727
