! Parameters = {f0=12700.012000; bw=77.238000; Q=6100.000000; N=10; m_0_1=1.165661; m_1_1=-1.279836; m_1_2=1.000473; m_2_2=-1.280485; m_2_3=0.637436; m_2_8=-0.004653; m_2_9=0.032051; m_3_3=-1.282422; m_3_4=0.525965; m_3_7=-0.004053; m_3_8=-0.101141; m_3_9=-0.004653; m_4_4=-1.285347; m_4_5=0.362300; m_4_6=-0.000536; m_4_7=-0.121690; m_4_8=-0.004053; m_5_5=-1.284965; m_5_6=0.769655; m_5_7=-0.000536; m_6_6=-1.284966; m_6_7=0.362642; m_7_7=-1.285333; m_7_8=0.526083; m_8_8=-1.282424; m_8_9=0.637749; m_9_9=-1.280490; m_9_10=1.001551; m_10_10=-1.279846; m_10_11=1.166456}
!
! Created with skrf (http://scikit-rf.org).
# Hz S RI R 50.0 
!freq ReS11 ImS11 ReS21 ImS21 ReS12 ImS12 ReS22 ImS22
12607400000.0 0.5657794612767926 0.8245566088493824 -5.1099941264282696e-17 -4.14417658329557e-17 -5.1099941264282696e-17 -4.14417658329557e-17 0.5657789547385893 0.8245569564164505
12608017333.333334 0.5718971359258123 0.8203253415076879 -5.140035620203077e-17 -4.1047919490180226e-17 -5.140035620203077e-17 -4.1047919490180226e-17 0.5718966320116214 0.8203256928157344
12608634666.666666 0.5779831677524737 0.8160486859217819 -5.1697740372904455e-17 -4.065190105426487e-17 -5.1697740372904455e-17 -4.065190105426487e-17 0.5779826664899188 0.8160490409510042
12609252000.0 0.58403722001935 0.8117268787171709 -5.199207811583677e-17 -4.0253733812698486e-17 -5.199207811583677e-17 -4.0253733812698486e-17 0.5840367214359047 0.8117272374475617
12609869333.333334 0.5900589577583822 0.8073601590176115 -5.2283353948434284e-17 -3.985344116554689e-17 -5.2283353948434284e-17 -3.985344116554689e-17 0.590058461881369 0.8073605214289609
12610486666.666666 0.5960480477893924 0.8029487684319 -5.257155256778241e-17 -3.945104662408521e-17 -5.257155256778241e-17 -3.945104662408521e-17 0.5960475546459815 0.8029491345037966
12611104000.0 0.6020041587387243 0.7984929510403534 -5.285665885124697e-17 -3.904657380941566e-17 -5.285665885124697e-17 -3.904657380941566e-17 0.6020036683559321 0.7984933207521848
12611721333.333334 0.6079269610573482 0.7939929533814694 -5.3138657857248856e-17 -3.8640046451102334e-17 -5.3138657857248856e-17 -3.8640046451102334e-17 0.6079264734620359 0.7939933267124245
12612338666.666666 0.6138161270391884 0.7894490244382225 -5.341753482604903e-17 -3.823148838577162e-17 -5.341753482604903e-17 -3.823148838577162e-17 0.6138156422580604 0.789449401367292
12612956000.0 0.6196713308393426 0.784861415624216 -5.3693275180511546e-17 -3.782092355572213e-17 -5.3693275180511546e-17 -3.782092355572213e-17 0.6196708488989444 0.784861796130193
12613573333.333334 0.6254922484918876 0.7802303807699453 -5.3965864526852357e-17 -3.740837600753552e-17 -5.3965864526852357e-17 -3.740837600753552e-17 0.625491769418605 0.7802307648314268
12614190666.666666 0.6312785579280272 0.7755561761085793 -5.423528865538629e-17 -3.699386989066792e-17 -5.423528865538629e-17 -3.699386989066792e-17 0.631278081748086 0.7755565637039692
12614808000.0 0.6370299389937801 0.7708390602618895 -5.4501533541258794e-17 -3.6577429456044095e-17 -5.4501533541258794e-17 -3.6577429456044095e-17 0.6370294657332417 0.7708394513693967
12615425333.333334 0.6427460734678015 0.766079294225849 -5.4764585345166306e-17 -3.6159079054646136e-17 -5.4764585345166306e-17 -3.6159079054646136e-17 0.6427456031525646 0.7660796888234913
12616042666.666666 0.6484266450788616 0.7612771413563028 -5.5024430414071495e-17 -3.573884313608947e-17 -5.5024430414071495e-17 -3.573884313608947e-17 0.6484261777346587 0.7612775394219065
12616660000.0 0.6540713395234284 0.7564328673543204 -5.528105528189677e-17 -3.531674624720912e-17 -5.528105528189677e-17 -3.531674624720912e-17 0.654070875175826 0.756433268865523
12617277333.333334 0.6596798444830625 0.7515467402514988 -5.553444667021906e-17 -3.4892813030624376e-17 -5.553444667021906e-17 -3.4892813030624376e-17 0.6596793831574577 0.751547145185748
12617894666.666666 0.6652518496415862 0.7466190303952214 -5.578459148894183e-17 -3.446706822331529e-17 -5.578459148894183e-17 -3.446706822331529e-17 0.6652513913632067 0.7466194387297785
12618512000.0 0.6707870467024689 0.7416500104335152 -5.60314768369724e-17 -3.403953665516949e-17 -5.60314768369724e-17 -3.403953665516949e-17 0.6707865914963714 0.7416504221454551
12619129333.333334 0.6762851294056702 0.7366399553001507 -5.627509000286868e-17 -3.361024324755588e-17 -5.627509000286868e-17 -3.361024324755588e-17 0.67628467729674 0.7366403703663652
12619746666.666666 0.6817457935446741 0.7315891421993594 -5.651541846548841e-17 -3.3179213011871495e-17 -5.651541846548841e-17 -3.3179213011871495e-17 0.6817453445576216 0.7315895605965558
12620364000.0 0.6871687369833994 0.7264978505904135 -5.675244989462729e-17 -3.274647104808369e-17 -5.675244989462729e-17 -3.274647104808369e-17 0.6871682911427603 0.726498272295117
12620981333.333334 0.692553659672712 0.7213663621723606 -5.69861721516323e-17 -3.231204254329226e-17 -5.69861721516323e-17 -3.231204254329226e-17 0.6925532170028451 0.7213667871609158
12621598666.666666 0.6979002636672106 0.7161949608682611 -5.721657329002667e-17 -3.187595277024652e-17 -5.721657329002667e-17 -3.187595277024652e-17 0.6978998241922972 0.7161953891168336
12622216000.0 0.7032082531416931 0.7109839328094981 -5.744364155610109e-17 -3.1438227085898855e-17 -5.744364155610109e-17 -3.1438227085898855e-17 0.7032078168857352 0.710984364294075
12622833333.333334 0.7084773344074403 0.7057335663200244 -5.76673653895091e-17 -3.099889092992633e-17 -5.76673653895091e-17 -3.099889092992633e-17 0.7084769013942601 0.7057340010164168
12623450666.666666 0.7137072159284684 0.7004441519004114 -5.788773342384079e-17 -3.055796982326788e-17 -5.788773342384079e-17 -3.055796982326788e-17 0.7137067861817058 0.7004445897842546
12624068000.0 0.7188976083377396 0.6951159822116957 -5.81047344871982e-17 -3.011548936663278e-17 -5.81047344871982e-17 -3.011548936663278e-17 0.7188971818808513 0.695116423258451
12624685333.333334 0.7240482244531705 0.6897493520591838 -5.831835760274708e-17 -2.967147523902806e-17 -5.831835760274708e-17 -2.967147523902806e-17 0.7240478013094294 0.68974979624414
12625302666.666666 0.7291587792934047 0.6843445583762644 -5.852859198925752e-17 -2.9225953196284224e-17 -5.852859198925752e-17 -2.9225953196284224e-17 0.7291583594858979 0.6843450056745394
12625920000.0 0.7342289900937568 0.6789019002077946 -5.873542706164923e-17 -2.877894906954354e-17 -5.873542706164923e-17 -2.877894906954354e-17 0.7342285736453845 0.6789023505943363
12626537333.333334 0.7392585763216619 0.6734216786937597 -5.893885243150158e-17 -2.8330488763793074e-17 -5.893885243150158e-17 -2.8330488763793074e-17 0.739258163255137 0.6734221321433478
12627154666.666666 0.744247259692298 0.6679041970525094 -5.913885790757347e-17 -2.788059825635262e-17 -5.913885790757347e-17 -2.788059825635262e-17 0.7442468500301431 0.6679046535397561
12627772000.0 0.7491947641840749 0.6623497605638738 -5.93354334963025e-17 -2.7429303595375308e-17 -5.93354334963025e-17 -2.7429303595375308e-17 0.7491943579486221 0.662350220063226
12628389333.333334 0.754100816053717 0.6567586765524838 -5.952856940228615e-17 -2.6976630898362302e-17 -5.952856940228615e-17 -2.6976630898362302e-17 0.7541004132671072 0.6567591390382246
12629006666.666666 0.7589651438515813 0.6511312543705771 -5.971825602876933e-17 -2.652260635063309e-17 -5.971825602876933e-17 -2.652260635063309e-17 0.7589647445357616 0.6511317198168259
12629624000.0 0.7637874784365414 0.6454678053810281 -5.990448397810117e-17 -2.60672562038369e-17 -5.990448397810117e-17 -2.60672562038369e-17 0.7637870826132666 0.645468273761745
12630241333.333334 0.7685675529909776 0.6397686429400186 -6.008724405219633e-17 -2.561060677442334e-17 -6.008724405219633e-17 -2.561060677442334e-17 0.7685671606818046 0.6397691142290013
12630858666.666666 0.773305103035424 0.634034082379823 -6.026652725296933e-17 -2.5152684442147692e-17 -6.026652725296933e-17 -2.5152684442147692e-17 0.7733047142617151 0.6340345565507128
12631476000.0 0.7779998664433879 0.6282644409911493 -6.044232478277615e-17 -2.4693515648526823e-17 -6.044232478277615e-17 -2.4693515648526823e-17 0.7779994812263071 0.6282649180174303
12632093333.333334 0.7826515834556895 0.6224600380057775 -6.061462804482378e-17 -2.423312689534386e-17 -6.061462804482378e-17 -2.423312689534386e-17 0.7826512018162014 0.6224605178607777
12632710666.666666 0.7872599966948318 0.616621194578896 -6.078342864358508e-17 -2.377154474310687e-17 -6.078342864358508e-17 -2.377154474310687e-17 0.7872596186537023 0.6166216772357904
12633328000.0 0.7918248511794065 0.6107482337711362 -6.094871838519466e-17 -2.330879580952386e-17 -6.094871838519466e-17 -2.330879580952386e-17 0.7918244767571989 0.6107487192029465
12633945333.333334 0.7963458943380195 0.6048414805309161 -6.111048927783075e-17 -2.284490676798203e-17 -6.111048927783075e-17 -2.284490676798203e-17 0.7963455235550965 0.6048419687105145
12634562666.666666 0.8008228760233415 0.5989012616763764 -6.126873353209124e-17 -2.237990434600894e-17 -6.126873353209124e-17 -2.237990434600894e-17 0.8008225088998608 0.5989017525764839
12635180000.0 0.8052555485259947 0.5929279058772248 -6.142344356135436e-17 -2.1913815323741587e-17 -6.142344356135436e-17 -2.1913815323741587e-17 0.8052551850819107 0.592928399470416
12635797333.333334 0.809643666588176 0.5869217436366673 -6.157461198213192e-17 -2.1446666532380836e-17 -6.157461198213192e-17 -2.1446666532380836e-17 0.8096433068432379 0.5869222398953702
12636414666.666666 0.8139869874172274 0.5808831072731221 -6.172223161440186e-17 -2.0978484852669896e-17 -6.172223161440186e-17 -2.0978484852669896e-17 0.8139866313909768 0.5808836061696194
12637032000.0 0.8182852706991531 0.5748123309017169 -6.186629548194122e-17 -2.0509297213335515e-17 -6.186629548194122e-17 -2.0509297213335515e-17 0.8182849184109243 0.5748128324081487
12637649333.333334 0.822538278611832 0.5687097504159181 -6.200679681263809e-17 -2.0039130589555146e-17 -6.200679681263809e-17 -2.0039130589555146e-17 0.8225379300807507 0.5687102545042823
12638266666.666666 0.8267457758382589 0.5625757034688286 -6.214372903879778e-17 -1.956801200140266e-17 -6.214372903879778e-17 -1.956801200140266e-17 0.8267454310832412 0.5625762101109836
12638884000.0 0.8309075295794661 0.5564105294546473 -6.227708579743163e-17 -1.9095968512311658e-17 -6.227708579743163e-17 -1.9095968512311658e-17 0.830907188619217 0.5564110386223123
12639501333.333334 0.8350233095674855 0.5502145694897719 -6.240686093053985e-17 -1.8623027227517387e-17 -6.240686093053985e-17 -1.8623027227517387e-17 0.835022972420499 0.5502150811545299
12640118666.666666 0.8390928880779795 0.5439881663940921 -6.25330484853767e-17 -1.8149215292518285e-17 -6.25330484853767e-17 -1.8149215292518285e-17 0.8390925547625365 0.5439886805273904
12640736000.0 0.8431160399430747 0.537731664671665 -6.26556427147146e-17 -1.767455989149656e-17 -6.26556427147146e-17 -1.767455989149656e-17 0.8431157104772414 0.5377321812448165
12641353333.333334 0.8470925425635064 0.5314454104921278 -6.277463807707921e-17 -1.7199088245799637e-17 -6.277463807707921e-17 -1.7199088245799637e-17 0.8470922169651355 0.5314459294763141
12641970666.666666 0.8510221759211729 0.5251297516711897 -6.289002923699054e-17 -1.6722827612357782e-17 -6.289002923699054e-17 -1.6722827612357782e-17 0.8510218542079004 0.5251302730374612
12642588000.0 0.8549047225912102 0.5187850376515278 -6.300181106518114e-17 -1.624580528213757e-17 -6.300181106518114e-17 -1.624580528213757e-17 0.8549044047804573 0.5187855613708072
12643205333.333334 0.8587399677540297 0.5124116194834571 -6.31099786388058e-17 -1.576804857858531e-17 -6.31099786388058e-17 -1.576804857858531e-17 0.858739653862998 0.5124121455265384
12643822666.666666 0.8625276992072559 0.506009849805405 -6.321452724164319e-17 -1.5289584856053058e-17 -6.321452724164319e-17 -1.5289584856053058e-17 0.862527389252929 0.5060103781429566
12644440000.0 0.8662677073773841 0.49958008282454885 -6.331545236427697e-17 -1.481044149825748e-17 -6.331545236427697e-17 -1.481044149825748e-17 0.8662674013765258 0.49958061342711513
12645057333.333334 0.869959785331445 0.4931226742970941 -6.341274970427296e-17 -1.4330645916709094e-17 -6.341274970427296e-17 -1.4330645916709094e-17 0.8699594833006001 0.4931232071350979
12645674666.666666 0.873603728788374 0.48663798150874094 -6.350641516634099e-17 -1.3850225549153058e-17 -6.350641516634099e-17 -1.3850225549153058e-17 0.8736034307438645 0.486638516552483
12646292000.0 0.8771993361304635 0.4801263632546405 -6.359644486248983e-17 -1.3369207857985558e-17 -6.359644486248983e-17 -1.3369207857985558e-17 0.8771990420883905 0.48012690047430373
12646909333.333334 0.8807464084143124 0.4735881798199171 -6.368283511215926e-17 -1.288762032872368e-17 -6.368283511215926e-17 -1.288762032872368e-17 0.8807461183905534 0.4735887191855662
12647526666.666666 0.8842447493820257 0.4670237929593849 -6.376558244235279e-17 -1.2405490468414963e-17 -6.376558244235279e-17 -1.2405490468414963e-17 0.8842444633922351 0.4670243344409692
12648144000.0 0.887694165471978 0.4604335658777066 -6.384468358775222e-17 -1.1922845804075164e-17 -6.384468358775222e-17 -1.1922845804075164e-17 0.8876938835315841 0.46043410944506075
12648761333.333334 0.8910944658295215 0.45381786320929746 -6.39201354908198e-17 -1.1439713881131066e-17 -6.39201354908198e-17 -1.1439713881131066e-17 0.8910941879537273 0.45381840883214364
12649378666.666666 0.8944454623175344 0.447177050998175 -6.399193530189166e-17 -1.0956122261846498e-17 -6.399193530189166e-17 -1.0956122261846498e-17 0.8944451885213184 0.4471775986461256
12649996000.0 0.8977469695268978 0.4405114966775819 -6.40600803792574e-17 -1.0472098523757025e-17 -6.40600803792574e-17 -1.0472098523757025e-17 0.8977466998250091 0.4405120463201391
12650613333.333334 0.9009988047866995 0.4338215690497552 -6.412456828922864e-17 -9.987670258102678e-18 -6.412456828922864e-17 -9.987670258102678e-18 0.9009985391936605 0.4338221206563145
12651230666.666666 0.9042007881743416 0.4271076382655211 -6.41853968061953e-17 -9.502865068262272e-18 -6.41853968061953e-17 -9.502865068262272e-18 0.9042005267044457 0.4271081918053722
12651848000.0 0.9073527425255477 0.4203700758037134 -6.42425639126712e-17 -9.017710568178508e-18 -6.42425639126712e-17 -9.017710568178508e-18 0.9073524851928583 0.42037063124604157
12652465333.333334 0.9104544934440986 0.4136092544507458 -6.429606779932595e-17 -8.532234380799607e-18 -6.429606779932595e-17 -8.532234380799607e-18 0.9104542402624504 0.413609811764635
12653082666.666666 0.9135058693114774 0.4068255482800143 -6.434590686500602e-17 -8.046464136513663e-18 -6.434590686500602e-17 -8.046464136513663e-18 0.9135056202944722 0.4068261074344472
12653700000.0 0.9165067012964657 0.40001933263096595 -6.439207971674574e-17 -7.56042747156491e-18 -6.439207971674574e-17 -7.56042747156491e-18 0.9165064564574743 0.4000198935948266
12654317333.333334 0.9194568233643698 0.39319098408859027 -6.443458516976332e-17 -7.074152026505103e-18 -6.443458516976332e-17 -7.074152026505103e-18 0.9194565827165311 0.39319154683066565
12654934666.666666 0.9223560722862554 0.38634088046248 -6.447342224744691e-17 -6.587665444619516e-18 -6.447342224744691e-17 -6.587665444619516e-18 0.9223558358424743 0.386341444951462
12655552000.0 0.9252042876480207 0.37946940076582203 -6.450859018132966e-17 -6.100995370353491e-18 -6.450859018132966e-17 -6.100995370353491e-18 0.9252040554209678 0.3794699669703084
12656169333.333334 0.9280013118591616 0.37257692519468794 -6.454008841105028e-17 -5.614169447765182e-18 -6.454008841105028e-17 -5.614169447765182e-18 0.9280010838612752 0.37257749308318544
12656786666.666666 0.9307469901615939 0.3656638351067637 -6.45679165843049e-17 -5.127215318944047e-18 -6.45679165843049e-17 -5.127215318944047e-18 0.9307467664050757 0.36566440464768835
12657404000.0 0.9334411706381992 0.3587305130002731 -6.459207455678565e-17 -4.640160622448439e-18 -6.459207455678565e-17 -4.640160622448439e-18 0.9334409511350157 0.3587310841619531
12658021333.333334 0.9360837042211925 0.3517773424929221 -6.461256239210717e-17 -4.153032991749516e-18 -6.461256239210717e-17 -4.153032991749516e-18 0.9360834889830716 0.35177791524359825
12658638666.666666 0.9386744447003567 0.3448047083006982 -6.46293803617218e-17 -3.66586005367053e-18 -6.46293803617218e-17 -3.66586005367053e-18 0.9386742337387913 0.34480528260852705
12659256000.0 0.9412132487312249 0.337812996216346 -6.464252894482393e-17 -3.1786694268087273e-18 -6.464252894482393e-17 -3.1786694268087273e-18 0.9412130420574701 0.3378135720494012
12659873333.333334 0.9436999758429142 0.33080259308828824 -6.465200882824092e-17 -2.691488719993253e-18 -6.465200882824092e-17 -2.691488719993253e-18 0.9436997734679856 0.33080317041456175
12660490666.666666 0.9461344884459328 0.3237738867991138 -6.465782090631358e-17 -2.2043455307184756e-18 -6.465782090631358e-17 -2.2043455307184756e-18 0.9461342903806083 0.32377446558651835
12661108000.0 0.9485166518398339 0.31672726624401 -6.465996628076478e-17 -1.717267443578563e-18 -6.465996628076478e-17 -1.717267443578563e-18 0.9485164580946513 0.3167278464603807
12661725333.333334 0.9508463342205734 0.309663121309513 -6.465844626055561e-17 -1.2302820287291328e-18 -6.465844626055561e-17 -1.2302820287291328e-18 0.9508461448058309 0.3096637029226089
12662342666.666666 0.9531234066878967 0.30258184285166767 -6.465326236173089e-17 -7.434168403153973e-19 -6.465326236173089e-17 -7.434168403153973e-19 0.9531232216136514 0.30258242582917355
12662960000.0 0.9553477432524226 0.29548382267453466 -6.464441630725247e-17 -2.5669941492020997e-19 -6.464441630725247e-17 -2.5669941492020997e-19 0.9553475625284907 0.29548440698406336
12663577333.333334 0.9575192208426176 0.28836945350851434 -6.463191002682073e-17 2.29842729978942e-19 -6.463191002682073e-17 2.29842729978942e-19 0.9575190444785744 0.2883700391176079
12664194666.666666 0.9596377193116363 0.2812391289885066 -6.461574565668489e-17 7.161820975677977e-19 -6.461574565668489e-17 7.161820975677977e-19 0.9596375473168138 0.28123971586463836
12664812000.0 0.9617031214439201 0.2740932436322953 -6.459592553944144e-17 1.2022912132422184e-18 -6.459592553944144e-17 1.2022912132422184e-18 0.9617029538274087 0.2740938317428718
12665429333.333334 0.9637153129617242 0.2669321928185836 -6.4572452223821e-17 1.6881426261550608e-18 -6.4572452223821e-17 1.6881426261550608e-18 0.9637151497323706 0.2669327821309461
12666046666.666666 0.9656741825313939 0.25975637276528185 -6.454532846446386e-17 2.1737089107592724e-18 -6.454532846446386e-17 2.1737089107592724e-18 0.9656740236978006 0.25975696324670816
12666664000.0 0.9675796217695997 0.25256618050731067 -6.451455722168295e-17 2.6589626683599436e-18 -6.451455722168295e-17 2.6589626683599436e-18 0.9675794673401262 0.2525667721250175
12667281333.333334 0.9694315252492576 0.24536201387490744 -6.448014166121729e-17 3.1438765286367496e-18 -6.448014166121729e-17 3.1438765286367496e-18 0.9694313752320192 0.24536260659605177
12667898666.666666 0.9712297905053977 0.23814427147150596 -6.444208515397162e-17 3.628423151199013e-18 -6.444208515397162e-17 3.628423151199013e-18 0.9712296449082631 0.2381448652631865
12668516000.0 0.9729743180408538 0.2309133526515697 -6.440039127574549e-17 4.112575227120126e-18 -6.440039127574549e-17 4.112575227120126e-18 0.9729741768714487 0.23091394748082975
12669133333.333334 0.9746650113317055 0.22366965749877296 -6.435506380695176e-17 4.596305480462296e-18 -6.435506380695176e-17 4.596305480462296e-18 0.9746648745974085 0.2236702533326013
12669750666.666666 0.9763017768326794 0.2164135868036159 -6.430610673232224e-17 5.07958666981529e-18 -6.430610673232224e-17 5.07958666981529e-18 0.9763016445406232 0.2164141836089489
12670368000.0 0.9778845239823185 0.20914554204124744 -6.425352424060231e-17 5.56239158982347e-18 -6.425352424060231e-17 5.56239158982347e-18 0.9778843961393892 0.20914613978497104
12670985333.333334 0.9794131652079429 0.20186592534950287 -6.419732072423465e-17 6.0446930727120485e-18 -6.419732072423465e-17 6.0446930727120485e-18 0.9794130418207805 0.20186652399845448
