! Parameters = {f0=12700.012000; bw=77.238000; Q=6100.000000; N=10; m_0_1=1.263759; m_1_1=0.191636; m_1_2=1.098571; m_2_2=0.190987; m_2_3=0.735534; m_2_8=0.000252; m_2_9=0.036956; m_3_3=0.189050; m_3_4=0.624063; m_3_7=0.000852; m_3_8=-0.096236; m_3_9=0.000252; m_4_4=0.186125; m_4_5=0.460398; m_4_6=0.004369; m_4_7=-0.116785; m_4_8=0.000852; m_5_5=0.186507; m_5_6=0.867753; m_5_7=0.004369; m_6_6=0.186506; m_6_7=0.460740; m_7_7=0.186139; m_7_8=0.624181; m_8_8=0.189048; m_8_9=0.735847; m_9_9=0.190982; m_9_10=1.099649; m_10_10=0.191626; m_10_11=1.264554}
!
! Created with skrf (http://scikit-rf.org).
# Hz S RI R 50.0 
!freq ReS11 ImS11 ReS21 ImS21 ReS12 ImS12 ReS22 ImS22
12607400000.0 -0.17489333226167797 -0.9845873868429516 4.8039463810131346e-17 9.604077591272074e-17 4.8039463810131346e-17 9.604077591272074e-17 -0.17489267668927744 -0.9845875032927672
12608017333.333334 -0.1850629016076443 -0.9827266773871481 4.902866020542682e-17 9.551594152546071e-17 4.902866020542682e-17 9.551594152546071e-17 -0.1850622473062039 -0.9827268006021829
12608634666.666666 -0.19521269098768276 -0.9807609317653172 5.001213825391506e-17 9.498092708475972e-17 5.001213825391506e-17 9.498092708475972e-17 -0.19521203802700765 -0.9807610617317385
12609252000.0 -0.20534161556815977 -0.9786903600811051 5.098979327894167e-17 9.443579474014818e-17 5.098979327894167e-17 9.443579474014818e-17 -0.20534096401790547 -0.9786904967843625
12609869333.333334 -0.2154485927455508 -0.9765151836422139 5.196152127777276e-17 9.388060771656194e-17 5.196152127777276e-17 9.388060771656194e-17 -0.21544794267521497 -0.9765153270670367
12610486666.666666 -0.22553254226201208 -0.9742356349367735 5.292721893262007e-17 9.331543030705739e-17 5.292721893262007e-17 9.331543030705739e-17 -0.22553189374092758 -0.9742357850671756
12611104000.0 -0.2355923863211466 -0.9718519576084274 5.388678362162974e-17 9.274032786538959e-17 5.388678362162974e-17 9.274032786538959e-17 -0.23559173941847367 -0.9718521144277058
12611721333.333334 -0.24562704970281318 -0.9693644064303767 5.4840113429725405e-17 9.215536679851637e-17 5.4840113429725405e-17 9.215536679851637e-17 -0.24562640448753265 -0.9693645699211169
12612338666.666666 -0.2556354598783261 -0.9667732472780889 5.57871071594331e-17 9.15606145589535e-17 5.57871071594331e-17 9.15606145589535e-17 -0.2556348164192316 -0.9667734174221645
12612956000.0 -0.2656165471250886 -0.9640787571008761 5.672766434159761e-17 9.095613963703475e-17 5.672766434159761e-17 9.095613963703475e-17 -0.2656159054907791 -0.9640789338794509
12613573333.333334 -0.2755692446406796 -0.9612812238923586 5.766168524599274e-17 9.034201155307734e-17 5.766168524599274e-17 9.034201155307734e-17 -0.27556860489955254 -0.9612814072858891
12614190666.666666 -0.2854924886571511 -0.9583809466596106 5.858907089189558e-17 8.971830084940698e-17 5.858907089189558e-17 8.971830084940698e-17 -0.28549185087739504 -0.9583811366478494
12614808000.0 -0.29538521855458966 -0.9553782353912411 5.950972305853706e-17 8.90850790823002e-17 5.950972305853706e-17 8.90850790823002e-17 -0.2953845828041767 -0.9553784319532376
12615425333.333334 -0.3052463769745045 -0.952273411024252 6.042354429547861e-17 8.844241881381116e-17 6.042354429547861e-17 8.844241881381116e-17 -0.30524574332118315 -0.9522736141383543
12616042666.666666 -0.3150749099328405 -0.9490668054097341 6.133043793291065e-17 8.779039360348506e-17 6.133043793291065e-17 8.779039360348506e-17 -0.31507427844412855 -0.949067015053593
12616660000.0 -0.3248697669326309 -0.9457587612774006 6.223030809183782e-17 8.71290779999844e-17 6.223030809183782e-17 8.71290779999844e-17 -0.3248691376758084 -0.945758977427971
12617277333.333334 -0.3346299010763042 -0.9423496321989461 6.312305969420132e-17 8.645854753259154e-17 6.312305969420132e-17 8.645854753259154e-17 -0.3346292741184057 -0.9423498548324895
12617894666.666666 -0.3443542691774434 -0.9388397825502998 6.400859847288327e-17 8.577887870262767e-17 6.400859847288327e-17 8.577887870262767e-17 -0.34435364458525164 -0.9388400116423877
12618512000.0 -0.35404183187258076 -0.9352295874725799 6.488683098166037e-17 8.509014897473832e-17 6.488683098166037e-17 8.509014897473832e-17 -0.35404120971261904 -0.935229822998096
12619129333.333334 -0.363691553731912 -0.9315194328321298 6.575766460500423e-17 8.439243676812421e-17 6.575766460500423e-17 8.439243676812421e-17 -0.3636909340704369 -0.9315196747652722
12619746666.666666 -0.37330240337020637 -0.9277097151791894 6.662100756784492e-17 8.368582144762664e-17 6.662100756784492e-17 8.368582144762664e-17 -0.3733017862732009 -0.9277099634934736
12620364000.0 -0.3828733535571742 -0.923800841705456 6.747676894521578e-17 8.297038331473257e-17 6.747676894521578e-17 8.297038331473257e-17 -0.38287273909034125 -0.9238010963737188
12620981333.333334 -0.39240338132673297 -0.919793230200773 6.832485867178059e-17 8.224620359849855e-17 6.832485867178059e-17 8.224620359849855e-17 -0.3924027695554875 -0.9197934911951746
12621598666.666666 -0.4018914680869759 -0.9156873090082228 6.916518755130865e-17 8.151336444634134e-17 6.916518755130865e-17 8.151336444634134e-17 -0.4018908590764388 -0.9156875763002502
12622216000.0 -0.4113365997286213 -0.911483516978514 6.999766726601623e-17 8.077194891476071e-17 6.999766726601623e-17 8.077194891476071e-17 -0.4113359935436119 -0.9114837905389841
12622833333.333334 -0.4207377667335862 -0.9071823034230004 7.08222103858254e-17 8.002204095995382e-17 7.08222103858254e-17 8.002204095995382e-17 -0.4207371634386153 -0.9071825832220621
12623450666.666666 -0.43009396428275537 -0.9027841280657133 7.163873037750897e-17 7.926372542834745e-17 7.163873037750897e-17 7.926372542834745e-17 -0.4300933639420189 -0.9027844140728527
12624068000.0 -0.43940419236350997 -0.8982894609941701 7.244714161375282e-17 7.849708804702124e-17 7.244714161375282e-17 7.849708804702124e-17 -0.4394035950408819 -0.8982897531782128
12624685333.333334 -0.44866745587663526 -0.8936987826091144 7.324735938211784e-17 7.772221541403613e-17 7.324735938211784e-17 7.772221541403613e-17 -0.4486668616356604 -0.893699080938228
12625302666.666666 -0.4578827647424233 -0.8890125835732927 7.40392998938528e-17 7.69391949887163e-17 7.40392998938528e-17 7.69391949887163e-17 -0.4578821736463108 -0.8890128880149916
12625920000.0 -0.46704913400687675 -0.8842313647588238 7.482288029268036e-17 7.61481150817676e-17 7.482288029268036e-17 7.61481150817676e-17 -0.467048546118494 -0.8842316752799725
12626537333.333334 -0.4761655839466297 -0.8793556371938436 7.559801866340425e-17 7.534906484537959e-17 7.559801866340425e-17 7.534906484537959e-17 -0.4761649993284949 -0.8793559537606601
12627154666.666666 -0.48523114017381413 -0.8743859220078095 7.636463404045622e-17 7.454213426319501e-17 7.636463404045622e-17 7.454213426319501e-17 -0.4852305588880896 -0.8743862445858687
12627772000.0 -0.4942448337403527 -0.8693227503757148 7.712264641633601e-17 7.372741414019247e-17 7.712264641633601e-17 7.372741414019247e-17 -0.49424425584883913 -0.8693230789299531
12628389333.333334 -0.5032057012411764 -0.8641666634615116 7.787197674990207e-17 7.29049960925279e-17 7.787197674990207e-17 7.29049960925279e-17 -0.5032051268053052 -0.8641669979562298
12629006666.666666 -0.5121127849175655 -0.8589182123600598 7.861254697461481e-17 7.207497253722804e-17 7.861254697461481e-17 7.207497253722804e-17 -0.5121122139983929 -0.858918552758927
12629624000.0 -0.5209651327592458 -0.8535779580383775 7.934428000661635e-17 7.123743668185817e-17 7.934428000661635e-17 7.123743668185817e-17 -0.5209645654174465 -0.8535783043044362
12630241333.333334 -0.5297617986062896 -0.8481464712756014 8.006709975273565e-17 7.039248251407041e-17 8.006709975273565e-17 7.039248251407041e-17 -0.5297612349021493 -0.8481468233712695
12630858666.666666 -0.5385018422500971 -0.8426243326020662 8.07809311183586e-17 6.954020479109842e-17 8.07809311183586e-17 6.954020479109842e-17 -0.5385012822435077 -0.8426246904891431
12631476000.0 -0.5471843295341545 -0.8370121322370924 8.148570001522013e-17 6.86806990291336e-17 8.148570001522013e-17 6.86806990291336e-17 -0.5471837732846063 -0.8370124958767621
12632093333.333334 -0.555808332453565 -0.8313104700260984 8.21813333690366e-17 6.7814061492678e-17 8.21813333690366e-17 6.7814061492678e-17 -0.5558077800201413 -0.8313108393789341
12632710666.666666 -0.5643729292543829 -0.8255199553763996 8.286775912706113e-17 6.694038918377939e-17 8.286775912706113e-17 6.694038918377939e-17 -0.5643723806957532 -0.8255203304023673
12633328000.0 -0.5728772045322482 -0.8196412071919904 8.354490626553092e-17 6.605977983117955e-17 8.354490626553092e-17 6.605977983117955e-17 -0.5728766599066618 -0.8196415878504535
12633945333.333334 -0.5813202493300148 -0.8136748538075365 8.42127047969551e-17 6.517233187944505e-17 8.42127047969551e-17 6.517233187944505e-17 -0.5813197086952959 -0.8136752400572616
12634562666.666666 -0.5897011612350213 -0.8076215329211406 8.487108577733292e-17 6.427814447796814e-17 8.487108577733292e-17 6.427814447796814e-17 -0.5897006246485615 -0.8076219247203004
12635180000.0 -0.5980190444754965 -0.801481891526216 8.551998131323431e-17 6.337731746992079e-17 8.551998131323431e-17 6.337731746992079e-17 -0.5980185119942484 -0.8014822888323925
12635797333.333334 -0.6062730100164354 -0.7952565858422275 8.61593245687693e-17 6.246995138113075e-17 8.61593245687693e-17 6.246995138113075e-17 -0.6062724816969092 -0.7952569886124214
12636414666.666666 -0.6144621756542862 -0.7889462812448179 8.678904977243105e-17 6.155614740890015e-17 8.678904977243105e-17 6.155614740890015e-17 -0.6144616515525394 -0.7889466894354471
12637032000.0 -0.6225856661116892 -0.7825516521943393 8.740909222383809e-17 6.06360074107306e-17 8.740909222383809e-17 6.06360074107306e-17 -0.6225851462833246 -0.7825520657612484
12637649333.333334 -0.6306426131306937 -0.7760733821640294 8.801938830034e-17 5.970963389300595e-17 8.801938830034e-17 5.970963389300595e-17 -0.6306420976308519 -0.7760738010624926
12638266666.666666 -0.6386321555656937 -0.7695121635668545 8.861987546351217e-17 5.877712999959638e-17 8.861987546351217e-17 5.877712999959638e-17 -0.6386316444490464 -0.7695125877515796
12638884000.0 -0.6465534394754455 -0.7628686976815188 8.921049226552839e-17 5.78385995004003e-17 8.921049226552839e-17 5.78385995004003e-17 -0.6465529327961919 -0.7628691271066544
12639501333.333334 -0.6544056182143624 -0.7561436945774943 8.979117835541415e-17 5.689414677982e-17 8.979117835541415e-17 5.689414677982e-17 -0.6544051160262211 -0.7561441291966327
12640118666.666666 -0.6621878525228764 -0.7493378730392368 9.036187448516585e-17 5.594387682519587e-17 9.036187448516585e-17 5.594387682519587e-17 -0.6621873548790809 -0.7493383128054191
12640736000.0 -0.6698993106174813 -0.7424519604890603 9.09225225157911e-17 5.4987895215106996e-17 9.09225225157911e-17 5.4987895215106996e-17 -0.6698988175707751 -0.7424524053547836
12641353333.333334 -0.6775391682791264 -0.7354866929098416 9.147306542313944e-17 5.402630810775713e-17 9.147306542313944e-17 5.402630810775713e-17 -0.6775386798817552 -0.7354871428270613
12641970666.666666 -0.6851066089417559 -0.7284428147659592 9.201344730371818e-17 5.30592222291211e-17 9.201344730371818e-17 5.30592222291211e-17 -0.685106125245465 -0.7284432696860967
12642588000.0 -0.692600823779374 -0.7213210789239134 9.254361338029734e-17 5.208674486117895e-17 9.254361338029734e-17 5.208674486117895e-17 -0.6926003448353999 -0.7213215387978591
12643205333.333334 -0.7000210117925155 -0.714122246571838 9.30635100074321e-17 5.1108983830024606e-17 9.30635100074321e-17 5.1108983830024606e-17 -0.7000205376515822 -0.7141227113499581
12643822666.666666 -0.7073663798939399 -0.7068470871380654 9.357308467685443e-17 5.0126047493927155e-17 9.357308467685443e-17 5.0126047493927155e-17 -0.7073659106062539 -0.7068475567702074
12644440000.0 -0.7146361429932973 -0.699496378208986 9.407228602272855e-17 4.9138044731360866e-17 9.407228602272855e-17 4.9138044731360866e-17 -0.7146356786085402 -0.6994968526444827
12645057333.333334 -0.7218295240810605 -0.69207090544592 9.456106382678812e-17 4.814508492896696e-17 9.456106382678812e-17 4.814508492896696e-17 -0.7218290646483858 -0.6920713846335956
12645674666.666666 -0.728945754311576 -0.6845714625011429 9.503936902334577e-17 4.7147277969467694e-17 9.503936902334577e-17 4.7147277969467694e-17 -0.728945299879603 -0.6845719463893195
12646292000.0 -0.7359840730853754 -0.6769988509329155 9.550715370418415e-17 4.614473421951223e-17 9.550715370418415e-17 4.614473421951223e-17 -0.7359836237021841 -0.6769993394694176
12646909333.333334 -0.7429437281302149 -0.6693538801200773 9.596437112329357e-17 4.513756451752904e-17 9.596437112329357e-17 4.513756451752904e-17 -0.7429432838433424 -0.6693543732522385
12647526666.666666 -0.74982397558168 -0.6616373671753355 9.64109757015109e-17 4.4125880161469034e-17 9.64109757015109e-17 4.4125880161469034e-17 -0.7498235364381121 -0.6616378648500019
12648144000.0 -0.7566240800626646 -0.6538501368579449 9.684692303101644e-17 4.3109792896533864e-17 9.684692303101644e-17 4.3109792896533864e-17 -0.7566236461088331 -0.6538506390214827
12648761333.333334 -0.7633433147618957 -0.6459930214856417 9.727216987969676e-17 4.208941490286812e-17 9.727216987969676e-17 4.208941490286812e-17 -0.7633428860436742 -0.6459935280839432
12649378666.666666 -0.7699809615116193 -0.6380668608456856 9.768667419538377e-17 4.1064858783201623e-17 9.768667419538377e-17 4.1064858783201623e-17 -0.769980538074318 -0.6380673718241751
12649996000.0 -0.7765363108644548 -0.6300725021049953 9.8090395109974e-17 4.003623755042226e-17 9.8090395109974e-17 4.003623755042226e-17 -0.7765358927528128 -0.630073017408632
12650613333.333334 -0.7830086621691592 -0.6220107997196596 9.848329294339732e-17 3.9003664615159253e-17 9.848329294339732e-17 3.9003664615159253e-17 -0.7830082494273434 -0.6220113192929475
12651230666.666666 -0.7893973236454325 -0.6138826153437278 9.88653292074658e-17 3.796725377330334e-17 9.88653292074658e-17 3.796725377330334e-17 -0.7893969163170319 -0.61388313913072
12651848000.0 -0.7957016124581019 -0.6056888177368012 9.923646660960064e-17 3.692711919346427e-17 9.923646660960064e-17 3.692711919346427e-17 -0.7957012105861223 -0.6056893456811057
12652465333.333334 -0.801920854789839 -0.5974302826715103 9.95966690564085e-17 3.588337540444344e-17 9.95966690564085e-17 3.588337540444344e-17 -0.801920458416699 -0.5974308147162963
12653082666.666666 -0.8080543859132544 -0.5891078928398252 9.994590165713656e-17 3.4836137282647264e-17 9.994590165713656e-17 3.4836137282647264e-17 -0.8080539950807809 -0.5891084289278291
12653700000.0 -0.8141015502620969 -0.5807225377585051 1.0028413072700423e-16 3.378552003943874e-17 1.0028413072700423e-16 3.378552003943874e-17 -0.8141011650115191 -0.5807230778320362
12654317333.333334 -0.8200617015010799 -0.5722751136743411 1.0061132379037984e-16 3.273163920852622e-17 1.0061132379037984e-16 3.273163920852622e-17 -0.8200613218730294 -0.5722756576752901
12654934666.666666 -0.8259342025951423 -0.5637665234681413 1.0092744958384763e-16 3.167461063325356e-17 1.0092744958384763e-16 3.167461063325356e-17 -0.825933828629643 -0.5637670713379829
12655552000.0 -0.8317184258775213 -0.555197676558218 1.0123247805913175e-16 3.0614550453889925e-17 1.0123247805913175e-16 3.0614550453889925e-17 -0.8317180576139906 -0.555198228238021
12656169333.333334 -0.8374137531167067 -0.5465694888034072 1.0152638038588009e-16 2.955157509491854e-17 1.0152638038588009e-16 2.955157509491854e-17 -0.8374133905939458 -0.546570044233837
12656786666.666666 -0.8430195755826688 -0.5378828824049371 1.0180912895433071e-16 2.848580125224455e-17 1.0180912895433071e-16 2.848580125224455e-17 -0.8430192188388637 -0.5378834415262654
12657404000.0 -0.8485352941118479 -0.5291387858079837 1.0208069737783072e-16 2.7417345880424558e-17 1.0208069737783072e-16 2.7417345880424558e-17 -0.848534943184562 -0.5291393485600926
12658021333.333334 -0.8539603191712208 -0.5203381336023846 1.0234106049523259e-16 2.6346326179835575e-17 1.0234106049523259e-16 2.6346326179835575e-17 -0.8539599740973939 -0.5203386999247754
12658638666.666666 -0.8592940709212422 -0.5114818664228735 1.0259019437313811e-16 2.5272859583888924e-17 1.0259019437313811e-16 2.5272859583888924e-17 -0.859293731737183 -0.5114824362546707
12659256000.0 -0.8645359792779617 -0.5025709308482964 1.0282807630803798e-16 2.4197063746107405e-17 1.0282807630803798e-16 2.4197063746107405e-17 -0.8645356460193471 -0.5025715041282557
12659873333.333334 -0.8696854839738256 -0.49360627930065887 1.0305468482828491e-16 2.311905652731189e-17 1.0305468482828491e-16 2.311905652731189e-17 -0.8696851566756956 -0.4936068559671733
12660490666.666666 -0.8747420346175628 -0.4845888699433307 1.0326999969595062e-16 2.2038955982717498e-17 1.0326999969595062e-16 2.2038955982717498e-17 -0.8747417133143166 -0.48458944993443775
12661108000.0 -0.8797050907531488 -0.47551966657838685 1.0347400190854886e-16 2.095688034900168e-17 1.0347400190854886e-16 2.095688034900168e-17 -0.8797047754785426 -0.47552024983177477
12661725333.333334 -0.8845741219173809 -0.4663996385439426 1.03666673700611e-16 1.987294803142543e-17 1.03666673700611e-16 1.987294803142543e-17 -0.8845738127045221 -0.4664002249969566
12662342666.666666 -0.8893486076967222 -0.457229760610273 1.038479985451399e-16 1.878727759086746e-17 1.038479985451399e-16 1.878727759086746e-17 -0.8893483045780676 -0.45723035019992275
12662960000.0 -0.8940280377828586 -0.4480110128757528 1.0401796115492043e-16 1.7699987730893747e-17 1.0401796115492043e-16 1.7699987730893747e-17 -0.89402774079021 -0.4480116055387185
12663577333.333334 -0.898611912027255 -0.43874438066207583 1.04176547483698e-16 1.661119728479894e-17 1.04176547483698e-16 1.661119728479894e-17 -0.8986116211917563 -0.4387449763347156
12664194666.666666 -0.9030997404946111 -0.4294308544089413 1.043237447272209e-16 1.5521025202641623e-17 1.043237447272209e-16 1.5521025202641623e-17 -0.9030994558467467 -0.42943145302729824
12664812000.0 -0.9074910435152294 -0.42007142956819404 1.0445954132414762e-16 1.4429590538271995e-17 1.0445954132414762e-16 1.4429590538271995e-17 -0.907490765084819 -0.4200720310680026
12665429333.333334 -0.9117853517362948 -0.41066710649740246 1.0458392695681879e-16 1.3337012436350286e-17 1.0458392695681879e-16 1.3337012436350286e-17 -0.9117850795524888 -0.41066771081409453
12666046666.666666 -0.9159822061719656 -0.4012188903530911 1.0469689255189185e-16 1.2243410119381313e-17 1.0469689255189185e-16 1.2243410119381313e-17 -0.9159819402632463 -0.40121949742180496
12666664000.0 -0.920081158252612 -0.39172779098292143 1.0479843028084642e-16 1.1148902874682978e-17 1.0479843028084642e-16 1.1148902874682978e-17 -0.9200808986467868 -0.39172840073850673
12667281333.333334 -0.9240817698725234 -0.38219482281827327 1.0488853356034381e-16 1.0053610041457157e-17 1.0488853356034381e-16 1.0053610041457157e-17 -0.9240815165967243 -0.3821954351952995
12667898666.666666 -0.9279836134369003 -0.3726210047654588 1.0496719705246129e-16 8.95765099775864e-18 1.0496719705246129e-16 8.95765099775864e-18 -0.9279833665175796 -0.37262161969822116
12668516000.0 -0.9317862719075378 -0.3630073600968419 1.0503441666478581e-16 7.861145147509595e-18 1.0503441666478581e-16 7.861145147509595e-18 -0.9317860313704663 -0.3630079775193692
12669133333.333334 -0.935489338847307 -0.3533549163417072 1.0509018955037153e-16 6.76421190754025e-18 1.0509018955037153e-16 6.76421190754025e-18 -0.9354891047175703 -0.35335553618776816
12669750666.666666 -0.9390924184637012 -0.34366470517617076 1.0513451410756597e-16 5.666970694576448e-18 1.0513451410756597e-16 5.666970694576448e-18 -0.9390921907656976 -0.3436653273792818
12670368000.0 -0.942595125651094 -0.3339377623130172 1.0516738997969749e-16 4.5695409122740954e-18 1.0516738997969749e-16 4.5695409122740954e-18 -0.9425949044085336 -0.33393838680644966
12670985333.333334 -0.9459970860318775 -0.324175127391082 1.0518881805462905e-16 3.4720419382571296e-18 1.0518881805462905e-16 3.4720419382571296e-18 -0.9459968712677762 -0.3241757541078685
