! Parameters = {f0=12700.012000; bw=77.238000; Q=6100.000000; N=10; m_0_1=1.335831; m_1_1=1.272717; m_1_2=1.170643; m_2_2=1.272068; m_2_3=0.807606; m_2_8=0.003855; m_2_9=0.040559; m_3_3=1.270131; m_3_4=0.696135; m_3_7=0.004455; m_3_8=-0.092633; m_3_9=0.003855; m_4_4=1.267206; m_4_5=0.532470; m_4_6=0.007972; m_4_7=-0.113182; m_4_8=0.004455; m_5_5=1.267588; m_5_6=0.939825; m_5_7=0.007972; m_6_6=1.267587; m_6_7=0.532812; m_7_7=1.267220; m_7_8=0.696253; m_8_8=1.270129; m_8_9=0.807919; m_9_9=1.272063; m_9_10=1.171721; m_10_10=1.272707; m_10_11=1.336626}
!
! Created with skrf (http://scikit-rf.org).
# Hz S RI R 50.0 
!freq ReS11 ImS11 ReS21 ImS21 ReS12 ImS12 ReS22 ImS22
12607400000.0 0.26201205645909376 -0.9650646000501113 3.4214088092269835e-18 1.4936382027278756e-16 3.4214088092269835e-18 1.4936382027278756e-16 0.2620127355452879 -0.9650644156800515
12608017333.333334 0.2499585325634444 -0.9682565424506737 5.29572877739041e-18 1.4927984482985344e-16 5.29572877739041e-18 1.4927984482985344e-16 0.24995921386235975 -0.9682563665709176
12608634666.666666 0.23786614613408685 -0.9712979442597012 7.168479760186171e-18 1.4917236183162688e-16 7.168479760186171e-18 1.4917236183162688e-16 0.23786682953958638 -0.971297776896761
12609252000.0 0.2257367772461273 -0.9741883326125077 9.03936708748948e-18 1.4904139742991713e-16 9.03936708748948e-18 1.4904139742991713e-16 0.2257374626517566 -0.9741881737915684
12609869333.333334 0.2135723117245238 -0.9769272581233707 1.0908096498411353e-17 1.4888698146825236e-16 1.0908096498411353e-17 1.4888698146825236e-16 0.21357299902352866 -0.9769271078682896
12610486666.666666 0.20137464085102622 -0.9795142949553742 1.2774374187414379e-17 1.487091474757367e-16 1.2774374187414379e-17 1.487091474757367e-16 0.20137532993636784 -0.9795141532886718
12611104000.0 0.18914566106982025 -0.981949040886677 1.4637906850609407e-17 1.4850793266030926e-16 1.4637906850609407e-17 1.4850793266030926e-16 0.18914635183419282 -0.9819489078295371
12611721333.333334 0.17688727369306598 -0.9842311173729673 1.649840173160845e-17 1.4828337790145481e-16 1.649840173160845e-17 1.4828337790145481e-16 0.17688796602891307 -0.9842309929452329
12612338666.666666 0.1646013846050111 -0.9863601696063752 1.835556666761128e-17 1.4803552774230824e-16 1.835556666761128e-17 1.4803552774230824e-16 0.1646020784045428 -0.9863600538265473
12612956000.0 0.15228990396567157 -0.9883358665706365 2.0209110135160737e-17 1.4776443038120453e-16 2.0209110135160737e-17 1.4776443038120453e-16 0.15229059912088075 -0.9883357594558684
12613573333.333334 0.13995474591409954 -0.99015790109251 2.205874129583881e-17 1.4747013766265265e-16 2.205874129583881e-17 1.4747013766265265e-16 0.1399554423167788 -0.9901578026586063
12614190666.666666 0.1275978282705004 -0.9918259898895855 2.390417004186181e-17 1.471527050677332e-16 2.390417004186181e-17 1.471527050677332e-16 0.12759852581225922 -0.9918259001510006
12614808000.0 0.11522107223819869 -0.9933398736143054 2.5745107041550905e-17 1.468121917039255e-16 2.5745107041550905e-17 1.468121917039255e-16 0.1152217708104799 -0.9933397925841397
12615425333.333334 0.10282640210490852 -0.994699316894289 2.7581263784578886e-17 1.4644866029438003e-16 2.7581263784578886e-17 1.4644866029438003e-16 0.10282710159900536 -0.9946992445842876
12616042666.666666 0.0904157449435533 -0.9959041083689272 2.9412352627186714e-17 1.46062177166606e-16 2.9412352627186714e-17 1.46062177166606e-16 0.09041644525062652 -0.9959040447894794
12616660000.0 0.07799103031265256 -0.9969540607222459 3.123808683716227e-17 1.4565281224060937e-16 3.123808683716227e-17 1.4565281224060937e-16 0.07799173132374701 -0.9969540058823821
12617277333.333334 0.06555418995626516 -0.997849010712033 3.305818063866653e-17 1.4522063901646923e-16 3.305818063866653e-17 1.4522063901646923e-16 0.06555489156232695 -0.9978489646194241
12617894666.666666 0.05310715750393297 -0.9985888191951966 3.487234925692432e-17 1.4476573456134673e-16 3.487234925692432e-17 1.4476573456134673e-16 0.053107859595826354 -0.9985887818561525
12618512000.0 0.040651868169424274 -0.9991733711494419 3.668030896274805e-17 1.4428817949593502e-16 3.668030896274805e-17 1.4428817949593502e-16 0.04065257063794867 -0.9991733425689114
12619129333.333334 0.02819025845067728 -0.9996025756911041 3.848177711680522e-17 1.4378805798037223e-16 3.848177711680522e-17 1.4378805798037223e-16 0.02819096118658423 -0.9996025558726734
12619746666.666666 0.015724265828040145 -0.9998763660893154 4.0276472213762614e-17 1.432654576995861e-16 4.0276472213762614e-17 1.432654576995861e-16 0.015724968722050335 -0.9998763550352092
12620364000.0 0.0032558284632096045 -0.9999946997763653 4.2064113926283066e-17 1.4272046984807443e-16 4.2064113926283066e-17 1.4272046984807443e-16 0.0032565314060298074 -0.999994697487445
12620981333.333334 -0.009213115101708651 -0.9999575583543173 4.384442314861599e-17 1.4215318911419568e-16 4.384442314861599e-17 1.4215318911419568e-16 -0.009212412219368556 -0.9999575648300808
12621598666.666666 -0.021680626246136533 -0.9997649475978747 4.561712204026283e-17 1.415637136638336e-16 4.561712204026283e-17 1.415637136638336e-16 -0.021679923533546575 -0.9997649628364582
12622216000.0 -0.03414476657214819 -0.9994168974534791 4.738193406917447e-17 1.4095214512359425e-16 4.738193406917447e-17 1.4095214512359425e-16 -0.034144064138541354 -0.9994169214516575
12622833333.333334 -0.046603598205958024 -0.998913462034657 4.9138584054903255e-17 1.4031858856340892e-16 4.9138584054903255e-17 1.4031858856340892e-16 -0.046602896160513135 -0.9989134947878412
12623450666.666666 -0.05905518409898587 -0.9982547196136068 5.088679821139661e-17 1.396631524786435e-16 5.088679821139661e-17 1.396631524786435e-16 -0.059054482550810854 -0.9982547611158492
12624068000.0 -0.07149758832930599 -0.9974407726090299 5.262630418963423e-17 1.3898594877164783e-16 5.262630418963423e-17 1.3898594877164783e-16 -0.07149688738742074 -0.997440822853023
12624685333.333334 -0.0839288764026923 -0.9964717475701892 5.435683112002168e-17 1.3828709273277437e-16 5.435683112002168e-17 1.3828709273277437e-16 -0.08392817617601184 -0.9964718065472671
12625302666.666666 -0.0963471155528191 -0.9953477951572797 5.607810965445549e-17 1.3756670302090064e-16 5.607810965445549e-17 1.3756670302090064e-16 -0.09634641615013649 -0.9953478628574186
12625920000.0 -0.10875037504260926 -0.9940690901179344 5.778987200824968e-17 1.3682490164338164e-16 5.778987200824968e-17 1.3682490164338164e-16 -0.10874967657257897 -0.9940691665297569
12626537333.333334 -0.12113672646362493 -0.9926358312601262 5.949185200168248e-17 1.3606181393553067e-16 5.949185200168248e-17 1.3606181393553067e-16 -0.12113602903474577 -0.9926359163709012
12627154666.666666 -0.13350424403622893 -0.9910482414212339 6.11837851013516e-17 1.3527756853955091e-16 6.11837851013516e-17 1.3527756853955091e-16 -0.13350354775682718 -0.9910483352168783
12627772000.0 -0.14585100490933434 -0.9893065674333427 6.286540846125339e-17 1.344722973829531e-16 6.286540846125339e-17 1.344722973829531e-16 -0.14585030988754702 -0.9893066698984252
12628389333.333334 -0.15817508945857306 -0.9874110800849756 6.453646096350352e-17 1.3364613565649928e-16 6.453646096350352e-17 1.3364613565649928e-16 -0.1581743958023312 -0.9874111912027193
12629006666.666666 -0.17047458158559572 -0.9853620740788749 6.619668325887635e-17 1.327992217915908e-16 6.619668325887635e-17 1.327992217915908e-16 -0.17047388940260733 -0.9853621938311584
12629624000.0 -0.18274756901535963 -0.9831598679862705 6.784581780697321e-17 1.3193169743719047e-16 6.784581780697321e-17 1.3193169743719047e-16 -0.1827468784130934 -0.9831599963536328
12630241333.333334 -0.19499214359377914 -0.9808048041973016 6.948360891609812e-17 1.3104370743624362e-16 6.948360891609812e-17 1.3104370743624362e-16 -0.1949914546794473 -0.9808049411589435
12630858666.666666 -0.2072064015840622 -0.9782972488678424 7.110980278285647e-17 1.3013539980158984e-16 7.110980278285647e-17 1.3013539980158984e-16 -0.207205714464604 -0.9782973944016299
12631476000.0 -0.2193884439633084 -0.9756375918624514 7.272414753144732e-17 1.2920692569137867e-16 7.272414753144732e-17 1.2920692569137867e-16 -0.2193877587453739 -0.9756377459449216
12632093333.333334 -0.2315363767169823 -0.9728262466939184 7.432639325257052e-17 1.2825843938403734e-16 7.432639325257052e-17 1.2825843938403734e-16 -0.23153569350691527 -0.9728264093002804
12632710666.666666 -0.24364831113399874 -0.9698636504588439 7.591629204207533e-17 1.2729009825271964e-16 7.591629204207533e-17 1.2729009825271964e-16 -0.24364763003782072 -0.9698638215629857
12633328000.0 -0.25572236410009425 -0.9667502637697413 7.749359803926892e-17 1.2630206273927862e-16 7.749359803926892e-17 1.2630206273927862e-16 -0.2557216852234873 -0.9667504433442298
12633945333.333334 -0.26775665839066104 -0.9634865706834068 7.905806746486063e-17 1.2529449632778577e-16 7.905806746486063e-17 1.2529449632778577e-16 -0.2677559818389523 -0.9634867586994975
12634562666.666666 -0.27974932296261085 -0.9600730786256673 8.060945865855494e-17 1.2426756551758366e-16 8.060945865855494e-17 1.2426756551758366e-16 -0.27974864884075523 -0.9600732750533038
12635180000.0 -0.29169849324527636 -0.9565103183124798 8.214753211636793e-17 1.232214397958306e-16 8.214753211636793e-17 1.232214397958306e-16 -0.29169782165784147 -0.9565105231203028
12635797333.333334 -0.30360231143030786 -0.9527988436674235 8.367205052748943e-17 1.2215629160964718e-16 8.367205052748943e-17 1.2215629160964718e-16 -0.30360164248145666 -0.9527990568227734
12636414666.666666 -0.3154589267605176 -0.9489392317355779 8.518277881085644e-17 1.2107229633776291e-16 8.518277881085644e-17 1.2107229633776291e-16 -0.31545826055399245 -0.9489394532044998
12637032000.0 -0.32726649581762696 -0.9449320825938007 8.667948415135917e-17 1.1996963226170933e-16 8.667948415135917e-17 1.1996963226170933e-16 -0.3272658324567342 -0.9449323123410514
12637649333.333334 -0.3390231828088751 -0.9407780192574371 8.816193603560822e-17 1.1884848053661696e-16 8.816193603560822e-17 1.1884848053661696e-16 -0.33902252239646824 -0.9407782572464893
12638266666.666666 -0.3507271598524391 -0.9364776875834507 8.962990628742676e-17 1.1770902516149632e-16 8.962990628742676e-17 1.1770902516149632e-16 -0.3507265024909037 -0.9364779337765006
12638884000.0 -0.3623766072616273 -0.9320317561700129 9.108316910285246e-17 1.1655145294916226e-16 9.108316910285246e-17 1.1655145294916226e-16 -0.36237595305286396 -0.9320320105279829
12639501333.333334 -0.3739697138278474 -0.9274409162525253 9.25215010848656e-17 1.153759534956404e-16 9.25215010848656e-17 1.153759534956404e-16 -0.3739690628732571 -0.9274411787350738
12640118666.666666 -0.3855046771019441 -0.9227058815962603 9.394468127757869e-17 1.1418271914926057e-16 9.394468127757869e-17 1.1418271914926057e-16 -0.38550402950241186 -0.9227061521617861
12640736000.0 -0.39697970367501456 -0.9178273883851494 9.535249120023106e-17 1.1297194497916535e-16 9.535249120023106e-17 1.1297194497916535e-16 -0.39697905953089385 -0.9178276669907987
12641353333.333334 -0.40839300945650453 -0.912806195107628 9.674471488055233e-17 1.1174382874358862e-16 9.674471488055233e-17 1.1174382874358862e-16 -0.4083923688676024 -0.9128064817093019
12641970666.666666 -0.41974281995217017 -0.9076430824384695 9.812113888787936e-17 1.1049857085758806e-16 9.812113888787936e-17 1.1049857085758806e-16 -0.41974218301773003 -0.9076433769908285
12642588000.0 -0.4310273705397044 -0.9023388531175164 9.948155236582057e-17 1.0923637436040405e-16 9.948155236582057e-17 1.0923637436040405e-16 -0.43102673735839303 -0.9023391555739917
12643205333.333334 -0.44224490674309686 -0.8968943318248788 1.0082574706444514e-16 1.0795744488246734e-16 1.0082574706444514e-16 1.0795744488246734e-16 -0.4422442774129875 -0.8968946421376762
12643822666.666666 -0.45339368450561596 -0.8913103650526163 1.0215351737213653e-16 1.06661990611933e-16 1.0215351737213653e-16 1.06661990611933e-16 -0.45339305912417344 -0.8913106831727248
12644440000.0 -0.4644719704607116 -0.8855878209732504 1.0346466034695511e-16 1.0535022226088058e-16 1.0346466034695511e-16 1.0535022226088058e-16 -0.46447134912477744 -0.8855881468504501
12645057333.333334 -0.47547804220156514 -0.8797275893047654 1.0475897574758113e-16 1.0402235303111877e-16 1.0475897574758113e-16 1.0402235303111877e-16 -0.47547742500734214 -0.8797279228876349
12645674666.666666 -0.4864101885488825 -0.8737305811722784 1.0603626606380801e-16 1.0267859857962324e-16 1.0603626606380801e-16 1.0267859857962324e-16 -0.4864095755919211 -0.873730922408205
12646292000.0 -0.497266709817291 -0.8675977289661918 1.0729633654669261e-16 1.013191769834985e-16 1.0729633654669261e-16 1.013191769834985e-16 -0.4972661011924725 -0.8675980778013763
12646909333.333334 -0.5080459180789497 -0.86132998619758 1.0853899523805441e-16 9.994430870478292e-17 1.0853899523805441e-16 9.994430870478292e-17 -0.5080453138804738 -0.8613303425770491
12647526666.666666 -0.5187461374264828 -0.8549283273496743 1.0976405299975007e-16 9.85542165546562e-17 1.0976405299975007e-16 9.85542165546562e-17 -0.5187455377478506 -0.8549286912172843
12648144000.0 -0.5293657042334862 -0.8483937477263681 1.1097132354233495e-16 9.714912565745315e-17 1.1097132354233495e-16 9.714912565745315e-17 -0.5293651091674878 -0.8483941190248192
12648761333.333334 -0.5399029674129883 -0.8417272632975935 1.1216062345333993e-16 9.572926341424868e-17 1.1216062345333993e-16 9.572926341424868e-17 -0.5399023770516876 -0.8417276419684352
12649378666.666666 -0.5503562886741578 -0.8349299105413657 1.1333177222501757e-16 9.429485946617356e-17 1.1333177222501757e-16 9.429485946617356e-17 -0.5503557031088785 -0.8349302965250078
12649996000.0 -0.5607240427772573 -0.8280027462824836 1.144845922817332e-16 9.284614565725719e-17 1.144845922817332e-16 9.284614565725719e-17 -0.5607234620985677 -0.8280031395182034
12650613333.333334 -0.5710046177861826 -0.8209468475283053 1.1561890900675284e-16 9.138335599709094e-17 1.1561890900675284e-16 9.138335599709094e-17 -0.5710040420838833 -0.8209472479542599
12651230666.666666 -0.5811964153188954 -0.813763311301433 1.167345507686373e-16 8.990672662306975e-17 1.167345507686373e-16 8.990672662306975e-17 -0.5811958446820044 -0.8137637188546673
12651848000.0 -0.5912978507964 -0.8064532544688282 1.1783134894714146e-16 8.84164957623242e-17 1.1783134894714146e-16 8.84164957623242e-17 -0.591297285313139 -0.806453669085285
12652465333.333334 -0.6013073536886863 -0.7990178135684559 1.1890913795860961e-16 8.69129036933647e-17 1.1890913795860961e-16 8.69129036933647e-17 -0.6013067934464671 -0.7990182351829865
12653082666.666666 -0.6112233677589138 -0.7914581446325873 1.199677552808784e-16 8.539619270742535e-17 1.199677552808784e-16 8.539619270742535e-17 -0.6112228128443251 -0.7914585731789613
12653700000.0 -0.6210443513058236 -0.7837754230077225 1.210070414777349e-16 8.386660706943668e-17 1.210070414777349e-16 8.386660706943668e-17 -0.6210438018046175 -0.7837758584186383
12654317333.333334 -0.6307687774028011 -0.7759708431723328 1.2202684022281256e-16 8.232439297879874e-17 1.2202684022281256e-16 8.232439297879874e-17 -0.6307682333998793 -0.7759712853794279
12654934666.666666 -0.6403951341357293 -0.7680456185508048 1.230269983230299e-16 8.076979852980289e-17 1.230269983230299e-16 8.076979852980289e-17 -0.6403945957151304 -0.7680460674846664
12655552000.0 -0.6499219248380466 -0.7600009813247705 1.2400736574155353e-16 7.920307367172765e-17 1.2400736574155353e-16 7.920307367172765e-17 -0.6499213920829343 -0.7600014369149488
12656169333.333334 -0.6593476683230544 -0.7518381822418684 1.249677956201405e-16 7.762447016883334e-17 1.249677956201405e-16 7.762447016883334e-17 -0.6593471413157024 -0.7518386444168841
12656786666.666666 -0.6686708991146394 -0.7435584904209128 1.2590814430112995e-16 7.603424155984011e-17 1.2590814430112995e-16 7.603424155984011e-17 -0.6686703779364193 -0.7435589591082689
12657404000.0 -0.6778901676749014 -0.7351631931547583 1.268282713487821e-16 7.443264311736098e-17 1.268282713487821e-16 7.443264311736098e-17 -0.6778896524062722 -0.7351636682809546
12658021333.333334 -0.6870040406295682 -0.7266535957101241 1.277280395701987e-16 7.281993180692106e-17 1.277280395701987e-16 7.281993180692106e-17 -0.6870035313500616 -0.726654077200666
12658638666.666666 -0.6960111009908481 -0.7180310211246544 1.286073150356508e-16 7.119636624584786e-17 1.286073150356508e-16 7.119636624584786e-17 -0.6960105977790565 -0.7180315089040639
12659256000.0 -0.7049099483777375 -0.7092968100012164 1.2946596709845062e-16 6.956220666180108e-17 1.2946596709845062e-16 6.956220666180108e-17 -0.7049094513113029 -0.7092973039930462
12659873333.333334 -0.713699199233748 -0.7004523202994712 1.3030386841423833e-16 6.791771485117506e-17 1.3030386841423833e-16 6.791771485117506e-17 -0.7136987083893495 -0.7004528204263157
12660490666.666666 -0.7223774870420145 -0.6914989271247426 1.3112089495978e-16 6.626315413719611e-17 1.3112089495978e-16 6.626315413719611e-17 -0.722377002495356 -0.6914994333082497
12661108000.0 -0.7309434625377571 -0.6824380225142216 1.3191692605123406e-16 6.459878932779538e-17 1.3191692605123406e-16 6.459878932779538e-17 -0.7309429843635562 -0.682438534675105
12661725333.333334 -0.7393957939180575 -0.673271015220537 1.326918443618473e-16 6.292488667333903e-17 1.326918443618473e-16 6.292488667333903e-17 -0.7393953221900338 -0.6732715332785891
12662342666.666666 -0.7477331670489232 -0.6639993304927299 1.334455359391702e-16 6.124171382403504e-17 1.334455359391702e-16 6.124171382403504e-17 -0.7477327018397878 -0.6639998543668347
12662960000.0 -0.7559542856696053 -0.6546244098546615 1.3417789022167502e-16 5.954953978725613e-17 1.3417789022167502e-16 5.954953978725613e-17 -0.7559538270510472 -0.6546249394628059
12663577333.333334 -0.7640578715941319 -0.6451477108808888 1.348888000548909e-16 5.784863488454501e-17 1.348888000548909e-16 5.784863488454501e-17 -0.7640574196368098 -0.6451482461401769
12664194666.666666 -0.7720426649100406 -0.6355707069700515 1.3557816170693916e-16 5.613927070855021e-17 1.3557816170693916e-16 5.613927070855021e-17 -0.7720422196835693 -0.6355712477967155
12664812000.0 -0.7799074241742567 -0.6258948871157854 1.3624587488357769e-16 5.442172007965662e-17 1.3624587488357769e-16 5.442172007965662e-17 -0.7799069857472005 -0.6258954334252027
12665429333.333334 -0.7876509266061537 -0.6161217556751871 1.368918427426479e-16 5.269625700255418e-17 1.368918427426479e-16 5.269625700255418e-17 -0.78765049504601 -0.6161223073818883
12666046666.666666 -0.7952719682774791 -0.606252832135134 1.3751597190800523e-16 5.096315662256034e-17 1.3751597190800523e-16 5.096315662256034e-17 -0.7952715436506734 -0.6062533891528208
12666664000.0 -0.8027693642999297 -0.5962896508755562 1.3811817248289508e-16 4.922269518177875e-17 1.3811817248289508e-16 4.922269518177875e-17 -0.8027689466718022 -0.5962902131171125
12667281333.333334 -0.8101419490088828 -0.5862337609315038 1.386983580627488e-16 4.747514997518111e-17 1.386983580627488e-16 4.747514997518111e-17 -0.810141538443679 -0.5862343283090092
12667898666.666666 -0.8173885761449756 -0.5760867257518583 1.3925644574746168e-16 4.57207993064299e-17 1.3925644574746168e-16 4.57207993064299e-17 -0.8173881727058374 -0.5760872981766034
12668516000.0 -0.8245081190323138 -0.5658501229562495 1.3979235615308666e-16 4.3959922443637933e-17 1.3979235615308666e-16 4.3959922443637933e-17 -0.8245077227812693 -0.5658507003387487
12669133333.333334 -0.8314994707533502 -0.5555255440901923 1.4030601342297363e-16 4.219279957498598e-17 1.4030601342297363e-16 4.219279957498598e-17 -0.8314990817513035 -0.555526126340198
12669750666.666666 -0.8383615443213114 -0.5451145943771767 1.4079734523835753e-16 4.0419711764180396e-17 1.4079734523835753e-16 4.0419711764180396e-17 -0.8383611626280325 -0.5451151814036924
12670368000.0 -0.8450932728490594 -0.5346188924692733 1.4126628282838606e-16 3.8640940905781975e-17 1.4126628282838606e-16 3.8640940905781975e-17 -0.8450928985231787 -0.5346194841805703
