! Parameters = {f0=12700.012000; bw=77.238000; Q=6100.000000; N=10; m_0_1=1.220315; m_1_1=-0.460016; m_1_2=1.055127; m_2_2=-0.460665; m_2_3=0.692090; m_2_8=-0.001921; m_2_9=0.034783; m_3_3=-0.462602; m_3_4=0.580619; m_3_7=-0.001321; m_3_8=-0.098409; m_3_9=-0.001921; m_4_4=-0.465527; m_4_5=0.416954; m_4_6=0.002196; m_4_7=-0.118958; m_4_8=-0.001321; m_5_5=-0.465145; m_5_6=0.824309; m_5_7=0.002196; m_6_6=-0.465146; m_6_7=0.417296; m_7_7=-0.465513; m_7_8=0.580737; m_8_8=-0.462604; m_8_9=0.692403; m_9_9=-0.460670; m_9_10=1.056205; m_10_10=-0.460026; m_10_11=1.221110}
!
! Created with skrf (http://scikit-rf.org).
# Hz S RI R 50.0 
!freq ReS11 ImS11 ReS21 ImS21 ReS12 ImS12 ReS22 ImS22
12607400000.0 0.8059314953439608 -0.5920088046747987 -5.258735375222111e-17 6.928477915658404e-17 -5.258735375222111e-17 6.928477915658404e-17 0.8059318760186018 -0.5920082864428284
12608017333.333334 0.800538405846491 -0.5992814537131912 -5.1941531048101634e-17 6.974901024871296e-17 -5.1941531048101634e-17 6.974901024871296e-17 0.800538791178738 -0.5992809389743022
12608634666.666666 0.7950796907429389 -0.60650497555086 -5.1291618817868115e-17 7.020722828786425e-17 -5.1291618817868115e-17 7.020722828786425e-17 0.7950800807007496 -0.606504464346905
12609252000.0 0.7895557975215959 -0.6136787780263172 -5.063767298553326e-17 7.06593973296282e-17 -5.063767298553326e-17 7.06593973296282e-17 0.7895561920725509 -0.6136782703988549
12609869333.333334 0.7839671790137785 -0.6208022730540016 -4.99797497902677e-17 7.110548194915976e-17 -4.99797497902677e-17 7.110548194915976e-17 0.7839675781250857 -0.6208017690442932
12610486666.666666 0.7783142933568657 -0.627874876672287 -4.931790578159629e-17 7.154544724392201e-17 -4.931790578159629e-17 7.154544724392201e-17 0.7783146969953624 -0.6278743763212935
12611104000.0 0.7725976039565118 -0.6348960090916425 -4.865219781451741e-17 7.197925883642114e-17 -4.865219781451741e-17 7.197925883642114e-17 0.772598012088667 -0.6348955124400206
12611721333.333334 0.7668175794489768 -0.6418650947417616 -4.7982683044670254e-17 7.240688287684823e-17 -4.7982683044670254e-17 7.240688287684823e-17 0.7668179920408951 -0.6418646018298614
12612338666.666666 0.7609746936624254 -0.6487815623191022 -4.7309418923419303e-17 7.282828604571544e-17 -4.7309418923419303e-17 7.282828604571544e-17 0.7609751106798492 -0.6487810731869633
12612956000.0 0.755069425578154 -0.6556448448336288 -4.6632463192936664e-17 7.32434355564334e-17 -4.6632463192936664e-17 7.32434355564334e-17 0.7550698469864661 -0.6556443595209765
12613573333.333334 0.749102259291472 -0.6624543796551201 -4.595187388129112e-17 7.365229915782458e-17 -4.595187388129112e-17 7.365229915782458e-17 0.7491026850556977 -0.6624538982013624
12614190666.666666 0.7430736839718127 -0.6692096085595275 -4.526770929745486e-17 7.405484513662895e-17 -4.526770929745486e-17 7.405484513662895e-17 0.7430741140566249 -0.6692091310037531
12614808000.0 0.7369841938228042 -0.6759099777745471 -4.458002802634084e-17 7.445104231993141e-17 -4.458002802634084e-17 7.445104231993141e-17 0.7369846281925251 -0.6759095041555214
12615425333.333334 0.7308342880416215 -0.6825549380251625 -4.3888888923796053e-17 7.48408600775568e-17 -4.3888888923796053e-17 7.48408600775568e-17 0.7308347266602248 -0.6825544683813238
12616042666.666666 0.7246244707781406 -0.6891439445785889 -4.3194351111576055e-17 7.522426832441787e-17 -4.3194351111576055e-17 7.522426832441787e-17 0.7246249136092555 -0.689143478948046
12616660000.0 0.7183552510935708 -0.6956764572889689 -4.2496473972310266e-17 7.560123752281054e-17 -4.2496473972310266e-17 7.560123752281054e-17 0.7183556981004852 -0.6956759957094986
12617277333.333334 0.7120271429187823 -0.7021519406415921 -4.1795317144423586e-17 7.597173868467577e-17 -4.1795317144423586e-17 7.597173868467577e-17 0.7120275940644448 -0.7021514831506342
12617894666.666666 0.705640665012158 -0.7085698637968153 -4.109094051707316e-17 7.633574337379554e-17 -4.109094051707316e-17 7.633574337379554e-17 0.7056411202591821 -0.7085694104314717
12618512000.0 0.6991963409169254 -0.7149297006337191 -4.0383404225020673e-17 7.669322370796649e-17 -4.0383404225020673e-17 7.669322370796649e-17 0.6991968002275925 -0.7149292514307507
12619129333.333334 0.6926946989184799 -0.7212309297929987 -3.967276864354061e-17 7.704415236109764e-17 -3.967276864354061e-17 7.704415236109764e-17 0.6926951622547406 -0.7212304847888196
12619746666.666666 0.6861362720009571 -0.7274730347198209 -3.89590943832689e-17 7.738850256528256e-17 -3.89590943832689e-17 7.738850256528256e-17 0.6861367393244366 -0.7274725939504989
12620364000.0 0.679521597803416 -0.7336555037062893 -3.824244228503386e-17 7.772624811282379e-17 -3.824244228503386e-17 7.772624811282379e-17 0.6795220690754168 -0.7336550672075413
12620981333.333334 0.6728512185760351 -0.7397778299331377 -3.752287341471184e-17 7.805736335818907e-17 -3.752287341471184e-17 7.805736335818907e-17 0.6728516937575386 -0.739777397740326
12621598666.666666 0.666125681135408 -0.7458395115115083 -3.6800449058012966e-17 7.838182321994572e-17 -3.6800449058012966e-17 7.838182321994572e-17 0.6661261601870807 -0.7458390836596409
12622216000.0 0.6593455368199101 -0.7518400515239271 -3.607523071528389e-17 7.869960318263105e-17 -3.607523071528389e-17 7.869960318263105e-17 0.6593460197021038 -0.7518396280476511
12622833333.333334 0.6525113414443289 -0.7577789580651869 -3.534728009629008e-17 7.901067929857682e-17 -3.534728009629008e-17 7.901067929857682e-17 0.6525118281170851 -0.7577785389987876
12623450666.666666 0.6456236552544706 -0.7636557442825226 -3.461665911497404e-17 7.931502818969039e-17 -3.461665911497404e-17 7.931502818969039e-17 0.6456241456775254 -0.7636553296599211
12624068000.0 0.6386830428811081 -0.7694699284156373 -3.38834298842004e-17 7.961262704918561e-17 -3.38834298842004e-17 7.961262704918561e-17 0.6386835370138929 -0.7694695182703865
12624685333.333334 0.6316900732936456 -0.775221033836226 -3.3147654710484255e-17 7.990345364326655e-17 -3.3147654710484255e-17 7.990345364326655e-17 0.6316905710952918 -0.7752206282015085
12625302666.666666 0.6246453197537836 -0.7809085890867961 -3.240939608873049e-17 8.018748631275254e-17 -3.240939608873049e-17 8.018748631275254e-17 0.624645821183127 -0.7809081879954225
12625920000.0 0.6175493597680665 -0.7865321279196981 -3.166871669691377e-17 8.046470397467296e-17 -3.166871669691377e-17 8.046470397467296e-17 0.6175498647836486 -0.7865317314041025
12626537333.333334 0.6104027750409339 -0.7920911893350188 -3.092567939078885e-17 8.07350861237962e-17 -3.092567939078885e-17 8.07350861237962e-17 0.6104032836010058 -0.7920907974272567
12627154666.666666 0.6032061514268592 -0.7975853176185201 -3.0180347198565115e-17 8.099861283411864e-17 -3.0180347198565115e-17 8.099861283411864e-17 0.6032066634893862 -0.7975849303502666
12627772000.0 0.5959600788822762 -0.8030140623790276 -2.9432783315557193e-17 8.125526476030843e-17 -2.9432783315557193e-17 8.125526476030843e-17 0.5959605944049414 -0.8030136797815753
12628389333.333334 0.5886651514174003 -0.8083769785852187 -2.8683051098869964e-17 8.150502313908402e-17 -2.8683051098869964e-17 8.150502313908402e-17 0.588665670357606 -0.8083766006894729
12629006666.666666 0.5813219670472791 -0.8136736266022873 -2.7931214062016584e-17 8.174786979056289e-17 -2.7931214062016584e-17 8.174786979056289e-17 0.5813224893621528 -0.8136732534387665
12629624000.0 0.573931127742978 -0.8189035722278359 -2.7177335869562785e-17 8.198378711954872e-17 -2.7177335869562785e-17 8.198378711954872e-17 0.5739316533893735 -0.8189032038266659
12630241333.333334 0.5664932393821839 -0.8240663867274998 -2.642148033174397e-17 8.221275811677349e-17 -2.642148033174397e-17 8.221275811677349e-17 0.5664937683166865 -0.8240660231184134
12630858666.666666 0.5590089116995404 -0.829161646870098 -2.5663711399089184e-17 8.24347663600866e-17 -2.5663711399089184e-17 8.24347663600866e-17 0.5590094438784707 -0.8291612880824333
12631476000.0 0.5514787582364984 -0.8341889349624383 -2.4904093156995136e-17 8.264979601560531e-17 -2.4904093156995136e-17 8.264979601560531e-17 0.5514792936159152 -0.834188581025135
12632093333.333334 0.5439033962912767 -0.8391478388833826 -2.414268982035935e-17 8.285783183879565e-17 -2.414268982035935e-17 8.285783183879565e-17 0.5439039348269807 -0.8391474898249799
12632710666.666666 0.5362834468682158 -0.8440379521176665 -2.3379565728136625e-17 8.305885917552463e-17 -2.3379565728136625e-17 8.305885917552463e-17 0.5362839885157524 -0.8440376079662999
12633328000.0 0.528619534626602 -0.8488588737893901 -2.2614785337912643e-17 8.32528639630533e-17 -2.2614785337912643e-17 8.32528639630533e-17 0.5286200793412679 -0.8488585345727926
12633945333.333334 0.5209122878297762 -0.8536102086946865 -2.1848413220491495e-17 8.343983273097572e-17 -2.1848413220491495e-17 8.343983273097572e-17 0.5209128355666188 -0.853609874440181
12634562666.666666 0.5131623382934818 -0.8582915673342036 -2.108051405444263e-17 8.361975260211677e-17 -2.108051405444263e-17 8.361975260211677e-17 0.5131628890073069 -0.8582912380687059
12635180000.0 0.5053703213340737 -0.8629025659450399 -2.0311152620666844e-17 8.37926112933725e-17 -2.0311152620666844e-17 8.37926112933725e-17 0.5053708749794462 -0.8629022416950523
12635797333.333334 0.4975368757165079 -0.8674428265321549 -1.9540393796927652e-17 8.395839711650891e-17 -1.9540393796927652e-17 8.395839711650891e-17 0.49753743224775804 -0.867442507323768
12636414666.666666 0.48966264360193146 -0.8719119768993917 -1.8768302552412102e-17 8.411709897890094e-17 -1.8768302552412102e-17 8.411709897890094e-17 0.4896632029731566 -0.8719116627582789
12637032000.0 0.48174827049498914 -0.8763096506800119 -1.7994943942250494e-17 8.426870638423041e-17 -1.7994943942250494e-17 8.426870638423041e-17 0.4817488326600584 -0.8763093416314289
12637649333.333334 0.47379440519095534 -0.8806354873667006 -1.722038310205482e-17 8.44132094331281e-17 -1.722038310205482e-17 8.44132094331281e-17 0.4737949701035137 -0.8806351834354839
12638266666.666666 0.46580169972262475 -0.8848891323410821 -1.64446852424528e-17 8.45505988237663e-17 -1.64446852424528e-17 8.45505988237663e-17 0.4658022673360956 -0.8848888335516444
12638884000.0 0.4577708093067085 -0.8890702369028664 -1.5667915643596034e-17 8.468086585240517e-17 -1.5667915643596034e-17 8.468086585240517e-17 0.4577713795743 -0.8890699432791996
12639501333.333334 0.4497023922902 -0.8931784582984014 -1.4890139649686177e-17 8.48040024138848e-17 -1.4890139649686177e-17 8.48040024138848e-17 0.449702965164906 -0.8931781698640696
12640118666.666666 0.44159711009650354 -0.8972134597487126 -1.4111422663502756e-17 8.492000100206644e-17 -1.4111422663502756e-17 8.492000100206644e-17 0.4415976855311093 -0.8972131765268523
12640736000.0 0.4334556271709102 -0.9011749104772675 -1.3331830140875082e-17 8.502885471023198e-17 -1.3331830140875082e-17 8.502885471023198e-17 0.43345620511799554 -0.9011746324905863
12641353333.333334 0.4252786109265866 -0.9050624857368639 -1.2551427585260673e-17 8.51305572314166e-17 -1.2551427585260673e-17 8.51305572314166e-17 0.4252791913385305 -0.9050622130076381
12641970666.666666 0.41706673168942915 -0.9088758668364655 -1.1770280542188823e-17 8.522510285871112e-17 -1.1770280542188823e-17 8.522510285871112e-17 0.41706731451841234 -0.9088755993865372
12642588000.0 0.40882066264331546 -0.9126147411672233 -1.0988454593801969e-17 8.531248648549925e-17 -1.0988454593801969e-17 8.531248648549925e-17 0.4088212478413262 -0.9126144790180014
12643205333.333334 0.4005410797749997 -0.9162788022280747 -1.0206015353357456e-17 8.539270360565073e-17 -1.0206015353357456e-17 8.539270360565073e-17 0.40054166729383606 -0.9162785454005302
12643822666.666666 0.3922286618184355 -0.9198677496509797 -9.423028459721504e-18 8.546575031366406e-17 -9.423028459721504e-18 8.546575031366406e-17 0.3922292516097101 -0.9198674981656455
12644440000.0 0.3838840901993701 -0.923381289225442 -8.639559571897253e-18 8.553162330475631e-17 -8.639559571897253e-18 8.553162330475631e-17 0.3838846822145145 -0.923381043102412
12645057333.333334 0.3755080489794324 -0.9268191329226536 -7.85567436351437e-18 8.55903198749063e-17 -7.85567436351437e-18 8.55903198749063e-17 0.3755086431696998 -0.9268188921815785
12645674666.666666 0.36710122480002744 -0.9301809989191124 -7.071438517346291e-18 8.564183792084488e-17 -7.071438517346291e-18 8.564183792084488e-17 0.36710182111649853 -0.9301807635792023
12646292000.0 0.35866430682597145 -0.9334666116197639 -6.286917719799659e-18 8.568617593999754e-17 -6.286917719799659e-18 8.568617593999754e-17 0.3586649052195568 -0.9334663816997825
12646909333.333334 0.35019798668917906 -0.9366757016805141 -5.5021776554542975e-18 8.572333303037304e-17 -5.5021776554542975e-18 8.572333303037304e-17 0.35019858711062357 -0.9366754771987791
12647526666.666666 0.34170295843180704 -0.9398080060303744 -4.717284001561668e-18 8.575330889040558e-17 -4.717284001561668e-18 8.575330889040558e-17 0.34170356083169473 -0.9398077870047565
12648144000.0 0.33317991844933237 -0.9428632678930351 -3.932302422548478e-18 8.5776103818746e-17 -3.932302422548478e-18 8.5776103818746e-17 0.33318052277808957 -0.9428630543409559
12648761333.333334 0.32462956543367677 -0.9458412368078373 -3.1472985645552063e-18 8.579171871400144e-17 -3.1472985645552063e-18 8.579171871400144e-17 0.3246301716415767 -0.9458410287462679
12649378666.666666 0.31605260031577115 -0.9487416686503646 -2.362338049953901e-18 8.580015507442623e-17 -2.362338049953901e-18 8.580015507442623e-17 0.3160532083529376 -0.9487414660958237
12649996000.0 0.3074497262080667 -0.9515643256524609 -1.5774864718725633e-18 8.580141499756278e-17 -1.5774864718725633e-18 8.580141499756278e-17 0.3074503360244789 -0.9515641286210161
12650613333.333334 0.29882164834692454 -0.9543089764217167 -7.928093887192213e-19 8.579550117983248e-17 -7.928093887192213e-19 8.579550117983248e-17 0.2988222598924201 -0.9543087849289794
12651230666.666666 0.2901690740350179 -0.9569753959603658 -8.372318737859976e-21 8.578241691607649e-17 -8.372318737859976e-21 8.578241691607649e-17 0.29016968725929804 -0.9569752100214924
12651848000.0 0.2814927125829163 -0.9595633656838661 7.757592654764932e-19 8.576216609904661e-17 7.757592654764932e-19 8.576216609904661e-17 0.2814933274355497 -0.9595631853135576
12652465333.333334 0.2727932752512921 -0.9620726734387122 1.5595199424103953e-18 8.573475321884686e-17 1.5595199424103953e-18 8.573475321884686e-17 0.2727938916817184 -0.9620724986512096
12653082666.666666 0.264071475192558 -0.9645031135198391 2.3428443470680043e-18 8.570018336232557e-17 2.3428443470680043e-18 8.570018336232557e-17 0.26407209315009283 -0.964502944328926
12653700000.0 0.2553280273922429 -0.9668544866875385 3.12566717644896e-18 8.565846221241637e-17 3.12566717644896e-18 8.565846221241637e-17 0.2553286468260813 -0.9668543231065374
12654317333.333334 0.2465636486105972 -0.9691266001837263 3.907923194936143e-18 8.560959604743215e-17 3.907923194936143e-18 8.560959604743215e-17 0.24656426946981838 -0.9691264422254987
12654934666.666666 0.23777905732367136 -0.9713192677477909 4.6895472397463205e-18 8.555359174030726e-17 4.6895472397463205e-18 8.555359174030726e-17 0.23777967955724283 -0.9713191154247371
12655552000.0 0.22897497366438915 -0.9734323096318663 5.470474226348201e-18 8.549045675779057e-17 5.470474226348201e-18 8.549045675779057e-17 0.2289755972211705 -0.9734321629559229
12656169333.333334 0.22015211936373472 -0.9754655526155164 6.2506391538378674e-18 8.542019915959241e-17 6.2506391538378674e-18 8.542019915959241e-17 0.220152744192482 -0.9754654115981551
12656786666.666666 0.2113112176914208 -0.9774188300199698 7.029977110375548e-18 8.53428275974769e-17 7.029977110375548e-18 8.53428275974769e-17 0.21131184374079115 -0.9774186946721991
12657404000.0 0.20245299339657125 -0.9792919817217978 7.808423278552131e-18 8.525835131430992e-17 7.808423278552131e-18 8.525835131430992e-17 0.20245362061512642 -0.9792918520541589
12658021333.333334 0.19357817264836175 -0.9810848541660193 8.585912940774796e-18 8.516678014305527e-17 8.585912940774796e-18 8.516678014305527e-17 0.19357880098457284 -0.9810847301885874
12658638666.666666 0.1846874829765756 -0.9827973003786765 9.3623814846253e-18 8.506812450572429e-17 9.3623814846253e-18 8.506812450572429e-17 0.18468811237882715 -0.9827971821010599
12659256000.0 0.17578165321179592 -0.9844291799789183 1.0137764408231526e-17 8.496239541227353e-17 1.0137764408231526e-17 8.496239541227353e-17 0.17578228362839 -0.9844290674102562
12659873333.333334 0.16686141342574146 -0.9859803591904874 1.0911997325605961e-17 8.484960445945644e-17 1.0911997325605961e-17 8.484960445945644e-17 0.16686204480490194 -0.9859802523394497
12660490666.666666 0.1579274948715297 -0.987450710852669 1.1685015971970062e-17 8.472976382962687e-17 1.1685015971970062e-17 8.472976382962687e-17 0.15792812716140706 -0.9874506097274582
12661108000.0 0.1489806299233955 -0.9888401144307738 1.2456756209102479e-17 8.460288628948916e-17 1.2456756209102479e-17 8.460288628948916e-17 0.1489812630720702 -0.9888400190391209
12661725333.333334 0.1400215520171577 -0.9901484560259363 1.3227154030616911e-17 8.44689851888081e-17 1.3227154030616911e-17 8.44689851888081e-17 0.1400221859726449 -0.9901483663751007
12662342666.666666 0.13105099558961697 -0.9913756283845232 1.3996145567274937e-17 8.432807445906344e-17 1.3996145567274937e-17 8.432807445906344e-17 0.13105163029987096 -0.991375544481295
12662960000.0 0.12206969601860243 -0.992521530906894 1.476366709227103e-17 8.418016861205941e-17 1.476366709227103e-17 8.418016861205941e-17 0.12207033143152059 -0.99252145275759
12663577333.333334 0.11307838956260262 -0.9935860696556522 1.552965502649379e-17 8.40252827384862e-17 1.552965502649379e-17 8.40252827384862e-17 0.11307902562602987 -0.9935859972661177
12664194666.666666 0.10407781330052275 -0.9945691573633381 1.629404594378259e-17 8.386343250643373e-17 1.629404594378259e-17 8.386343250643373e-17 0.1040784499622557 -0.9945690907389453
12664812000.0 0.0950687050710917 -0.9954707134395993 1.7056776576169275e-17 8.369463415985657e-17 1.7056776576169275e-17 8.369463415985657e-17 0.09506934227888306 -0.9954706525852476
12665429333.333334 0.0860518034124609 -0.9962906639777873 1.78177838190951e-17 8.351890451699389e-17 1.78177838190951e-17 8.351890451699389e-17 0.0860524411140238 -0.9962906088979039
12666046666.666666 0.07702784750177503 -0.9970289417610115 1.8577004736621587e-17 8.33362609687402e-17 1.8577004736621587e-17 8.33362609687402e-17 0.07702848564478695 -0.9970288924595461
12666664000.0 0.06799757709423603 -0.9976854862676672 1.9334376566639263e-17 8.314672147696479e-17 1.9334376566639263e-17 8.314672147696479e-17 0.06799821562634363 -0.9976854427480993
12667281333.333334 0.05896173246297107 -0.9982602436763693 2.0089836726012785e-17 8.295030457279621e-17 2.0089836726012785e-17 8.295030457279621e-17 0.058962371331794126 -0.9982602059417023
12667898666.666666 0.04992105433789338 -0.9987531668703892 2.0843322815765576e-17 8.274702935484539e-17 2.0843322815765576e-17 8.274702935484539e-17 0.0499216934910292 -0.9987531349231532
12668516000.0 0.04087628384509298 -0.9991642154415125 2.1594772626211838e-17 8.253691548739142e-17 2.1594772626211838e-17 8.253691548739142e-17 0.04087692323012067 -0.9991641892837619
12669133333.333334 0.03182816244628023 -0.9994933556933392 2.234412414207308e-17 8.231998319851987e-17 2.234412414207308e-17 8.231998319851987e-17 0.03182880201076493 -0.9994933353266535
12669750666.666666 0.02277743187783274 -0.999740560644055 2.3091315547597492e-17 8.209625327820937e-17 2.3091315547597492e-17 8.209625327820937e-17 0.022778071569330066 -0.9997405460695394
12670368000.0 0.013724834089933495 -0.9999058100286454 2.3836285231639563e-17 8.186574707637734e-17 2.3836285231639563e-17 8.186574707637734e-17 0.013725473855993748 -0.9999058012469308
12670985333.333334 0.004671111185946895 -0.9999890903005523 2.457897179272311e-17 8.162848650087964e-17 2.457897179272311e-17 8.162848650087964e-17 0.0046717509741193595 -0.9999890873117935
