! Parameters = {f0=12700.012000; bw=77.238000; Q=6100.000000; N=10; m_0_1=1.243939; m_1_1=-0.105662; m_1_2=1.078751; m_2_2=-0.106311; m_2_3=0.715714; m_2_8=-0.000739; m_2_9=0.035965; m_3_3=-0.108248; m_3_4=0.604243; m_3_7=-0.000139; m_3_8=-0.097227; m_3_9=-0.000739; m_4_4=-0.111173; m_4_5=0.440578; m_4_6=0.003378; m_4_7=-0.117776; m_4_8=-0.000139; m_5_5=-0.110791; m_5_6=0.847933; m_5_7=0.003378; m_6_6=-0.110792; m_6_7=0.440920; m_7_7=-0.111159; m_7_8=0.604361; m_8_8=-0.108250; m_8_9=0.716027; m_9_9=-0.106316; m_9_10=1.079829; m_10_10=-0.105672; m_10_11=1.244734}
!
! Created with skrf (http://scikit-rf.org).
# Hz S RI R 50.0 
!freq ReS11 ImS11 ReS21 ImS21 ReS12 ImS12 ReS22 ImS22
12607400000.0 -0.694902503202102 -0.7191039640019266 8.501280495639933e-17 4.805650776918685e-17 8.501280495639933e-17 4.805650776918685e-17 -0.6949020318812809 -0.7191044194601351
12608017333.333334 -0.7018824168190226 -0.71229282809819 8.546487339158955e-17 4.720831879198409e-17 8.546487339158955e-17 4.720831879198409e-17 -0.7018819499852672 -0.7122932881087041
12608634666.666666 -0.7087955738596248 -0.7054139454794154 8.59084868000592e-17 4.6355889483310285e-17 8.59084868000592e-17 4.6355889483310285e-17 -0.7087951115568936 -0.7054144099980386
12609252000.0 -0.7156413168082942 -0.69846797040145 8.634360553417626e-17 4.549930405241549e-17 8.634360553417626e-17 4.549930405241549e-17 -0.715640859080112 -0.6984684393835631
12609869333.333334 -0.7224189945612446 -0.6914555635013363 8.677019078429561e-17 4.4638647077953795e-17 8.677019078429561e-17 4.4638647077953795e-17 -0.722418541450696 -0.6914560369018986
12610486666.666666 -0.7291279624883447 -0.6843773917345792 8.718820458217434e-17 4.3774003499678806e-17 8.718820458217434e-17 4.3774003499678806e-17 -0.7291275140380704 -0.6843778695081347
12611104000.0 -0.7357675824946251 -0.677234128311506 8.759760980433568e-17 4.29054586100426e-17 8.759760980433568e-17 4.29054586100426e-17 -0.7357671387468202 -0.6772346104121878
12611721333.333334 -0.7423372230807741 -0.6700264526334434 8.799837017531382e-17 4.20330980458387e-17 8.799837017531382e-17 4.20330980458387e-17 -0.7423367840771806 -0.6700269390149767
12612338666.666666 -0.7488362594032762 -0.6627550502280158 8.839045027084406e-17 4.115700777975505e-17 8.839045027084406e-17 4.115700777975505e-17 -0.7488358251851822 -0.6627555408437241
12612956000.0 -0.7552640733339191 -0.6554206126838606 8.877381552096316e-17 4.0277274111910114e-17 8.877381552096316e-17 4.0277274111910114e-17 -0.7552636439421526 -0.6554211074866688
12613573333.333334 -0.761620053518393 -0.6480238375850615 8.914843221300393e-17 3.9393983661408586e-17 8.914843221300393e-17 3.9393983661408586e-17 -0.76161962899332 -0.6480243365275014
12614190666.666666 -0.7679035954346286 -0.6405654284445897 8.951426749453908e-17 3.850722335779637e-17 8.951426749453908e-17 3.850722335779637e-17 -0.7679031758161469 -0.6405659314788028
12614808000.0 -0.7741141014501957 -0.6330460946374963 8.987128937621773e-17 3.7617080432539384e-17 8.987128937621773e-17 3.7617080432539384e-17 -0.7741136867777338 -0.6330466017152411
12615425333.333334 -0.7802509808791493 -0.6254665513334469 9.021946673452525e-17 3.672364241045875e-17 9.021946673452525e-17 3.672364241045875e-17 -0.7802505711916611 -0.625467062406101
12616042666.666666 -0.7863136500382792 -0.6178275194286103 9.055876931445591e-17 3.582699710114594e-17 9.055876931445591e-17 3.582699710114594e-17 -0.7863132453742396 -0.6178280344471764
12616660000.0 -0.7923015323025165 -0.6101297254772264 9.088916773210609e-17 3.492723259034123e-17 9.088916773210609e-17 3.492723259034123e-17 -0.7923011326999205 -0.6101302443923373
12617277333.333334 -0.7982140581598685 -0.6023739016223941 9.121063347717208e-17 3.402443723131142e-17 9.121063347717208e-17 3.402443723131142e-17 -0.7982136636562254 -0.6023744243843164
12617894666.666666 -0.8040506652654791 -0.5945607855265697 9.15231389153676e-17 3.3118699636195306e-17 9.15231389153676e-17 3.3118699636195306e-17 -0.8040502758978102 -0.5945613120852093
12618512000.0 -0.8098107984953042 -0.5866911203011587 9.182665729076499e-17 3.221010866729849e-17 9.182665729076499e-17 3.221010866729849e-17 -0.809810414300138 -0.5866916506060651
12619129333.333334 -0.8154939099986702 -0.5787656544361566 9.21211627280289e-17 3.129875342843016e-17 9.21211627280289e-17 3.129875342843016e-17 -0.8154935310120396 -0.5787661884365279
12619746666.666666 -0.8210994592505328 -0.5707851417287534 9.240663023458427e-17 3.038472325615964e-17 9.240663023458427e-17 3.038472325615964e-17 -0.8210990855079732 -0.5707856793734422
12620364000.0 -0.8266269131029533 -0.5627503412115469 9.26830357026936e-17 2.946810771106693e-17 9.26830357026936e-17 2.946810771106693e-17 -0.8266265446394958 -0.5627508824490625
12620981333.333334 -0.8320757458355595 -0.5546620170806985 9.295035591143174e-17 2.8548996569025043e-17 9.295035591143174e-17 2.8548996569025043e-17 -0.8320753826857306 -0.5546625618592141
12621598666.666666 -0.8374454392057739 -0.5465209386229224 9.320856852859825e-17 2.7627479812388396e-17 9.320856852859825e-17 2.7627479812388396e-17 -0.8374450814035919 -0.5465214868902802
12622216000.0 -0.8427354824980112 -0.5383278801424608 9.345765211252656e-17 2.6703647621217588e-17 9.345765211252656e-17 2.6703647621217588e-17 -0.8427351300769823 -0.5383284318461763
12622833333.333334 -0.8479453725722809 -0.5300836208873906 9.369758611381263e-17 2.577759036446714e-17 9.369758611381263e-17 2.577759036446714e-17 -0.8479450255653963 -0.5300841759746571
12623450666.666666 -0.8530746139119819 -0.5217889449756048 9.392835087695169e-17 2.484939859117725e-17 9.392835087695169e-17 2.484939859117725e-17 -0.8530742723517137 -0.5217895033932988
12624068000.0 -0.8581227186710919 -0.5134446413201382 9.414992764189727e-17 2.391916302161403e-17 9.414992764189727e-17 2.391916302161403e-17 -0.8581223825893927 -0.5134452030148252
12624685333.333334 -0.8630892067206396 -0.505051503554011 9.436229854552326e-17 2.2986974538434e-17 9.436229854552326e-17 2.2986974538434e-17 -0.8630888761489373 -0.5050520684719504
12625302666.666666 -0.8679736056941364 -0.4966103299551365 9.456544662299881e-17 2.2052924177839306e-17 9.456544662299881e-17 2.2052924177839306e-17 -0.8679732806633312 -0.49661089804228564
12625920000.0 -0.8727754510327784 -0.48812192336993104 9.475935580908756e-17 2.1117103120667535e-17 9.475935580908756e-17 2.1117103120667535e-17 -0.87277513157324 -0.48812249457195106
12626537333.333334 -0.877494286029415 -0.4795870911373222 9.494401093934256e-17 2.017960268354651e-17 9.494401093934256e-17 2.017960268354651e-17 -0.877493972170982 -0.47958766539958403
12627154666.666666 -0.8821296618720764 -0.47100664501181716 9.511939775122513e-17 1.924051430998822e-17 9.511939775122513e-17 1.924051430998822e-17 -0.8821293536440504 -0.47100722227940545
12627772000.0 -0.8866811376867365 -0.46238140108614334 9.528550288513773e-17 1.8299929561460245e-17 9.528550288513773e-17 1.8299929561460245e-17 -0.8866808351178822 -0.462381981303863
12628389333.333334 -0.8911482805790495 -0.4537121797140079 9.544231388535388e-17 1.735794010853063e-17 9.544231388535388e-17 1.735794010853063e-17 -0.8911479836975885 -0.4537127628263876
12629006666.666666 -0.895530665675764 -0.44499980543159073 9.558981920087949e-17 1.641463772189983e-17 9.558981920087949e-17 1.641463772189983e-17 -0.895530374509377 -0.4450003913828906
12629624000.0 -0.8998278761649231 -0.4362451068795564 9.57280081862121e-17 1.547011426351074e-17 9.57280081862121e-17 1.547011426351074e-17 -0.899827590740742 -0.4362456956137709
12630241333.333334 -0.9040395033356251 -0.42744891672398366 9.585687110201909e-17 1.4524461677607062e-17 9.585687110201909e-17 1.4524461677607062e-17 -0.904039223680235 -0.42744950818484895
12630858666.666666 -0.9081651466168188 -0.41861207157735264 9.597639911572572e-17 1.3577771981806322e-17 9.597639911572572e-17 1.3577771981806322e-17 -0.9081648727562526 -0.4186126657083505
12631476000.0 -0.9122044136155301 -0.40973541191868906 9.608658430201693e-17 1.2630137258150094e-17 9.608658430201693e-17 1.2630137258150094e-17 -0.9122041455752665 -0.4097360086630528
12632093333.333334 -0.9161569201540269 -0.40081978201396057 9.618741964324702e-17 1.1681649644189823e-17 9.618741964324702e-17 1.1681649644189823e-17 -0.9161566579589897 -0.40082038131468073
12632710666.666666 -0.920022290306434 -0.3918660298356246 9.627889902976587e-17 1.0732401324032471e-17 9.627889902976587e-17 1.0732401324032471e-17 -0.9200220339809883 -0.39186663163545427
12633328000.0 -0.9238001564345302 -0.38287500698187216 9.636101726015658e-17 9.782484519385085e-18 9.636101726015658e-17 9.782484519385085e-18 -0.9237999060024804 -0.38287561122333225
12633945333.333334 -0.9274901592226564 -0.3738475685957608 9.643377004138132e-17 8.83199148064038e-18 9.643377004138132e-17 8.83199148064038e-18 -0.9274899147072441 -0.37384817522114555
12634562666.666666 -0.9310919477118832 -0.36478457328390906 9.649715398884413e-17 7.881014477910925e-18 9.649715398884413e-17 7.881014477910925e-18 -0.9310917091357845 -0.3647851822352915
12635180000.0 -0.9346051793334187 -0.3556868830347537 9.655116662636155e-17 6.9296457921087905e-18 9.655116662636155e-17 6.9296457921087905e-18 -0.9346049467187446 -0.35568749425399215
12635797333.333334 -0.9380295199411974 -0.34655536313656726 9.659580638604854e-17 5.977977705994746e-18 9.659580638604854e-17 5.977977705994746e-18 -0.9380292933094875 -0.34655597656530895
12636414666.666666 -0.9413646438436122 -0.3373908820952633 9.663107260811465e-17 5.026102495258237e-18 9.663107260811465e-17 5.026102495258237e-18 -0.9413644232158364 -0.3373914976749517
12637032000.0 -0.9446102338345584 -0.3281943115516351 9.665696554057331e-17 4.0741124195712525e-18 9.665696554057331e-17 4.0741124195712525e-18 -0.9446100192311131 -0.3281949292235146
12637649333.333334 -0.9477659812235505 -0.31896652619858495 9.667348633886294e-17 3.1220997136775377e-18 9.667348633886294e-17 3.1220997136775377e-18 -0.9477657726642565 -0.3189671459037066
12638266666.666666 -0.9508315858651277 -0.3097084036977975 9.668063706538072e-17 2.170156578460176e-18 9.668063706538072e-17 2.170156578460176e-18 -0.9508313833692303 -0.30970902537702505
12638884000.0 -0.9538067561873497 -0.30042082459642666 9.66784206889279e-17 1.2183751720461749e-18 9.66784206889279e-17 1.2183751720461749e-18 -0.9538065597735156 -0.300421448190442
12639501333.333334 -0.9566912092195708 -0.291104672243211 9.666684108406887e-17 2.6684760088845156e-19 9.666684108406887e-17 2.6684760088845156e-19 -0.9566910189058853 -0.2911052976925191
12640118666.666666 -0.9594846706192938 -0.28176083270464725 9.66459030304023e-17 -6.843340891107404e-19 9.66459030304023e-17 -6.843340891107404e-19 -0.9594844864232618 -0.2817614599495831
12640736000.0 -0.9621868746983974 -0.2723901946802816 9.66156122117435e-17 -1.6350779215302241e-18 9.66156122117435e-17 -1.6350779215302241e-18 -0.962186696636939 -0.27239082366101486
12641353333.333334 -0.9647975644482077 -0.26299364941883735 9.657597521522355e-17 -2.5852919982375107e-18 9.657597521522355e-17 -2.5852919982375107e-18 -0.9647973925376585 -0.26299428007537856
12641970666.666666 -0.9673164915641055 -0.25357209063290326 9.652699953029606e-17 -3.534884508322669e-18 9.652699953029606e-17 -3.534884508322669e-18 -0.9673163258202145 -0.2535727229051094
12642588000.0 -0.9697434164690927 -0.2441264144140944 9.646869354766131e-17 -4.483763736907719e-18 9.646869354766131e-17 -4.483763736907719e-18 -0.969743256907022 -0.24412704824167508
12643205333.333334 -0.9720781083365445 -0.23465751914796273 9.640106655810171e-17 -5.431838074000935e-18 9.640106655810171e-17 -5.431838074000935e-18 -0.9720779549708644 -0.23465815447048477
12643822666.666666 -0.974320345112216 -0.22516630542832944 9.63241287512301e-17 -6.379016023332016e-18 9.63241287512301e-17 -6.379016023332016e-18 -0.9743201979569077 -0.22516694218522393
12644440000.0 -0.9764699135353238 -0.2156536759717949 9.623789121415321e-17 -7.325206211148143e-18 9.623789121415321e-17 -7.325206211148143e-18 -0.9764697726037764 -0.21565431410236235
12645057333.333334 -0.9785266091588382 -0.2061205355318538 9.614236593004756e-17 -8.270317395024931e-18 9.614236593004756e-17 -8.270317395024931e-18 -0.9785264744638468 -0.20612117497526974
12645674666.666666 -0.9804902363689251 -0.19656779081284237 9.603756577665041e-17 -9.214258472631048e-18 9.603756577665041e-17 -9.214258472631048e-18 -0.980490107922692 -0.19656843150816386
12646292000.0 -0.9823606084035893 -0.18699635038353485 9.592350452466073e-17 -1.0156938490522327e-17 9.592350452466073e-17 -1.0156938490522327e-17 -0.9823604862177201 -0.18699699226970556
12646909333.333334 -0.9841375473703831 -0.17740712459097888 9.580019683606207e-17 -1.109826665284984e-17 9.580019683606207e-17 -1.109826665284984e-17 -0.9841374314558867 -0.17740776760683516
12647526666.666666 -0.9858208842633499 -0.16780102547380055 9.566765826235202e-17 -1.2038152330114757e-17 9.566765826235202e-17 -1.2038152330114757e-17 -0.9858207746306392 -0.16780166955807752
12648144000.0 -0.9874104589791128 -0.1581789666753756 9.55259052426895e-17 -1.2976505067870877e-17 9.55259052426895e-17 -1.2976505067870877e-17 -0.987410355638001 -0.15817961176671252
12648761333.333334 -0.9889061203320775 -0.1485418633570721 9.537495510195755e-17 -1.3913234595412428e-17 9.537495510195755e-17 -1.3913234595412428e-17 -0.9889060232917783 -0.14854250939401853
12649378666.666666 -0.9903077260688123 -0.13889063211120875 9.521482604874235e-17 -1.4848250834424326e-17 9.521482604874235e-17 -1.4848250834424326e-17 -0.9903076353379401 -0.1388912790322303
12649996000.0 -0.9916151428816002 -0.12922619087373696 9.504553717322232e-17 -1.5781463907651136e-17 9.504553717322232e-17 -1.5781463907651136e-17 -0.991615058468169 -0.12922683861722134
12650613333.333334 -0.9928282464211025 -0.1195494588370477 9.486710844497715e-17 -1.6712784147507888e-17 9.486710844497715e-17 -1.6712784147507888e-17 -0.992828168332523 -0.11955010734131012
12651230666.666666 -0.9939469213081824 -0.10986135636254597 9.467956071071399e-17 -1.7642122104667462e-17 9.467956071071399e-17 -1.7642122104667462e-17 -0.9939468495512642 -0.10986200556583549
12651848000.0 -0.9949710611448951 -0.1001628048930021 9.448291569190204e-17 -1.85693885566583e-17 9.448291569190204e-17 -1.85693885566583e-17 -0.9949709957258451 -0.10016345473350731
12652465333.333334 -0.9959005685245892 -0.09045472686505347 9.427719598233129e-17 -1.9494494516399297e-17 9.427719598233129e-17 -1.9494494516399297e-17 -0.9959005094490111 -0.09045537728090841
12653082666.666666 -0.9967353550411722 -0.08073804562149967 9.406242504558829e-17 -2.041735124070587e-17 9.406242504558829e-17 -2.041735124070587e-17 -0.9967353023140658 -0.08073869655078969
12653700000.0 -0.9974753412975426 -0.07101368532319922 9.383862721243695e-17 -2.133787023882258e-17 9.383862721243695e-17 -2.133787023882258e-17 -0.9974752949233017 -0.07101433670396676
12654317333.333334 -0.9981204569131065 -0.06128257086156855 9.360582767813439e-17 -2.2255963280850685e-17 9.360582767813439e-17 -2.2255963280850685e-17 -0.9981204168955219 -0.06128322263181927
12654934666.666666 -0.9986706405304967 -0.05154562777036003 9.336405249964877e-17 -2.3171542406210998e-17 9.336405249964877e-17 -2.3171542406210998e-17 -0.9986706068727538 -0.05154627986806858
12655552000.0 -0.9991258398214061 -0.041803782137519827 9.311332859279793e-17 -2.4084519932064027e-17 9.311332859279793e-17 -2.4084519932064027e-17 -0.9991258125260871 -0.04180443450063587
12656169333.333334 -0.9994860114915509 -0.032057960517533075 9.285368372931899e-17 -2.499480846164969e-17 9.285368372931899e-17 -2.499480846164969e-17 -0.9994859905606298 -0.03205861308398691
12656786666.666666 -0.9997511212847988 -0.0223090898429008 9.258514653383619e-17 -2.5902320892672767e-17 9.258514653383619e-17 -2.5902320892672767e-17 -0.9997511067196462 -0.022309742550609548
12657404000.0 -0.9999211439864284 -0.01255809733614929 9.230774648076186e-17 -2.6806970425603815e-17 9.230774648076186e-17 -2.6806970425603815e-17 -0.9999211357878076 -0.012558750123022664
12658021333.333334 -0.9999960634255209 -0.0028059104215842796 9.202151389110957e-17 -2.7708670571968456e-17 9.202151389110957e-17 -2.7708670571968456e-17 -0.9999960615935909 -0.002806563225530532
12658638666.666666 -0.999975872476502 0.006946543362774917 9.17264799292343e-17 -2.860733516258273e-17 9.17264799292343e-17 -2.860733516258273e-17 -0.9999758770108164 0.006945890603843101
12659256000.0 -0.9998605730598202 0.01669833645367005 9.142267659947461e-17 -2.950287835580605e-17 9.142267659947461e-17 -2.950287835580605e-17 -0.9998605839593269 0.01669768380182966
12659873333.333334 -0.9996501761417607 0.026448541350683082 9.111013674273948e-17 -3.039521464568405e-17 9.111013674273948e-17 -3.039521464568405e-17 -0.999650193404802 0.026447888867994856
12660490666.666666 -0.9993447017334074 0.03619623070428094 9.078889403300004e-17 -3.128425887010525e-17 9.078889403300004e-17 -3.128425887010525e-17 -0.9993447253577216 0.036195578452783504
12661108000.0 -0.9989441788887335 0.04594047740441434 9.045898297369627e-17 -3.216992621893365e-17 9.045898297369627e-17 -3.216992621893365e-17 -0.9989442088714523 0.04593982544611822
12661725333.333334 -0.9984486457018447 0.0556803546682696 9.012043889408677e-17 -3.305213224204537e-17 9.012043889408677e-17 -3.305213224204537e-17 -0.9984486820394969 0.055679703065151444
12662342666.666666 -0.9978581493033498 0.06541493612872823 8.977329794549728e-17 -3.3930792857388684e-17 8.977329794549728e-17 -3.3930792857388684e-17 -0.9978581919918601 0.06541428494272486
12662960000.0 -0.9971727458558823 0.07514329592233243 8.94175970975014e-17 -3.480582435897709e-17 8.94175970975014e-17 -3.480582435897709e-17 -0.9971727948905716 0.07514264521533498
12663577333.333334 -0.9963925005487612 0.08486450877734478 8.905337413402773e-17 -3.567714342483269e-17 8.905337413402773e-17 -3.567714342483269e-17 -0.9963925559243462 0.08486385861119265
12664194666.666666 -0.9955174875917758 0.09457765010186449 8.868066764938072e-17 -3.6544667124912363e-17 8.868066764938072e-17 -3.6544667124912363e-17 -0.9955175493023729 0.09457700053833985
12664812000.0 -0.9945477902081499 0.10428179607159666 8.829951704418978e-17 -3.740831292898003e-17 8.829951704418978e-17 -3.740831292898003e-17 -0.9945478582472722 0.10428114717241822
12665429333.333334 -0.9934835006266078 0.113976023717859 8.790996252127981e-17 -3.82679987144423e-17 8.790996252127981e-17 -3.82679987144423e-17 -0.9934835749871671 0.11397537554467625
12666046666.666666 -0.9923247200726212 0.12365941101519662 8.75120450814732e-17 -3.912364277412416e-17 8.75120450814732e-17 -3.912364277412416e-17 -0.99232480074693 0.12365876362958413
12666664000.0 -0.9910715587587504 0.13333103696938756 8.710580651929322e-17 -3.9975163824053553e-17 8.710580651929322e-17 -3.9975163824053553e-17 -0.9910716457385202 0.13333039043283884
12667281333.333334 -0.9897241358742027 0.14298998170464344 8.669128941863105e-17 -4.0822481011115175e-17 8.669128941863105e-17 -4.0822481011115175e-17 -0.9897242291505465 0.1429893360785653
12667898666.666666 -0.9882825795734704 0.1526353265513542 8.626853714830023e-17 -4.1665513920743866e-17 8.626853714830023e-17 -4.1665513920743866e-17 -0.9882826791369034 0.15263468189706092
12668516000.0 -0.9867470269641203 0.1622661541335752 8.583759385753337e-17 -4.250418258453523e-17 8.583759385753337e-17 -4.250418258453523e-17 -0.9867471328045601 0.1622655105122826
12669133333.333334 -0.9851176240938179 0.17188154845585818 8.539850447141521e-17 -4.3338407487790876e-17 8.539850447141521e-17 -4.3338407487790876e-17 -0.985117736200587 0.17188090592867786
12669750666.666666 -0.9833945259363764 0.1814805949907653 8.495131468622021e-17 -4.416810957706048e-17 8.495131468622021e-17 -4.416810957706048e-17 -0.9833946442982018 0.18147995361869892
12670368000.0 -0.9815778963770376 0.19106238076571042 8.449607096468863e-17 -4.4993210267614474e-17 8.449607096468863e-17 -4.4993210267614474e-17 -0.9815780209820536 0.19106174060964393
