! Parameters = {f0=12700.012000; bw=77.238000; Q=6100.000000; N=10; m_0_1=1.164660; m_1_1=-1.294851; m_1_2=0.999472; m_2_2=-1.295500; m_2_3=0.636435; m_2_8=-0.004703; m_2_9=0.032001; m_3_3=-1.297437; m_3_4=0.524964; m_3_7=-0.004103; m_3_8=-0.101191; m_3_9=-0.004703; m_4_4=-1.300362; m_4_5=0.361299; m_4_6=-0.000586; m_4_7=-0.121740; m_4_8=-0.004103; m_5_5=-1.299980; m_5_6=0.768654; m_5_7=-0.000586; m_6_6=-1.299981; m_6_7=0.361641; m_7_7=-1.300348; m_7_8=0.525082; m_8_8=-1.297439; m_8_9=0.636748; m_9_9=-1.295505; m_9_10=1.000550; m_10_10=-1.294861; m_10_11=1.165455}
!
! Created with skrf (http://scikit-rf.org).
# Hz S RI R 50.0 
!freq ReS11 ImS11 ReS21 ImS21 ReS12 ImS12 ReS22 ImS22
12607400000.0 -0.003363397869801106 0.9999943437613134 -1.8378486090480037e-17 -6.281290711380642e-17 -1.8378486090480037e-17 -6.281290711380642e-17 -0.003364011656228133 0.9999943416967058
12608017333.333334 0.004045394348301862 0.9999918173587317 -1.8845212550388373e-17 -6.266107366076112e-17 -1.8845212550388373e-17 -6.266107366076112e-17 0.004044780593483692 0.9999918198414436
12608634666.666666 0.011453964511738267 0.9999344011968063 -1.9310696518923635e-17 -6.250577625351243e-17 -1.9310696518923635e-17 -6.250577625351243e-17 0.011453350822213337 0.9999344082262569
12609252000.0 0.01886190596249113 0.9998220984271721 -1.9774912317612908e-17 -6.234702497849281e-17 -1.9774912317612908e-17 -6.234702497849281e-17 0.018861292371936948 0.9998221100025302
12609869333.333334 0.026268812077196307 0.9996549152141968 -2.023783434931084e-17 -6.218483011225923e-17 -2.023783434931084e-17 -6.218483011225923e-17 0.02626819861928166 0.9996549313343828
12610486666.666666 0.0336742762890928 0.999432860734655 -2.0699437099591586e-17 -6.201920212084627e-17 -2.0699437099591586e-17 -6.201920212084627e-17 0.03367366299747587 0.9994328813983381
12611104000.0 0.04107789211087902 0.9991559471772055 -2.1159695138163574e-17 -6.185015165909893e-17 -2.1159695138163574e-17 -6.185015165909893e-17 0.041077279019205555 0.9991559723828058
12611721333.333334 0.048479253156400025 0.9988241897417435 -2.161858312025289e-17 -6.167768957000477e-17 -2.161858312025289e-17 -6.167768957000477e-17 0.04847864029830152 0.998824219487433
12612338666.666666 0.05587795316346535 0.9984376066385487 -2.2076075787996872e-17 -6.150182688400977e-17 -2.2076075787996872e-17 -6.150182688400977e-17 0.055877340572557235 0.9984376409222511
12612956000.0 0.0632735860159218 0.9979962190872959 -2.2532147971841085e-17 -6.132257481832072e-17 -2.2532147971841085e-17 -6.132257481832072e-17 0.06327297372580151 0.9979962579066848
12613573333.333334 0.07066574576591667 0.9975000513158879 -2.2986774591897716e-17 -6.113994477620993e-17 -2.2986774591897716e-17 -6.113994477620993e-17 0.07066513381016182 0.9975000946683885
12614190666.666666 0.07805402665623712 0.9969491305591267 -2.3439930659331367e-17 -6.095394834629706e-17 -2.3439930659331367e-17 -6.095394834629706e-17 0.07805341506840373 0.9969491784419157
12614808000.0 0.0854380231426676 0.996343487057212 -2.389159127773062e-17 -6.07645973018244e-17 -2.389159127773062e-17 -6.07645973018244e-17 0.08543741195628818 0.9963435394672178
12615425333.333334 0.09281732991605131 0.9956831540540926 -2.4341731644458135e-17 -6.057190359992777e-17 -2.4341731644458135e-17 -6.057190359992777e-17 0.0928167191646331 0.9956832109879956
12616042666.666666 0.10019154192476488 0.9949681677956278 -2.4790327052021045e-17 -6.037587938088761e-17 -2.4790327052021045e-17 -6.037587938088761e-17 0.10019093164178794 0.9949682292498601
12616660000.0 0.10756025439672498 0.9941985675276156 -2.5237352889407785e-17 -6.017653696738071e-17 -2.5237352889407785e-17 -6.017653696738071e-17 0.10755964461564034 0.9941986334983614
12617277333.333334 0.11492306286183263 0.9933743954936158 -2.56827846434465e-17 -5.9973888863711e-17 -2.56827846434465e-17 -5.9973888863711e-17 0.11492245361606049 0.9933744659768118
12617894666.666666 0.12227956317394849 0.9924956969326564 -2.6126597900130017e-17 -5.976794775504178e-17 -2.6126597900130017e-17 -5.976794775504178e-17 0.12227895449687652 0.9924957719239927
12618512000.0 0.12962935153330282 0.9915625200767257 -2.656876834596203e-17 -5.955872650660646e-17 -2.656876834596203e-17 -5.955872650660646e-17 0.1296287434582841 0.9915625995716447
12619129333.333334 0.13697202450846205 0.9905749161481453 -2.70092717692717e-17 -5.934623816292076e-17 -2.70092717692717e-17 -5.934623816292076e-17 0.13697141706881338 0.9905750001418433
12619746666.666666 0.14430717905853005 0.9895329393567555 -2.7448084061537156e-17 -5.913049594697822e-17 -2.7448084061537156e-17 -5.913049594697822e-17 0.14430657228753024 0.9895330278441823
12620364000.0 0.15163441255549653 0.9884366468969072 -2.788518121871276e-17 -5.891151325943117e-17 -2.788518121871276e-17 -5.891151325943117e-17 0.15163380648638414 0.9884367398727656
12620981333.333334 0.15895332280585828 0.9872860989443885 -2.832053934250814e-17 -5.868930367778204e-17 -2.832053934250814e-17 -5.868930367778204e-17 0.15895271747183032 0.9872861964031363
12621598666.666666 0.16626350807320242 0.9860813586530498 -2.875413464171941e-17 -5.846388095553721e-17 -2.875413464171941e-17 -5.846388095553721e-17 0.1662629035074122 0.9860814605888989
12622216000.0 0.17356456709989249 0.984822492151392 -2.918594343350173e-17 -5.823525902137561e-17 -2.918594343350173e-17 -5.823525902137561e-17 0.17356396333544818 0.9848225985583104
12622833333.333334 0.180856099129346 0.983509568538897 -2.961594214467242e-17 -5.800345197829081e-17 -2.961594214467242e-17 -5.800345197829081e-17 0.18085549619930824 0.9835096794106064
12623450666.666666 0.18813770392783594 0.982142659882267 -3.0044107312980564e-17 -5.776847410273633e-17 -3.0044107312980564e-17 -5.776847410273633e-17 0.1881371018652162 0.9821427752122441
12624068000.0 0.19540898180654334 0.9807218412114527 -3.04704155883848e-17 -5.753033984375401e-17 -3.04704155883848e-17 -5.753033984375401e-17 0.1954083806443028 0.9807219609929325
12624685333.333334 0.20266953364358065 0.9792471905155228 -3.089484373433416e-17 -5.728906382208806e-17 -3.089484373433416e-17 -5.728906382208806e-17 0.2026689334146275 0.9792473147414952
12625302666.666666 0.20991896090570436 0.9777187887384197 -3.1317368628999537e-17 -5.704466082931224e-17 -3.1317368628999537e-17 -5.704466082931224e-17 0.20991836164289207 0.9777189174016301
12625920000.0 0.21715686567041195 0.9761367197744658 -3.173796726656337e-17 -5.679714582691269e-17 -3.173796726656337e-17 -5.679714582691269e-17 0.2171562674065385 0.9761368528674204
12626537333.333334 0.22438285064759161 0.9745010704638103 -3.215661675843902e-17 -5.654653394539623e-17 -3.215661675843902e-17 -5.654653394539623e-17 0.22438225341539633 0.9745012079787693
12627154666.666666 0.2315965192014112 0.9728119305876357 -3.2573294334515557e-17 -5.629284048337183e-17 -3.2573294334515557e-17 -5.629284048337183e-17 0.23159592303357368 0.9728120725166184
12627772000.0 0.23879747537217313 0.9710693928632125 -3.2987977344411184e-17 -5.603608090661317e-17 -3.2987977344411184e-17 -5.603608090661317e-17 0.2387968803013117 0.9710695391979982
12628389333.333334 0.2459853238978555 0.9692735529388589 -3.3400643258663667e-17 -5.57762708471453e-17 -3.3400643258663667e-17 -5.57762708471453e-17 0.24598472995652473 0.9692737036709845
12629006666.666666 0.25315967023600094 0.9674245093886402 -3.381126966998506e-17 -5.551342610227955e-17 -3.381126966998506e-17 -5.551342610227955e-17 0.2531590774566903 0.967424664509402
12629624000.0 0.26032012058529047 0.9655223637069787 -3.4219834294442643e-17 -5.524756263367983e-17 -3.4219834294442643e-17 -5.524756263367983e-17 0.2603195290004226 0.9655225232074338
12630241333.333334 0.2674662819071043 0.963567220303099 -3.462631497268282e-17 -5.4978696566389204e-17 -3.462631497268282e-17 -5.4978696566389204e-17 0.2674656915490331 0.9635673841740645
12630858666.666666 0.2745977619471513 0.9615591864952814 -3.503068967111303e-17 -5.4706844187868814e-17 -3.503068967111303e-17 -5.4706844187868814e-17 0.27459717284816 0.9615593547273356
12631476000.0 0.2817141692570811 0.9594983725049481 -3.5432936483102695e-17 -5.4432021947011633e-17 -3.5432936483102695e-17 -5.4432021947011633e-17 0.2817135814493808 0.9594985450884305
12632093333.333334 0.28881511321580783 0.9573848914506604 -3.5833033630154954e-17 -5.4154246453161514e-17 -3.5833033630154954e-17 -5.4154246453161514e-17 0.2888145267315354 0.9573850683756725
12632710666.666666 0.295900204051032 0.9552188593418843 -3.6230959463076726e-17 -5.387353447511937e-17 -3.6230959463076726e-17 -5.387353447511937e-17 0.29589961892224903 0.9552190405982911
12633328000.0 0.302969052860691 0.9530003950726085 -3.662669246316406e-17 -5.3589902940125354e-17 -3.662669246316406e-17 -5.3589902940125354e-17 0.3029684691193812 0.9530005806500381
12633945333.333334 0.31002127163425064 0.9507296204148337 -3.7020211243334243e-17 -5.330336893286408e-17 -3.7020211243334243e-17 -5.330336893286408e-17 0.3100206893123187 0.9507298103026784
12634562666.666666 0.3170564732739224 0.9484066600119144 -3.741149454929507e-17 -5.3013949694429343e-17 -3.741149454929507e-17 -5.3013949694429343e-17 0.3170558924031914 0.9484068541993292
12635180000.0 0.32407427161609964 0.9460316413716542 -3.7800521260673495e-17 -5.2721662621304275e-17 -3.7800521260673495e-17 -5.2721662621304275e-17 0.32407369222831045 0.946031839847561
12635797333.333334 0.3310742814523666 0.9436046948593726 -3.8187270392161654e-17 -5.2426525264314834e-17 -3.8187270392161654e-17 -5.2426525264314834e-17 0.33107370357917576 0.9436048976124592
12636414666.666666 0.3380561185507503 0.9411259536907125 -3.8571721094632244e-17 -5.212855532759098e-17 -3.8571721094632244e-17 -5.212855532759098e-17 0.33805554222372725 0.9411261607094307
12637032000.0 0.34501939967675554 0.9385955539243425 -3.895385265626113e-17 -5.182777066750919e-17 -3.895385265626113e-17 -5.182777066750919e-17 0.34501882492738273 0.9385957651969135
12637649333.333334 0.35196374261451024 0.9360136344544557 -3.933364450364131e-17 -5.1524189291626426e-17 -3.933364450364131e-17 -5.1524189291626426e-17 0.3519631694741798 0.9360138499688674
12638266666.666666 0.3588887661875565 0.9333803370032101 -3.971107620287435e-17 -5.121782935761742e-17 -3.971107620287435e-17 -5.121782935761742e-17 0.3588881946875697 0.9333805567472193
12638884000.0 0.36579409027998744 0.9306958061128718 -4.008612746067387e-17 -5.0908709172188147e-17 -4.008612746067387e-17 -5.0908709172188147e-17 0.3657935204515524 0.9306960300740041
12639501333.333334 0.37267933585712626 0.9279601891379521 -4.0458778125447494e-17 -5.059684718999141e-17 -4.0458778125447494e-17 -5.059684718999141e-17 0.37267876773135566 0.9279604173035022
12640118666.666666 0.3795441249863835 0.9251736362370973 -4.0829008188362087e-17 -5.02822620125417e-17 -4.0829008188362087e-17 -5.02822620125417e-17 0.37954355859429434 0.9251738685941315
12640736000.0 0.3863880808582135 0.9223363003647628 -4.1196797784437493e-17 -4.996497238709184e-17 -4.1196797784437493e-17 -4.996497238709184e-17 0.38638751623072426 0.9223365369001183
12641353333.333334 0.3932108278063506 0.9194483372630006 -4.15621271935752e-17 -4.964499720554915e-17 -4.15621271935752e-17 -4.964499720554915e-17 0.39321026497427997 0.9194485779632865
12641970666.666666 0.40001199132890103 0.9165099054527124 -4.192497684163588e-17 -4.9322355503334606e-17 -4.192497684163588e-17 -4.9322355503334606e-17 0.40001143032296577 0.9165101503043095
12642588000.0 0.4067911981085596 0.913521166225094 -4.2285327301464e-17 -4.899706645827354e-17 -4.2285327301464e-17 -4.899706645827354e-17 0.4067906389593735 0.9135214152141573
12643205333.333334 0.4135480760333104 0.9104822836326911 -4.2643159293932715e-17 -4.866914938945292e-17 -4.2643159293932715e-17 -4.866914938945292e-17 0.4135475187713828 0.9104825367451511
12643822666.666666 0.42028225421674703 0.9073934244804408 -4.2998453688963204e-17 -4.83386237560856e-17 -4.2998453688963204e-17 -4.83386237560856e-17 0.4202816988724803 0.9073936817020021
12644440000.0 0.4269933630185094 0.9042547583164802 -4.33511915065442e-17 -4.800550915636046e-17 -4.33511915065442e-17 -4.800550915636046e-17 0.42699280962219743 0.9042550196326222
12645057333.333334 0.4336810340643911 0.9010664574229212 -4.3701353917736483e-17 -4.766982532628938e-17 -4.3701353917736483e-17 -4.766982532628938e-17 0.4336804826462184 0.9010667228189018
12645674666.666666 0.44034490026676804 0.8978286968063024 -4.404892224566758e-17 -4.7331592138548623e-17 -4.404892224566758e-17 -4.7331592138548623e-17 0.4403443508568073 0.897828966267156
12646292000.0 0.4469845958447191 0.8945416541879895 -4.439387796653898e-17 -4.6990829601292866e-17 -4.439387796653898e-17 -4.6990829601292866e-17 0.4469840484729305 0.8945419276985298
12646909333.333334 0.4535997563439545 0.8912055099945002 -4.473620271058545e-17 -4.664755785699852e-17 -4.473620271058545e-17 -4.664755785699852e-17 0.45359921104018214 0.8912057875393186
12647526666.666666 0.4601900186569944 0.8878204473475069 -4.507587826305745e-17 -4.6301797181269735e-17 -4.507587826305745e-17 -4.6301797181269735e-17 0.46018947545096717 0.8878207289109759
12648144000.0 0.46675502104302724 0.8843866520538262 -4.541288656518496e-17 -4.5953567981646044e-17 -4.541288656518496e-17 -4.5953567981646044e-17 0.46675447996435526 0.8843869376200989
12648761333.333334 0.47329440314771337 0.8809043125952452 -4.5747209715128375e-17 -4.56028907964071e-17 -4.5747209715128375e-17 -4.56028907964071e-17 0.47329386422588776 0.8809046021482574
12649378666.666666 0.47980780602301715 0.8773736201181513 -4.6078829968920387e-17 -4.5249786293370756e-17 -4.6078829968920387e-17 -4.5249786293370756e-17 0.4798072692874073 0.8773739136416207
12649996000.0 0.4862948721469833 0.873794768422998 -4.6407729741403366e-17 -4.48942752686785e-17 -4.6407729741403366e-17 -4.48942752686785e-17 0.4862943376268358 0.873795065900426
12650613333.333334 0.492755245443212 0.8701679539537481 -4.6733891607159227e-17 -4.453637864557363e-17 -4.6733891607159227e-17 -4.453637864557363e-17 0.49275471316764896 0.8701682553684208
12651230666.666666 0.4991885713004786 0.866493375787051 -4.705729830141686e-17 -4.417611747318525e-17 -4.705729830141686e-17 -4.417611747318525e-17 0.4991880412984962 0.8664936811220401
12651848000.0 0.5055944965922481 0.8627712356212872 -4.7377932720968015e-17 -4.381351292528756e-17 -4.7377932720968015e-17 -4.381351292528756e-17 0.5055939688927154 0.8627715448594516
12652465333.333334 0.5119726696960337 0.8590017377655114 -4.769577792506252e-17 -4.344858629906446e-17 -4.769577792506252e-17 -4.344858629906446e-17 0.5119721443276894 0.859002050889496
12653082666.666666 0.5183227405124999 0.8551850891283502 -4.801081713628655e-17 -4.308135901387587e-17 -4.801081713628655e-17 -4.308135901387587e-17 0.518322217503953 0.8551854061205896
12653700000.0 0.5246443604850971 0.851321499206402 -4.832303374146343e-17 -4.271185260998239e-17 -4.832303374146343e-17 -4.271185260998239e-17 0.5246438398648239 0.8513218200491196
12654317333.333334 0.5309371826187781 0.8474111800729837 -4.86324112924958e-17 -4.2340088747318135e-17 -4.86324112924958e-17 -4.2340088747318135e-17 0.5309366644151209 0.8474115047481935
12654934666.666666 0.5372008614992395 0.8434543463663736 -4.893893350724704e-17 -4.196608920420272e-17 -4.893893350724704e-17 -4.196608920420272e-17 0.5372003457404059 0.8434546748558813
12655552000.0 0.5434350533119314 0.8394512152780002 -4.924258427038129e-17 -4.158987587608252e-17 -4.924258427038129e-17 -4.158987587608252e-17 0.543434540025991 0.839451547563403
12656169333.333334 0.5496394158607574 0.8354020065406224 -4.954334763420142e-17 -4.121147077425811e-17 -4.954334763420142e-17 -4.121147077425811e-17 0.5496389050756424 0.8354023426033124
12656786666.666666 0.5558136085870529 0.8313069424161514 -4.984120781948748e-17 -4.083089602459254e-17 -4.984120781948748e-17 -4.083089602459254e-17 0.5558131003305549 0.831307282237314
12657404000.0 0.5619572925880868 0.8271662476835717 -5.013614921630821e-17 -4.044817386623526e-17 -5.013614921630821e-17 -4.044817386623526e-17 0.5619567868878557 0.827166591244188
12658021333.333334 0.5680701306358757 0.8229801496264607 -5.042815638484188e-17 -4.0063326650315635e-17 -5.042815638484188e-17 -4.0063326650315635e-17 0.568069627519419 0.822980496907309
12658638666.666666 0.57415178719539 0.8187488780207218 -5.071721405616277e-17 -3.9676376838662667e-17 -5.071721405616277e-17 -3.9676376838662667e-17 0.574151286690071 0.8187492290023785
12659256000.0 0.580201928443394 0.8144726651216843 -5.100330713305217e-17 -3.9287347002473824e-17 -5.100330713305217e-17 -3.9287347002473824e-17 0.5802014305764284 0.8144730197845222
12659873333.333334 0.5862202222863686 0.8101517456516235 -5.128642069076044e-17 -3.8896259821029157e-17 -5.128642069076044e-17 -3.8896259821029157e-17 0.5862197270848262 0.8101521039758178
12660490666.666666 0.5922063383789317 0.8057863567867548 -5.156653997778729e-17 -3.8503138080363747e-17 -5.156653997778729e-17 -3.8503138080363747e-17 0.5922058458697328 0.8057867187522807
12661108000.0 0.5981599481420125 0.8013767381441754 -5.184365041664452e-17 -3.8108004671942843e-17 -5.184365041664452e-17 -3.8108004671942843e-17 0.5981594583519272 0.8013771037308104
12661725333.333334 0.6040807247807509 0.7969231317688138 -5.211773760459972e-17 -3.771088259134539e-17 -5.211773760459972e-17 -3.771088259134539e-17 0.6040802377363977 0.7969235009561392
12662342666.666666 0.6099683433025066 0.7924257821200973 -5.2388787314425663e-17 -3.731179493691982e-17 -5.2388787314425663e-17 -3.731179493691982e-17 0.6099678590303498 0.7924261548874971
12662960000.0 0.6158224805347389 0.7878849360584927 -5.2656785495122373e-17 -3.6910764908458204e-17 -5.2656785495122373e-17 -3.6910764908458204e-17 0.6158219990610884 0.7878853123851575
12663577333.333334 0.6216428151427009 0.7833008428319923 -5.292171827264623e-17 -3.65078158058417e-17 -5.292171827264623e-17 -3.65078158058417e-17 0.621642336493712 0.7833012226969207
12664194666.666666 0.6274290276470164 0.7786737540624908 -5.3183571950611966e-17 -3.610297102770469e-17 -5.3183571950611966e-17 -3.610297102770469e-17 0.6274285518486845 0.778674137444487
12664812000.0 0.6331808004413637 0.7740039237318419 -5.344233301099976e-17 -3.569625407007119e-17 -5.344233301099976e-17 -3.569625407007119e-17 0.6331803275195265 0.7740043106095197
12665429333.333334 0.6388978178097597 0.7692916081680468 -5.369798811484317e-17 -3.528768852500022e-17 -5.369798811484317e-17 -3.528768852500022e-17 0.6388973477900941 0.7692919985198312
12666046666.666666 0.6445797659439545 0.7645370660311305 -5.395052410290052e-17 -3.4877298079235257e-17 -5.395052410290052e-17 -3.4877298079235257e-17 0.6445792988519761 0.7645374598352572
12666664000.0 0.6502263329607214 0.7597405582988874 -5.419992799634162e-17 -3.446510651280909e-17 -5.419992799634162e-17 -3.446510651280909e-17 0.6502258688217822 0.759740955533405
12667281333.333334 0.6558372089188457 0.7549023482526667 -5.4446186997385315e-17 -3.4051137697705736e-17 -5.4446186997385315e-17 -3.4051137697705736e-17 0.6558367477581329 0.7549027488954373
12667898666.666666 0.6614120858361812 0.7500227014628852 -5.468928848996492e-17 -3.363541559645562e-17 -5.468928848996492e-17 -3.363541559645562e-17 0.6614116276787165 0.7500231054915864
12668516000.0 0.6669506577067272 0.7451018857742993 -5.492922004035831e-17 -3.3217964260766596e-17 -5.492922004035831e-17 -3.3217964260766596e-17 0.6669502025773649 0.7451022931664244
12669133333.333334 0.6724526205170609 0.7401401712916216 -5.516596939781368e-17 -3.279880783014147e-17 -5.516596939781368e-17 -3.279880783014147e-17 0.6724521684404868 0.7401405820244825
12669750666.666666 0.6779176722634087 0.7351378303643574 -5.5399524495172584e-17 -3.23779705304766e-17 -5.5399524495172584e-17 -3.23779705304766e-17 0.6779172232641391 0.7351382444150844
12670368000.0 0.6833455129679692 0.7300951375720807 -5.562987344946988e-17 -3.19554766726785e-17 -5.562987344946988e-17 -3.19554766726785e-17 0.6833450670703485 0.7300955549176241
