! Parameters = {f0=12700.012000; bw=77.238000; Q=6100.000000; N=10; m_0_1=1.319014; m_1_1=1.020465; m_1_2=1.153826; m_2_2=1.019816; m_2_3=0.790789; m_2_8=0.003014; m_2_9=0.039718; m_3_3=1.017879; m_3_4=0.679318; m_3_7=0.003614; m_3_8=-0.093474; m_3_9=0.003014; m_4_4=1.014954; m_4_5=0.515653; m_4_6=0.007131; m_4_7=-0.114023; m_4_8=0.003614; m_5_5=1.015336; m_5_6=0.923008; m_5_7=0.007131; m_6_6=1.015335; m_6_7=0.515995; m_7_7=1.014968; m_7_8=0.679436; m_8_8=1.017877; m_8_9=0.791102; m_9_9=1.019811; m_9_10=1.154904; m_10_10=1.020455; m_10_11=1.319809}
!
! Created with skrf (http://scikit-rf.org).
# Hz S RI R 50.0 
!freq ReS11 ImS11 ReS21 ImS21 ReS12 ImS12 ReS22 ImS22
12607400000.0 -0.8414637757536622 0.5403135331399733 9.055389993591128e-17 -1.0493246295420418e-16 9.055389993591128e-17 -1.0493246295420418e-16 -0.841464151186189 0.5403129484551665
12608017333.333334 -0.8349350327297185 0.5503485178688448 8.926431252379663e-17 -1.0599618218746904e-16 8.926431252379663e-17 -1.0599618218746904e-16 -0.8349354151162591 0.5503479377488846
12608634666.666666 -0.8282866223064581 0.5603046236717746 8.796224594661881e-17 -1.0704406701794967e-16 8.796224594661881e-17 -1.0704406701794967e-16 -0.8282870115915282 0.5603040481993554
12609252000.0 -0.8215194973700729 0.5701804235859326 8.664789446066949e-17 -1.080759712438625e-16 8.664789446066949e-17 -1.080759712438625e-16 -0.821519893497205 0.570179852843075
12609869333.333334 -0.8146346278215412 0.5799745021583864 8.532145403262714e-17 -1.0909175104455336e-16 8.532145403262714e-17 -1.0909175104455336e-16 -0.814635030733294 0.579973936226426
12610486666.666666 -0.8076330004377031 0.5896854556488591 8.398312231041005e-17 -1.1009126500046492e-16 8.398312231041005e-17 -1.1009126500046492e-16 -0.8076334100756675 0.5896848946084332
12611104000.0 -0.8005156187296427 0.5993118922311711 8.26330985937449e-17 -1.1107437411278434e-16 8.26330985937449e-17 -1.1107437411278434e-16 -0.8005160350344511 0.5993113361622079
12611721333.333334 -0.7932835027990964 0.6088524321924039 8.127158380458671e-17 -1.1204094182267367e-16 8.127158380458671e-17 -1.1204094182267367e-16 -0.7932839257104325 0.608851881174112
12612338666.666666 -0.7859376891920782 0.6183057081308783 7.989878045723795e-17 -1.1299083403019332e-16 7.989878045723795e-17 -1.1299083403019332e-16 -0.7859381186486841 0.618305162241734
12612956000.0 -0.7784792307503123 0.6276703651521335 7.851489262827936e-17 -1.139239191128369e-16 7.851489262827936e-17 -1.139239191128369e-16 -0.7784796666899985 0.6276698244698709
12613573333.333334 -0.7709091964604945 0.6369450610629189 7.712012592631496e-17 -1.1484006794367955e-16 7.712012592631496e-17 -1.1484006794367955e-16 -0.7709096388201485 0.6369445256645185
12614190666.666666 -0.7632286713009018 0.6461284665637872 7.571468746144462e-17 -1.157391539091983e-16 7.571468746144462e-17 -1.157391539091983e-16 -0.7632291200164966 0.6461279365254639
12614808000.0 -0.7554387560859754 0.6552192654395045 7.429878581457879e-17 -1.166210529266866e-16 7.429878581457879e-17 -1.166210529266866e-16 -0.7554392110925808 0.6552187408366986
12615425333.333334 -0.7475405673085314 0.6642161547477217 7.287263100653204e-17 -1.174856434613076e-16 7.287263100653204e-17 -1.174856434613076e-16 -0.7475410285403202 0.664215635655086
12616042666.666666 -0.7395352369797337 0.6731178450057164 7.143643446692253e-17 -1.1833280654276808e-16 7.143643446692253e-17 -1.1833280654276808e-16 -0.7395357043699939 0.6731173314971075
12616660000.0 -0.731423912466852 0.68192306037521 6.999040900287869e-17 -1.1916242578161266e-16 6.999040900287869e-17 -1.1916242578161266e-16 -0.7314243859479957 0.6819225525236771
12617277333.333334 -0.723207756328796 0.69063053884525 6.853476876755517e-17 -1.1997438738513954e-16 6.853476876755517e-17 -1.1997438738513954e-16 -0.7232082358323679 0.6906300367230229
12617894666.666666 -0.714887946149583 0.6992390324129799 6.70697292284849e-17 -1.207685801729192e-16 6.70697292284849e-17 -1.207685801729192e-16 -0.7148884316062737 0.699238536091463
12618512000.0 -0.7064656743693536 0.7077473072627436 6.559550713569849e-17 -1.2154489559195935e-16 6.559550713569849e-17 -1.2154489559195935e-16 -0.7064661657090047 0.7077468168125004
12619129333.333334 -0.6979421481137323 0.7161541439426286 6.4112320489755e-17 -1.2230322773143377e-16 6.4112320489755e-17 -1.2230322773143377e-16 -0.6979426452653507 0.7161536594333754
12619746666.666666 -0.6893185890206438 0.7244583375394333 6.262038850952474e-17 -1.2304347333706505e-16 6.262038850952474e-17 -1.2304347333706505e-16 -0.6893190919124093 0.7244578590400279
12620364000.0 -0.6805962330651119 0.7326586978514551 6.111993159982015e-17 -1.2376553182510638e-16 6.111993159982015e-17 -1.2376553182510638e-16 -0.6805967416243902 0.732658225429888
12620981333.333334 -0.6717763303825084 0.740754049558706 5.961117131895221e-17 -1.2446930529588881e-16 5.961117131895221e-17 -1.2446930529588881e-16 -0.6717768445358587 0.7407535832820887
12621598666.666666 -0.6628601450889603 0.7487432323917541 5.809433034599751e-17 -1.2515469854703848e-16 5.809433034599751e-17 -1.2515469854703848e-16 -0.6628606647621487 0.7487427723263127
12622216000.0 -0.6538489551003805 0.7566251012978298 5.656963244800383e-17 -1.2582161908625385e-16 5.656963244800383e-17 -1.2582161908625385e-16 -0.6538494802183876 0.7566246475088916
12622833333.333334 -0.6447440519492431 0.7643985266049916 5.503730244703555e-17 -1.2646997714368974e-16 5.503730244703555e-17 -1.2646997714368974e-16 -0.6447445824362775 0.7643980791569794
12623450666.666666 -0.6355467405995636 0.7720623941839687 5.349756618708681e-17 -1.2709968568393978e-16 5.349756618708681e-17 -1.2709968568393978e-16 -0.635547276379072 0.77206195314039
12624068000.0 -0.6262583392597774 0.7796156056079158 5.195065050081166e-17 -1.2771066041763552e-16 5.195065050081166e-17 -1.2771066041763552e-16 -0.6262588802544548 0.7796151710313538
12624685333.333334 -0.6168801791936708 0.7870570783099496 5.039678317615203e-17 -1.2830281981262862e-16 5.039678317615203e-17 -1.2830281981262862e-16 -0.6168807253254733 0.7870566502620556
12625302666.666666 -0.6074136045300483 0.794385745737941 4.8836192922898794e-17 -1.2887608510474648e-16 4.8836192922898794e-17 -1.2887608510474648e-16 -0.6074141557202023 0.7943853242794227
12625920000.0 -0.5978599720694097 0.8016005575078998 4.7269109339007163e-17 -1.2943038030818793e-16 4.7269109339007163e-17 -1.2943038030818793e-16 -0.597860528238425 0.801600142698516
12626537333.333334 -0.58822065109014 0.8087004795540204 4.569576287691752e-17 -1.299656322254664e-16 4.569576287691752e-17 -1.299656322254664e-16 -0.5882212121578211 0.8087000714525713
12627154666.666666 -0.5784970231518763 0.8156844942771858 4.4116384809709956e-17 -1.3048177045696422e-16 4.4116384809709956e-17 -1.3048177045696422e-16 -0.5784975890373325 0.8156840929415037
12627772000.0 -0.5686904818974655 0.8225516006908253 4.25312071970971e-17 -1.3097872741009467e-16 4.25312071970971e-17 -1.3097872741009467e-16 -0.5686910525191244 0.8225512061777678
12628389333.333334 -0.5588024328535239 0.8293008145641684 4.094046285146403e-17 -1.3145643830800224e-16 4.094046285146403e-17 -1.3145643830800224e-16 -0.5588030081291416 0.8293004269296093
12629006666.666666 -0.5488342932286624 0.8359311685635399 3.934438530364895e-17 -1.3191484119790496e-16 3.934438530364895e-17 -1.3191484119790496e-16 -0.5488348730753365 0.8359307878623619
12629624000.0 -0.5387874917105274 0.8424417123908859 3.7743208768751655e-17 -1.3235387695898365e-16 3.7743208768751655e-17 -1.3235387695898365e-16 -0.5387880760447088 0.8424413386769735
12630241333.333334 -0.5286634682610116 0.8488315129199959 3.6137168111788846e-17 -1.3277348930987822e-16 3.6137168111788846e-17 -1.3277348930987822e-16 -0.528664056998515 0.8488311462462252
12630858666.666666 -0.5184636739100377 0.8550996543301352 3.452649881331334e-17 -1.3317362481575453e-16 3.452649881331334e-17 -1.3317362481575453e-16 -0.5184642669660565 0.8550992947483699
12631476000.0 -0.5081895705470852 0.8612452382376234 3.291143693489303e-17 -1.3355423289497154e-16 3.291143693489303e-17 -1.3355423289497154e-16 -0.5081901678362012 0.8612448857987045
12632093333.333334 -0.4978426307123136 0.8672673838241884 3.129221908460975e-17 -1.339152658253084e-16 3.129221908460975e-17 -1.339152658253084e-16 -0.4978432321485113 0.8672670385779303
12632710666.666666 -0.48742433738510477 0.8731652279634726 2.966908238242043e-17 -1.3425667874979223e-16 2.966908238242043e-17 -1.3425667874979223e-16 -0.48742494288178084 0.8731648899586506
12633328000.0 -0.4769361837715031 0.878937925344722 2.8042264425460315e-17 -1.3457842968210266e-16 2.8042264425460315e-17 -1.3457842968210266e-16 -0.4769367932414833 0.8789375946290731
12633945333.333334 -0.4663796730904077 0.8845846485938442 2.6412003253344696e-17 -1.3488047951154894e-16 2.6412003253344696e-17 -1.3488047951154894e-16 -0.46638028644595453 0.8845843252140516
12634562666.666666 -0.4557563183580175 0.8901045883920355 2.4778537313365762e-17 -1.3516279200763597e-16 2.4778537313365762e-17 -1.3516279200763597e-16 -0.4557569355108468 0.8901042723937301
12635180000.0 -0.4450676421709066 0.8954969535918257 2.3142105425667038e-17 -1.354253338242061e-16 2.3142105425667038e-17 -1.354253338242061e-16 -0.44506826303219754 0.8954966450195739
12635797333.333334 -0.4343151764878939 0.900760971330408 2.150294674836938e-17 -1.3566807450316075e-16 2.150294674836938e-17 -1.3566807450316075e-16 -0.43431580096830347 0.9007606702277088
12636414666.666666 -0.4235004624105807 0.9058958871403686 1.9861300742680955e-17 -1.3589098647775913e-16 1.9861300742680955e-17 -1.3589098647775913e-16 -0.42350109042025574 0.9058955935496456
12637032000.0 -0.4126250499621889 0.9109009650579537 1.821740713793793e-17 -1.3609404507549906e-16 1.821740713793793e-17 -1.3609404507549906e-16 -0.4126256814107796 0.9109006790205506
12637649333.333334 -0.4016904978656084 0.9157754877284545 1.6571505896658687e-17 -1.3627722852057203e-16 1.6571505896658687e-17 -1.3627722852057203e-16 -0.40169113266228085 0.9157752092846284
12638266666.666666 -0.3906983733199416 0.9205187565090471 1.4923837179558285e-17 -1.3644051793589758e-16 1.4923837179558285e-17 -1.3644051793589758e-16 -0.3906990113733901 0.9205184856979609
12638884000.0 -0.37965025177588185 0.9251300915689206 1.3274641310555677e-17 -1.3658389734473564e-16 1.3274641310555677e-17 -1.3658389734473564e-16 -0.37965089299434385 0.9251298284286418
12639501333.333334 -0.3685477167098883 0.9296088319867339 1.1624158741743601e-17 -1.3670735367187853e-16 1.1624158741743601e-17 -1.3670735367187853e-16 -0.3685483610011558 0.929608576554225
12640118666.666666 -0.3573923593974149 0.9339543358452591 9.972630018442924e-18 -1.3681087674441324e-16 9.972630018442924e-18 -1.3681087674441324e-16 -0.35739300666884966 0.9339540881563774
12640736000.0 -0.34618577868428796 0.9381659803236114 8.32029574407042e-18 -1.368944592920754e-16 8.32029574407042e-18 -1.368944592920754e-16 -0.34618642884283285 0.9381657404130985
12641353333.333334 -0.33492958075844936 0.9422431617861606 6.667396545288052e-18 -1.3695809694716269e-16 6.667396545288052e-18 -1.3695809694716269e-16 -0.33493023371064234 0.9422429296876392
12641970666.666666 -0.3236253789189268 0.9461852958693614 5.014173036866752e-18 -1.3700178824404479e-16 5.014173036866752e-18 -1.3700178824404479e-16 -0.3236260345709156 0.9461850716153345
12642588000.0 -0.3122747933450074 0.9499918175653633 3.3608657867874495e-18 -1.37025534618238e-16 3.3608657867874495e-18 -1.37025534618238e-16 -0.31227545160256126 0.949991601187204
12643205333.333334 -0.3008794508639973 0.9536621813029972 1.7077152812574929e-18 -1.3702934040506523e-16 1.7077152812574929e-18 -1.3702934040506523e-16 -0.300880111632521 0.9536619728309464
12643822666.666666 -0.2894409847178394 0.9571958610260382 5.49618897642525e-20 -1.3701321283789306e-16 5.49618897642525e-20 -1.3701321283789306e-16 -0.2894416479023878 0.9571956604892029
12644440000.0 -0.27796103432929964 0.9605923502685191 -1.5971541698094824e-18 -1.3697716204594786e-16 -1.5971541698094824e-18 -1.3697716204594786e-16 -0.2779616998345902 0.9605921576948647
12645057333.333334 -0.26644124506696965 0.9638511622273297 -3.24839286605782e-18 -1.3692120105171276e-16 -3.24839286605782e-18 -1.3692120105171276e-16 -0.2664419127973967 0.9638509776436786
12645674666.666666 -0.25488326800933525 0.9669718298320238 -4.8985143888794856e-18 -1.3684534576790493e-16 -4.8985143888794856e-18 -1.3684534576790493e-16 -0.2548839378689836 0.9669716532640503
12646292000.0 -0.24328875970791433 0.9699539058118158 -6.5472791842869355e-18 -1.367496149940312e-16 -6.5472791842869355e-18 -1.367496149940312e-16 -0.24328943160057284 0.9699537372840425
12646909333.333334 -0.23165938195043442 0.9727969627595235 -8.194447989086926e-18 -1.3663403041253045e-16 -8.194447989086926e-18 -1.3663403041253045e-16 -0.23166005577961016 0.9727968022953194
12647526666.666666 -0.21999680152213624 0.9755005931929724 -9.83978186559469e-18 -1.3649861658449381e-16 -9.83978186559469e-18 -1.3649861658449381e-16 -0.219997477191068 0.9755004408145475
12648144000.0 -0.20830268996693282 0.9780644096133704 -1.1483042236244398e-17 -1.3634340094496903e-16 -1.1483042236244398e-17 -1.3634340094496903e-16 -0.20830336737860536 0.9780642653417744
12648761333.333334 -0.19657872334805745 0.9804880445607991 -1.31239909181222e-17 -1.3616841379785077e-16 -1.31239909181222e-17 -1.3616841379785077e-16 -0.19657940240521493 0.9804879084159169
12649378666.666666 -0.1848265820078415 0.9827711506668824 -1.4762390157443978e-17 -1.359736883103554e-16 -1.4762390157443978e-17 -1.359736883103554e-16 -0.18482726261300222 0.9827710226674345
12649996000.0 -0.17304795032662976 0.9849134007046321 -1.639800266397651e-17 -1.3575926050707853e-16 -1.639800266397651e-17 -1.3575926050707853e-16 -0.1730486323820991 0.9849132808681668
12650613333.333334 -0.1612445164814183 0.9869144876353196 -1.8030591645346824e-17 -1.3552516926364236e-16 -1.8030591645346824e-17 -1.3552516926364236e-16 -0.1612451998893037 0.986914375978215
12651230666.666666 -0.14941797220429004 0.9887741246524252 -1.965992084126216e-17 -1.352714562999336e-16 -1.965992084126216e-17 -1.352714562999336e-16 -0.14941865686651468 0.9887740211898861
12651848000.0 -0.13757001253927334 0.9904920452228562 -2.1285754557692892e-17 -1.3499816617292117e-16 -2.1285754557692892e-17 -1.3499816617292117e-16 -0.13757069835759012 0.9904919499689112
12652465333.333334 -0.1257023355999316 0.9920680031250553 -2.2907857700886806e-17 -1.3470534626907537e-16 -2.2907857700886806e-17 -1.3470534626907537e-16 -0.1257030224759373 0.9920679160925547
12653082666.666666 -0.11381664232598195 0.9935017724843025 -2.452599581131379e-17 -1.3439304679637573e-16 -2.452599581131379e-17 -1.3439304679637573e-16 -0.11381733016113146 0.9935016936849188
12653700000.0 -0.10191463623894306 0.9947931478051583 -2.6139935097565867e-17 -1.3406132077589828e-16 -2.6139935097565867e-17 -1.3406132077589828e-16 -0.10191532493456339 0.9947930772493809
12654317333.333334 -0.08999802319876721 0.9959419440008163 -2.774944246999818e-17 -1.33710224033026e-16 -2.774944246999818e-17 -1.33710224033026e-16 -0.08999871265607166 0.9959418816979537
12654934666.666666 -0.07806851115878294 0.996947996419704 -2.9354285574418976e-17 -1.333398151882247e-16 -2.9354285574418976e-17 -1.333398151882247e-16 -0.07806920127888521 0.9969479423778794
12655552000.0 -0.06612780992092916 0.9978111608690655 -3.0954232825586437e-17 -1.329501556474266e-16 -3.0954232825586437e-17 -1.329501556474266e-16 -0.06612850060485777 0.9978111150952189
12656169333.333334 -0.054177630891094244 0.9985313136356012 -3.2549053440509533e-17 -1.3254130959203328e-16 -3.2549053440509533e-17 -1.3254130959203328e-16 -0.05417832203980637 0.9985312761354856
12656786666.666666 -0.04221968683343107 0.9991083515032281 -3.413851747178148e-17 -1.3211334396847905e-16 -3.413851747178148e-17 -1.3211334396847905e-16 -0.0422203783478271 0.9991083222814114
12657404000.0 -0.03025569162504473 0.999542191767862 -3.572239584062767e-17 -1.3166632847743275e-16 -3.572239584062767e-17 -1.3166632847743275e-16 -0.030256383405982256 0.9995421708277248
12658021333.333334 -0.018287360010265086 0.9998327722492729 -3.730046036990485e-17 -1.3120033556258114e-16 -3.730046036990485e-17 -1.3120033556258114e-16 -0.018288051958573182 0.9998327595930087
12658638666.666666 -0.006316407355164558 0.9999800512999917 -3.8872483816885556e-17 -1.3071544039903788e-16 -3.8872483816885556e-17 -1.3071544039903788e-16 -0.006317099371657963 0.999980046928607
12659256000.0 0.005655450598865736 0.9999840078112922 -4.043823990600892e-17 -1.302117208813254e-16 -4.043823990600892e-17 -1.302117208813254e-16 0.005654758613372381 0.999984011724605
12659873333.333334 0.017626497980513817 0.999844641216201 -4.199750336133326e-17 -1.2968925761100932e-16 -4.199750336133326e-17 -1.2968925761100932e-16 0.01762580612519175 0.9998446534128428
12660490666.666666 0.02959501903447478 0.9995619714895924 -4.3550049938920124e-17 -1.291481338839183e-16 -4.3550049938920124e-17 -1.291481338839183e-16 0.029594327408466917 0.9995619919670073
12661108000.0 0.04155929836790197 0.9991360391453105 -4.5095656459069736e-17 -1.2858843567697055e-16 -4.5095656459069736e-17 -1.2858843567697055e-16 0.04155860707030867 0.9991360678997565
12661725333.333334 0.0535176211955844 0.9985669052303792 -4.6634100838305056e-17 -1.2801025163464529e-16 -4.6634100838305056e-17 -1.2801025163464529e-16 0.05351693032544934 0.9985669422569281
12662342666.666666 0.06546827358617374 0.9978546513162412 -4.816516212127535e-17 -1.2741367305503892e-16 -4.816516212127535e-17 -1.2741367305503892e-16 0.06546758324246967 0.9978546966087803
12662960000.0 0.07740954270766354 0.9969993794870691 -4.968862051242501e-17 -1.2679879387556267e-16 -4.968862051242501e-17 -1.2679879387556267e-16 0.07740885298927809 0.9969994330383016
12663577333.333334 0.08933971707291026 0.9960012123251379 -5.1204257407503196e-17 -1.2616571065825337e-16 -5.1204257407503196e-17 -1.2616571065825337e-16 0.08933902807863175 0.9960012741265826
12664194666.666666 0.10125708678493239 0.994860292893249 -5.2711855424884295e-17 -1.255145225747098e-16 -5.2711855424884295e-17 -1.255145225747098e-16 0.10125639861343588 0.9948603629352453
12664812000.0 0.11315994378198253 0.9935767847142315 -5.421119843669867e-17 -1.2484533139065634e-16 -5.421119843669867e-17 -1.2484533139065634e-16 0.11315925653181547 0.993576862985938
12665429333.333334 0.12504658208238423 0.992150871747501 -5.570207159977219e-17 -1.2415824145013273e-16 -5.570207159977219e-17 -1.2415824145013273e-16 0.12504589585195233 0.9921509582368973
12666046666.666666 0.13691529802890087 0.9905827583627064 -5.718426138634622e-17 -1.234533596593257e-16 -5.718426138634622e-17 -1.234533596593257e-16 0.13691461291645443 0.9905828530565973
12666664000.0 0.1487643905332242 0.9888726693104067 -5.865755561465008e-17 -1.2273079547000814e-16 -5.865755561465008e-17 -1.2273079547000814e-16 0.1487637066368433 0.98887277219442
12667281333.333334 0.16059216131938794 0.9870208496899036 -6.012174347917886e-17 -1.2199066086265546e-16 -6.012174347917886e-17 -1.2199066086265546e-16 0.16059147873696913 0.9870209607484968
12667898666.666666 0.17239691516745612 0.9850275649140772 -6.157661558083938e-17 -1.212330703291632e-16 -6.157661558083938e-17 -1.212330703291632e-16 0.1723962339966979 0.985027684130536
12668516000.0 0.18417696015649057 0.9828931006713428 -6.302196395686577e-17 -1.2045814085521205e-16 -6.302196395686577e-17 -1.2045814085521205e-16 0.18417628049487972 0.9828932280277869
12669133333.333334 0.19593060790679384 0.9806177628847471 -6.4457582110432e-17 -1.1966599190231955e-16 -6.4457582110432e-17 -1.1966599190231955e-16 0.1959299298515913 0.9806178983621305
12669750666.666666 0.20765617382217721 0.9782018776680736 -6.588326504017411e-17 -1.1885674538947048e-16 -6.588326504017411e-17 -1.1885674538947048e-16 0.20765549747040435 0.9782020212461894
