! Parameters = {f0=12700.012000; bw=77.238000; Q=6100.000000; N=10; m_0_1=1.248744; m_1_1=-0.033590; m_1_2=1.083556; m_2_2=-0.034239; m_2_3=0.720519; m_2_8=-0.000499; m_2_9=0.036205; m_3_3=-0.036176; m_3_4=0.609048; m_3_7=0.000101; m_3_8=-0.096987; m_3_9=-0.000499; m_4_4=-0.039101; m_4_5=0.445383; m_4_6=0.003618; m_4_7=-0.117536; m_4_8=0.000101; m_5_5=-0.038719; m_5_6=0.852738; m_5_7=0.003618; m_6_6=-0.038720; m_6_7=0.445725; m_7_7=-0.039087; m_7_8=0.609166; m_8_8=-0.036178; m_8_9=0.720832; m_9_9=-0.034244; m_9_10=1.084634; m_10_10=-0.033600; m_10_11=1.249539}
!
! Created with skrf (http://scikit-rf.org).
# Hz S RI R 50.0 
!freq ReS11 ImS11 ReS21 ImS21 ReS12 ImS12 ReS22 ImS22
12607400000.0 0.5050599067388911 0.8630842893974668 -7.29029019802739e-17 -6.837176150850129e-17 -7.29029019802739e-17 -6.837176150850129e-17 0.5050593388718723 0.8630846217017986
12608017333.333334 0.5135748803582695 0.858044778706111 -7.356741936416326e-17 -6.762731222595023e-17 -7.356741936416326e-17 -6.762731222595023e-17 0.5135743158346404 0.8580451165963305
12608634666.666666 0.5220395742532513 0.8529212641934273 -7.42243437721168e-17 -6.687641383914457e-17 -7.42243437721168e-17 -6.687641383914457e-17 0.52203901312795 0.8529216076359099
12609252000.0 0.530453159718171 0.8477142474589167 -7.48736127125346e-17 -6.611914370423794e-17 -7.48736127125346e-17 -6.611914370423794e-17 0.5304526020457976 0.8477145964194975
12609869333.333334 0.5388148130509044 0.8424242382770972 -7.55151644810461e-17 -6.535557978193783e-17 -7.55151644810461e-17 -6.535557978193783e-17 0.5388142588857147 0.8424245927210738
12610486666.666666 0.5471237156334634 0.837051754547628 -7.61489381663469e-17 -6.45858006295048e-17 -7.61489381663469e-17 -6.45858006295048e-17 0.5471231650293646 0.8370521144397642
12611104000.0 0.5553790540124737 0.8315973222443895 -7.677487365596466e-17 -6.380988539268227e-17 -7.677487365596466e-17 -6.380988539268227e-17 0.5553785070230197 0.8315976875489198
12611721333.333334 0.5635800199783373 0.8260614753643019 -7.739291164191495e-17 -6.302791379760616e-17 -7.739291164191495e-17 -6.302791379760616e-17 0.5635794766567226 0.8260618460449338
12612338666.666666 0.5717258106446895 0.8204447558748252 -7.800299362631756e-17 -6.223996614260711e-17 -7.800299362631756e-17 -6.223996614260711e-17 0.5717252710437449 0.8204451318947453
12612956000.0 0.5798156285269566 0.8147477136609346 -7.860506192689551e-17 -6.144612329000023e-17 -7.860506192689551e-17 -6.144612329000023e-17 0.5798150926991422 0.8147480949828079
12613573333.333334 0.5878486816203093 0.8089709064713602 -7.919905968239175e-17 -6.06464666578229e-17 -7.919905968239175e-17 -6.06464666578229e-17 0.587848149617712 0.808971293057338
12614190666.666666 0.595824183477299 0.803114899863923 -7.978493085793448e-17 -5.984107821147748e-17 -7.978493085793448e-17 -5.984107821147748e-17 0.595823655351626 0.8031152916756452
12614808000.0 0.603741353284828 0.7971802671501818 -8.036262025027647e-17 -5.903004045537647e-17 -8.036262025027647e-17 -5.903004045537647e-17 0.6037408290874005 0.7971806641487786
12615425333.333334 0.6115994159405664 0.7911675893393183 -8.093207349297738e-17 -5.821343642450166e-17 -8.093207349297738e-17 -5.821343642450166e-17 0.611598895722318 0.7911679914854183
12616042666.666666 0.6193976021289306 0.7850774550811922 -8.149323706148851e-17 -5.739134967592928e-17 -8.149323706148851e-17 -5.739134967592928e-17 0.6193970859403989 0.7850778623349222
12616660000.0 0.6271351483962614 0.7789104606088104 -8.204605827816171e-17 -5.656386428029276e-17 -8.204605827816171e-17 -5.656386428029276e-17 0.6271346362875859 0.7789108729298024
12617277333.333334 0.6348112972256819 0.77266720967987 -8.259048531715724e-17 -5.57310648132185e-17 -8.259048531715724e-17 -5.57310648132185e-17 0.634810789246597 0.7726676270272634
12617894666.666666 0.6424252971111039 0.7663483135177759 -8.312646720927016e-17 -5.489303634670793e-17 -8.312646720927016e-17 -5.489303634670793e-17 0.6424247933109344 0.7663487358502213
12618512000.0 0.6499764026311298 0.759954390751527 -8.365395384669411e-17 -5.404986444043566e-17 -8.365395384669411e-17 -5.404986444043566e-17 0.6499759030587877 0.7599548180271923
12619129333.333334 0.6574638745215944 0.7534860673555168 -8.41728959876448e-17 -5.320163513308277e-17 -8.41728959876448e-17 -5.320163513308277e-17 0.6574633792255722 0.7534864995320891
12619746666.666666 0.6648869797482239 0.746943976588014 -8.468324526094654e-17 -5.234843493354784e-17 -8.468324526094654e-17 -5.234843493354784e-17 0.6648864887765908 0.7469444136227048
12620364000.0 0.6722449915784605 0.7403287589291028 -8.518495417051401e-17 -5.149035081213761e-17 -8.518495417051401e-17 -5.149035081213761e-17 0.6722445049788582 0.740329200778653
12620981333.333334 0.6795371896522947 0.7336410620182666 -8.567797609971942e-17 -5.0627470191759306e-17 -8.567797609971942e-17 -5.0627470191759306e-17 0.6795367074719325 0.73364150863895
12621598666.666666 0.6867628600530863 0.7268815405907166 -8.616226531571253e-17 -4.97598809390008e-17 -8.616226531571253e-17 -4.97598809390008e-17 0.6867623823387353 0.7268819919383437
12622216000.0 0.6939212953773085 0.7200508564134261 -8.663777697362055e-17 -4.888767135522109e-17 -8.663777697362055e-17 -4.888767135522109e-17 0.6939208221752977 0.7200513124433479
12622833333.333334 0.7010117948039274 0.7131496782202219 -8.710446712067618e-17 -4.801093016756919e-17 -8.710446712067618e-17 -4.801093016756919e-17 0.7010113261601416 0.713150138887338
12623450666.666666 0.7080336641628113 0.7061786816465172 -8.756229270023345e-17 -4.712974652000366e-17 -8.756229270023345e-17 -4.712974652000366e-17 0.7080332001226826 0.7061791469052754
12624068000.0 0.714986216002873 0.6991385491629843 -8.801121155571728e-17 -4.6244209964229645e-17 -8.801121155571728e-17 -4.6244209964229645e-17 0.7149857566113794 0.6991390189673888
12624685333.333334 0.7218687696593513 0.6920299700087597 -8.845118243447542e-17 -4.535441045060814e-17 -8.845118243447542e-17 -4.535441045060814e-17 0.7218683149610106 0.6920304443123733
12625302666.666666 0.7286806513203278 0.6848536401240869 -8.888216499151445e-17 -4.446043831908021e-17 -8.888216499151445e-17 -4.446043831908021e-17 0.7286802013591952 0.6848541188800372
12625920000.0 0.7354211940928759 0.6776102620820019 -8.930411979318587e-17 -4.356238428996948e-17 -8.930411979318587e-17 -4.356238428996948e-17 0.735420748912537 0.6776107452429846
12626537333.333334 0.7420897380681487 0.6703005450197514 -8.971700832074448e-17 -4.266033945482421e-17 -8.971700832074448e-17 -4.266033945482421e-17 0.7420892977117187 0.6703010325380364
12627154666.666666 0.7486856303860727 0.6629252045692928 -9.012079297382801e-17 -4.175439526719805e-17 -9.012079297382801e-17 -4.175439526719805e-17 0.7486851948961886 0.662925696396727
12627772000.0 0.7552082252994445 0.6554849627870137 -9.051543707385474e-17 -4.0844643533372285e-17 -9.051543707385474e-17 -4.0844643533372285e-17 0.7552077947182639 0.6554854588750282
12628389333.333334 0.7616568842367775 0.6479805480834698 -9.090090486729879e-17 -3.9931176403113945e-17 -9.090090486729879e-17 -3.9931176403113945e-17 0.7616564586059725 0.647981048383082
12629006666.666666 0.7680309758651546 0.6404126951516876 -9.127716152891121e-17 -3.901408636031262e-17 -9.127716152891121e-17 -3.901408636031262e-17 0.7680305552259091 0.6404131996135084
12629624000.0 0.7743298761518878 0.6327821448954073 -9.164417316480735e-17 -3.809346621368105e-17 -9.164417316480735e-17 -3.809346621368105e-17 0.7743294605448933 0.6327826534696446
12630241333.333334 0.7805529684256118 0.6250896443565485 -9.200190681548862e-17 -3.716940908735933e-17 -9.200190681548862e-17 -3.716940908735933e-17 0.7805525578910624 0.6250901569930123
12630858666.666666 0.7866996434366227 0.6173359466421182 -9.235033045875809e-17 -3.6242008411523063e-17 -9.235033045875809e-17 -3.6242008411523063e-17 0.7866992380142132 0.6173364632902266
12631476000.0 0.7927692994166857 0.6095218108502825 -9.268941301254799e-17 -3.531135791294308e-17 -9.268941301254799e-17 -3.531135791294308e-17 0.7927688991456053 0.6095223314590649
12632093333.333334 0.7987613421377848 0.6016480019962457 -9.301912433763993e-17 -3.437755160555657e-17 -9.301912433763993e-17 -3.437755160555657e-17 0.798760947056716 0.6016485265143494
12632710666.666666 0.8046751849703059 0.5937152909373601 -9.333943524030287e-17 -3.3440683780979105e-17 -9.333943524030287e-17 -3.3440683780979105e-17 0.8046747951174178 0.5937158193130541
12633328000.0 0.8105102489406187 0.5857244542974507 -9.365031747483984e-17 -3.25008489989791e-17 -9.365031747483984e-17 -3.25008489989791e-17 0.810509864353566 0.5857249864786319
12633945333.333334 0.8162659627875745 0.5776762743910342 -9.395174374601611e-17 -3.155814207799582e-17 -9.395174374601611e-17 -3.155814207799582e-17 0.8162655835034917 0.5776768103252319
12634562666.666666 0.8219417630185804 0.5695715391465215 -9.42436877114188e-17 -3.061265808555825e-17 -9.42436877114188e-17 -3.061265808555825e-17 0.8219413890740811 0.5695720787809032
12635180000.0 0.827537093964657 0.5614110420292434 -9.452612398370124e-17 -2.9664492328738774e-17 -9.452612398370124e-17 -2.9664492328738774e-17 0.8275367253958268 0.5614115853106187
12635797333.333334 0.8330514078349134 0.5531955819636479 -9.47990281327431e-17 -2.8713740344552035e-17 -9.47990281327431e-17 -2.8713740344552035e-17 0.8330510446773087 0.5531961288384754
12636414666.666666 0.8384841647700865 0.5449259632552307 -9.506237668770521e-17 -2.776049789036428e-17 -9.506237668770521e-17 -2.776049789036428e-17 0.8384838070587302 0.5449265136696214
12637032000.0 0.8438348328955496 0.5366029955115523 -9.531614713900042e-17 -2.6804860934241165e-17 -9.531614713900042e-17 -2.6804860934241165e-17 0.8438344806649287 0.5366035494112771
12637649333.333334 0.8491028883732256 0.5282274935632144 -9.556031794015239e-17 -2.584692564533246e-17 -9.556031794015239e-17 -2.584692564533246e-17 0.849102541657287 0.5282280508937081
12638266666.666666 0.8542878154529382 0.519800277383994 -9.579486850956902e-17 -2.4886788384202722e-17 -9.579486850956902e-17 -2.4886788384202722e-17 0.8542874742850849 0.51980083809036
12638884000.0 0.8593891065229446 0.5113221720104909 -9.601977923221761e-17 -2.3924545693149204e-17 -9.601977923221761e-17 -2.3924545693149204e-17 0.8593887709360338 0.5113227360375082
12639501333.333334 0.8644062621595582 0.5027940074614771 -9.623503146119735e-17 -2.2960294286527216e-17 -9.623503146119735e-17 -2.2960294286527216e-17 0.8644059321858983 0.5027945747536054
12640118666.666666 0.8693387911760174 0.4942166186566884 -9.644060751921763e-17 -2.1994131041057016e-17 -9.644060751921763e-17 -2.1994131041057016e-17 0.8693384668473632 0.49421718915807283
12640736000.0 0.8741862106707722 0.4855908453347396 -9.663649069999092e-17 -2.102615298605755e-17 -9.663649069999092e-17 -2.102615298605755e-17 0.8741858920183225 0.4855914189892162
12641353333.333334 0.8789480460744747 0.47691753197140374 -9.682266526950027e-17 -2.005645729380365e-17 -9.682266526950027e-17 -2.005645729380365e-17 0.8789477331288699 0.47691810872250534
12641970666.666666 0.8836238311966536 0.4681975276965677 -9.699911646720127e-17 -1.9085141269721512e-17 -9.699911646720127e-17 -1.9085141269721512e-17 0.8836235239879738 0.4681981074875306
12642588000.0 0.8882131082712736 0.459431686211251 -9.716583050710531e-17 -1.8112302342676454e-17 -9.716583050710531e-17 -1.8112302342676454e-17 0.8882128068290324 0.45943226898501827
12643205333.333334 0.8927154280015344 0.45062086570405085 -9.732279457877517e-17 -1.71380380552055e-17 -9.732279457877517e-17 -1.71380380552055e-17 0.8927151323546793 0.4506214514032798
12643822666.666666 0.8971303496039628 0.4417659287669222 -9.746999684821827e-17 -1.6162446053761517e-17 -9.746999684821827e-17 -1.6162446053761517e-17 0.8971300597808709 0.4417665173339893
12644440000.0 0.9014574408514253 0.43286774231100816 -9.760742645868404e-17 -1.518562407895115e-17 -9.760742645868404e-17 -1.518562407895115e-17 0.9014571568798997 0.43286833368801414
12645057333.333334 0.9056962781155057 0.4239271774816401 -9.773507353136544e-17 -1.420766995575038e-17 -9.773507353136544e-17 -1.420766995575038e-17 0.9056960000227761 0.4239277716104174
12645674666.666666 0.9098464464079602 0.41494510957310576 -9.785292916599828e-17 -1.3228681583743206e-17 -9.785292916599828e-17 -1.3228681583743206e-17 0.9098461742206759 0.41494570639522194
12646292000.0 0.9139075394214712 0.40592241794266964 -9.79609854413702e-17 -1.2248756927309597e-17 -9.79609854413702e-17 -1.2248756927309597e-17 0.9139072731657018 0.4059230173994348
12646909333.333334 0.9178791595691994 0.3968599859249739 -9.805923541572186e-17 -1.1267994005883052e-17 -9.805923541572186e-17 -1.1267994005883052e-17 0.9178788992704322 0.39686058795744633
12647526666.666666 0.9217609180238687 0.3877587007452252 -9.814767312706084e-17 -1.0286490884125807e-17 -9.814767312706084e-17 -1.0286490884125807e-17 0.9217606637070044 0.3877593052942164
12648144000.0 0.9255524347558464 0.3786194534322779 -9.822629359337074e-17 -9.30434566216182e-18 -9.822629359337074e-17 -9.30434566216182e-18 0.9255521864451968 0.37862006043835855
12648761333.333334 0.9292533385702353 0.3694431387316621 -9.829509281272412e-17 -8.321656465793332e-18 -9.829509281272412e-17 -8.321656465793332e-18 0.9292530962895246 0.3694437481351692
12649378666.666666 0.9328632671432702 0.3602306550178866 -9.835406776330035e-17 -7.338521436707614e-18 -9.835406776330035e-17 -7.338521436707614e-18 0.9328630309156266 0.36023126675892686
12649996000.0 0.9363818670578097 0.3509829042064028 -9.84032164033026e-17 -6.355038722696948e-18 -9.84032164033026e-17 -6.355038722696948e-18 0.9363816369057696 0.35098351822486124
12650613333.333334 0.9398087938379538 0.3417007916652824 -9.844253767077924e-17 -5.3713064678791886e-18 -9.844253767077924e-17 -5.3713064678791886e-18 0.9398085697834552 0.3417014079008261
12651230666.666666 0.9431437119826634 0.3323852261268442 -9.847203148334725e-17 -4.38742280292524e-18 -9.847203148334725e-17 -4.38742280292524e-18 0.9431434940470451 0.33238584451892944
12651848000.0 0.9463862949987463 0.323037119598316 -9.849169873781755e-17 -3.4034858352776485e-18 -9.849169873781755e-17 -3.4034858352776485e-18 0.946386083202746 0.3230377400861937
12652465333.333334 0.949536225432714 0.31365738727284104 -9.850154130972391e-17 -2.419593639400615e-18 -9.850154130972391e-17 -2.419593639400615e-18 0.949536019796467 0.313658009795563
12653082666.666666 0.9525931949019008 0.304246947439773 -9.850156205275367e-17 -1.4358442470286235e-18 -9.850156205275367e-17 -1.4358442470286235e-18 0.9525929954449373 0.30424757193619784
12653700000.0 0.9555569041246882 0.294806721394665 -9.849176479808222e-17 -4.523356373783675e-19 -9.849176479808222e-17 -4.523356373783675e-19 0.9555567108659316 0.29480734780346424
12654317333.333334 0.9584270629497189 0.2853376333493451 -9.847215435360932e-17 5.308342725350904e-19 -9.847215435360932e-17 5.308342725350904e-19 0.9584268759074838 0.2853382616090086
12654934666.666666 0.961203390384374 0.27584061034121765 -9.844273650309953e-17 1.5135676376645723e-18 -9.844273650309953e-17 1.5135676376645723e-18 0.9612032095763638 0.27584124039006014
12655552000.0 0.9638856146223077 0.2663165821423944 -9.84035180052243e-17 2.4957666946580436e-18 -9.84035180052243e-17 2.4957666946580436e-18 0.9638854400656156 0.2663172139185619
12656169333.333334 0.9664734730699437 0.25676648116907935 -9.835450659250977e-17 3.477333771523614e-18 -9.835450659250977e-17 3.477333771523614e-18 0.9664733047810484 0.25676711461055457
12656786666.666666 0.9689667123722847 0.24719124238992835 -9.829571097018512e-17 4.458171297359963e-18 -9.829571097018512e-17 4.458171297359963e-18 0.9689665503670493 0.24719187743453688
12657404000.0 0.9713650884376979 0.23759180323456813 -9.822714081493626e-17 5.438181812030966e-18 -9.822714081493626e-17 5.438181812030966e-18 0.9713649327313693 0.23759243981998487
12658021333.333334 0.9736683664617826 0.22796910350193078 -9.814880677356275e-17 6.417267975819891e-18 -9.814880677356275e-17 6.417267975819891e-18 0.9736682170689892 0.2279697415656858
12658638666.666666 0.9758763209503555 0.21832408526827443 -9.806072046154034e-17 7.395332579073545e-18 -9.806072046154034e-17 7.395332579073545e-18 0.9758761778851074 0.21832472474775944
12659256000.0 0.9779887357415775 0.20865769279473131 -9.796289446148218e-17 8.372278551871372e-18 -9.796289446148218e-17 8.372278551871372e-18 0.9779885990172628 0.2086583336272052
12659873333.333334 0.9800054040270825 0.19897087243500092 -9.785534232151185e-17 9.348008973598924e-18 -9.785534232151185e-17 9.348008973598924e-18 0.9800052736564671 0.19897151455759624
12660490666.666666 0.9819261283721893 0.18926457254286766 -9.773807855353648e-17 1.0322427082555673e-17 -9.773807855353648e-17 1.0322427082555673e-17 0.9819260043674164 0.18926521589259698
12661108000.0 0.983750720735312 0.17953974337896636 -9.761111863142238e-17 1.1295436285554256e-17 -9.761111863142238e-17 1.1295436285554256e-17 0.9837506031079011 0.17954038789272833
12661725333.333334 0.9854790024862833 0.16979733701819666 -9.747447898908206e-17 1.2266940167449291e-17 -9.747447898908206e-17 1.2266940167449291e-17 0.9854788912471275 0.16979798263278198
12662342666.666666 0.9871108044239183 0.16003830725609383 -9.732817701846046e-17 1.32368425006863e-17 -9.732817701846046e-17 1.32368425006863e-17 0.9871106995832849 0.16003895390819167
12662960000.0 0.9886459667925254 0.15026360951575907 -9.717223106742963e-17 1.420504725480882e-17 -9.717223106742963e-17 1.420504725480882e-17 0.9886458683600539 0.1502642571419631
12663577333.333334 0.9900843392975655 0.14047420075420974 -9.700666043758708e-17 1.5171458605958887e-17 -9.700666043758708e-17 1.5171458605958887e-17 0.9900842472822676 0.14047484929102472
12664194666.666666 0.9914257811203816 0.13067103936860844 -9.683148538196282e-17 1.613598094632542e-17 -9.683148538196282e-17 1.613598094632542e-17 0.9914256955306393 0.1306716887524558
12664812000.0 0.9926701609319548 0.12085508510260198 -9.664672710263017e-17 1.709851889359244e-17 -9.664672710263017e-17 1.709851889359244e-17 0.9926700817755212 0.12085573526982678
12665429333.333334 0.9938173569057873 0.11102729895222152 -9.645240774822139e-17 1.805897730036373e-17 -9.645240774822139e-17 1.805897730036373e-17 0.9938172841897839 0.11102794983909808
12666046666.666666 0.9948672567298003 0.10118864307199638 -9.624855041135766e-17 1.9017261263519288e-17 -9.624855041135766e-17 1.9017261263519288e-17 0.9948671904607183 0.10118929461473497
12666664000.0 0.995819757617382 0.09134008068033474 -9.6035179125973e-17 1.997327613361511e-17 -9.6035179125973e-17 1.997327613361511e-17 0.9958196978010795 0.09134073281508745
12667281333.333334 0.9966747663173832 0.08148257596578751 -9.581231886456183e-17 2.0926927524169164e-17 -9.581231886456183e-17 2.0926927524169164e-17 0.9966747129590883 0.08148322862865494
12667898666.666666 0.9974321991232967 0.07161709399225807 -9.557999553531724e-17 2.1878121320999518e-17 -9.557999553531724e-17 2.1878121320999518e-17 0.9974321522276024 0.07161774711929512
12668516000.0 0.9980919818814353 0.0617446006045767 -9.533823597918879e-17 2.2826763691477096e-17 -9.533823597918879e-17 2.2826763691477096e-17 0.9980919414523048 0.06174525413179934
12669133333.333334 0.9986540499981909 0.05186606233408533 -9.508706796684928e-17 2.3772761093747037e-17 -9.508706796684928e-17 2.3772761093747037e-17 0.9986540160389493 0.051866716197476265
12669750666.666666 0.9991183484463548 0.04198244630389875 -9.482652019555714e-17 2.471602028596875e-17 -9.482652019555714e-17 2.471602028596875e-17 0.9991183209596978 0.04198310043941423
12670368000.0 0.9994848317705156 0.032094720134222356 -9.455662228594313e-17 2.5656448335460382e-17 -9.455662228594313e-17 2.5656448335460382e-17 0.999484810758503 0.032095374477798186
12670985333.333334 0.9997534640914995 0.022203851847762544 -9.427740477869977e-17 2.6593952627838747e-17 -9.427740477869977e-17 2.6593952627838747e-17 0.9997534495555572 0.022204506335320364
