! Parameters = {f0=12700.012000; bw=77.238000; Q=6100.000000; N=10; m_0_1=1.228323; m_1_1=-0.339896; m_1_2=1.063135; m_2_2=-0.340545; m_2_3=0.700098; m_2_8=-0.001520; m_2_9=0.035184; m_3_3=-0.342482; m_3_4=0.588627; m_3_7=-0.000920; m_3_8=-0.098008; m_3_9=-0.001520; m_4_4=-0.345407; m_4_5=0.424962; m_4_6=0.002597; m_4_7=-0.118557; m_4_8=-0.000920; m_5_5=-0.345025; m_5_6=0.832317; m_5_7=0.002597; m_6_6=-0.345026; m_6_7=0.425304; m_7_7=-0.345393; m_7_8=0.588745; m_8_8=-0.342484; m_8_9=0.700411; m_9_9=-0.340550; m_9_10=1.064213; m_10_10=-0.339906; m_10_11=1.229118}
!
! Created with skrf (http://scikit-rf.org).
# Hz S RI R 50.0 
!freq ReS11 ImS11 ReS21 ImS21 ReS12 ImS12 ReS22 ImS22
12607400000.0 0.6882637992606672 0.7254605038367744 -7.83633311368463e-17 -4.5253057581936683e-17 -7.83633311368463e-17 -4.5253057581936683e-17 0.688263329722442 0.7254609492999687
12608017333.333334 0.6949741596776563 0.7190347122219967 -7.876890175517551e-17 -4.450734547246296e-17 -7.876890175517551e-17 -4.450734547246296e-17 0.6949736943211677 0.7190351620062979
12608634666.666666 0.7016245301077796 0.7125468537232278 -7.916738288343154e-17 -4.3758009353151557e-17 -7.916738288343154e-17 -4.3758009353151557e-17 0.7016240689727855 0.7125473077893891
12609252000.0 0.7082143364928729 0.7059974883707403 -7.955874224485466e-17 -4.3005116560988456e-17 -7.955874224485466e-17 -4.3005116560988456e-17 0.7082138796187629 0.7059979466791496
12609869333.333334 0.7147430100026642 0.6993871815040411 -7.994294820167879e-17 -4.2248734719387677e-17 -7.994294820167879e-17 -4.2248734719387677e-17 0.7147425574284557 0.6993876440147231
12610486666.666666 0.7212099870837757 0.6927165037231715 -8.031996975765749e-17 -4.148893173214454e-17 -8.031996975765749e-17 -4.148893173214454e-17 0.721209538848113 0.6927169703957938
12611104000.0 0.7276147095085904 0.6859860308392329 -8.068977656055082e-17 -4.072577577732981e-17 -8.068977656055082e-17 -4.072577577732981e-17 0.7276142656497374 0.6859865016331063
12611721333.333334 0.7339566244231568 0.6791963438249647 -8.105233890452605e-17 -3.9959335301219705e-17 -8.105233890452605e-17 -3.9959335301219705e-17 0.7339561849789981 0.6791968186990496
12612338666.666666 0.7402351843951138 0.6723480287643944 -8.14076277325267e-17 -3.91896790121516e-17 -8.14076277325267e-17 -3.91896790121516e-17 0.740234749403147 0.6723485076773017
12612956000.0 0.7464498474609377 0.6654416768022402 -8.175561463857778e-17 -3.8416875874370585e-17 -8.175561463857778e-17 -3.8416875874370585e-17 0.7464494169582742 0.6654421597122376
12613573333.333334 0.7526000771725561 0.6584778840930782 -8.20962718700124e-17 -3.764099510190025e-17 -8.20962718700124e-17 -3.764099510190025e-17 0.7525996511959152 0.6584783709580915
12614190666.666666 0.7586853426438424 0.6514572517496676 -8.242957232967092e-17 -3.6862106152326096e-17 -8.242957232967092e-17 -3.6862106152326096e-17 0.7586849212295496 0.6514577425272856
12614808000.0 0.7647051185963492 0.6443803857911712 -8.275548957802122e-17 -3.60802787206071e-17 -8.275548957802122e-17 -3.60802787206071e-17 0.764704701780332 0.6443808804386489
12615425333.333334 0.770658885404666 0.6372478970908212 -8.307399783522642e-17 -3.529558273285192e-17 -8.307399783522642e-17 -3.529558273285192e-17 0.7706584732224521 0.6372483955650841
12616042666.666666 0.7765461291412754 0.6300604013231887 -8.33850719831539e-17 -3.450808834008001e-17 -8.33850719831539e-17 -3.450808834008001e-17 0.7765457216279892 0.6300609035808364
12616660000.0 0.782366341620914 0.6228185189110402 -8.368868756732464e-17 -3.37178659119651e-17 -8.368868756732464e-17 -3.37178659119651e-17 0.782365938811274 0.6228190249083505
12617277333.333334 0.7881190204444591 0.6155228749717605 -8.398482079880481e-17 -3.2924986030559736e-17 -8.398482079880481e-17 -3.2924986030559736e-17 0.788118622372773 0.6155233846646911
12617894666.666666 0.7938036690422027 0.6081740992635021 -8.427344855603229e-17 -3.212951948401784e-17 -8.427344855603229e-17 -3.212951948401784e-17 0.7938032757423669 0.6081746126076973
12618512000.0 0.7994197967169129 0.6007728261305813 -8.455454838659854e-17 -3.133153726026325e-17 -8.455454838659854e-17 -3.133153726026325e-17 0.7994194082224078 0.600773343081374
12619129333.333334 0.8049669186859431 0.5933196944490335 -8.482809850894834e-17 -3.0531110540703196e-17 -8.482809850894834e-17 -3.0531110540703196e-17 0.804966535029832 0.5933202149614503
12619746666.666666 0.8104445561232542 0.5858153475712429 -8.509407781404152e-17 -2.9728310693869696e-17 -8.509407781404152e-17 -2.9728310693869696e-17 0.8104441773381794 0.5858158716000069
12620364000.0 0.8158522362007457 0.5782604332704061 -8.535246586694546e-17 -2.892320926907073e-17 -8.535246586694546e-17 -2.892320926907073e-17 0.8158518623189254 0.5782609607699416
12620981333.333334 0.8211894921289153 0.5706556036848225 -8.560324290836103e-17 -2.811587799005013e-17 -8.560324290836103e-17 -2.811587799005013e-17 0.8211891231821418 0.5706561346092583
12621598666.666666 0.8264558631973239 0.5630015152613732 -8.584638985610344e-17 -2.7306388748588287e-17 -8.584638985610344e-17 -2.7306388748588287e-17 0.8264554992169595 0.563002049564547
12622216000.0 0.8316508948142927 0.5552988286989469 -8.60818883065114e-17 -2.6494813598127234e-17 -8.60818883065114e-17 -2.6494813598127234e-17 0.8316505358312694 0.5552993663344099
12622833333.333334 0.8367741385461149 0.5475482088914576 -8.630972053580122e-17 -2.56812247473668e-17 -8.630972053580122e-17 -2.56812247473668e-17 0.8367737845909298 0.5475487498124778
12623450666.666666 0.8418251521557959 0.5397503248704035 -8.652986950135656e-17 -2.4865694553864472e-17 -8.652986950135656e-17 -2.4865694553864472e-17 0.841824803258509 0.5397508690299695
12624068000.0 0.8468034996412438 0.5319058497470938 -8.674231884296412e-17 -2.4048295517602504e-17 -8.674231884296412e-17 -2.4048295517602504e-17 0.8468031558314753 0.5319063970979191
12624685333.333334 0.8517087512729309 0.5240154606544946 -8.694705288398515e-17 -2.322910027455464e-17 -8.694705288398515e-17 -2.322910027455464e-17 0.8517084125798587 0.5240160111490219
12625302666.666666 0.8565404836308383 0.5160798386890203 -8.71440566324608e-17 -2.2408181590271014e-17 -8.71440566324608e-17 -2.2408181590271014e-17 0.8565401500831982 0.516080392279427
12625920000.0 0.8612982796412348 0.5080996688513839 -8.733331578217154e-17 -2.158561235339191e-17 -8.733331578217154e-17 -2.158561235339191e-17 0.8612979512673125 0.5081002254895831
12626537333.333334 0.865981728612462 0.5000756399877999 -8.751481671361824e-17 -2.0761465569225308e-17 -8.751481671361824e-17 -2.0761465569225308e-17 0.8659814054400962 0.5000761996254474
12627154666.666666 0.8705904262704842 0.49200844473038463 -8.768854649495527e-17 -1.9935814353267112e-17 -8.768854649495527e-17 -1.9935814353267112e-17 0.870590108327061 0.49200900731888164
12627772000.0 0.875123974793862 0.48389877943721593 -8.785449288286117e-17 -1.9108731924713892e-17 -8.785449288286117e-17 -1.9108731924713892e-17 0.875123662106313 0.48389934492771364
12628389333.333334 0.8795819828478986 0.47574734413257147 -8.801264432333917e-17 -1.8280291600019335e-17 -8.801264432333917e-17 -1.8280291600019335e-17 0.8795816754426995 0.47574791247597525
12629006666.666666 0.8839640656186263 0.4675548424461292 -8.816298995247055e-17 -1.7450566786371824e-17 -8.816298995247055e-17 -1.7450566786371824e-17 0.8839637635217955 0.467555413593104
12629624000.0 0.8882698448458749 0.4593219815525062 -8.8305519597095e-17 -1.661963097523194e-17 -8.8305519597095e-17 -1.661963097523194e-17 0.8882695480829689 0.45932255545347883
12630241333.333334 0.8924989488560012 0.4510494721100634 -8.844022377543788e-17 -1.5787557735822365e-17 -8.844022377543788e-17 -1.5787557735822365e-17 0.8924986574521141 0.45105004871522825
12630858666.666666 0.8966510125938985 0.4427380281997158 -8.856709369767083e-17 -1.4954420708643637e-17 -8.856709369767083e-17 -1.4954420708643637e-17 0.8966507265736574 0.44273860745903776
12631476000.0 0.9007256776546404 0.43438836726301044 -8.868612126641874e-17 -1.4120293598943378e-17 -8.868612126641874e-17 -1.4120293598943378e-17 0.9007253970422083 0.4343889491262315
12632093333.333334 0.9047225923142624 0.4260012100405312 -8.879729907719574e-17 -1.3285250170242879e-17 -8.879729907719574e-17 -1.3285250170242879e-17 0.9047223171333313 0.42600179445717284
12632710666.666666 0.9086414115601931 0.4175772805095301 -8.890062041878789e-17 -1.2449364237813195e-17 -8.890062041878789e-17 -1.2449364237813195e-17 0.9086411418339851 0.41757786742889885
12633328000.0 0.9124817971210994 0.4091173058213066 -8.89960792735738e-17 -1.1612709662151694e-17 -8.89960792735738e-17 -1.1612709662151694e-17 0.9124815328723624 0.40911789519249725
12633945333.333334 0.9162434174959725 0.40062201623866894 -8.908367031777964e-17 -1.0775360342492622e-17 -8.908367031777964e-17 -1.0775360342492622e-17 0.9162431587469804 0.40062260801057026
12634562666.666666 0.9199259479828072 0.392092145072772 -8.916338892167773e-17 -9.937390210281371e-18 -8.916338892167773e-17 -9.937390210281371e-18 0.9199256947553569 0.3920927391940703
12635180000.0 0.9235290707066183 0.38352842861984293 -8.923523114972177e-17 -9.098873222663624e-18 -8.923523114972177e-17 -9.098873222663624e-18 0.9235288230220263 0.38352902503902625
12635797333.333334 0.9270524746468841 0.37493160609759607 -8.929919376062193e-17 -8.259883355969762e-18 -8.929919376062193e-17 -8.259883355969762e-18 0.9270522325259892 0.37493220476296024
12636414666.666666 0.9304958556643602 0.36630241958153303 -8.935527420735781e-17 -7.420494599212822e-18 -8.935527420735781e-17 -7.420494599212822e-18 0.9304956191275169 0.3663030204411842
12637032000.0 0.9338589165273892 0.3576416139407254 -8.940347063713211e-17 -6.5807809475624386e-18 -8.940347063713211e-17 -6.5807809475624386e-18 0.9338586855944685 0.3576422169425855
12637649333.333334 0.9371413669375179 0.3489499367736248 -8.944378189126133e-17 -5.7408163958462255e-18 -8.944378189126133e-17 -5.7408163958462255e-18 0.9371411416279055 0.3489505418654362
12638266666.666666 0.9403429235545663 0.34022813834350374 -8.947620750500683e-17 -4.900674932041047e-18 -8.947620750500683e-17 -4.900674932041047e-18 0.9403427038871613 0.3402287454728338
12638884000.0 0.9434633100210874 0.33147697151369404 -8.95007477073444e-17 -4.060430530769934e-18 -8.95007477073444e-17 -4.060430530769934e-18 0.943463096014298 0.3314775806279384
12639501333.333334 0.9465022569862251 0.32269719168257016 -8.951740342067297e-17 -3.2201571468001876e-18 -8.951740342067297e-17 -3.2201571468001876e-18 0.9465020486579717 0.32269780272895954
12640118666.666666 0.9494595021289188 0.313889556718509 -8.952617626046258e-17 -2.379928708563601e-18 -8.952617626046258e-17 -2.379928708563601e-18 0.9494592994966274 0.3138901696441113
12640736000.0 0.9523347901806837 0.30505482689403596 -8.952706853484187e-17 -1.5398191116255002e-18 -8.952706853484187e-17 -1.5398191116255002e-18 0.9523345932612887 0.3050554416457629
12641353333.333334 0.9551278729474337 0.296193764820848 -8.952008324412391e-17 -6.999022122610634e-19 -8.952008324412391e-17 -6.999022122610634e-19 0.9551276817573746 0.29619438134545867
12641970666.666666 0.9578385093310935 0.28730713538341784 -8.950522408027239e-17 1.397481790769453e-19 -8.950522408027239e-17 1.397481790769453e-19 0.9578383238863134 0.28730775362752337
12642588000.0 0.9604664653503192 0.278395705673239 -8.948249542630667e-17 9.790583042049551e-19 -8.948249542630667e-17 9.790583042049551e-19 0.9604662856662634 0.2783963255833074
12643205333.333334 0.9630115141607065 0.2694602449225844 -8.94519023556465e-17 1.8179544636762607e-18 -8.94519023556465e-17 1.8179544636762607e-18 0.9630113402523228 0.26946086644494527
12643822666.666666 0.9654734360744036 0.2605015244379971 -8.941345063139589e-17 2.656363023248616e-18 -8.941345063139589e-17 2.656363023248616e-18 0.9654732679561383 0.2605021475188459
12644440000.0 0.9678520185790337 0.2515203175338477 -8.936714670556733e-17 3.494210420320699e-18 -8.936714670556733e-17 3.494210420320699e-18 0.967851856264832 0.25152094211925036
12645057333.333334 0.9701470563560461 0.24251739946555412 -8.931299771824525e-17 4.331423170375005e-18 -8.931299771824525e-17 4.331423170375005e-18 0.9701468998593523 0.24251802550145266
12645674666.666666 0.9723583512984482 0.2334935473626645 -8.925101149669015e-17 5.167927873408868e-18 -8.925101149669015e-17 5.167927873408868e-18 0.9723582006322018 0.23349417479488052
12646292000.0 0.9744857125279425 0.2244495401615793 -8.918119655437982e-17 6.003651220373198e-18 -8.918119655437982e-17 6.003651220373198e-18 0.9744855677045802 0.2244501689358196
12646909333.333334 0.9765289564113233 0.215386158538675 -8.910356208999573e-17 6.838519999550086e-18 -8.910356208999573e-17 6.838519999550086e-18 0.9765288174427745 0.2153867886005353
12647526666.666666 0.9784879065763913 0.20630418484263846 -8.901811798634455e-17 7.67246110297762e-18 -8.901811798634455e-17 7.67246110297762e-18 0.9784877734740802 0.20630481613760923
12648144000.0 0.9803623939271715 0.19720440302696332 -8.892487480922212e-17 8.505401532835187e-18 -8.892487480922212e-17 8.505401532835187e-18 0.9803622667020129 0.1972050355004333
12648761333.333334 0.982152256658486 0.188087598582361 -8.882384380621835e-17 9.337268407809013e-18 -8.882384380621835e-17 9.337268407809013e-18 0.9821521353208879 0.1880882321796229
12649378666.666666 0.9838573402699073 0.17895455846907077 -8.871503690546282e-17 1.0167988969455183e-17 -8.871503690546282e-17 1.0167988969455183e-17 0.9838572248297687 0.1789551931353257
12649996000.0 0.985477497579151 0.16980607104862205 -8.859846671430813e-17 1.0997490588561853e-17 -8.859846671430813e-17 1.0997490588561853e-17 0.9854773880458612 0.16980670672898424
12650613333.333334 0.9870125887347446 0.16064292601597868 -8.847414651795735e-17 1.182570077147753e-17 -8.847414651795735e-17 1.182570077147753e-17 0.9870124851171794 0.16064356265547977
12651230666.666666 0.9884624812280799 0.1514659143314561 -8.834209027803261e-17 1.2652547166422455e-17 -8.834209027803261e-17 1.2652547166422455e-17 0.9884623835346079 0.15146655187505087
12651848000.0 0.9898270499049076 0.14227582815216694 -8.82023126310796e-17 1.3477957569820187e-17 -8.82023126310796e-17 1.3477957569820187e-17 0.989826958143382 0.14227646654473716
12652465333.333334 0.991106176976088 0.13307346076389306 -8.805482888702053e-17 1.4301859932566e-17 -8.805482888702053e-17 1.4301859932566e-17 0.991106091153851 0.13307409995025277
12653082666.666666 0.9922997520277718 0.12385960651261109 -8.789965502754563e-17 1.5124182366301973e-17 -8.789965502754563e-17 1.5124182366301973e-17 0.9922996721516514 0.12386024643751105
12653700000.0 0.9934076720309606 0.1146350607356421 -8.773680770444065e-17 1.5944853149700213e-17 -8.773680770444065e-17 1.5944853149700213e-17 0.9934075981072709 0.11463570134377478
12654317333.333334 0.9944298413503522 0.10540061969339305 -8.756630423786776e-17 1.6763800734669252e-17 -8.756630423786776e-17 1.6763800734669252e-17 0.9944297733848925 0.10540126092939732
12654934666.666666 0.9953661717526308 0.09615708050034204 -8.738816261457744e-17 1.7580953752602617e-17 -8.738816261457744e-17 1.7580953752602617e-17 0.9953661097506876 0.09615772230880815
12655552000.0 0.996216582414083 0.0869052410562313 -8.720240148606593e-17 1.839624102058407e-17 -8.720240148606593e-17 1.839624102058407e-17 0.9962165263804257 0.08690588338170534
12656169333.333334 0.9969809999275455 0.07764589997744703 -8.700904016668098e-17 1.9209591547552005e-17 -8.700904016668098e-17 1.9209591547552005e-17 0.9969809498664286 0.07764654276443586
12656786666.666666 0.9976593583087734 0.06837985652780049 -8.680809863165941e-17 2.002093454049157e-17 -8.680809863165941e-17 2.002093454049157e-17 0.9976593142239352 0.0683804997207766
12657404000.0 0.9982515990021191 0.059107910549676915 -8.659959751511572e-17 2.083019941056987e-17 -8.659959751511572e-17 2.083019941056987e-17 0.9982515608967818 0.05910855409308316
12658021333.333334 0.998757670885592 0.04983086239493687 -8.6383558107969e-17 2.1637315779267967e-17 -8.6383558107969e-17 2.1637315779267967e-17 0.998757638762461 0.04983150623319128
12658638666.666666 0.9991775302752656 0.040549512855972 -8.616000235581835e-17 2.2442213484475126e-17 -8.616000235581835e-17 2.2442213484475126e-17 0.9991775041365305 0.04055015693347258
12659256000.0 0.9995111409290601 0.031264663096296864 -8.592895285675085e-17 2.3244822586598026e-17 -8.592895285675085e-17 2.3244822586598026e-17 0.9995111207763933 0.0312653073574264
12659873333.333334 0.9997584740498584 0.021977114581648288 -8.569043285910583e-17 2.4045073374601794e-17 -8.569043285910583e-17 2.4045073374601794e-17 0.9997584598844153 0.021977758970779117
12660490666.666666 0.999919508287996 0.01268766901080314 -8.544446625917774e-17 2.484289637205064e-17 -8.544446625917774e-17 2.484289637205064e-17 0.9999195001104161 0.012688313472302017
12661108000.0 0.9999942297431101 0.003397128246091748 -8.519107759885413e-17 2.5638222343149488e-17 -8.519107759885413e-17 2.5638222343149488e-17 0.9999942275535143 0.0033977727243245702
12661725333.333334 0.9999826319653283 -0.005893705755420845 -8.493029206321678e-17 2.6430982298704253e-17 -8.493029206321678e-17 2.6430982298704253e-17 0.9999826357633221 -0.005893061316084178
12662342666.666666 0.9998847159558343 -0.015184031011472143 -8.466213547806773e-17 2.7221107502118365e-17 -8.466213547806773e-17 2.7221107502118365e-17 0.9998847257405058 -0.015183386666652952
12662960000.0 0.9997004901667771 -0.024473045583687028 -8.438663430741251e-17 2.800852947532622e-17 -8.438663430741251e-17 2.800852947532622e-17 0.9997005059366993 -0.02447240138899309
12663577333.333334 0.9994299705005448 -0.033759947646829325 -8.410381565088328e-17 2.879318000471599e-17 -8.410381565088328e-17 2.879318000471599e-17 0.9994299922537716 -0.033759303657849966
12664194666.666666 0.9990731803083868 -0.043043935558015015 -8.381370724110821e-17 2.957499114702451e-17 -8.381370724110821e-17 2.957499114702451e-17 0.9990732080424574 -0.04304329183031644
12664812000.0 0.9986301503884019 -0.052324207925909944 -8.35163374410261e-17 3.035389523520611e-17 -8.35163374410261e-17 3.035389523520611e-17 0.9986301841003394 -0.052323564515030375
12665429333.333334 0.9981009189828786 -0.06159996367993408 -8.321173524114574e-17 3.1129824884277255e-17 -8.321173524114574e-17 3.1129824884277255e-17 0.9981009586691906 -0.06159932064137898
12666046666.666666 0.9974855317750003 -0.07087040213926783 -8.289993025675653e-17 3.1902712997119826e-17 -8.289993025675653e-17 3.1902712997119826e-17 0.9974855774316783 -0.07086975952850508
12666664000.0 0.9967840418848825 -0.0801347230822785 -8.258095272507065e-17 3.267249277029465e-17 -8.258095272507065e-17 3.267249277029465e-17 0.9967840935074039 -0.08013408095473372
12667281333.333334 0.9959965098650159 -0.08939212681519841 -8.225483350233502e-17 3.343909769976815e-17 -8.225483350233502e-17 3.343909769976815e-17 0.9959965674483433 -0.08939148522625007
12667898666.666666 0.9951230036950182 -0.09864181424143767 -8.192160406086728e-17 3.420246158666678e-17 -8.192160406086728e-17 3.420246158666678e-17 0.9951230672336002 -0.09864117324641232
12668516000.0 0.9941635987757635 -0.10788298693056164 -8.158129648604788e-17 3.4962518542978704e-17 -8.158129648604788e-17 3.4962518542978704e-17 0.9941636682635353 -0.10788234658472923
12669133333.333334 0.9931183779228999 -0.11711484718695692 -8.123394347326929e-17 3.571920299720548e-17 -8.123394347326929e-17 3.571920299720548e-17 0.9931184533532844 -0.11711420754552603
12669750666.666666 0.9919874313596729 -0.12633659811897094 -8.087957832481277e-17 3.647244970002736e-17 -8.087957832481277e-17 3.647244970002736e-17 0.9919875127255797 -0.12633595923708385
12670368000.0 0.990770856709146 -0.1355474437075861 -8.05182349466877e-17 3.722219372990582e-17 -8.05182349466877e-17 3.722219372990582e-17 0.9907709440029736 -0.1355468056403142
