! Parameters = {f0=12700.012000; bw=77.238000; Q=6100.000000; N=10; m_0_1=1.238533; m_1_1=-0.186743; m_1_2=1.073345; m_2_2=-0.187392; m_2_3=0.710308; m_2_8=-0.001010; m_2_9=0.035694; m_3_3=-0.189329; m_3_4=0.598837; m_3_7=-0.000410; m_3_8=-0.097498; m_3_9=-0.001010; m_4_4=-0.192254; m_4_5=0.435172; m_4_6=0.003107; m_4_7=-0.118047; m_4_8=-0.000410; m_5_5=-0.191872; m_5_6=0.842527; m_5_7=0.003107; m_6_6=-0.191873; m_6_7=0.435514; m_7_7=-0.192240; m_7_8=0.598955; m_8_8=-0.189331; m_8_9=0.710621; m_9_9=-0.187397; m_9_10=1.074423; m_10_10=-0.186753; m_10_11=1.239328}
!
! Created with skrf (http://scikit-rf.org).
# Hz S RI R 50.0 
!freq ReS11 ImS11 ReS21 ImS21 ReS12 ImS12 ReS22 ImS22
12607400000.0 0.6006167466681028 0.7995370683224488 -7.638502024577436e-17 -5.66958762349745e-17 -7.638502024577436e-17 -5.66958762349745e-17 0.6006162248986404 0.7995374602783399
12608017333.333334 0.6082587264722799 0.7937388245954408 -7.691526106187374e-17 -5.594275825540192e-17 -7.691526106187374e-17 -5.594275825540192e-17 0.6082582085120511 0.7937392215189715
12608634666.666666 0.6158447346193661 0.7878675414315757 -7.743808423320799e-17 -5.518469119844388e-17 -7.743808423320799e-17 -5.518469119844388e-17 0.6158442205156571 0.7878679432857354
12609252000.0 0.6233740730488809 0.781923759103329 -7.795344366598067e-17 -5.442174804859544e-17 -7.795344366598067e-17 -5.442174804859544e-17 0.6233735628486203 0.7819241658506592
12609869333.333334 0.6308460489149981 0.7759080245545661 -7.846129398381396e-17 -5.3654002218651545e-17 -7.846129398381396e-17 -5.3654002218651545e-17 0.6308455426647492 0.7759084361571605
12610486666.666666 0.6382599746503417 0.7698208913501745 -7.896159053170643e-17 -5.288152754267958e-17 -7.896159053170643e-17 -5.288152754267958e-17 0.6382594723963012 0.7698213077696849
12611104000.0 0.645615168029436 0.7636629196249846 -7.945428937994576e-17 -5.2104398268919563e-17 -7.945428937994576e-17 -5.2104398268919563e-17 0.6456146698174265 0.7636633408226213
12611721333.333334 0.6529109522311063 0.7574346760325286 -7.993934732792855e-17 -5.1322689052684386e-17 -7.993934732792855e-17 -5.1322689052684386e-17 0.652910458106576 0.7574351019690686
12612338666.666666 0.6601466559011142 0.7511367336926139 -8.041672190793211e-17 -5.0536474949190736e-17 -8.041672190793211e-17 -5.0536474949190736e-17 0.6601461659091288 0.7511371643283994
12612956000.0 0.6673216132138624 0.7447696721386287 -8.088637138880117e-17 -4.974583140637769e-17 -8.088637138880117e-17 -4.974583140637769e-17 0.6673211273991049 0.7447701074335759
12613573333.333334 0.6744351639334134 0.7383340772644474 -8.134825477956523e-17 -4.895083425769215e-17 -8.134825477956523e-17 -4.895083425769215e-17 0.6744346823401763 0.7383345171780458
12614190666.666666 0.6814866534746016 0.7318305412701911 -8.180233183299842e-17 -4.8151559714817384e-17 -8.180233183299842e-17 -4.8151559714817384e-17 0.6814861761467861 0.7318309857615104
12614808000.0 0.6884754329629963 0.7252596626079847 -8.224856304908755e-17 -4.734808436040374e-17 -8.224856304908755e-17 -4.734808436040374e-17 0.6884749599441057 0.7252601116356766
12615425333.333334 0.695400859294776 0.7186220459267301 -8.268690967845e-17 -4.654048514073298e-17 -8.268690967845e-17 -4.654048514073298e-17 0.6954003906279141 0.718622499449034
12616042666.666666 0.7022622951958455 0.7119183020165283 -8.311733372566531e-17 -4.572883935837416e-17 -8.311733372566531e-17 -4.572883935837416e-17 0.7022618309237098 0.7119187599912724
12616660000.0 0.7090591092804135 0.7051490477525292 -8.353979795253601e-17 -4.4913224664809554e-17 -8.353979795253601e-17 -4.4913224664809554e-17 0.7090586494452951 0.7051495101371384
12617277333.333334 0.7157906761092402 0.6983149060380353 -8.395426588129006e-17 -4.409371905300467e-17 -8.395426588129006e-17 -4.409371905300467e-17 0.7157902207530156 0.6983153727895308
12617894666.666666 0.7224563762470219 0.6914165057473349 -8.436070179768401e-17 -4.327040084999895e-17 -8.436070179768401e-17 -4.327040084999895e-17 0.7224559254111528 0.691416976822342
12618512000.0 0.7290555963195563 0.6844544816676779 -8.47590707540721e-17 -4.2443348709394057e-17 -8.47590707540721e-17 -4.2443348709394057e-17 0.729055150045084 0.6844549570224272
12619129333.333334 0.7355877290700424 0.6774294744410013 -8.514933857235969e-17 -4.161264160389859e-17 -8.514933857235969e-17 -4.161264160389859e-17 0.7355872873975846 0.6774299540313342
12619746666.666666 0.7420521734150035 0.6703421305049404 -8.553147184691239e-17 -4.0778358817788106e-17 -8.553147184691239e-17 -4.0778358817788106e-17 0.7420517363847504 0.6703426142863134
12620364000.0 0.7484483344997303 0.6631931020331956 -8.590543794738991e-17 -3.994057993934088e-17 -8.590543794738991e-17 -3.994057993934088e-17 0.7484479021514412 0.6631935899606832
12620981333.333334 0.7547756237527896 0.655983046875771 -8.627120502148609e-17 -3.909938485329242e-17 -8.627120502148609e-17 -3.909938485329242e-17 0.7547751961257889 0.6559835389040712
12621598666.666666 0.761033458940319 0.6487126284982945 -8.662874199761637e-17 -3.8254853733218556e-17 -8.662874199761637e-17 -3.8254853733218556e-17 0.761033036073493 0.6487131245817321
12622216000.0 0.7672212642196227 0.6413825159209422 -8.69780185875238e-17 -3.740706703390903e-17 -8.69780185875238e-17 -3.740706703390903e-17 0.7672208461514152 0.6413830160134728
12622833333.333334 0.7733384701921365 0.6339933836568952 -8.731900528880948e-17 -3.655610548372298e-17 -8.731900528880948e-17 -3.655610548372298e-17 0.7733380569605476 0.6339938877121116
12623450666.666666 0.7793845139557023 0.6265459116504282 -8.765167338738116e-17 -3.570205007693628e-17 -8.765167338738116e-17 -3.570205007693628e-17 0.7793841055982821 0.6265464196215618
12624068000.0 0.7853588391565813 0.6190407852140761 -8.797599495984664e-17 -3.484498206602273e-17 -8.797599495984664e-17 -3.484498206602273e-17 0.7853584357104278 0.6190412970540028
12624685333.333334 0.7912608960405204 0.6114786949657247 -8.829194287581755e-17 -3.398498295394579e-17 -8.829194287581755e-17 -3.398498295394579e-17 0.7912604975422766 0.6114792106269692
12625302666.666666 0.7970901415032915 0.6038603367651297 -8.85994908001287e-17 -3.3122134486458084e-17 -8.85994908001287e-17 -3.3122134486458084e-17 0.797089747989141 0.6038608561998696
12625920000.0 0.802846039140874 0.5961864116496127 -8.889861319501387e-17 -3.225651864429545e-17 -8.889861319501387e-17 -3.225651864429545e-17 0.8028456506465399 0.5961869348096842
12626537333.333334 0.8085280592985251 0.5884576257699389 -8.918928532217068e-17 -3.138821763544786e-17 -8.918928532217068e-17 -3.138821763544786e-17 0.808527675859262 0.5884581526068378
12627154666.666666 0.8141356791197185 0.580674690325062 -8.94714832447682e-17 -3.051731388736149e-17 -8.94714832447682e-17 -3.051731388736149e-17 0.8141353007703152 0.5806752207899524
12627772000.0 0.8196683825943123 0.5728383214966132 -8.974518382938615e-17 -2.964389003910047e-17 -8.974518382938615e-17 -2.964389003910047e-17 0.8196680093690842 0.5728388555403293
12628389333.333334 0.8251256606057438 0.564949240383388 -9.001036474785387e-17 -2.8768028933565746e-17 -9.001036474785387e-17 -2.8768028933565746e-17 0.8251252925385333 0.5649497779564405
12629006666.666666 0.8305070109782461 0.5570081729344842 -9.026700447903649e-17 -2.7889813609623624e-17 -9.026700447903649e-17 -2.7889813609623624e-17 0.8305066481024159 0.557008713987063
12629624000.0 0.8358119385227428 0.5490158498829397 -9.051508231053183e-17 -2.7009327294262874e-17 -9.051508231053183e-17 -2.7009327294262874e-17 0.835811580871176 0.5490163943649199
12630241333.333334 0.8410399550826301 0.5409730066781897 -9.075457834029683e-17 -2.612665339471658e-17 -9.075457834029683e-17 -2.612665339471658e-17 0.8410396026877246 0.5409735545391352
12630858666.666666 0.8461905795785477 0.5328803834185999 -9.098547347818846e-17 -2.5241875490601105e-17 -9.098547347818846e-17 -2.5241875490601105e-17 0.8461902324722158 0.5328809346077691
12631476000.0 0.8512633380527783 0.524738724783176 -9.120774944744677e-17 -2.4355077325974836e-17 -9.120774944744677e-17 -2.4355077325974836e-17 0.8512629962664422 0.5247392792495262
12632093333.333334 0.8562577637127636 0.5165487799631792 -9.142138878607797e-17 -2.3466342801470043e-17 -9.142138878607797e-17 -2.3466342801470043e-17 0.8562574272773527 0.5165493376553708
12632710666.666666 0.8611733969740344 0.5083113025932388 -9.162637484817394e-17 -2.257575596636398e-17 -9.162637484817394e-17 -2.257575596636398e-17 0.8611730659199818 0.5083118634596397
12633328000.0 0.8660097855026729 0.5000270506817068 -9.182269180515979e-17 -2.1683401010618204e-17 -9.182269180515979e-17 -2.1683401010618204e-17 0.8660094598599158 0.5000276146703997
12633945333.333334 0.8707664842567656 0.4916967865412034 -9.201032464694924e-17 -2.0789362256967765e-17 -9.201032464694924e-17 -2.0789362256967765e-17 0.8707661640547377 0.49169735359998673
12634562666.666666 0.8754430555273786 0.48332127671841557 -9.218925918303241e-17 -1.9893724152964587e-17 -9.218925918303241e-17 -1.9893724152964587e-17 0.875442740795013 0.4833218467948122
12635180000.0 0.8800390689789168 0.47490129192344327 -9.235948204348848e-17 -1.8996571263001844e-17 -9.235948204348848e-17 -1.8996571263001844e-17 0.8800387597446382 0.4749018649647022
12635797333.333334 0.8845541016886812 0.46643760695892067 -9.252098067991285e-17 -1.809798826036432e-17 -9.252098067991285e-17 -1.809798826036432e-17 0.8845537979804066 0.4664381829120238
12636414666.666666 0.8889877381857018 0.4579310006488998 -9.267374336627439e-17 -1.719805991924588e-17 -9.267374336627439e-17 -1.719805991924588e-17 0.8889874400308382 0.45793157946056706
12637032000.0 0.8933395704891419 0.4493822557668573 -9.281775919969317e-17 -1.629687110676011e-17 -9.281775919969317e-17 -1.629687110676011e-17 0.8933392779145801 0.44938283738354945
12637649333.333334 0.8976091981456751 0.4407921589639624 -9.295301810113682e-17 -1.5394506774971998e-17 -9.295301810113682e-17 -1.5394506774971998e-17 0.8976089111777918 0.4407927433318881
12638266666.666666 0.901796228266447 0.4321615006964912 -9.307951081604656e-17 -1.449105195288786e-17 -9.307951081604656e-17 -1.449105195288786e-17 0.9017959469310994 0.4321620877616108
12638884000.0 0.9059002755631836 0.42349107515316275 -9.319722891488015e-17 -1.358659173846743e-17 -9.319722891488015e-17 -1.358659173846743e-17 0.9058999998857088 0.4234916648611943
12639501333.333334 0.9099209623836232 0.41478168018211037 -9.330616479357848e-17 -1.2681211290630106e-17 -9.330616479357848e-17 -1.2681211290630106e-17 0.9099206923888346 0.41478227247853344
12640118666.666666 0.9138579187462708 0.4060341172174658 -9.340631167395622e-17 -1.1774995821253363e-17 -9.340631167395622e-17 -1.1774995821253363e-17 0.9138576544584578 0.4060347120475278
12640736000.0 0.9177107823745939 0.3972491912052736 -9.349766360401713e-17 -1.0868030587134592e-17 -9.349766360401713e-17 -1.0868030587134592e-17 0.9177105238175165 0.39724978851399334
12641353333.333334 0.9214791987300435 0.3884277105301201 -9.358021545818142e-17 -9.960400882058385e-18 -9.358021545818142e-17 -9.960400882058385e-18 0.9214789459269329 0.3884283102622941
12641970666.666666 0.9251628210450031 0.3795704869400201 -9.365396293745088e-17 -9.052192028719783e-18 -9.365396293745088e-17 -9.052192028719783e-18 0.9251625740185605 0.3795710890402279
12642588000.0 0.9287613103544959 0.3706783354721895 -9.371890256948476e-17 -8.143489370754352e-18 -9.371890256948476e-17 -8.143489370754352e-18 0.9287610691268858 0.37067893988479694
12643205333.333334 0.9322743355274601 0.36175207437783496 -9.377503170860188e-17 -7.234378264740183e-18 -9.377503170860188e-17 -7.234378264740183e-18 0.9322741001203129 0.3617526810470014
12643822666.666666 0.9357015732972309 0.35279252504683317 -9.382234853570799e-17 -6.324944072169854e-18 -9.382234853570799e-17 -6.324944072169854e-18 0.9357013437316398 0.35279313391651573
12644440000.0 0.9390427082912055 0.34380051193235844 -9.386085205814111e-17 -5.415272151472955e-18 -9.386085205814111e-17 -5.415272151472955e-18 0.9390424845877232 0.343801122946317
12645057333.333334 0.9422974330599339 0.3347768624748314 -9.389054210944204e-17 -4.505447850026114e-18 -9.389054210944204e-17 -4.505447850026114e-18 0.9422972152385725 0.33477747557663423
12645674666.666666 0.9454654481053837 0.3257224070258592 -9.391141934904846e-17 -3.595556496145811e-18 -9.391141934904846e-17 -3.595556496145811e-18 0.9454652361856113 0.32572302215888776
12646292000.0 0.9485464619085316 0.31663797877171757 -9.392348526190983e-17 -2.6856833910913813e-18 -9.392348526190983e-17 -2.6856833910913813e-18 0.9485462559092723 0.3166385958791723
12646909333.333334 0.9515401909561398 0.30752441365684535 -9.392674215802558e-17 -1.775913801127134e-18 -9.392674215802558e-17 -1.775913801127134e-18 0.9515399908957696 0.30752503268174997
12647526666.666666 0.9544463597668569 0.29838255030686484 -9.392119317190717e-17 -8.663329495053848e-19 -9.392119317190717e-17 -8.663329495053848e-19 0.9544461656632052 0.2983831711920728
12648144000.0 0.9572647009166261 0.2892132299512521 -9.39068422619622e-17 4.29739914899446e-20 -9.39068422619622e-17 4.29739914899446e-20 0.9572645127869718 0.2892138526394511
12648761333.333334 0.9599949550632264 0.2800172963461147 -9.38836942098017e-17 9.519219084838511e-19 -9.38836942098017e-17 9.519219084838511e-19 0.9599947729242969 0.28001792077983206
12649378666.666666 0.9626368709701181 0.2707955956966332 -9.385175461947124e-17 1.860425754976852e-18 -9.385175461947124e-17 1.860425754976852e-18 0.9626366948380884 0.27079622181824126
12649996000.0 0.9651902055296488 0.26154897657889337 -9.381102991660422e-17 2.7684005592915256e-18 -9.381102991660422e-17 2.7684005592915256e-18 0.9651900354201401 0.26154960433061497
12650613333.333334 0.9676547237853774 0.25227828986196504 -9.376152734749969e-17 3.6757614324876155e-18 -9.376152734749969e-17 3.6757614324876155e-18 0.9676545597134538 0.25227891918587836
12651230666.666666 0.9700301989536395 0.24298438862979613 -9.37032549781233e-17 4.58242357628764e-18 -9.37032549781233e-17 4.58242357628764e-18 0.9700300409338086 0.24298501946784043
12651848000.0 0.9723164124445421 0.2336681281022467 -9.363622169303028e-17 5.488302291004192e-18 -9.363622169303028e-17 5.488302291004192e-18 0.9723162604907537 0.23366876039622775
12652465333.333334 0.9745131538819575 0.22433036555685934 -9.356043719421538e-17 6.3933129834043405e-18 -9.356043719421538e-17 6.3933129834043405e-18 0.9745130080076011 0.22433099924845437
12653082666.666666 0.9766202211229298 0.21497196024977996 -9.347591199988432e-17 7.297371174611599e-18 -9.347591199988432e-17 7.297371174611599e-18 0.9766200813408358 0.21497259528054366
12653700000.0 0.9786374202763223 0.2055937733364961 -9.338265744314881e-17 8.200392507980716e-18 -9.338265744314881e-17 8.200392507980716e-18 0.9786372865987574 0.2055944096478653
12654317333.333334 0.9805645657205505 0.19619666779306444 -9.328068567064874e-17 9.102292756934107e-18 -9.328068567064874e-17 9.102292756934107e-18 0.9805644381592199 0.19619730532636412
12654934666.666666 0.9824014801207631 0.18678150833625684 -9.317000964109477e-17 1.0002987832820155e-17 -9.317000964109477e-17 1.0002987832820155e-17 0.9824013586868076 0.18678214703270513
12655552000.0 0.984147994445138 0.1773491613440719 -9.30506431237382e-17 1.0902393792729016e-17 -9.30506431237382e-17 1.0902393792729016e-17 0.9841478791491338 0.1773498011447857
12656169333.333334 0.9858039479803732 0.1679004947763462 -9.292260069676601e-17 1.180042684729179e-17 -9.292260069676601e-17 1.180042684729179e-17 0.9858038388323306 0.16790113562234654
12656786666.666666 0.9873691883465666 0.15843637809441105 -9.278589774561691e-17 1.2697003368488637e-17 -9.278589774561691e-17 1.2697003368488637e-17 0.9873690853559282 0.1584370199266284
12657404000.0 0.9888435715111697 0.14895768218144786 -9.264055046122773e-17 1.3592039897399109e-17 -9.264055046122773e-17 1.3592039897399109e-17 0.988843474686811 0.14895832494072772
12658021333.333334 0.990226961802282 0.1394652792620976 -9.248657583819958e-17 1.4485453151975913e-17 -9.248657583819958e-17 1.4485453151975913e-17 0.9902268711525128 0.1394659228892064
12658638666.666666 0.9915192319211099 0.12996004282242515 -9.232399167289554e-17 1.5377160034756906e-17 -9.232399167289554e-17 1.5377160034756906e-17 0.9915191474536671 0.12996068725805457
12659256000.0 0.992720262953697 0.12044284752934291 -9.215281656145721e-17 1.6267077640596093e-17 -9.215281656145721e-17 1.6267077640596093e-17 0.9927201846757514 0.12044349271411658
12659873333.333334 0.9938299443818662 0.11091456915018183 -9.19730698977521e-17 1.7155123264347522e-17 -9.19730698977521e-17 1.7155123264347522e-17 0.9938298723000162 0.11091521502465992
12660490666.666666 0.9948481740933608 0.10137608447232911 -9.178477187124723e-17 1.804121440852744e-17 -9.178477187124723e-17 1.804121440852744e-17 0.9948481082136341 0.10137673097701418
12661108000.0 0.9957748583912931 0.09182827122206658 -9.15879434648038e-17 1.8925268790980028e-17 -9.15879434648038e-17 1.8925268790980028e-17 0.9957747987191488 0.09182891829740919
12661725333.333334 0.9966099120027188 0.0822720079842834 -9.1382606452406e-17 1.9807204352480973e-17 -9.1382606452406e-17 1.9807204352480973e-17 0.9966098585430411 0.08227265557068718
12662342666.666666 0.9973532580865048 0.0727081741214028 -9.11687833968084e-17 2.0686939264358745e-17 -9.11687833968084e-17 2.0686939264358745e-17 0.9973532108436058 0.07270882215923019
12662960000.0 0.9980048282403993 0.06313764969243513 -9.094649764711917e-17 2.156439193604984e-17 -9.094649764711917e-17 2.156439193604984e-17 0.9980047872180217 0.063138298122013
12663577333.333334 0.9985645625073268 0.05356131537205222 -9.071577333630181e-17 2.2439481022667598e-17 -9.071577333630181e-17 2.2439481022667598e-17 0.9985645277086382 0.05356196413367711
12664194666.666666 0.9990324093808953 0.04398005236963292 -9.047663537861036e-17 2.3312125432519165e-17 -9.047663537861036e-17 2.3312125432519165e-17 0.9990323808084911 0.04398070140357666
12664812000.0 0.9994083258101518 0.03439474234797639 -9.022910946695278e-17 2.4182244334595893e-17 -9.022910946695278e-17 2.4182244334595893e-17 0.9994083034660532 0.03439539159449155
12665429333.333334 0.9996922772035269 0.02480626734237027 -8.997322207017565e-17 2.5049757166062094e-17 -8.997322207017565e-17 2.5049757166062094e-17 0.9996922610891835 0.024806916741695734
12666046666.666666 0.999884237432029 0.015215509679369854 -8.970900043028751e-17 2.5914583639677253e-17 -8.970900043028751e-17 2.5914583639677253e-17 0.9998842275483166 0.015216159171736254
12666664000.0 0.999984188831651 0.005623351895379358 -8.943647255959938e-17 2.6776643751230442e-17 -8.943647255959938e-17 2.6776643751230442e-17 0.9999841851788707 0.0056240014210145696
12667281333.333334 0.999992122204982 -0.003969323344075582 -8.915566723780653e-17 2.7635857786904663e-17 -8.915566723780653e-17 2.7635857786904663e-17 0.9999921247828635 -0.003968673844940894
12667898666.666666 0.9999080368220687 -0.013561633326024928 -8.886661400898752e-17 2.84921463306491e-17 -8.886661400898752e-17 2.84921463306491e-17 0.9999080456297673 -0.013560983913151846
12668516000.0 0.9997319404204728 -0.02315269537119584 -8.856934317854043e-17 2.934543027149515e-17 -8.856934317854043e-17 2.934543027149515e-17 0.9997319554565698 -0.023152046104331664
12669133333.333334 0.9994638492045627 -0.03274162691489525 -8.826388581004947e-17 3.0195630810844e-17 -8.826388581004947e-17 3.0195630810844e-17 0.9994638704670686 -0.032740977853768054
12669750666.666666 0.9991037878440205 -0.04232754558870621 -8.795027372207702e-17 3.104266946973173e-17 -8.795027372207702e-17 3.104266946973173e-17 0.9991038153303724 -0.042326896793019306
12670368000.0 0.9986517894715772 -0.051909569301341975 -8.762853948488618e-17 3.1886468096064354e-17 -8.762853948488618e-17 3.1886468096064354e-17 0.9986518231786384 -0.05190892083076841
