! Parameters = {f0=12700.012000; bw=77.238000; Q=6100.000000; N=10; m_0_1=1.281577; m_1_1=0.458903; m_1_2=1.116389; m_2_2=0.458254; m_2_3=0.753352; m_2_8=0.001143; m_2_9=0.037847; m_3_3=0.456317; m_3_4=0.641881; m_3_7=0.001743; m_3_8=-0.095345; m_3_9=0.001143; m_4_4=0.453392; m_4_5=0.478216; m_4_6=0.005260; m_4_7=-0.115894; m_4_8=0.001743; m_5_5=0.453774; m_5_6=0.885571; m_5_7=0.005260; m_6_6=0.453773; m_6_7=0.478558; m_7_7=0.453406; m_7_8=0.641999; m_8_8=0.456315; m_8_9=0.753665; m_9_9=0.458249; m_9_10=1.117467; m_10_10=0.458893; m_10_11=1.282372}
!
! Created with skrf (http://scikit-rf.org).
# Hz S RI R 50.0 
!freq ReS11 ImS11 ReS21 ImS21 ReS12 ImS12 ReS22 ImS22
12607400000.0 0.9984671105821024 0.05534825277863233 -1.136257724072541e-16 2.6920435336982114e-17 -1.136257724072541e-16 2.6920435336982114e-17 0.9984670732113199 0.05534892693305922
12608017333.333334 0.9990095325215732 0.04449667325596185 -1.1330188698976796e-16 2.815792213209959e-17 -1.1330188698976796e-16 2.815792213209959e-17 0.9990095024791329 0.04449734774360428
12608634666.666666 0.9994340203869355 0.033639840859108504 -1.1296453316460864e-16 2.939154561963019e-17 -1.1296453316460864e-16 2.939154561963019e-17 0.9994339976756671 0.03364051560031386
12609252000.0 0.9997405240670564 0.02277903724804945 -1.1261375667927876e-16 3.0621159312054304e-17 -1.1261375667927876e-16 3.0621159312054304e-17 0.9997405086889222 0.022779712163142892
12609869333.333334 0.9999290073789554 0.011915544551424018 -1.1224960487345517e-16 3.18466172601994e-17 -1.1224960487345517e-16 3.18466172601994e-17 0.9999289993350535 0.011916219560718035
12610486666.666666 0.9999994480720729 0.001050645215546592 -1.1187212667268767e-16 3.3067774070536805e-17 -1.1187212667268767e-16 3.3067774070536805e-17 0.9999994473626346 0.0010513202393503374
12611104000.0 0.9999518378309014 -0.009814378147498996 -1.1148137258190155e-16 3.428448492242687e-17 -1.1148137258190155e-16 3.428448492242687e-17 0.9999518444552926 -0.009813703188870287
12611721333.333334 0.9997861822759617 -0.020678242910790012 -1.1107739467873916e-16 3.5496605585209836e-17 -1.1107739467873916e-16 3.5496605585209836e-17 0.9997861962326814 -0.020677568097005574
12612338666.666666 0.9995025009631436 -0.031539666584179095 -1.1066024660668218e-16 3.6703992435323587e-17 -1.1066024660668218e-16 3.6703992435323587e-17 0.9995025222498276 -0.03153899199488331
12612956000.0 0.999100827381392 -0.04239736696586404 -1.1022998356800759e-16 3.790650247328162e-17 -1.1022998356800759e-16 3.790650247328162e-17 0.9991008559948096 -0.04239669268066697
12613573333.333334 0.9985812089487601 -0.053250062293411934 -1.0978666231656979e-16 3.910399334054159e-17 -1.0978666231656979e-16 3.910399334054159e-17 0.9985812448848171 -0.05324938839187999
12614190666.666666 0.9979437070068109 -0.06409647139527162 -1.0933034115036943e-16 4.029632333637836e-17 -1.0933034115036943e-16 4.029632333637836e-17 0.9979437502605478 -0.06409579795691808
12614808000.0 0.9971883968133678 -0.07493531384204535 -1.0886107990396497e-16 4.148335143459567e-17 -1.0886107990396497e-16 4.148335143459567e-17 0.9971884473789627 -0.07493464094632105
12615425333.333334 0.9963153675336359 -0.08576531009758806 -1.0837893994069831e-16 4.266493730017022e-17 -1.0837893994069831e-16 4.266493730017022e-17 0.996315425404405 -0.08576463782387207
12616042666.666666 0.9953247222296843 -0.09658518166997301 -1.0788398414472939e-16 4.3840941305830427e-17 -1.0788398414472939e-16 4.3840941305830427e-17 0.9953247873980806 -0.09658451009756315
12616660000.0 0.9942165778482623 -0.10739365126258894 -1.0737627691290364e-16 4.5011224548513005e-17 -1.0737627691290364e-16 4.5011224548513005e-17 0.9942166503058787 -0.10739298047069244
12617277333.333334 0.992991065206998 -0.11818944292486915 -1.0685588414643287e-16 4.6175648865747934e-17 -1.0685588414643287e-16 4.6175648865747934e-17 0.9929911449445686 -0.11818877299259349
12617894666.666666 0.9916483289789852 -0.12897128220269355 -1.0632287324241485e-16 4.733407685191178e-17 -1.0632287324241485e-16 4.733407685191178e-17 0.9916484159863844 -0.12897061320903683
12618512000.0 0.9901885276756384 -0.1397378962893465 -1.057773130851401e-16 4.848637187446531e-17 -1.057773130851401e-16 4.848637187446531e-17 0.9901886219418845 -0.13973722831318847
12619129333.333334 0.9886118336280619 -0.15048801417515292 -1.0521927403727889e-16 4.9632398089971745e-17 -1.0521927403727889e-16 4.9632398089971745e-17 0.9886119351413175 -0.15048734729524552
12619746666.666666 0.9869184329666458 -0.16122036679800186 -1.0464882793083999e-16 5.077202046013117e-17 -1.0464882793083999e-16 5.077202046013117e-17 0.9869185417142171 -0.16121970109295952
12620364000.0 0.9851085255990911 -0.1719336871930738 -1.0406604805798463e-16 5.1905104767652e-17 -1.0406604805798463e-16 5.1905104767652e-17 0.9851086415674354 -0.17193302274136527
12620981333.333334 0.9831823251868783 -0.18262671064207273 -1.0347100916168252e-16 5.3031517631991424e-17 -1.0347100916168252e-16 5.3031517631991424e-17 0.9831824483615992 -0.18262604752201064
12621598666.666666 0.9811400591199645 -0.19329817482297512 -1.0286378742615692e-16 5.4151126525072386e-17 -1.0286378742615692e-16 5.4151126525072386e-17 0.981140189485816 -0.1932975131127072
12622216000.0 0.978981968489974 -0.20394681995882336 -1.0224446046719627e-16 5.526379978681777e-17 -1.0224446046719627e-16 5.526379978681777e-17 0.9789821060308641 -0.20394615973632355
12622833333.333334 0.9767083080617488 -0.21457138896641686 -1.0161310732227993e-16 5.636940664061332e-17 -1.0161310732227993e-16 5.636940664061332e-17 0.9767084527607401 -0.21457073030947585
12623450666.666666 0.9743193462432546 -0.22517062760479536 -1.0096980844055508e-16 5.746781720862325e-17 -1.0096980844055508e-16 5.746781720862325e-17 0.974319498082566 -0.22516997059101132
12624068000.0 0.9718153650539153 -0.2357432846232204 -1.0031464567261871e-16 5.855890252704746e-17 -1.0031464567261871e-16 5.855890252704746e-17 0.9718155240149251 -0.2357426293299901
12624685333.333334 0.9691966600912674 -0.24628811190910785 -9.964770226015501e-17 5.964253456122467e-17 -9.964770226015501e-17 5.964253456122467e-17 0.9691968261545131 -0.24628745841361696
12625302666.666666 0.9664635404961532 -0.25680386463498117 -9.896906282543056e-17 6.071858622058844e-17 -9.896906282543056e-17 6.071858622058844e-17 0.9664637136413378 -0.25680321301419595
12625920000.0 0.9636163289161147 -0.2672893014058942 -9.827881336056906e-17 6.178693137359944e-17 -9.827881336056906e-17 6.178693137359944e-17 0.9636165091221076 -0.2672886517365524
12626537333.333334 0.9606553614674317 -0.2777431844054838 -9.757704121673143e-17 6.284744486244985e-17 -9.757704121673143e-17 6.284744486244985e-17 0.9606555487122694 -0.2777425367640847
12627154666.666666 0.9575809876953489 -0.28816427954245255 -9.686383509310347e-17 6.390000251770226e-17 -9.686383509310347e-17 6.390000251770226e-17 0.9575811819562399 -0.28816363400524897
12627772000.0 0.9543935705328226 -0.29855135659619875 -9.613928502570641e-17 6.494448117283053e-17 -9.613928502570641e-17 6.494448117283053e-17 0.9543937717861495 -0.2985507132391875
12628389333.333334 0.9510934862577362 -0.3089031893618548 -9.540348237611645e-17 6.598075867853943e-17 -9.540348237611645e-17 6.598075867853943e-17 0.9510936944790581 -0.3089025482607679
12629006666.666666 0.9476811244483773 -0.31921855579536784 -9.46565198199484e-17 6.700871391707673e-17 -9.46565198199484e-17 6.700871391707673e-17 0.9476813396124337 -0.3192179170256637
12629624000.0 0.9441568879375678 -0.3294962381573834 -9.389849133525449e-17 6.802822681631501e-17 -9.389849133525449e-17 6.802822681631501e-17 0.9441571100182816 -0.32949560179423815
12630241333.333334 0.9405211927650069 -0.33973502315732645 -9.312949219072934e-17 6.903917836376539e-17 -9.312949219072934e-17 6.903917836376539e-17 0.9405214217354857 -0.33973438927562416
12630858666.666666 0.9367744681282352 -0.34993370209638797 -9.234961893379874e-17 7.004145062041027e-17 -9.234961893379874e-17 7.004145062041027e-17 0.9367747039607762 -0.3499330707707127
12631476000.0 0.9329171563318921 -0.36009107101042725 -9.155896937850666e-17 7.103492673447316e-17 -9.155896937850666e-17 7.103492673447316e-17 0.9329173989979866 -0.3600904423150544
12632093333.333334 0.928949712735563 -0.37020593081194225 -9.075764259332101e-17 7.201949095496649e-17 -9.075764259332101e-17 7.201949095496649e-17 0.928949962205897 -0.37020530482082914
12632710666.666666 0.9248726057000409 -0.3802770874315691 -8.994573888875575e-17 7.299502864515168e-17 -8.994573888875575e-17 7.299502864515168e-17 0.9248728619445014 -0.3802764642183468
12633328000.0 0.9206863165319156 -0.39030335195936133 -8.912335980483182e-17 7.39614262958804e-17 -8.912335980483182e-17 7.39614262958804e-17 0.920686579519592 -0.39030273159732587
12633945333.333334 0.9163913394268765 -0.4002835407848247 -8.829060809844342e-17 7.49185715387369e-17 -8.829060809844342e-17 7.49185715387369e-17 0.9163916091260648 -0.40028292334692783
12634562666.666666 0.9119881814113526 -0.4102164757366955 -8.744758773055429e-17 7.586635315907405e-17 -8.744758773055429e-17 7.586635315907405e-17 0.9119884577895604 -0.4102158612955373
12635180000.0 0.907477362282605 -0.4201009842221578 -8.659440385324808e-17 7.68046611089135e-17 -8.659440385324808e-17 7.68046611089135e-17 0.9074776453065553 -0.4201003728499776
12635797333.333334 0.9028594145473834 -0.4299358993652152 -8.573116279665564e-17 7.773338651968299e-17 -8.573116279665564e-17 7.773338651968299e-17 0.9028597041830166 -0.4299352911338823
12636414666.666666 0.8981348833591468 -0.4397200601442611 -8.485797205575752e-17 7.865242171479544e-17 -8.485797205575752e-17 7.865242171479544e-17 0.898135179571627 -0.4397194551252676
12637032000.0 0.8933043264535648 -0.4494523115294486 -8.397494027700996e-17 7.956166022212652e-17 -8.397494027700996e-17 7.956166022212652e-17 0.8933046292072824 -0.4494517097938999
12637649333.333334 0.8883683140827582 -0.45913150461886076 -8.308217724488012e-17 8.046099678629655e-17 -8.308217724488012e-17 8.046099678629655e-17 0.8883686233413365 -0.4591309062374687
12638266666.666666 0.8833274289480102 -0.4687564967740921 -8.217979386823891e-17 8.135032738081401e-17 -8.217979386823891e-17 8.135032738081401e-17 0.8833277446743067 -0.46875590181716476
12638884000.0 0.8781822661308976 -0.47832615175528764 -8.126790216660647e-17 8.222954922008602e-17 -8.126790216660647e-17 8.222954922008602e-17 0.8781825882870108 -0.47832556029272244
12639501333.333334 0.8729334330230673 -0.4878393398552276 -8.034661525628784e-17 8.309856077125634e-17 -8.034661525628784e-17 8.309856077125634e-17 0.8729337615703399 -0.4878387519565024
12640118666.666666 0.867581549254655 -0.4972949380324651 -7.941604733639894e-17 8.395726176587229e-17 -7.941604733639894e-17 8.395726176587229e-17 0.8675818841536806 -0.4972943537666313
12640736000.0 0.862127246620823 -0.5066918300444758 -7.847631367469273e-17 8.480555321146867e-17 -7.847631367469273e-17 8.480555321146867e-17 0.8621275878314466 -0.5066912494801474
12641353333.333334 0.8565711690076185 -0.5160289065786368 -7.752753059339392e-17 8.564333740287021e-17 -7.752753059339392e-17 8.564333740287021e-17 0.8565715164889457 -0.5160283297839854
12641970666.666666 0.8509139723155713 -0.5253050653838744 -7.656981545476867e-17 8.647051793346919e-17 -7.656981545476867e-17 8.647051793346919e-17 0.8509143260259711 -0.5253044924266198
12642588000.0 0.8451563243824448 -0.5345192114004658 -7.56032866466762e-17 8.72869997062494e-17 -7.56032866466762e-17 8.72869997062494e-17 0.8451566842795557 -0.5345186423478684
12643205333.333334 0.8392989049044338 -0.543670256889265 -7.46280635679626e-17 8.809268894468702e-17 -7.46280635679626e-17 8.809268894468702e-17 0.8392992709451668 -0.543669691808117
12643822666.666666 0.8333424053557683 -0.5527571215603502 -7.36442666137455e-17 8.888749320348135e-17 -7.36442666137455e-17 8.888749320348135e-17 0.8333427774963141 -0.552756560516969
12644440000.0 0.827287528907209 -0.5617787327003625 -7.265201716058339e-17 8.967132137912483e-17 -7.265201716058339e-17 8.967132137912483e-17 0.8272879071030432 -0.5617781757605826
12645057333.333334 0.8211349903430706 -0.5707340252990942 -7.165143755154e-17 9.044408372030085e-17 -7.165143755154e-17 9.044408372030085e-17 0.8211353745489575 -0.5707334725282589
12645674666.666666 0.8148855159767469 -0.579621942175357 -7.064265108114195e-17 9.120569183811465e-17 -7.064265108114195e-17 9.120569183811465e-17 0.8148859061467462 -0.5796213936383113
12646292000.0 0.8085398435648987 -0.5884414341018734 -6.96257819801857e-17 9.195605871618719e-17 -6.96257819801857e-17 9.195605871618719e-17 0.8085402396523709 -0.5884408898629565
12646909333.333334 0.8020987222206284 -0.5971914599287707 -6.860095540051466e-17 9.269509872052463e-17 -6.860095540051466e-17 9.269509872052463e-17 0.8020991241782389 -0.5971909200518073
12647526666.666666 0.7955629123247778 -0.6058709867068567 -6.756829739963111e-17 9.342272760926224e-17 -6.756829739963111e-17 9.342272760926224e-17 0.7955633201045039 -0.6058704512551506
12648144000.0 0.7889331854362306 -0.6144789898094686 -6.652793492521066e-17 9.413886254223404e-17 -6.652793492521066e-17 9.413886254223404e-17 0.788933598989368 -0.6144784588457958
12648761333.333334 0.7822103242009495 -0.6230144530532721 -6.547999579954793e-17 9.484342209034743e-17 -6.547999579954793e-17 9.484342209034743e-17 0.7822107434781174 -0.6230139266398728
12649378666.666666 0.7753951222594657 -0.6314763688183831 -6.442460870389318e-17 9.553632624479305e-17 -6.442460870389318e-17 9.553632624479305e-17 0.7753955472106111 -0.631475847016953
12649996000.0 0.768488384153239 -0.6398637381672491 -6.336190316265417e-17 9.621749642610687e-17 -6.336190316265417e-17 9.621749642610687e-17 0.7684888147276451 -0.6398632210389348
12650613333.333334 0.7614909252295912 -0.648175570962685 -6.229200952754832e-17 9.688685549302451e-17 -6.229200952754832e-17 9.688685549302451e-17 0.761491361375882 -0.6481750585680751
12651230666.666666 0.7544035715456726 -0.6564108859844989 -6.121505896166604e-17 9.754432775116054e-17 -6.121505896166604e-17 9.754432775116054e-17 0.754404013211819 -0.6564103783836167
12651848000.0 0.7472271597706324 -0.6645687110456934 -6.013118342337851e-17 9.818983896154925e-17 -6.013118342337851e-17 9.818983896154925e-17 0.74722760690396 -0.6645682082979916
12652465333.333334 0.7399625370870704 -0.6726480831069748 -5.904051565023444e-17 9.882331634895982e-17 -5.904051565023444e-17 9.882331634895982e-17 0.7399629896342627 -0.6726475852713262
12653082666.666666 0.7326105610910835 -0.6806480483903767 -5.794318914274473e-17 9.944468861004856e-17 -5.794318914274473e-17 9.944468861004856e-17 0.7326110189981918 -0.6806475555250696
12653700000.0 0.7251720996907247 -0.6885676624921966 -5.683933814802827e-17 1.0005388592136261e-16 -5.683933814802827e-17 1.0005388592136261e-16 0.7251725629031716 -0.6885671746549257
12654317333.333334 0.7176480310038656 -0.6964059904941198 -5.572909764346804e-17 1.0065083994710879e-16 -5.572909764346804e-17 1.0065083994710879e-16 0.7176484994664544 -0.6964055077419822
12654934666.666666 0.7100392432544057 -0.7041621070737417 -5.461260332021774e-17 1.0123548384678025e-16 -5.461260332021774e-17 1.0123548384678025e-16 0.7100397169113243 -0.7041616294632279
12655552000.0 0.702346634667293 -0.7118350966139201 -5.348999156663211e-17 1.0180775228259875e-16 -5.348999156663211e-17 1.0180775228259875e-16 0.7023471134621213 -0.7118346242009079
12656169333.333334 0.6945711133627271 -0.7194240533106215 -5.2361399451671816e-17 1.0236758142674606e-16 -5.2361399451671816e-17 1.0236758142674606e-16 0.6945715972384441 -0.7194235861503694
12656786666.666666 0.6867135972488146 -0.7269280812799944 -5.1226964708178405e-17 1.029149089684405e-16 -5.1226964708178405e-17 1.029149089684405e-16 0.6867140861478064 -0.7269276194271371
12657404000.0 0.6787750139131921 -0.7343462946641506 -5.00868257160937e-17 1.0344967412082025e-16 -5.00868257160937e-17 1.0344967412082025e-16 0.678775507777256 -0.7343458381726894
12658021333.333334 0.6707563005135366 -0.7416778177357167 -4.894112148561336e-17 1.039718176276367e-16 -4.894112148561336e-17 1.039718176276367e-16 0.6707567992838904 -0.7416773666590157
12658638666.666666 0.6626584036671074 -0.7489217850010663 -4.778999164029306e-17 1.0448128176975425e-16 -4.778999164029306e-17 1.0448128176975425e-16 0.6626589072843946 -0.7489213393918442
12659256000.0 0.6544822793386553 -0.7560773413027929 -4.6633576400015844e-17 1.0497801037149414e-16 -4.6633576400015844e-17 1.0497801037149414e-16 0.6544827877429543 -0.7560769012131193
12659873333.333334 0.6462288927278268 -0.7631436419204378 -4.547201656397811e-17 1.0546194880675407e-16 -4.547201656397811e-17 1.0546194880675407e-16 0.6462294058586553 -0.7631432074017244
12660490666.666666 0.6378992181552847 -0.7701198526701528 -4.430545349358617e-17 1.0593304400495145e-16 -4.430545349358617e-17 1.0593304400495145e-16 0.6378997359516098 -0.7701194237731498
12661108000.0 0.6294942389473231 -0.777005150003494 -4.313402909523473e-17 1.0639124445680203e-16 -4.313402909523473e-17 1.0639124445680203e-16 0.6294947613475662 -0.7770047267782819
12661725333.333334 0.6210149473202617 -0.7837987211042351 -4.195788580312619e-17 1.0683650021986747e-16 -4.195788580312619e-17 1.0683650021986747e-16 0.6210154742623067 -0.7837983036002206
12662342666.666666 0.6124623442629203 -0.7904997639846514 -4.077716656195798e-17 1.0726876292394401e-16 -4.077716656195798e-17 1.0726876292394401e-16 0.6124628756841222 -0.7904993522505617
12662960000.0 0.6038374394186269 -0.797107487580049 -3.9592014809576324e-17 1.076879857762515e-16 -3.9592014809576324e-17 1.076879857762515e-16 0.6038379752558164 -0.7971070816639241
12663577333.333334 0.5951412509660731 -0.8036211118421173 -3.840257445958706e-17 1.0809412356642814e-16 -3.840257445958706e-17 1.0809412356642814e-16 0.5951417911555668 -0.8036207117913062
12664194666.666666 0.5863748054989816 -0.8100398678311166 -3.7208989883919027e-17 1.0848713267133212e-16 -3.7208989883919027e-17 1.0848713267133212e-16 0.5863753499765891 -0.8100394736922729
12664812000.0 0.5775391379049861 -0.8163629978066049 -3.601140589531204e-17 1.0886697105966184e-16 -3.601140589531204e-17 1.0886697105966184e-16 0.577539686606016 -0.8163626096256776
12665429333.333334 0.5686352912435045 -0.8225897553168509 -3.480996772978287e-17 1.0923359829637312e-16 -3.480996772978287e-17 1.0923359829637312e-16 0.5686358441027735 -0.8225893731390823
12666046666.666666 0.5596643166225844 -0.8287194052869753 -3.3604821029066494e-17 1.095869755468991e-16 -3.3604821029066494e-17 1.095869755468991e-16 0.5596648735744243 -0.828719029156894
12666664000.0 0.5506272730746297 -0.8347512241058528 -3.239611182293757e-17 1.0992706558120028e-16 -3.239611182293757e-17 1.0992706558120028e-16 0.5506278340528967 -0.8347508540672706
12667281333.333334 0.5415252274317817 -0.8406844997112649 -3.1183986511598195e-17 1.102538327775879e-16 -3.1183986511598195e-17 1.102538327775879e-16 0.5415257923698624 -0.8406841358072689
12667898666.666666 0.5323592541996005 -0.8465185316742136 -2.996859184795328e-17 1.1056724312637593e-16 -2.996859184795328e-17 1.1056724312637593e-16 0.5323598230304211 -0.8465181739471639
12668516000.0 0.5231304354302888 -0.8522526312815579 -2.875007491985352e-17 1.1086726423333655e-16 -2.875007491985352e-17 1.1086726423333655e-16 0.5231310080863215 -0.8522522797730793
12669133333.333334 0.5138398605952406 -0.8578861216171328 -2.752858313236171e-17 1.1115386532294571e-16 -2.752858313236171e-17 1.1115386532294571e-16 0.5138404370085138 -0.8578857763681139
12669750666.666666 0.5044886264560222 -0.863418337641921 -2.6304264189928104e-17 1.1142701724144883e-16 -2.6304264189928104e-17 1.1142701724144883e-16 0.5044892065581267 -0.8634179986925065
12670368000.0 0.4950778369351862 -0.8688486262723786 -2.507726607855276e-17 1.1168669245972712e-16 -2.507726607855276e-17 1.1168669245972712e-16 0.49507842065728447 -0.8688482936619663
