! Parameters = {f0=12700.012000; bw=77.238000; Q=6100.000000; N=10; m_0_1=1.172467; m_1_1=-1.177734; m_1_2=1.007279; m_2_2=-1.178383; m_2_3=0.644242; m_2_8=-0.004313; m_2_9=0.032391; m_3_3=-1.180320; m_3_4=0.532771; m_3_7=-0.003713; m_3_8=-0.100801; m_3_9=-0.004313; m_4_4=-1.183245; m_4_5=0.369106; m_4_6=-0.000196; m_4_7=-0.121350; m_4_8=-0.003713; m_5_5=-1.182863; m_5_6=0.776461; m_5_7=-0.000196; m_6_6=-1.182864; m_6_7=0.369448; m_7_7=-1.183231; m_7_8=0.532889; m_8_8=-1.180322; m_8_9=0.644555; m_9_9=-1.178388; m_9_10=1.008357; m_10_10=-1.177744; m_10_11=1.173262}
!
! Created with skrf (http://scikit-rf.org).
# Hz S RI R 50.0 
!freq ReS11 ImS11 ReS21 ImS21 ReS12 ImS12 ReS22 ImS22
12607400000.0 -0.9999992404042831 0.0012325545450474749 6.535037743457025e-17 -1.9447428326033046e-17 6.535037743457025e-17 -1.9447428326033046e-17 -0.9999992411656766 0.001231936654194652
12608017333.333334 -0.9999606424356794 0.008872067373127828 6.518536049491484e-17 -1.9947982782315663e-17 6.518536049491484e-17 -1.9947982782315663e-17 -0.999960647917193 0.008871449536381798
12608634666.666666 -0.9998636831181088 0.016511062392852268 6.501651378234177e-17 -2.0447149400344763e-17 6.501651378234177e-17 -2.0447149400344763e-17 -0.99986369331896 0.01651044464626517
12609252000.0 -0.9997083681105201 0.02414909376456361 6.484384888144566e-17 -2.0944898911334147e-17 6.484384888144566e-17 -2.0944898911334147e-17 -0.9997083830296527 0.024148476144178806
12609869333.333334 -0.9994947064777152 0.031785715704961075 6.466737760024988e-17 -2.1441202142568926e-17 6.466737760024988e-17 -2.1441202142568926e-17 -0.9994947261137948 0.03178509824681098
12610486666.666666 -0.9992227106898143 0.039420482512890244 6.448711196941423e-17 -2.1936030019111094e-17 6.448711196941423e-17 -2.1936030019111094e-17 -0.9992227350412342 0.03941986525299435
12611104000.0 -0.9988923966215338 0.04705294859558347 6.430306424142399e-17 -2.2429353565511015e-17 6.430306424142399e-17 -2.2429353565511015e-17 -0.9988924256864102 0.047052331569946114
12611721333.333334 -0.9985037835512559 0.054682668494467034 6.411524688978317e-17 -2.292114390746704e-17 6.411524688978317e-17 -2.292114390746704e-17 -0.9985038173274321 0.054682051739075435
12612338666.666666 -0.9980568941599113 0.06230919691121701 6.392367260817257e-17 -2.341137227353832e-17 6.392367260817257e-17 -2.341137227353832e-17 -0.998056932644954 0.062308580462038986
12612956000.0 -0.9975517545296373 0.06993208873394678 6.372835430960827e-17 -2.3900009996816366e-17 6.372835430960827e-17 -2.3900009996816366e-17 -0.9975517977208395 0.06993147262692884
12613573333.333334 -0.9969883941422754 0.07755089906284486 6.352930512559269e-17 -2.4387028516573315e-17 6.352930512559269e-17 -2.4387028516573315e-17 -0.9969884420366569 0.07755028333391005
12614190666.666666 -0.996366845877647 0.08516518323634008 6.332653840523479e-17 -2.4872399379954102e-17 6.332653840523479e-17 -2.4872399379954102e-17 -0.9963668984719501 0.08516456792138567
12614808000.0 -0.9956871460116176 0.09277449685710934 6.31200677143732e-17 -2.5356094243617827e-17 6.31200677143732e-17 -2.5356094243617827e-17 -0.9956872033023141 0.09277388199200517
12615425333.333334 -0.9949493342140049 0.10037839581781681 6.290990683468341e-17 -2.5838084875383184e-17 6.290990683468341e-17 -2.5838084875383184e-17 -0.994949396197291 0.10037778143840283
12616042666.666666 -0.9941534535462422 0.10797643632723136 6.269606976276617e-17 -2.631834315588061e-17 6.269606976276617e-17 -2.631834315588061e-17 -0.9941535202180418 0.10797582246931574
12616660000.0 -0.9932995504588739 0.11556817493604317 6.247857070923017e-17 -2.6796841080181143e-17 6.247857070923017e-17 -2.6796841080181143e-17 -0.9932996218148369 0.11556756163540008
12617277333.333334 -0.99238767478885 0.1231531685626883 6.225742409776161e-17 -2.727355075941957e-17 6.225742409776161e-17 -2.727355075941957e-17 -0.9923877508243525 0.1231525558550558
12617894666.666666 -0.9914178797566142 0.130730974519237 6.203264456417851e-17 -2.7748444422417185e-17 6.203264456417851e-17 -2.7748444422417185e-17 -0.9914179604667618 0.13073036244031525
12618512000.0 -0.9903902219629724 0.13830115053745623 6.180424695547133e-17 -2.822149441729839e-17 6.180424695547133e-17 -2.822149441729839e-17 -0.9903903073425969 0.1383005391229051
12619129333.333334 -0.9893047613858476 0.14586325479414275 6.157224632884019e-17 -2.8692673213082264e-17 6.157224632884019e-17 -2.8692673213082264e-17 -0.9893048514295093 0.14586264407957986
12619746666.666666 -0.9881615613767177 0.1534168459373886 6.133665795070804e-17 -2.916195340129075e-17 6.133665795070804e-17 -2.916195340129075e-17 -0.9881616560787057 0.1534162359583873
12620364000.0 -0.9869606886569482 0.16096148311211458 6.109749729572978e-17 -2.962930769753114e-17 6.109749729572978e-17 -2.962930769753114e-17 -0.9869607880112795 0.1609608739042017
12620981333.333334 -0.9857022133139065 0.168496725985744 6.085478004579012e-17 -3.009470894307114e-17 6.085478004579012e-17 -3.009470894307114e-17 -0.9857023173143272 0.16849611758439795
12621598666.666666 -0.984386208796841 0.17602213477409878 6.060852208898004e-17 -3.055813010642244e-17 6.060852208898004e-17 -3.055813010642244e-17 -0.9843863174368273 0.17602152721474743
12622216000.0 -0.983012751912632 0.18353727026684244 6.035873951857523e-17 -3.1019544284890895e-17 6.035873951857523e-17 -3.1019544284890895e-17 -0.9830128651853888 0.18353666358486093
12622833333.333334 -0.9815819228212678 0.19104169385333783 6.010544863198766e-17 -3.147892470614526e-17 6.010544863198766e-17 -3.147892470614526e-17 -0.9815820407197317 0.1910410880840469
12623450666.666666 -0.9800938050312041 0.1985349675480508 5.984866592972054e-17 -3.193624472975064e-17 5.984866592972054e-17 -3.193624472975064e-17 -0.9800939275480423 0.19853436272671432
12624068000.0 -0.9785484853944809 0.20601665401616823 5.958840811429754e-17 -3.23914778487188e-17 5.958840811429754e-17 -3.23914778487188e-17 -0.9785486125220907 0.20601605017799124
12624685333.333334 -0.976946054101604 0.21348631659934508 5.932469208918928e-17 -3.2844597691032873e-17 5.932469208918928e-17 -3.2844597691032873e-17 -0.976946185832116 0.21348571377947206
12625302666.666666 -0.9752866046763895 0.2209435193406891 5.905753495772915e-17 -3.3295578021163713e-17 5.905753495772915e-17 -3.3295578021163713e-17 -0.9752867410016652 0.22094291757420134
12625920000.0 -0.9735702339703739 0.22838782701081592 5.878695402200717e-17 -3.374439274159397e-17 5.878695402200717e-17 -3.374439274159397e-17 -0.9735703748820075 0.2283872263327299
12626537333.333334 -0.9717970421572596 0.23581880513277795 5.851296678176649e-17 -3.4191015894310164e-17 5.851296678176649e-17 -3.4191015894310164e-17 -0.9717971876465797 0.23581820557804353
12627154666.666666 -0.9699671327270621 0.24323602000750766 5.823559093327869e-17 -3.463542166230245e-17 5.823559093327869e-17 -3.463542166230245e-17 -0.9699672827851289 0.24323542161100511
12627772000.0 -0.9680806124799785 0.25063903873945886 5.795484436820755e-17 -3.507758437105527e-17 5.795484436820755e-17 -3.507758437105527e-17 -0.9680807670975888 0.2506384415359982
12628389333.333334 -0.966137591520277 0.2580274292614048 5.767074517247298e-17 -3.5517478490010927e-17 5.767074517247298e-17 -3.5517478490010927e-17 -0.9661377506879607 0.25802683328572235
12629006666.666666 -0.964138183249783 0.26540076035998433 5.738331162508303e-17 -3.5955078634056664e-17 5.738331162508303e-17 -3.5955078634056664e-17 -0.9641383469578064 0.2654001656467418
12629624000.0 -0.9620825043612927 0.2727586017007605 5.709256219698201e-17 -3.6390359564960135e-17 5.709256219698201e-17 -3.6390359564960135e-17 -0.9620826725996575 0.2727580082845423
12630241333.333334 -0.9599706748317726 0.28010052385328005 5.679851554986035e-17 -3.68232961928378e-17 5.679851554986035e-17 -3.68232961928378e-17 -0.9599708475902171 0.28009993176859144
12630858666.666666 -0.9578028179153558 0.2874260983161657 5.65011905349759e-17 -3.7253863577580055e-17 5.65011905349759e-17 -3.7253863577580055e-17 -0.9578029951833564 0.2874255075974314
12631476000.0 -0.9555790601360808 0.29473489754234206 5.620060619194556e-17 -3.768203693029368e-17 5.620060619194556e-17 -3.768203693029368e-17 -0.9555792419028507 0.29473430822390306
12632093333.333334 -0.953299531280636 0.3020264949635528 5.589678174754334e-17 -3.810779161471153e-17 5.589678174754334e-17 -3.810779161471153e-17 -0.953299717535128 0.3020259070796656
12632710666.666666 -0.9509643643906923 0.3093004650155852 5.558973661447615e-17 -3.85311031486079e-17 5.558973661447615e-17 -3.85311031486079e-17 -0.9509645551215967 0.3092998786004186
12633328000.0 -0.9485736957551111 0.3165563831631587 5.527949039014995e-17 -3.8951947205202536e-17 5.527949039014995e-17 -3.8951947205202536e-17 -0.9485738909508596 0.31655579825079283
12633945333.333334 -0.9461276649021017 0.3237938259243796 5.496606285543156e-17 -3.9370299614547365e-17 5.496606285543156e-17 -3.9370299614547365e-17 -0.9461278645508658 0.3237932425488036
12634562666.666666 -0.9436264145909675 0.33101237089578034 5.464947397339375e-17 -3.9786136364910744e-17 5.464947397339375e-17 -3.9786136364910744e-17 -0.9436266186806609 0.3310117890908903
12635180000.0 -0.9410700908038597 0.3382115967767306 5.43297438880571e-17 -4.0199433604142567e-17 5.43297438880571e-17 -4.0199433604142567e-17 -0.9410702993221374 0.3382110165763277
12635797333.333334 -0.9384588427371782 0.3453910833942402 5.400689292310904e-17 -4.061016764104648e-17 5.400689292310904e-17 -4.061016764104648e-17 -0.9384590556714374 0.34539050483202827
12636414666.666666 -0.9357928227929323 0.3525504117272942 5.368094158062859e-17 -4.1018314946720144e-17 5.368094158062859e-17 -4.1018314946720144e-17 -0.9357930401303161 0.352549834836879
12637032000.0 -0.9330721865698219 0.359689163931391 5.335191053978938e-17 -4.14238521559007e-17 5.335191053978938e-17 -4.14238521559007e-17 -0.9330724082972135 0.3596885887462762
12637649333.333334 -0.9302970928541253 0.366806923362978 5.3019820655553826e-17 -4.182675606829848e-17 5.3019820655553826e-17 -4.182675606829848e-17 -0.9302973189581575 0.3668063499165658
12638266666.666666 -0.9274677036104633 0.37390327460372025 5.268469295736215e-17 -4.222700364991429e-17 5.268469295736215e-17 -4.222700364991429e-17 -0.9274679340775118 0.3739027029293072
12638884000.0 -0.9245841839723694 0.3809778034846624 5.234654864781236e-17 -4.262457203434451e-17 5.234654864781236e-17 -4.262457203434451e-17 -0.9245844187885585 0.3809772336154391
12639501333.333334 -0.921646702232584 0.38803009711058895 5.200540910131891e-17 -4.301943852409111e-17 5.200540910131891e-17 -4.301943852409111e-17 -0.9216469413837843 0.3880295290796369
12640118666.666666 -0.9186554298333246 0.3950597438838831 5.1661295862780684e-17 -4.3411580591837e-17 5.1661295862780684e-17 -4.3411580591837e-17 -0.9186556733051562 0.3950591777241736
12640736000.0 -0.9156105413561404 0.4020663335288918 5.131423064621215e-17 -4.380097588174291e-17 5.131423064621215e-17 -4.380097588174291e-17 -0.9156107891339709 0.40206576927328336
12641353333.333334 -0.9125122145119084 0.4090494571154245 5.096423533340397e-17 -4.418760221068881e-17 5.096423533340397e-17 -4.418760221068881e-17 -0.9125124665808572 0.4090488947966614
12641970666.666666 -0.9093606301303205 0.416008707082961 5.061133197252872e-17 -4.457143756955638e-17 5.061133197252872e-17 -4.457143756955638e-17 -0.9093608864752573 0.41600814673367154
12642588000.0 -0.9061559721493602 0.42294367726435905 5.025554277677633e-17 -4.495246012445597e-17 5.025554277677633e-17 -4.495246012445597e-17 -0.9061562327549069 0.42294311891705333
12643205333.333334 -0.9028984276045908 0.42985396290950795 4.98968901229536e-17 -4.533064821797278e-17 4.98968901229536e-17 -4.533064821797278e-17 -0.9028986924551218 0.42985340659657584
12643822666.666666 -0.8995881866182264 0.43673916070897584 4.9535396550089686e-17 -4.570598037038477e-17 4.9535396550089686e-17 -4.570598037038477e-17 -0.899588455697871 0.43673860646268586
12644440000.0 -0.8962254423880155 0.4435988688176024 4.917108475802508e-17 -4.607843528087821e-17 4.917108475802508e-17 -4.607843528087821e-17 -0.8962257156806566 0.4435983166700988
12645057333.333334 -0.8928103911760455 0.4504326868777699 4.880397760599769e-17 -4.644799182874495e-17 4.880397760599769e-17 -4.644799182874495e-17 -0.8928106686653215 0.45043213686107125
12645674666.666666 -0.8893432322972078 0.4572402160429509 4.843409811121369e-17 -4.681462907457549e-17 4.843409811121369e-17 -4.681462907457549e-17 -0.8893435139665156 0.45723966818894896
12646292000.0 -0.8858241681075092 0.46402105900108614 4.806146944740781e-17 -4.7178326261441943e-17 4.806146944740781e-17 -4.7178326261441943e-17 -0.8858244539400011 0.4640205133415426
12646909333.333334 -0.8822534039924675 0.47077481999736787 4.7686114943407305e-17 -4.753906281605766e-17 4.7686114943407305e-17 -4.753906281605766e-17 -0.8822536939710559 0.47077427656391363
12647526666.666666 -0.8786311483549063 0.477501104857768 4.7308058081676126e-17 -4.7896818349936e-17 4.7308058081676126e-17 -4.7896818349936e-17 -0.8786314424622628 0.4775005636819008
12648144000.0 -0.8749576126029073 0.48419952101181574 4.692732249684522e-17 -4.825157266054326e-17 4.692732249684522e-17 -4.825157266054326e-17 -0.8749579108214645 0.4841989821248987
12648761333.333334 -0.8712330111374315 0.49086967751558463 4.6543931974251917e-17 -4.860330573242233e-17 4.6543931974251917e-17 -4.860330573242233e-17 -0.8712333134493843 0.4908691409488445
12649378666.666666 -0.8674575613398506 0.49751118507443615 4.6157910448465774e-17 -4.8951997738310556e-17 4.6157910448465774e-17 -4.8951997738310556e-17 -0.8674578677271557 0.4975106508589605
12649996000.0 -0.8636314835592284 0.5041236560657885 4.576928200178629e-17 -4.9297629040264e-17 4.576928200178629e-17 -4.9297629040264e-17 -0.863631794003607 0.5041231242325251
12650613333.333334 -0.8597550010994187 0.5107067045618139 4.53780708627562e-17 -4.9640180190747703e-17 4.53780708627562e-17 -4.9640180190747703e-17 -0.8597553155823581 0.5107061751415689
12651230666.666666 -0.8558283402061369 0.5172599463517928 4.4984301404668305e-17 -4.9979631933713314e-17 4.4984301404668305e-17 -4.9979631933713314e-17 -0.8558286587088874 0.5172594193752271
12651848000.0 -0.8518517300536461 0.523782998964705 4.458799814403135e-17 -5.031596520569395e-17 4.458799814403135e-17 -5.031596520569395e-17 -0.8518520525572288 0.5237824744623357
12652465333.333334 -0.8478254027314329 0.5302754816914834 4.418918573906786e-17 -5.064916113685146e-17 4.418918573906786e-17 -5.064916113685146e-17 -0.8478257292166343 0.5302749596936787
12653082666.666666 -0.8437495932307014 0.5367370156071569 4.3787888988191654e-17 -5.097920105202369e-17 4.3787888988191654e-17 -5.097920105202369e-17 -0.84374992367808 0.5367364961441369
12653700000.0 -0.8396245394305555 0.543167223593137 4.3384132828449557e-17 -5.1306066471782803e-17 4.3384132828449557e-17 -5.1306066471782803e-17 -0.83962487382044 0.5431667066949709
12654317333.333334 -0.8354504820842241 0.5495657303590611 4.297794233400387e-17 -5.162973911344102e-17 4.297794233400387e-17 -5.162973911344102e-17 -0.8354508203967134 0.5495652160556647
12654934666.666666 -0.8312276648049729 0.5559321624647394 4.2569342714571764e-17 -5.1950200892073426e-17 4.2569342714571764e-17 -5.1950200892073426e-17 -0.8312280070199408 0.5559316507858753
12655552000.0 -0.8269563340517843 0.562266148342122 4.215835931385902e-17 -5.226743392152757e-17 4.215835931385902e-17 -5.226743392152757e-17 -0.826956680148877 0.5622656393173949
12656169333.333334 -0.8226367391151542 0.5685673183166942 4.174501760801276e-17 -5.258142051539908e-17 4.174501760801276e-17 -5.258142051539908e-17 -0.8226370890737952 0.5685668119755529
12656786666.666666 -0.8182691321024387 0.5748353046292233 4.1329343204038814e-17 -5.289214318801754e-17 4.1329343204038814e-17 -5.289214318801754e-17 -0.8182694859018274 0.5748348010009566
12657404000.0 -0.8138537679231052 0.5810697414572674 4.091136183821925e-17 -5.3199584655414384e-17 4.091136183821925e-17 -5.3199584655414384e-17 -0.8138541255422185 0.5810692405710025
12658021333.333334 -0.8093909042739492 0.5872702649363829 4.0491099374534706e-17 -5.3503727836268423e-17 4.0491099374534706e-17 -5.3503727836268423e-17 -0.809391265691544 0.5872697668210849
12658638666.666666 -0.8048808016240281 0.5934365131814134 4.006858180306817e-17 -5.3804555852849154e-17 4.006858180306817e-17 -5.3804555852849154e-17 -0.8048811668186402 0.5934360178658815
12659256000.0 -0.8003237231993349 0.5995681263077653 3.964383523839336e-17 -5.4102052031952044e-17 3.964383523839336e-17 -5.4102052031952044e-17 -0.8003240921492843 0.5995676338206346
12659873333.333334 -0.7957199349676449 0.605664746452143 3.921688591798619e-17 -5.439619990580069e-17 3.921688591798619e-17 -5.439619990580069e-17 -0.795720307651032 0.6056642568218783
12660490666.666666 -0.7910697056228665 0.6117260177935888 3.8787760200601554e-17 -5.4686983212956397e-17 3.8787760200601554e-17 -5.4686983212956397e-17 -0.7910700820175777 0.6117255310484876
12661108000.0 -0.7863733065693319 0.6177515865743015 3.8356484564641614e-17 -5.497438589921556e-17 3.8356484564641614e-17 -5.497438589921556e-17 -0.7863736866530378 0.6177511027424887
12661725333.333334 -0.7816310119060725 0.6237411011201195 3.7923085606555564e-17 -5.525839211846888e-17 3.7923085606555564e-17 -5.525839211846888e-17 -0.7816313956562322 0.6237406202295481
12662342666.666666 -0.7768430984106864 0.6296942118612295 3.7487590039179285e-17 -5.553898623358412e-17 3.7487590039179285e-17 -5.553898623358412e-17 -0.7768434858045457 0.6296937339396776
12662960000.0 -0.7720098455233219 0.6356105713523875 3.705002469010818e-17 -5.581615281724941e-17 3.705002469010818e-17 -5.581615281724941e-17 -0.7720102365379163 0.6356100964274569
12663577333.333334 -0.7671315353302441 0.6414898342933522 3.661041650005434e-17 -5.608987665281003e-17 3.661041650005434e-17 -5.608987665281003e-17 -0.7671319299424019 0.6414893623924687
12664194666.666666 -0.7622084525474297 0.6473316575489749 3.6168792521185e-17 -5.6360142735101e-17 3.6168792521185e-17 -5.6360142735101e-17 -0.7622088507337695 0.6473311886993834
12664812000.0 -0.7572408845039981 0.6531357001691561 3.5725179915468915e-17 -5.662693627125656e-17 3.5725179915468915e-17 -5.662693627125656e-17 -0.7572412862409328 0.653135234397922
12665429333.333334 -0.752229121125317 0.6589016234088999 3.5279605953015847e-17 -5.689024268150878e-17 3.5279605953015847e-17 -5.689024268150878e-17 -0.7522295263890552 0.6589011607429057
12666046666.666666 -0.7471734549162302 0.6646290907479113 3.483209801040505e-17 -5.715004759997548e-17 3.483209801040505e-17 -5.715004759997548e-17 -0.747173863682776 0.6646286312138554
12666664000.0 -0.7420741809438337 0.6703177679104064 3.438268356899666e-17 -5.74063368754422e-17 3.438268356899666e-17 -5.74063368754422e-17 -0.7420745931889903 0.6703173115348029
12667281333.333334 -0.7369315968203879 0.6759673228844747 3.3931390213278295e-17 -5.765909657210637e-17 3.3931390213278295e-17 -5.765909657210637e-17 -0.7369320125197569 0.6759668696936498
12667898666.666666 -0.731746002685912 0.6815774259414996 3.347824562915077e-17 -5.790831297034181e-17 3.347824562915077e-17 -5.790831297034181e-17 -0.7317464218148958 0.6815769759615913
12668516000.0 -0.726517701190528 0.6871477496555471 3.302327760224891e-17 -5.815397256742522e-17 3.302327760224891e-17 -5.815397256742522e-17 -0.7265181237243318 0.6871473029125035
12669133333.333334 -0.7212469974770307 0.692677968922225 3.256651401624786e-17 -5.839606207825618e-17 3.256651401624786e-17 -5.839606207825618e-17 -0.7212474233906635 0.6926775254418032
12669750666.666666 -0.7159341991629458 0.6981677609778069 3.2107982851150486e-17 -5.863456843607047e-17 3.2107982851150486e-17 -5.863456843607047e-17 -0.7159346284312206 0.6981673207855701
12670368000.0 -0.7105796163225298 0.7036168054181045 3.164771218158301e-17 -5.886947879313298e-17 3.164771218158301e-17 -5.886947879313298e-17 -0.7105800489200681 0.7036163685394228
