! Parameters = {f0=12700.012000; bw=77.238000; Q=6100.000000; N=10; m_0_1=1.183679; m_1_1=-1.009566; m_1_2=1.018491; m_2_2=-1.010215; m_2_3=0.655454; m_2_8=-0.003752; m_2_9=0.032952; m_3_3=-1.012152; m_3_4=0.543983; m_3_7=-0.003152; m_3_8=-0.100240; m_3_9=-0.003752; m_4_4=-1.015077; m_4_5=0.380318; m_4_6=0.000365; m_4_7=-0.120789; m_4_8=-0.003152; m_5_5=-1.014695; m_5_6=0.787673; m_5_7=0.000365; m_6_6=-1.014696; m_6_7=0.380660; m_7_7=-1.015063; m_7_8=0.544101; m_8_8=-1.012154; m_8_9=0.655767; m_9_9=-1.010220; m_9_10=1.019569; m_10_10=-1.009576; m_10_11=1.184474}
!
! Created with skrf (http://scikit-rf.org).
# Hz S RI R 50.0 
!freq ReS11 ImS11 ReS21 ImS21 ReS12 ImS12 ReS22 ImS22
12607400000.0 -0.8817892834777258 0.47164357256691786 5.141904099428284e-17 -5.078177787559099e-17 5.141904099428284e-17 -5.078177787559099e-17 -0.8817895776795073 0.47164302252407253
12608017333.333334 -0.878001809894024 0.4786573114689289 5.099809579504261e-17 -5.1184520939363665e-17 5.099809579504261e-17 -5.1184520939363665e-17 -0.8780021084562168 0.47865676381545463
12608634666.666666 -0.8741585502805985 0.48564063768507704 5.057400186537764e-17 -5.1583780521060176e-17 5.057400186537764e-17 -5.1583780521060176e-17 -0.8741588531838058 0.4856400924555342
12609252000.0 -0.8702597488285624 0.4925931075123715 5.0146787986239204e-17 -5.197953205093627e-17 5.0146787986239204e-17 -5.197953205093627e-17 -0.870260056053114 0.4925925647411633
12609869333.333334 -0.8663056532580031 0.4995142792083845 4.971648312990228e-17 -5.2371751196676066e-17 4.971648312990228e-17 -5.2371751196676066e-17 -0.866305964783957 0.4995137389297552
12610486666.666666 -0.8622965148023004 0.5064037130192197 4.9283116458017416e-17 -5.2760413864871755e-17 4.9283116458017416e-17 -5.2760413864871755e-17 -0.8622968306094433 0.5064031752672519
12611104000.0 -0.8582325881920648 0.5132609712076267 4.88467173196267e-17 -5.3145496202509293e-17 4.88467173196267e-17 -5.3145496202509293e-17 -0.8582329082599124 0.5132604360162382
12611721333.333334 -0.8541141316390641 0.5200856180806142 4.8407315249206494e-17 -5.352697459840348e-17 4.8407315249206494e-17 -5.352697459840348e-17 -0.8541144559468635 0.5200850854835573
12612338666.666666 -0.8499414068197336 0.5268772200172827 4.7964939964662155e-17 -5.390482568464971e-17 4.7964939964662155e-17 -5.390482568464971e-17 -0.8499417353464652 0.5268766900481415
12612956000.0 -0.8457146788585309 0.5336353454963967 4.7519621365326787e-17 -5.427902633804553e-17 4.7519621365326787e-17 -5.427902633804553e-17 -0.8457150115829095 0.5336348181885858
12613573333.333334 -0.8414342163112296 0.5403595651235885 4.707138952996355e-17 -5.464955368148416e-17 4.707138952996355e-17 -5.464955368148416e-17 -0.8414345532117045 0.5403590405103492
12614190666.666666 -0.8371002911477017 0.5470494516588779 4.6620274714726794e-17 -5.501638508535623e-17 4.6620274714726794e-17 -5.501638508535623e-17 -0.8371006322024598 0.5470489297732779
12614808000.0 -0.8327131787347155 0.5537045800437022 4.616630735113637e-17 -5.537949816891547e-17 4.616630735113637e-17 -5.537949816891547e-17 -0.8327135239216803 0.5537040609186311
12615425333.333334 -0.8282731578184221 0.5603245274279421 4.5709518044031984e-17 -5.573887080163555e-17 4.5709518044031984e-17 -5.573887080163555e-17 -0.8282735071152583 0.5603240110961126
12616042666.666666 -0.8237805105066454 0.566908873196793 4.5249937569518276e-17 -5.60944811045485e-17 4.5249937569518276e-17 -5.60944811045485e-17 -0.8237808638907588 0.5669083596907366
12616660000.0 -0.8192355222509591 0.5734571989974877 4.4787596872900136e-17 -5.6446307451567e-17 4.4787596872900136e-17 -5.6446307451567e-17 -0.8192358796994976 0.5734566883495532
12617277333.333334 -0.8146384818285324 0.579969088765902 4.432252706660575e-17 -5.679432847079011e-17 4.432252706660575e-17 -5.679432847079011e-17 -0.8146388433183873 0.5799685810082528
12617894666.666666 -0.8099896813238457 0.586444128752895 4.385475942810803e-17 -5.71385230457865e-17 4.385475942810803e-17 -5.71385230457865e-17 -0.8099900468316547 0.5864436239175085
12618512000.0 -0.8052894161100195 0.5928819075507623 4.3384325397817913e-17 -5.747887031687364e-17 4.3384325397817913e-17 -5.747887031687364e-17 -0.8052897856121672 0.5928814056694272
12619129333.333334 -0.8005379848301797 0.599282016119191 4.291125657699298e-17 -5.781534968236196e-17 4.291125657699298e-17 -5.781534968236196e-17 -0.8005383583027992 0.5992815172235045
12619746666.666666 -0.7957356893783806 0.6056440478113857 4.243558472561295e-17 -5.814794079979846e-17 4.243558472561295e-17 -5.814794079979846e-17 -0.7957360667973551 0.6056435519327533
12620364000.0 -0.7908828348804072 0.6119675983999294 4.195734176025403e-17 -5.847662358718684e-17 4.195734176025403e-17 -5.847662358718684e-17 -0.7908832162213713 0.6119671055695608
12620981333.333334 -0.785979729674541 0.6182522661022616 4.147655975197076e-17 -5.88013782241788e-17 4.147655975197076e-17 -5.88013782241788e-17 -0.7859801149128829 0.6182517763511705
12621598666.666666 -0.7810266852917992 0.6244976516064343 4.099327092413683e-17 -5.912218515326989e-17 4.099327092413683e-17 -5.912218515326989e-17 -0.7810270744026616 0.6244971649654354
12622216000.0 -0.7760240164362245 0.6307033580963697 4.050750765030201e-17 -5.943902508096066e-17 4.050750765030201e-17 -5.943902508096066e-17 -0.7760244093945063 0.6307028745960768
12622833333.333334 -0.7709720409648556 0.6368689912771165 4.0019302452028386e-17 -5.975187897890795e-17 4.0019302452028386e-17 -5.975187897890795e-17 -0.7709724377452146 0.6368685109479417
12623450666.666666 -0.7658710798676043 0.6429941593998171 3.952868799672793e-17 -6.006072808505196e-17 3.952868799672793e-17 -6.006072808505196e-17 -0.7658714804444567 0.6429936822719672
12624068000.0 -0.7607214572467688 0.6490784732867052 3.903569709547638e-17 -6.036555390473573e-17 3.903569709547638e-17 -6.036555390473573e-17 -0.7607218615942932 0.649077999390181
12624685333.333334 -0.7555235002964228 0.655121546355856 3.8540362700825e-17 -6.066633821180198e-17 3.8540362700825e-17 -6.066633821180198e-17 -0.7555239083885606 0.6551210757204506
12625302666.666666 -0.7502775392817931 0.6611229946455544 3.804271790462363e-17 -6.096306304966078e-17 3.804271790462363e-17 -6.096306304966078e-17 -0.7502779510922497 0.6611225273008499
12625920000.0 -0.7449839075180679 0.6670824368389247 3.754279593579155e-17 -6.125571073236538e-17 3.754279593579155e-17 -6.125571073236538e-17 -0.7449843230203163 0.6670819728142924
12626537333.333334 -0.7396429413493932 0.6729994942879716 3.7040630158131326e-17 -6.154426384564001e-17 3.7040630158131326e-17 -6.154426384564001e-17 -0.7396433605166732 0.6729990336125677
12627154666.666666 -0.7342549801273652 0.6788737910377816 3.6536254068099755e-17 -6.182870524791043e-17 3.6536254068099755e-17 -6.182870524791043e-17 -0.7342554029326869 0.6788733337405477
12627772000.0 -0.7288203661895275 0.6847049538503505 3.6029701292570517e-17 -6.210901807131581e-17 3.6029701292570517e-17 -6.210901807131581e-17 -0.7288207926056719 0.6847044999600098
12628389333.333334 -0.7233394448376965 0.6904926122282123 3.5521005586625343e-17 -6.2385185722683e-17 3.5521005586625343e-17 -6.2385185722683e-17 -0.7233398748372192 0.69049216177327
12629006666.666666 -0.7178125643158291 0.6962363984381896 3.5010200831285656e-17 -6.26571918845109e-17 3.5010200831285656e-17 -6.26571918845109e-17 -0.7178129978710591 0.6962359514469284
12629624000.0 -0.7122400757880889 0.7019359475345488 3.449732103128167e-17 -6.292502051591206e-17 3.449732103128167e-17 -6.292502051591206e-17 -0.7122405128711337 0.7019355040350297
12630241333.333334 -0.7066223333164185 0.7075908973823137 3.3982400312794786e-17 -6.318865585354704e-17 3.3982400312794786e-17 -6.318865585354704e-17 -0.7066227738991631 0.7075904574023728
12630858666.666666 -0.7009596938381617 0.7132008886801516 3.346547292118585e-17 -6.344808241254403e-17 3.346547292118585e-17 -6.344808241254403e-17 -0.7009601378922717 0.7132004522473987
12631476000.0 -0.695252517143164 0.7187655649834249 3.29465732187305e-17 -6.370328498739205e-17 3.29465732187305e-17 -6.370328498739205e-17 -0.6952529646400876 0.7187651321252417
12632093333.333334 -0.689501165851174 0.7242845727265759 3.2425735682346516e-17 -6.3954248652817e-17 3.2425735682346516e-17 -6.3954248652817e-17 -0.6895016167621435 0.7242841434701147
12632710666.666666 -0.6837060053886852 0.7297575612457168 3.1902994901309194e-17 -6.420095876464243e-17 3.1902994901309194e-17 -6.420095876464243e-17 -0.6837064596847171 0.7297571356178967
12633328000.0 -0.6778674039655882 0.7351841828010186 3.137838557495061e-17 -6.444340096063495e-17 3.137838557495061e-17 -6.444340096063495e-17 -0.6778678616174897 0.7351837608285285
12633945333.333334 -0.671985732552051 0.7405640925985622 3.085194251038077e-17 -6.468156116131891e-17 3.085194251038077e-17 -6.468156116131891e-17 -0.6719861935304168 0.7405636743078537
12634562666.666666 -0.6660613648547142 0.7458969488124495 3.0323700620176545e-17 -6.491542557078393e-17 3.0323700620176545e-17 -6.491542557078393e-17 -0.6660618291299317 0.7458965342297394
12635180000.0 -0.6600946772930555 0.7511824126064341 2.9793694920075885e-17 -6.514498067746898e-17 2.9793694920075885e-17 -6.514498067746898e-17 -0.6600951448353048 0.7511820017577
12635797333.333334 -0.6540860489754275 0.7564201481554823 2.926196052666242e-17 -6.537021325492902e-17 2.926196052666242e-17 -6.537021325492902e-17 -0.6540865197546838 0.7564197410664614
12636414666.666666 -0.6480358616750562 0.7616098226670364 2.8728532655053963e-17 -6.559111036257919e-17 2.8728532655053963e-17 -6.559111036257919e-17 -0.6480363356610929 0.761609419363226
12637032000.0 -0.641944499805657 0.7667511064022742 2.8193446616566416e-17 -6.580765934642746e-17 2.8193446616566416e-17 -6.580765934642746e-17 -0.6419449769680464 0.7667507069089285
12637649333.333334 -0.6358123503970954 0.7718436726969845 2.765673781639163e-17 -6.601984783978158e-17 2.765673781639163e-17 -6.601984783978158e-17 -0.6358128307052101 0.7718432770391117
12638266666.666666 -0.629639803070772 0.7768871979823374 2.711844175126017e-17 -6.622766376393977e-17 2.711844175126017e-17 -6.622766376393977e-17 -0.6296402864937897 0.7768868061847015
12638884000.0 -0.623427250014871 0.7818813618054483 2.657859400710131e-17 -6.643109532886273e-17 2.657859400710131e-17 -6.643109532886273e-17 -0.6234277365217732 0.7818809738925651
12639501333.333334 -0.617175085959417 0.786825846849754 2.6037230256696025e-17 -6.663013103382662e-17 2.6037230256696025e-17 -6.663013103382662e-17 -0.6171755755189922 0.7868254628458891
12640118666.666666 -0.6108837081513064 0.7917203389550855 2.5494386257338734e-17 -6.68247596680526e-17 2.5494386257338734e-17 -6.68247596680526e-17 -0.6108842007321529 0.791719958884255
12640736000.0 -0.6045535163288227 0.7965645271378233 2.4950097848452396e-17 -6.701497031133222e-17 2.4950097848452396e-17 -6.701497031133222e-17 -0.6045540118993481 0.796564151023789
12641353333.333334 -0.5981849126965479 0.8013581036104087 2.440440094927572e-17 -6.720075233460649e-17 2.440440094927572e-17 -6.720075233460649e-17 -0.5981854112249761 0.8013577314766819
12641970666.666666 -0.5917783018995441 0.8061007638011136 2.385733155645997e-17 -6.738209540055633e-17 2.385733155645997e-17 -6.738209540055633e-17 -0.5917788033539116 0.8061003956709483
12642588000.0 -0.5853340909978418 0.8107922063732341 2.3308925741721045e-17 -6.755898946415292e-17 2.3308925741721045e-17 -6.755898946415292e-17 -0.5853345953460036 0.8107918422696283
12643205333.333334 -0.5788526894404425 0.8154321332443396 2.27592196494646e-17 -6.773142477319693e-17 2.27592196494646e-17 -6.773142477319693e-17 -0.5788531966500721 0.8154317731900325
12643822666.666666 -0.5723345090393004 0.8200202496052097 2.2208249494411264e-17 -6.789939186883719e-17 2.2208249494411264e-17 -6.789939186883719e-17 -0.5723350190778933 0.820019893622682
12644440000.0 -0.5657799639432508 0.8245562639385017 2.1656051559216224e-17 -6.806288158607085e-17 2.1656051559216224e-17 -6.806288158607085e-17 -0.565780476778126 0.8245559120499734
12645057333.333334 -0.5591894706116746 0.8290398880372902 2.1102662192093113e-17 -6.822188505422162e-17 2.1102662192093113e-17 -6.822188505422162e-17 -0.5591899862099758 0.8290395402647178
12645674666.666666 -0.5525634477880341 0.8334708370233762 2.0548117804426846e-17 -6.837639369740144e-17 2.0548117804426846e-17 -6.837639369740144e-17 -0.5525639661167339 0.8334704933884538
12646292000.0 -0.5459023164731069 0.8378488293655031 1.99924548683715e-17 -6.852639923495589e-17 1.99924548683715e-17 -6.852639923495589e-17 -0.5459028374990061 0.8378484898896583
12646909333.333334 -0.539206499898538 0.8421735868970334 1.943570991448429e-17 -6.867189368187924e-17 1.943570991448429e-17 -6.867189368187924e-17 -0.5392070235882709 0.8421732516014298
12647526666.666666 -0.532476423499718 0.8464448348337873 1.8877919529311732e-17 -6.881286934922295e-17 1.8877919529311732e-17 -6.881286934922295e-17 -0.5324769498197516 0.8464445037393183
12648144000.0 -0.525712514888745 0.8506623017914917 1.831912035299455e-17 -6.894931884447827e-17 1.831912035299455e-17 -6.894931884447827e-17 -0.5257130438053838 0.8506619749187839
12648761333.333334 -0.5189152038274765 0.8548257198028939 1.7759349076876024e-17 -6.908123507193863e-17 1.7759349076876024e-17 -6.908123507193863e-17 -0.5189157353068624 0.854825397172303
12649378666.666666 -0.5120849221999562 0.8589348243349506 1.7198642441100115e-17 -6.92086112330444e-17 1.7198642441100115e-17 -6.92086112330444e-17 -0.5120854562080714 0.85893450596656
12649996000.0 -0.5052221039851905 0.862989354305501 1.663703723219741e-17 -6.933144082671044e-17 1.663703723219741e-17 -6.933144082671044e-17 -0.5052226404878605 0.8629890402191219
12650613333.333334 -0.49832718522938063 0.8669890520999728 1.607457028068484e-17 -6.944971764963072e-17 1.607457028068484e-17 -6.944971764963072e-17 -0.4983277241922759 0.8669887423151432
12651230666.666666 -0.4914006040184395 0.8709336635876248 1.5511278458665467e-17 -6.956343579656294e-17 1.5511278458665467e-17 -6.956343579656294e-17 -0.4914011454070764 0.8709333581236054
12651848000.0 -0.4844428004498813 0.8748229381378408 1.4947198677398752e-17 -6.967258966059973e-17 1.4947198677398752e-17 -6.967258966059973e-17 -0.4844433442296272 0.8748226370136191
12652465333.333334 -0.47745421660508613 0.8786566286359369 1.438236788490693e-17 -6.977717393341249e-17 1.438236788490693e-17 -6.977717393341249e-17 -0.4774547627411587 0.8786563318702206
12653082666.666666 -0.47043529652120886 0.8824344914988584 1.3816823063562071e-17 -6.987718360547948e-17 1.3816823063562071e-17 -6.987718360547948e-17 -0.47043584497867963 0.8824341991100768
12653700000.0 -0.4633864861627178 0.8861562866907943 1.3250601227652e-17 -6.997261396629827e-17 1.3250601227652e-17 -6.997261396629827e-17 -0.4633870369065141 0.8861559986970965
12654317333.333334 -0.45630823339340787 0.8898217777382362 1.2683739420992702e-17 -7.006346060456928e-17 1.2683739420992702e-17 -7.006346060456928e-17 -0.45630878638831546 0.889821494157491
12654934666.666666 -0.4492009879476957 0.8934307317451426 1.211627471449022e-17 -7.014971940836986e-17 1.211627471449022e-17 -7.014971940836986e-17 -0.44920154315836097 0.893430452594937
12655552000.0 -0.4420652014020436 0.8969829194077327 1.1548244203733368e-17 -7.023138656530208e-17 1.1548244203733368e-17 -7.023138656530208e-17 -0.44206575879297494 0.8969826447053691
12656169333.333334 -0.43490132714646795 0.9004781150289493 1.0979685006571978e-17 -7.030845856262434e-17 1.0979685006571978e-17 -7.030845856262434e-17 -0.4349018866820395 0.9004778447914475
12656786666.666666 -0.427709820355583 0.9039160965328819 1.0410634260706617e-17 -7.038093218736117e-17 1.0410634260706617e-17 -7.038093218736117e-17 -0.4277103820000358 0.9039158307769757
12657404000.0 -0.42049113795965415 0.9072966454788887 9.841129121257881e-18 -7.044880452639654e-17 9.841129121257881e-18 -7.044880452639654e-17 -0.4204917016770983 0.9072963842210249
12658021333.333334 -0.41324573861561303 0.9106195470754428 9.27120675835358e-18 -7.051207296654491e-17 9.27120675835358e-18 -7.051207296654491e-17 -0.4132463043700314 0.9106192903317822
12658638666.666666 -0.4059740826780239 0.9138845901937425 8.700904354717954e-18 -7.057073519460334e-17 8.700904354717954e-18 -7.057073519460334e-17 -0.4059746504332729 0.9138843379801569
12659256000.0 -0.3986766321695724 0.9170915673812378 8.130259103232759e-18 -7.062478919738645e-17 8.130259103232759e-18 -7.062478919738645e-17 -0.39867720188938455 0.9170913197133089
12659873333.333334 -0.3913538507519428 0.9202402748747055 7.559308204536967e-18 -7.067423326173824e-17 7.559308204536967e-18 -7.067423326173824e-17 -0.3913544223999299 0.9202400317677258
12660490666.666666 -0.3840062036963603 0.9233305126132016 6.988088864608732e-18 -7.071906597452637e-17 6.988088864608732e-18 -7.071906597452637e-17 -0.38400677723601473 0.9233302740821714
12661108000.0 -0.3766341578537654 0.9263620842508785 6.416638292327847e-18 -7.075928622261866e-17 6.416638292327847e-18 -7.075928622261866e-17 -0.37663473324846364 0.9263618503105072
12661725333.333334 -0.3692381816255208 0.9293347971693123 5.844993697087255e-18 -7.079489319283566e-17 5.844993697087255e-18 -7.079489319283566e-17 -0.3692387588385239 0.9293345678340144
12662342666.666666 -0.3618187449333582 0.9322484624898545 5.273192286355163e-18 -7.082588637188857e-17 5.273192286355163e-18 -7.082588637188857e-17 -0.3618193239278163 0.9322482377737519
12662960000.0 -0.35437631918965484 0.9351028950855834 4.701271263270421e-18 -7.085226554629465e-17 4.701271263270421e-18 -7.085226554629465e-17 -0.35437689992860827 0.9351026750025033
12663577333.333334 -0.3469113772674271 0.9378979135930866 4.129267824227026e-18 -7.087403080227417e-17 4.129267824227026e-18 -7.087403080227417e-17 -0.3469119597138087 0.9378976981565597
12664194666.666666 -0.339424393470392 0.9406333404239426 3.557219156462056e-18 -7.089118252562802e-17 3.557219156462056e-18 -7.089118252562802e-17 -0.3394249775870297 0.9406331296472032
12664812000.0 -0.3319158435026709 0.943309001776066 2.9851624356451098e-18 -7.090372140159582e-17 2.9851624356451098e-18 -7.090372140159582e-17 -0.3319164292522908 0.9433087956720518
12665429333.333334 -0.3243862044386453 0.9459247276447197 2.4131348234674384e-18 -7.091164841469469e-17 2.4131348234674384e-18 -7.091164841469469e-17 -0.3243867917838727 0.9459245262260697
12666046666.666666 -0.316835954692751 0.9484803518332784 1.841173465245009e-18 -7.091496484853841e-17 1.841173465245009e-18 -7.091496484853841e-17 -0.31683654359611385 0.9484801551123332
12666664000.0 -0.3092655739887864 0.9509757119638933 1.2693154874913115e-18 -7.091367228563785e-17 1.2693154874913115e-18 -7.091367228563785e-17 -0.30926616441271704 0.9509755199526928
12667281333.333334 -0.30167554332980767 0.9534106494876765 6.9759799554273825e-19 -7.090777260718122e-17 6.9759799554273825e-19 -7.090777260718122e-17 -0.30167613523664566 0.9534104621979609
12667898666.666666 -0.2940663449672986 0.9557850096948693 1.2605807113586022e-19 -7.089726799279579e-17 1.2605807113586022e-19 -7.089726799279579e-17 -0.2940669383192929 0.9557848271380781
12668516000.0 -0.28643846237052817 0.9580986417246684 -4.452672299805655e-19 -7.088216092028983e-17 -4.452672299805655e-19 -7.088216092028983e-17 -0.2864390571298398 0.9580984639119388
12669133333.333334 -0.27879238019607755 0.9603513985747371 -1.0163408804450795e-18 -7.086245416537572e-17 -1.0163408804450795e-18 -7.086245416537572e-17 -0.27879297632478145 0.9603512255169032
12669750666.666666 -0.27112858425677305 0.9625431371106261 -1.5871258836681412e-18 -7.083815080137346e-17 -1.5871258836681412e-18 -7.083815080137346e-17 -0.2711291817168613 0.9625429688182203
12670368000.0 -0.2634475614909289 0.964673718074837 -2.1575852762359713e-18 -7.080925419889497e-17 -2.1575852762359713e-18 -7.080925419889497e-17 -0.2634481602443124 0.9646735545580875
