! Parameters = {f0=12700.012000; bw=77.238000; Q=6100.000000; N=10; m_0_1=1.268163; m_1_1=0.257702; m_1_2=1.102975; m_2_2=0.257053; m_2_3=0.739938; m_2_8=0.000472; m_2_9=0.037176; m_3_3=0.255116; m_3_4=0.628467; m_3_7=0.001072; m_3_8=-0.096016; m_3_9=0.000472; m_4_4=0.252191; m_4_5=0.464802; m_4_6=0.004589; m_4_7=-0.116565; m_4_8=0.001072; m_5_5=0.252573; m_5_6=0.872157; m_5_7=0.004589; m_6_6=0.252572; m_6_7=0.465144; m_7_7=0.252205; m_7_8=0.628585; m_8_8=0.255114; m_8_9=0.740251; m_9_9=0.257048; m_9_10=1.104053; m_10_10=0.257692; m_10_11=1.268958}
!
! Created with skrf (http://scikit-rf.org).
# Hz S RI R 50.0 
!freq ReS11 ImS11 ReS21 ImS21 ReS12 ImS12 ReS22 ImS22
12607400000.0 -0.3002285106721879 0.953867308056725 1.8554993501404976e-18 -1.0963224325095637e-16 1.8554993501404976e-18 -1.0963224325095637e-16 -0.30022914799581274 0.9538671074596988
12608017333.333334 -0.2902265432681253 0.9569579685558084 6.978566451961376e-19 -1.0962425034498426e-16 6.978566451961376e-19 -1.0962425034498426e-16 -0.29022718262546265 0.9569577746510609
12608634666.666666 -0.2801927694943509 0.9599437545621671 -4.59410494862212e-19 -1.0960404150128699e-16 -4.59410494862212e-19 -1.0960404150128699e-16 -0.2801934108151371 0.9599435673702931
12609252000.0 -0.27012828896754937 0.9628243388590096 -1.6161732466173772e-18 -1.0957162375616076e-16 -1.6161732466173772e-18 -1.0957162375616076e-16 -0.27012893218131223 0.9628241583998652
12609869333.333334 -0.26003420466957633 0.9655994057587681 -2.7723028933078602e-18 -1.0952700550352088e-16 -2.7723028933078602e-18 -1.0952700550352088e-16 -0.2600348497056431 0.9655992320514698
12610486666.666666 -0.24991162282671853 0.9682686511376583 -3.927670839110288e-18 -1.0947019649343574e-16 -3.927670839110288e-18 -1.0947019649343574e-16 -0.2499122696142241 0.9682684842005816
12611104000.0 -0.2397616527881319 0.9708317824690994 -5.082148623455689e-18 -1.0940120783050787e-16 -5.082148623455689e-18 -1.0940120783050787e-16 -0.2397623012560254 0.9708316223198744
12611721333.333334 -0.22958540690475926 0.9732885188556374 -6.235607935231787e-18 -1.093200519721091e-16 -6.235607935231787e-18 -1.093200519721091e-16 -0.22958605698181342 0.9732883655111508
12612338666.666666 -0.2193840004069886 0.975638591059851 -7.387920627068831e-18 -1.092267427264606e-16 -7.387920627068831e-18 -1.092267427264606e-16 -0.21938465202180626 0.9756384445362406
12612956000.0 -0.2091585512825399 0.9778817415338179 -8.538958729539341e-18 -1.0912129525056594e-16 -8.538958729539341e-18 -1.0912129525056594e-16 -0.2091592043635628 0.9778816018464739
12613573333.333334 -0.19891018015416734 0.9800177244472981 -9.68859446532017e-18 -1.0900372604799637e-16 -9.68859446532017e-18 -1.0900372604799637e-16 -0.19891083462968304 0.9800175916108581
12614190666.666666 -0.18864001015656987 0.9820463057147324 -1.0836700263383474e-17 -1.0887405296652317e-16 -1.0836700263383474e-17 -1.0887405296652317e-16 -0.18864066595472043 0.9820461797430826
12614808000.0 -0.17834916681344426 0.983967263020866 -1.1983148773112484e-17 -1.087322951956034e-16 -1.1983148773112484e-17 -1.087322951956034e-16 -0.17834982386223402 0.9839671439271405
12615425333.333334 -0.16803877791410993 0.9857803858451215 -1.3127812878406013e-17 -1.0857847326371737e-16 -1.3127812878406013e-17 -1.0857847326371737e-16 -0.1680394361414129 0.9857802736416975
12616042666.666666 -0.15770997338991205 0.9874854754846661 -1.4270565711748077e-17 -1.0841260903555737e-16 -1.4270565711748077e-17 -1.0841260903555737e-16 -0.1577106327234803 0.9874853701831654
12616660000.0 -0.14736388519039118 0.9890823450761907 -1.5411280668244327e-17 -1.0823472570906839e-16 -1.5411280668244327e-17 -1.0823472570906839e-16 -0.14736454555786266 0.9890822466874777
12617277333.333334 -0.13700164715917468 0.9905708196163956 -1.654983141962688e-17 -1.0804484781234195e-16 -1.654983141962688e-17 -1.0804484781234195e-16 -0.13700230848808098 0.9905707281505751
12617894666.666666 -0.1266243949099702 0.9919507359811315 -1.7686091928204396e-17 -1.0784300120036508e-16 -1.7686091928204396e-17 -1.0784300120036508e-16 -0.1266250571277449 0.9919506514475503
12618512000.0 -0.11623326570163386 0.9932219429433472 -1.881993646082337e-17 -1.0762921305161502e-16 -1.881993646082337e-17 -1.0762921305161502e-16 -0.11623392873562 0.9932218653505908
12619129333.333334 -0.10582939831404295 0.9943843011895918 -1.9951239602713487e-17 -1.0740351186452095e-16 -1.9951239602713487e-17 -1.0740351186452095e-16 -0.10583006209150123 0.9943842305454833
12619746666.666666 -0.09541393292298528 0.995437683335322 -2.1079876271365628e-17 -1.0716592745376746e-16 -2.1079876271365628e-17 -1.0716592745376746e-16 -0.09541459737110225 0.9954376196469241
12620364000.0 -0.08498801097520564 0.9963819739388623 -2.2205721730336534e-17 -1.0691649094645682e-16 -2.2205721730336534e-17 -1.0691649094645682e-16 -0.0849886760211013 0.9963819172124734
12620981333.333334 -0.07455277506356695 0.9972170695140282 -2.3328651602982555e-17 -1.0665523477813434e-16 -2.3328651602982555e-17 -1.0665523477813434e-16 -0.07455344063430304 0.9972170197551844
12621598666.666666 -0.0641093688015493 0.997942878541498 -2.4448541886205448e-17 -1.0638219268865595e-16 -2.4448541886205448e-17 -1.0638219268865595e-16 -0.06411003482413714 0.9979428357549707
12622216000.0 -0.053658936698060954 0.9985593214788281 -2.556526896410872e-17 -1.0609739971792188e-16 -2.556526896410872e-17 -1.0609739971792188e-16 -0.05365960309946945 0.9985592856686233
12622833333.333334 -0.043202624031953 0.9990663307691728 -2.66787096216117e-17 -1.0580089220146578e-16 -2.66787096216117e-17 -1.0580089220146578e-16 -0.04320329073911671 0.9990663019385327
12623450666.666666 -0.03274157672662022 0.9994638508486835 -2.7788741058025586e-17 -1.0549270776589853e-16 -2.7788741058025586e-17 -1.0549270776589853e-16 -0.03274224366644736 0.9994638290000849
12624068000.0 -0.02227694122427566 0.9997518381526067 -2.889524090057517e-17 -1.0517288532421078e-16 -2.889524090057517e-17 -1.0517288532421078e-16 -0.02227760832365609 0.9997518232877607
12624685333.333334 -0.01180986436025323 0.9999302611200535 -2.999808721787016e-17 -1.048414650709321e-16 -2.999808721787016e-17 -1.048414650709321e-16 -0.01181053154606649 0.9999302532399065
12625302666.666666 -0.0013414932377222375 0.9999991001974543 -3.109715853328684e-17 -1.0449848847716124e-16 -3.109715853328684e-17 -1.0449848847716124e-16 -0.001342160436845534 0.9999990993021871
12625920000.0 0.009127024898622247 0.9999583478407114 -3.2192333838367907e-17 -1.0414399828543302e-16 -3.2192333838367907e-17 -1.0414399828543302e-16 0.009126357759306017 0.9999583539297389
12626537333.333334 0.019594542787776132 0.999808008516016 -3.328349260607881e-17 -1.0377803850447189e-16 -3.328349260607881e-17 -1.0377803850447189e-16 0.019593875781370385 0.9998080215879889
12627154666.666666 0.030059913278355402 0.9995480986993683 -3.437051480406489e-17 -1.034006544037891e-16 -3.437051480406489e-17 -1.034006544037891e-16 0.030059246477941795 0.9995481187521699
12627772000.0 0.04052198945448454 0.9991786468747592 -3.5453280907847467e-17 -1.0301189250813939e-16 -3.5453280907847467e-17 -1.0301189250813939e-16 0.040521322933115084 0.9991786739055105
12628389333.333334 0.050979624761091205 0.9986996935310649 -3.6531671913900284e-17 -1.0261180059186196e-16 -3.6531671913900284e-17 -1.0261180059186196e-16 0.05097895859178009 0.9986997275361205
12629006666.666666 0.06143167312998486 0.9981112911575915 -3.760556935274708e-17 -1.0220042767305348e-16 -3.760556935274708e-17 -1.0220042767305348e-16 0.06143100738570067 0.998111332132544
12629624000.0 0.07187698910514399 0.9974135042383396 -3.8674855301918876e-17 -1.0177782400763249e-16 -3.8674855301918876e-17 -1.0177782400763249e-16 0.07187632385880148 0.9974135521780166
12630241333.333334 0.08231442796841831 0.996606409244922 -3.9739412398894866e-17 -1.0134404108325025e-16 -3.9739412398894866e-17 -1.0134404108325025e-16 0.08231376329287067 0.9966064641433897
12630858666.666666 0.09274284586481059 0.9956900946282038 -4.079912385394113e-17 -1.0089913161308019e-16 -4.079912385394113e-17 -1.0089913161308019e-16 0.09274218183284122 0.9956901564787654
12631476000.0 0.10316109992817288 0.9946646608085732 -4.185387346292913e-17 -1.0044314952945295e-16 -4.185387346292913e-17 -1.0044314952945295e-16 0.1031604366124877 0.9946647296037723
12632093333.333334 0.11356804840597409 0.9935302201649846 -4.2903545620018295e-17 -9.997614997738569e-17 -4.2903545620018295e-17 -9.997614997738569e-17 0.11356738587919327 0.9935302958966026
12632710666.666666 0.12396255078476608 0.99228689702261 -4.394802533030726e-17 -9.949818930796271e-17 -4.394802533030726e-17 -9.949818930796271e-17 0.12396188911941616 0.9922869796816691
12633328000.0 0.13434346791520155 0.9909348276392052 -4.4987198222437046e-17 -9.900932507157194e-17 -4.4987198222437046e-17 -9.900932507157194e-17 0.13434280718370795 0.9909349172159717
12633945333.333334 0.14470966213665049 0.9894741601902096 -4.602095056105233e-17 -9.850961601104116e-17 -4.602095056105233e-17 -9.850961601104116e-17 0.14470900241132895 0.9894742566741908
12634562666.666666 0.15505999740201823 0.9879050547524854 -4.704916925924052e-17 -9.79991220546201e-17 -4.704916925924052e-17 -9.79991220546201e-17 0.15505933875506717 0.9879051581324325
12635180000.0 0.16539333940221868 0.9862276832867788 -4.807174189087406e-17 -9.747790430884199e-17 -4.807174189087406e-17 -9.747790430884199e-17 0.16539268190571133 0.9862277935506893
12635797333.333334 0.17570855569051344 0.9844422296188735 -4.908855670287986e-17 -9.694602505125405e-17 -4.908855670287986e-17 -9.694602505125405e-17 0.17570789941638984 0.9844423467539909
12636414666.666666 0.18600451580650562 0.9825488894194588 -5.0099502627415143e-17 -9.640354772302727e-17 -5.0099502627415143e-17 -9.640354772302727e-17 0.186003860826565 0.982549013412276
12637032000.0 0.19628009140019753 0.9805478701826622 -5.1104469293989905e-17 -9.585053692142583e-17 -5.1104469293989905e-17 -9.585053692142583e-17 0.1962794377860901 0.9805480010189206
12637649333.333334 0.2065341563555634 0.978439391203319 -5.2103347041479215e-17 -9.528705839216417e-17 -5.2103347041479215e-17 -9.528705839216417e-17 0.20653350417878288 0.9784395288680124
12638266666.666666 0.21676558691387915 0.976223683552959 -5.3096026930065625e-17 -9.471317902163229e-17 -5.3096026930065625e-17 -9.471317902163229e-17 0.21676493624575457 0.9762238280303339
12638884000.0 0.22697326179704386 0.9739009900544494 -5.408240075309394e-17 -9.412896682899876e-17 -5.408240075309394e-17 -9.412896682899876e-17 0.2269726127087322 0.9739011413280081
12639501333.333334 0.2371560623303785 0.9714715652553988 -5.506236104884228e-17 -9.35344909581887e-17 -5.506236104884228e-17 -9.35344909581887e-17 0.23715541489285666 0.9714717233079004
12640118666.666666 0.24731287256508563 0.9689356754002969 -5.603580111218711e-17 -9.292982166975102e-17 -5.603580111218711e-17 -9.292982166975102e-17 0.24731222684914264 0.968935840213759
12640736000.0 0.2574425794009894 0.9662935984012262 -5.700261500623712e-17 -9.231503033256872e-17 -5.700261500623712e-17 -9.231503033256872e-17 0.25744193547721833 0.966293769956926
12641353333.333334 0.26754407270785946 0.9635456238075694 -5.796269757377493e-17 -9.169018941551233e-17 -5.796269757377493e-17 -9.169018941551233e-17 0.26754343064665037 0.9635458020860482
12641970666.666666 0.27761624544765084 0.9606920527741317 -5.891594444871219e-17 -9.10553724789095e-17 -5.891594444871219e-17 -9.10553724789095e-17 0.2776156053191832 0.9606922377551973
12642588000.0 0.2876579937955516 0.9577331980282106 -5.986225206739699e-17 -9.041065416592957e-17 -5.986225206739699e-17 -9.041065416592957e-17 0.28765735566978584 0.9577333896909367
12643205333.333334 0.297668217260979 0.9546693838353131 -6.080151767982772e-17 -8.975611019385193e-17 -6.080151767982772e-17 -8.975611019385193e-17 0.29766758120764925 0.9546695821580433
12643822666.666666 0.30764581880829356 0.9515009459635866 -6.173363936080774e-17 -8.90918173451939e-17 -6.173363936080774e-17 -8.90918173451939e-17 0.30764518489689996 0.9515011509239372
12644440000.0 0.3175897049769149 0.9482282316470552 -6.265851602094018e-17 -8.841785345876653e-17 -6.265851602094018e-17 -8.841785345876653e-17 0.31758907327671654 0.9482284432219176
12645057333.333334 0.3274987860010769 0.9448515995475935 -6.357604741759142e-17 -8.773429742057152e-17 -6.357604741759142e-17 -8.773429742057152e-17 0.3274981565810833 0.9448518177131359
12645674666.666666 0.33737197592941787 0.9413714197155687 -6.448613416571573e-17 -8.704122915461288e-17 -6.448613416571573e-17 -8.704122915461288e-17 0.3373713488583822 0.9413716444472401
12646292000.0 0.3472081927440716 0.9377880735492541 -6.53886777486115e-17 -8.633872961357224e-17 -6.53886777486115e-17 -8.633872961357224e-17 0.34720756809048275 0.9377883048217852
12646909333.333334 0.3570063584789257 0.9341019537531452 -6.628358052852639e-17 -8.562688076941328e-17 -6.628358052852639e-17 -8.562688076941328e-17 0.3570057363110011 0.9341021915405535
12647526666.666666 0.36676539933802527 0.930313464294828 -6.717074575721543e-17 -8.490576560383264e-17 -6.717074575721543e-17 -8.490576560383264e-17 0.3667647797237035 0.93031370857042
12648144000.0 0.37648424581322565 0.926423020360717 -6.805007758636986e-17 -8.417546809862295e-17 -6.805007758636986e-17 -8.417546809862295e-17 0.3764836288201584 0.9264232710970891
12648761333.333334 0.3861618328012927 0.9224310483105892 -6.892148107793393e-17 -8.343607322593362e-17 -6.892148107793393e-17 -8.343607322593362e-17 0.3861612184968381 0.9224313054796345
12649378666.666666 0.39579709972063265 0.9183379856308683 -6.978486221432654e-17 -8.268766693841835e-17 -6.978486221432654e-17 -8.268766693841835e-17 0.39579648817184765 0.9183382492037765
12649996000.0 0.4053889906276531 0.9141442808866215 -7.064012790856782e-17 -8.193033615926673e-17 -7.064012790856782e-17 -8.193033615926673e-17 0.4053883819012859 0.9141445508338834
12650613333.333334 0.41493645433243126 0.9098503936724193 -7.148718601427889e-17 -8.11641687721473e-17 -7.148718601427889e-17 -8.11641687721473e-17 0.4149358484949143 0.90985066996383
12651230666.666666 0.42443844451370966 0.905456794562064 -7.232594533557148e-17 -8.038925361105023e-17 -7.232594533557148e-17 -8.038925361105023e-17 0.42443784163115283 0.9054570771667277
12651848000.0 0.4338939198339785 0.9009639650568325 -7.315631563685948e-17 -7.96056804499993e-17 -7.315631563685948e-17 -7.96056804499993e-17 0.433893319972161 0.9009642539431632
12652465333.333334 0.44330184405326023 0.8963723975328577 -7.397820765251853e-17 -7.88135399926998e-17 -7.397820765251853e-17 -7.88135399926998e-17 0.44330124727762366 0.8963726926685842
12653082666.666666 0.4526611861426997 0.8916825951871601 -7.479153309644349e-17 -7.80129238620797e-17 -7.479153309644349e-17 -7.80129238620797e-17 0.4526605925183413 0.8916828965393298
12653700000.0 0.46197092039781157 0.8868950719823759 -7.559620467153728e-17 -7.720392458968932e-17 -7.559620467153728e-17 -7.720392458968932e-17 0.4619703299894769 0.8868953795173582
12654317333.333334 0.471230026550532 0.8820103525906083 -7.639213607901061e-17 -7.638663560507683e-17 -7.639213607901061e-17 -7.638663560507683e-17 0.4712294394226081 0.8820106662740987
12654934666.666666 0.480437489881287 0.8770289723358018 -7.717924202763064e-17 -7.556115122500541e-17 -7.717924202763064e-17 -7.556115122500541e-17 0.4804369060977948 0.8770292921328251
12655552000.0 0.4895923013301934 0.8719514771350702 -7.795743824282962e-17 -7.472756664259941e-17 -7.795743824282962e-17 -7.472756664259941e-17 0.4895917209547809 0.8719518030099837
12656169333.333334 0.4986934576074197 0.8667784234389911 -7.872664147567775e-17 -7.388597791641734e-17 -7.872664147567775e-17 -7.388597791641734e-17 0.4986928807033556 0.8667787553554906
12656786666.666666 0.5077399613033879 0.8615103781704897 -7.948676951177871e-17 -7.303648195939052e-17 -7.948676951177871e-17 -7.303648195939052e-17 0.5077393879335547 0.8615107160916132
12657404000.0 0.5167308209979564 0.8561479186627756 -8.023774118001454e-17 -7.217917652770411e-17 -8.023774118001454e-17 -7.217917652770411e-17 0.516730251224843 0.8561482625509066
12658021333.333334 0.5256650513691447 0.8506916325960299 -8.097947636118564e-17 -7.131416020957295e-17 -8.097947636118564e-17 -7.131416020957295e-17 0.525664485254839 0.8506919824129
12658638666.666666 0.5345416733008981 0.8451421179331324 -8.171189599651639e-17 -7.044153241394546e-17 -8.171189599651639e-17 -7.044153241394546e-17 0.5345411109070818 0.8451424736398284
12659256000.0 0.5433597139907774 0.8394999828538924 -8.243492209606867e-17 -6.956139335908512e-17 -8.243492209606867e-17 -6.956139335908512e-17 0.5433591553787184 0.8395003444108592
12659873333.333334 0.5521182070562559 0.8337658456885906 -8.314847774699564e-17 -6.867384406111093e-17 -8.314847774699564e-17 -6.867384406111093e-17 0.5521176522868011 0.8337662130556359
12660490666.666666 0.560816192640652 0.8279403348502042 -8.385248712169078e-17 -6.777898632243283e-17 -8.385248712169078e-17 -6.777898632243283e-17 0.5608156417742219 0.8279407079865037
12661108000.0 0.5694527175185585 0.8220240887653802 -8.45468754858308e-17 -6.687692272007935e-17 -8.45468754858308e-17 -6.687692272007935e-17 0.5694521706151401 0.8220244676294803
12661725333.333334 0.5780268351999779 0.8160177558046907 -8.523156920624879e-17 -6.596775659400161e-17 -8.523156920624879e-17 -6.596775659400161e-17 0.5780262923191174 0.8160181403545143
12662342666.666666 0.5865376060343066 0.8099219942113997 -8.590649575872859e-17 -6.505159203523635e-17 -8.590649575872859e-17 -6.505159203523635e-17 0.5865370672351042 0.8099223844042515
12662960000.0 0.5949840973131975 0.8037374720294092 -8.657158373564449e-17 -6.412853387402665e-17 -8.657158373564449e-17 -6.412853387402665e-17 0.5949835626543003 0.8037378678219791
12663577333.333334 0.6033653833727991 0.7974648670300285 -8.722676285347549e-17 -6.319868766786193e-17 -8.722676285347549e-17 -6.319868766786193e-17 0.6033648529123949 0.7974652683783976
12664194666.666666 0.6116805456952008 0.791104866637696 -8.787196396020793e-17 -6.22621596894202e-17 -8.787196396020793e-17 -6.22621596894202e-17 0.6116800194910111 0.7911052734973401
12664812000.0 0.6199286730091169 0.7846581678546277 -8.850711904259088e-17 -6.131905691445935e-17 -8.850711904259088e-17 -6.131905691445935e-17 0.6199281511183917 0.7846585801804231
12665429333.333334 0.6281088613896868 0.7781254771844812 -8.913216123327292e-17 -6.036948700962052e-17 -8.913216123327292e-17 -6.036948700962052e-17 0.6281083438691977 0.7781258949307105
12666046666.666666 0.6362202143575618 0.7715075105549166 -8.974702481779614e-17 -5.941355832017658e-17 -8.974702481779614e-17 -5.941355832017658e-17 0.6362197012635955 0.7715079336752713
12666664000.0 0.6442618429773033 0.7648049932390052 -9.035164524148603e-17 -5.845137985766902e-17 -9.035164524148603e-17 -5.845137985766902e-17 0.6442613343656569 0.7648054216865943
12667281333.333334 0.6522328659545189 0.7580186597759851 -9.094595911616813e-17 -5.748306128753991e-17 -9.094595911616813e-17 -5.748306128753991e-17 0.6522323618804919 0.7580190935033372
12667898666.666666 0.6601324097326635 0.7511492538905784 -9.152990422679144e-17 -5.650871291663364e-17 -9.152990422679144e-17 -5.650871291663364e-17 0.6601319102510538 0.7511496928496485
12668516000.0 0.6679596085887717 0.744197528411484 -9.210341953790195e-17 -5.552844568065788e-17 -9.210341953790195e-17 -5.552844568065788e-17 0.6679591137538671 0.7441979725536573
12669133333.333334 0.6757136047281406 0.7371642451890408 -9.26664451999685e-17 -5.454237113160319e-17 -9.26664451999685e-17 -5.454237113160319e-17 0.6757131145937162 0.7371646944651417
12669750666.666666 0.6833935483785524 0.7300501750115516 -9.321892255560386e-17 -5.3550601425049084e-17 -9.321892255560386e-17 -5.3550601425049084e-17 0.6833930629978617 0.7300506293718448
12670368000.0 0.6909985978833355 0.7228560975208627 -9.376079414562836e-17 -5.255324930744426e-17 -9.376079414562836e-17 -5.255324930744426e-17 0.6909981173091062 0.7228565569150609
