! Parameters = {f0=12700.012000; bw=77.238000; Q=6100.000000; N=10; m_0_1=1.245941; m_1_1=-0.075632; m_1_2=1.080753; m_2_2=-0.076281; m_2_3=0.717716; m_2_8=-0.000639; m_2_9=0.036065; m_3_3=-0.078218; m_3_4=0.606245; m_3_7=-0.000039; m_3_8=-0.097127; m_3_9=-0.000639; m_4_4=-0.081143; m_4_5=0.442580; m_4_6=0.003478; m_4_7=-0.117676; m_4_8=-0.000039; m_5_5=-0.080761; m_5_6=0.849935; m_5_7=0.003478; m_6_6=-0.080762; m_6_7=0.442922; m_7_7=-0.081129; m_7_8=0.606363; m_8_8=-0.078220; m_8_9=0.718029; m_9_9=-0.076286; m_9_10=1.081831; m_10_10=-0.075642; m_10_11=1.246736}
!
! Created with skrf (http://scikit-rf.org).
# Hz S RI R 50.0 
!freq ReS11 ImS11 ReS21 ImS21 ReS12 ImS12 ReS22 ImS22
12607400000.0 -0.9183239217399826 0.395829729504906 7.573555394666328e-17 -6.31440229611876e-17 7.573555394666328e-17 -6.31440229611876e-17 -0.9183241815936778 0.39582912664448083
12608017333.333334 -0.9143960193969335 0.4048208489083455 7.509199320896445e-17 -6.38782148040459e-17 7.509199320896445e-17 -6.38782148040459e-17 -0.9143962851400969 0.40482024865589566
12608634666.666666 -0.9103800893891631 0.4137729967549966 7.444132351536066e-17 -6.460585735809935e-17 7.444132351536066e-17 -6.460585735809935e-17 -0.9103803609956371 0.4137723991680496
12609252000.0 -0.906276518324901 0.42268531123369546 7.37836114204692e-17 -6.532688187417873e-17 7.37836114204692e-17 -6.532688187417873e-17 -0.906276795767966 0.4226847163695165
12609869333.333334 -0.9020857012494027 0.4315569343681129 7.31189241429028e-17 -6.604122027854024e-17 7.31189241429028e-17 -6.604122027854024e-17 -0.9020859845017795 0.4315563422836994
12610486666.666666 -0.8978080416070756 0.44038701209901576 7.24473295584486e-17 -6.674880517924298e-17 7.24473295584486e-17 -6.674880517924298e-17 -0.8978083306409281 0.4403864228510918
12611104000.0 -0.8934439512024055 0.4491746943669727 7.176889619312479e-17 -6.744956987252319e-17 7.176889619312479e-17 -6.744956987252319e-17 -0.8934442459893447 0.4491741080119842
12611721333.333334 -0.888993850160577 0.4579191351936527 7.10836932162551e-17 -6.814344834901509e-17 7.10836932162551e-17 -6.814344834901509e-17 -0.8889941506716622 0.4579185517877611
12612338666.666666 -0.8844581668868645 0.4666194927635975 7.039179043340552e-17 -6.883037529998219e-17 7.039179043340552e-17 -6.883037529998219e-17 -0.8844584730926065 0.46661891236267494
12612956000.0 -0.879837338025347 0.4752749295053359 6.969325827930966e-17 -6.95102861234267e-17 6.969325827930966e-17 -6.95102861234267e-17 -0.8798376498957113 0.4752743521649596
12613573333.333334 -0.8751318084170854 0.4838846121716134 6.898816781073439e-17 -7.018311693013044e-17 6.898816781073439e-17 -7.018311693013044e-17 -0.8751321259214959 0.483884037947061
12614190666.666666 -0.8703420310570594 0.49244771192005987 6.827659069924889e-17 -7.084880454966036e-17 6.827659069924889e-17 -7.084880454966036e-17 -0.8703423541644015 0.492447140866304
12614808000.0 -0.865468467050735 0.500963404392657 6.755859922398632e-17 -7.150728653625229e-17 6.755859922398632e-17 -7.150728653625229e-17 -0.865468795729356 0.5009628365643588
12615425333.333334 -0.8605115855695459 0.5094308697953193 6.683426626430675e-17 -7.215850117466251e-17 6.683426626430675e-17 -7.215850117466251e-17 -0.8605119197872606 0.5094303052468248
12616042666.666666 -0.8554718638058442 0.5178492929766194 6.610366529243851e-17 -7.280238748591258e-17 6.610366529243851e-17 -7.280238748591258e-17 -0.8554722035299375 0.517848731761953
12616660000.0 -0.8503497869268446 0.5262178635064569 6.536687036603187e-17 -7.343888523299046e-17 6.536687036603187e-17 -7.343888523299046e-17 -0.8503501321240743 0.526217305679317
12617277333.333334 -0.8451458480280049 0.53453577575393 6.462395612068879e-17 -7.406793492644818e-17 6.462395612068879e-17 -7.406793492644818e-17 -0.8451461986646048 0.5345352213676833
12617894666.666666 -0.839860548085589 0.5428022289648459 6.387499776241865e-17 -7.468947782994288e-17 6.387499776241865e-17 -7.468947782994288e-17 -0.8398609041272739 0.5428016780725238
12618512000.0 -0.8344943959082257 0.5510164273391455 6.312007106004076e-17 -7.53034559657021e-17 6.312007106004076e-17 -7.53034559657021e-17 -0.8344947573201931 0.5510158799934373
12619129333.333334 -0.8290479080882476 0.5591775801070097 6.235925233755388e-17 -7.590981211989588e-17 6.235925233755388e-17 -7.590981211989588e-17 -0.8290482748351806 0.5591770363602576
12619746666.666666 -0.8235216089516807 0.5672849016054152 6.159261846643731e-17 -7.650848984794666e-17 6.159261846643731e-17 -7.650848984794666e-17 -0.823521980997753 0.5672843615096106
12620364000.0 -0.8179160305078926 0.5753376113535791 6.082024685788819e-17 -7.709943347977203e-17 6.082024685788819e-17 -7.709943347977203e-17 -0.8179164078167713 0.5753370749603565
12620981333.333334 -0.8122317123983942 0.5833349341280719 6.004221545506353e-17 -7.768258812490594e-17 6.004221545506353e-17 -7.768258812490594e-17 -0.8122320949332432 0.5833344014887045
12621598666.666666 -0.8064692018448579 0.5912761000374946 5.925860272519672e-17 -7.825789967760264e-17 5.925860272519672e-17 -7.825789967760264e-17 -0.806469589568341 0.5912755712028888
12622216000.0 -0.800629053596383 0.5991603445966622 5.84694876517334e-17 -7.882531482180744e-17 5.84694876517334e-17 -7.882531482180744e-17 -0.8006294464706695 0.5991598196173537
12622833333.333334 -0.7947118298761798 0.6069869088000869 5.767494972636983e-17 -7.938478103608864e-17 5.767494972636983e-17 -7.938478103608864e-17 -0.7947122278629462 0.6069863877262349
12623450666.666666 -0.7887181003274595 0.6147550391950227 5.687506894109288e-17 -7.993624659845164e-17 5.687506894109288e-17 -7.993624659845164e-17 -0.7887185033878938 0.6147545220764065
12624068000.0 -0.7826484419584602 0.6224639879541829 5.606992578011854e-17 -8.04796605911153e-17 5.606992578011854e-17 -8.04796605911153e-17 -0.7826488500532663 0.6224634748401952
12624685333.333334 -0.7765034390869984 0.6301130129475927 5.52596012118297e-17 -8.101497290517315e-17 5.52596012118297e-17 -8.101497290517315e-17 -0.7765038521763994 0.6301125038872365
12625302666.666666 -0.7702836832842593 0.6377013778139932 5.444417668065978e-17 -8.154213424518443e-17 5.444417668065978e-17 -8.154213424518443e-17 -0.7702841013280002 0.6377008728558755
12625920000.0 -0.763989773317716 0.6452283520318808 5.362373409890826e-17 -8.20610961336966e-17 5.362373409890826e-17 -8.20610961336966e-17 -0.7639901962750697 0.6452278512242094
12626537333.333334 -0.7576223150935975 0.6526932109897031 5.2798355838558874e-17 -8.257181091565841e-17 5.2798355838558874e-17 -8.257181091565841e-17 -0.7576227429233686 0.652692714380283
12627154666.666666 -0.7511819215985995 0.6600952360555766 5.1968124723008856e-17 -8.307423176278069e-17 5.1968124723008856e-17 -8.307423176278069e-17 -0.7511823542591269 0.6600947436918022
12627772000.0 -0.7446692128406086 0.6674337146467647 5.113312401878025e-17 -8.356831267779859e-17 5.113312401878025e-17 -8.356831267779859e-17 -0.7446696502897706 0.6674332265756183
12628389333.333334 -0.7380848157894107 0.6747079402978315 5.029343742720374e-17 -8.405400849864485e-17 5.029343742720374e-17 -8.405400849864485e-17 -0.7380852579846284 0.6747074565658769
12629006666.666666 -0.7314293643159924 0.6819172127290335 4.944914907603141e-17 -8.453127490255709e-17 4.944914907603141e-17 -8.453127490255709e-17 -0.7314298112142343 0.681916733382412
12629624000.0 -0.7247034991316709 0.6890608379135639 4.860034351103544e-17 -8.500006841008796e-17 4.860034351103544e-17 -8.500006841008796e-17 -0.724703950689457 0.6890603629979909
12630241333.333334 -0.717907867726434 0.6961381281443474 4.7747105687566595e-17 -8.546034638903207e-17 4.7747105687566595e-17 -8.546034638903207e-17 -0.7179083238998402 0.6961376577051069
12630858666.666666 -0.711043124306568 0.7031484021002857 4.6889520962066376e-17 -8.591206705827456e-17 4.6889520962066376e-17 -8.591206705827456e-17 -0.7110435850512298 0.7031479361822265
12631476000.0 -0.7041099297316195 0.7100909849119083 4.602767508354028e-17 -8.635518949155476e-17 4.602767508354028e-17 -8.635518949155476e-17 -0.7041103950027373 0.7100905235594397
12632093333.333334 -0.6971089514508728 0.716965208226239 4.516165418501607e-17 -8.678967362113555e-17 4.516165418501607e-17 -8.678967362113555e-17 -0.6971094212032153 0.7169647514833264
12632710666.666666 -0.6900408634391396 0.7237704102711002 4.4291544774960294e-17 -8.721548024139065e-17 4.4291544774960294e-17 -8.721548024139065e-17 -0.6900413376270484 0.7237699581812609
12633328000.0 -0.6829063461316085 0.7305059359190764 4.3417433728623926e-17 -8.763257101232447e-17 4.3417433728623926e-17 -8.763257101232447e-17 -0.6829068247090029 0.7305054885253753
12633945333.333334 -0.6757060863586694 0.7371711367502671 4.2539408279430226e-17 -8.804090846296887e-17 4.2539408279430226e-17 -8.804090846296887e-17 -0.6757065692790507 0.7371706940953134
12634562666.666666 -0.6684407772796291 0.7437653711148678 4.165755601025618e-17 -8.844045599473047e-17 4.165755601025618e-17 -8.844045599473047e-17 -0.6684412644960847 0.7437649332408092
12635180000.0 -0.661111118315938 0.7502880041949763 4.077196484473808e-17 -8.88311778846244e-17 4.077196484473808e-17 -8.88311778846244e-17 -0.6611116097811475 0.7502875711434983
12635797333.333334 -0.6537178150839864 0.756738408065594 3.9882723038501806e-17 -8.921303928844229e-17 3.9882723038501806e-17 -8.921303928844229e-17 -0.6537183107502238 0.7567379798779124
12636414666.666666 -0.6462615793270892 0.7631159617551496 3.898991917041711e-17 -8.958600624380868e-17 3.898991917041711e-17 -8.958600624380868e-17 -0.6462620791462294 0.7631155384720081
12637032000.0 -0.6387431288470106 0.7694200513052424 3.8093642133757924e-17 -8.995004567317976e-17 3.8093642133757924e-17 -8.995004567317976e-17 -0.6387436327705331 0.7694196329669085
12637649333.333334 -0.631163187434776 0.7756500698298199 3.7193981127400894e-17 -9.030512538672403e-17 3.7193981127400894e-17 -9.030512538672403e-17 -0.6311636954137705 0.7756496564760816
12638266666.666666 -0.623522484801146 0.7818054175734753 3.629102564694464e-17 -9.065121408513981e-17 3.629102564694464e-17 -9.065121408513981e-17 -0.6235229967863157 0.7818050092436363
12638884000.0 -0.6158217565061915 0.7878855019693279 3.538486547584367e-17 -9.098828136236531e-17 3.538486547584367e-17 -9.098828136236531e-17 -0.6158222724478598 0.7878850987022054
12639501333.333334 -0.6080617438886164 0.7938897376959632 3.44755906764898e-17 -9.131629770821334e-17 3.44755906764898e-17 -9.131629770821334e-17 -0.6080622637367302 0.7938893395298825
12640118666.666666 -0.6002431939944581 0.7998175467337298 3.35632915812902e-17 -9.163523451090817e-17 3.35632915812902e-17 -9.163523451090817e-17 -0.6002437176985934 0.7998171537065223
12640736000.0 -0.5923668595047393 0.8056683584207106 3.264805878367534e-17 -9.194506405955022e-17 3.264805878367534e-17 -9.194506405955022e-17 -0.5923673870141054 0.8056679705697082
12641353333.333334 -0.5844334986637139 0.8114416095071302 3.1729983129190025e-17 -9.224575954645587e-17 3.1729983129190025e-17 -9.224575954645587e-17 -0.5844340299271585 0.8114412268691628
12641970666.666666 -0.5764438752052095 0.81713674421007 3.080915570643435e-17 -9.25372950694512e-17 3.080915570643435e-17 -9.25372950694512e-17 -0.5764444101712246 0.8171363668214628
12642588000.0 -0.5683987582795154 0.8227532142666687 2.9885667838063303e-17 -9.281964563404975e-17 2.9885667838063303e-17 -9.281964563404975e-17 -0.5683992968962427 0.8227528421632395
12643205333.333334 -0.5602989223791349 0.8282904789870588 2.8959611071764393e-17 -9.309278715554151e-17 2.8959611071764393e-17 -9.309278715554151e-17 -0.560299464594367 0.8282901122041099
12643822666.666666 -0.552145147264311 0.8337480053063417 2.8031077171169137e-17 -9.335669646100697e-17 2.8031077171169137e-17 -9.335669646100697e-17 -0.5521456930255012 0.833747643878662
12644440000.0 -0.5439382178878949 0.8391252678359608 2.710015810681314e-17 -9.361135129122078e-17 2.710015810681314e-17 -9.361135129122078e-17 -0.5439387671421598 0.8391249117978196
12645057333.333334 -0.5356789243199191 0.8444217489141819 2.616694604702124e-17 -9.385673030248288e-17 2.616694604702124e-17 -9.385673030248288e-17 -0.5356794770140447 0.8444213982993274
12645674666.666666 -0.5273680616714713 0.8496369386559801 2.523153334882186e-17 -9.409281306834589e-17 2.523153334882186e-17 -9.409281306834589e-17 -0.5273686177519168 0.849636593497634
12646292000.0 -0.5190064300179063 0.8547703350022738 2.4294012548785045e-17 -9.431958008126856e-17 2.4294012548785045e-17 -9.431958008126856e-17 -0.5190069894308104 0.8547699953331293
12646909333.333334 -0.5105948343223057 0.8598214437679542 2.3354476353942912e-17 -9.453701275415371e-17 2.3354476353942912e-17 -9.453701275415371e-17 -0.510595397013492 0.8598211096201732
12647526666.666666 -0.5021340843575516 0.8647897786897316 2.241301763259241e-17 -9.474509342182204e-17 2.241301763259241e-17 -9.474509342182204e-17 -0.5021346502725332 0.864789450094942
12648144000.0 -0.4936249946285885 0.8696748614728133 2.1469729405158192e-17 -9.494380534237641e-17 2.1469729405158192e-17 -9.494380534237641e-17 -0.4936255637125737 0.8696745384621049
12648761333.333334 -0.4850683842939141 0.8744762218370057 2.0524704835009426e-17 -9.513313269848446e-17 2.0524704835009426e-17 -9.513313269848446e-17 -0.4850689564918107 0.8744759044409268
12649378666.666666 -0.4764650770868912 0.8791933975618865 1.9578037219298368e-17 -9.531306059856222e-17 1.9578037219298368e-17 -9.531306059856222e-17 -0.476465652343314 0.8791930858104443
12649996000.0 -0.4678159012362548 0.8838259345314226 1.8629819979732856e-17 -9.548357507787953e-17 1.8629819979732856e-17 -9.548357507787953e-17 -0.4678164794955284 0.8838256284540754
12650613333.333334 -0.45912168938637316 0.8883733867776737 1.7680146653402134e-17 -9.564466309955987e-17 1.7680146653402134e-17 -9.564466309955987e-17 -0.4591222705925389 0.8883730864033322
12651230666.666666 -0.45038327851737026 0.8928353165235885 1.6729110883571015e-17 -9.579631255549608e-17 1.6729110883571015e-17 -9.579631255549608e-17 -0.45038386261419144 0.8928350218806115
12651848000.0 -0.44160150986409624 0.8972112942253808 1.5776806410431483e-17 -9.593851226717905e-17 1.5776806410431483e-17 -9.593851226717905e-17 -0.4416020967950632 0.8972110053415722
12652465333.333334 -0.43277722883557107 0.9015008986136592 1.482332706191123e-17 -9.607125198642507e-17 1.482332706191123e-17 -9.607125198642507e-17 -0.4327778185439073 0.9015006155162668
12653082666.666666 -0.42391128493339886 0.9057037167340907 1.3868766744452593e-17 -9.619452239601588e-17 1.3868766744452593e-17 -9.619452239601588e-17 -0.42391187736206565 0.9057034394498017
12653700000.0 -0.415004531669933 0.9098193439871736 1.291321943374923e-17 -9.630831511025305e-17 1.291321943374923e-17 -9.630831511025305e-17 -0.4150051267616351 0.9098190725421128
12654317333.333334 -0.40605782648626454 0.9138473841671167 1.1956779165542517e-17 -9.641262267541205e-17 1.1956779165542517e-17 -9.641262267541205e-17 -0.40605842418345645 0.9138471185868452
12654934666.666666 -0.3970720306696276 0.917787449500008 1.0999540026377168e-17 -9.650743857010941e-17 1.0999540026377168e-17 -9.650743857010941e-17 -0.3970726309145182 0.9177871898095191
12655552000.0 -0.3880480092702742 0.9216391606812341 1.0041596144341985e-17 -9.659275720558039e-17 1.0041596144341985e-17 -9.659275720558039e-17 -0.3880486120048329 0.9216389069049514
12656169333.333334 -0.37898663101861474 0.925402146911812 9.083041679878611e-18 -9.666857392585759e-17 9.083041679878611e-18 -9.666857392585759e-17 -0.37898723618457775 0.9254018990735899
12656786666.666666 -0.36988876824124917 0.9290760459342405 8.123970816494707e-18 -9.67348850078685e-17 8.123970816494707e-18 -9.67348850078685e-17 -0.3698893757801229 0.9290758040573559
12657404000.0 -0.36075529677703744 0.9326605040673387 7.164477751563517e-18 -9.679168766143213e-17 7.164477751563517e-18 -9.679168766143213e-17 -0.3607559066301068 0.9326602681744951
12658021333.333334 -0.3515870958929186 0.9361551762402507 6.204656687062574e-18 -9.683898002917115e-17 6.204656687062574e-18 -9.683898002917115e-17 -0.35158770800125055 0.9361549463535714
12658638666.666666 -0.34238504819918414 0.9395597260256918 5.244601820378781e-18 -9.687676118632744e-17 5.244601820378781e-18 -9.687676118632744e-17 -0.34238566250363517 0.9395595021667219
12659256000.0 -0.3331500395644583 0.9428738256723596 4.2844073350322075e-18 -9.690503114049183e-17 4.2844073350322075e-18 -9.690503114049183e-17 -0.3331506560056786 0.9428736078620598
12659873333.333334 -0.32388295903044156 0.9460971561364704 3.324167391501195e-18 -9.692379083123655e-17 3.324167391501195e-18 -9.692379083123655e-17 -0.3238835775488816 0.9460969443952184
12660490666.666666 -0.31458469872653944 0.9492294071124031 2.3639761179845492e-18 -9.693304212966181e-17 2.3639761179845492e-18 -9.693304212966181e-17 -0.3145853192624558 0.94922920145999
12661108000.0 -0.3052561537834947 0.9522702770627355 1.4039276011868994e-18 -9.693278783784803e-17 1.4039276011868994e-18 -9.693278783784803e-17 -0.30525677627695535 0.9522700775183645
12661725333.333334 -0.29589822224777956 0.9552194732470831 4.441158771338572e-19 -9.692303168821888e-17 4.441158771338572e-19 -9.692303168821888e-17 -0.29589884663867005 0.955219279829368
12662342666.666666 -0.2865118049947649 0.9580767117504075 -5.153650780291452e-19 -9.690377834281209e-17 -5.153650780291452e-19 -9.690377834281209e-17 -0.28651243122279363 0.9580765244773695
12662960000.0 -0.27709780564204656 0.9608417175103262 -1.4744213572285146e-18 -9.68750333924606e-17 -1.4744213572285146e-18 -9.68750333924606e-17 -0.2770984336467515 0.9608415363993943
12663577333.333334 -0.2676571304626202 0.9635142243435468 -2.4329591316162868e-18 -9.683680335588241e-17 -2.4329591316162868e-18 -9.683680335588241e-17 -0.2676577601833737 0.963514049411554
12664194666.666666 -0.25819068829741626 0.966093974971554 -3.3908846597539854e-18 -9.678909567868013e-17 -3.3908846597539854e-18 -9.678909567868013e-17 -0.2581913196734317 0.966093806234738
12664812000.0 -0.24869939046802642 0.9685807210453165 -4.348104296740291e-18 -9.673191873225027e-17 -4.348104296740291e-18 -9.673191873225027e-17 -0.24870002343836345 0.9685805585193153
12665429333.333334 -0.23918415068872428 0.9709742231692587 -5.304524503372471e-18 -9.666528181260146e-17 -5.304524503372471e-18 -9.666528181260146e-17 -0.23918478519229558 0.970974066869114
12666046666.666666 -0.2296458849788626 0.9732742509242226 -6.260051855236144e-18 -9.658919513908465e-17 -6.260051855236144e-18 -9.658919513908465e-17 -0.22964652095443883 0.9732741008643732
12666664000.0 -0.2200855115741638 0.9754805828897719 -7.214593051851697e-18 -9.650366985302972e-17 -7.214593051851697e-18 -9.650366985302972e-17 -0.22008614896037995 0.9754804390840548
12667281333.333334 -0.21050395083890366 0.9775930066653729 -8.168054925736349e-18 -9.64087180162967e-17 -8.168054925736349e-18 -9.64087180162967e-17 -0.21050458957426488 0.9775928691270216
12667898666.666666 -0.20090212517694928 0.9796113188909246 -9.120344451488088e-18 -9.630435260973437e-17 -9.120344451488088e-18 -9.630435260973437e-17 -0.20090276519983682 0.9796111876325682
12668516000.0 -0.1912809589428766 0.9815353252663528 -1.0071368754865768e-17 -9.619058753154817e-17 -1.0071368754865768e-17 -9.619058753154817e-17 -0.19128160019155396 0.9815352003000147
12669133333.333334 -0.18164137835342947 0.983364840570222 -1.1021035121782544e-17 -9.60674375955859e-17 -1.1021035121782544e-17 -9.60674375955859e-17 -0.18164202076604788 0.9833647219073184
12669750666.666666 -0.17198431139785247 0.9850996886776682 -1.1969251007375776e-17 -9.593491852952431e-17 -1.1969251007375776e-17 -9.593491852952431e-17 -0.1719849549124575 0.9850995763290081
12670368000.0 -0.16231068774888938 0.986739702577288 -1.2915924044974775e-17 -9.579304697297519e-17 -1.2915924044974775e-17 -9.579304697297519e-17 -0.1623113323034263 0.9867395965530713
