! Parameters = {f0=12700.012000; bw=77.238000; Q=6100.000000; N=10; m_0_1=1.272568; m_1_1=0.323768; m_1_2=1.107380; m_2_2=0.323119; m_2_3=0.744343; m_2_8=0.000692; m_2_9=0.037396; m_3_3=0.321182; m_3_4=0.632872; m_3_7=0.001292; m_3_8=-0.095796; m_3_9=0.000692; m_4_4=0.318257; m_4_5=0.469207; m_4_6=0.004809; m_4_7=-0.116345; m_4_8=0.001292; m_5_5=0.318639; m_5_6=0.876562; m_5_7=0.004809; m_6_6=0.318638; m_6_7=0.469549; m_7_7=0.318271; m_7_8=0.632990; m_8_8=0.321180; m_8_9=0.744656; m_9_9=0.323114; m_9_10=1.108458; m_10_10=0.323758; m_10_11=1.273363}
!
! Created with skrf (http://scikit-rf.org).
# Hz S RI R 50.0 
!freq ReS11 ImS11 ReS21 ImS21 ReS12 ImS12 ReS22 ImS22
12607400000.0 0.707293216147237 -0.706920297057541 -5.343997535300088e-17 9.836930105217262e-17 -5.343997535300088e-17 9.836930105217262e-17 0.7072936901085557 -0.706919822845876
12608017333.333334 0.6997610866971992 -0.714376946397473 -5.2375358984758094e-17 9.891543968896274e-17 -5.2375358984758094e-17 9.891543968896274e-17 0.6997615656344515 -0.7143764772587655
12608634666.666666 0.6921503498718448 -0.7217533464917953 -5.13051767574142e-17 9.945006546071956e-17 -5.13051767574142e-17 9.945006546071956e-17 0.6921508337307446 -0.7217528824782463
12609252000.0 0.6844618606202573 -0.7290486687156617 -5.0229553075817554e-17 9.997312181677153e-17 -5.0229553075817554e-17 9.997312181677153e-17 0.6844623493459712 -0.7290482098788915
12609869333.333334 0.6766964826257634 -0.7362620935521145 -4.914861291745855e-17 1.0048455354971051e-16 -4.914861291745855e-17 1.0048455354971051e-16 0.6766969761629169 -0.7362616399431573
12610486666.666666 0.6688550882091022 -0.7433928106839729 -4.806248181798802e-17 1.0098430680116345e-16 -4.806248181798802e-17 1.0098430680116345e-16 0.6688555865017852 -0.7433923623532699
12611104000.0 0.6609385582300751 -0.7504400190851849 -4.697128585663165e-17 1.0147232906742962e-16 -4.697128585663165e-17 1.0147232906742962e-16 0.6609390612218498 -0.7504395760825803
12611721333.333334 0.652947781988974 -0.7574029271104663 -4.587515164163429e-17 1.0194856920492018e-16 -4.587515164163429e-17 1.0194856920492018e-16 0.6529482896228794 -0.7574024894852001
12612338666.666666 0.6448836571264507 -0.7642807525844397 -4.477420629555176e-17 1.0241297743548644e-16 -4.477420629555176e-17 1.0241297743548644e-16 0.6448841693450107 -0.7642803203851439
12612956000.0 0.6367470895226556 -0.771072722889515 -4.3668577440547023e-17 1.0286550535156251e-16 -4.3668577440547023e-17 1.0286550535156251e-16 0.6367476062678838 -0.7710722961642068
12613573333.333334 0.6285389931957596 -0.7777780750524438 -4.2558393183647335e-17 1.0330610592114595e-16 -4.2558393183647335e-17 1.0330610592114595e-16 0.6285395144091678 -0.7777776538485212
12614190666.666666 0.6202602901989304 -0.7843960558303207 -4.144378210189894e-17 1.03734733492641e-16 -4.144378210189894e-17 1.03734733492641e-16 0.6202608158215336 -0.7843956401945564
12614808000.0 0.6119119105169484 -0.7909259217950318 -4.032487322751503e-17 1.0415134379952569e-16 -4.032487322751503e-17 1.0415134379952569e-16 0.6119124404892737 -0.7909255117735706
12615425333.333334 0.6034947919616754 -0.797366939416827 -3.920179603297456e-17 1.0455589396485973e-16 -3.920179603297456e-17 1.0455589396485973e-16 0.6034953262237643 -0.7973665350551751
12616042666.666666 0.5950098800667895 -0.8037183851466432 -3.8074680416050274e-17 1.0494834250564329e-16 -3.8074680416050274e-17 1.0494834250564329e-16 0.5950104185582097 -0.803717986489669
12616660000.0 0.5864581279814394 -0.809979545497495 -3.6943656684823364e-17 1.053286493370026e-16 -3.6943656684823364e-17 1.053286493370026e-16 0.5864586706412888 -0.8099791525894209
12617277333.333334 0.577840496363237 -0.8161497171245671 -3.580885554263952e-17 1.0569677577622166e-16 -3.580885554263952e-17 1.0569677577622166e-16 0.5778410431301505 -0.8161493300089651
12617894666.666666 0.5691579532704358 -0.8222282069041603 -3.4670408073043715e-17 1.0605268454660591e-16 -3.4670408073043715e-17 1.0605268454660591e-16 0.5691585040825946 -0.8222278256239488
12618512000.0 0.5604114740529068 -0.8282143320117505 -3.3528445724644166e-17 1.0639633978119437e-16 -3.3528445724644166e-17 1.0639633978119437e-16 0.5604120288480424 -0.8282139566091868
12619129333.333334 0.5516020412429917 -0.8341074199984007 -3.2383100295986255e-17 1.0672770702629606e-16 -3.2383100295986255e-17 1.0672770702629606e-16 0.5516025999583943 -0.8341070505150779
12619746666.666666 0.542730644444756 -0.8399068088665564 -3.123450392034962e-17 1.0704675324487565e-16 -3.123450392034962e-17 1.0704675324487565e-16 0.5427312070172833 -0.8399064453434004
12620364000.0 0.533798280222917 -0.8456118471443494 -3.0082789050528213e-17 1.0735344681977153e-16 -3.0082789050528213e-17 1.0735344681977153e-16 0.5337988465889973 -0.8456114896216106
12620981333.333334 0.5248059519910586 -0.8512218939586681 -2.892808844360752e-17 1.0764775755674379e-16 -2.892808844360752e-17 1.0764775755674379e-16 0.5248065220867018 -0.8512215424759195
12621598666.666666 0.5157546698987735 -0.8567363191072446 -2.777053514567006e-17 1.0792965668736944e-16 -2.777053514567006e-17 1.0792965668736944e-16 0.5157552436595766 -0.8567359737033776
12622216000.0 0.5066454507181628 -0.8621545031294636 -2.6610262476489164e-17 1.0819911687177011e-16 -2.6610262476489164e-17 1.0819911687177011e-16 0.5066460280793171 -0.8621541638426824
12622833333.333334 0.4974793177296656 -0.8674758373759183 -2.544740401420681e-17 1.0845611220117283e-16 -2.544740401420681e-17 1.0845611220117283e-16 0.4974798986259643 -0.8674755042437358
12623450666.666666 0.48825730060715633 -0.8726997240767503 -2.4282093579990897e-17 1.087006182003061e-16 -2.4282093579990897e-17 1.087006182003061e-16 0.4882578849730027 -0.8726993971359862
12624068000.0 0.478980435302257 -0.8778255764088235 -2.311446522264631e-17 1.0893261182963713e-16 -2.311446522264631e-17 1.0893261182963713e-16 0.47898102307166995 -0.8778252556955966
12624685333.333334 0.469649763927786 -0.8828528185617333 -2.1944653203215037e-17 1.0915207148744178e-16 -2.1944653203215037e-17 1.0915207148744178e-16 0.46965035503440955 -0.8828525041114604
12625302666.666666 0.460266334641044 -0.8877808858023026 -2.077279197960786e-17 1.093589770116997e-16 -2.077279197960786e-17 1.093589770116997e-16 0.4602669290181529 -0.8877805776496926
12625920000.0 0.4508312015256417 -0.8926092245382466 -1.9599016191110817e-17 1.0955330968184564e-16 -1.9599016191110817e-17 1.0955330968184564e-16 0.45083179910615023 -0.8926089227172981
12626537333.333334 0.4413454244735438 -0.8973372923801228 -1.8423460642998424e-17 1.097350522203331e-16 -1.8423460642998424e-17 1.097350522203331e-16 0.4413460251900135 -0.8973369969241208
12627154666.666666 0.43181006906570624 -0.901964558202424 -1.7246260291055964e-17 1.0990418879404629e-16 -1.7246260291055964e-17 1.0990418879404629e-16 0.4318106728503519 -0.9019642691439331
12627772000.0 0.4222262064523179 -0.9064905022032542 -1.6067550226090702e-17 1.1006070501554616e-16 -1.6067550226090702e-17 1.1006070501554616e-16 0.4222268132370176 -0.9064902195741199
12628389333.333334 0.4125949132328104 -0.9109146159625687 -1.4887465658511816e-17 1.1020458794413938e-16 -1.4887465658511816e-17 1.1020458794413938e-16 0.4125955229491107 -0.910914339793909
12629006666.666666 0.40291727133450406 -0.9152364024994756 -1.3706141902780806e-17 1.1033582608679954e-16 -1.3706141902780806e-17 1.1033582608679954e-16 0.40291788391363004 -0.9152361328216811
12629624000.0 0.3931943678914596 -0.9194553763278882 -1.2523714361968703e-17 1.1045440939890667e-16 -1.2523714361968703e-17 1.1045440939890667e-16 0.39319498326432095 -0.9194551131706179
12630241333.333334 0.3834272951220444 -0.9235710635112042 -1.1340318512237173e-17 1.1056032928483087e-16 -1.1340318512237173e-17 1.1056032928483087e-16 0.38342791321924324 -0.9235708069033797
12630858666.666666 0.3736171502064969 -0.9275830017154256 -1.0156089887373914e-17 1.1065357859834431e-16 -1.0156089887373914e-17 1.1065357859834431e-16 0.37361777095833715 -0.9275827516852322
12631476000.0 0.3637650351633374 -0.9314907402612437 -8.971164063242524e-18 1.1073415164287494e-16 -8.971164063242524e-18 1.1073415164287494e-16 0.3637656584998307 -0.9314904968361232
12632093333.333334 0.3538720567260179 -0.9352938401744776 -7.78567664234067e-18 1.1080204417158578e-16 -7.78567664234067e-18 1.1080204417158578e-16 0.353872682576893 -0.9352936033811287
12632710666.666666 0.34393932621828427 -0.938991874235521 -6.599763238285741e-18 1.1085725338729513e-16 -6.599763238285741e-18 1.1085725338729513e-16 0.34393995451299414 -0.9389916440998942
12633328000.0 0.3339679594293058 -0.9425844270273341 -5.4135594603115096e-18 1.1089977794222972e-16 -5.4135594603115096e-18 1.1089977794222972e-16 0.33396859009703606 -0.9425842035746307
12633945333.333334 0.3239590764885491 -0.9460710949820369 -4.227200897812368e-18 1.1092961793761064e-16 -4.227200897812368e-18 1.1092961793761064e-16 0.3239597094582251 -0.9460708782367026
12634562666.666666 0.3139138017397858 -0.9494514864262933 -3.0408231048675025e-18 1.1094677492307604e-16 -3.0408231048675025e-18 1.1094677492307604e-16 0.31391443694008203 -0.9494512764120204
12635180000.0 0.3038332636149271 -0.9527252216252728 -1.8545615847625285e-18 1.109512518959384e-16 -1.8545615847625285e-18 1.109512518959384e-16 0.3038339009742739 -0.9527250183649941
12635797333.333334 0.2937185945070712 -0.9558919328253662 -6.685517745481897e-19 1.1094305330027608e-16 -6.685517745481897e-19 1.1094305330027608e-16 0.29371923395366356 -0.9558917363412531
12636414666.666666 0.28357093064351335 -0.958951264295425 5.170709703873356e-19 1.1092218502586102e-16 5.170709703873356e-19 1.1092218502586102e-16 0.2835715721053192 -0.9589510746088877
12637032000.0 0.27339141195789174 -0.9619028723667971 1.7021713917623184e-18 1.108886544069208e-16 1.7021713917623184e-18 1.108886544069208e-16 0.27339205536265904 -0.9619026894984773
12637649333.333334 0.2631811819623494 -0.9647464254718564 2.886614343780942e-18 1.1084247022073702e-16 2.886614343780942e-18 1.1084247022073702e-16 0.26318182723761546 -0.9647462494416305
12638266666.666666 0.25294138761888985 -0.9674816041813169 4.070264808541207e-18 1.1078364268607961e-16 4.070264808541207e-18 1.1078364268607961e-16 0.25294203469198856 -0.9674814350082896
12638884000.0 0.2426731792106405 -0.9701081012400753 5.252987911387552e-18 1.1071218346147668e-16 5.252987911387552e-18 1.1071218346147668e-16 0.24267382800871132 -0.9701079389425806
12639501333.333334 0.2323777102125547 -0.9726256216017515 6.434648936259984e-18 1.1062810564332031e-16 6.434648936259984e-18 1.1062810564332031e-16 0.23237836066255024 -0.9726254661973482
12640118666.666666 0.22205613716214073 -0.9750338824617594 7.615113340994054e-18 1.1053142376381189e-16 7.615113340994054e-18 1.1053142376381189e-16 0.22205678919083502 -0.9750337339672306
12640736000.0 0.211709619528795 -0.9773326132892506 8.794246772667116e-18 1.1042215378873681e-16 8.794246772667116e-18 1.1042215378873681e-16 0.21171027306279208 -0.9773324717206017
12641353333.333334 0.2013393195846063 -0.9795215558572624 9.971915082775825e-18 1.1030031311508953e-16 9.971915082775825e-18 1.1030031311508953e-16 0.2013399745503482 -0.9795214212297185
12641970666.666666 0.19094640227290513 -0.9816004642719243 1.1147984342556951e-17 1.1016592056852095e-16 1.1147984342556951e-17 1.1016592056852095e-16 0.1909470585966805 -0.9816003365999316
12642588000.0 0.18053203507778903 -0.9835691049999971 1.2322320858148402e-17 1.1001899640063438e-16 1.2322320858148402e-17 1.1001899640063438e-16 0.18053269268574088 -0.9835689842972167
12643205333.333334 0.17009738789302972 -0.9854272568950955 1.3494791185767908e-17 1.0985956228611689e-16 1.3494791185767908e-17 1.0985956228611689e-16 0.17009804671116413 -0.9854271431744054
12643822666.666666 0.15964363289037362 -0.9871747112225813 1.4665262146866242e-17 1.0968764131970535e-16 1.4665262146866242e-17 1.0968764131970535e-16 0.15964429284456808 -0.9871746044960744
12644440000.0 0.14917194438811915 -0.9888112716829697 1.583360084320092e-17 1.0950325801300025e-16 1.583360084320092e-17 1.0950325801300025e-16 0.14917260540413046 -0.9888111719619508
12645057333.333334 0.13868349871911487 -0.9903367544339895 1.6999674671921694e-17 1.0930643829111035e-16 1.6999674671921694e-17 1.0930643829111035e-16 0.1386841607225882 -0.990336661728977
12645674666.666666 0.12817947409873065 -0.9917509881112271 1.8163351340582216e-17 1.090972094891425e-16 1.8163351340582216e-17 1.090972094891425e-16 0.12818013701520736 -0.9917509024319494
12646292000.0 0.11766105049213665 -0.9930538138474223 1.932449888215075e-17 1.0887560034852561e-16 1.932449888215075e-17 1.0887560034852561e-16 0.11766171424706266 -0.9930537352028171
12646909333.333334 0.10712940948223074 -0.9942450852902476 2.0482985669897283e-17 1.0864164101318883e-16 2.0482985669897283e-17 1.0864164101318883e-16 0.10713007400096525 -0.9942450136884629
12647526666.666666 0.09658573413659698 -0.9953246686187975 2.1638680432338343e-17 1.0839536302556447e-16 2.1638680432338343e-17 1.0839536302556447e-16 0.09658639934442056 -0.9953246040671879
12648144000.0 0.0860312088746048 -0.9962924425586086 2.279145226807006e-17 1.0813679932244221e-16 2.279145226807006e-17 1.0813679932244221e-16 0.08603187469672807 -0.9962923850637375
12648761333.333334 0.07546701933458475 -0.9971482983952672 2.394117066055978e-17 1.0786598423066688e-16 2.394117066055978e-17 1.0786598423066688e-16 0.07546768569615658 -0.9971482479629048
12649378666.666666 0.06489435224047053 -0.9978921399866391 2.5087705492897163e-17 1.0758295346267689e-16 2.5087705492897163e-17 1.0758295346267689e-16 0.06489501906658637 -0.9978920966217595
12649996000.0 0.054314395268460124 -0.9985238837736659 2.623092706251204e-17 1.0728774411188115e-16 2.623092706251204e-17 1.0728774411188115e-16 0.054315062484170715 -0.998523847480452
12650613333.333334 0.04372833691362716 -0.9990434587897529 2.7370706095799733e-17 1.0698039464789056e-16 2.7370706095799733e-17 1.0698039464789056e-16 0.043729004443946694 -0.9990434295715902
12651230666.666666 0.03313736635663887 -0.9994508066687275 2.850691376271914e-17 1.0666094491158736e-16 2.850691376271914e-17 1.0666094491158736e-16 0.03313803412655361 -0.9994507845282087
12651848000.0 0.022542673329715792 -0.999745881651419 2.9639421691346345e-17 1.0632943611003566e-16 2.9639421691346345e-17 1.0632943611003566e-16 0.022543341264192333 -0.9997458665903401
12652465333.333334 0.011945447983352711 -0.9999286505907816 3.076810198233112e-17 1.0598591081124978e-16 3.076810198233112e-17 1.0598591081124978e-16 0.011946116007346495 -0.9999286426101429
12653082666.666666 0.0013468807525952738 -0.99999909295562 3.189282722330298e-17 1.0563041293880654e-16 3.189282722330298e-17 1.0563041293880654e-16 0.0013475487910590423 -0.9999990920556276
12653700000.0 -0.009251837776999575 -0.9999572008329016 3.301347050327599e-17 1.0526298776628702e-16 3.301347050327599e-17 1.0526298776628702e-16 -0.009251169799107404 -0.9999572070129662
12654317333.333334 -0.01984951700259604 -0.9998029789286424 3.412990542688888e-17 1.048836819115974e-16 3.412990542688888e-17 1.048836819115974e-16 -0.01984884916030292 -0.9998029921873787
12654934666.666666 -0.030444966438280097 -0.9995364445673788 3.5242006128667365e-17 1.0449254333111151e-16 3.5242006128667365e-17 1.0449254333111151e-16 -0.03044429880659091 -0.9995364649026062
12655552000.0 -0.04103699584867843 -0.9991576276902159 3.634964728718759e-17 1.0408962131367286e-16 3.634964728718759e-17 1.0408962131367286e-16 -0.041036328502567124 -0.9991576550989605
12656169333.333334 -0.05162441538246432 -0.9986665708514754 3.7452704139148367e-17 1.0367496647445602e-16 3.7452704139148367e-17 1.0367496647445602e-16 -0.05162374839686539 -0.9986666053299678
12656786666.666666 -0.062206035706189336 -0.9980633292139055 3.8551052493415483e-17 1.0324863074866364e-16 3.8551052493415483e-17 1.0324863074866364e-16 -0.06220536915598957 -0.9980633707575842
12657404000.0 -0.07278066813791535 -0.9973479705424897 3.96445687449807e-17 1.0281066738508137e-16 3.96445687449807e-17 1.0281066738508137e-16 -0.07278000209794526 -0.9973480191459985
12658021333.333334 -0.08334712478068754 -0.996520575196829 4.0733129888839017e-17 1.0236113093948727e-16 4.0733129888839017e-17 1.0236113093948727e-16 -0.08334645932571297 -0.9965206308540187
12658638666.666666 -0.09390421865586274 -0.9955812361221236 4.181661353378701e-17 1.0190007726791854e-16 4.181661353378701e-17 1.0190007726791854e-16 -0.09390355386057678 -0.9955812988260567
12659256000.0 -0.10445076383676066 -0.9945300588387166 4.2894897916185774e-17 1.0142756351977496e-16 4.2894897916185774e-17 1.0142756351977496e-16 -0.1044500997757747 -0.9945301285816608
12659873333.333334 -0.1149855755815154 -0.9933671614302603 4.3967861913594976e-17 1.0094364813079918e-16 4.3967861913594976e-17 1.0094364813079918e-16 -0.11498491232935118 -0.9933672382036948
12660490666.666666 -0.12550747046633345 -0.9920926745304434 4.503538505834006e-17 1.0044839081590831e-16 4.503538505834006e-17 1.0044839081590831e-16 -0.12550680809741466 -0.9920927583250586
12661108000.0 -0.13601526651860213 -0.9907067413082935 4.609734755105663e-17 9.994185256185715e-17 4.609734755105663e-17 9.994185256185715e-17 -0.136014605107246 -0.9907068321139932
12661725333.333334 -0.1465077833493276 -0.9892095174521378 4.7153630274056206e-17 9.942409561980232e-17 4.7153630274056206e-17 9.942409561980232e-17 -0.14650712296973648 -0.9892096152580375
12662342666.666666 -0.15698384228593074 -0.9876011711520855 4.820411480469699e-17 9.889518349768445e-17 4.820411480469699e-17 9.889518349768445e-17 -0.15698318301218386 -0.9876012759465163
12662960000.0 -0.1674422665046808 -0.9858818830811326 4.9248683428608104e-17 9.835518095249982e-17 4.9248683428608104e-17 9.835518095249982e-17 -0.16744160841072606 -0.9858819948516421
12663577333.333334 -0.17788188116280926 -0.9840518463748776 5.028721915287248e-17 9.780415398240992e-17 5.028721915287248e-17 9.780415398240992e-17 -0.17788122432245457 -0.9840519651082297
12664194666.666666 -0.1883015135305128 -0.9821112666098187 5.1319605719091783e-17 9.724216981872804e-17 5.1319605719091783e-17 9.724216981872804e-17 -0.1883008580174185 -0.9821113922919987
12664812000.0 -0.19869999312272033 -0.9800603617802605 5.234572761637603e-17 9.666929691776102e-17 5.234572761637603e-17 9.666929691776102e-17 -0.19869933901039014 -0.9800604943964726
12665429333.333334 -0.2090761518304944 -0.977899362273837 5.3365470094245836e-17 9.608560495251297e-17 5.3365470094245836e-17 9.608560495251297e-17 -0.20907549919226748 -0.9778995018085079
12666046666.666666 -0.2194288240522786 -0.9756285108456288 5.437871917541251e-17 9.549116480426975e-17 5.437871917541251e-17 9.549116480426975e-17 -0.21942817296132164 -0.9756286572824113
12666664000.0 -0.2297568468250293 -0.9732480625908508 5.5385361668535844e-17 9.488604855400924e-17 5.5385361668535844e-17 9.488604855400924e-17 -0.22975619735432803 -0.9732482159126228
12667281333.333334 -0.24005905995452362 -0.9707582849162686 5.638528518079227e-17 9.427032947373207e-17 5.638528518079227e-17 9.427032947373207e-17 -0.24005841217687457 -0.9707584451051364
12667898666.666666 -0.25033430614585583 -0.968159457510124 5.737837813042528e-17 9.36440820176144e-17 5.737837813042528e-17 9.36440820176144e-17 -0.2503336601338583 -0.9681596245474248
12668516000.0 -0.260581431133607 -0.9654518723106739 5.83645297591685e-17 9.300738181304618e-17 5.83645297591685e-17 9.300738181304618e-17 -0.26058078695965475 -0.9654520461769767
12669133333.333334 -0.27079928381115054 -0.9626358334734856 5.934363014454914e-17 9.236030565155282e-17 5.934363014454914e-17 9.236030565155282e-17 -0.2707986415474241 -0.9626360141485951
12669750666.666666 -0.2809867163602644 -0.959711657337193 6.031557021212795e-17 9.170293147956376e-17 6.031557021212795e-17 9.170293147956376e-17 -0.2809860760787223 -0.9597118448001497
