! Parameters = {f0=12700.012000; bw=77.238000; Q=6100.000000; N=10; m_0_1=1.210906; m_1_1=-0.601157; m_1_2=1.045718; m_2_2=-0.601806; m_2_3=0.682681; m_2_8=-0.002391; m_2_9=0.034313; m_3_3=-0.603743; m_3_4=0.571210; m_3_7=-0.001791; m_3_8=-0.098879; m_3_9=-0.002391; m_4_4=-0.606668; m_4_5=0.407545; m_4_6=0.001726; m_4_7=-0.119428; m_4_8=-0.001791; m_5_5=-0.606286; m_5_6=0.814900; m_5_7=0.001726; m_6_6=-0.606287; m_6_7=0.407887; m_7_7=-0.606654; m_7_8=0.571328; m_8_8=-0.603745; m_8_9=0.682994; m_9_9=-0.601811; m_9_10=1.046796; m_10_10=-0.601167; m_10_11=1.211701}
!
! Created with skrf (http://scikit-rf.org).
# Hz S RI R 50.0 
!freq ReS11 ImS11 ReS21 ImS21 ReS12 ImS12 ReS22 ImS22
12607400000.0 0.3321982528860388 -0.9432095847579708 -4.199812712286358e-18 8.288977021246253e-17 -4.199812712286358e-18 8.288977021246253e-17 0.3321988547297286 -0.9432093727885107
12608017333.333334 0.3239079874465512 -0.9460885876429146 -3.4641892286624753e-18 8.290750136731442e-17 -3.4641892286624753e-18 8.290750136731442e-17 0.3239085910977174 -0.9460883809734327
12608634666.666666 0.3155927755364378 -0.9488947254722445 -2.728581600512829e-18 8.291870946014326e-17 -2.728581600512829e-18 8.291870946014326e-17 0.31559338094841427 -0.9488945241181387
12609252000.0 0.3072532575696862 -0.9516277821252677 -1.993047622625961e-18 8.292339616534248e-17 -1.993047622625961e-18 8.292339616534248e-17 0.30725386469567534 -0.9516275861015228
12609869333.333334 0.29889007583223814 -0.9542875471097999 -1.2576450613710565e-18 8.2921563668948e-17 -1.2576450613710565e-18 8.2921563668948e-17 0.29889068462531543 -0.9542873564309913
12610486666.666666 0.29050387443274167 -0.9568738155783167 -5.224316501698986e-19 8.291321466826661e-17 -5.224316501698986e-19 8.291321466826661e-17 0.2905044848458585 -0.9568736302586051
12611104000.0 0.282095299252481 -0.9593863883438694 2.1253491504332377e-19 8.28983523714634e-17 2.1253491504332377e-19 8.28983523714634e-17 0.2820959112384689 -0.9593862083970025
12611721333.333334 0.27366499789609483 -0.9618250718952854 9.471969802985688e-19 8.287698049711027e-17 9.471969802985688e-19 8.287698049711027e-17 0.2736656114076687 -0.9618248973345959
12612338666.666666 0.26521361964150975 -0.9641896784121312 1.6814969381392047e-18 8.284910327369342e-17 1.6814969381392047e-18 8.284910327369342e-17 0.2652142346312717 -0.9641895092505353
12612956000.0 0.25674181538977003 -0.966480025779222 2.4153772321210644e-18 8.281472543908168e-17 2.4153772321210644e-18 8.281472543908168e-17 0.2567424318102129 -0.9664798620292188
12613573333.333334 0.24825023761523557 -0.9686959376005552 3.1487803612845626e-18 8.277385223995556e-17 3.1487803612845626e-18 8.277385223995556e-17 0.24825085541874664 -0.968695779274226
12614190666.666666 0.23973954031513886 -0.9708372432129528 3.881648884686623e-18 8.272648943119524e-17 3.881648884686623e-18 8.272648943119524e-17 0.23974015945400345 -0.9708370903219593
12614808000.0 0.2312103789591602 -0.9729037776992147 4.6139254258696e-18 8.26726432752297e-17 4.6139254258696e-18 8.26726432752297e-17 0.23121099938556555 -0.9729036302547991
12615425333.333334 0.22266341043913826 -0.9748953819007721 5.3455526773375504e-18 8.261232054134665e-17 5.3455526773375504e-18 8.261232054134665e-17 0.22266403210517757 -0.9748952399137578
12616042666.666666 0.21409929301828573 -0.9768119024299968 6.0764734050441386e-18 8.254552850496203e-17 6.0764734050441386e-18 8.254552850496203e-17 0.21409991587596097 -0.9768117659107847
12616660000.0 0.20551868628057346 -0.9786531916819898 6.806630452851808e-18 8.247227494685012e-17 6.806630452851808e-18 8.247227494685012e-17 0.20551931028179965 -0.9786530606405585
12617277333.333334 0.19692225107998765 -0.9804191078459403 7.535966746985535e-18 8.239256815233568e-17 7.535966746985535e-18 8.239256815233568e-17 0.19692287617659618 -0.9804189822918444
12617894666.666666 0.18831064948960421 -0.9821095149160514 8.264425300485376e-18 8.230641691044544e-17 8.264425300485376e-18 8.230641691044544e-17 0.1883112756333473 -0.9821093948584243
12618512000.0 0.17968454475037585 -0.9837242827020634 8.991949217666778e-18 8.221383051301852e-17 8.991949217666778e-18 8.221383051301852e-17 0.17968517189292946 -0.9837241681496127
12619129333.333334 0.17104460122052448 -0.985263286839184 9.718481698513585e-18 8.211481875378424e-17 9.718481698513585e-18 8.211481875378424e-17 0.17104522931349242 -0.9852631778001928
12619746666.666666 0.1623914843239278 -0.9867264087977535 1.0443966043138911e-17 8.200939192739262e-17 1.0443966043138911e-17 8.200939192739262e-17 0.1623921133188456 -0.9867263052800801
12620364000.0 0.15372586049895404 -0.9881135358923572 1.1168345656191973e-17 8.189756082840988e-17 1.1168345656191973e-17 8.189756082840988e-17 0.15372649034729238 -0.9881134379034334
12620981333.333334 0.1450483971474706 -0.989424561290445 1.1891564051234107e-17 8.177933675027928e-17 1.1891564051234107e-17 8.177933675027928e-17 0.14504902780063933 -0.9894244688372775
12621598666.666666 0.13635976258299462 -0.9906593840206376 1.2613564855169724e-17 8.165473148423372e-17 1.2613564855169724e-17 8.165473148423372e-17 0.1363603939923463 -0.9906592971098045
12622216000.0 0.12766062597944525 -0.991817908980462 1.33342918126107e-17 8.152375731817733e-17 1.33342918126107e-17 8.152375731817733e-17 0.12766125809627887 -0.9918178276181143
12622833333.333334 0.11895165731963425 -0.992900046943675 1.4053688790246195e-17 8.138642703552654e-17 1.4053688790246195e-17 8.138642703552654e-17 0.11895229009519913 -0.9928999711355359
12623450666.666666 0.11023352734358141 -0.9939057145671476 1.4771699781208124e-17 8.124275391401176e-17 1.4771699781208124e-17 8.124275391401176e-17 0.11023416072908088 -0.9939056443185115
12624068000.0 0.1015069074969406 -0.9948348343972716 1.548826890942492e-17 8.109275172444e-17 1.548826890942492e-17 8.109275172444e-17 0.10150754144353588 -0.9948347697130057
12624685333.333334 0.09277246987906117 -0.9956873348759533 1.6203340433954072e-17 8.093643472942128e-17 1.6203340433954072e-17 8.093643472942128e-17 0.09277310433787495 -0.9956872757604939
12625302666.666666 0.08403088719159166 -0.9964631503460792 1.6916858753297914e-17 8.077381768205817e-17 1.6916858753297914e-17 8.077381768205817e-17 0.0840315221137121 -0.9964630968034355
12625920000.0 0.07528283268633154 -0.9971622210566153 1.762876840974335e-17 8.060491582458926e-17 1.762876840974335e-17 8.060491582458926e-17 0.0752834680228157 -0.997162173090364
12626537333.333334 0.06652898011360499 -0.9977844931671785 1.8339014093622157e-17 8.042974488700911e-17 1.8339014093622157e-17 8.042974488700911e-17 0.06652961581548304 -0.99778445078047
12627154666.666666 0.05777000367028634 -0.9983299187522007 1.9047540647624576e-17 8.024832108563653e-17 1.9047540647624576e-17 8.024832108563653e-17 0.05777063968856493 -0.9983298819477526
12627772000.0 0.04900657794778965 -0.9987984558046167 1.9754293071078227e-17 8.006066112164814e-17 1.9754293071078227e-17 8.006066112164814e-17 0.049007214233455984 -0.9987984245847189
12628389333.333334 0.04023937788034098 -0.9991900682390927 2.0459216524167973e-17 7.986678217958737e-17 2.0459216524167973e-17 7.986678217958737e-17 0.040240014384366356 -0.9991900426056025
12629006666.666666 0.03146907869265597 -0.9995047258948173 2.1162256332227587e-17 7.966670192581322e-17 2.1162256332227587e-17 7.966670192581322e-17 0.03146971536599972 -0.9995047058491636
12629624000.0 0.02269635584833367 -0.9997424045378118 2.186335798993745e-17 7.946043850693275e-17 2.186335798993745e-17 7.946043850693275e-17 0.02269699264194682 -0.9997423900809906
12630241333.333334 0.013921884997493231 -0.9999030858628037 2.2562467165545847e-17 7.92480105481862e-17 2.2562467165545847e-17 7.92480105481862e-17 0.013922521862322412 -0.9999030769953823
12630858666.666666 0.005146341924993152 -0.9999867574946341 2.325952970506829e-17 7.902943715179756e-17 2.325952970506829e-17 7.902943715179756e-17 0.005146978811984285 -0.999986754216749
12631476000.0 -0.003629597501843185 -0.9999934129892128 2.3954491636488917e-17 7.880473789528176e-17 2.3954491636488917e-17 7.880473789528176e-17 -0.0036289606417410935 -0.9999934153005713
12632093333.333334 -0.012405257385110363 -0.9999230518340143 2.4647299173892364e-17 7.857393282973238e-17 2.4647299173892364e-17 7.857393282973238e-17 -0.012404620600941444 -0.999923059733891
12632710666.666666 -0.021179961848319852 -0.9997756794481168 2.5337898721642273e-17 7.833704247805399e-17 2.5337898721642273e-17 7.833704247805399e-17 -0.021179325189117592 -0.9997756929353572
12633328000.0 -0.029953035088795092 -0.9995513071817822 2.602623687852025e-17 7.809408783316338e-17 2.602623687852025e-17 7.809408783316338e-17 -0.02995239860357856 -0.9995513262548013
12633945333.333334 -0.03872380142937885 -0.9992499523155844 2.6712260441817448e-17 7.784509035616654e-17 2.6712260441817448e-17 7.784509035616654e-17 -0.03872316516714893 -0.9992499769723677
12634562666.666666 -0.04749158537052889 -0.9988716380590823 2.7395916411459703e-17 7.759007197448176e-17 2.7395916411459703e-17 7.759007197448176e-17 -0.0474909493802645 -0.9988716682971849
12635180000.0 -0.056255711642484954 -0.9984163935490229 2.807715199408191e-17 7.732905507993814e-17 2.807715199408191e-17 7.732905507993814e-17 -0.056255075973139314 -0.9984164293655713
12635797333.333334 -0.06501550525721937 -0.9978842538471027 2.875591460708915e-17 7.706206252683701e-17 2.875591460708915e-17 7.706206252683701e-17 -0.0650148699577161 -0.9978842952387922
12636414666.666666 -0.07377029156022397 -0.9972752599372752 2.943215188270848e-17 7.67891176299751e-17 2.943215188270848e-17 7.67891176299751e-17 -0.07376965667945355 -0.9972753069003739
12637032000.0 -0.0825193962828107 -0.9965894587225776 3.010581167202204e-17 7.65102441626312e-17 3.010581167202204e-17 7.65102441626312e-17 -0.08251876186962659 -0.9965895112529252
12637649333.333334 -0.09126214559384319 -0.9958269030215289 3.077684204897284e-17 7.622546635452178e-17 3.077684204897284e-17 7.622546635452178e-17 -0.09126151169705787 -0.9958269611145341
12638266666.666666 -0.09999786615157653 -0.9949876515640651 3.1445191314349364e-17 7.593480888972233e-17 3.1445191314349364e-17 7.593480888972233e-17 -0.09999723281995816 -0.9949877152147112
12638884000.0 -0.1087258851557146 -0.994071768987002 3.211080799977023e-17 7.563829690454588e-17 3.211080799977023e-17 7.563829690454588e-17 -0.10872525243798303 -0.9940718381898449
12639501333.333334 -0.11744553039902916 -0.9930793258290758 3.2773640871631777e-17 7.53359559853937e-17 3.2773640871631777e-17 7.53359559853937e-17 -0.11744489834385215 -0.993079400578243
12640118666.666666 -0.12615613031915968 -0.9920103985255072 3.3433638935020946e-17 7.502781216657868e-17 3.3433638935020946e-17 7.502781216657868e-17 -0.12615549897514922 -0.9920104788147003
12640736000.0 -0.13485701405070183 -0.9908650694020702 3.409075143767382e-17 7.471389192808426e-17 3.409075143767382e-17 7.471389192808426e-17 -0.13485638346641043 -0.9908651552245649
12641353333.333334 -0.14354751147611433 -0.9896434266688463 3.4744927873809553e-17 7.439422219333716e-17 3.4744927873809553e-17 7.439422219333716e-17 -0.143546881700031 -0.9896435180174915
12641970666.666666 -0.1522269532780903 -0.9883455644133335 3.53961179880387e-17 7.406883032690172e-17 3.53961179880387e-17 7.406883032690172e-17 -0.15222632435863756 -0.9883456612805557
12642588000.0 -0.16089467099074034 -0.9869715825932487 3.604427177920395e-17 7.373774413216253e-17 3.604427177920395e-17 7.373774413216253e-17 -0.16089404297626964 -0.9869716849710483
12643205333.333334 -0.16954999705101967 -0.9855215870288384 3.668933950420352e-17 7.340099184897128e-17 3.668933950420352e-17 7.340099184897128e-17 -0.16954936998980816 -0.9855216949087927
12643822666.666666 -0.17819226485042203 -0.9839956893946826 3.7331271681799096e-17 7.305860215125724e-17 3.7331271681799096e-17 7.305860215125724e-17 -0.1781916387906688 -0.9839958027679466
12644440000.0 -0.18682080878609658 -0.9823940072111336 3.797001909640189e-17 7.271060414460487e-17 3.797001909640189e-17 7.271060414460487e-17 -0.18682018377591875 -0.982394126068439
12645057333.333334 -0.1954349643120541 -0.9807166638352723 3.860553280182994e-17 7.235702736380136e-17 3.860553280182994e-17 7.235702736380136e-17 -0.19543434039948326 -0.9807167881669301
12645674666.666666 -0.20403406799054466 -0.9789637884513762 3.9237764125040886e-17 7.199790177035283e-17 3.9237764125040886e-17 7.199790177035283e-17 -0.2040334452235233 -0.9789639182472762
12646292000.0 -0.21261745754312533 -0.9771355160609696 3.9866664669874546e-17 7.163325774994989e-17 3.9866664669874546e-17 7.163325774994989e-17 -0.2126168359695031 -0.977135651310583
12646909333.333334 -0.2211844719015001 -0.9752319874724644 4.0492186320713054e-17 7.126312610993374e-17 4.0492186320713054e-17 7.126312610993374e-17 -0.22118385156903012 -0.9752321281648434
12647526666.666666 -0.2297344512586286 -0.9732533492902745 4.1114281246164506e-17 7.088753807670399e-17 4.1114281246164506e-17 7.088753807670399e-17 -0.2297338322149632 -0.9732534954140506
12648144000.0 -0.23826673711942975 -0.9711997539035421 4.173290190271845e-17 7.050652529309658e-17 4.173290190271845e-17 7.050652529309658e-17 -0.238266119412118 -0.9711999054469325
12648761333.333334 -0.2467806723515546 -0.9690713594743967 4.2348001038353435e-17 7.012011981574424e-17 4.2348001038353435e-17 7.012011981574424e-17 -0.24678005602803765 -0.9690715164252011
12649378666.666666 -0.25527560123591253 -0.9668683299257886 4.295953169612836e-17 6.972835411240111e-17 4.295953169612836e-17 6.972835411240111e-17 -0.2552749863435205 -0.9668684922713923
12649996000.0 -0.26375086951722937 -0.9645908349288553 4.356744721777702e-17 6.933126105921885e-17 4.356744721777702e-17 6.933126105921885e-17 -0.2637502561031776 -0.9645910026562285
12650613333.333334 -0.2722058244545172 -0.9622390498898268 4.41717012472438e-17 6.89288739380123e-17 4.41717012472438e-17 6.89288739380123e-17 -0.2722052125659026 -0.9622392229855277
12651230666.666666 -0.280639814871156 -0.9598131559365725 4.4772247734192977e-17 6.852122643349626e-17 4.4772247734192977e-17 6.852122643349626e-17 -0.28063920455495317 -0.9598133343867459
12651848000.0 -0.28905219120523623 -0.9573133399045961 4.536904093753714e-17 6.810835263046232e-17 4.536904093753714e-17 6.810835263046232e-17 -0.289051582508294 -0.9573135236949756
12652465333.333334 -0.2974423055595035 -0.9547397943226664 4.5962035428885434e-17 6.769028701096091e-17 4.5962035428885434e-17 6.769028701096091e-17 -0.2974416985285421 -0.9547399834385778
12653082666.666666 -0.3058095117511782 -0.9520927173980199 4.655118609598387e-17 6.726706445144249e-17 4.655118609598387e-17 6.726706445144249e-17 -0.3058089064327844 -0.9520929118243792
12653700000.0 -0.31415316536191096 -0.9493723130010332 4.7136448146165346e-17 6.683872021984286e-17 4.7136448146165346e-17 6.683872021984286e-17 -0.31415256180253526 -0.9493725127223478
12654317333.333334 -0.3224726237872249 -0.9465787906495805 4.771777710971053e-17 6.640528997268351e-17 4.771777710971053e-17 6.640528997268351e-17 -0.32247202203317776 -0.9465789956499531
12654934666.666666 -0.3307672462860618 -0.9437123654928845 4.829512884322769e-17 6.596680975211006e-17 4.829512884322769e-17 6.596680975211006e-17 -0.33076664638351017 -0.9437125757560115
12655552000.0 -0.3390363940303178 -0.940773258294877 4.886845953300333e-17 6.552331598290276e-17 4.886845953300333e-17 6.552331598290276e-17 -0.3390357960252816 -0.9407734738040523
12656169333.333334 -0.34727943015372165 -0.9377616954173092 4.943772569829231e-17 6.507484546948309e-17 4.943772569829231e-17 6.507484546948309e-17 -0.3472788340920702 -0.937761916155424
12656786666.666666 -0.35549571980107336 -0.9346779088022559 5.000288419461584e-17 6.46214353928655e-17 5.000288419461584e-17 6.46214353928655e-17 -0.35549512572852165 -0.9346781347517998
12657404000.0 -0.36368463017716374 -0.9315221359542355 5.056389221702036e-17 6.416312330758851e-17 5.056389221702036e-17 6.416312330758851e-17 -0.36368403813926925 -0.9315223670972991
12658021333.333334 -0.37184553059548475 -0.928294619921932 5.1120707303305115e-17 6.369994713862122e-17 5.1120707303305115e-17 6.369994713862122e-17 -0.37184494063764406 -0.9282948562402078
12658638666.666666 -0.3799777925265914 -0.9249956092795574 5.16732873372089e-17 6.323194517825185e-17 5.16732873372089e-17 6.323194517825185e-17 -0.37997720469403634 -0.9249958507543413
12659256000.0 -0.38808078964693216 -0.9216253581075418 5.2221590551611516e-17 6.275915608291348e-17 5.2221590551611516e-17 6.275915608291348e-17 -0.3880802039847263 -0.9216256047197335
12659873333.333334 -0.39615389788676875 -0.9181841259730861 5.276557553165628e-17 6.228161887002361e-17 5.276557553165628e-17 6.228161887002361e-17 -0.3961533144398042 -0.9181843777031924
12660490666.666666 -0.40419649547816433 -0.9146721779102126 5.3305201217860154e-17 6.179937291478382e-17 5.3305201217860154e-17 6.179937291478382e-17 -0.40419591429115803 -0.914672434738347
12661108000.0 -0.41220796300328616 -0.9110897843991678 5.384042690922781e-17 6.131245794692332e-17 5.384042690922781e-17 6.131245794692332e-17 -0.41220738412077734 -0.9110900463050547
12661725333.333334 -0.42018768344167007 -0.9074372213457875 5.437121226627876e-17 6.082091404746636e-17 5.437121226627876e-17 6.082091404746636e-17 -0.4201871069080155 -0.9074374883087611
12662342666.666666 -0.42813504221794874 -0.9037147700601534 5.4897517314088287e-17 6.032478164543506e-17 5.4897517314088287e-17 6.032478164543506e-17 -0.4281344680773201 -0.903715042059161
12662960000.0 -0.43604942724923607 -0.8999227172349042 5.541930244528663e-17 5.982410151453692e-17 5.541930244528663e-17 5.982410151453692e-17 -0.4360488555456168 -0.8999229942485074
12663577333.333334 -0.4439302289920883 -0.8960613549232396 5.59365284230227e-17 5.931891476983103e-17 5.59365284230227e-17 5.931891476983103e-17 -0.4439296597692694 -0.8960616369296153
12664194666.666666 -0.4517768404896287 -0.8921309805163415 5.644915638389631e-17 5.880926286437094e-17 5.644915638389631e-17 5.880926286437094e-17 -0.45177627379120605 -0.8921312674932845
12664812000.0 -0.4595886574182164 -0.8881318967205057 5.695714784087467e-17 5.829518758580737e-17 5.695714784087467e-17 5.829518758580737e-17 -0.45958809328758693 -0.8881321886454298
12665429333.333334 -0.46736507813393824 -0.8840644115338532 5.746046468616492e-17 5.777673105297898e-17 5.746046468616492e-17 5.777673105297898e-17 -0.467364516614298 -0.8840647083837953
12666046666.666666 -0.47510550371897503 -0.8799288382226037 5.795906919404615e-17 5.725393571248863e-17 5.795906919404615e-17 5.725393571248863e-17 -0.47510494485331306 -0.8799291399742205
12666664000.0 -0.4828093380279237 -0.8757254952968309 5.845292402371099e-17 5.672684433521379e-17 5.845292402371099e-17 5.672684433521379e-17 -0.48280878185902204 -0.8757258019264068
12667281333.333334 -0.49047598773328926 -0.8714547064861691 5.894199222202063e-17 5.6195500012849e-17 5.894199222202063e-17 5.6195500012849e-17 -0.4904754343037177 -0.8714550179696141
12667898666.666666 -0.4981048623715805 -0.8671168007146616 5.942623722626716e-17 5.565994615438515e-17 5.942623722626716e-17 5.565994615438515e-17 -0.4981043117236931 -0.8671171170275137
12668516000.0 -0.5056953743887073 -0.8627121120754636 5.990562286690241e-17 5.512022648256588e-17 5.990562286690241e-17 5.512022648256588e-17 -0.5056948265646402 -0.8627124331928917
12669133333.333334 -0.5132469391849386 -0.8582409798052839 6.038011337020643e-17 5.457638503035226e-17 6.038011337020643e-17 5.457638503035226e-17 -0.5132463942266065 -0.8582413057020899
12669750666.666666 -0.5207589751603456 -0.8537037482580175 6.084967336095377e-17 5.402846613733129e-17 6.084967336095377e-17 5.402846613733129e-17 -0.5207584331094384 -0.8537040789086368
12670368000.0 -0.5282309037592993 -0.8491007668783934 6.131426786503938e-17 5.3476514446110635e-17 6.131426786503938e-17 5.3476514446110635e-17 -0.5282303646572786 -0.8491011022568982
