! Parameters = {f0=12700.012000; bw=77.238000; Q=6100.000000; N=10; m_0_1=1.231126; m_1_1=-0.297854; m_1_2=1.065938; m_2_2=-0.298503; m_2_3=0.702901; m_2_8=-0.001380; m_2_9=0.035324; m_3_3=-0.300440; m_3_4=0.591430; m_3_7=-0.000780; m_3_8=-0.097868; m_3_9=-0.001380; m_4_4=-0.303365; m_4_5=0.427765; m_4_6=0.002737; m_4_7=-0.118417; m_4_8=-0.000780; m_5_5=-0.302983; m_5_6=0.835120; m_5_7=0.002737; m_6_6=-0.302984; m_6_7=0.428107; m_7_7=-0.303351; m_7_8=0.591548; m_8_8=-0.300442; m_8_9=0.703214; m_9_9=-0.298508; m_9_10=1.067016; m_10_10=-0.297864; m_10_11=1.231921}
!
! Created with skrf (http://scikit-rf.org).
# Hz S RI R 50.0 
!freq ReS11 ImS11 ReS21 ImS21 ReS12 ImS12 ReS22 ImS22
12607400000.0 0.6359377580466353 -0.7717403500468619 -3.5829945954859025e-17 8.445978694914061e-17 -3.5829945954859025e-17 8.445978694914061e-17 0.6359382586740702 -0.7717399375142027
12608017333.333334 0.6286758372062198 -0.7776674685962456 -3.502229932277836e-17 8.477843168737124e-17 -3.502229932277836e-17 8.477843168737124e-17 0.628676341653873 -0.7776670607943589
12608634666.666666 0.6213586769928465 -0.783526256436587 -3.421183283139116e-17 8.50893598910354e-17 -3.421183283139116e-17 8.50893598910354e-17 0.6213591852160222 -0.7835258534008399
12609252000.0 0.6139869203378749 -0.7893161987783138 -3.339862014526194e-17 8.539254674547263e-17 -3.339862014526194e-17 8.539254674547263e-17 0.6139874322915494 -0.7893158005436506
12609869333.333334 0.6065612149697547 -0.7950367868811158 -3.2582735145910996e-17 8.568796813866799e-17 -3.2582735145910996e-17 8.568796813866799e-17 0.6065617306085823 -0.7950363934820568
12610486666.666666 0.5990822133573201 -0.8006875180984951 -3.1764251925127546e-17 8.597560066313101e-17 -3.1764251925127546e-17 8.597560066313101e-17 0.5990827326356345 -0.8006871295691311
12611104000.0 0.5915505726521849 -0.8062678959221348 -3.0943244778239655e-17 8.625542161772074e-17 -3.0943244778239655e-17 8.625542161772074e-17 0.591551095524005 -0.8062675122961259
12611721333.333334 0.583966954631296 -0.8117774300253021 -3.0119788197405615e-17 8.652740900939394e-17 -3.0119788197405615e-17 8.652740900939394e-17 0.5839674810503294 -0.8117770513358745
12612338666.666666 0.5763320256386524 -0.8172156363060382 -2.9293956864855575e-17 8.679154155490077e-17 -2.9293956864855575e-17 8.679154155490077e-17 0.5763325555582994 -0.8172152625859807
12612956000.0 0.5686464565266132 -0.8225820369297893 -2.846582564613139e-17 8.704779868241236e-17 -2.846582564613139e-17 8.704779868241236e-17 0.5686469898999722 -0.822581668211452
12613573333.333334 0.5609109225972574 -0.827876160371181 -2.7635469583337302e-17 8.729616053307598e-17 -2.7635469583337302e-17 8.729616053307598e-17 0.5609114593771262 -0.8278757966864695
12614190666.666666 0.5531261035427877 -0.8330975414556252 -2.680296388832804e-17 8.753660796252184e-17 -2.680296388832804e-17 8.753660796252184e-17 0.5531266436816713 -0.8330971828360023
12614808000.0 0.545292683385906 -0.8382457214001344 -2.5968383935933946e-17 8.77691225422895e-17 -2.5968383935933946e-17 8.77691225422895e-17 0.5452932268360174 -0.8382453678766127
12615425333.333334 0.5374113504197785 -0.8433202478535805 -2.513180525713444e-17 8.799368656120223e-17 -2.513180525713444e-17 8.799368656120223e-17 0.5374118971330449 -0.8433198994567221
12616042666.666666 0.5294827971474174 -0.8483206749365373 -2.4293303532247534e-17 8.821028302666809e-17 -2.4293303532247534e-17 8.821028302666809e-17 0.529483347075484 -0.8483203316964507
12616660000.0 0.5215077202209278 -0.8532465632803952 -2.345295458409618e-17 8.841889566591994e-17 -2.345295458409618e-17 8.841889566591994e-17 0.5215082733151628 -0.8532462252267345
12617277333.333334 0.5134868203802481 -0.8580974800659987 -2.26108343711646e-17 8.86195089271908e-17 -2.26108343711646e-17 8.86195089271908e-17 0.5134873765917457 -0.8580971472279587
12617894666.666666 0.5054208023916752 -0.8628729990616177 -2.1767018980757738e-17 8.881210798082084e-17 -2.1767018980757738e-17 8.881210798082084e-17 0.5054213616712601 -0.8628726714679306
12618512000.0 0.4973103749857684 -0.8675727006604974 -2.0921584622123945e-17 8.899667872030577e-17 -2.0921584622123945e-17 8.899667872030577e-17 0.49731093728400144 -0.8675723783394342
12619129333.333334 0.48915625079527253 -0.8721961719176169 -2.007460761960757e-17 8.917320776327183e-17 -2.007460761960757e-17 8.917320776327183e-17 0.4891568160624539 -0.8721958548969817
12619746666.666666 0.4809591462923556 -0.8767430065860591 -1.9226164405758498e-17 8.934168245239369e-17 -1.9226164405758498e-17 8.934168245239369e-17 0.4809597144785287 -0.8767426948931859
12620364000.0 0.47271978172562557 -0.8812128051527122 -1.837633151444706e-17 8.9502090856243e-17 -1.837633151444706e-17 8.9502090856243e-17 0.4727203527805829 -0.8812124988144658
12620981333.333334 0.4644388810570465 -0.8856051748732688 -1.7525185573998385e-17 8.96544217700683e-17 -1.7525185573998385e-17 8.96544217700683e-17 0.46443945493033395 -0.885604873916042
12621598666.666666 0.45611717189817885 -0.889919729806819 -1.6672803300269836e-17 8.979866471651828e-17 -1.6672803300269836e-17 8.979866471651828e-17 0.4561177485390988 -0.8899194342565274
12622216000.0 0.4477553854462191 -0.89415609084977 -1.581926148977443e-17 8.993480994629092e-17 -1.581926148977443e-17 8.993480994629092e-17 0.44775596480383606 -0.8941558007318524
12622833333.333334 0.439354256419803 -0.8983138857691316 -1.4964637012756226e-17 9.006284843872442e-17 -1.4964637012756226e-17 9.006284843872442e-17 0.43935483844294765 -0.8983136011085466
12623450666.666666 0.43091452299452576 -0.902392749235185 -1.4109006806302864e-17 9.018277190231628e-17 -1.4109006806302864e-17 9.018277190231628e-17 0.43091510763179997 -0.90239247005641
12624068000.0 0.4224369267379534 -0.9063923228536462 -1.3252447867418804e-17 9.0294572775182e-17 -1.3252447867418804e-17 9.0294572775182e-17 0.4224375139377339 -0.9063920491806743
12624685333.333334 0.41392221254441147 -0.9103122551971784 -1.239503724610887e-17 9.039824422544708e-17 -1.239503724610887e-17 9.039824422544708e-17 0.4139228022548555 -0.9103119870535172
12625302666.666666 0.4053711285698972 -0.9141522018361072 -1.1536852038485398e-17 9.049378015156952e-17 -1.1536852038485398e-17 9.049378015156952e-17 0.4053717207389455 -0.914151939244774
12625920000.0 0.39678442616579596 -0.9179118253689269 -1.067796937982249e-17 9.058117518260362e-17 -1.067796937982249e-17 9.058117518260362e-17 0.39678502074117933 -0.9179115683524515
12626537333.333334 0.38816285981333143 -0.9215907954517397 -9.818466437658474e-18 9.066042467839281e-17 -9.818466437658474e-18 9.066042467839281e-17 0.388163456742574 -0.9215905440321588
12627154666.666666 0.37950718705709086 -0.9251887888273663 -8.958420404872354e-18 9.073152472969952e-17 -8.958420404872354e-18 9.073152472969952e-17 0.37950778628751525 -0.9251885430262229
12627772000.0 0.37081816843827703 -0.9287054893538188 -8.097908492747765e-18 9.079447215827057e-17 -8.097908492747765e-18 9.079447215827057e-17 0.3708187699170085 -0.9287052491921597
12628389333.333334 0.362096567428357 -0.9321405880318889 -7.237007924092285e-18 9.084926451683298e-17 -7.237007924092285e-18 9.084926451683298e-17 0.3620971711023287 -0.9321403535302641
12629006666.666666 0.35334315036142455 -0.9354937830325214 -6.375795926280851e-18 9.089590008902986e-17 -6.375795926280851e-18 9.089590008902986e-17 0.35334375617738173 -0.9354935542109809
12629624000.0 0.34455868636726156 -0.9387647797231755 -5.514349724381634e-18 9.093437788928589e-17 -5.514349724381634e-18 9.093437788928589e-17 0.3445592942717666 -0.9387645566012687
12630241333.333334 0.3357439473035713 -0.9419532906937853 -4.6527465342149986e-18 9.096469766261132e-17 -4.6527465342149986e-18 9.096469766261132e-17 0.335744557243009 -0.94195307329056
12630858666.666666 0.326899707688294 -0.9450590357819678 -3.791063555472898e-18 9.098685988433816e-17 -3.791063555472898e-18 9.098685988433816e-17 0.32690031960887433 -0.9450588241159653
12631476000.0 0.3180267446313626 -0.948081742097702 -2.929377964785503e-18 9.10008657597932e-17 -2.929377964785503e-18 9.10008657597932e-17 0.31802735847912733 -0.9480815361869586
12632093333.333334 0.30912583776660996 -0.9510211440472426 -2.06776690885724e-18 9.10067172239033e-17 -2.06776690885724e-18 9.10067172239033e-17 0.3091264534874373 -0.9510209439092885
12632710666.666666 0.3001977691832132 -0.9538769833564792 -1.2063074975565048e-18 9.100441694073798e-17 -1.2063074975565048e-18 9.100441694073798e-17 0.30019838672282145 -0.9538767890083343
12633328000.0 0.29124332335681 -0.956649009093677 -3.450767970268602e-19 9.099396830298561e-17 -3.450767970268602e-19 9.099396830298561e-17 0.29124394266076337 -0.9566488205518517
12633945333.333334 0.28226328708078774 -0.9593369776914598 5.158481771848026e-19 9.097537543136513e-17 5.158481771848026e-19 9.097537543136513e-17 0.28226390809449997 -0.9593367949719505
12634562666.666666 0.2732584493971222 -0.9619406529682148 1.3763904670032393e-18 9.094864317397242e-17 1.3763904670032393e-18 9.094864317397242e-17 0.27325907206586325 -0.9619404760865082
12635180000.0 0.26422960152691394 -0.9644598061488947 2.236473178689412e-18 9.09137771055624e-17 2.236473178689412e-18 9.09137771055624e-17 0.26423022579581307 -0.9644596351199612
12635797333.333334 0.255177536800946 -0.9668942158850867 3.096019489699187e-18 9.08707835267658e-17 3.096019489699187e-18 9.08707835267658e-17 0.25517816261499743 -0.9668940507233814
12636414666.666666 0.24610305059006066 -0.9692436682744442 3.954952655522662e-18 9.081966946324199e-17 3.954952655522662e-18 9.081966946324199e-17 0.24610367789412815 -0.9692435089939053
12637032000.0 0.2370069402350804 -0.971507956879531 4.813196016526738e-18 9.076044266476668e-17 4.813196016526738e-18 9.076044266476668e-17 0.23700756897390204 -0.9715078034935778
12637649333.333334 0.22789000497696854 -0.9736868827459021 5.67067300478744e-18 9.069311160425525e-17 5.67067300478744e-18 9.069311160425525e-17 0.2278906350951622 -0.9736867352674362
12638266666.666666 0.21875304588641084 -0.9757802544196377 6.527307150898434e-18 9.06176854767222e-17 6.527307150898434e-18 9.06176854767222e-17 0.2187536773284783 -0.9757801128610397
12638884000.0 0.20959686579353787 -0.9777878879641334 7.383022090778389e-18 9.053417419817558e-17 7.383022090778389e-18 9.053417419817558e-17 0.20959749850386997 -0.9777877523372622
12639501333.333334 0.20042226921732822 -0.9797096069762773 8.237741572466297e-18 9.044258840444845e-17 8.237741572466297e-18 9.044258840444845e-17 0.20042290314020997 -0.9797094772924702
12640118666.666666 0.19123006229505785 -0.9815452426019206 9.091389462888632e-18 9.034293944996653e-17 9.091389462888632e-18 9.034293944996653e-17 0.19123069737467313 -0.981545118871991
12640736000.0 0.18202105271113336 -0.9832946335507814 9.943889754656862e-18 9.023523940644773e-17 9.943889754656862e-18 9.023523940644773e-17 0.18202168889156983 -0.9832945157850193
12641353333.333334 0.1727960496266257 -0.9849576261105182 1.0795166572774224e-17 9.011950106154784e-17 1.0795166572774224e-17 9.011950106154784e-17 0.1727966868518798 -0.9849575143186879
12641970666.666666 0.16355586360769814 -0.986534074160328 1.1645144181417561e-17 8.999573791743028e-17 1.1645144181417561e-17 8.999573791743028e-17 0.1635565018216799 -0.986533968351668
12642588000.0 0.15430130655463548 -0.9880238391837348 1.2493746990637631e-17 8.98639641892821e-17 1.2493746990637631e-17 8.98639641892821e-17 0.1543019457011738 -0.9880237393669583
12643205333.333334 0.1450331916304506 -0.9894267902807767 1.334089956306923e-17 8.972419480376267e-17 1.334089956306923e-17 8.972419480376267e-17 0.14503383165329758 -0.9894266964640676
12643822666.666666 0.13575233318943378 -0.9907428041795008 1.41865266206353e-17 8.95764453973883e-17 1.41865266206353e-17 8.95764453973883e-17 0.13575297403227027 -0.9907427163705163
12644440000.0 0.12645954670557108 -0.9919717652468029 1.5030553051198426e-17 8.942073231485878e-17 1.5030553051198426e-17 8.942073231485878e-17 0.12646018831201122 -0.9919716834526707
12645057333.333334 0.11715564870097575 -0.9931135654985731 1.5872903915235758e-17 8.925707260731595e-17 1.5872903915235758e-17 8.925707260731595e-17 0.1171562910145724 -0.9931134897258942
12645674666.666666 0.10784145667411604 -0.9941681046091949 1.6713504452467785e-17 8.908548403054327e-17 1.6713504452467785e-17 8.908548403054327e-17 0.10784209963836519 -0.9941680348640386
12646292000.0 0.09851778902775814 -0.9951352899203785 1.7552280088498868e-17 8.890598504309746e-17 1.7552280088498868e-17 8.890598504309746e-17 0.09851843258610411 -0.9951352262082837
12646909333.333334 0.08918546499753673 -0.9960150364492535 1.8389156441385608e-17 8.871859480438918e-17 1.8389156441385608e-17 8.871859480438918e-17 0.08918610909337721 -0.9960149787752288
12647526666.666666 0.07984530457951956 -0.996807266895882 1.9224059328245848e-17 8.852333317268881e-17 1.9224059328245848e-17 8.852333317268881e-17 0.0798459491562106 -0.9968072152644054
12648144000.0 0.07049812845829888 -0.997511911650037 2.005691477180705e-17 8.832022070307901e-17 2.005691477180705e-17 8.832022070307901e-17 0.0704987734591598 -0.9975118660650556
12648761333.333334 0.06114475793496578 -0.9981289087973102 2.0887649006951312e-17 8.810927864534217e-17 2.0887649006951312e-17 8.810927864534217e-17 0.061145403303284086 -0.9981288692622378
12649378666.666666 0.051786014854917406 -0.998658204124555 2.1716188487223848e-17 8.789052894179001e-17 2.1716188487223848e-17 8.789052894179001e-17 0.051786660533953956 -0.9986581706422752
12649996000.0 0.04242272153561622 -0.9990997511246547 2.2542459891344283e-17 8.76639942250257e-17 2.2542459891344283e-17 8.76639942250257e-17 0.04242336746861008 -0.9990997236975185
12650613333.333334 0.033055700694250845 -0.9994535110006106 2.336639012967281e-17 8.742969781565073e-17 2.336639012967281e-17 8.742969781565073e-17 0.033056346824424286 -0.9994534896304368
12651230666.666666 0.023685775375674067 -0.9997194526689416 2.4187906350653203e-17 8.718766371991166e-17 2.4187906350653203e-17 8.718766371991166e-17 0.023686421646237642 -0.9997194373570175
12651848000.0 0.014313768879772742 -0.9998975527624282 2.500693594725423e-17 8.693791662727965e-17 2.500693594725423e-17 8.693791662727965e-17 0.014314415233930126 -0.9998975435095064
12652465333.333334 0.004940504689354557 -0.9999877956321518 2.582340656336452e-17 8.668048190797679e-17 2.582340656336452e-17 8.668048190797679e-17 0.004941151070307681 -0.9999877924384551
12653082666.666666 -0.004433193602094372 -0.9999901733488793 2.663724610015986e-17 8.641538561044262e-17 2.663724610015986e-17 8.641538561044262e-17 -0.00443254725114041 -0.9999901762140969
12653700000.0 -0.013806502363230387 -0.9999046857037571 2.7448382722482055e-17 8.614265445873014e-17 2.7448382722482055e-17 8.614265445873014e-17 -0.013805856099062305 -0.999904694627046
12654317333.333334 -0.02317859799671007 -0.9997313402083294 2.825674486513022e-17 8.586231584986133e-17 2.825674486513022e-17 8.586231584986133e-17 -0.023177951876101423 -0.9997313551883142
12654934666.666666 -0.03254865701186926 -0.9994701520938775 2.906226123918681e-17 8.557439785110412e-17 2.906226123918681e-17 8.557439785110412e-17 -0.03254801109157547 -0.9994701731286522
12655552000.0 -0.04191585609710845 -0.9991211443100794 2.986486083827964e-17 8.527892919720207e-17 2.986486083827964e-17 8.527892919720207e-17 -0.04191521043386175 -0.9991211713972036
12656169333.333334 -0.05127937219186469 -0.9986843475230013 3.066447294481882e-17 8.49759392875452e-17 3.066447294481882e-17 8.49759392875452e-17 -0.05127872684236928 -0.9986843806595058
12656786666.666666 -0.06063838255938553 -0.998159800112395 3.146102713622721e-17 8.466545818327447e-17 3.146102713622721e-17 8.466545818327447e-17 -0.06063773758031238 -0.998159839294777
12657404000.0 -0.06999206485876386 -0.9975475481683277 3.2254453291117707e-17 8.434751660433667e-17 3.2254453291117707e-17 8.434751660433667e-17 -0.06999142030674602 -0.9975475933925556
12658021333.333334 -0.07933959721727923 -0.9968476454871303 3.3044681595455716e-17 8.402214592647641e-17 3.3044681595455716e-17 8.402214592647641e-17 -0.07933895314890661 -0.9968476967486412
12658638666.666666 -0.08868015830249926 -0.9960601535666802 3.3831642548677623e-17 8.368937817817666e-17 3.3831642548677623e-17 8.368937817817666e-17 -0.08867951477431381 -0.9960602108603814
12659256000.0 -0.09801292739461727 -0.9951851416009851 3.4615266969802146e-17 8.334924603753132e-17 3.4615266969802146e-17 8.334924603753132e-17 -0.09801228446310789 -0.995185204921254
12659873333.333334 -0.1073370844584804 -0.9942226864741066 3.539548600348966e-17 8.300178282907073e-17 3.539548600348966e-17 8.300178282907073e-17 -0.10733644218007807 -0.9942227558147915
12660490666.666666 -0.11665181021553003 -0.9931728727534169 3.617223112606792e-17 8.264702252053165e-17 3.617223112606792e-17 8.264702252053165e-17 -0.11665116864660305 -0.9931729481078397
12661108000.0 -0.1259562862161002 -0.992035792682141 3.694543415156035e-17 8.228499971955447e-17 3.694543415156035e-17 8.228499971955447e-17 -0.12595564541294865 -0.9920358740430926
12661725333.333334 -0.13524969491096328 -0.9908115461712822 3.771502723762381e-17 8.191574967035176e-17 3.771502723762381e-17 8.191574967035176e-17 -0.1352490549298148 -0.9908116335310296
12662342666.666666 -0.14453121972336386 -0.9895002407908311 3.848094289151376e-17 8.153930825029296e-17 3.848094289151376e-17 8.153930825029296e-17 -0.14453058062036828 -0.9895003341411134
12662960000.0 -0.15380004512079554 -0.9881019917603027 3.924311397596695e-17 8.115571196645647e-17 3.924311397596695e-17 8.115571196645647e-17 -0.15379940695202007 -0.9881020910923338
12663577333.333334 -0.1630553566865745 -0.9866169219386266 4.000147371508719e-17 8.076499795210951e-17 4.000147371508719e-17 8.076499795210951e-17 -0.1630547195079988 -0.9866170272430956
12664194666.666666 -0.17229634119142748 -0.9850451618133477 4.0755955700171e-17 8.036720396314509e-17 4.0755955700171e-17 8.036720396314509e-17 -0.17229570505893863 -0.9850452730804199
12664812000.0 -0.18152218666497433 -0.9833868494891528 4.150649389550962e-17 7.996236837445919e-17 4.150649389550962e-17 7.996236837445919e-17 -0.1815215516343624 -0.9833869667084716
12665429333.333334 -0.19073208246699036 -0.9816421306757577 4.2253022644155413e-17 7.955053017627416e-17 4.2253022644155413e-17 7.955053017627416e-17 -0.19073144859394286 -0.9816422538364431
12666046666.666666 -0.19992521935866112 -0.9798111586750929 4.2995476673640995e-17 7.913172897041436e-17 4.2995476673640995e-17 7.913172897041436e-17 -0.19992458669875846 -0.9798112877657446
12666664000.0 -0.2091007895738825 -0.9778940943677981 4.373379110168606e-17 7.870600496651487e-17 4.373379110168606e-17 7.870600496651487e-17 -0.20910015818259312 -0.9778942293764954
12667281333.333334 -0.21825798688987394 -0.9758911061991576 4.446790144183404e-17 7.82733989781965e-17 4.446790144183404e-17 7.82733989781965e-17 -0.21825735682254968 -0.975891247113463
12667898666.666666 -0.227396006698325 -0.97380237016424 4.5197743609081856e-17 7.783395241916986e-17 4.5197743609081856e-17 7.783395241916986e-17 -0.2273953780101955 -0.9738025169711956
12668516000.0 -0.2365140460759807 -0.9716280697924518 4.592325392546067e-17 7.738770729929424e-17 4.592325392546067e-17 7.738770729929424e-17 -0.23651341882214946 -0.9716282224785848
12669133333.333334 -0.2456113038551093 -0.9693683961314342 4.6644369125555896e-17 7.693470622059704e-17 4.6644369125555896e-17 7.693470622059704e-17 -0.2456106780905482 -0.9693685546827566
12669750666.666666 -0.25468698069406376 -0.9670235477302386 4.736102636203244e-17 7.64749923732166e-17 4.736102636203244e-17 7.64749923732166e-17 -0.2546863564736087 -0.9670237121322485
12670368000.0 -0.26374027914743364 -0.9645937306218976 4.807316321107819e-17 7.600860953131777e-17 4.807316321107819e-17 7.600860953131777e-17 -0.2637396565257791 -0.9645939008595791
