! Parameters = {f0=12700.012000; bw=77.238000; Q=6100.000000; N=10; m_0_1=1.211707; m_1_1=-0.589145; m_1_2=1.046519; m_2_2=-0.589794; m_2_3=0.683482; m_2_8=-0.002351; m_2_9=0.034353; m_3_3=-0.591731; m_3_4=0.572011; m_3_7=-0.001751; m_3_8=-0.098839; m_3_9=-0.002351; m_4_4=-0.594656; m_4_5=0.408346; m_4_6=0.001766; m_4_7=-0.119388; m_4_8=-0.001751; m_5_5=-0.594274; m_5_6=0.815701; m_5_7=0.001766; m_6_6=-0.594275; m_6_7=0.408688; m_7_7=-0.594642; m_7_8=0.572129; m_8_8=-0.591733; m_8_9=0.683795; m_9_9=-0.589799; m_9_10=1.047597; m_10_10=-0.589155; m_10_11=1.212502}
!
! Created with skrf (http://scikit-rf.org).
# Hz S RI R 50.0 
!freq ReS11 ImS11 ReS21 ImS21 ReS12 ImS12 ReS22 ImS22
12607400000.0 -0.14465082194127007 -0.989482763726359 3.4977537585526595e-17 7.563326527314081e-17 3.4977537585526595e-17 7.563326527314081e-17 -0.14465019015531805 -0.9894828560858797
12608017333.333334 -0.15335220522468937 -0.9881715949937868 3.5641418556475597e-17 7.530463778783572e-17 3.5641418556475597e-17 7.530463778783572e-17 -0.15335157430681487 -0.9881716929043561
12608634666.666666 -0.16204171394851175 -0.986783908938764 3.6302223289547e-17 7.497018880423292e-17 3.6302223289547e-17 7.497018880423292e-17 -0.1620410839474815 -0.9867840123922581
12609252000.0 -0.1707186752560377 -0.9853198130143652 3.6959900788733134e-17 7.462994702275269e-17 3.6959900788733134e-17 7.462994702275269e-17 -0.17071804622054235 -0.9853199220022298
12609869333.333334 -0.17938241726209825 -0.9837794205903304 3.761440032498068e-17 7.428394159007037e-17 3.761440032498068e-17 7.428394159007037e-17 -0.17938178924074927 -0.9837795351035855
12610486666.666666 -0.18803226910505563 -0.9821628509443044 3.826567144008949e-17 7.393220209664139e-17 3.826567144008949e-17 7.393220209664139e-17 -0.18803164214638102 -0.9821629709735419
12611104000.0 -0.1966675609990285 -0.9804702292525419 3.8913663950600906e-17 7.357475857418527e-17 3.8913663950600906e-17 7.357475857418527e-17 -0.19666693515146938 -0.9804703547879288
12611721333.333334 -0.205287624285365 -0.9787016865802924 3.9558327951631837e-17 7.321164149315315e-17 3.9558327951631837e-17 7.321164149315315e-17 -0.20528699959727165 -0.9787018176115693
12612338666.666666 -0.21389179148467083 -0.9768573598716027 4.019961382072471e-17 7.284288176013971e-17 4.019961382072471e-17 7.284288176013971e-17 -0.2138911680042986 -0.9768574963880844
12612956000.0 -0.22247939634860378 -0.9749373919386827 4.0837472221654775e-17 7.246851071527191e-17 4.0837472221654775e-17 7.246851071527191e-17 -0.22247877412411052 -0.9749375339292629
12613573333.333334 -0.23104977391104836 -0.9729419314509435 4.1471854108193114e-17 7.208856012957656e-17 4.1471854108193114e-17 7.208856012957656e-17 -0.23104915299048956 -0.9729420789040922
12614190666.666666 -0.23960226053999437 -0.9708711329233987 4.2102710727894285e-17 7.170306220228644e-17 4.2102710727894285e-17 7.170306220228644e-17 -0.2396016409713199 -0.9708712858271636
12614808000.0 -0.2481361939887575 -0.968725156704735 4.27299936258082e-17 7.131204955814337e-17 4.27299936258082e-17 7.131204955814337e-17 -0.24813557581980783 -0.9687253150467431
12615425333.333334 -0.25665091344728697 -0.96650416896489 4.33536546481997e-17 7.091555524464954e-17 4.33536546481997e-17 7.091555524464954e-17 -0.2566502967257897 -0.9665043327323494
12616042666.666666 -0.26514575959330705 -0.9642083416821945 4.3973645946230705e-17 7.051361272929397e-17 4.3973645946230705e-17 7.051361272929397e-17 -0.26514514436687275 -0.9642085108618932
12616660000.0 -0.2736200746434799 -0.9618378526300243 4.458991997961705e-17 7.010625589674684e-17 4.458991997961705e-17 7.010625589674684e-17 -0.273619460959599 -0.9618380272083331
12617277333.333334 -0.2820732024042029 -0.9593928853630712 4.520242952027106e-17 6.969351904601429e-17 4.520242952027106e-17 6.969351904601429e-17 -0.2820725903102414 -0.9593930653259437
12617894666.666666 -0.290504488322392 -0.9568736292031383 4.581112765588671e-17 6.92754368875821e-17 4.581112765588671e-17 6.92754368875821e-17 -0.29050387786558884 -0.9568738145361146
12618512000.0 -0.2989132795364407 -0.9542802792244053 4.641596779354965e-17 6.885204454049466e-17 4.641596779354965e-17 6.885204454049466e-17 -0.2989126707639028 -0.9542804699126091
12619129333.333334 -0.30729892492638994 -0.951613036238431 4.701690366326171e-17 6.842337752944185e-17 4.701690366326171e-17 6.842337752944185e-17 -0.30729831788508927 -0.9516132322665726
12619746666.666666 -0.31566077516461866 -0.9488721067785225 4.761388932148547e-17 6.798947178178331e-17 4.761388932148547e-17 6.798947178178331e-17 -0.315660169901389 -0.9488723081309022
12620364000.0 -0.32399818276609704 -0.9460577030837527 4.820687915465153e-17 6.755036362454844e-17 4.820687915465153e-17 6.755036362454844e-17 -0.3239975793276295 -0.9460579097442587
12620981333.333334 -0.3323105021383871 -0.9431700430825682 4.879582788260243e-17 6.71060897814326e-17 4.879582788260243e-17 6.71060897814326e-17 -0.33230990057122684 -0.9431702550346788
12621598666.666666 -0.34059708963174085 -0.9402093503758768 4.938069056206394e-17 6.665668736972262e-17 4.938069056206394e-17 6.665668736972262e-17 -0.34059648998228403 -0.9402095676026636
12622216000.0 -0.3488573035889145 -0.9371758542197468 4.996142259005055e-17 6.620219389722062e-17 4.996142259005055e-17 6.620219389722062e-17 -0.34885670590340395 -0.9371760767038739
12622833333.333334 -0.3570905043948796 -0.9340697895076419 5.053797970725591e-17 6.574264725912815e-17 5.053797970725591e-17 6.574264725912815e-17 -0.35708990871940166 -0.9340700172313681
12623450666.666666 -0.36529605452621783 -0.9308913967522838 5.1110318001413074e-17 6.527808573490267e-17 5.1110318001413074e-17 6.527808573490267e-17 -0.3652954609066989 -0.9308916296974648
12624068000.0 -0.37347331860072613 -0.9276409220669385 5.1678393910623866e-17 6.480854798508593e-17 5.1678393910623866e-17 6.480854798508593e-17 -0.37347272708292867 -0.9276411602150262
12624685333.333334 -0.3816216634264823 -0.9243186171464065 5.2242164226670765e-17 6.433407304809519e-17 5.2242164226670765e-17 6.433407304809519e-17 -0.3816210740560013 -0.9243188604784518
12625302666.666666 -0.38974045805071733 -0.9209247392475984 5.2801586098269884e-17 6.385470033700919e-17 5.2801586098269884e-17 6.385470033700919e-17 -0.3897398708729778 -0.9209249877442538
12625920000.0 -0.39782907380904203 -0.9174595511694671 5.335661703434034e-17 6.337046963628875e-17 5.335661703434034e-17 6.337046963628875e-17 -0.39782848886929406 -0.9174598048109861
12626537333.333334 -0.40588688437375725 -0.9139233212328075 5.3907214907200245e-17 6.288142109850524e-17 5.3907214907200245e-17 6.288142109850524e-17 -0.4058863017170736 -0.9139235799990478
12627154666.666666 -0.41391326580251053 -0.9103163232594152 5.4453337955750915e-17 6.238759524102633e-17 5.4453337955750915e-17 6.238759524102633e-17 -0.41391268547378296 -0.9103165871298401
12627772000.0 -0.42190759658674054 -0.906638836550828 5.499494478864859e-17 6.188903294265865e-17 5.499494478864859e-17 6.188903294265865e-17 -0.4219070186306761 -0.9066391055045072
12628389333.333334 -0.4298692576995423 -0.9028911458668117 5.553199438740151e-17 6.138577544030206e-17 5.553199438740151e-17 6.138577544030206e-17 -0.4298686821606593 -0.9028914198824223
12629006666.666666 -0.43779763264383204 -0.8990735414032028 5.606444610948908e-17 6.08778643255301e-17 5.606444610948908e-17 6.08778643255301e-17 -0.4377970595664581 -0.8990738204590335
12629624000.0 -0.4456921074999054 -0.895186318769524 5.659225969140297e-17 6.036534154118617e-17 5.659225969140297e-17 6.036534154118617e-17 -0.44569153692817304 -0.8951866028434752
12630241333.333334 -0.45355207097310457 -0.8912297789660353 5.71153952516955e-17 5.984824937791879e-17 5.71153952516955e-17 5.984824937791879e-17 -0.4535515029509478 -0.8912300680356204
12630858666.666666 -0.46137691444099727 -0.8872042283604963 5.763381329395827e-17 5.932663047072543e-17 5.763381329395827e-17 5.932663047072543e-17 -0.4613763490121485 -0.8872045224028448
12631476000.0 -0.4691660320007616 -0.8831099786643226 5.814747470981599e-17 5.880052779542727e-17 5.814747470981599e-17 5.880052779542727e-17 -0.4691654692087479 -0.8831102776561799
12632093333.333334 -0.476918820515871 -0.8789473469085565 5.865634078183708e-17 5.826998466516715e-17 5.865634078183708e-17 5.826998466516715e-17 -0.4769182604040116 -0.8789476508262889
12632710666.666666 -0.48463467966280094 -0.8747166554193266 5.916037318645494e-17 5.77350447268415e-17 5.916037318645494e-17 5.77350447268415e-17 -0.4846341222742031 -0.8747169642389204
12633328000.0 -0.49231301197773913 -0.870418231792767 5.96595339968379e-17 5.719575195752492e-17 5.96595339968379e-17 5.719575195752492e-17 -0.4923124573552942 -0.87041854548983
12633945333.333334 -0.4999532229025956 -0.866052408869779 6.015378568572056e-17 5.665215066087725e-17 6.015378568572056e-17 5.665215066087725e-17 -0.4999526710889783 -0.8660527274195468
12634562666.666666 -0.5075547208311711 -0.8616195247102002 6.06430911282174e-17 5.610428546351116e-17 6.06430911282174e-17 5.610428546351116e-17 -0.5075541718688331 -0.8616198480875328
12635180000.0 -0.5151169171549139 -0.8571199225666479 6.112741360459496e-17 5.555220131134378e-17 6.112741360459496e-17 5.555220131134378e-17 -0.5151163710860825 -0.8571202507460346
12635797333.333334 -0.5226392263086215 -0.8525539508578713 6.160671680301288e-17 5.499594346592327e-17 6.160671680301288e-17 5.499594346592327e-17 -0.5226386831752953 -0.8525542838134315
12636414666.666666 -0.530121065815537 -0.8479219631419149 6.208096482223159e-17 5.4435557500731565e-17 6.208096482223159e-17 5.4435557500731565e-17 -0.5301205256594844 -0.847922300847402
12637032000.0 -0.5375618563326995 -0.8432243180885988 6.255012217428636e-17 5.387108929746403e-17 6.255012217428636e-17 5.387108929746403e-17 -0.537561319195453 -0.8432246605174001
12637649333.333334 -0.5449610216956783 -0.8384613794518158 6.301415378712791e-17 5.330258504228628e-17 6.301415378712791e-17 5.330258504228628e-17 -0.5449604876185334 -0.8384617265769557
12638266666.666666 -0.5523179889632157 -0.8336335160413529 6.347302500722932e-17 5.2730091222068714e-17 6.347302500722932e-17 5.2730091222068714e-17 -0.5523174579872269 -0.833633867835495
12638884000.0 -0.5596321884615649 -0.8287411016943467 6.392670160215659e-17 5.2153654620599784e-17 6.392670160215659e-17 5.2153654620599784e-17 -0.5596316606275422 -0.8287414581297955
12639501333.333334 -0.5669030538287203 -0.8237845152462567 6.437514976311494e-17 5.1573322314767403e-17 6.437514976311494e-17 5.1573322314767403e-17 -0.5669025291772267 -0.8237848762949604
12640118666.666666 -0.5741300220579927 -0.8187641405017251 6.481833610743498e-17 5.098914167074906e-17 6.481833610743498e-17 5.098914167074906e-17 -0.5741295006293408 -0.818764506135277
12640736000.0 -0.5813125335420699 -0.8136803662045319 6.52562276810708e-17 5.0401160340121956e-17 6.52562276810708e-17 5.0401160340121956e-17 -0.5813120153763183 -0.8136807363941728
12641353333.333334 -0.5884500321157666 -0.8085335860078998 6.568879196099884e-17 4.9809426256035465e-17 6.568879196099884e-17 4.9809426256035465e-17 -0.5884495172527185 -0.808533960724522
12641970666.666666 -0.5955419650995809 -0.8033241984436728 6.611599685764604e-17 4.921398762927927e-17 6.611599685764604e-17 4.921398762927927e-17 -0.5955414535787794 -0.80332457765782
12642588000.0 -0.6025877833422333 -0.7980526068916346 6.653781071724531e-17 4.861489294437921e-17 6.653781071724531e-17 4.861489294437921e-17 -0.6025872752029582 -0.7980529905735045
12643205333.333334 -0.6095869412633029 -0.7927192195481894 6.695420232415806e-17 4.8012190955671876e-17 6.695420232415806e-17 4.8012190955671876e-17 -0.6095864365445695 -0.7927196076676379
12643822666.666666 -0.61653889689543 -0.7873244493947885 6.736514090317831e-17 4.7405930683334053e-17 6.736514090317831e-17 4.7405930683334053e-17 -0.6165383956359836 -0.7873248419213302
12644440000.0 -0.6234431119262567 -0.7818687141659688 6.777059612178288e-17 4.679616140942021e-17 6.777059612178288e-17 4.679616140942021e-17 -0.6234426141645723 -0.7818691110687802
12645057333.333334 -0.6302990517401144 -0.7763524363170073 6.817053809235323e-17 4.618293267386881e-17 6.817053809235323e-17 4.618293267386881e-17 -0.6302985575143916 -0.7763528375649292
12645674666.666666 -0.6371061854594193 -0.770776042991211 6.856493737436718e-17 4.556629427048251e-17 6.856493737436718e-17 4.556629427048251e-17 -0.6371056948075802 -0.7707764485527501
12646292000.0 -0.6438639859859117 -0.76513996598673 6.895376497654939e-17 4.4946296242894924e-17 6.895376497654939e-17 4.4946296242894924e-17 -0.6438634989455988 -0.7651403758300636
12646909333.333334 -0.6505719300412733 -0.7594446417232876 6.933699235897433e-17 4.4322988880539984e-17 6.933699235897433e-17 4.4322988880539984e-17 -0.6505714466498451 -0.7594450558162636
12647526666.666666 -0.657229498207735 -0.7536905112083134 6.971459143515436e-17 4.369642271456703e-17 6.971459143515436e-17 4.369642271456703e-17 -0.657229018502264 -0.7536909295184537
12648144000.0 -0.6638361749683601 -0.7478780200027384 7.0086534574079e-17 4.306664851375868e-17 7.0086534574079e-17 4.306664851375868e-17 -0.66383569898563 -0.7478784424972418
12648761333.333334 -0.6703914487468561 -0.7420076181865871 7.045279460221294e-17 4.243371728043946e-17 7.045279460221294e-17 4.243371728043946e-17 -0.670390976523358 -0.7420080448323313
12649378666.666666 -0.6768948119471867 -0.7360797603241267 7.081334480546742e-17 4.1797680246349417e-17 7.081334480546742e-17 4.1797680246349417e-17 -0.6768943435191176 -0.7360801910876713
12649996000.0 -0.6833457609929849 -0.7300949054285745 7.116815893112936e-17 4.115858886851162e-17 7.116815893112936e-17 4.115858886851162e-17 -0.6833452963962448 -0.7300953402761644
12650613333.333334 -0.68974379636646 -0.7240535169266311 7.151721118975483e-17 4.0516494825079036e-17 7.151721118975483e-17 4.0516494825079036e-17 -0.6897433356366487 -0.7240539558241977
12651230666.666666 -0.696088422647079 -0.7179560626225966 7.186047625701917e-17 3.987145001117815e-17 7.186047625701917e-17 3.987145001117815e-17 -0.6960879658194926 -0.7179565055357605
12651848000.0 -0.7023791485500088 -0.7118030146620661 7.219792927554477e-17 3.922350653470817e-17 7.219792927554477e-17 3.922350653470817e-17 -0.7023786956596385 -0.7118034615561412
12652465333.333334 -0.7086154869640553 -0.7055948494954701 7.252954585667599e-17 3.857271671215397e-17 7.252954585667599e-17 3.857271671215397e-17 -0.7086150380455842 -0.7055953003354652
12653082666.666666 -0.7147969549893661 -0.6993320478412032 7.28553020822153e-17 3.7919133064386224e-17 7.28553020822153e-17 3.7919133064386224e-17 -0.7147965100771658 -0.6993325025918248
12653700000.0 -0.7209230739750196 -0.6930150946481972 7.31751745061434e-17 3.7262808312405717e-17 7.31751745061434e-17 3.7262808312405717e-17 -0.7209226331031484 -0.6930155532738523
12654317333.333334 -0.7269933695557906 -0.686644479058674 7.348914015627005e-17 3.660379537313364e-17 7.348914015627005e-17 3.660379537313364e-17 -0.726992932757991 -0.686644941523474
12654934666.666666 -0.7330073716891617 -0.6802206943699873 7.379717653587268e-17 3.594214735513826e-17 7.379717653587268e-17 3.594214735513826e-17 -0.733006938998857 -0.680221160637749
12655552000.0 -0.7389646146915961 -0.6737442379965417 7.409926162529071e-17 3.527791755435811e-17 7.409926162529071e-17 3.527791755435811e-17 -0.7389641861418887 -0.6737447080307909
12656169333.333334 -0.7448646372745059 -0.6672156114313857 7.439537388346334e-17 3.461115944985256e-17 7.439537388346334e-17 3.461115944985256e-17 -0.7448642128981743 -0.6672160851953609
12656786666.666666 -0.7507069825801436 -0.6606353202071907 7.468549224945728e-17 3.3941926699478086e-17 7.468549224945728e-17 3.3941926699478086e-17 -0.7507065624096391 -0.660635797663844
12657404000.0 -0.7564911982168768 -0.6540038738572073 7.496959614393639e-17 3.3270273135594435e-17 7.496959614393639e-17 3.3270273135594435e-17 -0.7564907822843235 -0.6540043549692098
12658021333.333334 -0.7622168362942469 -0.6473217858757949 7.52476654705999e-17 3.259625276074405e-17 7.52476654705999e-17 3.259625276074405e-17 -0.7622164246314369 -0.647322270605538
12658638666.666666 -0.7678834534576257 -0.640589573678679 7.55196806175797e-17 3.191991974332387e-17 7.55196806175797e-17 3.191991974332387e-17 -0.767883046096016 -0.6405900619882762
12659256000.0 -0.7734906109226176 -0.6338077585627959 7.578562245880309e-17 3.12413284132348e-17 7.578562245880309e-17 3.12413284132348e-17 -0.7734902078933324 -0.6338082504140902
12659873333.333334 -0.7790378745089515 -0.6269768656660429 7.604547235530928e-17 3.056053325753986e-17 7.604547235530928e-17 3.056053325753986e-17 -0.7790374758427732 -0.626977361020604
12660490666.666666 -0.7845248146740773 -0.6200974239266315 7.629921215653035e-17 2.9877588916102904e-17 7.629921215653035e-17 2.9877588916102904e-17 -0.7845244204014492 -0.6200979227457628
12661108000.0 -0.7899510065466091 -0.6131699660419128 7.654682420154123e-17 2.919255017719511e-17 7.654682420154123e-17 2.919255017719511e-17 -0.7899506166976307 -0.6131704682866529
12661725333.333334 -0.7953160299589547 -0.6061950284274586 7.678829132025478e-17 2.8505471973132875e-17 7.678829132025478e-17 2.8505471973132875e-17 -0.795315644563381 -0.6061955340585856
12662342666.666666 -0.8006194694801191 -0.5991731511751948 7.70235968345904e-17 2.7816409375873485e-17 7.70235968345904e-17 2.7816409375873485e-17 -0.8006190885673565 -0.5991736601532273
12662960000.0 -0.8058609144476765 -0.5921048780118223 7.725272455959805e-17 2.7125417592614346e-17 7.725272455959805e-17 2.7125417592614346e-17 -0.8058605380467819 -0.5921053902970244
12663577333.333334 -0.8110399589996573 -0.584990756256605 7.747565880454359e-17 2.6432551961381214e-17 7.747565880454359e-17 2.6432551961381214e-17 -0.8110395871393351 -0.5849912718089876
12664194666.666666 -0.816156202105959 -0.5778313367790099 7.76923843739547e-17 2.573786794661006e-17 7.76923843739547e-17 2.573786794661006e-17 -0.8161558348145594 -0.5778318555583359
12664812000.0 -0.8212092475993977 -0.5706271739560529 7.790288656863018e-17 2.5041421134709522e-17 7.790288656863018e-17 2.5041421134709522e-17 -0.821208884904915 -0.5706276959218392
12665429333.333334 -0.8261987042063864 -0.5633788256293712 7.81071511866031e-17 2.434326722963533e-17 7.81071511866031e-17 2.434326722963533e-17 -0.8261983461364546 -0.5633793507408908
12666046666.666666 -0.8311241855772136 -0.5560868530620497 7.830516452406838e-17 2.364346204844862e-17 7.830516452406838e-17 2.364346204844862e-17 -0.8311238321591083 -0.5560873812783378
12666664000.0 -0.8359853103160435 -0.5487518208950458 7.849691337627656e-17 2.294206151684219e-17 7.849691337627656e-17 2.294206151684219e-17 -0.8359849615766757 -0.5487523521748999
12667281333.333334 -0.8407817020102861 -0.541374297103701 7.868238503837244e-17 2.223912166471589e-17 7.868238503837244e-17 2.223912166471589e-17 -0.8407813579762023 -0.5413748314056855
12667898666.666666 -0.8455129892598893 -0.5339548529535493 7.88615673062123e-17 2.1534698621680788e-17 7.88615673062123e-17 2.1534698621680788e-17 -0.845512649957269 -0.5339553902359989
12668516000.0 -0.850178805706094 -0.5264940629560805 7.903444847712791e-17 2.0828848612601577e-17 7.903444847712791e-17 2.0828848612601577e-17 -0.8501784711607474 -0.5264946031771028
12669133333.333334 -0.8547787900596648 -0.5189925048244693 7.920101735065267e-17 2.012162795313149e-17 7.920101735065267e-17 2.012162795313149e-17 -0.8547784602970329 -0.5189930479419496
12669750666.666666 -0.859312586129006 -0.5114507594286275 7.936126322921543e-17 1.941309304521007e-17 7.936126322921543e-17 1.941309304521007e-17 -0.8593122611741564 -0.5114513054002303
12670368000.0 -0.8637798428477391 -0.5038694107502225 7.951517591878592e-17 1.8703300372587324e-17 7.951517591878592e-17 1.8703300372587324e-17 -0.8637795227253633 -0.5038699595333948
12670985333.333334 -0.8681802143017524 -0.4962490458376757 7.966274572948435e-17 1.7992306496329825e-17 7.966274572948435e-17 1.7992306496329825e-17 -0.868179899036167 -0.49624959738965196
