! Parameters = {f0=12700.012000; bw=77.238000; Q=6100.000000; N=10; m_0_1=1.273368; m_1_1=0.335780; m_1_2=1.108180; m_2_2=0.335131; m_2_3=0.745143; m_2_8=0.000732; m_2_9=0.037436; m_3_3=0.333194; m_3_4=0.633672; m_3_7=0.001332; m_3_8=-0.095756; m_3_9=0.000732; m_4_4=0.330269; m_4_5=0.470007; m_4_6=0.004849; m_4_7=-0.116305; m_4_8=0.001332; m_5_5=0.330651; m_5_6=0.877362; m_5_7=0.004849; m_6_6=0.330650; m_6_7=0.470349; m_7_7=0.330283; m_7_8=0.633790; m_8_8=0.333192; m_8_9=0.745456; m_9_9=0.335126; m_9_10=1.109258; m_10_10=0.335770; m_10_11=1.274163}
!
! Created with skrf (http://scikit-rf.org).
# Hz S RI R 50.0 
!freq ReS11 ImS11 ReS21 ImS21 ReS12 ImS12 ReS22 ImS22
12607400000.0 0.29730481709342205 -0.9547826170039279 -1.5573479181783574e-18 1.1235943893755404e-16 -1.5573479181783574e-18 1.1235943893755404e-16 0.2973054576379273 -0.954782417547854
12608017333.333334 0.28714603222113855 -0.9578868180424444 -3.537064675620624e-19 1.123476690526866e-16 -3.537064675620624e-19 1.123476690526866e-16 0.2871466748167289 -0.9578866254111277
12608634666.666666 0.2769548466619361 -0.9608829340300956 8.495042079580796e-19 1.1232301353638344e-16 8.495042079580796e-19 1.1232301353638344e-16 0.2769554912359058 -0.9608827482446025
12609252000.0 0.26673241035832435 -0.963770626894315 2.052146249433242e-18 1.1228548026336688e-16 2.052146249433242e-18 1.1228548026336688e-16 0.26673305683775134 -0.9637704479749375
12609869333.333334 0.2564798767791047 -0.9665495707966553 3.254081917127278e-18 1.122350785823146e-16 3.254081917127278e-18 1.122350785823146e-16 0.25648052509085917 -0.9665493987629081
12610486666.666666 0.2461984027892731 -0.9692194521695449 4.455173606259356e-18 1.1217181931421075e-16 4.455173606259356e-18 1.1217181931421075e-16 0.246199052860026 -0.9692192870401661
12611104000.0 0.23588914851909787 -0.9717799697517732 5.655283862747234e-18 1.1209571475052715e-16 5.655283862747234e-18 1.1209571475052715e-16 0.23588980027532838 -0.9717798115447183
12611721333.333334 0.22555327723376328 -0.9742308346223353 6.854275398876147e-18 1.1200677865124007e-16 6.854275398876147e-18 1.1200677865124007e-16 0.2255539306017678 -0.9742306833547769
12612338666.666666 0.2151919552017536 -0.9765717702331296 8.052011109018928e-18 1.1190502624267514e-16 8.052011109018928e-18 1.1190502624267514e-16 0.21519261010765398 -0.9765716259214569
12612956000.0 0.20480635156317056 -0.9788025124401784 9.248354085268529e-18 1.1179047421518748e-16 9.248354085268529e-18 1.1179047421518748e-16 0.2048070079329221 -0.9788023750999925
12613573333.333334 0.19439763819822675 -0.9809228095333365 1.0443167633041915e-17 1.1166314072067712e-16 1.0443167633041915e-17 1.1166314072067712e-16 0.19439829595762712 -0.9809226791794516
12614190666.666666 0.1839669895946263 -0.9829324222647825 1.1636315286713617e-17 1.1152304536993078e-16 1.1636315286713617e-17 1.1152304536993078e-16 0.18396764866932364 -0.9829322989112236
12614808000.0 0.17351558271523387 -0.9848311238759747 1.2827660825140787e-17 1.1137020922980555e-16 1.2827660825140787e-17 1.1137020922980555e-16 0.17351624303073493 -0.9848310075359739
12615425333.333334 0.16304459686512957 -0.9866187001232598 1.4017068287201723e-17 1.1120465482024156e-16 1.4017068287201723e-17 1.1120465482024156e-16 0.16304525834680858 -0.9866185908092576
12616042666.666666 0.15255521355870752 -0.9882949493020183 1.520440198729528e-17 1.1102640611110958e-16 1.520440198729528e-17 1.1102640611110958e-16 0.15255587613181462 -0.9882948470256623
12616660000.0 0.14204861638627453 -0.9898596822694455 1.6389526530774216e-17 1.108354885188971e-16 1.6389526530774216e-17 1.108354885188971e-16 0.1420492799759436 -0.9898595870415857
12617277333.333334 0.1315259908803834 -0.9913127224659009 1.7572306829370657e-17 1.1063192890322549e-16 1.7572306829370657e-17 1.1063192890322549e-16 0.1315266554116412 -0.9913126342965922
12617894666.666666 0.12098852438237125 -0.9926539059347922 1.8752608116561624e-17 1.1041575556320656e-16 1.8752608116561624e-17 1.1041575556320656e-16 0.12098918978014575 -0.9926538248332929
12618512000.0 0.11043740590796125 -0.9938830813411317 1.9930295962913382e-17 1.1018699823363042e-16 1.9930295962913382e-17 1.1018699823363042e-16 0.11043807209708988 -0.9938830073159017
12619129333.333334 0.09987382601354837 -0.9950001099885559 2.110523629133124e-17 1.0994568808100049e-16 2.110523629133124e-17 1.0994568808100049e-16 0.09987449291878647 -0.995000043047254
12619746666.666666 0.08929897666146552 -0.9960048658350201 2.227729539233807e-17 1.0969185769939166e-16 2.227729539233807e-17 1.0969185769939166e-16 0.08929964420749532 -0.9960048059845078
12620364000.0 0.07871405108565586 -0.9968972355070043 2.344633993924495e-17 1.0942554110615643e-16 2.344633993924495e-17 1.0942554110615643e-16 0.07871471919709437 -0.9968971827533395
12620981333.333334 0.06812024365720121 -0.9976771183122858 2.4612237003272637e-17 1.0914677373747207e-16 2.4612237003272637e-17 1.0914677373747207e-16 0.06812091225860913 -0.9976770726607267
12621598666.666666 0.057518749749185166 -0.9983444262513376 2.577485406868015e-17 1.0885559244371273e-16 2.577485406868015e-17 1.0885559244371273e-16 0.05751941876507535 -0.9983443877063416
12622216000.0 0.046910765602122505 -0.9988990840272338 2.693405904776564e-17 1.0855203548467753e-16 2.693405904776564e-17 1.0855203548467753e-16 0.04691143495696834 -0.9988990525924538
12622833333.333334 0.0362974881888084 -0.9993410290541497 2.808972029586187e-17 1.0823614252464782e-16 2.808972029586187e-17 1.0823614252464782e-16 0.036298157807052464 -0.9993410047324374
12623450666.666666 0.025680115079426597 -0.9996702114644264 2.924170662625681e-17 1.0790795462729105e-16 2.924170662625681e-17 1.0790795462729105e-16 0.02568078488548914 -0.9996701942578304
12624068000.0 0.015059844306163247 -0.9998865941142014 3.038988732505531e-17 1.0756751425040372e-16 3.038988732505531e-17 1.0756751425040372e-16 0.015060514224450698 -0.9998865840239677
12624685333.333334 0.004437874228166611 -0.9999901525875935 3.1534132165996576e-17 1.0721486524049432e-16 3.1534132165996576e-17 1.0721486524049432e-16 0.00443854418308014 -0.999990149614164
12625302666.666666 -0.006184596603473133 -0.9999808751994588 3.2674311425176076e-17 1.0685005282721805e-16 3.2674311425176076e-17 1.0685005282721805e-16 -0.006183926687529096 -0.9999808793424734
12625920000.0 -0.016806369581476355 -0.9998587629967115 3.3810295895752843e-17 1.064731236176406e-16 3.3810295895752843e-17 1.064731236176406e-16 -0.016805699780085597 -0.9998587742550072
12626537333.333334 -0.027426246177052777 -0.9996238297582043 3.4941956902534185e-17 1.0608412559036417e-16 3.4941956902534185e-17 1.0608412559036417e-16 -0.027425576565778747 -0.9996238481298142
12627154666.666666 -0.03804302807539564 -0.9992761019931766 3.6069166316536075e-17 1.0568310808948543e-16 3.6069166316536075e-17 1.0568310808948543e-16 -0.03804235872977298 -0.9992761274753332
12627772000.0 -0.048655517311151565 -0.998815618938253 3.719179656949309e-17 1.0527012181839224e-16 3.719179656949309e-17 1.0527012181839224e-16 -0.0486548483066776 -0.9988156515273866
12628389333.333334 -0.05926251640302736 -0.9982424325530365 3.8309720668205476e-17 1.0484521883343956e-16 3.8309720668205476e-17 1.0484521883343956e-16 -0.05926184781515338 -0.9982424722447731
12629006666.666666 -0.06986282848944947 -0.9975566075142192 3.942281220894635e-17 1.0440845253742632e-16 3.942281220894635e-17 1.0440845253742632e-16 -0.06986216039357251 -0.9975566543033864
12629624000.0 -0.08045525746324536 -0.996758221208306 4.0530945391673105e-17 1.0395987767296377e-16 4.0530945391673105e-17 1.0395987767296377e-16 -0.0804545899346996 -0.9967582750889318
12630241333.333334 -0.09103860810689224 -0.995847363722866 4.163399503424486e-17 1.0349955031566474e-16 4.163399503424486e-17 1.0349955031566474e-16 -0.09103794122094049 -0.9958474246881779
12630858666.666666 -0.10161168622704184 -0.9948241378363907 4.273183658652757e-17 1.0302752786719498e-16 4.273183658652757e-17 1.0302752786719498e-16 -0.10161102005886702 -0.9948242058788176
12631476000.0 -0.11217329878966611 -0.9936886590066664 4.382434614444459e-17 1.0254386904816567e-16 4.382434614444459e-17 1.0254386904816567e-16 -0.11217263341436264 -0.9936887341178374
12632093333.333334 -0.12272225405439191 -0.9924410553577644 4.4911400463907004e-17 1.0204863389089518e-16 4.4911400463907004e-17 1.0204863389089518e-16 -0.12272158954695753 -0.9924411375285143
12632710666.666666 -0.13325736170897412 -0.9910814676655937 4.599287697470068e-17 1.0154188373200716e-16 4.599287697470068e-17 1.0154188373200716e-16 -0.1332566981443015 -0.9910815568859617
12633328000.0 -0.1437774330038611 -0.9896100493419838 4.7068653794305006e-17 1.010236812048748e-16 4.7068653794305006e-17 1.010236812048748e-16 -0.14377677045672904 -0.9896101456012142
12633945333.333334 -0.1542812808860186 -0.9880269664174113 4.813860974155492e-17 1.0049409023195218e-16 4.813860974155492e-17 1.0049409023195218e-16 -0.15428061943108393 -0.9880270697039554
12634562666.666666 -0.16476772013312743 -0.9863323975222316 4.9202624350301196e-17 9.995317601692274e-17 4.9202624350301196e-17 9.995317601692274e-17 -0.16476705984491627 -0.9863325078237486
12635180000.0 -0.17523556748712305 -0.984526533866553 5.0260577882922904e-17 9.94010050367322e-17 5.0260577882922904e-17 9.94010050367322e-17 -0.17523490844002262 -0.9845266511699116
12635797333.333334 -0.1856836417878232 -0.982609579218641 5.131235134378785e-17 9.883764503345983e-17 5.131235134378785e-17 9.883764503345983e-17 -0.18568298405607342 -0.982609703509921
12636414666.666666 -0.19611076410617853 -0.980581749881933 5.23578264925924e-17 9.826316500606522e-17 5.23578264925924e-17 9.826316500606522e-17 -0.1961101077638639 -0.980581881146429
12637032000.0 -0.20651575787729948 -0.9784432746706304 5.3396885857653437e-17 9.767763520196886e-17 5.3396885857653437e-17 9.767763520196886e-17 -0.20651510299834025 -0.97844341289285
12637649333.333334 -0.2168974490332162 -0.9761943948838804 5.4429412749051756e-17 9.708112710852392e-17 5.4429412749051756e-17 9.708112710852392e-17 -0.2168967956913605 -0.9761945400475481
12638266666.666666 -0.22725466613532921 -0.973835364278554 5.545529127171925e-17 9.647371344432711e-17 5.545529127171925e-17 9.647371344432711e-17 -0.227254014404144 -0.9738355163666114
12638884000.0 -0.2375862405067009 -0.9713664490405849 5.64744063384275e-17 9.585546815039441e-17 5.64744063384275e-17 9.585546815039441e-17 -0.23758559045956498 -0.9713666080351968
12639501333.333334 -0.24789100636378833 -0.9687879277549708 5.748664368265604e-17 9.522646638121115e-17 5.748664368265604e-17 9.522646638121115e-17 -0.24789035807388293 -0.9687880936375228
12640118666.666666 -0.25816780094790415 -0.9661000913743601 5.849188987136794e-17 9.458678449564528e-17 5.849188987136794e-17 9.458678449564528e-17 -0.2581671544882049 -0.9661002641254616
12640736000.0 -0.26841546465694044 -0.9633032431860813 5.949003231774315e-17 9.393650004768774e-17 5.949003231774315e-17 9.393650004768774e-17 -0.2684148201002098 -0.9633034227855704
12641353333.333334 -0.27863284117539117 -0.960397698778143 6.048095929367914e-17 9.327569177714291e-17 6.048095929367914e-17 9.327569177714291e-17 -0.2786321985941695 -0.9603978852050865
12641970666.666666 -0.2888187776054865 -0.9573837860034479 6.146455994233202e-17 9.260443960009454e-17 6.146455994233202e-17 9.260443960009454e-17 -0.28881813707208437 -0.9573839792361444
12642588000.0 -0.2989721245970892 -0.9542618449428472 6.244072429047056e-17 9.192282459929394e-17 6.244072429047056e-17 9.192282459929394e-17 -0.29897148618357866 -0.9542620449588288
12643205333.333334 -0.30909173647724747 -0.9510322278668069 6.340934326072664e-17 9.123092901441599e-17 6.340934326072664e-17 9.123092901441599e-17 -0.3090911002554551 -0.9510324346428441
12643822666.666666 -0.31917647137966143 -0.9476952991956067 6.437030868378562e-17 9.052883623215536e-17 6.437030868378562e-17 9.052883623215536e-17 -0.3191758374211588 -0.947695512707708
12644440000.0 -0.32922519137347067 -0.9442514354582289 6.532351331040486e-17 8.981663077623681e-17 6.532351331040486e-17 8.981663077623681e-17 -0.329224559749567 -0.9442516556816448
12645057333.333334 -0.3392367625915214 -0.9407010252499183 6.626885082336698e-17 8.90943982972699e-17 6.626885082336698e-17 8.90943982972699e-17 -0.33923613337325603 -0.9407012521591462
12645674666.666666 -0.34921005535841804 -0.9370444691883062 6.720621584930283e-17 8.836222556249015e-17 6.720621584930283e-17 8.836222556249015e-17 -0.3492094286165517 -0.937044702757091
12646292000.0 -0.3591439443181237 -0.9332821798681492 6.813550397043445e-17 8.762020044535153e-17 6.813550397043445e-17 8.762020044535153e-17 -0.3591433201231308 -0.9332824200694866
12646909333.333334 -0.3690373085607026 -0.929414581814863 6.905661173612898e-17 8.6868411915054e-17 6.905661173612898e-17 8.6868411915054e-17 -0.36903668698276354 -0.9294148286210037
12647526666.666666 -0.37888903174890665 -0.9254421114365822 6.996943667441681e-17 8.61069500258878e-17 6.996943667441681e-17 8.61069500258878e-17 -0.3788884128578994 -0.9254423648190335
12648144000.0 -0.3886980022441927 -0.9213652169748956 7.087387730336566e-17 8.533590590647822e-17 7.087387730336566e-17 8.533590590647822e-17 -0.38869738610968546 -0.9213654769044265
12648761333.333334 -0.39846311323212896 -0.9171843584542765 7.176983314230715e-17 8.455537174893577e-17 7.176983314230715e-17 8.455537174893577e-17 -0.39846249992337185 -0.9171846249009193
12649378666.666666 -0.408183262847128 -0.9129000076302429 7.265720472297655e-17 8.376544079786277e-17 7.265720472297655e-17 8.376544079786277e-17 -0.40818265243304547 -0.9129002805632973
12649996000.0 -0.4178573542970126 -0.9085126479360229 7.353589360054318e-17 8.296620733923271e-17 7.353589360054318e-17 8.296620733923271e-17 -0.4178567468461967 -0.908512927324062
12650613333.333334 -0.4274842959866465 -0.9040227744280696 7.44058023644791e-17 8.215776668919e-17 7.44058023644791e-17 8.215776668919e-17 -0.4274836915673474 -0.9040230602389389
12651230666.666666 -0.4370630016411042 -0.8994308937301925 7.52668346493241e-17 8.134021518271944e-17 7.52668346493241e-17 8.134021518271944e-17 -0.4370624003212231 -0.899431185931016
12651848000.0 -0.4465923904283456 -0.8947375239763449 7.611889514535857e-17 8.051365016217301e-17 7.611889514535857e-17 8.051365016217301e-17 -0.44659179227542845 -0.8947378225335307
12652465333.333334 -0.4560713870810475 -0.8899431947522233 7.696188960908698e-17 7.9678169965746e-17 7.696188960908698e-17 7.9678169965746e-17 -0.4560707921622755 -0.8899434996314641
12653082666.666666 -0.4654989220178822 -0.8850484470355354 7.779572487363667e-17 7.883387391580509e-17 7.779572487363667e-17 7.883387391580509e-17 -0.46549833040006555 -0.8850487582018148
12653700000.0 -0.4748739314645606 -0.8800538331347781 7.86203088590506e-17 7.798086230708496e-17 7.86203088590506e-17 7.798086230708496e-17 -0.47487334321413 -0.8800541505523728
12654317333.333334 -0.48419535757335863 -0.8749599166271733 7.943555058237827e-17 7.711923639485185e-17 7.943555058237827e-17 7.711923639485185e-17 -0.48419477275635947 -0.8749602402596598
12654934666.666666 -0.4934621485428134 -0.8697672722949136 8.024136016771046e-17 7.624909838288808e-17 8.024136016771046e-17 7.624909838288808e-17 -0.49346156722489537 -0.869767602105168
12655552000.0 -0.5026732587364727 -0.8644764860602511 8.103764885605997e-17 7.537055141139419e-17 8.103764885605997e-17 7.537055141139419e-17 -0.502672680982886 -0.8644768220104585
12656169333.333334 -0.5118276488005139 -0.859088154919599 8.182432901507244e-17 7.448369954483006e-17 8.182432901507244e-17 7.448369954483006e-17 -0.5118270746760998 -0.859088496971255
12656786666.666666 -0.520924285781343 -0.8536028868759877 8.260131414866439e-17 7.358864775959075e-17 8.260131414866439e-17 7.358864775959075e-17 -0.5209237153505266 -0.853603234989903
12657404000.0 -0.5299621432420981 -0.8480213008704826 8.336851890649404e-17 7.268550193161625e-17 8.336851890649404e-17 7.268550193161625e-17 -0.5299615765688813 -0.8480216550067868
12658021333.333334 -0.538940201378372 -0.8423440267124024 8.412585909329453e-17 7.177436882390872e-17 8.412585909329453e-17 7.177436882390872e-17 -0.5389396385263268 -0.8423443868305502
12658638666.666666 -0.5478574471332375 -0.8365717050082889 8.487325167807428e-17 7.08553560739478e-17 8.487325167807428e-17 7.08553560739478e-17 -0.5478568881654993 -0.8365720710670654
12659256000.0 -0.5567128743118706 -0.8307049870894241 8.561061480321102e-17 6.992857218097445e-17 8.561061480321102e-17 6.992857218097445e-17 -0.5567123192911291 -0.8307053590469461
12659873333.333334 -0.5655054836947226 -0.8247445349385595 8.633786779335106e-17 6.899412649324859e-17 8.633786779335106e-17 6.899412649324859e-17 -0.5655049326832177 -0.8247449127522846
12660490666.666666 -0.5742342831503496 -0.8186910211151867 8.705493116420636e-17 6.80521291951711e-17 8.705493116420636e-17 6.80521291951711e-17 -0.5742337362098611 -0.8186914047419136
12661108000.0 -0.5828982877476595 -0.8125451286794297 8.776172663122992e-17 6.71026912942896e-17 8.776172663122992e-17 6.71026912942896e-17 -0.582897744939502 -0.8125455180753057
12661725333.333334 -0.5914965198665831 -0.8063075511152955 8.845817711808696e-17 6.614592460829704e-17 8.845817711808696e-17 6.614592460829704e-17 -0.5914959812516002 -0.8063079462358228
12662342666.666666 -0.6000280093087371 -0.7999789922521827 8.914420676504952e-17 6.518194175185769e-17 8.914420676504952e-17 6.518194175185769e-17 -0.6000274749472926 -0.7999793930522211
12662960000.0 -0.6084917934067349 -0.7935601661855765 8.981974093721756e-17 6.421085612338708e-17 8.981974093721756e-17 6.421085612338708e-17 -0.6084912633587066 -0.7935605726193491
12663577333.333334 -0.616886917132924 -0.7870517971963868 9.048470623259072e-17 6.323278189175428e-17 9.048470623259072e-17 6.323278189175428e-17 -0.6168863914576974 -0.7870522092174856
12664194666.666666 -0.6252124332070129 -0.7804546196693251 9.113903049001128e-17 6.224783398288171e-17 9.113903049001128e-17 6.224783398288171e-17 -0.6252119119634748 -0.7804550372307171
12664812000.0 -0.6334674022030301 -0.7737693780099909 9.178264279696063e-17 6.125612806626239e-17 9.178264279696063e-17 6.125612806626239e-17 -0.6334668854495613 -0.7737698010640222
12665429333.333334 -0.6416508926554104 -0.7669968265608005 9.241547349719542e-17 6.025778054141816e-17 9.241547349719542e-17 6.025778054141816e-17 -0.6416503804498791 -0.7669972550592012
12666046666.666666 -0.6497619811638593 -0.7601377295160668 9.303745419824317e-17 5.925290852427223e-17 9.303745419824317e-17 5.925290852427223e-17 -0.6497614735636148 -0.7601381634099582
12666664000.0 -0.657799752497872 -0.7531928608354985 9.364851777877555e-17 5.824162983340177e-17 9.364851777877555e-17 5.824162983340177e-17 -0.6577992495597391 -0.753193300075398
12667281333.333334 -0.6657632996996614 -0.7461630041571636 9.424859839577746e-17 5.722406297630635e-17 9.424859839577746e-17 5.722406297630635e-17 -0.6657628014799325 -0.7461634486929897
12667898666.666666 -0.6736517241867964 -0.7390489527088051 9.483763149162048e-17 5.620032713551419e-17 9.483763149162048e-17 5.620032713551419e-17 -0.6736512307412266 -0.7390494024898843
12668516000.0 -0.6814641358534638 -0.7318515092184458 9.541555380097e-17 5.517054215464332e-17 9.541555380097e-17 5.517054215464332e-17 -0.6814636472372642 -0.7318519641935175
12669133333.333334 -0.6891996531707836 -0.7245714858239293 9.598230335751282e-17 5.413482852444099e-17 9.598230335751282e-17 5.413482852444099e-17 -0.689199169438615 -0.724571945941152
12669750666.666666 -0.696857403286548 -0.7172097039810288 9.653781950057761e-17 5.30933073686787e-17 9.653781950057761e-17 5.30933073686787e-17 -0.6968569244925145 -0.7172101691879853
12670368000.0 -0.7044365221235016 -0.7097669943709486 9.708204288158037e-17 5.204610043001754e-17 9.708204288158037e-17 5.204610043001754e-17 -0.7044360483211453 -0.7097674646146532
