! Parameters = {f0=12700.012000; bw=77.238000; Q=6100.000000; N=10; m_0_1=1.198293; m_1_1=-0.790346; m_1_2=1.033105; m_2_2=-0.790995; m_2_3=0.670068; m_2_8=-0.003022; m_2_9=0.033682; m_3_3=-0.792932; m_3_4=0.558597; m_3_7=-0.002422; m_3_8=-0.099510; m_3_9=-0.003022; m_4_4=-0.795857; m_4_5=0.394932; m_4_6=0.001095; m_4_7=-0.120059; m_4_8=-0.002422; m_5_5=-0.795475; m_5_6=0.802287; m_5_7=0.001095; m_6_6=-0.795476; m_6_7=0.395274; m_7_7=-0.795843; m_7_8=0.558715; m_8_8=-0.792934; m_8_9=0.670381; m_9_9=-0.791000; m_9_10=1.034183; m_10_10=-0.790356; m_10_11=1.199088}
!
! Created with skrf (http://scikit-rf.org).
# Hz S RI R 50.0 
!freq ReS11 ImS11 ReS21 ImS21 ReS12 ImS12 ReS22 ImS22
12607400000.0 0.9945556640842831 0.10420667463129983 -7.657191904077996e-17 1.4219751185684585e-17 -7.657191904077996e-17 1.4219751185684585e-17 0.9945555982821098 0.1042073026498504
12608017333.333334 0.9953962000533054 0.09584573500830837 -7.643343478032594e-17 1.4866551363088832e-17 -7.643343478032594e-17 1.4866551363088832e-17 0.9953961395336648 0.09584636352684237
12608634666.666666 0.9961664492926882 0.0874780275465876 -7.628949201484107e-17 1.551202595117168e-17 -7.628949201484107e-17 1.551202595117168e-17 0.9961663940593359 0.08747865652067738
12609252000.0 0.9968663574137988 0.07910414310507242 -7.614010326159217e-17 1.6156128926819287e-17 -7.614010326159217e-17 1.6156128926819287e-17 0.9968663074701173 0.07910477249026257
12609869333.333334 0.9974958749949111 0.07072467297894965 -7.598528142552235e-17 1.6798814383831443e-17 -7.598528142552235e-17 1.6798814383831443e-17 0.9974958303439094 0.07072530273076011
12610486666.666666 0.9980549575847044 0.06234020885782069 -7.582503979817552e-17 1.744003653615606e-17 -7.582503979817552e-17 1.744003653615606e-17 0.9980549182290166 0.06234083893174977
12611104000.0 0.9985435657054046 0.05395134278383604 -7.565939205657767e-17 1.8079749721182716e-17 -7.565939205657767e-17 1.8079749721182716e-17 0.9985435316472908 0.05395197313536371
12611721333.333334 0.9989616648555628 0.04555866711006036 -7.548835226211136e-17 1.8717908402937772e-17 -7.548835226211136e-17 1.8717908402937772e-17 0.9989616360969088 0.04555929769465134
12612338666.666666 0.9993092255124959 0.03716277445856027 -7.531193485934272e-17 1.935446717535513e-17 -7.531193485934272e-17 1.935446717535513e-17 0.9993092020548143 0.03716340523166724
12612956000.0 0.9995862231343775 0.02876425767847308 -7.513015467483401e-17 1.9989380765480384e-17 -7.513015467483401e-17 1.9989380765480384e-17 0.9995862049788047 0.0287648885955397
12613573333.333334 0.9997926381619588 0.020363709804314883 -7.494302691592684e-17 2.0622604036679377e-17 -7.494302691592684e-17 2.0622604036679377e-17 0.9997926253092576 0.02036434082077905
12614190666.666666 0.9999284560199575 0.01196172401402026 -7.475056716949557e-17 2.1254091991841902e-17 -7.475056716949557e-17 2.1254091991841902e-17 0.9999284484705171 0.011962355085317225
12614808000.0 0.9999936671180873 0.0035588935869716033 -7.455279140067362e-17 2.1883799776576276e-17 -7.455279140067362e-17 2.1883799776576276e-17 0.9999936648719214 0.003559524668537088
12615425333.333334 0.9999882668517319 -0.004844188137694503 -7.434971595155865e-17 2.2511682682373314e-17 -7.434971595155865e-17 2.2511682682373314e-17 0.9999882699084799 -0.004843557090421136
12616042666.666666 0.9999122556022706 -0.013246927803211378 -7.414135753988506e-17 2.313769614977746e-17 -7.414135753988506e-17 2.313769614977746e-17 0.9999122639611978 -0.013246296834783984
12616660000.0 0.9997656387370525 -0.021648732076881293 -7.392773325767062e-17 2.376179577154622e-17 -7.392773325767062e-17 2.376179577154622e-17 0.99976565239705 -0.021648101231843807
12617277333.333334 0.9995484266090182 -0.030049007692085464 -7.370886056984157e-17 2.438393729577806e-17 -7.370886056984157e-17 2.438393729577806e-17 0.9995484455686022 -0.03004837701496874
12617894666.666666 0.9992606345559685 -0.03844716149011889 -7.348475731282662e-17 2.5004076629047226e-17 -7.348475731282662e-17 2.5004076629047226e-17 0.9992606588132813 -0.03844653102543754
12618512000.0 0.9989022828994751 -0.04684260046218782 -7.325544169312335e-17 2.5622169839525442e-17 -7.325544169312335e-17 2.5622169839525442e-17 0.9989023124522864 -0.04684197025443717
12619129333.333334 0.9984733969434577 -0.055234731791113025 -7.302093228584611e-17 2.623817316007241e-17 -7.302093228584611e-17 2.623817316007241e-17 0.9984734317891617 -0.05523410188476583
12619746666.666666 0.9979740069723897 -0.06362296289324627 -7.278124803324128e-17 2.6852042991329557e-17 -7.278124803324128e-17 2.6852042991329557e-17 0.9979740471080093 -0.06362233333274975
12620364000.0 0.997404148249151 -0.07200670146054089 -7.253640824317235e-17 2.7463735904813005e-17 -7.253640824317235e-17 2.7463735904813005e-17 0.9974041936713344 -0.07200607229031342
12620981333.333334 0.9967638610125661 -0.08038535550189348 -7.228643258759888e-17 2.807320864594152e-17 -7.228643258759888e-17 2.807320864594152e-17 0.9967639117175876 -0.08038472676632147
12621598666.666666 0.996053190474525 -0.08875833338545555 -7.203134110100168e-17 2.868041813712256e-17 -7.203134110100168e-17 2.868041813712256e-17 0.9960532464582885 -0.08875770512889053
12622216000.0 0.9952721868168222 -0.09712504388007012 -7.177115417880792e-17 2.9285321480760983e-17 -7.177115417880792e-17 2.9285321480760983e-17 0.9952722480748579 -0.09712441614682533
12622833333.333334 0.994420905187596 -0.10548489619716081 -7.150589257577155e-17 2.9887875962300466e-17 -7.150589257577155e-17 2.9887875962300466e-17 0.9944209717150635 -0.10548426903150836
12623450666.666666 0.9934994056974428 -0.1138373000324206 -7.123557740434732e-17 3.0488039053205886e-17 -7.123557740434732e-17 3.0488039053205886e-17 0.9934994774891289 -0.1138366734785881
12624068000.0 0.9925077534151738 -0.12218166560743747 -7.096023013301786e-17 3.10857684139817e-17 -7.096023013301786e-17 3.10857684139817e-17 0.9925078304654945 -0.12218103970960498
12624685333.333334 0.9914460183631925 -0.13051740371159387 -7.067987258461265e-17 3.16810218971372e-17 -7.067987258461265e-17 3.16810218971372e-17 0.9914461006661932 -0.1305167785138909
12625302666.666666 0.9903142755126081 -0.13884392574319235 -7.039452693460276e-17 3.2273757550134767e-17 -7.039452693460276e-17 3.2273757550134767e-17 0.9903143630619634 -0.13884330128969455
12625920000.0 0.9891126047778789 -0.1471606437515253 -7.010421570934867e-17 3.286393361837313e-17 -7.010421570934867e-17 3.286393361837313e-17 0.9891126975668937 -0.14716002008625145
12626537333.333334 0.9878410910112058 -0.15546697047808086 -6.980896178435857e-17 3.345150854807706e-17 -6.980896178435857e-17 3.345150854807706e-17 0.987841189032817 -0.15546634764499007
12627154666.666666 0.9864998239965553 -0.16376231939798372 -6.950878838249071e-17 3.403644098924151e-17 -6.950878838249071e-17 3.403644098924151e-17 0.9864999272433295 -0.16376169744097166
12627772000.0 0.985088898443249 -0.17204610476180213 -6.920371907214501e-17 3.461868979852762e-17 -6.920371907214501e-17 3.461868979852762e-17 0.9850890069073845 -0.17204548372469847
12628389333.333334 0.9836084139793796 -0.18031774163629255 -6.889377776543592e-17 3.5198214042135474e-17 -6.889377776543592e-17 3.5198214042135474e-17 0.9836085276527082 -0.18031712156285779
12629006666.666666 0.9820584751446673 -0.18857664594634693 -6.857898871632739e-17 3.577497299868565e-17 -6.857898871632739e-17 3.577497299868565e-17 0.9820585940186538 -0.18857602688026928
12629624000.0 0.9804391913831668 -0.1968222345157319 -6.82593765187544e-17 3.634892616206506e-17 -6.82593765187544e-17 3.634892616206506e-17 0.9804393154489084 -0.19682161650062396
12630241333.333334 0.9787506770354918 -0.20505392510851897 -6.793496610471945e-17 3.692003324425796e-17 -6.793496610471945e-17 3.692003324425796e-17 0.9787508062837216 -0.20505330818791515
12630858666.666666 0.9769930513307601 -0.2132711364701143 -6.760578274236194e-17 3.7488254178168185e-17 -6.760578274236194e-17 3.7488254178168185e-17 0.9769931857518452 -0.21327052068746732
12631476000.0 0.9751664383781501 -0.22147328836841287 -6.727185203400205e-17 3.805354912042581e-17 -6.727185203400205e-17 3.805354912042581e-17 0.9751665779620933 -0.22147267376709084
12632093333.333334 0.9732709671581626 -0.22965980163463015 -6.693319991417042e-17 3.8615878454161564e-17 -6.693319991417042e-17 3.8615878454161564e-17 0.9732711118946048 -0.22965918825791384
12632710666.666666 0.9713067715135371 -0.2378300982041451 -6.658985264761088e-17 3.9175202791771734e-17 -6.658985264761088e-17 3.9175202791771734e-17 0.9713069213917533 -0.23782948609522406
12633328000.0 0.969273990139705 -0.2459836011576757 -6.624183682724879e-17 3.9731482977681796e-17 -6.624183682724879e-17 3.9731482977681796e-17 0.9692741451486105 -0.24598299035964602
12633945333.333334 0.9671727665751159 -0.25411973476154764 -6.588917937215356e-17 4.0284680091066534e-17 -6.588917937215356e-17 4.0284680091066534e-17 0.9671729267032649 -0.25411912531740877
12634562666.666666 0.9650032491910112 -0.2622379245087064 -6.553190752547335e-17 4.0834755448559354e-17 -6.553190752547335e-17 4.0834755448559354e-17 0.9650034144265964 -0.2622373164613579
12635180000.0 0.9627655911810035 -0.27033759715906414 -6.517004885233674e-17 4.1381670606960275e-17 -6.517004885233674e-17 4.1381670606960275e-17 0.9627657615118582 -0.27033699055130245
12635797333.333334 0.96045995055023 -0.27841818078008645 -6.480363123774863e-17 4.192538736589959e-17 -6.480363123774863e-17 4.192538736589959e-17 0.9604601259638306 -0.2784175756546027
12636414666.666666 0.9580864901042058 -0.28647910478715133 -6.443268288445101e-17 4.246586777050339e-17 -6.443268288445101e-17 4.246586777050339e-17 0.9580866705876688 -0.28647850118652735
12637032000.0 0.9556453774373318 -0.2945197999838106 -6.405723231076845e-17 4.3003074114029174e-17 -6.405723231076845e-17 4.3003074114029174e-17 0.955645562977419 -0.2945191979505169
12637649333.333334 0.9531367849210309 -0.3025396986020918 -6.367730834842478e-17 4.3536968940493637e-17 -6.367730834842478e-17 4.3536968940493637e-17 0.9531369755041476 -0.30253909817848373
12638266666.666666 0.9505608896916332 -0.3105382343423984 -6.329294014035124e-17 4.4067515047261234e-17 -6.329294014035124e-17 4.4067515047261234e-17 0.9505610853038297 -0.3105376355707137
12638884000.0 0.9479178736378013 -0.3185148424137149 -6.29041571384549e-17 4.459467548764085e-17 -6.29041571384549e-17 4.459467548764085e-17 0.9479180742647741 -0.3185142453360703
12639501333.333334 0.9452079233877447 -0.3264689595732971 -6.25109891013838e-17 4.5118413573435663e-17 -6.25109891013838e-17 4.5118413573435663e-17 0.9452081290148384 -0.32646836423168596
12640118666.666666 0.94243123029603 -0.33440002416649967 -6.211346609226046e-17 4.563869287749003e-17 -6.211346609226046e-17 4.563869287749003e-17 0.9424314409082366 -0.33439943060278826
12640736000.0 0.9395879904299779 -0.34230747616667506 -6.171161847638536e-17 4.615547723622646e-17 -6.171161847638536e-17 4.615547723622646e-17 0.9395882060119405 -0.34230688442260065
12641353333.333334 0.9366784045560242 -0.35019075721415743 -6.130547691895197e-17 4.666873075212104e-17 -6.130547691895197e-17 4.666873075212104e-17 0.9366786250920341 -0.3501901673313239
12641970666.666666 0.9337026781253072 -0.3580493106563294 -6.089507238270081e-17 4.7178417796210847e-17 -6.089507238270081e-17 4.7178417796210847e-17 0.9337029035993094 -0.3580487226762058
12642588000.0 0.9306610212593305 -0.36588258158647635 -6.04804361255813e-17 4.768450301054457e-17 -6.04804361255813e-17 4.768450301054457e-17 0.9306612516549221 -0.3658819955503931
12643205333.333334 0.9275536487350324 -0.373690016883207 -6.006159969837822e-17 4.818695131063171e-17 -6.006159969837822e-17 4.818695131063171e-17 0.9275538840354656 -0.37368943283235345
12643822666.666666 0.9243807799696546 -0.38147106524943253 -5.963859494232767e-17 4.8685727887858965e-17 -5.963859494232767e-17 4.8685727887858965e-17 0.9243810201578354 -0.38147048322485344
12644440000.0 0.9211426390052657 -0.38922517725124023 -5.921145398670468e-17 4.9180798211896206e-17 -5.921145398670468e-17 4.9180798211896206e-17 0.9211428840637574 -0.38922459729383346
12645057333.333334 0.9178394544929002 -0.396951805356796 -5.878020924640505e-17 4.967212803306447e-17 -5.878020924640505e-17 4.967212803306447e-17 0.9178397044039245 -0.3969512275073097
12645674666.666666 0.9144714596764935 -0.4046504039748246 -5.83448934194867e-17 5.015968338470819e-17 -5.83448934194867e-17 5.015968338470819e-17 0.9144717144219303 -0.4046498282738539
12646292000.0 0.9110388923762366 -0.4123204294935235 -5.790553948470346e-17 5.064343058553045e-17 -5.790553948470346e-17 5.064343058553045e-17 0.9110391519376279 -0.4123198559815082
12646909333.333334 0.9075419949720309 -0.4199613403184052 -5.746218069902643e-17 5.1123336241901045e-17 -5.746218069902643e-17 5.1123336241901045e-17 0.9075422593305775 -0.4199607690356257
12647526666.666666 0.9039810143861569 -0.4275725969110033 -5.701485059513549e-17 5.1599367250153816e-17 -5.701485059513549e-17 5.1599367250153816e-17 0.903981283522726 -0.4275720278975799
12648144000.0 0.9003562020659376 -0.4351536618267668 -5.656358297888474e-17 5.207149079887045e-17 -5.656358297888474e-17 5.207149079887045e-17 0.9003564759610593 -0.435153095122655
12648761333.333334 0.8966678139659944 -0.4427039997529825 -5.610841192677714e-17 5.2539674371111615e-17 -5.610841192677714e-17 5.2539674371111615e-17 0.896668092599864 -0.4427034353979706
12649378666.666666 0.892916110530136 -0.45022307754665153 -5.564937178339141e-17 5.3003885746658377e-17 -5.564937178339141e-17 5.3003885746658377e-17 0.8929163938826175 -0.4502225155803584
12649996000.0 0.8891013566729947 -0.4577103642720854 -5.518649715880499e-17 5.346409300421502e-17 -5.518649715880499e-17 5.346409300421502e-17 0.88910164472362 -0.45770980473395734
12650613333.333334 0.8852238217612545 -0.4651653312385219 -5.471982292599611e-17 5.3920264523592834e-17 -5.471982292599611e-17 5.3920264523592834e-17 0.8852241144892267 -0.46516477416783014
12651230666.666666 0.8812837795947875 -0.4725874520371545 -5.424938421822965e-17 5.437236898786992e-17 -5.424938421822965e-17 5.437236898786992e-17 0.8812840769789815 -0.47258689747299243
12651848000.0 0.8772815083870856 -0.4799762025787574 -5.377521642641867e-17 5.4820375385534157e-17 -5.377521642641867e-17 5.4820375385534157e-17 0.8772818104060481 -0.4799756505600365
12652465333.333334 0.8732172907458359 -0.48733106113026214 -5.3297355196475096e-17 5.526425301259755e-17 -5.3297355196475096e-17 5.526425301259755e-17 0.8732175973777899 -0.4873305116957115
12653082666.666666 0.8690914136528625 -0.4946515083518019 -5.2815836426653553e-17 5.570397147467653e-17 -5.2815836426653553e-17 5.570397147467653e-17 0.8690917248757076 -0.49465096153996424
12653700000.0 0.8649041684438208 -0.5019370273334561 -5.233069626483755e-17 5.613950068908899e-17 -5.233069626483755e-17 5.613950068908899e-17 0.8649044842351333 -0.5019364831826847
12654317333.333334 0.8606558507877751 -0.5091871036314778 -5.1841971105871856e-17 5.65708108868675e-17 -5.1841971105871856e-17 5.65708108868675e-17 0.8606561711248129 -0.509186562179935
12654934666.666666 0.8563467606661441 -0.5164012253049417 -5.134969758881441e-17 5.699787261480903e-17 -5.134969758881441e-17 5.699787261480903e-17 0.8563470855258435 -0.5164006865905943
12655552000.0 0.8519772023516093 -0.5235788829517174 -5.085391259421329e-17 5.74206567374624e-17 -5.085391259421329e-17 5.74206567374624e-17 0.8519775317105922 -0.5235783470123366
12656169333.333334 0.8475474843866525 -0.5307195697444191 -5.035465324135643e-17 5.783913443910274e-17 -5.035465324135643e-17 5.783913443910274e-17 0.8475478182212237 -0.5307190366175756
12656786666.666666 0.8430579195617351 -0.5378227814662393 -4.985195688549985e-17 5.825327722568607e-17 -4.985195688549985e-17 5.825327722568607e-17 0.8430582578478872 -0.5378222511893024
12657404000.0 0.8385088248931704 -0.5448880165466276 -4.934586111507877e-17 5.866305692678185e-17 -4.934586111507877e-17 5.866305692678185e-17 0.8385091676065831 -0.544887489156761
12658021333.333334 0.8339005216008089 -0.5519147760965839 -4.88364037489174e-17 5.906844569746793e-17 -4.88364037489174e-17 5.906844569746793e-17 0.8339008687168514 -0.5519142516307441
12658638666.666666 0.8292333350853924 -0.5589025639438419 -4.8323622833408804e-17 5.946941602021503e-17 -4.8323622833408804e-17 5.946941602021503e-17 0.8292336865791264 -0.5589020424387753
12659256000.0 0.8245075949053731 -0.5658508866682114 -4.7807556639678894e-17 5.986594070674574e-17 -4.7807556639678894e-17 5.986594070674574e-17 0.8245079507515528 -0.5658503681604516
12659873333.333334 0.8197236347538909 -0.5727592536360405 -4.72882436607508e-17 6.025799289985733e-17 -4.72882436607508e-17 6.025799289985733e-17 0.819723994926966 -0.5727587381619061
12660490666.666666 0.8148817924350884 -0.5796271770350497 -4.676572260867947e-17 6.064554607523267e-17 -4.676572260867947e-17 6.064554607523267e-17 0.8148821569092064 -0.5796266646306425
12661108000.0 0.8099824098402244 -0.5864541719088254 -4.624003241167063e-17 6.102857404322518e-17 -4.624003241167063e-17 6.102857404322518e-17 0.8099827785892305 -0.5864536626100254
12661725333.333334 0.8050258329236283 -0.5932397561909206 -4.5711212211201805e-17 6.14070509506083e-17 -4.5711212211201805e-17 6.14070509506083e-17 0.805026205921068 -0.5932392500333852
12662342666.666666 0.800012411678206 -0.5999834507389887 -4.517930135911283e-17 6.178095128231114e-17 -4.517930135911283e-17 6.178095128231114e-17 0.8000127888973294 -0.5999829477581512
12662960000.0 0.7949425001107633 -0.606684779368572 -4.464433941468271e-17 6.215024986312932e-17 -4.464433941468271e-17 6.215024986312932e-17 0.7949428815245234 -0.6066842795996372
12663577333.333334 0.7898164562169362 -0.6133432688868152 -4.410636614170995e-17 6.251492185939769e-17 -4.410636614170995e-17 6.251492185939769e-17 0.7898168417979933 -0.6133427723647578
12664194666.666666 0.7846346419560354 -0.6199584491257202 -4.356542150555303e-17 6.287494278065706e-17 -4.356542150555303e-17 6.287494278065706e-17 0.7846350316767576 -0.6199579558852819
12664812000.0 0.7793974232253466 -0.6265298529755257 -4.302154567018572e-17 6.323028848127509e-17 -4.302154567018572e-17 6.323028848127509e-17 0.7793978170578127 -0.6265293630512137
12665429333.333334 0.7741051698344183 -0.6330570164175345 -4.247477899520915e-17 6.358093516206333e-17 -4.247477899520915e-17 6.358093516206333e-17 0.7741055677504198 -0.6330565298436182
12666046666.666666 0.768758255478896 -0.6395394785569452 -4.192516203288847e-17 6.392685937184258e-17 -4.192516203288847e-17 6.392685937184258e-17 0.7687586574499382 -0.6395389953674538
12666664000.0 0.7633570577140606 -0.6459767816554839 -4.1372735525129675e-17 6.426803800901375e-17 -4.1372735525129675e-17 6.426803800901375e-17 0.7633574637113659 -0.6459763018842051
12667281333.333334 0.7579019579283715 -0.6523684711634877 -4.081754040048984e-17 6.460444832307396e-17 -4.081754040048984e-17 6.460444832307396e-17 0.7579023679228807 -0.652367994843964
12667898666.666666 0.7523933413162949 -0.6587140957522807 -4.025961777114889e-17 6.493606791612209e-17 -4.025961777114889e-17 6.493606791612209e-17 0.7523937552786701 -0.6587136229178089
12668516000.0 0.746831596851237 -0.6650132073458959 -3.96990089298607e-17 6.526287474434527e-17 -3.96990089298607e-17 6.526287474434527e-17 0.7468320147518611 -0.6650127380295208
12669133333.333334 0.7412171172580924 -0.6712653611526878 -3.9135755346938055e-17 6.558484711944959e-17 -3.9135755346938055e-17 6.558484711944959e-17 0.7412175390670742 -0.6712648953872044
12669750666.666666 0.7355502989854784 -0.6774701156967868 -3.8569898667161424e-17 6.590196371010515e-17 -3.8569898667161424e-17 6.590196371010515e-17 0.7355507246726546 -0.6774696535147366
12670368000.0 0.7298315421776652 -0.6836270328493567 -3.800148070673205e-17 6.621420354333062e-17 -3.800148070673205e-17 6.621420354333062e-17 0.7298319717126002 -0.6836265742830241
