! Parameters = {f0=12700.012000; bw=77.238000; Q=6100.000000; N=10; m_0_1=1.208704; m_1_1=-0.634190; m_1_2=1.043516; m_2_2=-0.634839; m_2_3=0.680479; m_2_8=-0.002501; m_2_9=0.034203; m_3_3=-0.636776; m_3_4=0.569008; m_3_7=-0.001901; m_3_8=-0.098989; m_3_9=-0.002501; m_4_4=-0.639701; m_4_5=0.405343; m_4_6=0.001616; m_4_7=-0.119538; m_4_8=-0.001901; m_5_5=-0.639319; m_5_6=0.812698; m_5_7=0.001616; m_6_6=-0.639320; m_6_7=0.405685; m_7_7=-0.639687; m_7_8=0.569126; m_8_8=-0.636778; m_8_9=0.680792; m_9_9=-0.634844; m_9_10=1.044594; m_10_10=-0.634200; m_10_11=1.209499}
!
! Created with skrf (http://scikit-rf.org).
# Hz S RI R 50.0 
!freq ReS11 ImS11 ReS21 ImS21 ReS12 ImS12 ReS22 ImS22
12607400000.0 0.9951755358206623 0.09811041180170167 -8.061129314577933e-17 1.5481466688407062e-17 -8.061129314577933e-17 1.5481466688407062e-17 0.9951754733315793 0.09811104565291104
12608017333.333334 0.9959923954642707 0.08943795713892645 -8.045618261813937e-17 1.6187030639307647e-17 -8.045618261813937e-17 1.6187030639307647e-17 0.9959923385016726 0.08943859147935079
12608634666.666666 0.9967336804700798 0.08075871603987483 -8.029490189218633e-17 1.689106462958293e-17 -8.029490189218633e-17 1.689106462958293e-17 0.9967336290377469 0.08075935082133563
12609252000.0 0.9973993345903827 0.07207334707436769 -8.01274658721392e-17 1.7593514747907337e-17 -8.01274658721392e-17 1.7593514747907337e-17 0.9973992886916755 0.07207398224865766
12609869333.333334 0.9979893073162525 0.06338250927714302 -7.9953889932839e-17 1.8294327226684352e-17 -7.9953889932839e-17 1.8294327226684352e-17 0.9979892669541118 0.06338314479602981
12610486666.666666 0.998503553881363 0.05468686209801944 -7.977418991838097e-17 1.8993448446126296e-17 -7.977418991838097e-17 1.8993448446126296e-17 0.9985035190583097 0.054687497913249374
12611104000.0 0.9989420352654048 0.04598706535157434 -7.958838214069588e-17 1.969082493837982e-17 -7.958838214069588e-17 1.969082493837982e-17 0.9989420059835389 0.045987701414875896
12611721333.333334 0.9993047181970268 0.03728377916736158 -7.939648337811395e-17 2.038640339156809e-17 -7.939648337811395e-17 2.038640339156809e-17 0.9993046944580266 0.037284415430449115
12612338666.666666 0.9995915751563684 0.028577663939708214 -7.919851087387556e-17 2.1080130653886968e-17 -7.919851087387556e-17 2.1080130653886968e-17 0.9995915569614923 0.028578300354285706
12612956000.0 0.9998025843771503 0.019869380277491043 -7.899448233461801e-17 2.177195373764199e-17 -7.899448233461801e-17 2.177195373764199e-17 0.9998025717272365 0.019870016795255713
12613573333.333334 0.9999377298483195 0.011159588954294525 -7.878441592882722e-17 2.2461819823273613e-17 -7.878441592882722e-17 2.2461819823273613e-17 0.9999377227437857 0.01116022552694048
12614190666.666666 0.9999970013152715 0.0024489508580164063 -7.856833028524503e-17 2.3149676263399083e-17 -7.856833028524503e-17 2.3149676263399083e-17 0.999996999756113 0.0024495874372383064
12614808000.0 0.9999803942806227 -0.0062618730592512465 -7.834624449125137e-17 2.38354705868059e-17 -7.834624449125137e-17 2.38354705868059e-17 0.9999803982664154 -0.006261236521754503
12615425333.333334 0.999887910004555 -0.014972221831232117 -7.81181780912041e-17 2.4519150502454555e-17 -7.81181780912041e-17 2.4519150502454555e-17 0.9998879195344531 -0.014971585383753733
12616042666.666666 0.9997195555047165 -0.023681434527732585 -7.788415108475156e-17 2.5200663903441355e-17 -7.788415108475156e-17 2.5200663903441355e-17 0.9997195705774559 -0.023680798218554233
12616660000.0 0.9994753435556956 -0.032388850304763926 -7.764418392510425e-17 2.5879958870967708e-17 -7.764418392510425e-17 2.5879958870967708e-17 0.9994753641695883 -0.03238821418215202
12617277333.333334 0.9991552926880436 -0.041093808454686215 -7.739829751727453e-17 2.6556983678282037e-17 -7.739829751727453e-17 2.6556983678282037e-17 0.9991553188409839 -0.041093172566888304
12617894666.666666 0.9987594271868756 -0.04979564845631366 -7.714651321628361e-17 2.723168679460561e-17 -7.714651321628361e-17 2.723168679460561e-17 0.998759458876337 -0.04979501285155476
12618512000.0 0.9982877770900183 -0.05849371002517595 -7.688885282532784e-17 2.7904016889054406e-17 -7.688885282532784e-17 2.7904016889054406e-17 0.9982878143130552 -0.058493074751654925
12619129333.333334 0.997740378185748 -0.0671873331633362 -7.662533859392466e-17 2.857392283451155e-17 -7.662533859392466e-17 2.857392283451155e-17 0.997740420938994 -0.06718669826922197
12619746666.666666 0.997117272010057 -0.07587585820972581 -7.635599321600958e-17 2.9241353711521656e-17 -7.635599321600958e-17 2.9241353711521656e-17 0.9971173202897273 -0.0758752237431539
12620364000.0 0.9964185058435071 -0.08455862589017071 -7.608083982800218e-17 2.990625881215859e-17 -7.608083982800218e-17 2.990625881215859e-17 0.9964185596453976 -0.08455799189923942
12620981333.333334 0.9956441327076478 -0.09323497736727401 -7.579990200685562e-17 3.056858764383456e-17 -7.579990200685562e-17 3.056858764383456e-17 0.9956441920271365 -0.0932343439000409
12621598666.666666 0.9947942113609893 -0.10190425429052156 -7.551320376804724e-17 3.122828993315342e-17 -7.551320376804724e-17 3.122828993315342e-17 0.9947942761930352 -0.10190362139499975
12622216000.0 0.9938688062945432 -0.11056579884620826 -7.522076956355522e-17 3.1885315629700685e-17 -7.522076956355522e-17 3.1885315629700685e-17 0.9938688766336875 -0.11056516657036271
12622833333.333334 0.9928679877269285 -0.11921895380735194 -7.492262427978932e-17 3.2539614909842e-17 -7.492262427978932e-17 3.2539614909842e-17 0.9928680635672963 -0.11921832219909605
12623450666.666666 0.9917918315990474 -0.12786306258356336 -7.461879323550466e-17 3.3191138180469126e-17 -7.461879323550466e-17 3.3191138180469126e-17 0.9917919129343449 -0.12786243169075498
12624068000.0 0.9906404195683203 -0.1364974692708385 -7.430930217966466e-17 3.383983608276666e-17 -7.430930217966466e-17 3.383983608276666e-17 0.9906405063918395 -0.13649683914127675
12624685333.333334 0.9894138390024768 -0.14512151870146944 -7.399417728928105e-17 3.448565949593806e-17 -7.399417728928105e-17 3.448565949593806e-17 0.9894139313070942 -0.1451208893828909
12625302666.666666 0.9881121829729678 -0.1537345564934476 -7.367344516722638e-17 3.5128559540901193e-17 -7.367344516722638e-17 3.5128559540901193e-17 0.988112280751142 -0.1537339280335223
12625920000.0 0.9867355502478438 -0.16233592910051106 -7.334713283999959e-17 3.576848758399523e-17 -7.334713283999959e-17 3.576848758399523e-17 0.9867356534916212 -0.16233530154683945
12626537333.333334 0.9852840452843039 -0.1709249838614537 -7.301526775547931e-17 3.6405395240627585e-17 -7.301526775547931e-17 3.6405395240627585e-17 0.9852841539853169 -0.17092435726156288
12627154666.666666 0.9837577782207744 -0.17950106904964913 -7.267787778062957e-17 3.703923437893123e-17 -7.267787778062957e-17 3.703923437893123e-17 0.9837578923702406 -0.179500443450989
12627772000.0 0.9821568648684968 -0.18806353392278202 -7.233499119917395e-17 3.766995712340089e-17 -7.233499119917395e-17 3.766995712340089e-17 0.9821569844572239 -0.18806290937272227
12628389333.333334 0.9804814267028223 -0.19661172877180702 -7.19866367092546e-17 3.8297515858477293e-17 -7.19866367092546e-17 3.8297515858477293e-17 0.9804815517212037 -0.1966111053176326
12629006666.666666 0.978731590853916 -0.20514500497063795 -7.163284342103918e-17 3.8921863232148644e-17 -7.163284342103918e-17 3.8921863232148644e-17 0.9787317212919348 -0.20514438265954632
12629624000.0 0.9769074900971497 -0.2136627150251699 -7.127364085431504e-17 3.954295215949788e-17 -7.127364085431504e-17 3.954295215949788e-17 0.97690762594438 -0.21366209390426738
12630241333.333334 0.9750092628430282 -0.22216421262241026 -7.090905893603985e-17 4.016073582625012e-17 -7.090905893603985e-17 4.016073582625012e-17 0.9750094040886323 -0.22216359273870775
12630858666.666666 0.9730370531266977 -0.23064885267946447 -7.053912799786892e-17 4.0775167692285704e-17 -7.053912799786892e-17 4.0775167692285704e-17 0.973037199759431 -0.23064823407987475
12631476000.0 0.9709910105969557 -0.23911599139276166 -7.016387877364349e-17 4.1386201495144485e-17 -7.016387877364349e-17 4.1386201495144485e-17 0.9709911626051669 -0.2391153741240956
12632093333.333334 0.9688712905049859 -0.2475649862865178 -6.978334239686577e-17 4.1993791253479537e-17 -6.978334239686577e-17 4.1993791253479537e-17 0.9688714478766156 -0.24756437039548057
12632710666.666666 0.966678053692511 -0.2559951962617628 -6.939755039812895e-17 4.2597891270513824e-17 -6.939755039812895e-17 4.2597891270513824e-17 0.9666782164150948 -0.25599458179495066
12633328000.0 0.9644114665795958 -0.2644059816449584 -6.900653470251034e-17 4.319845613748267e-17 -6.900653470251034e-17 4.319845613748267e-17 0.9644116346402627 -0.26440536864885433
12633945333.333334 0.9620717011520505 -0.2727967042363968 -6.861032762696521e-17 4.3795440737006014e-17 -6.861032762696521e-17 4.3795440737006014e-17 0.9620718745375288 -0.2727960927573687
12634562666.666666 0.9596589349483577 -0.28116672735873893 -6.820896187766157e-17 4.438880024648364e-17 -6.820896187766157e-17 4.438880024648364e-17 0.959659113644971 -0.2811661174430343
12635180000.0 0.9571733510462149 -0.2895154159052682 -6.780247054730053e-17 4.4978490141442723e-17 -6.780247054730053e-17 4.4978490141442723e-17 0.9571735350398843 -0.2895148075990115
12635797333.333334 0.9546151380485981 -0.2978421363882182 -6.739088711239799e-17 4.556446619887671e-17 -6.739088711239799e-17 4.556446619887671e-17 0.9546153273248457 -0.29784152973740724
12636414666.666666 0.9519844900695363 -0.30614625698656844 -6.697424543055679e-17 4.6146684500530506e-17 -6.697424543055679e-17 4.6146684500530506e-17 0.9519846846134856 -0.3061456520370715
12637032000.0 0.9492816067193011 -0.31442714759425916 -6.655257973768455e-17 4.672510143619933e-17 -6.655257973768455e-17 4.672510143619933e-17 0.9492818065156764 -0.3144265443918106
12637649333.333334 0.9465066930893101 -0.3226841798678399 -6.61259246452044e-17 4.7299673706971726e-17 -6.61259246452044e-17 4.7299673706971726e-17 0.9465068981224372 -0.32268357845803647
12638266666.666666 0.9436599597365148 -0.3309167272742802 -6.569431513722277e-17 4.787035832846814e-17 -6.569431513722277e-17 4.787035832846814e-17 0.9436601699903263 -0.3309161277025791
12638884000.0 0.9407416226674867 -0.33912416513835153 -6.525778656768474e-17 4.843711263403325e-17 -6.525778656768474e-17 4.843711263403325e-17 0.9407418381255197 -0.3391235674500658
12639501333.333334 0.9377519033219772 -0.34730587069015983 -6.481637465748649e-17 4.899989427792296e-17 -6.481637465748649e-17 4.899989427792296e-17 0.9377521239673745 -0.34730527493045493
12640118666.666666 0.9346910285561804 -0.3554612231122132 -6.437011549157768e-17 4.95586612384433e-17 -6.437011549157768e-17 4.95586612384433e-17 0.9346912543716942 -0.355460629326104
12640736000.0 0.931559230625375 -0.36358960358692904 -6.391904551600496e-17 5.011337182110293e-17 -6.391904551600496e-17 5.011337182110293e-17 0.9315594615933666 -0.3635890118192763
12641353333.333334 0.9283567471664992 -0.3716903953430565 -6.346320153497944e-17 5.066398466167595e-17 -6.346320153497944e-17 5.066398466167595e-17 0.9283569832689406 -0.3716898056385635
12641970666.666666 0.9250838211799676 -0.37976298370287537 -6.300262070786648e-17 5.121045872930068e-17 -6.300262070786648e-17 5.121045872930068e-17 0.9250840623984429 -0.37976239610608437
12642588000.0 0.9217407010112947 -0.38780675612867765 -6.253734054618036e-17 5.175275332951421e-17 -6.253734054618036e-17 5.175275332951421e-17 0.9217409473270018 -0.38780617068396667
12643205333.333334 0.9183276403322504 -0.3958211022692459 -6.206739891054504e-17 5.22908281072684e-17 -6.206739891054504e-17 5.22908281072684e-17 0.918327891726003 -0.39582051902082577
12643822666.666666 0.9148448981215807 -0.4038054140062459 -6.159283400761603e-17 5.282464304993437e-17 -6.159283400761603e-17 5.282464304993437e-17 0.914845154573807 -0.4038048329981555
12644440000.0 0.9112927386453615 -0.41175908550034085 -6.111368438700459e-17 5.3354158490245746e-17 -6.111368438700459e-17 5.3354158490245746e-17 0.9112930001361106 -0.41175850677644593
12645057333.333334 0.9076714314370115 -0.41968151323703456 -6.062998893815363e-17 5.387933510924268e-17 -6.062998893815363e-17 5.387933510924268e-17 0.9076716979459493 -0.41968093684102226
12645674666.666666 0.9039812512767901 -0.427572096072568 -6.014178688719806e-17 5.440013393917493e-17 -6.014178688719806e-17 5.440013393917493e-17 0.9039815227832064 -0.4275715220479456
12646292000.0 0.9002224781708775 -0.4354302352796887 -5.964911779378054e-17 5.491651636639904e-17 -5.964911779378054e-17 5.491651636639904e-17 0.9002227546536828 -0.4354296636697782
12646909333.333334 0.8963953973302943 -0.4432553345927195 -5.915202154788967e-17 5.542844413419614e-17 -5.915202154788967e-17 5.542844413419614e-17 0.8963956787680258 -0.44325476544065673
12647526666.666666 0.8925002991490935 -0.45104680025316457 -5.865053836662181e-17 5.593587934561676e-17 -5.865053836662181e-17 5.593587934561676e-17 0.8925005855199126 -0.45104623360189366
12648144000.0 0.8885374791824076 -0.4588040410545809 -5.814470879094595e-17 5.643878446626815e-17 -5.814470879094595e-17 5.643878446626815e-17 0.8885377704641038 -0.4588034769468519
12648761333.333334 0.8845072381240218 -0.4665264683874384 -5.763457368243939e-17 5.693712232707699e-17 -5.763457368243939e-17 5.693712232707699e-17 0.8845075342940156 -0.46652590686580536
12649378666.666666 0.8804098817835773 -0.4742134962837607 -5.712017422001065e-17 5.743085612701388e-17 -5.712017422001065e-17 5.743085612701388e-17 0.8804101828189189 -0.47421293739057624
12649996000.0 0.87624572106331 -0.4818645414616865 -5.660155189657378e-17 5.7919949435812e-17 -5.660155189657378e-17 5.7919949435812e-17 0.8762460269406835 -0.48186398523910023
12650613333.333334 0.8720150719344447 -0.4894790233697526 -5.607874851572302e-17 5.840436619663346e-17 -5.607874851572302e-17 5.840436619663346e-17 0.8720153826301694 -0.48947846985970717
12651230666.666666 0.8677182554133585 -0.4970563642306965 -5.555180618837662e-17 5.888407072871423e-17 -5.555180618837662e-17 5.888407072871423e-17 0.8677185709033903 -0.49705581347492517
12651848000.0 0.8633555975370282 -0.5045959890856462 -5.5020767329390675e-17 5.935902772998426e-17 -5.5020767329390675e-17 5.935902772998426e-17 0.8633559177969612 -0.5045954411256683
12652465333.333334 0.8589274293384445 -0.5120973258374731 -5.448567465416715e-17 5.982920227964433e-17 -5.448567465416715e-17 5.982920227964433e-17 0.8589277543435136 -0.512096780714593
12653082666.666666 0.8544340868214387 -0.5195598052943037 -5.394657117523414e-17 6.02945598407165e-17 -5.394657117523414e-17 6.02945598407165e-17 0.8544344165465205 -0.5195592630496048
12653700000.0 0.8498759109351249 -0.5269828612128025 -5.340350019877696e-17 6.075506626258827e-17 -5.340350019877696e-17 6.075506626258827e-17 0.8498762453547412 -0.526982321887147
12654317333.333334 0.8452532475481811 -0.5343659303408984 -5.285650532120695e-17 6.121068778347434e-17 -5.285650532120695e-17 6.121068778347434e-17 0.8452535866364996 -0.5343653939749231
12654934666.666666 0.840566447422469 -0.5417084524607404 -5.230563042565006e-17 6.166139103289892e-17 -5.230563042565006e-17 6.166139103289892e-17 0.840566791153306 -0.5417079190948532
12655552000.0 0.8358158661864336 -0.5490098704311812 -5.1750919678440337e-17 6.210714303412342e-17 -5.1750919678440337e-17 6.210714303412342e-17 0.8358162145332554 -0.5490093401055585
12656169333.333334 0.8310018643081949 -0.5562696302299335 -5.1192417525609447e-17 6.254791120653067e-17 -5.1192417525609447e-17 6.254791120653067e-17 0.8310022172441195 -0.5562691029845163
12656786666.666666 0.8261248070681322 -0.5634871809957013 -5.063016868931291e-17 6.298366336801174e-17 -5.063016868931291e-17 6.298366336801174e-17 0.8261251645659345 -0.5634866568701952
12657404000.0 0.8211850645311891 -0.5706619750699606 -5.006421816428105e-17 6.341436773728515e-17 -5.006421816428105e-17 6.341436773728515e-17 0.8211854265632976 -0.5706614541038283
12658021333.333334 0.8161830115187694 -0.5777934680385317 -4.949461121421977e-17 6.383999293620846e-17 -4.949461121421977e-17 6.383999293620846e-17 0.816183378057273 -0.5777929502709939
12658638666.666666 0.811119027580399 -0.584881118772754 -4.892139336821555e-17 6.42605079920396e-17 -4.892139336821555e-17 6.42605079920396e-17 0.811119398597048 -0.5848806042427845
12659256000.0 0.8059934969646968 -0.5919243894708689 -4.8344610417082854e-17 6.467588233969493e-17 -4.8344610417082854e-17 6.467588233969493e-17 0.8059938724309019 -0.5919238782171911
12659873333.333334 0.8008068085904595 -0.5989227456984786 -4.776430840974577e-17 6.508608582393482e-17 -4.776430840974577e-17 6.508608582393482e-17 0.8008071884772991 -0.598922237759565
12660490666.666666 0.7955593560170936 -0.6058756564291952 -4.7180533649566494e-17 6.549108870154303e-17 -4.7180533649566494e-17 6.549108870154303e-17 0.7955597402953125 -0.6058751518432621
12661108000.0 0.790251537414595 -0.6127825940851366 -4.65933326906478e-17 6.589086164347846e-17 -4.65933326906478e-17 6.589086164347846e-17 0.7902519260546081 -0.6127820928901427
12661725333.333334 0.7848837555335954 -0.6196430345766194 -4.600275233415121e-17 6.628537573697007e-17 -4.600275233415121e-17 6.628537573697007e-17 0.7848841485054879 -0.6196425368102615
12662342666.666666 0.7794564176745381 -0.6264564573422622 -4.540883962456927e-17 6.667460248759832e-17 -4.540883962456927e-17 6.667460248759832e-17 0.7794568149480722 -0.6264559630419746
12662960000.0 0.7739699356569708 -0.6332223453882416 -4.4811641845991996e-17 6.705851382133614e-17 -4.4811641845991996e-17 6.705851382133614e-17 0.7739703372015836 -0.6332218545911915
12663577333.333334 0.7684247257882061 -0.6399401853276311 -4.421120651835604e-17 6.743708208655619e-17 -4.421120651835604e-17 6.743708208655619e-17 0.7684251315730135 -0.6399396980707155
12664194666.666666 0.7628212088317481 -0.6466094674193319 -4.360758139366749e-17 6.781028005601076e-17 -4.360758139366749e-17 6.781028005601076e-17 0.7628216188255483 -0.6466089837391769
12664812000.0 0.7571598099753893 -0.6532296856067343 -4.3000814452227607e-17 6.817808092876632e-17 -4.3000814452227607e-17 6.817808092876632e-17 0.7571602241466637 -0.6532292055396903
12665429333.333334 0.7514409587988519 -0.6598003375562217 -4.239095389882085e-17 6.8540458332117e-17 -4.239095389882085e-17 6.8540458332117e-17 0.751441377115767 -0.6597998611383609
12666046666.666666 0.7456650892413942 -0.6663209246950488 -4.177804815891077e-17 6.889738632345069e-17 -4.177804815891077e-17 6.889738632345069e-17 0.7456655116718072 -0.6663204519621645
12666664000.0 0.739832639568609 -0.6727909522494986 -4.1162145874776734e-17 6.924883939210618e-17 -4.1162145874776734e-17 6.924883939210618e-17 0.7398330660800657 -0.6727904832370991
12667281333.333334 0.7339440523394456 -0.6792099292821003 -4.0543295901704573e-17 6.959479246115581e-17 -4.0543295901704573e-17 6.959479246115581e-17 0.7339444828991873 -0.6792094640254102
12667898666.666666 0.7279997743724629 -0.685577368729077 -3.9921547304095006e-17 6.993522088919332e-17 -3.9921547304095006e-17 6.993522088919332e-17 0.728000208947427 -0.6855769072630319
12668516000.0 0.7220002567118445 -0.6918927874373828 -3.929694935158899e-17 7.02701004720683e-17 -3.929694935158899e-17 7.02701004720683e-17 0.722000695268666 -0.6918923297966265
12669133333.333334 0.7159459545934663 -0.698155706201053 -3.8669551515184994e-17 7.059940744458365e-17 -3.8669551515184994e-17 7.059940744458365e-17 0.7159463970984814 -0.6981552524199366
12669750666.666666 0.7098373274100803 -0.7043656497978558 -3.8039403463323806e-17 7.092311848216783e-17 -3.8039403463323806e-17 7.092311848216783e-17 0.7098377738293288 -0.7043651999104332
12670368000.0 0.7036748386765747 -0.7105221470252279 -3.7406555057967895e-17 7.124121070250792e-17 -3.7406555057967895e-17 7.124121070250792e-17 0.7036752889758023 -0.7105217010652543
