! Parameters = {f0=12700.012000; bw=77.238000; Q=6100.000000; N=10; m_0_1=1.345841; m_1_1=1.422867; m_1_2=1.180653; m_2_2=1.422218; m_2_3=0.817616; m_2_8=0.004356; m_2_9=0.041060; m_3_3=1.420281; m_3_4=0.706145; m_3_7=0.004956; m_3_8=-0.092132; m_3_9=0.004356; m_4_4=1.417356; m_4_5=0.542480; m_4_6=0.008473; m_4_7=-0.112681; m_4_8=0.004956; m_5_5=1.417738; m_5_6=0.949835; m_5_7=0.008473; m_6_6=1.417737; m_6_7=0.542822; m_7_7=1.417370; m_7_8=0.706263; m_8_8=1.420279; m_8_9=0.817929; m_9_9=1.422213; m_9_10=1.181731; m_10_10=1.422857; m_10_11=1.346636}
!
! Created with skrf (http://scikit-rf.org).
# Hz S RI R 50.0 
!freq ReS11 ImS11 ReS21 ImS21 ReS12 ImS12 ReS22 ImS22
12607400000.0 0.4801944337481076 -0.8771620749879325 -3.298679064373698e-17 1.5261638747433945e-16 -3.298679064373698e-17 1.5261638747433945e-16 0.48019505558832254 -0.8771617345668526
12608017333.333334 0.46895864003050275 -0.8832201276808318 -3.1016362051580244e-17 1.5299780885069005e-16 -3.1016362051580244e-17 1.5299780885069005e-16 0.46895926613476197 -0.8832197952413359
12608634666.666666 0.4576464327583263 -0.8891342657795729 -2.904158069618743e-17 1.5335380389371727e-16 -2.904158069618743e-17 1.5335380389371727e-16 0.4576470630241991 -0.8891339413750478
12609252000.0 0.4462596551772296 -0.8949035256165337 -2.7062774500543946e-17 1.536843237513281e-16 -2.7062774500543946e-17 1.536843237513281e-16 0.4462602895016155 -0.8949032092990482
12609869333.333334 0.4348001626836746 -0.9005269671309419 -2.508027192403529e-17 1.5398932379837328e-16 -2.508027192403529e-17 1.5398932379837328e-16 0.43480080096282264 -0.9005266589512437
12610486666.666666 0.4232698225226664 -0.9060036740220392 -2.3094401908016937e-17 1.5426876364235852e-16 -2.3094401908016937e-17 1.5426876364235852e-16 0.4232704646521915 -0.9060033740295452
12611104000.0 0.41167051348303696 -0.9113327538986055 -2.1105493821238337e-17 1.5452260712846776e-16 -2.1105493821238337e-17 1.5452260712846776e-16 0.41167115935793663 -0.9113324621413934
12611721333.333334 0.400004125591821 -0.91651333842412 -1.9113877405349266e-17 1.5475082234386537e-16 -1.9113877405349266e-17 1.5475082234386537e-16 0.4000047751064933 -0.9165130549489218
12612338666.666666 0.38827255980608605 -0.9215445834583542 -1.711988272024301e-17 1.549533816213135e-16 -1.711988272024301e-17 1.549533816213135e-16 0.38827321285434613 -0.9215443083105478
12612956000.0 0.3764777277030266 -0.9264256691949811 -1.512384008941212e-17 1.551302615420789e-16 -1.512384008941212e-17 1.551302615420789e-16 0.3764783841781236 -0.9264254024185816
12613573333.333334 0.36462155116879796 -0.9311558002950213 -1.3126080045370366e-17 1.5528144293813055e-16 -1.3126080045370366e-17 1.5528144293813055e-16 0.36462221096343433 -0.9311555419326778
12614190666.666666 0.3527059620851521 -0.9357342060165319 -1.112693327488519e-17 1.5540691089365036e-16 -1.112693327488519e-17 1.5540691089365036e-16 0.35270662509149897 -0.9357339561095166
12614808000.0 0.34073290201470047 -0.9401601403401675 -9.126730564382467e-18 1.5550665474582576e-16 -9.126730564382467e-18 1.5550665474582576e-16 0.3407335681244165 -0.9401598989283715
12615425333.333334 0.3287043218846047 -0.9444328820907202 -7.125802745215008e-18 1.555806680849508e-16 -7.125802745215008e-18 1.555806680849508e-16 0.3287049909888538 -0.9444326492126472
12616042666.666666 0.31662218166847256 -0.9485517350547091 -5.124480639042175e-18 1.5562894875381806e-16 -5.124480639042175e-18 1.5562894875381806e-16 0.316622853657941 -0.9485515107474682
12616660000.0 0.3044884500673139 -0.952516028093705 -3.123095003179449e-18 1.5565149884641064e-16 -3.123095003179449e-18 1.5565149884641064e-16 0.30448912483222873 -0.9525158123930044
12617277333.333334 0.29230510418854144 -0.9563251152537655 -1.1219764760242666e-18 1.5564832470589314e-16 -1.1219764760242666e-18 1.5564832470589314e-16 0.2923057816186884 -0.9563249081939095
12617894666.666666 0.2800741292239226 -0.9599783758706567 8.785444775125614e-19 1.556194369219018e-16 8.785444775125614e-19 1.556194369219018e-16 0.28007480920866373 -0.9599781774845366
12618512000.0 0.26779751812583336 -0.9634752146710609 2.878137620578505e-18 1.5556485032713337e-16 2.878137620578505e-18 1.5556485032713337e-16 0.2677982005541253 -0.963475024990152
12619129333.333334 0.2554772712831207 -0.9668150618694006 4.876472998715053e-18 1.5548458399323592e-16 4.876472998715053e-18 1.5548458399323592e-16 0.2554779560435331 -0.9668148809237582
12619746666.666666 0.24311539619438888 -0.9699973732609009 6.873220994337827e-18 1.553786612260002e-16 6.873220994337827e-18 1.553786612260002e-16 0.24311608317512204 -0.9699972010791522
12620364000.0 0.23071390714149273 -0.9730216303100929 8.86805238100707e-18 1.552471095598535e-16 8.86805238100707e-18 1.552471095598535e-16 0.2307145962303959 -0.9730214669194343
12620981333.333334 0.21827482486104968 -0.9758873402353787 1.086063837762125e-17 1.5508996075166015e-16 1.086063837762125e-17 1.5508996075166015e-16 0.21827551594564035 -0.9758871856615737
12621598666.666666 0.20580017621528723 -0.9785940360893071 1.2850650702595352e-17 1.5490725077382247e-16 1.2850650702595352e-17 1.5490725077382247e-16 0.2058008691827682 -0.9785938903566788
12622216000.0 0.19329199386155588 -0.9811412768347005 1.4837761627847216e-17 1.5469901980669218e-16 1.4837761627847216e-17 1.5469901980669218e-16 0.19329268859883428 -0.9811411399661295
12622833333.333334 0.18075231592139956 -0.9835286474164603 1.682164403272425e-17 1.5446531223028713e-16 1.682164403272425e-17 1.5446531223028713e-16 0.18075301231510527 -0.9835285194333803
12623450666.666666 0.1681831856485155 -0.9857557588291935 1.880197145776482e-17 1.542061766153224e-16 1.880197145776482e-17 1.542061766153224e-16 0.16818388358501946 -0.9857556397515881
12624068000.0 0.15558665109537217 -0.987822248180678 2.0778418158364638e-17 1.539216657135488e-16 2.0778418158364638e-17 1.539216657135488e-16 0.1555873504608052 -0.9878221380270786
12624685333.333334 0.14296476477977246 -0.9897277787509386 2.2750659158356425e-17 1.5361183644739751e-16 2.2750659158356425e-17 1.5361183644739751e-16 0.14296546546004363 -0.9897276775384203
12625302666.666666 0.13031958335074773 -0.9914720400470652 2.4718370303266847e-17 1.5327674989896308e-16 2.4718370303266847e-17 1.5327674989896308e-16 0.1303202852315632 -0.9914719477912454
12625920000.0 0.11765316725271098 -0.9930547478539171 2.668122831362676e-17 1.5291647129827562e-16 2.668122831362676e-17 1.5291647129827562e-16 0.11765387021959225 -0.9930546645689515
12626537333.333334 0.10496758039028312 -0.9944756442803474 2.8638910837985043e-17 1.5253107001091087e-16 2.8638910837985043e-17 1.5253107001091087e-16 0.10496828432858604 -0.9944755699789287
12627154666.666666 0.09226488979199542 -0.9957344978012328 3.059109650575739e-17 1.5212061952492164e-16 3.059109650575739e-17 1.5212061952492164e-16 0.09226559458692885 -0.9957344324945898
12627772000.0 0.07954716527297306 -0.9968311032952553 3.253746497997905e-17 1.516851974370778e-16 3.253746497997905e-17 1.516851974370778e-16 0.07954787080961742 -0.9968310469931494
12628389333.333334 0.06681647909829475 -0.99776528207826 3.4477697009728115e-17 1.5122488543846092e-16 3.4477697009728115e-17 1.5122488543846092e-16 0.06681718526162077 -0.9977652347889839
12629006666.666666 0.05407490564482181 -0.9985368819324129 3.6411474482529706e-17 1.5073976929934851e-16 3.6411474482529706e-17 1.5073976929934851e-16 0.05407561231970953 -0.9985368436627916
12629624000.0 0.041324521063590164 -0.9991457771309793 3.8338480476328106e-17 1.5022993885348148e-16 3.8338480476328106e-17 1.5022993885348148e-16 0.04132522813484741 -0.999145747886366
12630241333.333334 0.028567402941288546 -0.9995918684588183 4.0258399311465536e-17 1.4969548798161545e-16 4.0258399311465536e-17 1.4969548798161545e-16 0.028568110293669895 -0.9995918482430975
12630858666.666666 0.01580562996184426 -0.9998750832285562 4.217091660224686e-17 1.491365145944558e-16 4.217091660224686e-17 1.491365145944558e-16 0.01580633748006966 -0.9998750720441376
12631476000.0 0.0030412815674314207 -0.999995375292421 4.4075719308457635e-17 1.4855312061488318e-16 4.4075719308457635e-17 1.4855312061488318e-16 0.0030419891362051315 -0.9999953731402451
12632093333.333334 -0.009723562379791101 -0.999952725049764 4.5972495786428156e-17 1.4794541195958446e-16 4.5972495786428156e-17 1.4794541195958446e-16 -0.00972285487576181 -0.9999527319292985
12632710666.666666 -0.022486821937090413 -0.9997471394502576 4.786093584001627e-17 1.4731349851998247e-16 4.786093584001627e-17 1.4731349851998247e-16 -0.022486114613076445 -0.9997471553594992
12633328000.0 -0.035246417420014914 -0.9993786519927552 4.9740730771279667e-17 1.466574941425294e-16 4.9740730771279667e-17 1.466574941425294e-16 -0.03524571039124662 -0.9993786769282301
12633945333.333334 -0.04800026974098038 -0.9988473227198417 5.1611573430848537e-17 1.4597751660836857e-16 5.1611573430848537e-17 1.4597751660836857e-16 -0.047999563122628694 -0.9988473566766045
12634562666.666666 -0.06074630074827008 -0.9981532382080436 5.3473158268055335e-17 1.4527368761234066e-16 5.3473158268055335e-17 1.4527368761234066e-16 -0.06074559465542783 -0.9981532811796802
12635180000.0 -0.0734824335645417 -0.997296511553728 5.532518138078143e-17 1.4454613274135363e-16 5.532518138078143e-17 1.4454613274135363e-16 -0.07348172811220487 -0.9972965635323561
12635797333.333334 -0.08620659292552356 -0.9962772823546541 5.716734056497889e-17 1.4379498145212966e-16 5.716734056497889e-17 1.4379498145212966e-16 -0.08620588822857253 -0.9962773433309249
12636414666.666666 -0.09891670551759764 -0.9950957166872682 5.899933536393402e-17 1.4302036704830738e-16 5.899933536393402e-17 1.4302036704830738e-16 -0.09891600169077847 -0.9950957866503671
12637032000.0 -0.11161070031614194 -0.9937520070796054 6.082086711722238e-17 1.4222242665691598e-16 6.082086711722238e-17 1.4222242665691598e-16 -0.11160999747404768 -0.9937520860172553
12637649333.333334 -0.12428650892293218 -0.9922463724799166 6.263163900930749e-17 1.414013012042442e-16 6.263163900930749e-17 1.414013012042442e-16 -0.12428580717998435 -0.9922464603783793
12638266666.666666 -0.13694206590289057 -0.9905790582210243 6.443135611784887e-17 1.4055713539107857e-16 6.443135611784887e-17 1.4055713539107857e-16 -0.1369413653733204 -0.9905791550651033
12638884000.0 -0.14957530912080408 -0.988750335980332 6.621972546167765e-17 1.3969007766732669e-16 6.621972546167765e-17 1.3969007766732669e-16 -0.14957460991863383 -0.9887504417533735
12639501333.333334 -0.16218418007755928 -0.9867605037355182 6.799645604840173e-17 1.3880028020604712e-16 6.799645604840173e-17 1.3880028020604712e-16 -0.16218348231658394 -0.9867606184194163
12640118666.666666 -0.17476662424488676 -0.9846098857160892 6.976125892168827e-17 1.3788789887686445e-16 6.976125892168827e-17 1.3788789887686445e-16 -0.17476592803865543 -0.9846100092912881
12640736000.0 -0.18732059140119803 -0.9822988323503744 7.151384720828375e-17 1.3695309321873334e-16 7.151384720828375e-17 1.3695309321873334e-16 -0.18731989686299522 -0.9822989647958709
12641353333.333334 -0.1998440359644779 -0.9798277202086246 7.32539361643998e-17 1.3599602641225059e-16 7.32539361643998e-17 1.3599602641225059e-16 -0.1998433432073056 -0.9798278615019733
12641970666.666666 -0.21233491732643853 -0.9771969519415099 7.498124322207908e-17 1.3501686525119286e-16 7.498124322207908e-17 1.3501686525119286e-16 -0.21233422646299696 -0.9771971020588236
12642588000.0 -0.22479120018468518 -0.9744069562145632 7.669548803490444e-17 1.3401578011361698e-16 7.669548803490444e-17 1.3401578011361698e-16 -0.22479051132735575 -0.9744071151305228
12643205333.333334 -0.23721085487435745 -0.9714581876383458 7.83963925234861e-17 1.329929449322927e-16 7.83963925234861e-17 1.329929449322927e-16 -0.23721016813518295 -0.9714583553261977
12643822666.666666 -0.24959185769901232 -0.9683511266943199 8.00836809205088e-17 1.319485371645825e-16 8.00836809205088e-17 1.319485371645825e-16 -0.24959117318968002 -0.968351303125886
12644440000.0 -0.26193219126031736 -0.9650862796565761 8.17570798153059e-17 1.308827377617992e-16 8.17570798153059e-17 1.308827377617992e-16 -0.26193150909214025 -0.9650864648022563
12645057333.333334 -0.27422984478644125 -0.9616641785094249 8.341631819817676e-17 1.2979573113790653e-16 8.341631819817676e-17 1.2979573113790653e-16 -0.2742291650703399 -0.9616643723382016
12645674666.666666 -0.2864828144601361 -0.9580853808606002 8.506112750414052e-17 1.2868770513775217e-16 8.506112750414052e-17 1.2868770513775217e-16 -0.28648213730662087 -0.9580855833400443
12646292000.0 -0.2986891037452432 -0.9543504698503933 8.669124165639504e-17 1.2755885100466653e-16 8.669124165639504e-17 1.2755885100466653e-16 -0.29868842926439565 -0.9543506809466688
12646909333.333334 -0.3108467237115234 -0.9504600540567787 8.830639710923125e-17 1.2640936334759094e-16 8.830639710923125e-17 1.2640936334759094e-16 -0.3108460520129797 -0.9504602737346504
12647526666.666666 -0.3229536933592327 -0.9464147673961103 8.990633289062137e-17 1.2523944010758832e-16 8.990633289062137e-17 1.2523944010758832e-16 -0.32295302455216446 -0.9464149956189473
12648144000.0 -0.3350080399418001 -0.942215269019855 9.149079064428557e-17 1.2404928252387105e-16 9.149079064428557e-17 1.2404928252387105e-16 -0.33500737413489695 -0.9422155057496368
12648761333.333334 -0.34700779928727193 -0.9378622432071824 9.30595146713543e-17 1.228390950992687e-16 9.30595146713543e-17 1.228390950992687e-16 -0.34700713658872473 -0.9378624884045083
12649378666.666666 -0.3589510161180414 -0.9333563992535909 9.46122519715328e-17 1.2160908556520036e-16 9.46122519715328e-17 1.2160908556520036e-16 -0.35895035663552394 -0.9333566528776838
12649996000.0 -0.3708357443698758 -0.9286984713551775 9.614875228387333e-17 1.2035946484607482e-16 9.614875228387333e-17 1.2035946484607482e-16 -0.37083508821052674 -0.92869873336389
12650613333.333334 -0.3826600475090091 -0.9238892184889947 9.766876812701709e-17 1.1909044702322526e-16 9.766876812701709e-17 1.1909044702322526e-16 -0.38265939477941574 -0.9238894888388188
12651230666.666666 -0.394421998847162 -0.9189294242895981 9.917205483896184e-17 1.1780224929833788e-16 9.917205483896184e-17 1.1780224929833788e-16 -0.3944213496533422 -0.9189297029356699
12651848000.0 -0.40611968185621805 -0.9138198969210543 1.0065837061640894e-16 1.164950919563284e-16 1.0065837061640894e-16 1.164950919563284e-16 -0.40611903630360346 -0.913820183817164
12652465333.333334 -0.41775119047993153 -0.9085614689454993 1.0212747655356232e-16 1.1516919832777482e-16 1.0212747655356232e-16 1.1516919832777482e-16 -0.4177505486733497 -0.9085617640440954
12653082666.666666 -0.42931462944471555 -0.9031549971873872 1.0357913668042854e-16 1.1382479475086877e-16 1.0357913668042854e-16 1.1382479475086877e-16 -0.42931399148837424 -0.9031553004395884
12653700000.0 -0.4408081145686704 -0.8976013625937841 1.0501311800071375e-16 1.1246211053279616e-16 1.0501311800071375e-16 1.1246211053279616e-16 -0.44080748056613916 -0.8976016739493838
12654317333.333334 -0.45222977306803114 -0.8919014700910859 1.0642919052905995e-16 1.1108137791078467e-16 1.0642919052905995e-16 1.1108137791078467e-16 -0.4522291431222258 -0.8919017894985635
12654934666.666666 -0.46357774386299344 -0.8860562484372538 1.0782712732789229e-16 1.0968283201257046e-16 1.0782712732789229e-16 1.0968283201257046e-16 -0.4635771180761585 -0.8860565758437811
12655552000.0 -0.4748501778806511 -0.8800666500706168 1.09206704543747e-16 1.0826671081640116e-16 1.09206704543747e-16 1.0826671081640116e-16 -0.47484955635434356 -0.8800669854220676
12656169333.333334 -0.4860452383559934 -0.8739336509548479 1.1056770144295762e-16 1.0683325511070034e-16 1.1056770144295762e-16 1.0683325511070034e-16 -0.48604462119106595 -0.8739339941958064
12656786666.666666 -0.497161101131843 -0.8676582504195859 1.11909900446961e-16 1.0538270845313614e-16 1.11909900446961e-16 1.0538270845313614e-16 -0.4971604884284288 -0.8676586014933575
12657404000.0 -0.5081959549555413 -0.8612414709979015 1.1323308716697591e-16 1.0391531712934113e-16 1.1323308716697591e-16 1.0391531712934113e-16 -0.5081953468130357 -0.8612418298465196
12658021333.333334 -0.5191480017743264 -0.8546843582595434 1.1453705043815452e-16 1.0243133011118619e-16 1.1453705043815452e-16 1.0243133011118619e-16 -0.5191473982913725 -0.854684724823781
12658638666.666666 -0.5300154570282177 -0.8479879806406295 1.1582158235320624e-16 1.0093099901460816e-16 1.1582158235320624e-16 1.0093099901460816e-16 -0.53001485830269 -0.8479883548600082
12659256000.0 -0.5407965499409899 -0.8411534292694324 1.1708647829549746e-16 9.941457805698281e-17 1.1708647829549746e-16 9.941457805698281e-17 -0.5407959560699772 -0.8411538110822315
12659873333.333334 -0.5514895238084645 -0.8341818177887339 1.1833153697151623e-16 9.788232401417831e-17 1.1833153697151623e-16 9.788232401417831e-17 -0.5514889348882565 -0.834182207132003
12660490666.666666 -0.5620926362847114 -0.8270742821744044 1.1955656044282694e-16 9.633449617714354e-17 1.1955656044282694e-16 9.633449617714354e-17 -0.5620920524107811 -0.8270746789839714
12661108000.0 -0.5726041596663767 -0.819831980550019 1.207613541574852e-16 9.477135630806363e-17 1.207613541574852e-16 9.477135630806363e-17 -0.572603580933365 -0.8198323847605011
12661725333.333334 -0.5830223811737247 -0.812456092998461 1.21945726980805e-16 9.319316859621974e-17 1.21945726980805e-16 9.319316859621974e-17 -0.5830218076754272 -0.8124565045432776
12662342666.666666 -0.5933456032299628 -0.8049478213694818 1.2310949122563052e-16 9.160019961336248e-17 1.2310949122563052e-16 9.160019961336248e-17 -0.593345035059312 -0.8049482401808625
12662960000.0 -0.6035721437377554 -0.7973083890839316 1.242524626819679e-16 8.99927182687852e-17 1.242524626819679e-16 8.99927182687852e-17 -0.6035715809868069 -0.797308815092929
12663577333.333334 -0.6137003363534922 -0.7895390409342748 1.2537446064606285e-16 8.837099576398678e-17 1.2537446064606285e-16 8.837099576398678e-17 -0.6136997791134092 -0.7895394740707751
12664194666.666666 -0.6237285307585332 -0.7816410428819636 1.2647530794885783e-16 8.673530554701676e-17 1.2647530794885783e-16 8.673530554701676e-17 -0.6237279791195736 -0.7816414830747
12664812000.0 -0.6336550929283024 -0.7736156818510261 1.2755483098390434e-16 8.508592326639529e-17 1.2755483098390434e-16 8.508592326639529e-17 -0.6336545469798005 -0.7736161290275868
12665429333.333334 -0.6434784053984897 -0.7654642655183979 1.2861285973463053e-16 8.342312672475217e-17 1.2861285973463053e-16 8.342312672475217e-17 -0.6434778652288455 -0.765464719605242
12666046666.666666 -0.6531968675285672 -0.757188122100889 1.2964922780100722e-16 8.174719583212897e-17 1.2964922780100722e-16 8.174719583212897e-17 -0.6531963332252302 -0.7571885830233561
12666664000.0 -0.6628088957628148 -0.7487886001385708 1.306637724256522e-16 8.005841255887762e-17 1.306637724256522e-16 8.005841255887762e-17 -0.6628083674122702 -0.748789067820895
12667281333.333334 -0.6723129238878797 -0.7402670682754531 1.316563345192542e-16 7.835706088834814e-17 1.316563345192542e-16 7.835706088834814e-17 -0.6723124015756335 -0.7402675426407727
12667898666.666666 -0.6817074032885334 -0.731624915035983 1.3262675868544464e-16 7.664342676915831e-17 1.3262675868544464e-16 7.664342676915831e-17 -0.6817068870991008 -0.7316253960063565
12668516000.0 -0.6909908031997506 -0.7228635485990198 1.335748932450265e-16 7.491779806719412e-17 1.335748932450265e-16 7.491779806719412e-17 -0.6909902932166404 -0.7228640360954367
12669133333.333334 -0.7001616109559322 -0.7139843965685783 1.345005902595373e-16 7.318046451738841e-17 1.345005902595373e-16 7.318046451738841e-17 -0.7001611072616343 -0.7139848905109728
12669750666.666666 -0.7092183322377174 -0.704988905740902 1.3540370555427158e-16 7.143171767505825e-17 1.3540370555427158e-16 7.143171767505825e-17 -0.709217834913688 -0.7049894060481652
12670368000.0 -0.7181594913154623 -0.6958785418687077 1.3628409874059083e-16 6.967185086710457e-17 1.3628409874059083e-16 6.967185086710457e-17 -0.7181590004421128 -0.6958790484587022
