! Parameters = {f0=12700.012000; bw=77.238000; Q=6100.000000; N=10; m_0_1=1.222517; m_1_1=-0.426983; m_1_2=1.057329; m_2_2=-0.427632; m_2_3=0.694292; m_2_8=-0.001810; m_2_9=0.034894; m_3_3=-0.429569; m_3_4=0.582821; m_3_7=-0.001210; m_3_8=-0.098298; m_3_9=-0.001810; m_4_4=-0.432494; m_4_5=0.419156; m_4_6=0.002307; m_4_7=-0.118847; m_4_8=-0.001210; m_5_5=-0.432112; m_5_6=0.826511; m_5_7=0.002307; m_6_6=-0.432113; m_6_7=0.419498; m_7_7=-0.432480; m_7_8=0.582939; m_8_8=-0.429571; m_8_9=0.694605; m_9_9=-0.427637; m_9_10=1.058407; m_10_10=-0.426993; m_10_11=1.223312}
!
! Created with skrf (http://scikit-rf.org).
# Hz S RI R 50.0 
!freq ReS11 ImS11 ReS21 ImS21 ReS12 ImS12 ReS22 ImS22
12607400000.0 -0.3831317048940666 -0.9236937245130562 5.53750330172599e-17 6.831050847433924e-17 5.53750330172599e-17 6.831050847433924e-17 -0.3831311098701521 -0.9236939713181539
12608017333.333334 -0.3915390422742655 -0.9201614958118969 5.599070669360635e-17 6.77844520357443e-17 5.599070669360635e-17 6.77844520357443e-17 -0.3915384495547607 -0.9201617480204719
12608634666.666666 -0.3999138192806113 -0.9165527465172044 5.660139136285236e-17 6.725285368095499e-17 5.660139136285236e-17 6.725285368095499e-17 -0.39991322891457903 -0.916553004107756
12609252000.0 -0.4082553394670503 -0.9128677767324689 5.720703720629005e-17 6.671576064867812e-17 5.720703720629005e-17 6.671576064867812e-17 -0.4082547515033523 -0.9128680396830491
12609869333.333334 -0.4165629091531119 -0.909106892899692 5.780759485181137e-17 6.617322062484188e-17 5.780759485181137e-17 6.617322062484188e-17 -0.4165623236404059 -0.9091071611879111
12610486666.666666 -0.4248358374815729 -0.9052704077739243 5.840301537791546e-17 6.562528173838168e-17 5.840301537791546e-17 6.562528173838168e-17 -0.42483525446830717 -0.9052706813769487
12611104000.0 -0.43307343647616436 -0.9013586403971297 5.89932503176866e-17 6.50719925569794e-17 5.89932503176866e-17 6.50719925569794e-17 -0.43307285601057555 -0.9013589192916879
12611721333.333334 -0.441275021098399 -0.8973719160718391 5.957825166270512e-17 6.451340208279311e-17 5.957825166270512e-17 6.451340208279311e-17 -0.4412744432285069 -0.8973722002342215
12612338666.666666 -0.4494399093048988 -0.8933105663339271 6.015797186695082e-17 6.394955974812098e-17 6.015797186695082e-17 6.394955974812098e-17 -0.44943933407850223 -0.8933108557399876
12612956000.0 -0.4575674221039568 -0.8891749289251109 6.073236385065785e-17 6.33805154110367e-17 6.073236385065785e-17 6.33805154110367e-17 -0.4575668495686308 -0.8891752235502711
12613573333.333334 -0.46565688361187957 -0.8849653477649337 6.13013810040949e-17 6.280631935102405e-17 6.13013810040949e-17 6.280631935102405e-17 -0.46565631381497 -0.8849656475841821
12614190666.666666 -0.4737076211094183 -0.8806821729220442 6.186497719135583e-17 6.22270222645266e-17 6.186497719135583e-17 6.22270222645266e-17 -0.4737070540980393 -0.880682477909941
12614808000.0 -0.4817189650975628 -0.8763257605851666 6.24231067540732e-17 6.164267526049928e-17 6.24231067540732e-17 6.164267526049928e-17 -0.4817184009185921 -0.8763260707158445
12615425333.333334 -0.4896902493533408 -0.8718964730334098 6.297572451510015e-17 6.105332985591555e-17 6.297572451510015e-17 6.105332985591555e-17 -0.4896896880534162 -0.8718967882805766
12616042666.666666 -0.4976208109850727 -0.8673946786062243 6.352278578215755e-17 6.045903797123525e-17 6.352278578215755e-17 6.045903797123525e-17 -0.4976202526105875 -0.8673949989431641
12616660000.0 -0.5055099904875959 -0.8628207516727148 6.406424635142074e-17 5.985985192585743e-17 6.406424635142074e-17 5.985985192585743e-17 -0.5055094350846957 -0.862821077072291
12617277333.333334 -0.5133571317971083 -0.8581750726005055 6.460006251108288e-17 5.925582443352181e-17 6.460006251108288e-17 5.925582443352181e-17 -0.5133565794116879 -0.8581754030351649
12617894666.666666 -0.5211615823455833 -0.8534580277242018 6.513019104485493e-17 5.864700859770022e-17 6.513019104485493e-17 5.864700859770022e-17 -0.5211610330232812 -0.8534583631659735
12618512000.0 -0.5289226931153993 -0.8486700093130367 6.565458923545842e-17 5.803345790691633e-17 6.565458923545842e-17 5.803345790691633e-17 -0.5289221469015953 -0.848670349733537
12619129333.333334 -0.536639818692827 -0.8438114155385471 6.617321486801715e-17 5.741522623009941e-17 6.617321486801715e-17 5.741522623009941e-17 -0.5366392756326377 -0.8438117609089807
12619746666.666666 -0.5443123173220422 -0.8388826504412559 6.668602623346096e-17 5.679236781184471e-17 6.668602623346096e-17 5.679236781184471e-17 -0.5443117774603173 -0.8388830007324184
12620364000.0 -0.551939550958468 -0.8338841238970811 6.719298213185845e-17 5.616493726767303e-17 6.719298213185845e-17 5.616493726767303e-17 -0.5519390143397875 -0.8338844790793628
12620981333.333334 -0.5595208853215963 -0.8288162515834094 6.769404187570166e-17 5.553298957926742e-17 6.769404187570166e-17 5.553298957926742e-17 -0.5595203519902667 -0.8288166116267971
12621598666.666666 -0.5670556899480693 -0.8236794549443106 6.818916529315925e-17 5.489658008966278e-17 6.818916529315925e-17 5.489658008966278e-17 -0.5670551599481177 -0.8236798198183874
12622216000.0 -0.5745433382438443 -0.8184741611556573 6.867831273127736e-17 5.425576449841667e-17 6.867831273127736e-17 5.425576449841667e-17 -0.5745428116190177 -0.8184745308296101
12622833333.333334 -0.5819832075364457 -0.8132008030895119 6.91614450591387e-17 5.361059885674805e-17 6.91614450591387e-17 5.361059885674805e-17 -0.5819826843302063 -0.813201177532131
12623450666.666666 -0.5893746791266298 -0.8078598192782083 6.963852367096614e-17 5.296113956265949e-17 6.963852367096614e-17 5.296113956265949e-17 -0.5893741593821503 -0.8078601984578891
12624068000.0 -0.5967171383399279 -0.8024516538778181 7.010951048920278e-17 5.230744335600481e-17 7.010951048920278e-17 5.230744335600481e-17 -0.5967166221000897 -0.8024520377625667
12624685333.333334 -0.604009974577875 -0.7969767566311269 7.057436796752382e-17 5.1649567313556684e-17 7.057436796752382e-17 5.1649567313556684e-17 -0.6040094618852643 -0.7969771451885618
12625302666.666666 -0.6112525813684268 -0.7914355828305115 7.10330590938024e-17 5.098756884405073e-17 7.10330590938024e-17 5.098756884405073e-17 -0.6112520722653294 -0.7914359760278638
12625920000.0 -0.6184443564168193 -0.7858285932797451 7.148554739305529e-17 5.032150568316413e-17 7.148554739305529e-17 5.032150568316413e-17 -0.618443850945219 -0.7858289910838642
12626537333.333334 -0.6255847016553208 -0.7801562542559408 7.193179693030978e-17 4.9651435888515914e-17 7.193179693030978e-17 4.9651435888515914e-17 -0.6255841998568958 -0.780156656633297
12627154666.666666 -0.6326730232930806 -0.7744190374706903 7.237177231343731e-17 4.897741783462094e-17 7.237177231343731e-17 4.897741783462094e-17 -0.6326725252091991 -0.7744194443873761
12627772000.0 -0.6397087318657275 -0.7686174200306546 7.28054386959542e-17 4.8299510207798774e-17 7.28054386959542e-17 4.8299510207798774e-17 -0.6397082375374451 -0.7686178314523888
12628389333.333334 -0.6466912422839495 -0.7627518843982483 7.323276177973945e-17 4.7617772001111925e-17 7.323276177973945e-17 4.7617772001111925e-17 -0.646690751752005 -0.7627523002903781
12629006666.666666 -0.6536199738825671 -0.7568229183511748 7.365370781775228e-17 4.6932262509207176e-17 7.365370781775228e-17 4.6932262509207176e-17 -0.65361948718738 -0.7568233386786793
12629624000.0 -0.6604943504685584 -0.7508310149420803 7.406824361665333e-17 4.624304132320841e-17 7.406824361665333e-17 4.624304132320841e-17 -0.6604938676502251 -0.750831439669573
12630241333.333334 -0.6673138003690842 -0.7447766724574598 7.447633653941451e-17 4.555016832553003e-17 7.447633653941451e-17 4.555016832553003e-17 -0.6673133214673753 -0.7447771015491924
12630858666.666666 -0.6740777564789876 -0.7386603943762597 7.4877954507858e-17 4.4853703684703545e-17 7.4877954507858e-17 4.4853703684703545e-17 -0.6740772815333433 -0.7386608277961236
12631476000.0 -0.6807856563080563 -0.732482689327909 7.527306600516865e-17 4.41537078501455e-17 7.527306600516865e-17 4.41537078501455e-17 -0.6807851853575845 -0.73248312703944
12632093333.333334 -0.6874369420276116 -0.7262440710501962 7.566164007833396e-17 4.345024154694452e-17 7.566164007833396e-17 4.345024154694452e-17 -0.6874364751110843 -0.7262445130165764
12632710666.666666 -0.6940310605170055 -0.7199450583464532 7.60436463405468e-17 4.274336577060775e-17 7.60436463405468e-17 4.274336577060775e-17 -0.6940305976728547 -0.7199455045305143
12633328000.0 -0.7005674634096954 -0.7135861750423294 7.641905497356969e-17 4.203314178176678e-17 7.641905497356969e-17 4.203314178176678e-17 -0.7005670046760117 -0.7135866254065566
12633945333.333334 -0.707045607138747 -0.7071679499423303 7.678783673002623e-17 4.131963110090667e-17 7.678783673002623e-17 4.131963110090667e-17 -0.7070451525532748 -0.7071684044488643
12634562666.666666 -0.7134649529820136 -0.7006909167858608 7.714996293566726e-17 4.060289550303164e-17 7.714996293566726e-17 4.060289550303164e-17 -0.7134645025821497 -0.7006913753965027
12635180000.0 -0.7198249671070011 -0.6941556142027818 7.750540549156799e-17 3.9882997012345827e-17 7.750540549156799e-17 3.9882997012345827e-17 -0.7198245209297894 -0.694156076878994
12635797333.333334 -0.7261251206152585 -0.6875625856686163 7.785413687629045e-17 3.915999789688916e-17 7.785413687629045e-17 3.915999789688916e-17 -0.7261246786973885 -0.6875630523715267
12636414666.666666 -0.7323648895862634 -0.6809123794594555 7.819613014798303e-17 3.8433960663178666e-17 7.819613014798303e-17 3.8433960663178666e-17 -0.7323644519640671 -0.680912850149862
12637032000.0 -0.7385437551211874 -0.6742055486061603 7.853135894644802e-17 3.7704948050796216e-17 7.853135894644802e-17 3.7704948050796216e-17 -0.7385433218306354 -0.6742060232445322
12637649333.333334 -0.7446612033858508 -0.6674426508485756 7.88597974951373e-17 3.697302302700319e-17 7.88597974951373e-17 3.697302302700319e-17 -0.7446607744625522 -0.6674431293950593
12638266666.666666 -0.7507167256535541 -0.6606242485890482 7.918142060311356e-17 3.623824878130437e-17 7.918142060311356e-17 3.623824878130437e-17 -0.7507163011327478 -0.6606247310034666
12638884000.0 -0.7567098183473584 -0.6537509088456736 7.949620366695553e-17 3.5500688720008793e-17 7.949620366695553e-17 3.5500688720008793e-17 -0.7567093982639174 -0.6537513950875344
12639501333.333334 -0.7626399830819705 -0.6468232032051486 7.980412267261304e-17 3.4760406460771903e-17 7.980412267261304e-17 3.4760406460771903e-17 -0.7626395674703926 -0.6468236932336433
12640118666.666666 -0.7685067267051443 -0.6398417077752762 8.010515419720996e-17 3.40174658271266e-17 8.010515419720996e-17 3.40174658271266e-17 -0.7685063155995535 -0.6398422015492863
12640736000.0 -0.7743095613388787 -0.6328070031368416 8.039927541080711e-17 3.327193084297137e-17 8.039927541080711e-17 3.327193084297137e-17 -0.7743091547730203 -0.6328075006149406
12641353333.333334 -0.7800480044196233 -0.6257196742957668 8.068646407808701e-17 3.252386572711261e-17 8.068646407808701e-17 3.252386572711261e-17 -0.7800476024268627 -0.6257201754362252
12641970666.666666 -0.7857215787387734 -0.6185803106340253 8.096669856002302e-17 3.177333488770289e-17 8.096669856002302e-17 3.177333488770289e-17 -0.7857211813520917 -0.6185808153948122
12642588000.0 -0.7913298124821537 -0.6113895058608688 8.123995781547482e-17 3.102040291672282e-17 8.123995781547482e-17 3.102040291672282e-17 -0.7913294197341463 -0.611390014199657
12643205333.333334 -0.7968722392693448 -0.6041478579633447 8.150622140273309e-17 3.026513458444716e-17 8.150622140273309e-17 3.026513458444716e-17 -0.796871851192218 -0.6041483698375133
12643822666.666666 -0.8023483981924313 -0.596855969156611 8.176546948102496e-17 2.9507594833868155e-17 8.176546948102496e-17 2.9507594833868155e-17 -0.8023480148179999 -0.5968564845232496
12644440000.0 -0.8077578338543127 -0.5895144458338792 8.201768281195418e-17 2.874784877514089e-17 8.201768281195418e-17 2.874784877514089e-17 -0.8077574552139977 -0.5895149646497911
12645057333.333334 -0.8131000964065765 -0.5821238985159874 8.226284276090074e-17 2.7985961679989066e-17 8.226284276090074e-17 2.7985961679989066e-17 -0.813099722531402 -0.5821244207376933
12645674666.666666 -0.8183747415868943 -0.5746849418006549 8.250093129835918e-17 2.7221998976124722e-17 8.250093129835918e-17 2.7221998976124722e-17 -0.818374372507483 -0.5746854673843953
12646292000.0 -0.8235813307561384 -0.5671981943111115 8.273193100123827e-17 2.645602624161707e-17 8.273193100123827e-17 2.645602624161707e-17 -0.8235809665027151 -0.5671987232128539
12646909333.333334 -0.8287194309345577 -0.5596642786450998 8.295582505409055e-17 2.5688109199309727e-17 8.295582505409055e-17 2.5688109199309727e-17 -0.8287190715369402 -0.5596648108205385
12647526666.666666 -0.8337886148380076 -0.5520838213227723 8.317259725030641e-17 2.4918313711173562e-17 8.317259725030641e-17 2.4918313711173562e-17 -0.8337882603256079 -0.5520843567273341
12648144000.0 -0.8387884609134482 -0.544457452734634 8.338223199325167e-17 2.4146705772664078e-17 8.338223199325167e-17 2.4146705772664078e-17 -0.8387881113152694 -0.5444579913234817
12648761333.333334 -0.8437185533739264 -0.5367858070892403 8.35847142973442e-17 2.3373351507100482e-17 8.35847142973442e-17 2.3373351507100482e-17 -0.8437182087185598 -0.5367863488172762
12649378666.666666 -0.8485784822332108 -0.5290695223603594 8.378002978908794e-17 2.2598317160003065e-17 8.378002978908794e-17 2.2598317160003065e-17 -0.8485781425488341 -0.5290700671822293
12649996000.0 -0.8533678433398731 -0.5213092402339433 8.396816470805392e-17 2.1821669093424596e-17 8.396816470805392e-17 2.1821669093424596e-17 -0.8533675086542482 -0.5213097881040399
12650613333.333334 -0.8580862384109136 -0.513505606054741 8.414910590780773e-17 2.1043473780279032e-17 8.414910590780773e-17 2.1043473780279032e-17 -0.858085908751383 -0.5135061569272082
12651230666.666666 -0.8627332750648044 -0.5056592687727527 8.432284085677737e-17 2.0263797798689035e-17 8.432284085677737e-17 2.0263797798689035e-17 -0.8627329504582909 -0.5056598226014892
12651848000.0 -0.8673085668542556 -0.49777088088904387 8.448935763908357e-17 1.9482707826269632e-17 8.448935763908357e-17 1.9482707826269632e-17 -0.8673082473272596 -0.4977714376277073
12652465333.333334 -0.871811733298277 -0.4898410984016054 8.464864495530313e-17 1.8700270634465512e-17 8.464864495530313e-17 1.8700270634465512e-17 -0.8718114188768729 -0.4898416580036154
12653082666.666666 -0.8762423999137343 -0.48187058075094846 8.480069212318797e-17 1.7916553082846553e-17 8.480069212318797e-17 1.7916553082846553e-17 -0.8762420906235704 -0.4818711431694917
12653700000.0 -0.8806001982466884 -0.4738599907649201 8.494548907833086e-17 1.713162211339795e-17 8.494548907833086e-17 1.713162211339795e-17 -0.8805998941129826 -0.47386055595295296
12654317333.333334 -0.8848847659028277 -0.46580999460395417 8.508302637477307e-17 1.634554474483971e-17 8.508302637477307e-17 1.634554474483971e-17 -0.884884466950367 -0.4658105625142075
12654934666.666666 -0.8890957465777285 -0.4577212617054498 8.521329518556747e-17 1.5558388066895668e-17 8.521329518556747e-17 1.5558388066895668e-17 -0.8890954528308681 -0.4577218322904335
12655552000.0 -0.8932327900865374 -0.44959446472799985 8.533628730328406e-17 1.4770219234582988e-17 8.533628730328406e-17 1.4770219234582988e-17 -0.8932325015691954 -0.44959503794000505
12656169333.333334 -0.8972955523928945 -0.44143027949583036 8.545199514046196e-17 1.398110546250808e-17 8.545199514046196e-17 1.398110546250808e-17 -0.8972952691285532 -0.44143085528693504
12656786666.666666 -0.9012836956377281 -0.43322938494224605 8.556041173001195e-17 1.3191114019137867e-17 8.556041173001195e-17 1.3191114019137867e-17 -0.901283417649429 -0.4332299632643176
12657404000.0 -0.90519688816727 -0.424992463053321 8.566153072556453e-17 1.2400312221080879e-17 8.566153072556453e-17 1.2400312221080879e-17 -0.9051966154776158 -0.4249930438580221
12658021333.333334 -0.9090348045606528 -0.41672019881116085 8.575534640176509e-17 1.1608767427363946e-17 8.575534640176509e-17 1.1608767427363946e-17 -0.909034537191802 -0.416720782049952
12658638666.666666 -0.9127971256569569 -0.40841328013696454 8.584185365451722e-17 1.0816547033710205e-17 8.584185365451722e-17 1.0816547033710205e-17 -0.9127968636306245 -0.4084138657611086
12659256000.0 -0.9164835385818014 -0.40007239783371396 8.592104800117315e-17 1.0023718466803767e-17 8.592104800117315e-17 1.0023718466803767e-17 -0.9164832819192544 -0.40007298579427997
12659873333.333334 -0.9200937367733 -0.3916982455288548 8.599292558067038e-17 9.230349178576158e-18 8.599292558067038e-17 9.230349178576158e-18 -0.9200934854953587 -0.3916988357767225
12660490666.666666 -0.9236274200075489 -0.3832915196166429 8.605748315361563e-17 8.436506640485455e-18 8.605748315361563e-17 8.436506640485455e-18 -0.9236271741345838 -0.38329211210250685
12661108000.0 -0.927084294423694 -0.3748529191999967 8.611471810232026e-17 7.642258337756867e-18 8.611471810232026e-17 7.642258337756867e-18 -0.9270840539756227 -0.37485351387436955
12661725333.333334 -0.9304640725482514 -0.36638314603261957 8.616462843077502e-17 6.847671763707601e-18 8.616462843077502e-17 6.847671763707601e-18 -0.9304638375445401 -0.36638374284583747
12662342666.666666 -0.9337664733190759 -0.3578829044605135 8.620721276458e-17 6.052814413987581e-18 8.620721276458e-17 6.052814413987581e-18 -0.9337662437787358 -0.3578835033627394
12662960000.0 -0.936991222108719 -0.3493529013634301 8.624247035081721e-17 5.257753780873622e-18 8.624247035081721e-17 5.257753780873622e-18 -0.9369909980503048 -0.34935350230465795
12663577333.333334 -0.9401380507472689 -0.34079384609608804 8.62704010578724e-17 4.462557347551454e-18 8.62704010578724e-17 4.462557347551454e-18 -0.9401378321888777 -0.34079444902614714
12664194666.666666 -0.9432066975446486 -0.3322064504291813 8.629100537520399e-17 3.6672925823908904e-18 8.629100537520399e-17 3.6672925823908904e-18 -0.9432064845039188 -0.33220705529774053
12664812000.0 -0.9461969073123724 -0.32359142849021694 8.630428441305901e-17 2.8720269332490517e-18 8.630428441305901e-17 2.8720269332490517e-18 -0.946196699806482 -0.3235920352467892
12665429333.333334 -0.9491084313848124 -0.314949496703993 8.631023990213724e-17 2.076827821750538e-18 8.631023990213724e-17 2.076827821750538e-18 -0.9491082294304769 -0.3149501052979387
12666046666.666666 -0.9519410276397744 -0.30628137373331693 8.630887419320224e-17 1.2817626376015054e-18 8.630887419320224e-17 1.2817626376015054e-18 -0.9519408312532462 -0.3062819841138487
12666664000.0 -0.954694460518771 -0.29758778041883666 8.630019025664105e-17 4.868987328546974e-19 8.630019025664105e-17 4.868987328546974e-19 -0.9546942697158384 -0.2975883925350237
12667281333.333334 -0.9573685010464772 -0.2888694397195018 8.628419168197019e-17 -3.0769658373425374e-19 8.628419168197019e-17 -3.0769658373425374e-19 -0.9573683158424617 -0.2888700535202738
12667898666.666666 -0.9599629268498502 -0.2801270766521985 8.626088267729052e-17 -1.1019560524280485e-18 8.626088267729052e-17 -1.1019560524280485e-18 -0.9599627472596071 -0.28012769208635
12668516000.0 -0.9624775221766536 -0.2713614182313474 8.623026806868905e-17 -1.8958124681833088e-18 8.623026806868905e-17 -1.8958124681833088e-18 -0.9624773482145689 -0.271362035247542
12669133333.333334 -0.9649120779132754 -0.2625731934088535 8.619235329958955e-17 -2.6891986863119767e-18 8.619235329958955e-17 -2.6891986863119767e-18 -0.9649119095932682 -0.26257381195562896
12669750666.666666 -0.9672663916022368 -0.2537631330131067 8.614714443005029e-17 -3.4820476281574525e-18 8.614714443005029e-17 -3.4820476281574525e-18 -0.9672662289377526 -0.25376375303887766
12670368000.0 -0.9695402674589788 -0.24493196968833983 8.609464813601013e-17 -4.274292286753115e-18 8.609464813601013e-17 -4.274292286753115e-18 -0.9695401104629945 -0.24493259114140378
12670985333.333334 -0.9717335163881262 -0.23608043783381483 8.603487170848321e-17 -5.065865732462788e-18 8.603487170848321e-17 -5.065865732462788e-18 -0.9717333650731436 -0.2360810606623549
