! Parameters = {f0=12700.012000; bw=77.238000; Q=6100.000000; N=10; m_0_1=1.326221; m_1_1=1.128573; m_1_2=1.161033; m_2_2=1.127924; m_2_3=0.797996; m_2_8=0.003375; m_2_9=0.040079; m_3_3=1.125987; m_3_4=0.686525; m_3_7=0.003975; m_3_8=-0.093113; m_3_9=0.003375; m_4_4=1.123062; m_4_5=0.522860; m_4_6=0.007492; m_4_7=-0.113662; m_4_8=0.003975; m_5_5=1.123444; m_5_6=0.930215; m_5_7=0.007492; m_6_6=1.123443; m_6_7=0.523202; m_7_7=1.123076; m_7_8=0.686643; m_8_8=1.125985; m_8_9=0.798309; m_9_9=1.127919; m_9_10=1.162111; m_10_10=1.128563; m_10_11=1.327016}
!
! Created with skrf (http://scikit-rf.org).
# Hz S RI R 50.0 
!freq ReS11 ImS11 ReS21 ImS21 ReS12 ImS12 ReS22 ImS22
12607400000.0 -0.21096287731107438 -0.9774940738421081 6.87028035241589e-17 1.2558975354401176e-16 6.87028035241589e-17 1.2558975354401176e-16 -0.21096219440884184 -0.977494221225892
12608017333.333334 -0.22285768127711908 -0.9748509906111772 7.0225285840542e-17 1.2471265504687278e-16 7.0225285840542e-17 1.2471265504687278e-16 -0.22285700025474955 -0.9748511462973524
12608634666.666666 -0.23471939705900158 -0.9720631690605641 7.173659323689029e-17 1.2381711318925433e-16 7.173659323689029e-17 1.2381711318925433e-16 -0.23471871801741873 -0.9720633330252029
12609252000.0 -0.24654626352111078 -0.9691310231045062 7.323650245356937e-17 1.2290327008079142e-16 7.323650245356937e-17 1.2290327008079142e-16 -0.24654558656093478 -0.9691311953224557
12609869333.333334 -0.2583365247020501 -0.9660549880853961 7.472479203496411e-17 1.219712705316802e-16 7.472479203496411e-17 1.219712705316802e-16 -0.258335849923582 -0.9660551685302801
12610486666.666666 -0.27008843007510064 -0.9628355207092093 7.620124236208902e-17 1.210212620298348e-16 7.620124236208902e-17 1.210212620298348e-16 -0.270087757578308 -0.962835709353433
12611104000.0 -0.2818002348086213 -0.9594730989775662 7.766563568500172e-17 1.2005339471758982e-16 7.766563568500172e-17 1.2005339471758982e-16 -0.2817995646931226 -0.9594732957923184
12611721333.333334 -0.2934702000245027 -0.9559682221169209 7.911775615478538e-17 1.1906782136810094e-16 7.911775615478538e-17 1.1906782136810094e-16 -0.29346953238955387 -0.9559684270721832
12612338666.666666 -0.3050965930568102 -0.9523214105043193 8.055738985536597e-17 1.1806469736127246e-16 8.055738985536597e-17 1.1806469736127246e-16 -0.30509592800128865 -0.9523216235688654
12612956000.0 -0.3166776877089241 -0.9485332055901565 8.198432483495349e-17 1.170441806593471e-16 8.198432483495349e-17 1.170441806593471e-16 -0.31667702533131503 -0.9485334267315608
12613573333.333334 -0.32821176450964384 -0.9446041698178522 8.339835113716312e-17 1.160064317821281e-16 8.339835113716312e-17 1.160064317821281e-16 -0.32821110490802513 -0.9446043990024928
12614190666.666666 -0.3396971109686449 -0.940534886540294 8.479926083188653e-17 1.1495161378178055e-16 8.479926083188653e-17 1.1495161378178055e-16 -0.33969645424067263 -0.9405351237333576
12614808000.0 -0.3511320218307615 -0.936325959933211 8.618684804577975e-17 1.138798922173083e-16 8.618684804577975e-17 1.138798922173083e-16 -0.35113136807365547 -0.9363262050986988
12615425333.333334 -0.36251479932911607 -0.9319780149054908 8.756090899248251e-17 1.1279143512862638e-16 8.756090899248251e-17 1.1279143512862638e-16 -0.36251414863964543 -0.9319782680062237
12616042666.666666 -0.3738437534371106 -0.9274916970064264 8.892124200247468e-17 1.1168641301029474e-16 8.892124200247468e-17 1.1168641301029474e-16 -0.37384310591158 -0.9274919580040522
12616660000.0 -0.38511720211950956 -0.9228676723298144 9.026764755262256e-17 1.1056499878487972e-16 9.026764755262256e-17 1.1056499878487972e-16 -0.38511655785374416 -0.9228679411848107
12617277333.333334 -0.39633347158211896 -0.9181066274150692 9.159992829537425e-17 1.0942736777597189e-16 9.159992829537425e-17 1.0942736777597189e-16 -0.3963328306714512 -0.9181069040867529
12617894666.666666 -0.407490896520093 -0.9132092691453906 9.291788908762908e-17 1.0827369768084393e-16 9.291788908762908e-17 1.0827369768084393e-16 -0.4074902590593471 -0.9132095535919204
12618512000.0 -0.4185878203656263 -0.9081763246426117 9.42213370192842e-17 1.0710416854274138e-16 9.42213370192842e-17 1.0710416854274138e-16 -0.41858718644910525 -0.9081766168209959
12619129333.333334 -0.4296225955334409 -0.90300854115945 9.551008144135832e-17 1.0591896272289919e-16 9.551008144135832e-17 1.0591896272289919e-16 -0.4296219652549125 -0.9030088410255546
12619746666.666666 -0.44059358366569296 -0.8977066859684354 9.67839339938645e-17 1.0471826487213153e-16 9.67839339938645e-17 1.0471826487213153e-16 -0.4405929571183753 -0.8977069934769882
12620364000.0 -0.4514991558752461 -0.8922715462479729 9.804270863326529e-17 1.0350226190214036e-16 9.804270863326529e-17 1.0350226190214036e-16 -0.4514985331517952 -0.8922718613525731
12620981333.333334 -0.4623376929871868 -0.8867039289656353 9.928622165956154e-17 1.0227114295650537e-16 9.928622165956154e-17 1.0227114295650537e-16 -0.4623370741796809 -0.8867042516187572
12621598666.666666 -0.4731075857796577 -0.8810046607581329 1.0051429174305548e-16 1.0102509938131239e-16 1.0051429174305548e-16 1.0102509938131239e-16 -0.4731069709795851 -0.8810049909111356
12622216000.0 -0.48380723522245317 -0.8751745878087491 1.0172673995073111e-16 9.976432469547488e-17 1.0172673995073111e-16 9.976432469547488e-17 -0.48380662452069856 -0.8751749254118838
12622833333.333334 -0.49443505271465876 -0.8692145757215887 1.0292338977225826e-16 9.848901456074638e-17 1.0292338977225826e-16 9.848901456074638e-17 -0.4944344462014885 -0.8692149207240032
12623450666.666666 -0.5049894603203366 -0.8631255093931494 1.04104067145605e-16 9.719936675143944e-17 1.04104067145605e-16 9.719936675143944e-17 -0.5049888580853878 -0.8631258617429004
12624068000.0 -0.5154688910028598 -0.8569082928809192 1.0526860048232165e-16 9.589558112378581e-17 1.0526860048232165e-16 9.589558112378581e-17 -0.5154682931351242 -0.856908652524976
12624685333.333334 -0.5258717888577397 -0.8505638492690418 1.0641682069240226e-16 9.457785958503496e-17 1.0641682069240226e-16 9.457785958503496e-17 -0.5258711954455532 -0.8505642161532971
12625302666.666666 -0.5361966093432974 -0.8440931205314725 1.0754856120874689e-16 9.324640606227651e-17 1.0754856120874689e-16 9.324640606227651e-17 -0.5361960204743255 -0.8440934946007491
12625920000.0 -0.5464418195103954 -0.8374970673918666 1.0866365801129856e-16 9.190142647089278e-17 1.0866365801129856e-16 9.190142647089278e-17 -0.5464412352716199 -0.8374974485899254
12626537333.333334 -0.5566058982296037 -0.8307766691812092 1.0976194965069909e-16 9.054312868282932e-17 1.0976194965069909e-16 9.054312868282932e-17 -0.556605318707311 -0.8307770574507586
12627154666.666666 -0.5666873364173363 -0.8239329236922338 1.1084327727162717e-16 8.917172249449132e-17 1.1084327727162717e-16 8.917172249449132e-17 -0.5666867616971042 -0.8239333189749383
12627772000.0 -0.576684637259975 -0.816966847031224 1.1190748463571142e-16 8.778741959438874e-17 1.1190748463571142e-16 8.778741959438874e-17 -0.5766840674266596 -0.8169672492677119
12628389333.333334 -0.5865963164357056 -0.8098794734674223 1.1295441814399233e-16 8.63904335305744e-17 1.1295441814399233e-16 8.63904335305744e-17 -0.5865957515734301 -0.8098798825972965
12629006666.666666 -0.5964209023353916 -0.8026718552791328 1.1398392685907124e-16 8.498097967769268e-17 1.1398392685907124e-16 8.498097967769268e-17 -0.5964203425275318 -0.8026722712409777
12629624000.0 -0.6061569362807151 -0.795345062597729 1.14995862526762e-16 8.35592752038821e-17 1.14995862526762e-16 8.35592752038821e-17 -0.6061563816098892 -0.7953454853291209
12630241333.333334 -0.6158029727409361 -0.787900183248636 1.1599007959738563e-16 8.21255390373461e-17 1.1599007959738563e-16 8.21255390373461e-17 -0.6158024232889909 -0.7879006126861526
12630858666.666666 -0.6253575795472879 -0.7803383225899941 1.169664352466074e-16 8.067999183273127e-17 1.169664352466074e-16 8.067999183273127e-17 -0.625357035395288 -0.7803387586692239
12631476000.0 -0.6348193381060179 -0.7726606033482268 1.1792478939591707e-16 7.922285593716884e-17 1.1792478939591707e-16 7.922285593716884e-17 -0.6348187993342326 -0.7726610460037775
12632093333.333334 -0.6441868436085401 -0.7648681654517165 1.1886500473261329e-16 7.77543553561851e-17 1.1886500473261329e-16 7.77543553561851e-17 -0.6441863102964327 -0.7648686146172273
12632710666.666666 -0.6534587052403025 -0.7569621658613318 1.197869467294063e-16 7.627471571931168e-17 1.197869467294063e-16 7.627471571931168e-17 -0.6534581774665165 -0.7569626214694798
12633328000.0 -0.6626335463872974 -0.7489437783986201 1.2069048366361047e-16 7.478416424543717e-17 1.2069048366361047e-16 7.478416424543717e-17 -0.6626330242296495 -0.7489442403811362
12633945333.333334 -0.6717100048403079 -0.7408141935716688 1.2157548663585565e-16 7.328292970801515e-17 1.2157548663585565e-16 7.328292970801515e-17 -0.6717094883757704 -0.7408146618593404
12634562666.666666 -0.6806867329971721 -0.7325746183983198 1.2244182958840888e-16 7.177124239998314e-17 1.2244182958840888e-16 7.177124239998314e-17 -0.6806862223018662 -0.7325750929210074
12635180000.0 -0.6895623980629773 -0.724226276226874 1.2328938932303543e-16 7.024933409850778e-17 1.2328938932303543e-16 7.024933409850778e-17 -0.6895618932121592 -0.7242267569135176
12635797333.333334 -0.6983356822478937 -0.7157704065544884 1.2411804551844751e-16 6.871743802947878e-17 1.2411804551844751e-16 6.871743802947878e-17 -0.698335183315945 -0.7157708933331208
12636414666.666666 -0.7070052829626915 -0.707208264843288 1.2492768074728457e-16 6.717578883184746e-17 1.2492768074728457e-16 6.717578883184746e-17 -0.7070047900231078 -0.7072087576410443
12637032000.0 -0.7155699130123813 -0.6985411223337256 1.2571818049267088e-16 6.562462252173122e-17 1.2571818049267088e-16 6.562462252173122e-17 -0.7155694261377624 -0.6985416210768556
12637649333.333334 -0.7240283007871874 -0.6897702658559781 1.264894331643268e-16 6.406417645632848e-17 1.264894331643268e-16 6.406417645632848e-17 -0.7240278200492242 -0.6897707704698544
12638266666.666666 -0.7323791904513023 -0.6808969976389254 1.2724133011422287e-16 6.249468929766315e-17 1.2724133011422287e-16 6.249468929766315e-17 -0.7323787159207684 -0.6808975080480575
12638884000.0 -0.740621342129468 -0.6719226351166883 1.2797376565179507e-16 6.091640097612929e-17 1.2797376565179507e-16 6.091640097612929e-17 -0.7406208738762076 -0.6719231512447316
12639501333.333334 -0.7487535320910167 -0.6628485107330603 1.2868663705869905e-16 5.932955265387694e-17 1.2868663705869905e-16 5.932955265387694e-17 -0.7487530701839362 -0.6628490325028294
12640118666.666666 -0.7567745529313769 -0.6536759717438938 1.2937984460311767e-16 5.773438668801619e-17 1.2937984460311767e-16 5.773438668801619e-17 -0.7567740974384338 -0.6536764990773737
12640736000.0 -0.7646832137518442 -0.6444063800164925 1.3005329155363267e-16 5.613114659360738e-17 1.3005329155363267e-16 5.613114659360738e-17 -0.7646827647400373 -0.6444069128348495
12641353333.333334 -0.7724783403357063 -0.6350411118282039 1.3070688419257594e-16 5.4520077006639205e-17 1.3070688419257594e-16 5.4520077006639205e-17 -0.7724778978710646 -0.6350416500517969
12641970666.666666 -0.7801587753231035 -0.6255815576614808 1.3134053182900786e-16 5.290142364665314e-17 1.3134053182900786e-16 5.290142364665314e-17 -0.7801583394706783 -0.6255821012098748
12642588000.0 -0.7877233783826946 -0.6160291219976233 1.3195414681116895e-16 5.127543327937052e-17 1.3195414681116895e-16 5.127543327937052e-17 -0.7877229492065495 -0.6160296707896007
12643205333.333334 -0.7951710263809322 -0.6063852231083005 1.3254764453849607e-16 4.9642353679118104e-17 1.3254764453849607e-16 4.9642353679118104e-17 -0.7951706039441327 -0.6063857770618729
12643822666.666666 -0.8025006135489019 -0.5966512928448616 1.3312094347317506e-16 4.800243359110813e-17 1.3312094347317506e-16 4.800243359110813e-17 -0.802500197913507 -0.5966518518772822
12644440000.0 -0.8097110516464283 -0.5868287764258368 1.3367396515121767e-16 4.6355922693617507e-17 1.3367396515121767e-16 4.6355922693617507e-17 -0.8097106428734808 -0.5868293404536126
12645057333.333334 -0.8168012701236002 -0.5769191322224307 1.342066341930745e-16 4.470307156003381e-17 1.342066341930745e-16 4.470307156003381e-17 -0.8168008682731198 -0.5769197011613366
12645674666.666666 -0.8237702162798217 -0.5669238315418619 1.3471887831378297e-16 4.304413162076982e-17 1.3471887831378297e-16 4.304413162076982e-17 -0.8237698214107925 -0.56692440530695
12646292000.0 -0.8306168554201664 -0.5568443584088136 1.3521062833266082e-16 4.1379355125013967e-17 1.3521062833266082e-16 4.1379355125013967e-17 -0.8306164675905319 -0.5568449369144298
12646909333.333334 -0.8373401710087468 -0.5466822093454767 1.356818181824804e-16 3.970899510252585e-17 1.356818181824804e-16 3.970899510252585e-17 -0.8373397902753988 -0.5466827925052701
12647526666.666666 -0.8439391648198974 -0.5364388931489796 1.3613238491822645e-16 3.8033305325148714e-17 1.3613238491822645e-16 3.8033305325148714e-17 -0.8439387912386689 -0.536439480875917
12648144000.0 -0.8504128570863025 -0.5261159306674922 1.365622687253489e-16 3.6352540268329047e-17 1.365622687253489e-16 3.6352540268329047e-17 -0.8504124907119585 -0.5261165228738706
12648761333.333334 -0.8567602866444297 -0.5157148545744664 1.3697141292754533e-16 3.466695507252981e-17 1.3697141292754533e-16 3.466695507252981e-17 -0.8567599275306617 -0.5157154511719272
12649378666.666666 -0.862980511077186 -0.50523720914118 1.3735976399406715e-16 3.2976805504566575e-17 1.3735976399406715e-16 3.2976805504566575e-17 -0.8629801592766 -0.5052378100407202
12649996000.0 -0.8690726068540094 -0.49468455000715816 1.3772727154656328e-16 3.128234791880599e-17 1.3772727154656328e-16 3.128234791880599e-17 -0.8690722624181232 -0.4946851551191463
12650613333.333334 -0.8750356694678336 -0.4840584439494767 1.380738883654298e-16 2.958383921835706e-17 1.380738883654298e-16 2.958383921835706e-17 -0.8750353324470642 -0.48405905318366327
12651230666.666666 -0.8808688135694215 -0.47336046865006387 1.3839957039568183e-16 2.7881536816199045e-17 1.3839957039568183e-16 2.7881536816199045e-17 -0.8808684840130817 -0.47336108191559667
12651848000.0 -0.8865711730988995 -0.46259221246130905 1.387042767523661e-16 2.617569859615774e-17 1.387042767523661e-16 2.617569859615774e-17 -0.8865708510551884 -0.4625928296667464
12652465333.333334 -0.8921419014142455 -0.45175527417041084 1.3898796972546964e-16 2.446658287393551e-17 1.3898796972546964e-16 2.446658287393551e-17 -0.8921415869302421 -0.45175589522373466
12653082666.666666 -0.8975801714169422 -0.44085126276210335 1.3925061478435923e-16 2.2754448358057002e-17 1.3925061478435923e-16 2.2754448358057002e-17 -0.8975798645385992 -0.4408518875707339
12653700000.0 -0.9028851756749985 -0.42988179717933694 1.3949218058174954e-16 2.1039554110695052e-17 1.3949218058174954e-16 2.1039554110695052e-17 -0.9028848764471338 -0.42988242565014534
12654317333.333334 -0.9080561265425477 -0.4188485060834676 1.3971263895717117e-16 1.9322159508593667e-17 1.3971263895717117e-16 1.9322159508593667e-17 -0.9080558350088413 -0.41884913812279106
12654934666.666666 -0.9130922562770117 -0.40775302761201543 1.3991196493997403e-16 1.7602524203843817e-17 1.3991196493997403e-16 1.7602524203843817e-17 -0.9130919724799943 -0.40775366312566974
12655552000.0 -0.9179928171530267 -0.39659700913554374 1.4009013675184242e-16 1.5880908084672566e-17 1.4009013675184242e-16 1.5880908084672566e-17 -0.9179925411340782 -0.3965976480288387
12656169333.333334 -0.922757081573386 -0.38538210701325437 1.4024713580882393e-16 1.4157571236267964e-17 1.4024713580882393e-16 1.4157571236267964e-17 -0.9227568133727274 -0.38538274919100723
12656786666.666666 -0.9273843421771388 -0.37410998634691 1.4038294672288904e-16 1.243277390147397e-17 1.4038294672288904e-16 1.243277390147397e-17 -0.9273840818338247 -0.37411063171345893
12657404000.0 -0.9318739119446176 -0.3627823207335829 1.4049755730299704e-16 1.0706776441572429e-17 1.4049755730299704e-16 1.0706776441572429e-17 -0.9318736594965343 -0.36278296919280295
12658021333.333334 -0.9362251242994354 -0.35140079201720065 1.405909585556847e-16 8.979839297034832e-18 1.405909585556847e-16 8.979839297034832e-18 -0.9362248797832925 -0.3514014434725166
12658638666.666666 -0.9404373332073697 -0.3399670900390505 1.4066314468517557e-16 7.252222948269517e-18 1.4066314468517557e-16 7.252222948269517e-18 -0.9404370966586959 -0.339967744393452
12659256000.0 -0.9445099132724435 -0.32848291238645977 1.4071411309300417e-16 5.524187876357883e-18 1.4071411309300417e-16 5.524187876357883e-18 -0.9445096847255808 -0.32848356954251523
12659873333.333334 -0.9484422598296557 -0.3169499641410695 1.407438643771601e-16 3.79599452385807e-18 1.407438643771601e-16 3.79599452385807e-18 -0.9484420393177554 -0.3169506240009412
12660490666.666666 -0.9522337890347362 -0.30536995762576036 1.4075240233075128e-16 2.0679032556176256e-18 1.4075240233075128e-16 2.0679032556176256e-18 -0.9522335765897534 -0.30537062009121857
12661108000.0 -0.9558839379509745 -0.29374461214998837 1.4073973394018768e-16 3.4017431953315166e-19 1.4073973394018768e-16 3.4017431953315166e-19 -0.9558837336036629 -0.293745277122426
12661725333.333334 -0.9593921646326384 -0.2820756537550009 1.4070586938288338e-16 -1.3869321925251172e-18 1.4070586938288338e-16 -1.3869321925251172e-18 -0.9593919684125467 -0.2820763211354483
12662342666.666666 -0.9627579482055497 -0.2703648149572153 1.4065082202447926e-16 -3.1131563838500195e-18 1.4065082202447926e-16 -3.1131563838500195e-18 -0.9627577601410182 -0.27036548464635535
12662960000.0 -0.9659807889443504 -0.25861383449123426 1.405746084155882e-16 -4.838238591961517e-18 1.405746084155882e-16 -4.838238591961517e-18 -0.9659806090625048 -0.25861450638941647
12663577333.333334 -0.9690602083467474 -0.24682445705149977 1.404772482880603e-16 -6.561919427604262e-18 1.404772482880603e-16 -6.561919427604262e-18 -0.9690600366734959 -0.24682513105875523
12664194666.666666 -0.9719957492045356 -0.23499843303333626 1.4035876455077098e-16 -8.283939813708789e-18 1.4035876455077098e-16 -8.283939813708789e-18 -0.9719955857645654 -0.23499910904939292
12664812000.0 -0.9747869756714591 -0.22313751827314862 1.4021918328493394e-16 -1.0004041024266591e-17 1.4021918328493394e-16 -1.0004041024266591e-17 -0.9747868204882333 -0.22313819619744613
12665429333.333334 -0.9774334733279726 -0.21124347378753633 1.4005853373893526e-16 -1.1721964723181055e-17 1.4005853373893526e-16 -1.1721964723181055e-17 -0.9774333264237253 -0.21124415351924047
12666046666.666666 -0.9799348492427093 -0.19931806551207992 1.3987684832269692e-16 -1.3437453002980753e-17 1.3987684832269692e-16 -1.3437453002980753e-17 -0.9799347106384444 -0.19931874695009835
12666664000.0 -0.9822907320309026 -0.18736306403878802 1.3967416260155901e-16 -1.515024842354066e-17 1.3967416260155901e-16 -1.515024842354066e-17 -0.9822906017463884 -0.1873637470817846
12667281333.333334 -0.9845007719094184 -0.17538024435371383 1.3945051528970235e-16 -1.6860094050594782e-17 1.3945051528970235e-16 -1.6860094050594782e-17 -0.9845006499631874 -0.17538092890012424
12667898666.666666 -0.9865646407487835 -0.16337138557297423 1.392059482430839e-16 -1.856673349429253e-17 1.392059482430839e-16 -1.856673349429253e-17 -0.9865645271581276 -0.16337207152102076
12668516000.0 -0.9884820321218767 -0.15133827067868214 1.389405064519102e-16 -2.0269910947582608e-17 1.389405064519102e-16 -2.0269910947582608e-17 -0.9884819269028462 -0.151338957926389
12669133333.333334 -0.9902526613493758 -0.1392826862545609 1.3865423803264842e-16 -2.1969371224458907e-17 1.3865423803264842e-16 -2.1969371224458907e-17 -0.9902525645167767 -0.13928337469976917
12669750666.666666 -0.9918762655420966 -0.12720642222023684 1.3834719421955307e-16 -2.3664859798208433e-17 1.3834719421955307e-16 -2.3664859798208433e-17 -0.9918761771094868 -0.12720711176061972
