! Parameters = {f0=12700.012000; bw=77.238000; Q=6100.000000; N=10; m_0_1=1.285781; m_1_1=0.521966; m_1_2=1.120593; m_2_2=0.521317; m_2_3=0.757556; m_2_8=0.001353; m_2_9=0.038057; m_3_3=0.519380; m_3_4=0.646085; m_3_7=0.001953; m_3_8=-0.095135; m_3_9=0.001353; m_4_4=0.516455; m_4_5=0.482420; m_4_6=0.005470; m_4_7=-0.115684; m_4_8=0.001953; m_5_5=0.516837; m_5_6=0.889775; m_5_7=0.005470; m_6_6=0.516836; m_6_7=0.482762; m_7_7=0.516469; m_7_8=0.646203; m_8_8=0.519378; m_8_9=0.757869; m_9_9=0.521312; m_9_10=1.121671; m_10_10=0.521956; m_10_11=1.286576}
!
! Created with skrf (http://scikit-rf.org).
# Hz S RI R 50.0 
!freq ReS11 ImS11 ReS21 ImS21 ReS12 ImS12 ReS22 ImS22
12607400000.0 -0.79179470342406 -0.6107873178361048 1.110603036040788e-16 4.29542906739594e-17 1.110603036040788e-16 4.29542906739594e-17 -0.7917942896786105 -0.6107878541950256
12608017333.333334 -0.7984589848788837 -0.6020492085087419 1.1150749336645693e-16 4.171316669895302e-17 1.1150749336645693e-16 4.171316669895302e-17 -0.7984585770725644 -0.6020497493555449
12608634666.666666 -0.8050268386746758 -0.5932383913851812 1.1194082280534077e-16 4.046740932868164e-17 1.1194082280534077e-16 4.046740932868164e-17 -0.8050264368561537 -0.5932389366541145
12609252000.0 -0.8114974716302157 -0.5843559305231594 1.12360244174793e-16 3.921717324434311e-17 1.12360244174793e-16 3.921717324434311e-17 -0.8114970758474279 -0.5843564801479422
12609869333.333334 -0.8178701023053362 -0.5754028986326697 1.1276571145396565e-16 3.796261361605384e-17 1.1276571145396565e-16 3.796261361605384e-17 -0.8178697126054879 -0.5754034525465027
12610486666.666666 -0.8241439610952691 -0.5663803769464641 1.1315718035206831e-16 3.6703886083629075e-17 1.1315718035206831e-16 3.6703886083629075e-17 -0.824143577524825 -0.566380935082036
12611104000.0 -0.8303182903238128 -0.557289455089148 1.135346083131284e-16 3.5441146737289956e-17 1.135346083131284e-16 3.5441146737289956e-17 -0.8303179129284933 -0.5572900173786441
12611721333.333334 -0.836392344334512 -0.5481312309460563 1.138979545205214e-16 3.4174552098375015e-17 1.138979545205214e-16 3.4174552098375015e-17 -0.836391973159287 -0.5481317973211671
12612338666.666666 -0.8423653895809186 -0.5389068105303618 1.1424717990130928e-16 3.290425909993197e-17 1.1424717990130928e-16 3.290425909993197e-17 -0.8423650246700034 -0.5389073809222914
12612956000.0 -0.8482367047152232 -0.5296173078494308 1.145822471303478e-16 3.163042506731147e-17 1.145822471303478e-16 3.163042506731147e-17 -0.8482363461120715 -0.5296178821889047
12613573333.333334 -0.8540055806751402 -0.5202638447706468 1.149031206341719e-16 3.035320769875021e-17 1.149031206341719e-16 3.035320769875021e-17 -0.8540052284224404 -0.5202644229879207
12614190666.666666 -0.8596713207697395 -0.5108475508856151 1.152097665946842e-16 2.9072765045840693e-17 1.152097665946842e-16 2.9072765045840693e-17 -0.8596709749094082 -0.5108481329104831
12614808000.0 -0.8652332407635496 -0.5013695633737902 1.155021529526146e-16 2.7789255494010974e-17 1.155021529526146e-16 2.7789255494010974e-17 -0.8652329013367277 -0.5013701491355937
12615425333.333334 -0.870690668959105 -0.4918310268652907 1.1578024941076016e-16 2.6502837742980933e-17 1.1578024941076016e-16 2.6502837742980933e-17 -0.8706903360061525 -0.49183161629292643
12616042666.666666 -0.8760429462781794 -0.4822330933024674 1.1604402743701505e-16 2.5213670787161612e-17 1.1604402743701505e-16 2.5213670787161612e-17 -0.8760426198386709 -0.48223368632439684
12616660000.0 -0.8812894263412835 -0.47257692180096045 1.1629346026718135e-16 2.3921913896025768e-17 1.1629346026718135e-16 2.3921913896025768e-17 -0.8812891064540024 -0.47257751834521755
12617277333.333334 -0.8864294755457796 -0.4628636785096161 1.1652852290755642e-16 2.262772659448224e-17 1.1652852290755642e-16 2.262772659448224e-17 -0.8864291622487156 -0.4628642785038173
12617894666.666666 -0.8914624731423759 -0.4530945364697059 1.1674919213730803e-16 2.1331268643196895e-17 1.1674919213730803e-16 2.1331268643196895e-17 -0.891462166472718 -0.45309513984105715
12618512000.0 -0.8963878113101563 -0.44327067547313315 1.1695544651063115e-16 2.0032700018888954e-17 1.1695544651063115e-16 2.0032700018888954e-17 -0.8963875113042891 -0.44327128214843975
12619129333.333334 -0.9012048952298412 -0.43339328192023224 1.171472663586783e-16 1.8732180894658493e-17 1.171472663586783e-16 1.8732180894658493e-17 -0.9012046019233434 -0.433393891825909
12619746666.666666 -0.9059131431557942 -0.4234635486761623 1.173246337912841e-16 1.7429871620217608e-17 1.173246337912841e-16 1.7429871620217608e-17 -0.9059128565834299 -0.4234641617382398
12620364000.0 -0.9105119864861818 -0.4134826749270226 1.174875326984596e-16 1.6125932702174217e-17 1.174875326984596e-16 1.6125932702174217e-17 -0.9105117066818988 -0.4134832910711577
12620981333.333334 -0.9150008698316349 -0.40345186603505867 1.176359487516724e-16 1.4820524784284526e-17 1.176359487516724e-16 1.4820524784284526e-17 -0.9150005968285603 -0.4034524851865435
12621598666.666666 -0.9193792510823555 -0.3933723333930158 1.1776986940490758e-16 1.351380862768617e-17 1.1776986940490758e-16 1.351380862768617e-17 -0.9193789849127931 -0.3933729554767869
12622216000.0 -0.9236466014735657 -0.3832452942778958 1.1788928389551105e-16 1.2205945091121496e-17 1.1788928389551105e-16 1.2205945091121496e-17 -0.9236463421689894 -0.38324591921854245
12622833333.333334 -0.9278024056494177 -0.3730719717038176 1.1799418324481006e-16 1.0897095111183287e-17 1.1799418324481006e-16 1.0897095111183287e-17 -0.9278021532404696 -0.3730725994255915
12623450666.666666 -0.9318461617251198 -0.3628535942745785 1.1808456025851643e-16 9.587419682545319e-18 1.1808456025851643e-16 9.587419682545319e-18 -0.9318459162416084 -0.3628542247014039
12624068000.0 -0.9357773813476459 -0.3525913960350739 1.1816040952691403e-16 8.27707983816338e-18 1.1816040952691403e-16 8.27707983816338e-18 -0.9357771428185376 -0.35259202909055465
12624685333.333334 -0.9395955897547372 -0.34228661632215235 1.182217274248216e-16 6.9662366295228e-18 1.182217274248216e-16 6.9662366295228e-18 -0.9395953582081568 -0.3422872519295827
12625302666.666666 -0.943300325832075 -0.3319404996153995 1.1826851211133971e-16 5.65505110689839e-18 1.1826851211133971e-16 5.65505110689839e-18 -0.9433001012953023 -0.33194113769777345
12625920000.0 -0.9468911421691952 -0.3215542953862327 1.1830076352938066e-16 4.34368429953805e-18 1.1830076352938066e-16 4.34368429953805e-18 -0.94689092466866 -0.32155493586625256
12626537333.333334 -0.9503676051133145 -0.31112925794756585 1.1831848340497526e-16 3.0322971959879078e-18 1.1831848340497526e-16 3.0322971959879078e-18 -0.9503673946745943 -0.31112990074765184
12627154666.666666 -0.9537292948217925 -0.3006666463020906 1.1832167524636593e-16 1.7210507243124375e-18 1.1832167524636593e-16 1.7210507243124375e-18 -0.9537290914696099 -0.3006672913443905
12627772000.0 -0.9569758053129097 -0.2901677239899851 1.1831034434287798e-16 4.101057323801464e-19 1.1831034434287798e-16 4.101057323801464e-19 -0.9569756090711286 -0.2901683711963836
12628389333.333334 -0.9601067445147156 -0.2796337589368888 1.1828449776357514e-16 -9.003770317995248e-19 1.1828449776357514e-16 -9.003770317995248e-19 -0.9601065554063399 -0.279634408229017
12629006666.666666 -0.9631217343125739 -0.2690660233001546 1.1824414435569585e-16 -2.2102369398169045e-18 1.1824414435569585e-16 -2.2102369398169045e-18 -0.963121552359743 -0.2690666745993992
12629624000.0 -0.9660204105946749 -0.2584657933157032 1.1818929474287329e-16 -3.519313502459365e-18 1.1818929474287329e-16 -3.519313502459365e-18 -0.9660202358186616 -0.25846644654321593
12630241333.333334 -0.9688024232960832 -0.24783434914365002 1.1811996132313667e-16 -4.827446389391417e-18 1.1811996132313667e-16 -4.827446389391417e-18 -0.9688022557172928 -0.24783500422035815
12630858666.666666 -0.9714674364409922 -0.23717297471378765 1.1803615826669874e-16 -6.134475448713576e-18 1.1803615826669874e-16 -6.134475448713576e-18 -0.971467276078958 -0.23717363156040236
12631476000.0 -0.9740151281833302 -0.22648295757038944 1.1793790151352084e-16 -7.440240726602442e-18 1.1793790151352084e-16 -7.440240726602442e-18 -0.9740149750567123 -0.2264836161074161
12632093333.333334 -0.9764451908455635 -0.21576558871699336 1.1782520877067014e-16 -8.744582486788004e-18 1.1782520877067014e-16 -8.744582486788004e-18 -0.9764450449721471 -0.2157662488647412
12632710666.666666 -0.9787573309559149 -0.2050221624602429 1.1769809950945482e-16 -1.0047341230093903e-17 1.1769809950945482e-16 -1.0047341230093903e-17 -0.978757192352606 -0.20502282413883385
12633328000.0 -0.9809512692837875 -0.1942539762536312 1.1755659496234326e-16 -1.1348357713937506e-17 1.1755659496234326e-16 -1.1348357713937506e-17 -0.9809511379666146 -0.19425463938301077
12633945333.333334 -0.9830267408734837 -0.18346233054083977 1.1740071811967594e-16 -1.2647472971710672e-17 1.1740071811967594e-16 -1.2647472971710672e-17 -0.9830266168575923 -0.18346299504078573
12634562666.666666 -0.9849834950761911 -0.17264852859874333 1.1723049372615416e-16 -1.3944528332216056e-17 1.1723049372615416e-16 -1.3944528332216056e-17 -0.9849833783758442 -0.17264919438887583
12635180000.0 -0.9868212955802642 -0.16181387637996067 1.1704594827712163e-16 -1.5239365438986025e-17 1.1704594827712163e-16 -1.5239365438986025e-17 -0.9868211862088401 -0.16181454337975207
12635797333.333334 -0.9885399204397816 -0.15095968235502658 1.168471100146268e-16 -1.6531826269615518e-17 1.168471100146268e-16 -1.6531826269615518e-17 -0.9885398184097717 -0.15096035048381087
12636414666.666666 -0.9901391621013034 -0.1400872573546517 1.166340089232805e-16 -1.7821753154979775e-17 1.166340089232805e-16 -1.7821753154979775e-17 -0.9901390674243121 -0.1400879265316345
12637032000.0 -0.9916188274289801 -0.12919791441116507 1.164066767258929e-16 -1.9108988798467794e-17 1.164066767258929e-16 -1.9108988798467794e-17 -0.991618740115722 -0.12919858455543326
12637649333.333334 -0.9929787377278657 -0.1182929685999701 1.1616514687890277e-16 -2.0393376295129182e-17 1.1616514687890277e-16 -2.0393376295129182e-17 -0.9929786577881664 -0.1182936396305018
12638266666.666666 -0.9942187287654857 -0.10737373688086807 1.1590945456759863e-16 -2.167475915075239e-17 1.1590945456759863e-16 -2.167475915075239e-17 -0.9942186562082772 -0.10737440871654202
12638884000.0 -0.9953386507916768 -0.09644153793892755 1.1563963670112567e-16 -2.2952981300911593e-17 1.1563963670112567e-16 -2.2952981300911593e-17 -0.9953385856250003 -0.09644221049853342
12639501333.333334 -0.9963383685566852 -0.0854976920251177 1.153557319072819e-16 -2.4227887129956596e-17 1.153557319072819e-16 -2.4227887129956596e-17 -0.9963383107876901 -0.08549836522736573
12640118666.666666 -0.9972177613274703 -0.07454352079723324 1.150577805271168e-16 -2.5499321489884522e-17 1.150577805271168e-16 -2.5499321489884522e-17 -0.9972177109624087 -0.07454419456076375
12640736000.0 -0.9979767229023347 -0.06358034715960147 1.1474582460929633e-16 -2.6767129719267867e-17 1.1474582460929633e-16 -2.6767129719267867e-17 -0.9979766799465664 -0.06358102140299511
12641353333.333334 -0.9986151616236862 -0.05260949510419735 1.1441990790430054e-16 -2.803115766193581e-17 1.1441990790430054e-16 -2.803115766193581e-17 -0.9986151260816744 -0.05261016974598474
12641970666.666666 -0.9991330003891568 -0.04163228955006863 1.1408007585837376e-16 -2.929125168576571e-17 1.1408007585837376e-16 -2.929125168576571e-17 -0.9991329722644696 -0.04163296450874024
12642588000.0 -0.999530176660898 -0.03065005618352723 1.137263756072927e-16 -3.054725870130196e-17 1.137263756072927e-16 -3.054725870130196e-17 -0.9995301559562078 -0.030650731377543226
12643205333.333334 -0.999806642473128 -0.019664121298220334 1.133588559699292e-16 -3.179902618030423e-17 1.133588559699292e-16 -3.179902618030423e-17 -0.9998066291902101 -0.019664796646020433
12643822666.666666 -0.9999623644379328 -0.008675811634616712 1.1297756744159358e-16 -3.3046402174278035e-17 1.1297756744159358e-16 -3.3046402174278035e-17 -0.9999623585776671 -0.008676487054630025
12644440000.0 -0.999997323749291 0.002313545779879046 1.1258256218719755e-16 -3.428923533284616e-17 1.1258256218719755e-16 -3.428923533284616e-17 -0.9999973253116602 0.002312870369224174
12645057333.333334 -0.9999115161853501 0.013302623791329952 1.1217389403419475e-16 -3.552737492211051e-17 1.1217389403419475e-16 -3.552737492211051e-17 -0.9999115251694412 0.01330194847159608
12645674666.666666 -0.9997049521089374 0.024290095279486508 1.1175161846533537e-16 -3.676067084287977e-17 1.1175161846533537e-16 -3.676067084287977e-17 -0.9997049685129411 0.024289420132217257
12646292000.0 -0.9993776564663004 0.03527463331837184 1.1131579261120276e-16 -3.798897364886618e-17 1.1131579261120276e-16 -3.798897364886618e-17 -0.9993776802875102 0.03527395842508202
12646909333.333334 -0.9989296687841052 0.046254911335962524 1.1086647524257295e-16 -3.921213456473191e-17 1.1086647524257295e-16 -3.921213456473191e-17 -0.9989297000189215 0.04625423677812836
12647526666.666666 -0.9983610431646547 0.05722960327490648 1.1040372676256116e-16 -4.043000550408697e-17 1.1040372676256116e-16 -4.043000550408697e-17 -0.9983610818085812 0.057228929133955685
12648144000.0 -0.9976718482793566 0.0681973837524114 1.0992760919856679e-16 -4.16424390874083e-17 1.0992760919856679e-16 -4.16424390874083e-17 -0.9976718943270035 0.06819671010971341
12648761333.333334 -0.9968621673604268 0.07915692822042097 1.0943818619404282e-16 -4.284928865980849e-17 1.0943818619404282e-16 -4.284928865980849e-17 -0.9968622208055112 0.07915625515727716
12649378666.666666 -0.9959320981908533 0.09010691312537865 1.0893552300005489e-16 -4.405040830875308e-17 1.0893552300005489e-16 -4.405040830875308e-17 -0.9959321590261989 0.09010624072301243
12649996000.0 -0.9948817530925695 0.10104601606829608 1.0841968646663873e-16 -4.5245652881694536e-17 1.0841968646663873e-16 -4.5245652881694536e-17 -0.9948818213101092 0.10104534440784325
12650613333.333334 -0.9937112589128887 0.11197291596445565 1.0789074503398683e-16 -4.643487800355405e-17 1.0789074503398683e-16 -4.643487800355405e-17 -0.9937113345036627 0.11197224512695422
12651230666.666666 -0.9924207570092077 0.12288629320267061 1.0734876872343377e-16 -4.7617940094125834e-17 1.0734876872343377e-16 -4.7617940094125834e-17 -0.9924208399633683 0.12288562326905153
12651848000.0 -0.991010403231905 0.13378482980501924 1.0679382912823193e-16 -4.87946963854198e-17 1.0679382912823193e-16 -4.87946963854198e-17 -0.9910104935387166 0.13378416085609648
12652465333.333334 -0.989480367905532 0.14466720958584312 1.0622599940417661e-16 -4.9965004938809195e-17 1.0622599940417661e-16 -4.9965004938809195e-17 -0.9894804655533711 0.14466654170230359
12653082666.666666 -0.9878308358082714 0.15553211831050234 1.0564535426001247e-16 -5.1128724662143644e-17 1.0564535426001247e-16 -5.1128724662143644e-17 -0.9878309407846306 0.15553145157289677
12653700000.0 -0.986062006149553 0.16637824385459862 1.050519699476583e-16 -5.2285715326732144e-17 1.050519699476583e-16 -5.2285715326732144e-17 -0.9860621184410391 0.16637757834333114
12654317333.333334 -0.9841740925460775 0.17720427636184574 1.0444592425226068e-16 -5.3435837584190727e-17 1.0444592425226068e-16 -5.3435837584190727e-17 -0.9841742121384172 0.17720361215716487
12654934666.666666 -0.9821673229959719 0.18800890840262413 1.0382729648205059e-16 -5.457895298319897e-17 1.0382729648205059e-16 -5.457895298319897e-17 -0.9821674498740104 0.18800824558461252
12655552000.0 -0.9800419398512288 0.198790835131957 1.0319616745800724e-16 -5.571492398615737e-17 1.0319616745800724e-16 -5.571492398615737e-17 -0.9800420739989331 0.19879017378052208
12656169333.333334 -0.9777981997885188 0.2095487544466747 1.0255261950337914e-16 -5.684361398565613e-17 1.0255261950337914e-16 -5.684361398565613e-17 -0.9777983411889802 0.2095480946415392
12656786666.666666 -0.9754363737781256 0.22028136714302923 1.0189673643297824e-16 -5.796488732090793e-17 1.0189673643297824e-16 -5.796488732090793e-17 -0.9754365224135608 0.22028070896372118
12657404000.0 -0.9729567470512283 0.23098737707353872 1.0122860354231963e-16 -5.907860929401475e-17 1.0122860354231963e-16 -5.907860929401475e-17 -0.9729569029029826 0.23098672059938222
12658021333.333334 -0.9703596190654797 0.24166549130340884 1.005483075965867e-16 -6.018464618610382e-17 1.005483075965867e-16 -6.018464618610382e-17 -0.9703597821140282 0.2416648366135142
12658638666.666666 -0.9676453034688585 0.252314420266622 9.985593681941854e-17 -6.128286527334426e-17 9.985593681941854e-17 -6.128286527334426e-17 -0.967645473693809 0.2523137674398764
12659256000.0 -0.9648141280617003 0.26293287792203346 9.915158088149508e-17 -6.237313484287685e-17 9.915158088149508e-17 -6.237313484287685e-17 -0.9648143054417965 0.26293222703709135
12659873333.333334 -0.9618664347572106 0.27351958190826803 9.843533088900103e-17 -6.345532420853189e-17 9.843533088900103e-17 -6.345532420853189e-17 -0.9618666192703348 0.2735189330435419
12660490666.666666 -0.9588025795401628 0.28407325369867314 9.770727937187569e-17 -6.452930372648312e-17 9.770727937187569e-17 -6.452930372648312e-17 -0.958802771163337 0.2840726069323238
12661108000.0 -0.9556229324237975 0.2945926187560758 9.696752027190283e-17 -6.559494481074998e-17 9.696752027190283e-17 -6.559494481074998e-17 -0.9556231311331878 0.29459197416600286
12661725333.333334 -0.9523278774053074 0.305076406686133 9.621614893064757e-17 -6.665211994854265e-17 9.621614893064757e-17 -6.665211994854265e-17 -0.9523280831762261 0.3050757643499658
12662342666.666666 -0.948917812419306 0.3155233513912703 9.545326207720679e-17 -6.770070271549642e-17 9.545326207720679e-17 -6.770070271549642e-17 -0.9489180252262157 0.3155227113863585
12662960000.0 -0.9453931492898736 0.3259321912232597 9.467895781580626e-17 -6.874056779075074e-17 9.467895781580626e-17 -6.874056779075074e-17 -0.9453933691063892 0.3259315536266638
12663577333.333334 -0.9417543136807853 0.3363016691356933 9.389333561322205e-17 -6.977159097190312e-17 9.389333561322205e-17 -6.977159097190312e-17 -0.9417545404796787 0.33630103402417555
12664194666.666666 -0.9380017450440796 0.34663053283587414 9.309649628606072e-17 -7.079364918978993e-17 9.309649628606072e-17 -7.079364918978993e-17 -0.9380019787972812 0.34662990028588925
12664812000.0 -0.9341358965670504 0.3569175349358639 9.228854198785044e-17 -7.180662052316354e-17 9.228854198785044e-17 -7.180662052316354e-17 -0.9341361372456537 0.35691690502354956
12665429333.333334 -0.9301572351174301 0.3671614331033669 9.14695761959996e-17 -7.28103842131845e-17 9.14695761959996e-17 -7.28103842131845e-17 -0.930157482691696 0.36716080590453526
12666046666.666666 -0.9260662411871291 0.37736099021144476 9.06397036985921e-17 -7.380482067777782e-17 9.06397036985921e-17 -7.380482067777782e-17 -0.9260664956264878 0.37736036580157256
12666664000.0 -0.9218634088340633 0.38751497448829103 8.979903058099167e-17 -7.478981152587887e-17 8.979903058099167e-17 -7.478981152587887e-17 -0.9218636701071191 0.38751435294251096
12667281333.333334 -0.9175492456226025 0.3976221596656981 8.894766421236739e-17 -7.576523957143899e-17 8.894766421236739e-17 -7.576523957143899e-17 -0.9175495136971378 0.3976215410587897
12667898666.666666 -0.9131242725622434 0.4076813251272299 8.808571323198339e-17 -7.67309888473768e-17 8.808571323198339e-17 -7.67309888473768e-17 -0.9131245474052228 0.4076807095336108
12668516000.0 -0.9085890240445977 0.41769125605584073 8.721328753539169e-17 -7.768694461931113e-17 8.721328753539169e-17 -7.768694461931113e-17 -0.9085893056221701 0.4176906435495568
12669133333.333334 -0.9039440477790368 0.42765074358016886 8.633049826047503e-17 -7.86329933991406e-17 8.633049826047503e-17 -7.86329933991406e-17 -0.9039443360565431 0.42765013423488646
12669750666.666666 -0.8991899047263984 0.43755858492086597 8.543745777330009e-17 -7.956902295851158e-17 8.543745777330009e-17 -7.956902295851158e-17 -0.8991901996683731 0.43755797880986264
