! Parameters = {f0=12700.012000; bw=77.238000; Q=6100.000000; N=10; m_0_1=1.317412; m_1_1=0.996440; m_1_2=1.152224; m_2_2=0.995791; m_2_3=0.789187; m_2_8=0.002934; m_2_9=0.039638; m_3_3=0.993854; m_3_4=0.677716; m_3_7=0.003534; m_3_8=-0.093554; m_3_9=0.002934; m_4_4=0.990929; m_4_5=0.514051; m_4_6=0.007051; m_4_7=-0.114103; m_4_8=0.003534; m_5_5=0.991311; m_5_6=0.921406; m_5_7=0.007051; m_6_6=0.991310; m_6_7=0.514393; m_7_7=0.990943; m_7_8=0.677834; m_8_8=0.993852; m_8_9=0.789500; m_9_9=0.995786; m_9_10=1.153302; m_10_10=0.996430; m_10_11=1.318207}
!
! Created with skrf (http://scikit-rf.org).
# Hz S RI R 50.0 
!freq ReS11 ImS11 ReS21 ImS21 ReS12 ImS12 ReS22 ImS22
12607400000.0 -0.9223113700867905 -0.38644758584889327 1.3679453104241576e-16 1.4937790315666635e-17 1.3679453104241576e-16 1.4937790315666635e-17 -0.922311101891299 -0.38644822593442923
12608017333.333334 -0.9268539135335895 -0.37542219296051405 1.3693728908567553e-16 1.3290799306959177e-17 1.3693728908567553e-16 1.3290799306959177e-17 -0.9268536530024925 -0.37542283616709515
12608634666.666666 -0.9312646639239109 -0.364343417295408 1.3706022879207312e-16 1.1642535109042245e-17 1.3706022879207312e-16 1.1642535109042245e-17 -0.9312644110935033 -0.3643440635312734
12609252000.0 -0.9355429940756549 -0.35321283418891947 1.3716334018200356e-16 9.993236062136368e-18 1.3716334018200356e-16 9.993236062136368e-18 -0.9355427489811313 -0.3532134833618861
12609869333.333334 -0.9396882956361016 -0.3420320263430439 1.372466161405817e-16 8.34314056243368e-18 1.372466161405817e-16 8.34314056243368e-18 -0.9396880583115543 -0.34203267836052037
12610486666.666666 -0.94369997916832 -0.33080258360164444 1.373100524175452e-16 6.692487027724062e-18 1.373100524175452e-16 6.692487027724062e-18 -0.9436997496467324 -0.3308032383706436
12611104000.0 -0.947577474235195 -0.31952610272379767 1.373536476267497e-16 5.0415138629066526e-18 1.373536476267497e-16 5.0415138629066526e-18 -0.9475772525484383 -0.31952676015095055
12611721333.333334 -0.9513202294802723 -0.30820418715749387 1.3737740324524274e-16 3.3904594257119042e-18 1.3737740324524274e-16 3.3904594257119042e-18 -0.9513200156591011 -0.3082048471490629
12612338666.666666 -0.9549277127063508 -0.296838446811101 1.3738132361193375e-16 1.7395619922565418e-18 1.3738132361193375e-16 1.7395619922565418e-18 -0.9549275067803975 -0.29683910927299284
12612956000.0 -0.958399410951145 -0.2854304978244418 1.3736541592584526e-16 8.905972270567041e-20 1.3736541592584526e-16 8.905972270567041e-20 -0.9583992129489168 -0.285431162662221
12613573333.333334 -0.9617348305600768 -0.27398196233947714 1.37329690243956e-16 -1.5608093729841207e-18 1.37329690243956e-16 -1.5608093729841207e-18 -0.9617346405089516 -0.27398262945838003
12614190666.666666 -0.9649334972566397 -0.2624944682691058 1.3727415947863069e-16 -3.209807469395932e-18 1.3727415947863069e-16 -3.209807469395932e-18 -0.9649333151828624 -0.2624951375740535
12614808000.0 -0.967994956209753 -0.25096964906595526 1.3719883939463998e-16 -4.857696959865581e-18 1.3719883939463998e-16 -4.857696959865581e-18 -0.9679947821384309 -0.25097032046156725
12615425333.333334 -0.9709187720984522 -0.23940914349006065 1.371037486057698e-16 -6.504240490677014e-18 1.371037486057698e-16 -6.504240490677014e-18 -0.9709186060535532 -0.2394098168806686
12616042666.666666 -0.9737045291737898 -0.22781459537584273 1.3698890857102088e-16 -8.149200995203953e-18 1.3698890857102088e-16 -8.149200995203953e-18 -0.9737043711781381 -0.2278152706655041
12616660000.0 -0.9763518313179524 -0.21618765339836496 1.3685434359039969e-16 -9.792341727996749e-18 1.3685434359039969e-16 -9.792341727996749e-18 -0.976351681393225 -0.2161883304908764
12617277333.333334 -0.9788603021005914 -0.20452997083887334 1.3670008080030017e-16 -1.143342629881735e-17 1.3670008080030017e-16 -1.143342629881735e-17 -0.9788601602673161 -0.20453064963778478
12617894666.666666 -0.9812295848323197 -0.19284320534984944 1.3652615016848316e-16 -1.3072218706563155e-17 1.3652615016848316e-16 -1.3072218706563155e-17 -0.9812294511098725 -0.19284388575847763
12618512000.0 -0.9834593426154964 -0.18112901871899584 1.363325844886366e-16 -1.4708483373245586e-17 1.363325844886366e-16 -1.4708483373245586e-17 -0.9834592170220966 -0.1811297006404379
12619129333.333334 -0.985549258392049 -0.16938907663332953 1.361194193745501e-16 -1.6341985177700448e-17 1.361194193745501e-16 -1.6341985177700448e-17 -0.9855491409447599 -0.16938975997047714
12619746666.666666 -0.987499034988617 -0.15762504844205316 1.3588669325386605e-16 -1.79724894894053e-17 1.3588669325386605e-16 -1.79724894894053e-17 -0.987498925703341 -0.1576257330976062
12620364000.0 -0.989308395158801 -0.1458386069191825 1.3563444736143452e-16 -1.9599762202131293e-17 1.3563444736143452e-16 -1.9599762202131293e-17 -0.9893082940502779 -0.14583929279566266
12620981333.333334 -0.9909770816225457 -0.1340314280259405 1.3536272573227386e-16 -2.1223569767456206e-17 1.3536272573227386e-16 -2.1223569767456206e-17 -0.9909769887043522 -0.13403211502570572
12621598666.666666 -0.9925048571027701 -0.12220519067216558 1.3507157519411565e-16 -2.2843679228291943e-17 1.3507157519411565e-16 -2.2843679228291943e-17 -0.9925047723873173 -0.12220587869742351
12622216000.0 -0.9938915043590846 -0.11036157647772074 1.3476104535955982e-16 -2.445985825223647e-17 1.3476104535955982e-16 -2.445985825223647e-17 -0.9938914278576152 -0.11036226543054282
12622833333.333334 -0.9951368262186846 -0.09850226953332085 1.3443118861782587e-16 -2.6071875164857156e-17 1.3443118861782587e-16 -2.6071875164857156e-17 -0.9951367579412735 -0.09850295931565628
12623450666.666666 -0.9962406456043821 -0.08662895616117863 1.3408206012611576e-16 -2.76794989828243e-17 1.3408206012611576e-16 -2.76794989828243e-17 -0.9962405855599332 -0.08662964667486817
12624068000.0 -0.9972028055597955 -0.07474332467507806 1.3371371780056666e-16 -2.928249944700069e-17 1.3371371780056666e-16 -2.928249944700069e-17 -0.997202753756041 -0.07474401582186808
12624685333.333334 -0.9980231692716679 -0.06284706514027782 1.333262223068142e-16 -3.088064705538291e-17 1.333262223068142e-16 -3.088064705538291e-17 -0.9980231257151682 -0.06284775682183431
12625302666.666666 -0.9987016200893036 -0.0509418691334778 1.3291963705018327e-16 -3.247371309583743e-17 1.3291963705018327e-16 -3.247371309583743e-17 -0.9987015847854442 -0.05094256125140026
12625920000.0 -0.9992380615411773 -0.03902942950186141 1.3249402816544263e-16 -3.406146967889925e-17 1.3249402816544263e-16 -3.406146967889925e-17 -0.9992380344941731 -0.039030121957697075
12626537333.333334 -0.9996324173486381 -0.027111440122752076 1.3204946450622437e-16 -3.564368977021607e-17 1.3204946450622437e-16 -3.564368977021607e-17 -0.9996323985615261 -0.027112132818009612
12627154666.666666 -0.9998846314367544 -0.015189595662725588 1.3158601763401256e-16 -3.7220147223026285e-17 1.3158601763401256e-16 -3.7220147223026285e-17 -0.9998846209113984 -0.015190288498889296
12627772000.0 -0.9999946679423025 -0.0032655913361557764 1.311037618067539e-16 -3.879061681045801e-17 1.311037618067539e-16 -3.879061681045801e-17 -0.9999946656793921 -0.003266284214699575
12628389333.333334 -0.9999625112188498 0.00865887733501078 1.3060277396711724e-16 -4.035487425757123e-17 1.3060277396711724e-16 -4.035487425757123e-17 -0.9999625172178984 0.008658184512609383
12629006666.666666 -0.9997881658389863 0.020582114763200314 1.300831337303117e-16 -4.19126962734474e-17 1.300831337303117e-16 -4.19126962734474e-17 -0.9997881800983346 0.020581422095446212
12629624000.0 -0.999471656593677 0.03250242553568905 1.295449233715818e-16 -4.346386058293502e-17 1.295449233715818e-16 -4.346386058293502e-17 -0.999471679110488 0.032501733121055455
12630241333.333334 -0.9990130284887258 0.04441811465602149 1.2898822781328378e-16 -4.500814595836225e-17 1.2898822781328378e-16 -4.500814595836225e-17 -0.9990130592589923 0.044417422592936094
12630858666.666666 -0.9984123467383991 0.05632748778468826 1.2841313461161632e-16 -4.654533225099802e-17 1.2841313461161632e-16 -4.654533225099802e-17 -0.998412385756939 0.05632679617151909
12631476000.0 -0.9976696967561145 0.06822885148067519 1.2781973394292984e-16 -4.807520042246895e-17 1.2781973394292984e-16 -4.807520042246895e-17 -0.9976697440165747 0.06822816041571678
12632093333.333334 -0.996785184142342 0.08012051344149457 1.272081185897304e-16 -4.959753257582563e-17 1.272081185897304e-16 -4.959753257582563e-17 -0.9967852396371955 0.08011982302295369
12632710666.666666 -0.9957589346695551 0.0920007827443023 1.2657838392625322e-16 -5.1112111986592204e-17 1.2657838392625322e-16 -5.1112111986592204e-17 -0.9957589983901075 0.09200009307028441
12633328000.0 -0.9945910942643487 0.10386797008633712 1.2593062790369005e-16 -5.2618723133572404e-17 1.2593062790369005e-16 -5.2618723133572404e-17 -0.9945911662007361 0.1038672812548322
12633945333.333334 -0.9932818289867059 0.11572038802490256 1.2526495103506384e-16 -5.4117151729441845e-17 1.2526495103506384e-16 -5.4117151729441845e-17 -0.9932819091278975 0.11571970013377124
12634562666.666666 -0.9918313250063749 0.12755635121745293 1.2458145637972147e-16 -5.560718475119325e-17 1.2458145637972147e-16 -5.560718475119325e-17 -0.9918314133401726 0.12755566436441237
12635180000.0 -0.9902397885763939 0.13937417666120988 1.2388024952746648e-16 -5.708861047038363e-17 1.2388024952746648e-16 -5.708861047038363e-17 -0.990239885089438 0.13937349094382037
12635797333.333334 -0.9885074460037655 0.15117218393250437 1.231614385823439e-16 -5.856121848315807e-17 1.231614385823439e-16 -5.856121848315807e-17 -0.9885075506815346 0.15117149944815514
12636414666.666666 -0.9866345436172926 0.1629486954256099 1.2242513414607011e-16 -6.002479974007149e-17 1.2242513414607011e-16 -6.002479974007149e-17 -0.9866346564441044 0.1629480122715052
12637032000.0 -0.9846213477325226 0.1747020365914564 1.2167144930108287e-16 -6.147914657575504e-17 1.2167144930108287e-16 -6.147914657575504e-17 -0.9846214686915391 0.17470135486460195
12637649333.333334 -0.9824681446139005 0.18643053617562885 1.2090049959327166e-16 -6.292405273830522e-17 1.2090049959327166e-16 -6.292405273830522e-17 -0.982468273687128 0.18642985597281794
12638266666.666666 -0.9801752404340551 0.19813252645603743 1.2011240301434395e-16 -6.435931341849273e-17 1.2011240301434395e-16 -6.435931341849273e-17 -0.9801753776023501 0.1981318478738375
12638884000.0 -0.9777429612302703 0.20980634348005858 1.193072799838477e-16 -6.57847252787445e-17 1.193072799838477e-16 -6.57847252787445e-17 -0.9777431064733371 0.2098056666147967
12639501333.333334 -0.9751716528581097 0.22145032730116532 1.184852533308494e-16 -6.720008648190565e-17 1.184852533308494e-16 -6.720008648190565e-17 -0.9751718061545079 0.22144965224891516
12640118666.666666 -0.9724616809422808 0.2330628222147963 1.1764644827528747e-16 -6.86051967197473e-17 1.1764644827528747e-16 -6.86051967197473e-17 -0.972461842269427 0.23306214907136447
12640736000.0 -0.9696134308245405 0.24464217699422935 1.1679099240893152e-16 -6.9999857241335e-17 1.1679099240893152e-16 -6.9999857241335e-17 -0.9696136001587125 0.24464150585514194
12641353333.333334 -0.9666273075090608 0.256186745124713 1.1591901567611863e-16 -7.138387088098043e-17 1.1591901567611863e-16 -7.138387088098043e-17 -0.9666274848253997 0.25618607608520155
12641970666.666666 -0.9635037356047002 0.26769488503817124 1.1503065035402564e-16 -7.275704208616729e-17 1.1503065035402564e-16 -7.275704208616729e-17 -0.9635039208772137 0.26769421819315925
12642588000.0 -0.9602431592646902 0.279164960346347 1.1412603103270623e-16 -7.411917694508247e-17 1.1412603103270623e-16 -7.411917694508247e-17 -0.9602433524662591 0.2791642957904373
12643205333.333334 -0.9568460421234801 0.2905953400735173 1.1320529459476995e-16 -7.547008321395237e-17 1.1320529459476995e-16 -7.547008321395237e-17 -0.9568462432258582 0.29059467790097715
12643822666.666666 -0.9533128672307715 0.30198439888851414 1.1226858019472258e-16 -7.68095703441502e-17 1.1226858019472258e-16 -7.68095703441502e-17 -0.9533130762045939 0.30198373919326343
12644440000.0 -0.949644136982868 0.3133305173357297 1.113160292380264e-16 -7.813744950899068e-17 1.113160292380264e-16 -7.813744950899068e-17 -0.9496443537976528 0.31332986021132664
12645057333.333334 -0.9458403730512628 0.3246320820653114 1.1034778535982015e-16 -7.945353363030101e-17 1.1034778535982015e-16 -7.945353363030101e-17 -0.9458405976754166 0.3246314276049398
12645674666.666666 -0.9419021163084133 0.33588748606273483 1.0936399440331652e-16 -8.075763740474231e-17 1.0936399440331652e-16 -8.075763740474231e-17 -0.9419023487092345 0.33588683435919015
12646292000.0 -0.9378299267507942 0.3470951288773889 1.0836480439789318e-16 -8.204957732985702e-17 1.0836480439789318e-16 -8.204957732985702e-17 -0.93783016689448 0.347094480023066
12646909333.333334 -0.9336243834193886 0.35825341684983003 1.0735036553691259e-16 -8.33291717298013e-17 1.0735036553691259e-16 -8.33291717298013e-17 -0.9336246312710375 0.35825277093670943
12647526666.666666 -0.9292860843172541 0.3693607633386585 1.063208301551869e-16 -8.459624078087106e-17 1.063208301551869e-16 -8.459624078087106e-17 -0.9292863398408726 0.3693601204582937
12648144000.0 -0.9248156463245002 0.3804155889461024 1.0527635270616814e-16 -8.585060653671714e-17 1.0527635270616814e-16 -8.585060653671714e-17 -0.9248159094830064 0.3804149491896061
12648761333.333334 -0.9202137051106067 0.39141632174248986 1.0421708973884923e-16 -8.709209295327079e-17 1.0421708973884923e-16 -8.709209295327079e-17 -0.9202139758658395 0.3914156852005232
12649378666.666666 -0.9154809150440489 0.4023613974897738 1.0314319987436286e-16 -8.832052591339789e-17 1.0314319987436286e-16 -8.832052591339789e-17 -0.9154811933567673 0.40236076425253015
12649996000.0 -0.9106179490991816 0.41324925986408234 1.0205484378227707e-16 -8.95357332512792e-17 1.0205484378227707e-16 -8.95357332512792e-17 -0.9106182349290769 0.4132486300212781
12650613333.333334 -0.9056254987605893 0.42407836067694465 1.009521841566249e-16 -9.073754477647674e-17 1.009521841566249e-16 -9.073754477647674e-17 -0.9056257920662866 0.42407773431780393
12651230666.666666 -0.9005042739248046 0.4348471600953285 9.983538569165477e-17 -9.192579229770329e-17 9.983538569165477e-17 -9.192579229770329e-17 -0.9005045746638692 0.4348465373085711
12651848000.0 -0.8952550027992441 0.44555412686085255 9.870461505726441e-17 -9.310030964633351e-17 9.870461505726441e-17 -9.310030964633351e-17 -0.895255310928191 0.44555350773468283
12652465333.333334 -0.8898784317987736 0.45619773850729234 9.756004087420984e-17 -9.426093269956079e-17 9.756004087420984e-17 -9.426093269956079e-17 -0.8898787472730685 0.4561971231293842
12653082666.666666 -0.8843753254395714 0.46677648157706497 9.640183368901936e-17 -9.540749940327577e-17 9.640183368901936e-17 -9.540749940327577e-17 -0.8843756482136417 0.46677587003455173
12653700000.0 -0.8787464662302932 0.47728885183668884 9.523016594861137e-17 -9.653984979466415e-17 9.523016594861137e-17 -9.653984979466415e-17 -0.8787467962575325 0.4772882442161497
12654317333.333334 -0.8729926545609822 0.4877333544903207 9.404521197471394e-17 -9.765782602442879e-17 9.404521197471394e-17 -9.765782602442879e-17 -0.8729929917937579 0.4877327508777692
12654934666.666666 -0.8671147085891325 0.4981085043925615 9.284714793795842e-17 -9.876127237876389e-17 9.284714793795842e-17 -9.876127237876389e-17 -0.8671150529787909 0.4981079048734322
12655552000.0 -0.8611134641233438 0.5084128262596311 9.163615183174312e-17 -9.985003530098429e-17 9.163615183174312e-17 -9.985003530098429e-17 -0.8611138156202192 0.5084122309187685
12656169333.333334 -0.8549897745046031 0.5186448548789228 9.041240344587023e-17 -1.0092396341281284e-16 9.041240344587023e-17 -1.0092396341281284e-16 -0.8549901330580238 0.5186442638005694
12656786666.666666 -0.8487445104848053 0.528803135317596 8.917608433988055e-17 -1.0198290753539453e-16 8.917608433988055e-17 -1.0198290753539453e-16 -0.8487448760431012 0.5288025485853795
12657404000.0 -0.8423785601030053 0.5388862231293343 8.792737781618493e-17 -1.0302672070994582e-16 8.792737781618493e-17 -1.0302672070994582e-16 -0.8423789326135163 0.5388856408262566
12658021333.333334 -0.8358928285591021 0.5488926845598098 8.66664688929357e-17 -1.040552582180941e-16 8.66664688929357e-17 -1.040552582180941e-16 -0.8358932079681833 0.5488921067682347
12658638666.666666 -0.8292882380852779 0.5588210967503163 8.539354427668162e-17 -1.0506837760186892e-16 8.539354427668162e-17 -1.0506837760186892e-16 -0.8292886243383099 0.5588205235519587
12659256000.0 -0.8225657278145521 0.5686700479405674 8.410879233474473e-17 -1.0606593868339516e-16 8.410879233474473e-17 -1.0606593868339516e-16 -0.8225661208559473 0.5686694794164806
12659873333.333334 -0.8157262536475205 0.5784381376690101 8.281240306742581e-17 -1.0704780358420423e-16 8.281240306742581e-17 -1.0704780358420423e-16 -0.815726653420731 0.5784375738995748
12660490666.666666 -0.8087707881164397 0.5881239769719684 8.15045680799584e-17 -1.0801383674422821e-16 8.15045680799584e-17 -1.0801383674422821e-16 -0.8087711945639673 0.5881234180368823
12661108000.0 -0.8017003202466096 0.5977261885816082 8.01854805542109e-17 -1.0896390494047442e-16 8.01854805542109e-17 -1.0896390494047442e-16 -0.8017007333100113 0.5977256345598725
12661725333.333334 -0.7945158554162003 0.6072434071211273 7.885533522024647e-17 -1.0989787730530069e-16 7.885533522024647e-17 -1.0989787730530069e-16 -0.7945162750360993 0.6072428580910384
12662342666.666666 -0.7872184152129311 0.6166742792994147 7.751432832759357e-17 -1.1081562534440127e-16 7.751432832759357e-17 -1.1081562534440127e-16 -0.787218841329024 0.616673735338551
12662960000.0 -0.7798090372889709 0.6260174641032458 7.616265761635776e-17 -1.1171702295440613e-16 7.616265761635776e-17 -1.1171702295440613e-16 -0.779809469840036 0.6260169252884572
12663577333.333334 -0.7722887752133587 0.635271632988017 7.480052228811156e-17 -1.1260194644014318e-16 7.480052228811156e-17 -1.1260194644014318e-16 -0.7722892141372648 0.6352710993954137
12664194666.666666 -0.7646586983221896 0.6444354700666511 7.342812297658753e-17 -1.134702745315432e-16 7.342812297658753e-17 -1.134702745315432e-16 -0.7646591435559071 0.6444349417715949
12664812000.0 -0.7569198915665655 0.6535076722967151 7.204566171817668e-17 -1.143218884001892e-16 7.204566171817668e-17 -1.143218884001892e-16 -0.756920343046172 0.6535071493738054
12665429333.333334 -0.749073455358299 0.6624869496657197 7.06533419222323e-17 -1.1515667167550838e-16 7.06533419222323e-17 -1.1515667167550838e-16 -0.749073913018992 0.6624864321887864
12666046666.666666 -0.7411205054135391 0.671372025374451 6.925136834120741e-17 -1.1597451046059208e-16 6.925136834120741e-17 -1.1597451046059208e-16 -0.7411209691896422 0.6713715134165416
12666664000.0 -0.7330621725939123 0.680161636018752 6.783994704055722e-17 -1.1677529334768353e-16 6.783994704055722e-17 -1.1677529334768353e-16 -0.7330626424188865 0.6801611296521223
12667281333.333334 -0.7248996027459882 0.6888545317688785 6.641928536854647e-17 -1.1755891143325215e-16 6.641928536854647e-17 -1.1755891143325215e-16 -0.7249000785524415 0.6888540310649827
12667898666.666666 -0.7166339565381565 0.697449476547427 6.498959192580428e-17 -1.1832525833274744e-16 6.498959192580428e-17 -1.1832525833274744e-16 -0.7166344382578524 0.6974489815769068
12668516000.0 -0.7082664092955844 0.7059452482050949 6.355107653474307e-17 -1.1907423019496387e-16 6.355107653474307e-17 -1.1907423019496387e-16 -0.7082668968594519 0.7059447590377697
12669133333.333334 -0.6997981508332686 0.7143406386942787 6.210395020884351e-17 -1.1980572571601833e-16 6.210395020884351e-17 -1.1980572571601833e-16 -0.6997986441714136 0.714340155399137
12669750666.666666 -0.6912303852866571 0.7226344542410578 6.064842512171589e-17 -1.2051964615299027e-16 6.064842512171589e-17 -1.2051964615299027e-16 -0.6912308843283704 0.7226339768862452
