! Parameters = {f0=12700.012000; bw=77.238000; Q=6100.000000; N=10; m_0_1=1.232327; m_1_1=-0.279836; m_1_2=1.067139; m_2_2=-0.280485; m_2_3=0.704102; m_2_8=-0.001320; m_2_9=0.035384; m_3_3=-0.282422; m_3_4=0.592631; m_3_7=-0.000720; m_3_8=-0.097808; m_3_9=-0.001320; m_4_4=-0.285347; m_4_5=0.428966; m_4_6=0.002797; m_4_7=-0.118357; m_4_8=-0.000720; m_5_5=-0.284965; m_5_6=0.836321; m_5_7=0.002797; m_6_6=-0.284966; m_6_7=0.429308; m_7_7=-0.285333; m_7_8=0.592749; m_8_8=-0.282424; m_8_9=0.704415; m_9_9=-0.280490; m_9_10=1.068217; m_10_10=-0.279846; m_10_11=1.233122}
!
! Created with skrf (http://scikit-rf.org).
# Hz S RI R 50.0 
!freq ReS11 ImS11 ReS21 ImS21 ReS12 ImS12 ReS22 ImS22
12607400000.0 -0.03645882497524064 -0.9993351560318786 2.9422307227873676e-17 8.747153991060088e-17 2.9422307227873676e-17 8.747153991060088e-17 -0.03645817607665993 -0.9993351797054864
12608017333.333334 -0.045860060394283926 -0.9989478739456159 3.024584155243646e-17 8.717107190603321e-17 3.024584155243646e-17 8.717107190603321e-17 -0.045859411778936834 -0.9989479037222732
12608634666.666666 -0.05525723567236846 -0.9984721517927695 3.1066324525107215e-17 8.686285690788516e-17 3.1066324525107215e-17 8.686285690788516e-17 -0.055256587397648355 -0.9984721876692408
12609252000.0 -0.06464951884730398 -0.9979080316906191 3.1883683331852145e-17 8.654692575204073e-17 3.1883683331852145e-17 8.654692575204073e-17 -0.06464887097056864 -0.997908073663133
12609869333.333334 -0.0740360783901286 -0.9972555635825974 3.2697845468895397e-17 8.622330995817348e-17 3.2697845468895397e-17 8.622330995817348e-17 -0.07403543096869483 -0.9972556116468404
12610486666.666666 -0.08341608327849964 -0.996514805233875 3.3508738749139834e-17 8.589204172663536e-17 3.3508738749139834e-17 8.589204172663536e-17 -0.08341543636963832 -0.9965148593849953
12611104000.0 -0.09278870307049325 -0.9956858222262324 3.4316291308570967e-17 8.555315393527868e-17 3.4316291308570967e-17 8.555315393527868e-17 -0.09278805673142436 -0.9956858824588405
12611721333.333334 -0.1021531079779282 -0.9947686879522709 3.512043161256875e-17 8.520668013624327e-17 3.512043161256875e-17 8.520668013624327e-17 -0.1021524622658156 -0.9947687542604388
12612338666.666666 -0.11150846893988628 -0.9937634836089102 3.592108846226723e-17 8.485265455265152e-17 3.592108846226723e-17 8.485265455265152e-17 -0.11150782391183268 -0.9937635559861722
12612956000.0 -0.12085395769633739 -0.9926702981901728 3.671819100083512e-17 8.449111207526232e-17 3.671819100083512e-17 8.449111207526232e-17 -0.12085331340937948 -0.9926703766295275
12613573333.333334 -0.1301887468609883 -0.991489228479361 3.7511668719702e-17 8.412208825907689e-17 3.7511668719702e-17 8.412208825907689e-17 -0.1301881033720917 -0.9914893129732723
12614190666.666666 -0.13951200999501412 -0.9902203790404365 3.8301451464819876e-17 8.374561931985482e-17 3.8301451464819876e-17 8.374561931985482e-17 -0.1395113673610678 -0.9902204695808295
12614808000.0 -0.14882292167999847 -0.988863862208779 3.90874694428187e-17 8.33617421306037e-17 3.90874694428187e-17 8.33617421306037e-17 -0.14882227995781067 -0.9888639587870482
12615425333.333334 -0.1581206575909558 -0.987419798081261 3.986965322717702e-17 8.297049421798885e-17 3.986965322717702e-17 8.297049421798885e-17 -0.15812001683724805 -0.9874199006882646
12616042666.666666 -0.1674043945695073 -0.9858883145055789 4.0647933764331015e-17 8.257191375869696e-17 4.0647933764331015e-17 8.257191375869696e-17 -0.16740375484091002 -0.9858884231316433
12616660000.0 -0.17667331069653347 -0.9842695470689727 4.142224237974746e-17 8.216603957574295e-17 4.142224237974746e-17 8.216603957574295e-17 -0.1766726720495809 -0.9842696617038925
12617277333.333334 -0.1859265853651656 -0.9825636390861835 4.219251078398616e-17 8.175291113470719e-17 4.219251078398616e-17 8.175291113470719e-17 -0.1859259478562906 -0.9825637597192223
12617894666.666666 -0.19516339935321284 -0.9807707415868052 4.295867107867619e-17 8.133256853994137e-17 4.295867107867619e-17 8.133256853994137e-17 -0.19516276303874197 -0.9807708682066968
12618512000.0 -0.20438293489591397 -0.9788910133018726 4.372065576252635e-17 8.090505253068034e-17 4.372065576252635e-17 8.090505253068034e-17 -0.20438229983206252 -0.9788911458968208
12619129333.333334 -0.21358437575814113 -0.9769246206498423 4.447839773721681e-17 8.047040447714154e-17 4.447839773721681e-17 8.047040447714154e-17 -0.21358374200100838 -0.9769247592075252
12619746666.666666 -0.2227669073067208 -0.9748717377218568 4.523183031330735e-17 8.002866637653938e-17 4.523183031330735e-17 8.002866637653938e-17 -0.22276627491228443 -0.9748718822294231
12620364000.0 -0.23192971658277614 -0.9727325462662729 4.598088721610386e-17 7.957988084904519e-17 4.598088721610386e-17 7.957988084904519e-17 -0.23192908560688824 -0.9727326967103486
12620981333.333334 -0.24107199237323115 -0.9705072356726845 4.6725502591444454e-17 7.912409113371647e-17 4.6725502591444454e-17 7.912409113371647e-17 -0.24107136287161224 -0.9705073920393689
12621598666.666666 -0.2501929252830994 -0.9681960029550422 4.7465611011488286e-17 7.866134108434684e-17 4.7465611011488286e-17 7.866134108434684e-17 -0.2501922973113346 -0.9681961652299137
12622216000.0 -0.25929170780692207 -0.9657990527342655 4.820114748045269e-17 7.819167516526896e-17 4.820114748045269e-17 7.819167516526896e-17 -0.25929108142045537 -0.9657992209023805
12622833333.333334 -0.2683675344002308 -0.9633165972201327 4.893204744029054e-17 7.771513844711424e-17 4.893204744029054e-17 7.771513844711424e-17 -0.2683669096543604 -0.9633167712660268
12623450666.666666 -0.27741960155094836 -0.9607488561924741 4.965824677634694e-17 7.723177660250847e-17 4.965824677634694e-17 7.723177660250847e-17 -0.2774189785008218 -0.9607490361001643
12624068000.0 -0.28644710785044375 -0.958096056981736 5.037968182297072e-17 7.674163590171508e-17 5.037968182297072e-17 7.674163590171508e-17 -0.28644648655105315 -0.9580962427347222
12624685333.333334 -0.2954492540647018 -0.9553584344487914 5.109628936907457e-17 7.624476320823199e-17 5.109628936907457e-17 7.624476320823199e-17 -0.29544863457087867 -0.9553586260300564
12625302666.666666 -0.304425243204727 -0.952536230964249 5.180800666364821e-17 7.574120597434061e-17 5.180800666364821e-17 7.574120597434061e-17 -0.3044246255711381 -0.952536428356263
12625920000.0 -0.3133742805974311 -0.9496296963869004 5.251477142126193e-17 7.523101223657886e-17 5.251477142126193e-17 7.523101223657886e-17 -0.3133736648785729 -0.9496298995716205
12626537333.333334 -0.3222955739557968 -0.9466390880416555 5.321652182746388e-17 7.471423061120692e-17 5.321652182746388e-17 7.471423061120692e-17 -0.3222949602059909 -0.9466392970005272
12627154666.666666 -0.3311883334489697 -0.9435646706967833 5.391319654419744e-17 7.419091028957801e-17 5.391319654419744e-17 7.419091028957801e-17 -0.33118772172235794 -0.9435648854107427
12627772000.0 -0.34005177177255863 -0.9404067165403373 5.460473471514032e-17 7.366110103348014e-17 5.460473471514032e-17 7.366110103348014e-17 -0.34005116212309894 -0.9404069369898137
12628389333.333334 -0.34888510421775015 -0.937165505156268 5.5291075970989325e-17 7.31248531704384e-17 5.5291075970989325e-17 7.31248531704384e-17 -0.34888449669921123 -0.9371657313211853
12629006666.666666 -0.3576875487413696 -0.9338413234994613 5.597216043473747e-17 7.258221758893621e-17 5.597216043473747e-17 7.258221758893621e-17 -0.35768694340732543 -0.9338415553592369
12629624000.0 -0.36645832603474193 -0.9304344658704611 5.664792872685122e-17 7.203324573363012e-17 5.664792872685122e-17 7.203324573363012e-17 -0.3664577229385688 -0.9304347034040127
12630241333.333334 -0.3751966595927691 -0.9269452338893934 5.731832197045688e-17 7.147798960047327e-17 5.731832197045688e-17 7.147798960047327e-17 -0.37519605878763984 -0.9269454770751382
12630858666.666666 -0.383901775782703 -0.9233739364692523 5.79832817964239e-17 7.091650173183428e-17 5.79832817964239e-17 7.091650173183428e-17 -0.3839011773215819 -0.9233741852851081
12631476000.0 -0.3925729039127143 -0.9197208897885122 5.86427503484655e-17 7.034883521151653e-17 5.86427503484655e-17 7.034883521151653e-17 -0.3925723078483539 -0.9197211442119024
12632093333.333334 -0.4012092762999698 -0.9159864172632087 5.929667028812245e-17 6.977504365978676e-17 5.929667028812245e-17 6.977504365978676e-17 -0.4012086826849043 -0.9159866772710603
12632710666.666666 -0.4098101283386734 -0.9121708495182654 5.994498479973692e-17 6.919518122832606e-17 5.994498479973692e-17 6.919518122832606e-17 -0.4098095372252157 -0.9121711150870151
12633328000.0 -0.41837469856781395 -0.9082745243582063 6.058763759539389e-17 6.86093025951187e-17 6.058763759539389e-17 6.86093025951187e-17 -0.4183741100080499 -0.9082747954637993
12633945333.333334 -0.42690222873852507 -0.9042977867372648 6.122457291975698e-17 6.801746295934589e-17 6.122457291975698e-17 6.801746295934589e-17 -0.4269016427843096 -0.9042980633551592
12634562666.666666 -0.43539196388114 -0.9002409887288847 6.185573555491089e-17 6.741971803618439e-17 6.185573555491089e-17 6.741971803618439e-17 -0.43539138058409266 -0.9002412708340537
12635180000.0 -0.44384315237221056 -0.8961044894944633 6.248107082512176e-17 6.681612405158794e-17 6.248107082512176e-17 6.681612405158794e-17 -0.4438425717837105 -0.8961047770613968
12635797333.333334 -0.45225504600087263 -0.8918886552516423 6.31005246015516e-17 6.620673773702191e-17 6.31005246015516e-17 6.620673773702191e-17 -0.4522544681720539 -0.8918889482543485
12636414666.666666 -0.46062690003516227 -0.8875938592418436 6.371404330692858e-17 6.559161632414687e-17 6.371404330692858e-17 6.559161632414687e-17 -0.4606263250169098 -0.887594157653852
12637032000.0 -0.4689579732880278 -0.8832204816971917 6.43215739201682e-17 6.497081753945784e-17 6.43215739201682e-17 6.497081753945784e-17 -0.46895740113097234 -0.8832207854915548
12637649333.333334 -0.47724752818277 -0.8787689098069362 6.492306398092277e-17 6.434439959889805e-17 6.492306398092277e-17 6.434439959889805e-17 -0.47724695893728425 -0.8787692189562335
12638266666.666666 -0.48549483081854444 -0.8742395376830695 6.551846159410778e-17 6.371242120240484e-17 6.551846159410778e-17 6.371242120240484e-17 -0.4854942645347392 -0.8742398521594101
12638884000.0 -0.4936991510351374 -0.8696327663255446 6.610771543434492e-17 6.307494152844212e-17 6.610771543434492e-17 6.307494152844212e-17 -0.49369858776285547 -0.8696330861005673
12639501333.333334 -0.5018597624778054 -0.8649490035866592 6.669077475038195e-17 6.243202022846305e-17 6.669077475038195e-17 6.243202022846305e-17 -0.5018592022666187 -0.8649493286315375
12640118666.666666 -0.5099759426613626 -0.8601886641350778 6.726758936942822e-17 6.178371742136372e-17 6.726758936942822e-17 6.178371742136372e-17 -0.5099753855605667 -0.8601889944205204
12640736000.0 -0.5180469730344603 -0.8553521694189291 6.783810970147485e-17 6.113009368785488e-17 6.783810970147485e-17 6.113009368785488e-17 -0.518046419093071 -0.8553525049151848
12641353333.333334 -0.5260721390427896 -0.8504399476287431 6.840228674350927e-17 6.04712100648525e-17 6.840228674350927e-17 6.04712100648525e-17 -0.5260715883095382 -0.8504402883056017
12641970666.666666 -0.5340507301926595 -0.8454524336593525 6.896007208372636e-17 5.98071280397708e-17 6.896007208372636e-17 5.98071280397708e-17 -0.5340501827159885 -0.8454527794861484
12642588000.0 -0.54198204011385 -0.8403900690714181 6.95114179056573e-17 5.913790954480816e-17 6.95114179056573e-17 5.913790954480816e-17 -0.541981495941909 -0.8403904200170329
12643205333.333334 -0.5498653666219816 -0.8352533020524416 7.005627699224505e-17 5.84636169511933e-17 7.005627699224505e-17 5.84636169511933e-17 -0.5498648258026229 -0.8352536580853067
12643822666.666666 -0.5577000117809443 -0.8300425873769183 7.0594602729869e-17 5.77843130633881e-17 7.0594602729869e-17 5.77843130633881e-17 -0.5576994743617179 -0.8300429484650167
12644440000.0 -0.5654852819644959 -0.824758386366195 7.112634911231371e-17 5.710006111325364e-17 7.112634911231371e-17 5.710006111325364e-17 -0.5654847479926473 -0.8247587524770668
12645057333.333334 -0.5732204879176267 -0.8194011668476632 7.165147074467675e-17 5.641092475418627e-17 7.165147074467675e-17 5.641092475418627e-17 -0.5732199574400915 -0.819401537948407
12645674666.666666 -0.5809049448177472 -0.8139714031132322 7.216992284721824e-17 5.571696805521992e-17 7.216992284721824e-17 5.571696805521992e-17 -0.5809044178811466 -0.8139717791705072
12646292000.0 -0.5885379723352904 -0.8084695758773475 7.268166125917983e-17 5.5018255495057986e-17 7.268166125917983e-17 5.5018255495057986e-17 -0.5885374489859279 -0.8084699568573781
12646909333.333334 -0.5961188946938072 -0.8028961722345351 7.318664244249211e-17 5.4314851956143376e-17 7.318664244249211e-17 5.4314851956143376e-17 -0.5961183749776636 -0.8028965581031126
12647526666.666666 -0.6036470407299537 -0.797251685616157 7.368482348548337e-17 5.360682271861541e-17 7.368482348548337e-17 5.360682271861541e-17 -0.6036465246926846 -0.797252076338644
12648144000.0 -0.6111217439528228 -0.7915366157467985 7.417616210649759e-17 5.289423345427679e-17 7.417616210649759e-17 5.289423345427679e-17 -0.6111212316397532 -0.7915370112881305
12648761333.333334 -0.6185423426030161 -0.7857514685999685 7.466061665745044e-17 5.2177150220534373e-17 7.466061665745044e-17 5.2177150220534373e-17 -0.618541834059137 -0.7857518689246585
12649378666.666666 -0.6259081797110536 -0.7798967563534484 7.513814612734754e-17 5.14556394542778e-17 7.513814612734754e-17 5.14556394542778e-17 -0.625907674981018 -0.7798971614255892
12649996000.0 -0.6332186031558278 -0.7739729973437168 7.560871014572879e-17 5.072976796574741e-17 7.560871014572879e-17 5.072976796574741e-17 -0.6332181022839464 -0.7739734071269845
12650613333.333334 -0.6404729657220924 -0.7679807160202551 7.607226898606422e-17 4.999960293235612e-17 7.607226898606422e-17 4.999960293235612e-17 -0.64047246875233 -0.7679811304779115
12651230666.666666 -0.6476706251578294 -0.761920442899061 7.652878356907449e-17 4.926521189250424e-17 7.652878356907449e-17 4.926521189250424e-17 -0.647670132133802 -0.7619208619939595
12651848000.0 -0.654810944231264 -0.7557927145155569 7.697821546601155e-17 4.852666273933374e-17 7.697821546601155e-17 4.852666273933374e-17 -0.6548104551962336 -0.7557931382101429
12652465333.333334 -0.6618932907870182 -0.7495980733773044 7.742052690186536e-17 4.7784023714474814e-17 7.742052690186536e-17 4.7784023714474814e-17 -0.6618928057838885 -0.7495985016336191
12653082666.666666 -0.6689170378022277 -0.7433370679158461 7.78556807585107e-17 4.7037363401763636e-17 7.78556807585107e-17 4.7037363401763636e-17 -0.6689165568735425 -0.7433375006955316
12653700000.0 -0.6758815634421013 -0.7370102524381162 7.828364057780679e-17 4.6286750720909415e-17 7.828364057780679e-17 4.6286750720909415e-17 -0.6758810866300385 -0.7370106897024176
12654317333.333334 -0.6827862511148197 -0.730618187077494 7.87043705646177e-17 4.5532254921164845e-17 7.87043705646177e-17 4.5532254921164845e-17 -0.68278577846119 -0.7306186287872636
12654934666.666666 -0.6896304895262784 -0.7241614377440858 7.911783558978382e-17 4.4773945574949367e-17 7.911783558978382e-17 4.4773945574949367e-17 -0.6896300210725188 -0.7241618838597846
12655552000.0 -0.6964136727341355 -0.7176405760746711 7.952400119303773e-17 4.40118925714341e-17 7.952400119303773e-17 4.40118925714341e-17 -0.6964132085213092 -0.7176410265563767
12656169333.333334 -0.7031352002014274 -0.711056179382145 7.99228335858358e-17 4.3246166110144175e-17 7.99228335858358e-17 4.3246166110144175e-17 -0.7031347402702159 -0.7110566341895499
12656786666.666666 -0.7097944768497685 -0.7044088306043577 8.031429965415073e-17 4.2476836694492026e-17 8.031429965415073e-17 4.2476836694492026e-17 -0.7097940212404712 -0.704409289696776
12657404000.0 -0.7163909131121005 -0.6976991182524499 8.069836696119571e-17 4.17039751252999e-17 8.069836696119571e-17 4.17039751252999e-17 -0.7163904618646306 -0.697699581588821
12658021333.333334 -0.7229239249847667 -0.6909276363588693 8.107500375008307e-17 4.092765249430224e-17 8.107500375008307e-17 4.092765249430224e-17 -0.7229234781386479 -0.6909281038977612
12658638666.666666 -0.7293929340792575 -0.6840949844247409 8.144417894641343e-17 4.0147940177640756e-17 8.144417894641343e-17 4.0147940177640756e-17 -0.7293924916736184 -0.6840954561243522
12659256000.0 -0.7357973676735523 -0.677201767366644 8.180586216083064e-17 3.936490982927871e-17 8.180586216083064e-17 3.936490982927871e-17 -0.7357969297471257 -0.6772022431848098
12659873333.333334 -0.7421366587625902 -0.6702485954633061 8.216002369147498e-17 3.8578633374471107e-17 8.216002369147498e-17 3.8578633374471107e-17 -0.742136225353708 -0.6702490753575011
12660490666.666666 -0.7484102461086056 -0.6632360843014283 8.250663452640155e-17 3.7789183003157955e-17 8.250663452640155e-17 3.7789183003157955e-17 -0.7484098172551972 -0.663236568228771
12661108000.0 -0.754617574290856 -0.656164854721144 8.284566634593367e-17 3.699663116333519e-17 8.284566634593367e-17 3.699663116333519e-17 -0.7546171500304425 -0.6561653426383992
12661725333.333334 -0.7607580937546583 -0.6490355327611995 8.31770915249288e-17 3.620105055446212e-17 8.31770915249288e-17 3.620105055446212e-17 -0.7607576741243514 -0.6490360246247833
12662342666.666666 -0.7668312608601967 -0.6418487496033601 8.350088313501698e-17 3.54025141207659e-17 8.350088313501698e-17 3.54025141207659e-17 -0.7668308458966939 -0.6418492453693435
12662960000.0 -0.7728365379305017 -0.634605141516701 8.381701494674375e-17 3.460109504459989e-17 8.381701494674375e-17 3.460109504459989e-17 -0.7728361276700847 -0.6346056411408141
12663577333.333334 -0.7787733932992008 -0.6273053498011025 8.412546143167059e-17 3.3796866739733446e-17 8.412546143167059e-17 3.3796866739733446e-17 -0.7787729877777312 -0.627305853238738
12664194666.666666 -0.7846413013574433 -0.6199500207306496 8.442619776440017e-17 3.298990284464942e-17 8.442619776440017e-17 3.298990284464942e-17 -0.7846409006103586 -0.6199505279368667
12664812000.0 -0.7904397426005766 -0.6125398054962381 8.47191998245378e-17 3.218027721582426e-17 8.47191998245378e-17 3.218027721582426e-17 -0.7904393466628897 -0.612540316425767
12665429333.333334 -0.796168203674016 -0.6050753601480776 8.500444419859869e-17 3.136806392096457e-17 8.500444419859869e-17 3.136806392096457e-17 -0.7961678125803098 -0.6050758747553234
12666046666.666666 -0.8018261774187297 -0.5975573455375662 8.528190818183181e-17 3.0553337232277947e-17 8.528190818183181e-17 3.0553337232277947e-17 -0.8018257912031553 -0.597557863776613
12666664000.0 -0.8074131629162764 -0.5899864272586012 8.555156978000617e-17 2.9736171619652846e-17 8.555156978000617e-17 2.9736171619652846e-17 -0.8074127816125491 -0.5899869490832155
12667281333.333334 -0.8129286655328621 -0.5823632755890384 8.581340771110247e-17 2.891664174390837e-17 8.581340771110247e-17 2.891664174390837e-17 -0.8129282891742599 -0.5823638009526743
12667898666.666666 -0.8183721969634213 -0.5746885654309626 8.606740140696049e-17 2.8094822449971173e-17 8.606740140696049e-17 2.8094822449971173e-17 -0.8183718255827805 -0.5746890942867651
12668516000.0 -0.8237432752747119 -0.5669629762511184 8.631353101485916e-17 2.7270788760040403e-17 8.631353101485916e-17 2.7270788760040403e-17 -0.8237429089044245 -0.5669635085519277
12669133333.333334 -0.8290414249479486 -0.5591871920208021 8.655177739901949e-17 2.6444615866784085e-17 8.655177739901949e-17 2.6444615866784085e-17 -0.8290410636199623 -0.5591877277191596
12669750666.666666 -0.8342661769210221 -0.5513619011551466 8.678212214205483e-17 2.5616379126475513e-17 8.678212214205483e-17 2.5616379126475513e-17 -0.8342658206668322 -0.5513624402032954
12670368000.0 -0.8394170686299044 -0.5434877964523326 8.700454754635394e-17 2.4786154052127758e-17 8.700454754635394e-17 2.4786154052127758e-17 -0.8394167174805568 -0.543488338802226
12670985333.333334 -0.8444936440496756 -0.5355655750321656 8.721903663538843e-17 2.3954016306651252e-17 8.721903663538843e-17 2.3954016306651252e-17 -0.8444932980357581 -0.5355661206354673
