! Parameters = {f0=12700.012000; bw=77.238000; Q=6100.000000; N=10; m_0_1=1.312808; m_1_1=0.927371; m_1_2=1.147620; m_2_2=0.926722; m_2_3=0.784583; m_2_8=0.002704; m_2_9=0.039408; m_3_3=0.924785; m_3_4=0.673112; m_3_7=0.003304; m_3_8=-0.093784; m_3_9=0.002704; m_4_4=0.921860; m_4_5=0.509447; m_4_6=0.006821; m_4_7=-0.114333; m_4_8=0.003304; m_5_5=0.922242; m_5_6=0.916802; m_5_7=0.006821; m_6_6=0.922241; m_6_7=0.509789; m_7_7=0.921874; m_7_8=0.673230; m_8_8=0.924783; m_8_9=0.784896; m_9_9=0.926717; m_9_10=1.148698; m_10_10=0.927361; m_10_11=1.313603}
!
! Created with skrf (http://scikit-rf.org).
# Hz S RI R 50.0 
!freq ReS11 ImS11 ReS21 ImS21 ReS12 ImS12 ReS22 ImS22
12607400000.0 0.9993157497098193 0.03698692176587008 -1.3055351923846662e-16 3.347679255158484e-17 -1.3055351923846662e-16 3.347679255158484e-17 0.9993157241299928 0.03698761287728473
12608017333.333334 0.9996823228758936 0.025204232368178082 -1.3012122767690554e-16 3.501813993946715e-17 -1.3012122767690554e-16 3.501813993946715e-17 0.999682305445648 0.025204923699265414
12608634666.666666 0.9999099740429688 0.01341804043820383 -1.2967074969621234e-16 3.6553943910062573e-17 -1.2967074969621234e-16 3.6553943910062573e-17 0.9999099647639276 0.013418731892875397
12609252000.0 0.9999986715753355 0.0016299838576086221 -1.2920215595637255e-16 3.8083990013650446e-17 -1.2920215595637255e-16 3.8083990013650446e-17 0.99999867044799 0.0016306753397682372
12609869333.333334 0.9999484031471361 -0.010158299232853241 -1.2871551964452657e-16 3.9608064696506704e-17 -1.2871551964452657e-16 3.9608064696506704e-17 0.9999484101708455 -0.010157607819296175
12610486666.666666 0.9997591757440779 -0.021945170660838467 -1.2821091646366561e-16 4.1125955330647644e-17 -1.2821091646366561e-16 4.1125955330647644e-17 0.9997591909170674 -0.021944479411955604
12611104000.0 0.9994310156624573 -0.03372899245040628 -1.2768842462095919e-16 4.263745024349001e-17 -1.2768842462095919e-16 4.263745024349001e-17 0.999431038981822 -0.033728301462237015
12611721333.333334 0.9989639685055169 -0.04550812704913021 -1.2714812481576323e-16 4.4142338747273535e-17 -1.2714812481576323e-16 4.4142338747273535e-17 0.9989639999672176 -0.04550743641766825
12612338666.666666 0.9983580991770968 -0.05728093755608859 -1.2659010022725326e-16 4.564041116842061e-17 -1.2659010022725326e-16 4.564041116842061e-17 0.9983581387759656 -0.05728024737726875
12612956000.0 0.9976134918726102 -0.06904578794936658 -1.2601443650172403e-16 4.713145887670476e-17 -1.2601443650172403e-16 4.713145887670476e-17 0.9976135396023472 -0.06904509831905131
12613573333.333334 0.9967302500673677 -0.08080104331289684 -1.25421221739559e-16 4.8615274314228746e-17 -1.25421221739559e-16 4.8615274314228746e-17 0.9967303059205461 -0.08080035432686315
12614190666.666666 0.9957084965021731 -0.09254507006422556 -1.2481054648183325e-16 5.009165102430789e-17 -1.2481054648183325e-16 5.009165102430789e-17 0.9957085604702351 -0.09254438181815133
12614808000.0 0.9945483731662762 -0.10427623618124077 -1.24182503696598e-16 5.156038368013352e-17 -1.24182503696598e-16 5.156038368013352e-17 0.9945484452395383 -0.10427554877069176
12615425333.333334 0.993250041277638 -0.11599291142902504 -1.235371887648198e-16 5.302126811328696e-17 -1.235371887648198e-16 5.302126811328696e-17 0.9932501214452933 -0.11599222494944174
12616042666.666666 0.9918136812605338 -0.12769346758640335 -1.2287469946598678e-16 5.44741013420758e-17 -1.2287469946598678e-16 5.44741013420758e-17 0.9918137695106494 -0.12769278213308735
12616660000.0 0.9902394927204721 -0.13937627867221028 -1.2219513596338206e-16 5.591868159969151e-17 -1.2219513596338206e-16 5.591868159969151e-17 0.9902395890399943 -0.13937559434031133
12617277333.333334 0.9885276944164567 -0.15103972117127457 -1.2149860078902542e-16 5.735480836218836e-17 -1.2149860078902542e-16 5.735480836218836e-17 0.9885277987912112 -0.15103903805577723
12617894666.666666 0.9866785242306061 -0.16268217425989223 -1.2078519882829655e-16 5.878228237625544e-17 -1.2078519882829655e-16 5.878228237625544e-17 0.9866786366453005 -0.1626814924556027
12618512000.0 0.9846922391350474 -0.17430202003137507 -1.2005503730420616e-16 6.020090568685353e-17 -1.2005503730420616e-16 6.020090568685353e-17 0.9846923595732758 -0.17430133963290845
12619129333.333334 0.9825691151562727 -0.1858976437204924 -1.193082257613857e-16 6.161048166457287e-17 -1.193082257613857e-16 6.161048166457287e-17 0.9825692436005129 -0.18589696482225868
12619746666.666666 0.9803094473367298 -0.19746743392814883 -1.185448760497149e-16 6.301081503287466e-17 -1.185448760497149e-16 6.301081503287466e-17 0.9803095837683501 -0.19746675662434046
12620364000.0 0.9779135496938204 -0.2090097828453135 -1.1776510230764771e-16 6.440171189509744e-17 -1.1776510230764771e-16 6.440171189509744e-17 0.9779136940930806 -0.20900910722989216
12620981333.333334 0.9753817551763113 -0.22052308647620036 -1.1696902094523906e-16 6.57829797612282e-17 -1.1696902094523906e-16 6.57829797612282e-17 0.975381907522368 -0.2205224126428843
12621598666.666666 0.9727144156180153 -0.23200574486144904 -1.1615675062682302e-16 6.715442757452837e-17 -1.1615675062682302e-16 6.715442757452837e-17 0.9727145758889197 -0.23200507290369907
12622216000.0 0.9699119016889164 -0.2434561623003235 -1.153284122534071e-16 6.851586573789678e-17 -1.153284122534071e-16 6.851586573789678e-17 0.9699120698616237 -0.24345549231133123
12622833333.333334 0.9669746028436565 -0.25487274757251793 -1.144841289447456e-16 6.986710614004038e-17 -1.144841289447456e-16 6.986710614004038e-17 0.9669747788940241 -0.25487207964519193
12623450666.666666 0.9639029272674368 -0.2662539141591712 -1.1362402602111903e-16 7.120796218140535e-17 -1.1362402602111903e-16 7.120796218140535e-17 0.9639031111702296 -0.2662532483861245
12624068000.0 0.960697301819259 -0.27759808046347734 -1.1274823098479175e-16 7.253824879991412e-17 -1.1274823098479175e-16 7.253824879991412e-17 0.9606974935481558 -0.2775974169370149
12624685333.333334 0.9573581719726005 -0.28890367003050077 -1.1185687350117737e-16 7.385778249646236e-17 -1.1185687350117737e-16 7.385778249646236e-17 0.9573583715001927 -0.288903008842606
12625302666.666666 0.9538860017535826 -0.3001691117659768 -1.1095008537973021e-16 7.516638136015116e-17 -1.1095008537973021e-16 7.516638136015116e-17 0.9538862090513816 -0.3001684530082994
12625920000.0 0.95028127367637 -0.31139284015505037 -1.1002800055448803e-16 7.646386509336395e-17 -1.1002800055448803e-16 7.646386509336395e-17 0.9502814887148091 -0.3113921839188929
12626537333.333334 0.9465444886762284 -0.32257329547944663 -1.0909075506438584e-16 7.775005503651544e-17 -1.0909075506438584e-16 7.775005503651544e-17 0.94654471142467 -0.3225726418557529
12627154666.666666 0.9426761660398683 -0.3337089240343852 -1.0813848703323749e-16 7.902477419262261e-17 -1.0813848703323749e-16 7.902477419262261e-17 0.9426763964666062 -0.33370827311372714
12627772000.0 0.9386768433332124 -0.3447981783446786 -1.071713366494293e-16 8.028784725163048e-17 -1.071713366494293e-16 8.028784725163048e-17 0.9386770814054751 -0.34479753021724324
12628389333.333334 0.9345470763268698 -0.35583951737926905 -1.0618944614537788e-16 8.153910061443076e-17 -1.0618944614537788e-16 8.153910061443076e-17 0.9345473220108288 -0.35583887213484705
12629006666.666666 0.930287438918667 -0.3668314067660502 -1.0519295977663937e-16 8.277836241671657e-17 -1.0519295977663937e-16 8.277836241671657e-17 0.930287692179437 -0.3668307644940222
12629624000.0 0.9258985230540939 -0.37777231900452934 -1.0418202380080353e-16 8.400546255250605e-17 -1.0418202380080353e-16 8.400546255250605e-17 0.9258987838557418 -0.3777716797938545
12630241333.333334 0.9213809386439276 -0.3886607336784195 -1.0315678645607282e-16 8.522023269745879e-17 -1.0315678645607282e-16 8.522023269745879e-17 0.9213812069494752 -0.38866009761762293
12630858666.666666 0.9167353134796046 -0.39949513766661043 -1.0211739793960016e-16 8.642250633189736e-17 -1.0211739793960016e-16 8.642250633189736e-17 0.9167355892510349 -0.3994945048437708
12631476000.0 0.9119622931457338 -0.4102740253540155 -1.0106401038551692e-16 8.761211876361439e-17 -1.0106401038551692e-16 8.761211876361439e-17 0.9119625763439967 -0.4102733958567532
12632093333.333334 0.9070625409306854 -0.42099589884009764 -9.999677784275535e-17 8.878890715034344e-17 -9.999677784275535e-17 8.878890715034344e-17 0.9070628315157012 -0.4209952727555618
12632710666.666666 0.9020367377342254 -0.431659268147469 -9.891585625256372e-17 8.995271052201598e-17 -9.891585625256372e-17 8.995271052201598e-17 0.902037035664894 -0.4316586455623271
12633328000.0 0.8968855819728897 -0.44226265142894744 -9.78214034257641e-17 9.11033698027412e-17 -9.78214034257641e-17 9.11033698027412e-17 0.8968858872070927 -0.44226203242937134
12633945333.333334 0.8916097894830238 -0.45280457517327566 -9.67135790197924e-17 9.224072783247196e-17 -9.67135790197924e-17 9.224072783247196e-17 0.8916101019776316 -0.45280395984493044
12634562666.666666 0.8862100934212435 -0.4632835744100176 -9.559254451545061e-17 9.336462938843078e-17 -9.559254451545061e-17 9.336462938843078e-17 0.8862104131321236 -0.4632829628380507
12635180000.0 0.8806872441625689 -0.473698192913117 -9.44584631934267e-17 9.44749212062378e-17 -9.44584631934267e-17 9.44749212062378e-17 0.8806875710445885 -0.4736975851821445
12635797333.333334 0.8750420091961262 -0.484046983403284 -9.331150011056418e-17 9.557145200075955e-17 -9.331150011056418e-17 9.557145200075955e-17 0.875042343203162 -0.48404637959738084
12636414666.666666 0.869275173018554 -0.49432850774902226 -9.215182207590516e-17 9.665407248665798e-17 -9.215182207590516e-17 9.665407248665798e-17 0.8692755141034966 -0.49432790795170967
12637032000.0 0.8633875370248995 -0.5045413371666281 -9.09795976264672e-17 9.772263539867491e-17 -9.09795976264672e-17 9.772263539867491e-17 0.8633878851396606 -0.5045407414608618
12637649333.333334 0.8573799193973081 -0.5146840524186441 -8.979499700281422e-17 9.877699551159831e-17 -8.979499700281422e-17 9.877699551159831e-17 0.8573802744928269 -0.5146834608868032
12638266666.666666 0.8512531549913072 -0.5247552440111088 -8.85981921243824e-17 9.981700965994544e-17 -8.85981921243824e-17 9.981700965994544e-17 0.8512535170175577 -0.5247546567349842
12638884000.0 0.8450080952197925 -0.5347535123894297 -8.738935656458262e-17 1.0084253675734625e-16 -8.738935656458262e-17 1.0084253675734625e-16 0.8450084641257907 -0.5347529294502134
12639501333.333334 0.8386456079346921 -0.5446774681328969 -8.616866552567562e-17 1.0185343781562754e-16 -8.616866552567562e-17 1.0185343781562754e-16 0.8386459836685041 -0.5446768896111706
12640118666.666666 0.8321665773064626 -0.5545257321476246 -8.493629581345141e-17 1.0284957596357548e-16 -8.493629581345141e-17 1.0284957596357548e-16 0.8321669598152096 -0.5545251581233479
12640736000.0 0.8255719037009642 -0.5642969358585769 -8.369242581160977e-17 1.0383081646545842e-16 -8.369242581160977e-17 1.0383081646545842e-16 0.8255722929308308 -0.5642963664110758
12641353333.333334 0.818862503554718 -0.5739897213991829 -8.243723545609063e-17 1.0479702673911107e-16 -8.243723545609063e-17 1.0479702673911107e-16 0.8188628994509611 -0.5739891566071413
12641970666.666666 0.8120393092472245 -0.5836027418005355 -8.117090620900354e-17 1.0574807637386215e-16 -8.117090620900354e-17 1.0574807637386215e-16 0.8120397117541798 -0.5836021817419819
12642588000.0 0.8051032689715498 -0.5931346611783348 -7.989362103248843e-17 1.0668383714803972e-16 -7.989362103248843e-17 1.0668383714803972e-16 0.8051036780326387 -0.5931341059306313
12643205333.333334 0.7980553466025428 -0.602584154918554 -7.860556436232447e-17 1.0760418304620157e-16 -7.860556436232447e-17 1.0760418304620157e-16 0.7980557621602836 -0.602583604558389
12643822666.666666 0.7908965215628261 -0.6119499098616119 -7.730692208133522e-17 1.0850899027605165e-16 -7.730692208133522e-17 1.0850899027605165e-16 0.7908969435588384 -0.6119493644649855
12644440000.0 0.7836277886867681 -0.6212306244847385 -7.599788149262782e-17 1.0939813728501662e-16 -7.599788149262782e-17 1.0939813728501662e-16 0.7836282170617835 -0.6212300841269541
12645057333.333334 0.776250158082206 -0.6304250090828911 -7.4678631292624e-17 1.1027150477651374e-16 -7.4678631292624e-17 1.1027150477651374e-16 0.7762505927760744 -0.6304244738385444
12645674666.666666 0.7687646549901613 -0.6395317859478682 -7.334936154390856e-17 1.111289757258921e-16 -7.334936154390856e-17 1.111289757258921e-16 0.7687650959418618 -0.6395312558908378
12646292000.0 0.7611723196420462 -0.6485496895462665 -7.201026364787261e-17 1.1197043539606095e-16 -7.201026364787261e-17 1.1197043539606095e-16 0.7611727667896931 -0.6485491647497017
12646909333.333334 0.7534742071155897 -0.65747746669475 -7.066153031724323e-17 1.1279577135274904e-16 -7.066153031724323e-17 1.1279577135274904e-16 0.7534746603964425 -0.6574769472310629
12647526666.666666 0.7456713871878576 -0.6663138767346424 -6.930335554836555e-17 1.1360487347948041e-16 -6.930335554836555e-17 1.1360487347948041e-16 0.7456718465383309 -0.6663133626754971
12648144000.0 0.7377649441866236 -0.6750576917042876 -6.793593459334915e-17 1.143976339921943e-16 -6.793593459334915e-17 1.143976339921943e-16 0.7377654095422929 -0.6750571831205893
12648761333.333334 0.7297559768398304 -0.6837076965095231 -6.655946393205892e-17 1.151739474535256e-16 -6.655946393205892e-17 1.151739474535256e-16 0.7297564481354447 -0.6837071934714104
12649378666.666666 0.7216455981229115 -0.6922626890925427 -6.517414124393023e-17 1.1593371078675656e-16 -6.517414124393023e-17 1.1593371078675656e-16 0.7216460752924002 -0.6922621916693763
12649996000.0 0.7134349351039306 -0.700721480599149 -6.378016537960981e-17 1.1667682328943927e-16 -6.378016537960981e-17 1.1667682328943927e-16 0.713435418080413 -0.7007209888595021
12650613333.333334 0.7051251287870905 -0.709082895543816 -6.237773633246874e-17 1.1740318664666336e-16 -6.237773633246874e-17 1.1740318664666336e-16 0.7051256175028862 -0.7090824095554662
12651230666.666666 0.6967173339542346 -0.717345771972984 -6.096705520996897e-17 1.181127049439803e-16 -6.096705520996897e-17 1.181127049439803e-16 0.6967178283408718 -0.7173452918029027
12651848000.0 0.6882127190041705 -0.7255089616267322 -5.954832420483725e-17 1.1880528468000911e-16 -5.954832420483725e-17 1.1880528468000911e-16 0.6882132189923966 -0.7255084873410761
12652465333.333334 0.6796124657904822 -0.7335713300981672 -5.812174656616039e-17 1.1948083477866283e-16 -5.812174656616039e-17 1.1948083477866283e-16 0.6796129713102715 -0.7335708617622677
12653082666.666666 0.6709177694572949 -0.7415317569910691 -5.668752657031382e-17 1.2013926660104594e-16 -5.668752657031382e-17 1.2013926660104594e-16 0.6709182804378618 -0.7415312946694259
12653700000.0 0.6621298382729829 -0.7493891360757824 -5.524586949172128e-17 1.2078049395701702e-16 -5.524586949172128e-17 1.2078049395701702e-16 0.6621303546427892 -0.7493886798320528
12654317333.333334 0.6532498934625528 -0.7571423754426746 -5.379698157356821e-17 1.2140443311636584e-16 -5.379698157356821e-17 1.2140443311636584e-16 0.6532504151493186 -0.7571419253396655
12654934666.666666 0.6442791690377272 -0.7647903976540686 -5.2341069998307094e-17 1.2201100281967523e-16 -5.2341069998307094e-17 1.2201100281967523e-16 0.64427969596844 -0.7647899537537264
12655552000.0 0.6352189116254525 -0.7723321398939631 -5.087834285807619e-17 1.2260012428881491e-16 -5.087834285807619e-17 1.2260012428881491e-16 0.6352194437263793 -0.7723317022573668
12656169333.333334 0.6260703802948585 -0.7797665541155661 -4.9409009125033365e-17 1.2317172123706911e-16 -4.9409009125033365e-17 1.2317172123706911e-16 0.6260709174915542 -0.7797661228029187
12656786666.666666 0.6168348463820716 -0.7870926071871197 -4.7933278621510784e-17 1.2372571987893603e-16 -4.7933278621510784e-17 1.2372571987893603e-16 0.6168353885993911 -0.7870921822577394
12657404000.0 0.6075135933136532 -0.7943092810353818 -4.645136199011404e-17 1.2426204893954937e-16 -4.645136199011404e-17 1.2426204893954937e-16 0.6075141404757601 -0.7943088625476935
12658021333.333334 0.5981079164281989 -0.801415572787135 -4.496347066369256e-17 1.2478063966375197e-16 -4.496347066369256e-17 1.2478063966375197e-16 0.5981084684585776 -0.801415160798663
12658638666.666666 0.5886191227964461 -0.8084104949084687 -4.346981683523515e-17 1.2528142582480173e-16 -4.346981683523515e-17 1.2528142582480173e-16 0.5886196796179123 -0.8084100894758296
12659256000.0 0.5790485310394077 -0.815293075342184 -4.1970613427616955e-17 1.257643437327364e-16 -4.1970613427616955e-17 1.257643437327364e-16 0.5790490925741192 -0.8152926765210774
12659873333.333334 0.5693974711453338 -0.8220623576427227 -4.046607406332268e-17 1.2622933224235384e-16 -4.046607406332268e-17 1.2622933224235384e-16 0.5693980373147994 -0.8220619654879228
12660490666.666666 0.5596672842848878 -0.8287174011090824 -3.8956413034051297e-17 1.2667633276084222e-16 -3.8956413034051297e-17 1.2667633276084222e-16 0.5596678550099815 -0.8287170156744331
12661108000.0 0.549859322624538 -0.8352572809157054 -3.744184527020188e-17 1.2710528925505724e-16 -3.744184527020188e-17 1.2710528925505724e-16 0.5498598978255081 -0.8352569022541112
12661725333.333334 0.5399749491389793 -0.8416810882407718 -3.592258631036797e-17 1.2751614825841026e-16 -3.592258631036797e-17 1.2751614825841026e-16 0.53997552873546 -0.8416807164041913
12662342666.666666 0.5300155374214672 -0.847987930392672 -3.439885227066778e-17 1.279088588774182e-16 -3.439885227066778e-17 1.279088588774182e-16 0.5300161213324894 -0.8479875654321096
12662960000.0 0.5199824714930519 -0.8541769309339785 -3.287085981406281e-17 1.2828337279787143e-16 -3.287085981406281e-17 1.2828337279787143e-16 0.5199830596370553 -0.8541765728994789
12663577333.333334 0.5098771456102243 -0.8602472298032604 -3.1338826119589586e-17 1.286396442906422e-16 -3.1338826119589586e-17 1.286396442906422e-16 0.5098777379050682 -0.8602468787439007
12664194666.666666 0.49970096407116005 -0.8661979834345991 -2.980296885153415e-17 1.2897763021712394e-16 -2.980296885153415e-17 1.2897763021712394e-16 0.4997015604341347 -0.8661976393984825
12664812000.0 0.48945534102057053 -0.8720283648748189 -2.826350612855045e-17 1.2929729003430553e-16 -2.826350612855045e-17 1.2929729003430553e-16 0.489455941368409 -0.8720280279090672
12665429333.333334 0.4791417002531338 -0.8777375638984294 -2.67206564927227e-17 1.2959858579947597e-16 -2.67206564927227e-17 1.2959858579947597e-16 0.479142304502024 -0.8777372340491784
12666046666.666666 0.468761475015886 -0.8833247871200857 -2.5174638878602364e-17 1.2988148217455778e-16 -2.5174638878602364e-17 1.2988148217455778e-16 0.4687620830814816 -0.8833244644324775
12666664000.0 0.45831610780849796 -0.8887892581051389 -2.3625672582142848e-17 1.3014594643008212e-16 -2.3625672582142848e-17 1.3014594643008212e-16 0.4583167196059305 -0.8887889426233158
12667281333.333334 0.44780705018351785 -0.8941302174771577 -2.2073977229687695e-17 1.3039194844877793e-16 -2.2073977229687695e-17 1.3039194844877793e-16 0.4478076656274091 -0.8941299092442575
12667898666.666666 0.43723576254415436 -0.8993469230237268 -2.0519772746835532e-17 1.3061946072880698e-16 -2.0519772746835532e-17 1.3061946072880698e-16 0.43723638154862693 -0.8993466220818741
12668516000.0 0.4266037139413246 -0.9044386497995769 -1.896327932731177e-17 1.308284583866217e-16 -1.896327932731177e-17 1.308284583866217e-16 0.42660433642001494 -0.9044383561898798
12669133333.333334 0.41591238186996726 -0.9094046902271088 -1.7404717401848507e-17 1.3101891915944953e-16 -1.7404717401848507e-17 1.3101891915944953e-16 0.4159130077360378 -0.909404403989653
12669750666.666666 0.40516325206320963 -0.9142443541949697 -1.5844307606972025e-17 1.311908234074152e-16 -1.5844307606972025e-17 1.311908234074152e-16 0.40516388122936015 -0.9142440753688122
12670368000.0 0.3943578182861307 -0.9189569691538434 -1.428227075382588e-17 1.313441541152863e-16 -1.428227075382588e-17 1.313441541152863e-16 0.39435845066461106 -0.9189566977770067
