! Parameters = {f0=12700.012000; bw=77.238000; Q=6100.000000; N=10; m_0_1=1.220515; m_1_1=-0.457013; m_1_2=1.055327; m_2_2=-0.457662; m_2_3=0.692290; m_2_8=-0.001911; m_2_9=0.034793; m_3_3=-0.459599; m_3_4=0.580819; m_3_7=-0.001311; m_3_8=-0.098399; m_3_9=-0.001911; m_4_4=-0.462524; m_4_5=0.417154; m_4_6=0.002206; m_4_7=-0.118948; m_4_8=-0.001311; m_5_5=-0.462142; m_5_6=0.824509; m_5_7=0.002206; m_6_6=-0.462143; m_6_7=0.417496; m_7_7=-0.462510; m_7_8=0.580937; m_8_8=-0.459601; m_8_9=0.692603; m_9_9=-0.457667; m_9_10=1.056405; m_10_10=-0.457023; m_10_11=1.221310}
!
! Created with skrf (http://scikit-rf.org).
# Hz S RI R 50.0 
!freq ReS11 ImS11 ReS21 ImS21 ReS12 ImS12 ReS22 ImS22
12607400000.0 0.7286158663169084 -0.6849225644925836 -4.388727798001381e-17 7.519811528422891e-17 -4.388727798001381e-17 7.519811528422891e-17 0.7286163068091872 -0.6849220958996557
12608017333.333334 0.7223806108741432 -0.6914956637846235 -4.3189022208363007e-17 7.558167015474373e-17 -4.3189022208363007e-17 7.558167015474373e-17 0.7223810555719862 -0.6914951992245064
12608634666.666666 0.7160860595106276 -0.6980120023139851 -4.2487424508530316e-17 7.595874776145532e-17 -4.2487424508530316e-17 7.595874776145532e-17 0.7160865083771224 -0.6980115418244155
12609252000.0 0.7097327289086833 -0.7044710451932504 -4.178254490771303e-17 7.632931908299862e-17 -4.178254490771303e-17 7.632931908299862e-17 0.7097331819065787 -0.7044705888116269
12609869333.333334 0.7033211405753885 -0.7108722622381407 -4.1074443684200485e-17 7.669335565377699e-17 -4.1074443684200485e-17 7.669335565377699e-17 0.7033215976670978 -0.7108718100015204
12610486666.666666 0.6968518207999519 -0.7172151280108562 -4.036318136224427e-17 7.705082956612034e-17 -4.036318136224427e-17 7.705082956612034e-17 0.6968522819475561 -0.717214679955953
12611104000.0 0.69032530061027 -0.7234991218634461 -3.9648818706874636e-17 7.74017134724136e-17 -3.9648818706874636e-17 7.74017134724136e-17 0.6903257657755212 -0.7234986780266272
12611721333.333334 0.6837421157296218 -0.7297237279802664 -3.8931416718753805e-17 7.774598058714932e-17 -3.8931416718753805e-17 7.774598058714932e-17 0.6837425848739457 -0.7297232883975484
12612338666.666666 0.6771028065324926 -0.7358884354205187 -3.821103662895872e-17 7.808360468895963e-17 -3.821103662895872e-17 7.808360468895963e-17 0.6771032796169926 -0.7358880001275669
12612956000.0 0.6704079180002139 -0.7419927381601891 -3.748773989376619e-17 7.841456012258931e-17 -3.748773989376619e-17 7.841456012258931e-17 0.6704083949856733 -0.7419923071923118
12613573333.333334 0.66365799967642 -0.7480361351334109 -3.6761588189452853e-17 7.873882180080702e-17 -3.6761588189452853e-17 7.873882180080702e-17 0.6636584805233054 -0.7480357085255583
12614190666.666666 0.6568536056217262 -0.7540181302737848 -3.6032643407013696e-17 7.905636520629806e-17 -3.6032643407013696e-17 7.905636520629806e-17 0.6568540902901926 -0.7540177080605469
12614808000.0 0.6499952943683379 -0.7599382325550255 -3.530096764692081e-17 7.936716639348299e-17 -3.530096764692081e-17 7.936716639348299e-17 0.6499957828182285 -0.7599378147706263
12615425333.333334 0.6430836288742623 -0.7657959560312049 -3.4566623213841797e-17 7.967120199029872e-17 -3.4566623213841797e-17 7.967120199029872e-17 0.6430841210651163 -0.7657955427095038
12616042666.666666 0.6361191764769769 -0.7715908198767597 -3.3829672611348016e-17 7.996844919992952e-17 -3.3829672611348016e-17 7.996844919992952e-17 0.6361196723680284 -0.7715904110512447
12616660000.0 0.6291025088469402 -0.7773223484258783 -3.3090178536607853e-17 8.02588858024884e-17 -3.3090178536607853e-17 8.02588858024884e-17 0.6291030083971244 -0.7773219441296664
12617277333.333334 0.6220342019406259 -0.782990071211587 -3.234820387506389e-17 8.054249015665136e-17 -3.234820387506389e-17 8.054249015665136e-17 0.6220347051085818 -0.7829896714774194
12617894666.666666 0.614914835953356 -0.7885935230042751 -3.1603811695110146e-17 8.081924120123669e-17 -3.1603811695110146e-17 8.081924120123669e-17 0.6149153426974296 -0.7885931278645155
12618512000.0 0.6077449952714328 -0.7941322438500804 -3.085706524271905e-17 8.108911845674929e-17 -3.085706524271905e-17 8.108911845674929e-17 0.6077455055496802 -0.7941318533367121
12619129333.333334 0.6005252684244796 -0.7996057791083954 -3.01080279361137e-17 8.135210202685435e-17 -3.01080279361137e-17 8.135210202685435e-17 0.6005257821946716 -0.799605393253019
12619746666.666666 0.593256248036912 -0.8050136794893634 -2.9356763360371924e-17 8.16081725998217e-17 -2.9356763360371924e-17 8.16081725998217e-17 0.5932567652565364 -0.8050132983231942
12620364000.0 0.5859385307792645 -0.8103555010907704 -2.8603335262042e-17 8.18573114499127e-17 -2.8603335262042e-17 8.18573114499127e-17 0.5859390514055308 -0.8103551246446361
12620981333.333334 0.5785727173195145 -0.8156308054342666 -2.7847807543765306e-17 8.209950043871083e-17 -2.7847807543765306e-17 8.209950043871083e-17 0.5785732413093561 -0.8156304337386036
12621598666.666666 0.5711594122734078 -0.8208391595016243 -2.709024425885569e-17 8.233472201641404e-17 -2.709024425885569e-17 8.233472201641404e-17 0.5711599395834865 -0.8208387925864771
12622216000.0 0.5636992241550367 -0.8259801357701325 -2.633070960587971e-17 8.256295922307317e-17 -2.633070960587971e-17 8.256295922307317e-17 0.5636997547417465 -0.8259797736651497
12622833333.333334 0.5561927653268223 -0.8310533122477399 -2.556926792323417e-17 8.278419568977861e-17 -2.556926792323417e-17 8.278419568977861e-17 0.5561932991462918 -0.8310529549821728
12623450666.666666 0.5486406519493416 -0.836058272507628 -2.4805983683716195e-17 8.299841563979599e-17 -2.4805983683716195e-17 8.299841563979599e-17 0.5486411889574384 -0.8360579201103268
12624068000.0 0.5410435039306339 -0.8409946057224734 -2.4040921489065563e-17 8.320560388965794e-17 -2.4040921489065563e-17 8.320560388965794e-17 0.5410440440829692 -0.840994258221888
12624685333.333334 0.5334019448752924 -0.8458619066981866 -2.3274146064507597e-17 8.340574585020263e-17 -2.3274146064507597e-17 8.340574585020263e-17 0.5334024881272224 -0.84586156412236
12625302666.666666 0.5257166020335136 -0.8506597759070156 -2.2505722253314173e-17 8.359882752755545e-17 -2.2505722253314173e-17 8.359882752755545e-17 0.5257171483401447 -0.8506594382835845
12625920000.0 0.5179881062492504 -0.8553878195205685 -2.1735715011297386e-17 8.378483552407592e-17 -2.1735715011297386e-17 8.378483552407592e-17 0.5179886555654435 -0.8553874868767614
12626537333.333334 0.5102170919087441 -0.8600456494419477 -2.0964189401365106e-17 8.396375703923676e-17 -2.0964189401365106e-17 8.396375703923676e-17 0.5102176441891171 -0.8600453218045808
12627154666.666666 0.5024041968884044 -0.864632883337637 -2.0191210588022104e-17 8.413557987046516e-17 -2.0191210588022104e-17 8.413557987046516e-17 0.5024047520873358 -0.864632560733113
12627772000.0 0.4945500625021543 -0.8691491446690565 -1.9416843831864522e-17 8.430029241393235e-17 -1.9416843831864522e-17 8.430029241393235e-17 0.4945506205737885 -0.8691488271233634
12628389333.333334 0.48665533344923223 -0.8735940627232157 -1.8641154484116745e-17 8.445788366528315e-17 -1.8641154484116745e-17 8.445788366528315e-17 0.48665589434748163 -0.8735937502619227
12629006666.666666 0.4787206577608768 -0.877967272643366 -1.7864207981092844e-17 8.460834322032936e-17 -1.7864207981092844e-17 8.460834322032936e-17 0.47872122143942636 -0.8779669652916225
12629624000.0 0.47074668674740594 -0.8822684154587975 -1.7086069838713486e-17 8.475166127568076e-17 -1.7086069838713486e-17 8.475166127568076e-17 0.47074725315971694 -0.8822681132413313
12630241333.333334 0.4627340749446054 -0.8864971381143859 -1.6306805646989266e-17 8.488782862933083e-17 -1.6306805646989266e-17 8.488782862933083e-17 0.4627346440439199 -0.8864968410555019
12630858666.666666 0.45468348006015485 -0.8906530934994974 -1.5526481064505e-17 8.501683668119232e-17 -1.5526481064505e-17 8.501683668119232e-17 0.45468405179949806 -0.8906528016230729
12631476000.0 0.4465955629193593 -0.8947359404766183 -1.474516181288318e-17 8.513867743358303e-17 -1.474516181288318e-17 8.513867743358303e-17 0.44659613725154484 -0.8947356538061041
12632093333.333334 0.4384709874112372 -0.8987453439091926 -1.396291367129067e-17 8.525334349165522e-17 -1.396291367129067e-17 8.525334349165522e-17 0.4384715642888705 -0.8987450624676102
12632710666.666666 0.43031042043384815 -0.9026809746892214 -1.3179802470898973e-17 8.536082806378095e-17 -1.3179802470898973e-17 8.536082806378095e-17 0.43031099980933035 -0.9026806984991601
12633328000.0 0.4221145318395253 -0.9065425097642893 -1.2395894089344619e-17 8.546112496188553e-17 -1.2395894089344619e-17 8.546112496188553e-17 0.42211511366505705 -0.9065422388479057
12633945333.333334 0.413883994379967 -0.9103296321640426 -1.1611254445222065e-17 8.555422860172678e-17 -1.1611254445222065e-17 8.555422860172678e-17 0.4138845786075526 -0.9103293665430585
12634562666.666666 0.4056194836509901 -0.9140420310262226 -1.0825949492541094e-17 8.56401340031273e-17 -1.0825949492541094e-17 8.56401340031273e-17 0.4056200702324413 -0.9140417707219218
12635180000.0 0.3973216780370737 -0.9176794016221796 -1.0040045215198144e-17 8.571883679015494e-17 -1.0040045215198144e-17 8.571883679015494e-17 0.39732226692401396 -0.9176791466554091
12635797333.333334 0.38899125865564865 -0.9212414453819 -9.25360762144235e-18 8.579033319125278e-17 -9.25360762144235e-18 8.579033319125278e-17 0.3889918497995167 -0.9212411957730654
12636414666.666666 0.38062890930129306 -0.9247278699184673 -8.466702738353949e-18 8.585462003931745e-17 -8.466702738353949e-18 8.585462003931745e-17 0.3806295026533474 -0.9247276256875332
12637032000.0 0.3722353163894474 -0.9281383890521314 -7.679396606298838e-18 8.591169477172931e-17 -7.679396606298838e-18 8.591169477172931e-17 0.3722359119007698 -0.9281381502186188
12637649333.333334 0.3638111689001743 -0.9314727228337532 -6.891755273408637e-18 8.596155543032955e-17 -6.891755273408637e-18 8.596155543032955e-17 0.3638117665216745 -0.9314724894167387
12638266666.666666 0.355357158321553 -0.9347305975678062 -6.103844790047546e-18 8.600420066134823e-17 -6.103844790047546e-18 8.600420066134823e-17 0.3553577580039717 -0.9347303695859187
12638884000.0 0.34687397859302377 -0.9379117458348011 -5.315731203295905e-18 8.603962971528063e-17 -5.315731203295905e-18 8.603962971528063e-17 0.34687458028693763 -0.9379115233062222
12639501333.333334 0.33836232604824173 -0.9410159065133072 -4.527480551409259e-18 8.606784244671493e-17 -4.527480551409259e-18 8.606784244671493e-17 0.33836292970406734 -0.9410156894557699
12640118666.666666 0.32982289935818526 -0.9440428248012895 -3.739158858321912e-18 8.608883931410729e-17 -3.739158858321912e-18 8.608883931410729e-17 0.3298235049261828 -0.9440426132320751
12640736000.0 0.3212563994733512 -0.9469922522371852 -2.9508321280877287e-18 8.610262137950854e-17 -2.9508321280877287e-18 8.610262137950854e-17 0.321257006903629 -0.9469920461731235
12641353333.333334 0.31266352956686155 -0.9498639467200714 -2.1625663394251893e-18 8.610919030823834e-17 -2.1625663394251893e-18 8.610919030823834e-17 0.31266413880937965 -0.9498637461775382
12641970666.666666 0.3040449949761803 -0.9526576725297353 -1.3744274401564717e-18 8.61085483685112e-17 -1.3744274401564717e-18 8.61085483685112e-17 0.3040456059807551 -0.9526574775246519
12642588000.0 0.29540150314548574 -0.9553732003459305 -5.864813417272183e-19 8.610069843101069e-17 -5.864813417272183e-19 8.610069843101069e-17 0.2954021158617939 -0.9553730108937621
12643205333.333334 0.2867337635675733 -0.9580103072672096 2.012060862954606e-19 8.608564396841412e-17 2.012060862954606e-19 8.608564396841412e-17 0.2867343779451557 -0.9580101233829639
12643822666.666666 0.2780424877254816 -0.9605687768292618 9.885690217266614e-19 8.606338905486647e-17 9.885690217266614e-19 8.606338905486647e-17 0.2780431037137481 -0.9605685985274883
12644440000.0 0.26932838903433626 -0.9630483990226072 1.7755416952392315e-18 8.603393836540525e-17 1.7755416952392315e-18 8.603393836540525e-17 0.2693290065825692 -0.9630482263173965
12645057333.333334 0.2605921827825994 -0.9654489703098958 2.562058395847439e-18 8.599729717533437e-17 2.562058395847439e-18 8.599729717533437e-17 0.2605928018399581 -0.9654488032148768
12645674666.666666 0.2518345860734649 -0.9677702936425798 3.3480534763811805e-18 8.595347135954874e-17 3.3480534763811805e-18 8.595347135954874e-17 0.25183520658898967 -0.9677701321709192
12646292000.0 0.2430563177657762 -0.9700121784771467 4.133461358969784e-18 8.590246739180744e-17 4.133461358969784e-18 8.590246739180744e-17 0.24305693968839262 -0.9700120226415496
12646909333.333334 0.2342580984153765 -0.9721744407906688 4.9182165404715005e-18 8.584429234396001e-17 4.9182165404715005e-18 8.584429234396001e-17 0.23425872169389997 -0.972174290603376
12647526666.666666 0.22544065021568813 -0.9742569030959782 5.7022535979385825e-18 8.577895388512055e-17 5.7022535979385825e-18 8.577895388512055e-17 0.22544127479882728 -0.9742567585687649
12648144000.0 0.21660469693845819 -0.976259394456226 6.485507194071017e-18 8.570646028079192e-17 6.485507194071017e-18 8.570646028079192e-17 0.21660532277482014 -0.9762592556004032
12648761333.333334 0.20775096387446007 -0.9781817504988887 7.267912082629323e-18 8.562682039194276e-17 7.267912082629323e-18 8.562682039194276e-17 0.20775159091255382 -0.9781816173253004
12649378666.666666 0.19888017777395864 -0.980023813429264 8.049403113859565e-18 8.554004367403397e-17 8.049403113859565e-18 8.554004367403397e-17 0.19888080596219937 -0.9800236859482855
12649996000.0 0.18999306678688843 -0.9817854320434539 8.829915239917843e-18 8.544614017599415e-17 8.829915239917843e-18 8.544614017599415e-17 0.18999369607360223 -0.9817853102649933
12650613333.333334 0.1810903604032792 -0.9834664617407382 9.609383520264748e-18 8.534512053914795e-17 9.609383520264748e-18 8.534512053914795e-17 0.1810909907367072 -0.9834663456742357
12651230666.666666 0.1721727893933219 -0.9850667645354605 1.0387743127046307e-17 8.523699599609604e-17 1.0387743127046307e-17 8.523699599609604e-17 0.1721734207216238 -0.9850666541898838
12651848000.0 0.16324108574721427 -0.9865862090683756 1.1164929350497318e-17 8.512177836954128e-17 1.1164929350497318e-17 8.512177836954128e-17 0.16324171801847373 -0.9865861044522242
12652465333.333334 0.15429598261530114 -0.9880246706173971 1.194087760428669e-17 8.499948007107243e-17 1.194087760428669e-17 8.499948007107243e-17 0.1542966157775293 -0.9880245717386992
12653082666.666666 0.1453382142478949 -0.9893820311078375 1.2715523430872194e-17 8.487011409989587e-17 1.2715523430872194e-17 8.487011409989587e-17 0.14533884824903473 -0.9893819379741488
12653700000.0 0.13636851593472388 -0.9906581791221427 1.3488802506866447e-17 8.473369404151531e-17 1.3488802506866447e-17 8.473369404151531e-17 0.13636915072265465 -0.9906580917405462
12654317333.333334 0.12738762394497014 -0.9918530099089744 1.4260650648331726e-17 8.459023406637182e-17 1.4260650648331726e-17 8.459023406637182e-17 0.12738825946751178 -0.991852928286082
12654934666.666666 0.11839627546655333 -0.992966425391859 1.5031003816118875e-17 8.443974892842622e-17 1.5031003816118875e-17 8.443974892842622e-17 0.11839691167147033 -0.9929663495338078
12655552000.0 0.10939520854558937 -0.9939983341772279 1.579979812117023e-17 8.428225396369603e-17 1.579979812117023e-17 8.428225396369603e-17 0.10939584538059555 -0.993998264089683
12656169333.333334 0.10038516202617684 -0.9949486515618866 1.6566969829774553e-17 8.411776508875199e-17 1.6566969829774553e-17 8.411776508875199e-17 0.10038579943893916 -0.9949485872500364
12656786666.666666 0.09136687548929702 -0.9958172995400116 1.7332455368876294e-17 8.394629879915225e-17 1.7332455368876294e-17 8.394629879915225e-17 0.09136751342744033 -0.9958172410085722
12657404000.0 0.08234108919236095 -0.9966042068095302 1.809619133130947e-17 8.37678721678409e-17 1.809619133130947e-17 8.37678721678409e-17 0.08234172760347203 -0.996604154062742
12658021333.333334 0.07330854400836098 -0.99730930877798 1.8858114481044396e-17 8.358250284349289e-17 1.8858114481044396e-17 8.358250284349289e-17 0.07330918283999285 -0.9973092618196079
12658638666.666666 0.06426998136519846 -0.9979325475677978 1.9618161758398978e-17 8.339020904881574e-17 1.9618161758398978e-17 8.339020904881574e-17 0.06427062056487474 -0.9979325064011313
12659256000.0 0.0552261431845412 -0.9984738720210956 2.0376270285268796e-17 8.319100957879559e-17 2.0376270285268796e-17 8.319100957879559e-17 0.0552267826997605 -0.998473836648949
12659873333.333334 0.04617777182117843 -0.998933237703837 2.113237737029496e-17 8.298492379890664e-17 2.113237737029496e-17 8.298492379890664e-17 0.04617841159941852 -0.9989332081285479
12660490666.666666 0.0371256100020856 -0.9993106069094888 2.1886420514035765e-17 8.277197164326923e-17 2.1886420514035765e-17 8.277197164326923e-17 0.03712624999080786 -0.9993105831329209
12661108000.0 0.028070400765174447 -0.9996059486621318 2.2638337414143522e-17 8.255217361275335e-17 2.2638337414143522e-17 8.255217361275335e-17 0.028071040911828004 -0.9996059306856702
12661725333.333334 0.019012887398670405 -0.9998192387189815 2.3388065970466756e-17 8.232555077305228e-17 2.3388065970466756e-17 8.232555077305228e-17 0.0190135276506966 -0.999819226543536
12662342666.666666 0.009953813379901862 -0.9999504595723906 2.4135544290192036e-17 8.209212475269246e-17 2.4135544290192036e-17 8.209212475269246e-17 0.00995445368473852 -0.9999504531983956
12662960000.0 0.0008939223142441 -0.9999996004512873 2.4880710692928956e-17 8.185191774100805e-17 2.4880710692928956e-17 8.185191774100805e-17 0.0008945626193298134 -0.999999599878699
12663577333.333334 -0.008166042125833687 -0.999966657322052 2.562350371579176e-17 8.160495248606458e-17 2.562350371579176e-17 8.160495248606458e-17 -0.0081654018730552 -0.9999666625503519
12664194666.666666 -0.017225336261840352 -0.9998516328888524 2.636386211844688e-17 8.135125229254097e-17 2.636386211844688e-17 8.135125229254097e-17 -0.01722469611391598 -0.9998516439170472
12664812000.0 -0.02628321647030701 -0.9996545365934238 2.7101724888163054e-17 8.109084101955858e-17 2.7101724888163054e-17 8.109084101955858e-17 -0.026282576479769882 -0.9996545534200417
12665429333.333334 -0.03533893924385499 -0.9993753846142882 2.7837031244819524e-17 8.08237430784712e-17 2.7837031244819524e-17 8.08237430784712e-17 -0.03533829946322023 -0.9993754072373834
12666046666.666666 -0.04439176125208398 -0.9990141998654353 2.8569720645890814e-17 8.054998343061104e-17 2.8569720645890814e-17 8.054998343061104e-17 -0.04439112173384434 -0.9990142282825855
12666664000.0 -0.05344093940289994 -0.9985710119944268 2.929973279144362e-17 8.026958758497665e-17 2.929973279144362e-17 8.026958758497665e-17 -0.053440300199521514 -0.9985710462027346
12667281333.333334 -0.062485730903141946 -0.99804585737998 3.0027007629054884e-17 7.998258159589773e-17 3.0027007629054884e-17 7.998258159589773e-17 -0.06248509206705984 -0.9980458973760725
12667898666.666666 -0.07152539331972403 -0.9974387791289735 3.075148535876157e-17 7.968899206063422e-17 3.075148535876157e-17 7.968899206063422e-17 -0.0715247549033382 -0.9974388249090047
12668516000.0 -0.0805591846407474 -0.9967498270729 3.147310643796465e-17 7.938884611693937e-17 3.147310643796465e-17 7.938884611693937e-17 -0.08055854669641815 -0.9967498786325482
12669133333.333334 -0.0895863633360389 -0.9959790577637974 3.219181158628958e-17 7.908217144058733e-17 3.219181158628958e-17 7.908217144058733e-17 -0.0895857259160827 -0.9959791150982668
12669750666.666666 -0.09860618841833073 -0.9951265344695858 3.2907541790465555e-17 7.876899624283884e-17 3.2907541790465555e-17 7.876899624283884e-17 -0.09860555157501598 -0.995126597573608
12670368000.0 -0.10761791950397029 -0.9941923271688815 3.362023830914903e-17 7.844934926787611e-17 3.362023830914903e-17 7.844934926787611e-17 -0.10761728328951285 -0.9941923960367143
