! Parameters = {f0=12700.012000; bw=77.238000; Q=6100.000000; N=10; m_0_1=1.212107; m_1_1=-0.583139; m_1_2=1.046919; m_2_2=-0.583788; m_2_3=0.683882; m_2_8=-0.002331; m_2_9=0.034373; m_3_3=-0.585725; m_3_4=0.572411; m_3_7=-0.001731; m_3_8=-0.098819; m_3_9=-0.002331; m_4_4=-0.588650; m_4_5=0.408746; m_4_6=0.001786; m_4_7=-0.119368; m_4_8=-0.001731; m_5_5=-0.588268; m_5_6=0.816101; m_5_7=0.001786; m_6_6=-0.588269; m_6_7=0.409088; m_7_7=-0.588636; m_7_8=0.572529; m_8_8=-0.585727; m_8_9=0.684195; m_9_9=-0.583793; m_9_10=1.047997; m_10_10=-0.583149; m_10_11=1.212902}
!
! Created with skrf (http://scikit-rf.org).
# Hz S RI R 50.0 
!freq ReS11 ImS11 ReS21 ImS21 ReS12 ImS12 ReS22 ImS22
12607400000.0 -0.3774645115464912 -0.9260240507259022 5.2181163594303304e-17 6.518303343826363e-17 5.2181163594303304e-17 6.518303343826363e-17 -0.37746392008422736 -0.9260242918166282
12608017333.333334 -0.3856093956721687 -0.9226621234066045 5.2748895829871777e-17 6.470336150709723e-17 5.2748895829871777e-17 6.470336150709723e-17 -0.3856088063860624 -0.9226623696875011
12608634666.666666 -0.3937243404294653 -0.9192285590391661 5.331222663097362e-17 6.421875127831642e-17 5.331222663097362e-17 6.421875127831642e-17 -0.39372375336505466 -0.9192288104906053
12609252000.0 -0.4018087157604108 -0.9157236242113712 5.38711131021379e-17 6.372924307055765e-17 5.38711131021379e-17 6.372924307055765e-17 -0.4018081309630565 -0.9157238808133239
12609869333.333334 -0.40986189398041895 -0.9121475910523595 5.442551271663987e-17 6.32348775745151e-17 5.442551271663987e-17 6.32348775745151e-17 -0.4098613114953015 -0.9121478527843995
12610486666.666666 -0.41788324982710173 -0.9085007372114667 5.497538331969986e-17 6.273569584959365e-17 5.497538331969986e-17 6.273569584959365e-17 -0.4178826696992178 -0.9085010040527716
12611104000.0 -0.42587216050891796 -0.9047833458366181 5.55206831317088e-17 6.223173932048406e-17 5.55206831317088e-17 6.223173932048406e-17 -0.4258715827830764 -0.9047836177659702
12611721333.333334 -0.4338280057532443 -0.9009957055524753 5.606137075134988e-17 6.172304977377506e-17 5.606137075134988e-17 6.172304977377506e-17 -0.433827430474063 -0.9009959825482636
12612338666.666666 -0.4417501678548688 -0.8971381104378713 5.659740515875998e-17 6.120966935447503e-17 5.659740515875998e-17 6.120966935447503e-17 -0.44174959506677225 -0.8971383924780958
12612956000.0 -0.4496380317237714 -0.8932108600030636 5.712874571861503e-17 6.069164056254601e-17 5.712874571861503e-17 6.069164056254601e-17 -0.44963746147098566 -0.8932111470653329
12613573333.333334 -0.45749098493285373 -0.8892142591664879 5.765535218318668e-17 6.016900624941012e-17 5.765535218318668e-17 6.016900624941012e-17 -0.45749041725940387 -0.8892145512280238
12614190666.666666 -0.4653084177655423 -0.885148618231067 5.817718469539877e-17 5.964180961439797e-17 5.817718469539877e-17 5.964180961439797e-17 -0.46530785271524844 -0.8851489152687042
12614808000.0 -0.473089723263201 -0.8810142528600696 5.869420379180953e-17 5.911009420121236e-17 5.869420379180953e-17 5.911009420121236e-17 -0.47308916087967623 -0.8810145548502608
12615425333.333334 -0.4808342972721073 -0.8768114840526882 5.920637040559681e-17 5.857390389433105e-17 5.920637040559681e-17 5.857390389433105e-17 -0.4808337375987527 -0.8768117909715023
12616042666.666666 -0.4885415384904348 -0.8725406381190731 5.971364586948245e-17 5.80332829154127e-17 5.971364586948245e-17 5.80332829154127e-17 -0.48854098157043646 -0.8725409499421983
12616660000.0 -0.4962108485150119 -0.868202046654954 6.021599191865004e-17 5.748827581965025e-17 6.021599191865004e-17 5.748827581965025e-17 -0.4962102943913392 -0.8682023633577024
12617277333.333334 -0.5038416318876376 -0.8637960465159831 6.071337069360547e-17 5.693892749212487e-17 6.071337069360547e-17 5.693892749212487e-17 -0.5038410806030372 -0.8637963680732877
12617894666.666666 -0.5114332961413847 -0.8593229797915323 6.120574474302045e-17 5.638528314411849e-17 6.120574474302045e-17 5.638528314411849e-17 -0.5114327477383799 -0.8593233061779544
12618512000.0 -0.5189852518466758 -0.8547831937780961 6.169307702654232e-17 5.58273883094012e-17 6.169307702654232e-17 5.58273883094012e-17 -0.5189847063675611 -0.8547835249678221
12619129333.333334 -0.5264969126568989 -0.8501770409524079 6.217533091755614e-17 5.526528884051102e-17 6.217533091755614e-17 5.526528884051102e-17 -0.5264963701437385 -0.850177376919256
12619746666.666666 -0.5339676953540083 -0.8455048789440353 6.265247020592735e-17 5.4699030904993744e-17 6.265247020592735e-17 5.4699030904993744e-17 -0.5339671558486312 -0.8455052196614535
12620364000.0 -0.5413970198938762 -0.8407670705075632 6.312445910070974e-17 5.412866098161902e-17 6.312445910070974e-17 5.412866098161902e-17 -0.541396483437874 -0.8407674159486337
12620981333.333334 -0.5487843094511845 -0.8359639834945204 6.359126223280602e-17 5.3554225856590086e-17 6.359126223280602e-17 5.3554225856590086e-17 -0.5487837760859084 -0.8359643336319625
12621598666.666666 -0.5561289904642839 -0.8310959908247764 6.40528446576072e-17 5.297577261971372e-17 6.40528446576072e-17 5.297577261971372e-17 -0.5561284602308408 -0.8310963456309464
12622216000.0 -0.5634304926797962 -0.8261634704575371 6.450917185759764e-17 5.239334866054816e-17 6.450917185759764e-17 5.239334866054816e-17 -0.5634299656190463 -0.8261638299044324
12622833333.333334 -0.570688249196748 -0.8211668053620951 6.496020974491158e-17 5.1807001664544934e-17 6.496020974491158e-17 5.1807001664544934e-17 -0.5706877253493011 -0.8211671694213551
12623450666.666666 -0.5779016965106814 -0.8161063834880331 6.540592466386969e-17 5.1216779609150647e-17 6.540592466386969e-17 5.1216779609150647e-17 -0.5779011759168925 -0.8161067521309406
12624068000.0 -0.5850702745573545 -0.8109825977351309 6.584628339347003e-17 5.062273075989991e-17 6.584628339347003e-17 5.062273075989991e-17 -0.585069757257324 -0.8109829709326181
12624685333.333334 -0.5921934267563249 -0.8057958459228004 6.62812531498609e-17 5.0024903666464753e-17 6.62812531498609e-17 5.0024903666464753e-17 -0.5921929127898921 -0.8057962236454467
12625302666.666666 -0.5992706000539961 -0.8005465307593084 6.671080158874122e-17 4.942334715873184e-17 6.671080158874122e-17 4.942334715873184e-17 -0.5992700894607386 -0.800546912977346
12625920000.0 -0.6063012449667439 -0.7952350598103786 6.713489680777438e-17 4.8818110342792935e-17 6.713489680777438e-17 4.8818110342792935e-17 -0.6063007377859732 -0.7952354464936934
12626537333.333334 -0.6132848156234422 -0.7898618454676488 6.75535073489259e-17 4.820924259697031e-17 6.75535073489259e-17 4.820924259697031e-17 -0.6132843118942011 -0.7898622365857831
12627154666.666666 -0.6202207698078229 -0.7844273049166706 6.796660220077867e-17 4.7596793567802926e-17 6.796660220077867e-17 4.7596793567802926e-17 -0.6202202695688823 -0.7844277004388246
12627772000.0 -0.6271085690007769 -0.7789318601043603 6.837415080083225e-17 4.698081316598399e-17 6.837415080083225e-17 4.698081316598399e-17 -0.6271080722906326 -0.7789322599993956
12628389333.333334 -0.6339476784219182 -0.7733759377064303 6.877612303771758e-17 4.636135156234907e-17 6.877612303771758e-17 4.636135156234907e-17 -0.6339471852787895 -0.7733763419428732
12629006666.666666 -0.6407375670712857 -0.7677599690941231 6.917248925343477e-17 4.573845918375754e-17 6.917248925343477e-17 4.573845918375754e-17 -0.6407370775331099 -0.7677603776401649
12629624000.0 -0.6474777077705021 -0.7620843903007698 6.95632202454987e-17 4.511218670903738e-17 6.95632202454987e-17 4.511218670903738e-17 -0.6474772218749336 -0.7620848031242702
12630241333.333334 -0.6541675772036618 -0.7563496419879712 6.994828726909131e-17 4.448258506484705e-17 6.994828726909131e-17 4.448258506484705e-17 -0.6541670949880679 -0.7563500590564607
12630858666.666666 -0.6608066559580056 -0.7505561694113488 7.032766203914018e-17 4.3849705421574513e-17 7.032766203914018e-17 4.3849705421574513e-17 -0.6608061774594657 -0.7505565906920334
12631476000.0 -0.6673944285643371 -0.7447044223859033 7.070131673240195e-17 4.321359918915289e-17 7.070131673240195e-17 4.321359918915289e-17 -0.6673939538196367 -0.7447048478456629
12632093333.333334 -0.6739303835368262 -0.738794855251271 7.106922398945841e-17 4.25743180129389e-17 7.106922398945841e-17 4.25743180129389e-17 -0.673929912582457 -0.7387952848566656
12632710666.666666 -0.6804140134129182 -0.7328279268362838 7.14313569167185e-17 4.1931913769504005e-17 7.14313569167185e-17 4.1931913769504005e-17 -0.6804135462850731 -0.7328283605535542
12633328000.0 -0.6868448147926878 -0.7268041004233805 7.178768908836261e-17 4.1286438562440994e-17 7.178768908836261e-17 4.1286438562440994e-17 -0.6868443515272598 -0.7268045382184521
12633945333.333334 -0.6932222883779032 -0.7207238437126546 7.213819454824469e-17 4.0637944718162444e-17 7.213819454824469e-17 4.0637944718162444e-17 -0.6932218290104827 -0.7207242855511402
12634562666.666666 -0.6995459390107537 -0.7145876287855829 7.248284781177304e-17 3.998648478165476e-17 7.248284781177304e-17 3.998648478165476e-17 -0.699545483576623 -0.7145880746327832
12635180000.0 -0.7058152757123339 -0.7083959320683326 7.28216238677343e-17 3.9332111512249195e-17 7.28216238677343e-17 3.9332111512249195e-17 -0.705814824246468 -0.7083963818892413
12635797333.333334 -0.7120298117208447 -0.702149234294689 7.315449818009851e-17 3.8674877879342623e-17 7.315449818009851e-17 3.8674877879342623e-17 -0.7120293642579063 -0.7021496880539942
12636414666.666666 -0.7181890645291658 -0.6958480204689533 7.34814466897629e-17 3.8014837058146926e-17 7.34814466897629e-17 3.8014837058146926e-17 -0.7181886211035042 -0.6958484781310419
12637032000.0 -0.7242925559225992 -0.6894927798280036 7.38024458162851e-17 3.735204242536942e-17 7.38024458162851e-17 3.735204242536942e-17 -0.7242921165682465 -0.689493241356962
12637649333.333334 -0.7303398120157584 -0.6830840058035516 7.411747245955017e-17 3.668654755493356e-17 7.411747245955017e-17 3.668654755493356e-17 -0.730339376766427 -0.6830844711631695
12638266666.666666 -0.7363303632895394 -0.6766221959836486 7.442650400142126e-17 3.6018406213641624e-17 7.442650400142126e-17 3.6018406213641624e-17 -0.7363299321786201 -0.6766226651374224
12638884000.0 -0.7422637446274385 -0.6701078520741957 7.472951830733334e-17 3.534767235685948e-17 7.472951830733334e-17 3.534767235685948e-17 -0.7422633176879982 -0.670108324985331
12639501333.333334 -0.7481394953517436 -0.6635414798599095 7.502649372786598e-17 3.4674400124152354e-17 7.502649372786598e-17 3.4674400124152354e-17 -0.7481390726165204 -0.6635419564913227
12640118666.666666 -0.753957159259242 -0.6569235891651126 7.531740910025477e-17 3.399864383495437e-17 7.531740910025477e-17 3.399864383495437e-17 -0.7539567407606463 -0.6569240694794364
12640736000.0 -0.7597162846568134 -0.6502546938139605 7.56022437498949e-17 3.332045798415724e-17 7.56022437498949e-17 3.332045798415724e-17 -0.7597158704269222 -0.650255177773544
12641353333.333334 -0.7654164243961972 -0.6435353115908877 7.588097749176735e-17 3.2639897237772514e-17 7.588097749176735e-17 3.2639897237772514e-17 -0.765416014466754 -0.6435357991578016
12641970666.666666 -0.7710571359089553 -0.6367659642001285 7.615359063185866e-17 3.19570164285068e-17 7.615359063185866e-17 3.19570164285068e-17 -0.7710567303113656 -0.6367664553361664
12642588000.0 -0.7766379812407938 -0.629947177225253 7.642006396852644e-17 3.12718705513599e-17 7.642006396852644e-17 3.12718705513599e-17 -0.7766375800061248 -0.629947671891936
12643205333.333334 -0.7821585270854593 -0.6230794800884915 7.668037879382093e-17 3.058451475922269e-17 7.668037879382093e-17 3.058451475922269e-17 -0.7821581302444354 -0.6230799782470694
12643822666.666666 -0.7876183448185061 -0.6161634060094746 7.693451689478351e-17 2.989500435842302e-17 7.693451689478351e-17 2.989500435842302e-17 -0.7876179524015083 -0.6161639076209308
12644440000.0 -0.7930170105305394 -0.6091994919638768 7.718246055468425e-17 2.920339480431558e-17 7.718246055468425e-17 2.920339480431558e-17 -0.7930166225676026 -0.6091999969889301
12645057333.333334 -0.7983541050600248 -0.602188278641861 7.742419255423829e-17 2.850974169681373e-17 7.742419255423829e-17 2.850974169681373e-17 -0.7983537215808337 -0.6021887870409681
12645674666.666666 -0.8036292140259697 -0.595130310405916 7.76596961727683e-17 2.781410077594889e-17 7.76596961727683e-17 2.781410077594889e-17 -0.8036288350598599 -0.5951308221392776
12646292000.0 -0.808841927860082 -0.588026135248617 7.788895518934518e-17 2.7116527917369788e-17 7.788895518934518e-17 2.7116527917369788e-17 -0.8088415534360351 -0.5880266502761774
12646909333.333334 -0.8139918418384825 -0.5808763047501896 7.81119538838616e-17 2.6417079127910182e-17 7.81119538838616e-17 2.6417079127910182e-17 -0.8139914719851236 -0.5808768230316409
12647526666.666666 -0.8190785561131781 -0.5736813740356159 7.832867703809117e-17 2.571581054107492e-17 7.832867703809117e-17 2.571581054107492e-17 -0.8190781908587758 -0.5736818955304022
12648144000.0 -0.8241016757431422 -0.5664419017314883 7.853910993669801e-17 2.5012778412541828e-17 7.853910993669801e-17 2.5012778412541828e-17 -0.8241013151156054 -0.5664424263988085
12648761333.333334 -0.8290608107249602 -0.5591584499226602 7.874323836819808e-17 2.4308039115685023e-17 7.874323836819808e-17 2.4308039115685023e-17 -0.8290604547518355 -0.5591589777214704
12649378666.666666 -0.8339555760229976 -0.5518315841087664 7.894104862589279e-17 2.3601649137047993e-17 7.894104862589279e-17 2.3601649137047993e-17 -0.8339552247314678 -0.5518321149977837
12649996000.0 -0.8387855915995033 -0.5444618731600146 7.913252750875534e-17 2.289366507183427e-17 7.913252750875534e-17 2.289366507183427e-17 -0.8387852450163847 -0.5444624070977203
12650613333.333334 -0.8435504824439408 -0.5370498892732735 7.93176623222812e-17 2.2184143619373087e-17 7.93176623222812e-17 2.2184143619373087e-17 -0.8435501405956819 -0.5370504262179161
12651230666.666666 -0.8482498786021693 -0.5295962079275545 7.949644087928829e-17 2.147314157861711e-17 7.949644087928829e-17 2.147314157861711e-17 -0.8482495415148483 -0.5295967478371533
12651848000.0 -0.8528834152052123 -0.5221014078392573 7.966885150069431e-17 2.0760715843566087e-17 7.966885150069431e-17 2.0760715843566087e-17 -0.8528830829045353 -0.5221019506716056
12652465333.333334 -0.8574507324974942 -0.5145660709173812 7.983488301623312e-17 2.0046923398764054e-17 7.983488301623312e-17 2.0046923398764054e-17 -0.8574504050087937 -0.5145666166300494
12653082666.666666 -0.8619514758648209 -0.5069907822182735 7.999452476514524e-17 1.9331821314734514e-17 7.999452476514524e-17 1.9331821314734514e-17 -0.8619511532130527 -0.5069913307686128
12653700000.0 -0.8663852958619551 -0.49937612990013186 8.014776659682409e-17 1.8615466743421755e-17 8.014776659682409e-17 1.8615466743421755e-17 -0.8663849780716963 -0.4993766812452763
12654317333.333334 -0.8707518482396573 -0.4917227051774826 8.02945988714153e-17 1.7897916913659652e-17 8.02945988714153e-17 1.7897916913659652e-17 -0.8707515353351067 -0.49172325927435456
12654934666.666666 -0.8750507939714629 -0.48403110227520796 8.043501246038676e-17 1.7179229126581168e-17 8.043501246038676e-17 1.7179229126581168e-17 -0.8750504859764373 -0.4840316590805202
12655552000.0 -0.879281799280043 -0.47630191838233304 8.056899874704823e-17 1.6459460751069675e-17 8.056899874704823e-17 1.6459460751069675e-17 -0.8792814962179751 -0.47630247785259205
12656169333.333334 -0.8834445356630358 -0.46853575360580774 8.069654962703362e-17 1.5738669219193094e-17 8.069654962703362e-17 1.5738669219193094e-17 -0.8834442375569742 -0.4685363156973175
12656786666.666666 -0.8875386799185986 -0.46073321092384106 8.081765750874328e-17 1.5016912021627733e-17 8.081765750874328e-17 1.5016912021627733e-17 -0.8875383867912023 -0.4607337755927057
12657404000.0 -0.8915639141705322 -0.45289489613900585 8.093231531374648e-17 1.4294246703077186e-17 8.093231531374648e-17 1.4294246703077186e-17 -0.8915636260440749 -0.45289546334113473
12658021333.333334 -0.8955199258928909 -0.4450214178313573 8.104051647713868e-17 1.3570730857709211e-17 8.104051647713868e-17 1.3570730857709211e-17 -0.8955196427892543 -0.445021987522467
12658638666.666666 -0.899406407934284 -0.4371133873111058 8.114225494786264e-17 1.2846422124569999e-17 8.114225494786264e-17 1.2846422124569999e-17 -0.8994061298749572 -0.43711395944672377
12659256000.0 -0.9032230585417594 -0.4291714185710758 8.123752518898726e-17 1.2121378182998747e-17 8.123752518898726e-17 1.2121378182998747e-17 -0.9032227855478385 -0.42917199310654414
12659873333.333334 -0.9069695813841598 -0.42119612823918884 8.132632217794501e-17 1.1395656748047917e-17 8.132632217794501e-17 1.1395656748047917e-17 -0.9069693134763447 -0.42119670512966734
12660490666.666666 -0.9106456855751648 -0.4131881355305094 8.14086414067269e-17 1.066931556591627e-17 8.14086414067269e-17 1.066931556591627e-17 -0.9106454227737604 -0.4131887147309805
12661108000.0 -0.9142510856959156 -0.40514806219909316 8.148447888204241e-17 9.942412409334937e-18 8.148447888204241e-17 9.942412409334937e-18 -0.9142508280208264 -0.40514864366436326
12661725333.333334 -0.9177855018170996 -0.3970765324898649 8.155383112543174e-17 9.215005073008778e-18 8.155383112543174e-17 9.215005073008778e-18 -0.9177852492878316 -0.3970771161745696
12662342666.666666 -0.921248659520736 -0.38897417309004995 8.161669517334141e-17 8.487151369023013e-18 8.161669517334141e-17 8.487151369023013e-18 -0.9212484121563927 -0.3889747589486566
12662960000.0 -0.924640289921455 -0.3808416130805673 8.167306857715888e-17 7.758909122252592e-18 8.167306857715888e-17 7.758909122252592e-18 -0.9246400477407379 -0.3808422010673791
12663577333.333334 -0.927960129687422 -0.3726794838870836 8.172294940320377e-17 7.030336165795542e-18 8.172294940320377e-17 7.030336165795542e-18 -0.9279598927086284 -0.3726800739562432
12664194666.666666 -0.9312079210607065 -0.36448841923117126 8.176633623268195e-17 6.301490336372613e-18 8.176633623268195e-17 6.301490336372613e-18 -0.9312076893017271 -0.3644890113366635
12664812000.0 -0.9343834118773768 -0.35626905508089346 8.180322816159547e-17 5.5724294697656215e-18 8.180322816159547e-17 5.5724294697656215e-18 -0.9343831853556966 -0.35626964917655035
12665429333.333334 -0.9374863555870102 -0.3480220296016136 8.183362480061493e-17 4.8432113962181144e-18 8.183362480061493e-17 4.8432113962181144e-18 -0.9374861343197046 -0.3480226256411166
12666046666.666666 -0.9405165112718631 -0.3397479831063661 8.18575262749077e-17 4.1138939358894275e-18 8.18575262749077e-17 4.1138939358894275e-18 -0.9405162952755993 -0.3397485810432505
12666664000.0 -0.9434736436656174 -0.33144755800603526 8.187493322392966e-17 3.3845348942368763e-18 8.187493322392966e-17 3.3845348942368763e-18 -0.9434734329566502 -0.33144815779369335
12667281333.333334 -0.9463575231715387 -0.323121398759771 8.1885846801172e-17 2.6551920574939897e-18 8.1885846801172e-17 2.6551920574939897e-18 -0.9463573177657123 -0.32312200035145633
12667898666.666666 -0.9491679258804289 -0.3147701518246046 8.189026867387045e-17 1.9259231880728883e-18 8.189026867387045e-17 1.9259231880728883e-18 -0.9491677257931735 -0.31477075517343484
12668516000.0 -0.9519046335879428 -0.30639446560544353 8.188820102267328e-17 1.1967860199936382e-18 8.188820102267328e-17 1.1967860199936382e-18 -0.9519044388342742 -0.3063950706644047
12669133333.333334 -0.95456743381152 -0.2979949904047552 8.187964654126767e-17 4.678382543618303e-19 8.187964654126767e-17 4.678382543618303e-19 -0.9545672444060396 -0.2979955971267054
12669750666.666666 -0.957156119806905 -0.2895723783720236 8.186460843596698e-17 -2.6086244522858954e-19 8.186460843596698e-17 -2.6086244522858954e-19 -0.9571559357637953 -0.28957298670969583
12670368000.0 -0.9596704905842289 -0.2811272834530058 8.184309042525694e-17 -9.892584572179119e-19 8.184309042525694e-17 -9.892584572179119e-19 -0.9596703119172568 -0.28112789335901256
