! Parameters = {f0=12700.012000; bw=77.238000; Q=6100.000000; N=10; m_0_1=1.242537; m_1_1=-0.126683; m_1_2=1.077349; m_2_2=-0.127332; m_2_3=0.714312; m_2_8=-0.000809; m_2_9=0.035895; m_3_3=-0.129269; m_3_4=0.602841; m_3_7=-0.000209; m_3_8=-0.097297; m_3_9=-0.000809; m_4_4=-0.132194; m_4_5=0.439176; m_4_6=0.003308; m_4_7=-0.117846; m_4_8=-0.000209; m_5_5=-0.131812; m_5_6=0.846531; m_5_7=0.003308; m_6_6=-0.131813; m_6_7=0.439518; m_7_7=-0.132180; m_7_8=0.602959; m_8_8=-0.129271; m_8_9=0.714625; m_9_9=-0.127337; m_9_10=1.078427; m_10_10=-0.126693; m_10_11=1.243332}
!
! Created with skrf (http://scikit-rf.org).
# Hz S RI R 50.0 
!freq ReS11 ImS11 ReS21 ImS21 ReS12 ImS12 ReS22 ImS22
12607400000.0 0.07827379359146576 -0.9969318999995095 2.0186827892268412e-17 9.487096852783346e-17 2.0186827892268412e-17 9.487096852783346e-17 0.07827444627462922 -0.9969318487540819
12608017333.333334 0.06858896512950945 -0.9976450039278975 2.1111422213969546e-17 9.465004962832647e-17 2.1111422213969546e-17 9.465004962832647e-17 0.06858961824755702 -0.9976449590252463
12608634666.666666 0.05889766842742872 -0.9982640255231294 2.203362678613904e-17 9.442012661170064e-17 2.203362678613904e-17 9.442012661170064e-17 0.058898321918729 -0.9982639869668691
12609252000.0 0.04920081741736591 -0.9987889064088034 2.2953353989544528e-17 9.418122508300222e-17 2.2953353989544528e-17 9.418122508300222e-17 0.04920147122025818 -0.9987888742019475
12609869333.333334 0.03949932655520115 -0.9992195970864044 2.3870516477108497e-17 9.393337149924413e-17 2.3870516477108497e-17 9.393337149924413e-17 0.039499980608001424 -0.9992195712313682
12610486666.666666 0.029794110734485554 -0.9995560569399654 2.4785027182180797e-17 9.367659316653542e-17 2.4785027182180797e-17 9.367659316653542e-17 0.02979476497549232 -0.9995560374385652
12611104000.0 0.020086085199878843 -0.9997982542399118 2.569679932682322e-17 9.341091823711694e-17 2.569679932682322e-17 9.341091823711694e-17 0.02008673956737885 -0.9997982410933638
12611721333.333334 0.010376165461121478 -0.9999461661460355 2.6605746429972937e-17 9.313637570634248e-17 2.6605746429972937e-17 9.313637570634248e-17 0.010376819893395645 -0.9999461593549583
12612338666.666666 0.0006652672065847192 -0.999999778709663 2.7511782315664412e-17 9.285299540955508e-17 2.7511782315664412e-17 9.285299540955508e-17 0.0006659216419138624 -0.9999997782740747
12612956000.0 -0.009045693783196682 -0.9999590868749632 2.8414821121176416e-17 9.256080801889569e-17 2.8414821121176416e-17 9.256080801889569e-17 -0.00904503940652599 -0.9999590927942831
12613573333.333334 -0.01875580172157401 -0.9998240944794304 2.9314777305138055e-17 9.22598450400357e-17 2.9314777305138055e-17 9.22598450400357e-17 -0.018755147465263602 -0.9998241067524767
12614190666.666666 -0.02846414090254508 -0.9995948142535106 3.0211565655624064e-17 9.195013880882247e-17 3.0211565655624064e-17 9.195013880882247e-17 -0.028463486828279448 -0.9995948328785058
12614808000.0 -0.03816979578679694 -0.9992712678194172 3.110510129820281e-17 9.163172248785224e-17 3.110510129820281e-17 9.163172248785224e-17 -0.03816914195623731 -0.9992712927939822
12615425333.333334 -0.04787185108818713 -0.9988534856890782 3.199529970394814e-17 9.130463006296333e-17 3.199529970394814e-17 9.130463006296333e-17 -0.047871197562965755 -0.9988535170102363
12616042666.666666 -0.057569391860030995 -0.9983415072612664 3.28820766974284e-17 9.096889633964878e-17 3.28820766974284e-17 9.096889633964878e-17 -0.0575687387017453 -0.9983415449254437
12616660000.0 -0.06726150358135675 -0.9977353808178833 3.3765348464632154e-17 9.062455693939945e-17 3.3765348464632154e-17 9.062455693939945e-17 -0.06726085085156351 -0.9977354248209067
12617277333.333334 -0.07694727224329063 -0.9970351635193961 3.4645031560884715e-17 9.027164829596098e-17 3.4645031560884715e-17 9.027164829596098e-17 -0.07694662000350018 -0.9970352138564958
12617894666.666666 -0.08662578443494005 -0.996240921399469 3.5521042918695394e-17 8.991020765152595e-17 3.5521042918695394e-17 8.991020765152595e-17 -0.08662513274661059 -0.996240978065279
12618512000.0 -0.09629612742995751 -0.9953527293587056 3.6393299855621446e-17 8.954027305282695e-17 3.6393299855621446e-17 8.954027305282695e-17 -0.09629547635448914 -0.9953527923472628
12619129333.333334 -0.10595738927216153 -0.994370671157621 3.726172008200292e-17 8.916188334719051e-17 3.726172008200292e-17 8.916188334719051e-17 -0.1059567388708906 -0.9943707404623675
12619746666.666666 -0.11560865886193455 -0.9932948394087107 3.812622170874342e-17 8.877507817848051e-17 3.812622170874342e-17 8.877507817848051e-17 -0.11560800919612775 -0.9932949150224922
12620364000.0 -0.1252490260419732 -0.9921253355677241 3.898672325500824e-17 8.837989798298266e-17 3.898672325500824e-17 8.837989798298266e-17 -0.1252483771728219 -0.9921254174827928
12620981333.333334 -0.1348775816829797 -0.9908622699241215 3.984314365587349e-17 8.797638398521923e-17 3.984314365587349e-17 8.797638398521923e-17 -0.13487693367159428 -0.9908623581321373
12621598666.666666 -0.14449341776962263 -0.9895057615906464 4.0695402269954444e-17 8.75645781936787e-17 4.0695402269954444e-17 8.75645781936787e-17 -0.1444927706770265 -0.9895058560826749
12622216000.0 -0.15409562748613798 -0.9880559384920903 4.154341888697779e-17 8.71445233964779e-17 4.154341888697779e-17 8.71445233964779e-17 -0.154094981373262 -0.9880560392586066
12622833333.333334 -0.16368330530173328 -0.9865129373532462 4.2387113735312204e-17 8.671626315694987e-17 4.2387113735312204e-17 8.671626315694987e-17 -0.16368266022941003 -0.9865130443841352
12623450666.666666 -0.1732555470559841 -0.9848769036860207 4.3226407489453954e-17 8.62798418091595e-17 4.3226407489453954e-17 8.62798418091595e-17 -0.17325490308494182 -0.9848770169705754
12624068000.0 -0.18281145004421154 -0.9831479917756858 4.406122127746379e-17 8.583530445334684e-17 4.406122127746379e-17 8.583530445334684e-17 -0.1828108072350689 -0.9831481113026123
12624685333.333334 -0.19235011310261194 -0.9813263646663346 4.489147668837022e-17 8.538269695129397e-17 4.489147668837022e-17 8.538269695129397e-17 -0.19234947151587217 -0.9813264904237512
12625302666.666666 -0.20187063669307234 -0.9794121941455319 4.571709577949867e-17 8.492206592163378e-17 4.571709577949867e-17 8.492206592163378e-17 -0.20186999638911726 -0.9794123261209697
12625920000.0 -0.2113721229882523 -0.9774056607280677 4.6538001083791386e-17 8.445345873506722e-17 4.6538001083791386e-17 8.445345873506722e-17 -0.2113714840273371 -0.9774057989084738
12626537333.333334 -0.2208536759559742 -0.9753069536389888 4.7354115617033244e-17 8.397692350953531e-17 4.7354115617033244e-17 8.397692350953531e-17 -0.22085303839822149 -0.9753070980107265
12627154666.666666 -0.2303144014438353 -0.9731162707957353 4.8165362885062296e-17 8.349250910530348e-17 4.8165362885062296e-17 8.349250910530348e-17 -0.23031376534922943 -0.9731164213445845
12627772000.0 -0.23975340726380664 -0.9708338187894094 4.897166689094389e-17 8.300026511996677e-17 4.897166689094389e-17 8.300026511996677e-17 -0.23975277269218787 -0.9708339755005688
12628389333.333334 -0.24916980327581587 -0.9684598128654194 4.977295214202392e-17 8.25002418834288e-17 4.977295214202392e-17 8.25002418834288e-17 -0.24916917028687566 -0.9684599757235097
12629006666.666666 -0.2585627014722185 -0.9659944769030621 5.0569143657022556e-17 8.199249045275778e-17 5.0569143657022556e-17 8.199249045275778e-17 -0.2585620701254927 -0.9659946458921246
12629624000.0 -0.2679312160611804 -0.963438043394492 5.136016697300117e-17 8.14770626070196e-17 5.136016697300117e-17 8.14770626070196e-17 -0.2679305864160446 -0.9634382184979924
12630241333.333334 -0.27727446355048874 -0.9607907534227315 5.2145948152330274e-17 8.095401084201096e-17 5.2145948152330274e-17 8.095401084201096e-17 -0.27727383566615155 -0.9607909346235584
12630858666.666666 -0.28659156283053816 -0.9580528566390172 5.2926413789553735e-17 8.042338836495808e-17 5.2926413789553735e-17 8.042338836495808e-17 -0.286590936766037 -0.9580530439194879
12631476000.0 -0.29588163525783473 -0.9552246112391476 5.3701491018260725e-17 7.988524908910842e-17 5.3701491018260725e-17 7.988524908910842e-17 -0.2958810110720297 -0.9552248045810078
12632093333.333334 -0.3051438047374743 -0.9523062839392427 5.4471107517835435e-17 7.9339647628303e-17 5.4471107517835435e-17 7.9339647628303e-17 -0.30514318248904215 -0.9523064833236675
12632710666.666666 -0.3143771978058981 -0.9492981499505535 5.523519152020804e-17 7.87866392914446e-17 5.523519152020804e-17 7.87866392914446e-17 -0.3143765775533272 -0.9492983553581497
12633328000.0 -0.323580943713507 -0.9462004929534266 5.599367181652511e-17 7.82262800769184e-17 5.599367181652511e-17 7.82262800769184e-17 -0.32358032551509236 -0.9462007043642368
12633945333.333334 -0.3327541745063728 -0.9430136050706869 5.674647776375513e-17 7.765862666695551e-17 5.674647776375513e-17 7.765862666695551e-17 -0.3327535584202096 -0.9430138224641881
12634562666.666666 -0.34189602510833195 -0.9397377868400069 5.749353929125491e-17 7.708373642192017e-17 5.749353929125491e-17 7.708373642192017e-17 -0.3418954111923105 -0.939738010195114
12635180000.0 -0.35100563340248614 -0.9363733471855932 5.823478690727812e-17 7.650166737453358e-17 5.823478690727812e-17 7.650166737453358e-17 -0.3510050217142864 -0.936373576480661
12635797333.333334 -0.3600821403126367 -0.9329206033890036 5.897015170540856e-17 7.591247822404917e-17 5.897015170540856e-17 7.591247822404917e-17 -0.3600815309097232 -0.93292083860183
12636414666.666666 -0.36912468988403246 -0.9293798810593261 5.969956537094554e-17 7.531622833035762e-17 5.969956537094554e-17 7.531622833035762e-17 -0.3691240828236489 -0.9293801221671525
12637032000.0 -0.3781324293643586 -0.925751514102375 6.042296018723865e-17 7.471297770802435e-17 6.042296018723865e-17 7.471297770802435e-17 -0.37813182470352097 -0.9257517610818877
12637649333.333334 -0.3871045092840178 -0.9220358446892454 6.114026904195387e-17 7.410278702027279e-17 6.114026904195387e-17 7.410278702027279e-17 -0.3871039070795117 -0.9220360975165819
12638266666.666666 -0.3960400835362437 -0.9182332232240549 6.18514254332687e-17 7.348571757291655e-17 6.18514254332687e-17 7.348571757291655e-17 -0.3960394838446165 -0.9182334818748015
12638884000.0 -0.40493830945699366 -0.9143440083108457 6.255636347602335e-17 7.286183130821869e-17 6.255636347602335e-17 7.286183130821869e-17 -0.40493771233455106 -0.9143442727600433
12639501333.333334 -0.4137983479042869 -0.9103685667198281 6.325501790781222e-17 7.22311907986902e-17 6.325501790781222e-17 7.22311907986902e-17 -0.41379775340708636 -0.9103688369419728
12640118666.666666 -0.42261936333728806 -0.9063072733528169 6.394732409498031e-17 7.159385924085922e-17 6.394732409498031e-17 7.159385924085922e-17 -0.422618771521134 -0.9063075493218623
12640736000.0 -0.4314005238954632 -0.9021605112077071 6.463321803862204e-17 7.094990044892449e-17 6.463321803862204e-17 7.094990044892449e-17 -0.4313999348159019 -0.9021607928970685
12641353333.333334 -0.4401410014765127 -0.8979286713425985 6.531263638042429e-17 7.029937884843688e-17 6.531263638042429e-17 7.029937884843688e-17 -0.440140415188827 -0.8979289587251539
12641970666.666666 -0.44883997181485086 -0.8936121528387332 6.598551640854748e-17 6.964235946982985e-17 6.598551640854748e-17 6.964235946982985e-17 -0.448839388374055 -0.8936124458868265
12642588000.0 -0.4574966145591844 -0.8892113627629367 6.665179606336099e-17 6.897890794197118e-17 6.665179606336099e-17 6.897890794197118e-17 -0.45749603402001804 -0.8892116614483789
12643205333.333334 -0.46611011334984775 -0.8847267161292374 6.7311413943155e-17 6.830909048562002e-17 6.7311413943155e-17 6.830909048562002e-17 -0.4661095357667733 -0.8847270204233142
12643822666.666666 -0.47467965589599576 -0.880158635859634 6.796430930978126e-17 6.763297390683561e-17 6.796430930978126e-17 6.763297390683561e-17 -0.4746790813231898 -0.8801589457331012
12644440000.0 -0.4832044340519236 -0.8755075527443454 6.8610422094222e-17 6.695062559033803e-17 6.8610422094222e-17 6.695062559033803e-17 -0.4832038625432747 -0.8755078681674381
12645057333.333334 -0.49168364389340863 -0.8707739054011279 6.924969290208511e-17 6.626211349282389e-17 6.924969290208511e-17 6.626211349282389e-17 -0.49168307550251056 -0.8707742263435594
12645674666.666666 -0.500116485793498 -0.8659581402339226 6.988206301904916e-17 6.55675061362121e-17 6.988206301904916e-17 6.55675061362121e-17 -0.5001159205736457 -0.8659584666648897
12646292000.0 -0.5085021644980656 -0.8610607113906742 7.050747441624312e-17 6.486687260083596e-17 7.050747441624312e-17 6.486687260083596e-17 -0.5085016025022495 -0.8610610432788586
12646909333.333334 -0.5168398892005845 -0.8560820807206279 7.112586975553202e-17 6.416028251861228e-17 7.112586975553202e-17 6.416028251861228e-17 -0.516839330481486 -0.8560824180341995
12647526666.666666 -0.5251288736168037 -0.8510227177307196 7.173719239475821e-17 6.344780606613399e-17 7.173719239475821e-17 6.344780606613399e-17 -0.5251283182267895 -0.8510230604373397
12648144000.0 -0.533368336058969 -0.8458830995412535 7.234138639291197e-17 6.272951395771543e-17 7.234138639291197e-17 6.272951395771543e-17 -0.5333677840500881 -0.8458834476080794
12648761333.333334 -0.5415574995093978 -0.8406637108410004 7.293839651521671e-17 6.200547743840695e-17 7.293839651521671e-17 6.200547743840695e-17 -0.5415569509333737 -0.8406640642346854
12649378666.666666 -0.5496955916938469 -0.8353650438414234 7.352816823816215e-17 6.127576827694074e-17 7.352816823816215e-17 6.127576827694074e-17 -0.549695046602076 -0.8353654025281233
12649996000.0 -0.5577818451543218 -0.8299875982302815 7.411064775445847e-17 6.054045875863979e-17 7.411064775445847e-17 6.054045875863979e-17 -0.5577813035978658 -0.8299879621756557
12650613333.333334 -0.5658154973214734 -0.8245318811244877 7.468578197792301e-17 5.979962167827528e-17 7.468578197792301e-17 5.979962167827528e-17 -0.5658149593510552 -0.8245322502937017
12651230666.666666 -0.5737957905863689 -0.8189984070223807 7.525351854828462e-17 5.90533303328934e-17 7.525351854828462e-17 5.90533303328934e-17 -0.5737952562523695 -0.818998781380113
12651848000.0 -0.5817219723722677 -0.8133876977549824 7.58138058359494e-17 5.830165851455354e-17 7.58138058359494e-17 5.830165851455354e-17 -0.5817214417247204 -0.8133880772654252
12652465333.333334 -0.5895932952052425 -0.807700282437029 7.636659294664626e-17 5.754468050308419e-17 7.636659294664626e-17 5.754468050308419e-17 -0.5895927682938268 -0.8077006670638909
12653082666.666666 -0.5974090167847611 -0.8019366974170075 7.691182972603047e-17 5.67824710587563e-17 7.691182972603047e-17 5.67824710587563e-17 -0.5974084936588002 -0.8019370871235194
12653700000.0 -0.6051684000538976 -0.7960974862264276 7.744946676422976e-17 5.601510541489129e-17 7.744946676422976e-17 5.601510541489129e-17 -0.6051678807623532 -0.796097880975345
12654317333.333334 -0.6128707132684965 -0.7901831995288161 7.797945540026462e-17 5.524265927049883e-17 7.797945540026462e-17 5.524265927049883e-17 -0.612870197859963 -0.7901835992824211
12654934666.666666 -0.6205152300664961 -0.7841943950675464 7.850174772644906e-17 5.4465208782798107e-17 7.850174772644906e-17 5.4465208782798107e-17 -0.6205147185891979 -0.7841947997876549
12655552000.0 -0.628101229536294 -0.7781316376133468 7.901629659269175e-17 5.368283055973307e-17 7.901629659269175e-17 5.368283055973307e-17 -0.6281007220380793 -0.7781320472613086
12656169333.333334 -0.6356279962846171 -0.7719954989111241 7.952305561071898e-17 5.289560165245471e-17 7.952305561071898e-17 5.289560165245471e-17 -0.6356274928129554 -0.7719959134478293
12656786666.666666 -0.6430948205041701 -0.7657865576259101 8.002197915823586e-17 5.210359954774289e-17 8.002197915823586e-17 5.210359954774289e-17 -0.6430943211061458 -0.7657869770117913
12657404000.0 -0.6505009980405461 -0.7595053992883031 8.051302238300501e-17 5.1306902160400895e-17 8.051302238300501e-17 5.1306902160400895e-17 -0.650500502762855 -0.759505823483339
12658021333.333334 -0.6578458304585455 -0.7531526162393244 8.099614120685164e-17 5.050558782560967e-17 8.099614120685164e-17 5.050558782560967e-17 -0.6578453393474896 -0.7531530452030438
12658638666.666666 -0.6651286251080195 -0.746728807574575 8.147129232959107e-17 4.9699735291246994e-17 8.147129232959107e-17 4.9699735291246994e-17 -0.665128138209505 -0.7467292412660625
12659256000.0 -0.6723486951893871 -0.7402345790875761 8.19384332328868e-17 4.8889423710158145e-17 8.19384332328868e-17 4.8889423710158145e-17 -0.6723482125489169 -0.7402350174654727
12659873333.333334 -0.6795053598181833 -0.7336705432128191 8.239752218401992e-17 4.807473263241196e-17 8.239752218401992e-17 4.807473263241196e-17 -0.6795048814808552 -0.7336709862353294
12660490666.666666 -0.6865979440893607 -0.7270373189679438 8.284851823958607e-17 4.725574199751498e-17 8.284851823958607e-17 4.725574199751498e-17 -0.6865974700998619 -0.7270377665928373
12661108000.0 -0.693625779141015 -0.7203355318952771 8.329138124913593e-17 4.6432532126553097e-17 8.329138124913593e-17 4.6432532126553097e-17 -0.6936253095436195 -0.7203359840798949
12661725333.333334 -0.7005882022172571 -0.7135658140030419 8.372607185869366e-17 4.5605183714380337e-17 8.372607185869366e-17 4.5605183714380337e-17 -0.7005877370558188 -0.7135662707042977
12662342666.666666 -0.7074845567308982 -0.7067288037055771 8.415255151424335e-17 4.4773777821691785e-17 8.415255151424335e-17 4.4773777821691785e-17 -0.7074840960488495 -0.7067292648799639
12662960000.0 -0.7143141923253483 -0.6998251457631517 8.457078246510852e-17 4.393839586711666e-17 8.457078246510852e-17 4.393839586711666e-17 -0.7143137361656948 -0.699825611366745
12663577333.333334 -0.7210764649358465 -0.6928554912212618 8.498072776726889e-17 4.309911961925168e-17 8.498072776726889e-17 4.309911961925168e-17 -0.721076013341162 -0.6928559612097223
12664194666.666666 -0.7277707368502776 -0.6858204973491512 8.538235128658438e-17 4.2256031188690145e-17 8.538235128658438e-17 4.2256031188690145e-17 -0.7277702898627033 -0.6858209716777325
12664812000.0 -0.7343963767692757 -0.6787208275778727 8.577561770195147e-17 4.140921301999982e-17 8.577561770195147e-17 4.140921301999982e-17 -0.7343959344305132 -0.6787213062014226
12665429333.333334 -0.7409527598658532 -0.6715571514376181 8.616049250838143e-17 4.0558747883669364e-17 8.616049250838143e-17 4.0558747883669364e-17 -0.7409523222171616 -0.6715576343105835
12666046666.666666 -0.7474392678441117 -0.6643301444948071 8.653694201998098e-17 3.9704718868063016e-17 8.653694201998098e-17 3.9704718868063016e-17 -0.747438834926304 -0.664330631571239
12666664000.0 -0.7538552889978386 -0.6570404882880643 8.69049333728837e-17 3.884720937128451e-17 8.69049333728837e-17 3.884720937128451e-17 -0.753854860851278 -0.6570409795216219
12667281333.333334 -0.7602002182679092 -0.6496888702642647 8.726443452806627e-17 3.798630309309061e-17 8.726443452806627e-17 3.798630309309061e-17 -0.7601997949325044 -0.6496893656082193
12667898666.666666 -0.7664734572995157 -0.6422759837135129 8.761541427411745e-17 3.71220840267047e-17 8.761541427411745e-17 3.71220840267047e-17 -0.7664730388147184 -0.6422764831207532
12668516000.0 -0.7726744144986668 -0.6348025277036752 8.79578422299046e-17 3.625463645065477e-17 8.79578422299046e-17 3.625463645065477e-17 -0.7726740009034674 -0.6348030311267112
12669133333.333334 -0.7788025050877032 -0.6272692070147794 8.829168884716156e-17 3.538404492058534e-17 8.829168884716156e-17 3.538404492058534e-17 -0.7788020964206277 -0.6272697144057474
12669750666.666666 -0.7848571511607016 -0.6196767320722482 8.861692541300811e-17 3.451039426101286e-17 8.861692541300811e-17 3.451039426101286e-17 -0.7848567474598058 -0.619677243382914
12670368000.0 -0.7908377817378611 -0.6120258188800306 8.893352405238032e-17 3.3633769557078844e-17 8.893352405238032e-17 3.3633769557078844e-17 -0.7908373830407304 -0.6120263340617959
