! Parameters = {f0=12700.012000; bw=77.238000; Q=6100.000000; N=10; m_0_1=1.241136; m_1_1=-0.147704; m_1_2=1.075948; m_2_2=-0.148353; m_2_3=0.712911; m_2_8=-0.000879; m_2_9=0.035825; m_3_3=-0.150290; m_3_4=0.601440; m_3_7=-0.000279; m_3_8=-0.097367; m_3_9=-0.000879; m_4_4=-0.153215; m_4_5=0.437775; m_4_6=0.003238; m_4_7=-0.117916; m_4_8=-0.000279; m_5_5=-0.152833; m_5_6=0.845130; m_5_7=0.003238; m_6_6=-0.152834; m_6_7=0.438117; m_7_7=-0.153201; m_7_8=0.601558; m_8_8=-0.150292; m_8_9=0.713224; m_9_9=-0.148358; m_9_10=1.077026; m_10_10=-0.147714; m_10_11=1.241931}
!
! Created with skrf (http://scikit-rf.org).
# Hz S RI R 50.0 
!freq ReS11 ImS11 ReS21 ImS21 ReS12 ImS12 ReS22 ImS22
12607400000.0 0.7986160673015742 -0.6018408236798162 -5.729909505662872e-17 7.744533241669858e-17 -5.729909505662872e-17 7.744533241669858e-17 0.798616460878794 -0.6018403014199539
12608017333.333334 0.7927592287725495 -0.6095349089230117 -5.652956758978801e-17 7.798550436852228e-17 -5.652956758978801e-17 7.798550436852228e-17 0.7927596273618458 -0.6095343905186472
12608634666.666666 0.7868282660638336 -0.6171720017327519 -5.575495793038111e-17 7.851803784628969e-17 -5.575495793038111e-17 7.851803784628969e-17 0.7868286696274489 -0.6171714872319768
12609252000.0 0.780823733729389 -0.624751388029452 -5.497534182372631e-17 7.904288513628647e-17 -5.497534182372631e-17 7.904288513628647e-17 0.7808241422291037 -0.6247508774799881
12609869333.333334 0.7747461932020817 -0.632272359129129 -5.419079546206149e-17 7.955999927518882e-17 -5.419079546206149e-17 7.955999927518882e-17 0.7747466065992189 -0.6322718525783241
12610486666.666666 0.768596212741206 -0.6397342118096426 -5.340139547714433e-17 8.006933405422079e-17 -5.340139547714433e-17 8.006933405422079e-17 0.7685966309966358 -0.6397337093044668
12611104000.0 0.7623743673791941 -0.6471362483766497 -5.2607218932743383e-17 8.057084402328568e-17 -5.2607218932743383e-17 8.057084402328568e-17 0.7623747904533341 -0.6471357499636889
12611721333.333334 0.7560812388680213 -0.654477776728613 -5.1808343317182146e-17 8.106448449496316e-17 -5.1808343317182146e-17 8.106448449496316e-17 0.7560816667208444 -0.6544772824540671
12612338666.666666 0.7497174156247488 -0.6617581104216091 -5.1004846535768116e-17 8.155021154848352e-17 -5.1004846535768116e-17 8.155021154848352e-17 0.7497178482157837 -0.6617576203312856
12612956000.0 0.7432834926764419 -0.6689765687335699 -5.0196806903207407e-17 8.202798203361146e-17 -5.0196806903207407e-17 8.202798203361146e-17 0.743283929964779 -0.6689760828728814
12613573333.333334 0.7367800716046503 -0.6761324767278064 -4.938430313602568e-17 8.249775357443014e-17 -4.938430313602568e-17 8.249775357443014e-17 0.7367805135489447 -0.6761319951417654
12614190666.666666 0.7302077604890826 -0.6832251653162001 -4.8567414344888473e-17 8.295948457308957e-17 -4.8567414344888473e-17 8.295948457308957e-17 0.7302082070475588 -0.6832246880494155
12614808000.0 0.7235671738507905 -0.6902539713217235 -4.774622002692211e-17 8.341313421345837e-17 -4.774622002692211e-17 8.341313421345837e-17 0.7235676249812442 -0.6902534984183948
12615425333.333334 0.716858932594629 -0.6972182375405284 -4.692080005800774e-17 8.385866246469559e-17 -4.692080005800774e-17 8.385866246469559e-17 0.7168593882544334 -0.6972177690444434
12616042666.666666 0.7100836639513196 -0.7041173128032722 -4.609123468502367e-17 8.429603008475733e-17 -4.609123468502367e-17 8.429603008475733e-17 0.7100841240974289 -0.7041168487578029
12616660000.0 0.7032420014187456 -0.7109505520360674 -4.525760451805543e-17 8.472519862382706e-17 -4.525760451805543e-17 8.472519862382706e-17 0.7032424660076981 -0.7109500924841647
12617277333.333334 0.6963345847026369 -0.7177173163208739 -4.441999052259306e-17 8.51461304276582e-17 -4.441999052259306e-17 8.51461304276582e-17 0.696335053690561 -0.7177168613050656
12617894666.666666 0.6893620596569805 -0.7244169729550225 -4.3578474011691116e-17 8.555878864084442e-17 -4.3578474011691116e-17 8.555878864084442e-17 0.6893625329995959 -0.7244165225174065
12618512000.0 0.682325078223345 -0.7310488955106477 -4.273313663805931e-17 8.596313721003208e-17 -4.273313663805931e-17 8.596313721003208e-17 0.6823255558759702 -0.7310484496928911
12619129333.333334 0.6752242983701509 -0.7376124638930454 -4.188406038620684e-17 8.635914088701308e-17 -4.188406038620684e-17 8.635914088701308e-17 0.6752247802877049 -0.7376120227363787
12619746666.666666 0.6680603840310659 -0.7441070643987305 -4.1031327564477915e-17 8.674676523178073e-17 -4.1031327564477915e-17 8.674676523178073e-17 0.6680608701680737 -0.7441066279439441
12620364000.0 0.6608340050428632 -0.7505320897728764 -4.0175020797083335e-17 8.712597661549415e-17 -4.0175020797083335e-17 8.712597661549415e-17 0.6608344953534596 -0.7505316580603177
12620981333.333334 0.6535458370829166 -0.7568869392659788 -3.9315223016150397e-17 8.749674222334493e-17 -3.9315223016150397e-17 8.749674222334493e-17 0.653546331520851 -0.7568865123355477
12621598666.666666 0.6461965616059402 -0.7631710186901042 -3.8452017453676733e-17 8.78590300573761e-17 -3.8452017453676733e-17 8.78590300573761e-17 0.6461970601245804 -0.7631705965812499
12622216000.0 0.6387868657802928 -0.7693837404744281 -3.7585487633496235e-17 8.821280893920608e-17 -3.7585487633496235e-17 8.821280893920608e-17 0.638787368332629 -0.7693833232261439
12622833333.333334 0.6313174424237232 -0.775524523720172 -3.67157173632252e-17 8.855804851267068e-17 -3.67157173632252e-17 8.855804851267068e-17 0.6313179489623748 -0.7755241113709951
12623450666.666666 0.623788989938597 -0.7815927942549222 -3.5842790726177355e-17 8.889471924639009e-17 -3.5842790726177355e-17 8.889471924639009e-17 0.6237895004158132 -0.7815923868429255
12624068000.0 0.61620221224661 -0.7875879846862923 -3.4966792073233124e-17 8.922279243626517e-17 -3.4966792073233124e-17 8.922279243626517e-17 0.6162027266142781 -0.7875875822490855
12624685333.333334 0.6085578187228871 -0.7935095344550521 -3.408780601472152e-17 8.954224020787902e-17 -3.408780601472152e-17 8.954224020787902e-17 0.608558336932535 -0.7935091370297757
12625302666.666666 0.6008565241298076 -0.7993568898874127 -3.3205917412271084e-17 8.985303551882448e-17 -3.3205917412271084e-17 8.985303551882448e-17 0.6008570461326086 -0.7993564975107343
12625920000.0 0.5930990485499734 -0.8051295042469558 -3.2321211370614094e-17 9.015515216095917e-17 -3.2321211370614094e-17 9.015515216095917e-17 0.5930995742967502 -0.8051291169550668
12626537333.333334 0.5852861173191269 -0.8108268377855616 -3.1433773229419655e-17 9.044856476256399e-17 -3.1433773229419655e-17 9.044856476256399e-17 0.5852866467603581 -0.8108264556141761
12627154666.666666 0.5774184609581302 -0.8164483577940348 -3.054368855505651e-17 9.073324879043916e-17 -3.054368855505651e-17 9.073324879043916e-17 0.5774189940439534 -0.816447980778384
12627772000.0 0.569496815104656 -0.8219935386519084 -2.965104313235998e-17 9.100918055191024e-17 -2.965104313235998e-17 9.100918055191024e-17 0.5694973517848728 -0.8219931668267375
12628389333.333334 0.5615219204446598 -0.8274618618764086 -2.8755922956410655e-17 9.127633719674621e-17 -2.8755922956410655e-17 9.127633719674621e-17 0.5615224606687415 -0.8274614952759758
12629006666.666666 0.5534945226427084 -0.8328528161712322 -2.785841422422043e-17 9.153469671901899e-17 -2.785841422422043e-17 9.153469671901899e-17 0.5534950663597985 -0.8328524548293017
12629624000.0 0.5454153722726519 -0.838165897474072 -2.6958603326493792e-17 9.17842379588541e-17 -2.6958603326493792e-17 9.17842379588541e-17 0.5454159194315734 -0.8381655414239145
12630241333.333334 0.5372852247472367 -0.8434006090038965 -2.6056576839306258e-17 9.202494060412102e-17 -2.6056576839306258e-17 9.202494060412102e-17 0.5372857752964952 -0.8434002582782841
12630858666.666666 0.5291048402475427 -0.848556461307351 -2.515242151579974e-17 9.225678519203298e-17 -2.515242151579974e-17 9.225678519203298e-17 0.5291053941353324 -0.8485561159385554
12631476000.0 0.5208749836517855 -0.8536329723045991 -2.4246224277843045e-17 9.247975311067002e-17 -2.4246224277843045e-17 9.247975311067002e-17 0.5208755408259929 -0.8536326323243867
12632093333.333334 0.5125964244640147 -0.8586296673342586 -2.3338072207719404e-17 9.26938266004116e-17 -2.3338072207719404e-17 9.26938266004116e-17 0.5125969848722247 -0.8586293327738908
12632710666.666666 0.5042699367420709 -0.863546079197851 -2.242805253975182e-17 9.289898875529978e-17 -2.242805253975182e-17 9.289898875529978e-17 0.5042705003315706 -0.8635457500880772
12633328000.0 0.49589629902498655 -0.8683817482036075 -2.1516252651943355e-17 9.309522352431305e-17 -2.1516252651943355e-17 9.309522352431305e-17 0.4958968657427717 -0.8683814245746668
12633945333.333334 0.48747629426056144 -0.8731362222092397 -2.06027600576206e-17 9.32825157125569e-17 -2.06027600576206e-17 9.32825157125569e-17 0.4874768640533398 -0.8731359040908545
12634562666.666666 0.47901070973195786 -0.8778090566643283 -1.9687662397030274e-17 9.346085098237995e-17 -1.9687662397030274e-17 9.346085098237995e-17 0.4790112825461551 -0.8778087440857035
12635180000.0 0.47050033698403926 -0.8823998146519166 -1.8771047428966758e-17 9.363021585439918e-17 -1.8771047428966758e-17 9.363021585439918e-17 0.47050091276580364 -0.8823995076417358
12635797333.333334 0.4619459717494834 -0.8869080669292939 -1.7853003022362576e-17 9.37905977084499e-17 -1.7853003022362576e-17 9.37905977084499e-17 0.4619465504446909 -0.8869077655157173
12636414666.666666 0.45334841387440633 -0.8913333919681189 -1.6933617147884863e-17 9.394198478445059e-17 -1.6933617147884863e-17 9.394198478445059e-17 0.45334899542866613 -0.8913330961787804
12637032000.0 0.44470846724334817 -0.8956753759939491 -1.6012977869525424e-17 9.408436618318533e-17 -1.6012977869525424e-17 9.408436618318533e-17 0.4447090516020079 -0.8956750858559562
12637649333.333334 0.4360269397043635 -0.8999336130248055 -1.509117333617198e-17 9.421773186700694e-17 -1.509117333617198e-17 9.421773186700694e-17 0.4360275268125126 -0.8999333285647309
12638266666.666666 0.42730464299338045 -0.9041077049091727 -1.4168291773201134e-17 9.434207266045238e-17 -1.4168291773201134e-17 9.434207266045238e-17 0.4273052327958582 -0.9041074261530595
12638884000.0 0.4185423926582306 -0.9081972613632766 -1.3244421474043527e-17 9.445738025078114e-17 -1.3244421474043527e-17 9.445738025078114e-17 0.4185429850996287 -0.9081969883366297
12639501333.333334 0.4097410079825185 -0.9122019000075053 -1.2319650791742898e-17 9.45636471884302e-17 -1.2319650791742898e-17 9.45636471884302e-17 0.40974160300718754 -0.9122016327352919
12640118666.666666 0.40090131190909695 -0.9161212464021331 -1.1394068130555907e-17 9.466086688738212e-17 -1.1394068130555907e-17 9.466086688738212e-17 0.4009019094611519 -0.9161209849087807
12640736000.0 0.3920241309626279 -0.9199549340825501 -1.0467761937466858e-17 9.474903362546015e-17 -1.0467761937466858e-17 9.474903362546015e-17 0.3920247309859526 -0.9199546783919432
12641353333.333334 0.38311029517308026 -0.9237026045931823 -9.54082069380947e-18 9.482814254452943e-17 -9.54082069380947e-18 9.482814254452943e-17 0.3831108976113328 -0.9237023547286597
12641970666.666666 0.3741606379974966 -0.9273639075212816 -8.613332906791592e-18 9.489818965062581e-17 -8.613332906791592e-18 9.489818965062581e-17 0.37416124279411517 -0.9273636635056366
12642588000.0 0.3651759962422447 -0.9309385005296088 -7.685387101080108e-18 9.495917181399659e-17 -7.685387101080108e-18 9.495917181399659e-17 0.3651766033404526 -0.9309382623850854
12643205333.333334 0.3561572099849089 -0.9344260493883927 -6.757071810357783e-18 9.5011086769062e-17 -6.757071810357783e-18 9.5011086769062e-17 0.356157819327719 -0.934425817136682
12643822666.666666 0.3471051224955538 -0.9378262280066494 -5.828475568898737e-18 9.505393311429235e-17 -5.828475568898737e-18 9.505393311429235e-17 0.34710573402577566 -0.9378260016688915
12644440000.0 0.33802058015793196 -0.9411387184626547 -4.899686903147159e-18 9.508771031200383e-17 -4.899686903147159e-18 9.508771031200383e-17 0.3380211938181757 -0.9411384980594342
12645057333.333334 0.3289044323904786 -0.9443632110336203 -3.970794323283881e-18 9.511241868807331e-17 -3.970794323283881e-18 9.511241868807331e-17 0.32890504812316074 -0.9443629965849644
12645674666.666666 0.3197575315668102 -0.9474994042246845 -3.041886314824747e-18 9.51280594315687e-17 -3.041886314824747e-18 9.51280594315687e-17 0.31975814931415963 -0.947499195750063
12646292000.0 0.31058073293575794 -0.9505470047971956 -2.113051330181415e-18 9.51346345942999e-17 -2.113051330181415e-18 9.51346345942999e-17 0.31058135263982 -0.9505468023155158
12646909333.333334 0.3013748945419097 -0.9535057277959509 -1.184377780282668e-18 9.513214709028603e-17 -1.184377780282668e-18 9.513214709028603e-17 0.301375516144553 -0.9535055313255592
12647526666.666666 0.2921408771450068 -0.9563752965759726 -2.5595402616506316e-19 9.51206006951413e-17 -2.5595402616506316e-19 9.51206006951413e-17 0.29214150058792804 -0.9563751061346513
12648144000.0 0.28287954413954153 -0.9591554428283449 6.72131629422946e-19 9.51000000453794e-17 6.72131629422946e-19 9.51000000453794e-17 0.28288016936427124 -0.9591552584333118
12648761333.333334 0.27359176147402753 -0.9618459066053001 1.5997909503999684e-18 9.507035063763602e-17 1.5997909503999684e-18 9.507035063763602e-17 0.2735923884219352 -0.9618457282732058
12649378666.666666 0.2642783975701969 -0.9644464363444768 2.5269357757075092e-18 9.503165882780998e-17 2.5269357757075092e-18 9.503165882780998e-17 0.26427902618249666 -0.9644462640914027
12649996000.0 0.2549403232415837 -0.9669567888925077 3.453478027693235e-18 9.498393183012282e-17 3.453478027693235e-18 9.498393183012282e-17 0.2549409534593396 -0.9669566227339649
12650613333.333334 0.2455784116120993 -0.9693767295277473 4.379329720461382e-18 9.492717771609635e-17 4.379329720461382e-18 9.492717771609635e-17 0.24557904337623113 -0.9693765694786766
12651230666.666666 0.23619353803467028 -0.971706031982151 5.304402968181553e-18 9.486140541345172e-17 5.304402968181553e-18 9.486140541345172e-17 0.23619417128595935 -0.9717058780569208
12651848000.0 0.2267865800090339 -0.9739444784625244 6.228609993462901e-18 9.478662470492237e-17 6.228609993462901e-18 9.478662470492237e-17 0.2267872146881278 -0.9739443306749278
12652465333.333334 0.21735841709985454 -0.9760918596708397 7.151863135623095e-18 9.470284622699184e-17 7.151863135623095e-18 9.470284622699184e-17 0.2173590531472736 -0.976091718034096
12653082666.666666 0.20790993085465048 -0.9781479748237721 8.074074858994226e-18 9.461008146854839e-17 8.074074858994226e-18 9.461008146854839e-17 0.20791056821079262 -0.9781478393505236
12653700000.0 0.1984420047210073 -0.9801126316715545 8.995157761240308e-18 9.450834276945494e-17 8.995157761240308e-18 9.450834276945494e-17 0.19844264332615386 -0.9801125023738659
12654317333.333334 0.18895552396427906 -0.9819856465158839 9.91502458157027e-18 9.439764331904803e-17 9.91502458157027e-18 9.439764331904803e-17 0.1889561637586005 -0.9819855234052411
12654934666.666666 0.17945137558470392 -0.9837668442271222 1.0833588209022874e-17 9.427799715454745e-17 1.0833588209022874e-17 9.427799715454745e-17 0.17945201650826556 -0.9837667273144329
12655552000.0 0.16993044823438455 -0.9854560582606884 1.1750761690707209e-17 9.414941915938783e-17 1.1750761690707209e-17 9.414941915938783e-17 0.1699310902271519 -0.9854559475562789
12656169333.333334 0.1603936321343656 -0.9870531306725991 1.2666458239976877e-17 9.401192506147748e-17 1.2666458239976877e-17 9.401192506147748e-17 0.1603942751362098 -0.9870530261862137
12656786666.666666 0.1508418189912838 -0.9885579121342526 1.3580591244659948e-17 9.386553143136683e-17 1.3580591244659948e-17 9.386553143136683e-17 0.1508424629419879 -0.9885578138750547
12657404000.0 0.1412759019140499 -0.9899702619463907 1.4493074275229107e-17 9.371025568034368e-17 1.4493074275229107e-17 9.371025568034368e-17 0.14127654675331364 -0.9899701699229584
12658021333.333334 0.13169677533019908 -0.9912900480522638 1.5403821092945778e-17 9.354611605844891e-17 1.5403821092945778e-17 9.354611605844891e-17 0.1316974209976456 -0.9912899622725946
12658638666.666666 0.12210533490257192 -0.9925171470499458 1.6312745657988495e-17 9.337313165241416e-17 1.6312745657988495e-17 9.337313165241416e-17 0.12210598133775234 -0.9925170675214496
12659256000.0 0.1125024774451732 -0.9936514442039182 1.721976213759873e-17 9.319132238351202e-17 1.721976213759873e-17 9.319132238351202e-17 0.11250312458757286 -0.9936513709334205
12659873333.333334 0.10288910083962857 -0.9946928334557585 1.8124784914129684e-17 9.300070900534156e-17 1.8124784914129684e-17 9.300070900534156e-17 0.10288974862867287 -0.9946927664495011
12660490666.666666 0.09326610395111938 -0.9956412174340779 1.9027728593119343e-17 9.280131310152774e-17 1.9027728593119343e-17 9.280131310152774e-17 0.09326675232617876 -0.9956411566977132
12661108000.0 0.08363438654422294 -0.9964965074636262 1.9928508011365155e-17 9.259315708333547e-17 1.9928508011365155e-17 9.259315708333547e-17 0.08363503544461925 -0.9964964530022222
12661725333.333334 0.07399484919909552 -0.9972586235735623 2.0827038244886875e-17 9.237626418722542e-17 2.0827038244886875e-17 9.237626418722542e-17 0.07399549856410736 -0.9972585753915995
12662342666.666666 0.06434839322686992 -0.997927494504963 2.1723234616952895e-17 9.215065847231235e-17 2.1723234616952895e-17 9.215065847231235e-17 0.0643490429957383 -0.9979274526063334
12662960000.0 0.05469592058569311 -0.9985030577174598 2.2617012706037803e-17 9.191636481775539e-17 2.2617012706037803e-17 9.191636481775539e-17 0.05469657069762725 -0.9985030221054682
12663577333.333334 0.045038333796278515 -0.9989852593950967 2.3508288353742267e-17 9.16734089200743e-17 2.3508288353742267e-17 9.16734089200743e-17 0.045038984190461484 -0.9989852300724592
12664194666.666666 0.03537653585743389 -0.9993740544513651 2.4396977672721226e-17 9.142181729037966e-17 2.4396977672721226e-17 9.142181729037966e-17 0.03537718647302834 -0.9993740314202112
12664812000.0 0.02571143016179984 -0.9996694065334137 2.5282997054544136e-17 9.11616172515366e-17 2.5282997054544136e-17 9.11616172515366e-17 0.025712080937953588 -0.9996693897952831
12665429333.333334 0.016043920411267596 -0.9998712880254488 2.616626317755426e-17 9.089283693524501e-17 2.616626317755426e-17 9.089283693524501e-17 0.016044571287119398 -0.9998712775812925
12666046666.666666 0.006374910532538449 -0.9999796800513179 2.7046693014682043e-17 9.06155052790483e-17 2.7046693014682043e-17 9.06155052790483e-17 0.006375561447223693 -0.9999796759014987
12666664000.0 -0.0032946954075368665 -0.9999945724762734 2.792420384124533e-17 9.032965202326077e-17 2.792420384124533e-17 9.032965202326077e-17 -0.0032940445148804984 -0.9999945746205662
12667281333.333334 -0.012963993286177172 -0.999915963907922 2.879871324267689e-17 9.003530770783317e-17 2.879871324267689e-17 9.003530770783317e-17 -0.012963342476404011 -0.999915972345513
12667898666.666666 -0.022632079009577172 -0.9997438616963535 2.9670139122280714e-17 8.973250366912339e-17 2.9670139122280714e-17 8.973250366912339e-17 -0.02263142834352785 -0.9997438764258397
12668516000.0 -0.03229804859727097 -0.9994782819334503 3.053839970890643e-17 8.942127203660816e-17 3.053839970890643e-17 8.942127203660816e-17 -0.0322973981357668 -0.9994783029528422
12669133333.333334 -0.04196099826648524 -0.9991192494513923 3.140341356459013e-17 8.91016457295218e-17 3.140341356459013e-17 8.91016457295218e-17 -0.04196034807032242 -0.9991192767581111
12669750666.666666 -0.05162002451701353 -0.9986667978203219 3.2265099592208363e-17 8.877365845340315e-17 3.2265099592208363e-17 8.877365845340315e-17 -0.05161937464695757 -0.998666831411202
12670368000.0 -0.061274224215410796 -0.9981209693452154 3.31233770430386e-17 8.843734469659004e-17 3.31233770430386e-17 8.843734469659004e-17 -0.061273574732190784 -0.9981210092165038
