! Parameters = {f0=12700.012000; bw=77.238000; Q=6100.000000; N=10; m_0_1=1.347442; m_1_1=1.446891; m_1_2=1.182254; m_2_2=1.446242; m_2_3=0.819217; m_2_8=0.004436; m_2_9=0.041140; m_3_3=1.444305; m_3_4=0.707746; m_3_7=0.005036; m_3_8=-0.092052; m_3_9=0.004436; m_4_4=1.441380; m_4_5=0.544081; m_4_6=0.008553; m_4_7=-0.112601; m_4_8=0.005036; m_5_5=1.441762; m_5_6=0.951436; m_5_7=0.008553; m_6_6=1.441761; m_6_7=0.544423; m_7_7=1.441394; m_7_8=0.707864; m_8_8=1.444303; m_8_9=0.819530; m_9_9=1.446237; m_9_10=1.183332; m_10_10=1.446881; m_10_11=1.348237}
!
! Created with skrf (http://scikit-rf.org).
# Hz S RI R 50.0 
!freq ReS11 ImS11 ReS21 ImS21 ReS12 ImS12 ReS22 ImS22
12607400000.0 -0.44995067393203814 -0.8930534088328124 1.0772301242985252e-16 1.1454408838164363e-16 1.0772301242985252e-16 1.1454408838164363e-16 -0.44995004007518075 -0.8930537281911678
12608017333.333334 -0.4613555427024762 -0.8872153420773919 1.0917036577351251e-16 1.1312270348603712e-16 1.0917036577351251e-16 1.1312270348603712e-16 -0.46135491302008874 -0.8872156695144799
12608634666.666666 -0.47268467808724246 -0.8812316353271483 1.1059898313558556e-16 1.1168304803108073e-16 1.1059898313558556e-16 1.1168304803108073e-16 -0.472684052682276 -0.8812319707884301
12609252000.0 -0.4839362203627749 -0.8751032708319593 1.1200863411370745e-16 1.1022536874565817e-16 1.1200863411370745e-16 1.1022536874565817e-16 -0.4839355993374678 -0.8751036142615836
12609869333.333334 -0.49510832254293685 -0.8688312545877481 1.1339909155161078e-16 1.0874991526105008e-16 1.1339909155161078e-16 1.0874991526105008e-16 -0.4951077059987999 -0.8688316059285637
12610486666.666666 -0.5061991506817609 -0.8624166161715959 1.147701315755783e-16 1.0725694006833615e-16 1.147701315755783e-16 1.0725694006833615e-16 -0.5061985387195584 -0.8624169753651565
12611104000.0 -0.5172068841750889 -0.8558604085723899 1.161215336304908e-16 1.0574669847517747e-16 1.161215336304908e-16 1.0574669847517747e-16 -0.5172062768948237 -0.8558607755589668
12611721333.333334 -0.5281297160587446 -0.8491637080183728 1.1745308051515507e-16 1.042194485623091e-16 1.1745308051515507e-16 1.042194485623091e-16 -0.5281291135596411 -0.8491640827369639
12612338666.666666 -0.5389658533056928 -0.8423276138001583 1.1876455841715175e-16 1.0267545113949064e-16 1.1876455841715175e-16 1.0267545113949064e-16 -0.5389652556861808 -0.8423279961884982
12612956000.0 -0.5497135171201756 -0.8353532480903924 1.2005575694709893e-16 1.0111496970102595e-16 1.2005575694709893e-16 1.0111496970102595e-16 -0.5497129244778745 -0.8353536380849635
12613573333.333334 -0.5603709432295659 -0.8282417557596382 1.2132646917228053e-16 9.953827038091468e-17 1.2132646917228053e-16 9.953827038091468e-17 -0.5603703556612687 -0.8282421532956799
12614190666.666666 -0.570936382174268 -0.8209943041882568 1.225764916497443e-16 9.794562190751393e-17 1.225764916497443e-16 9.794562190751393e-17 -0.5709357997759249 -0.820994709199777
12614808000.0 -0.5814080995947517 -0.8136120830748651 1.238056244587725e-16 9.633729555782801e-17 1.238056244587725e-16 9.633729555782801e-17 -0.5814075224614553 -0.8136124954946513
12615425333.333334 -0.5917843765161184 -0.8060963042411444 1.250136712327866e-16 9.471356511134942e-17 1.250136712327866e-16 9.471356511134942e-17 -0.5917838047420872 -0.8060967240007739
12616042666.666666 -0.6020635096305555 -0.7984482014327174 1.2620043919059341e-16 9.307470680357188e-17 1.2620043919059341e-16 9.307470680357188e-17 -0.6020629433091199 -0.7984486284625711
12616660000.0 -0.6122438115767546 -0.7906690301167545 1.2736573916707802e-16 9.142099927904341e-17 1.2736573916707802e-16 9.142099927904341e-17 -0.6122432508003414 -0.7906694643460265
12617277333.333334 -0.6223236112169925 -0.7827600672758181 1.2850938564325471e-16 8.975272354407121e-17 1.2850938564325471e-16 8.975272354407121e-17 -0.6223230560771076 -0.7827605086325262
12617894666.666666 -0.6323012539112737 -0.7747226111983783 1.2963119677570132e-16 8.807016291905345e-17 1.2963119677570132e-16 8.807016291905345e-17 -0.6323007044984895 -0.774723059609378
12618512000.0 -0.6421751017892583 -0.7665579812654465 1.3073099442539416e-16 8.637360299040679e-17 1.3073099442539416e-16 8.637360299040679e-17 -0.6421745581931992 -0.7665584366564437
12619129333.333334 -0.651943534018775 -0.758267517734284 1.3180860418586697e-16 8.466333156221085e-17 1.3180860418586697e-16 8.466333156221085e-17 -0.6519429963281004 -0.7582679800298444
12619746666.666666 -0.6616049470721453 -0.7498525815181706 1.328638554107818e-16 8.293963860743502e-17 1.328638554107818e-16 8.293963860743502e-17 -0.6616044153745383 -0.7498530506417356
12620364000.0 -0.671157754989455 -0.7413145539629702 1.338965812408678e-16 8.120281621881628e-17 1.338965812408678e-16 8.120281621881628e-17 -0.6711572293716039 -0.7413150298368661
12620981333.333334 -0.6806003896385461 -0.7326548366206701 1.3490661863014925e-16 7.945315855951672e-17 1.3490661863014925e-16 7.945315855951672e-17 -0.680599870186136 -0.7326553191661255
12621598666.666666 -0.6899313009727004 -0.723874851019097 1.358938083716452e-16 7.769096181326643e-17 1.358938083716452e-16 7.769096181326643e-17 -0.6899307877703933 -0.72387534015625
12622216000.0 -0.6991489572851163 -0.7149760384285173 1.3685799512230476e-16 7.591652413437979e-17 1.3685799512230476e-16 7.591652413437979e-17 -0.6991484504165418 -0.7149765340764344
12622833333.333334 -0.7082518454602648 -0.7059598596251281 1.3779902742736392e-16 7.413014559734175e-17 1.3779902742736392e-16 7.413014559734175e-17 -0.7082513450080039 -0.7059603617018138
12623450666.666666 -0.7172384712221528 -0.6968277946513844 1.387167577440182e-16 7.233212814614019e-17 1.387167577440182e-16 7.233212814614019e-17 -0.7172379772677246 -0.6968283030737954
12624068000.0 -0.7261073593798539 -0.6875813425728018 1.3961104246443534e-16 7.0522775543307e-17 1.3961104246443534e-16 7.0522775543307e-17 -0.7261068720037049 -0.6875818572568634
12624685333.333334 -0.7348570540695506 -0.6782220212320031 1.404817419381256e-16 6.870239331863741e-17 1.404817419381256e-16 6.870239331863741e-17 -0.7348565733510374 -0.6782225420926185
12625302666.666666 -0.7434861189933597 -0.66875136699972 1.4132872049359984e-16 6.687128871772247e-17 1.4132872049359984e-16 6.687128871772247e-17 -0.7434856450107394 -0.6687518939507883
12625920000.0 -0.7519931376555348 -0.6591709345221356 1.4215184645942072e-16 6.502977065008859e-17 1.4215184645942072e-16 6.502977065008859e-17 -0.7519926704859522 -0.6591714674765651
12626537333.333334 -0.7603767135944903 -0.6494822964662276 1.42950992184504e-16 6.317814963724126e-17 1.42950992184504e-16 6.317814963724126e-17 -0.7603762533139625 -0.6494828353359484
12627154666.666666 -0.7686354706122681 -0.6396870432613583 1.437260340578179e-16 6.131673776029989e-17 1.437260340578179e-16 6.131673776029989e-17 -0.7686350172956754 -0.6396875879573393
12627772000.0 -0.7767680530006645 -0.6297867828379378 1.4447685252736404e-16 5.944584860747335e-17 1.4447685252736404e-16 5.944584860747335e-17 -0.7767676067217356 -0.6297873332701992
12628389333.333334 -0.784773125763296 -0.6197831403640373 1.4520333211846098e-16 5.756579722134771e-17 1.4520333211846098e-16 5.756579722134771e-17 -0.7847726865945989 -0.6197836964416678
12629006666.666666 -0.792649374835151 -0.6096777579781364 1.4590536145138834e-16 5.567690004583695e-17 1.4590536145138834e-16 5.567690004583695e-17 -0.7926489428480777 -0.6096783196093059
12629624000.0 -0.800395507298111 -0.5994722945197739 1.4658283325829377e-16 5.3779474873045136e-17 1.4658283325829377e-16 5.3779474873045136e-17 -0.8003950825628686 -0.59947286161175
12630241333.333334 -0.8080102515932618 -0.5891684252571542 1.4723564439944564e-16 5.187384078983444e-17 1.4723564439944564e-16 5.187384078983444e-17 -0.8080098341788613 -0.5891689977163179
12630858666.666666 -0.8154923577294922 -0.5787678416123307 1.4786369587877234e-16 4.9960318124247926e-17 1.4786369587877234e-16 4.9960318124247926e-17 -0.8154919477037339 -0.5787684193441901
12631476000.0 -0.822840597488914 -0.5682722508832269 1.484668928587271e-16 4.803922839168839e-17 1.484668928587271e-16 4.803922839168839e-17 -0.8228401949183802 -0.5682728337924342
12632093333.333334 -0.8300537646282514 -0.5576833759637013 1.490451446744131e-16 4.611089424104688e-17 1.490451446744131e-16 4.611089424104688e-17 -0.8300533695782937 -0.5576839639540685
12632710666.666666 -0.8371306750769164 -0.547002955060637 1.495983648470627e-16 4.417563940050393e-17 1.495983648470627e-16 4.417563940050393e-17 -0.8371302876116462 -0.5470035480351515
12633328000.0 -0.8440701671315706 -0.5362327414083233 1.5012647109678456e-16 4.2233788623255937e-17 1.5012647109678456e-16 4.2233788623255937e-17 -0.8440697873138477 -0.5362333392691637
12633945333.333334 -0.8508711016465633 -0.5253745029810312 1.5062938535459989e-16 4.0285667633127033e-17 1.5062938535459989e-16 4.0285667633127033e-17 -0.8508707295379868 -0.5253751056295838
12634562666.666666 -0.8575323622209713 -0.514430022202751 1.511070337737937e-16 3.8331603069972644e-17 1.511070337737937e-16 3.8331603069972644e-17 -0.8575319978818673 -0.5144306295396253
12635180000.0 -0.864052855382004 -0.5034010956543579 1.5155934674055706e-16 3.637192243495152e-17 1.5155934674055706e-16 3.637192243495152e-17 -0.8640524988714182 -0.5034017075794038
12635797333.333334 -0.8704315107644122 -0.4922895337788384 1.5198625888390131e-16 3.440695403575313e-17 1.5198625888390131e-16 3.440695403575313e-17 -0.8704311621400994 -0.4922901501911626
12636414666.666666 -0.8766672812861077 -0.481097160584249 1.5238770908488626e-16 3.24370269316268e-17 1.5238770908488626e-16 3.24370269316268e-17 -0.8766669406045239 -0.4810977813822321
12637032000.0 -0.8827591433202205 -0.4698258133440029 1.5276364048512426e-16 3.04624708783498e-17 1.5276364048512426e-16 3.04624708783498e-17 -0.8827588106365104 -0.46982643842531446
12637649333.333334 -0.8887060968630367 -0.45847734229541776 1.5311400049457386e-16 2.848361627310135e-17 1.5311400049457386e-16 2.848361627310135e-17 -0.8887057722310284 -0.4584779715570351
12638266666.666666 -0.894507165698084 -0.44705361033614743 1.5343874079862916e-16 2.6500794099208115e-17 1.5343874079862916e-16 2.6500794099208115e-17 -0.8945068491702777 -0.4470542436743712
12638884000.0 -0.9001613975565338 -0.43555649271807495 1.5373781736447713e-16 2.451433587090048e-17 1.5373781736447713e-16 2.451433587090048e-17 -0.9001610891840953 -0.43555713002854735
12639501333.333334 -0.9056678642734427 -0.42398787673963434 1.540111904467581e-16 2.2524573577915312e-17 1.540111904467581e-16 2.2524573577915312e-17 -0.9056675641061938 -0.42398851791735537
12640118666.666666 -0.9110256619400172 -0.4123496614362082 1.5425882459250094e-16 2.053183963009349e-17 1.5425882459250094e-16 2.053183963009349e-17 -0.9110253700264273 -0.41235030637555325
12640736000.0 -0.916233911052283 -0.4006437572677755 1.5448068864534944e-16 1.8536466801867673e-17 1.5448068864534944e-16 1.8536466801867673e-17 -0.9162336274394622 -0.400644405862513
12641353333.333334 -0.9212917566550314 -0.3888720858062319 1.5467675574905745e-16 1.6538788176851833e-17 1.5467675574905745e-16 1.6538788176851833e-17 -0.9212914813887242 -0.3888727379495409
12641970666.666666 -0.9261983684825656 -0.37703657941907603 1.5484700335029117e-16 1.4539137092181212e-17 1.5484700335029117e-16 1.4539137092181212e-17 -0.92619810160714 -0.377037235003563
12642588000.0 -0.9309529410947778 -0.3651391809526691 1.5499141320068987e-16 1.2537847083051535e-17 1.5499141320068987e-16 1.2537847083051535e-17 -0.9309526826532216 -0.3651398398703867
12643205333.333334 -0.9355546940094157 -0.3531818434132064 1.5510997135822595e-16 1.0535251827115255e-17 1.5510997135822595e-16 1.0535251827115255e-17 -0.935554444043328 -0.35318250555567055
12643822666.666666 -0.9400028718302004 -0.3411665296461225 1.5520266818784347e-16 8.531685088884283e-18 1.5520266818784347e-16 8.531685088884283e-18 -0.9400026303797839 -0.34116719490433006
12644440000.0 -0.9442967443708443 -0.329095212013828 1.5526949836137613e-16 6.527480664219489e-18 1.5526949836137613e-16 6.527480664219489e-18 -0.9442965114749016 -0.32909588027827547
12645057333.333334 -0.9484356067748606 -0.3169698720721002 1.5531046085675488e-16 4.5229723247484625e-18 1.5531046085675488e-16 4.5229723247484625e-18 -0.9484353824707856 -0.3169705432328014
12645674666.666666 -0.9524187796312905 -0.3047925002447506 1.553255589564955e-16 2.5184937623618784e-18 1.553255589564955e-16 2.5184937623618784e-18 -0.9524185639550622 -0.30479317419125385
12646292000.0 -0.9562456090863488 -0.2925650954965074 1.5531480024547234e-16 5.14378533683049e-19 1.5531480024547234e-16 5.14378533683049e-19 -0.9562454020725282 -0.29256577211791557
12646909333.333334 -0.9599154669505331 -0.280289665005583 1.5527819660797644e-16 -1.4890399952771021e-18 1.5527819660797644e-16 -1.4890399952771021e-18 -0.9599152686322553 -0.28029034419057025
12647526666.666666 -0.9634277508019335 -0.2679682238335908 1.5521576422406013e-16 -3.4914287046324476e-18 1.5521576422406013e-16 -3.4914287046324476e-18 -0.9634275612109027 -0.26796890547042135
12648144000.0 -0.9667818840850352 -0.2556027945950358 1.5512752356516799e-16 -5.492454775841944e-18 1.5512752356516799e-16 -5.492454775841944e-18 -0.9667817032515198 -0.2556034785715822
12648761333.333334 -0.9699773162053937 -0.24319540712518473 1.5501349938905544e-16 -7.49178574705239e-18 1.5501349938905544e-16 -7.49178574705239e-18 -0.9699771441582227 -0.24319609332894668
12649378666.666666 -0.973013522619962 -0.23074809814708078 1.5487372073399931e-16 -9.489089568166213e-18 1.5487372073399931e-16 -9.489089568166213e-18 -0.9730133593865187 -0.23074878646520336
12649996000.0 -0.9758900049232949 -0.21826291093682224 1.5470822091229102e-16 -1.1484034656048427e-17 1.5470822091229102e-16 -1.1484034656048427e-17 -0.9758898505295126 -0.21826360125611424
12650613333.333334 -0.978606290929263 -0.20574189498853487 1.5451703750303076e-16 -1.3476289949414111e-17 1.5451703750303076e-16 -1.3476289949414111e-17 -0.9786061453996237 -0.2057425871954882
12651230666.666666 -0.9811619347486045 -0.19318710567783218 1.5430021234420917e-16 -1.546552496373983e-17 1.5430021234420917e-16 -1.546552496373983e-17 -0.981161798106131 -0.19318779965863947
12651848000.0 -0.9835565168621782 -0.18060060392408037 1.5405779152408093e-16 -1.7451409846048627e-17 1.5405779152408093e-16 -1.7451409846048627e-17 -0.9835563891284324 -0.18060129956465432
12652465333.333334 -0.985789644189738 -0.16798445585253607 1.5378982537184271e-16 -1.943361542949847e-17 1.5378982537184271e-16 -1.943361542949847e-17 -0.9857895253848181 -0.16798515303852815
12653082666.666666 -0.9878609501544771 -0.15534073245512894 1.534963684476073e-16 -2.141181328787059e-17 1.534963684476073e-16 -2.141181328787059e-17 -0.9878608402970136 -0.1553414310719481
12653700000.0 -0.9897700947432604 -0.14267150925016384 1.531774795316646e-16 -2.3385675790000398e-17 1.531774795316646e-16 -2.3385675790000398e-17 -0.9897699938504133 -0.14267220918299534
12654317333.333334 -0.9915167645623638 -0.12997886594206445 1.528332216130673e-16 -2.5354876153889136e-17 1.528332216130673e-16 -2.5354876153889136e-17 -0.9915166726498186 -0.12997956707588854
12654934666.666666 -0.9931006728889733 -0.11726488607964472 1.5246366187750456e-16 -2.7319088500775375e-17 1.5246366187750456e-16 -2.7319088500775375e-17 -0.9931005899709417 -0.11726558829925599
12655552000.0 -0.9945215597182511 -0.10453165671402839 1.5206887169448176e-16 -2.92779879090261e-17 1.5206887169448176e-16 -2.92779879090261e-17 -0.9945214858074674 -0.10453235990405448
12656169333.333334 -0.9957791918059657 -0.09178126805650316 1.5164892660382429e-16 -3.1231250467769773e-17 1.5164892660382429e-16 -3.1231250467769773e-17 -0.995779126913683 -0.09178197210142346
12656786666.666666 -0.9968733627068225 -0.07901581313506541 1.5120390630147607e-16 -3.317855333042676e-17 1.5120390630147607e-16 -3.317855333042676e-17 -0.9968733068428118 -0.07901651791923028
12657404000.0 -0.99780389280835 -0.06623738745078404 1.5073389462462278e-16 -3.511957476799013e-17 1.5073389462462278e-16 -3.511957476799013e-17 -0.9978038459809025 -0.066238092858434
12658021333.333334 -0.9985706293603793 -0.05344808863392897 1.5023897953611825e-16 -3.70539942221596e-17 1.5023897953611825e-16 -3.70539942221596e-17 -0.9985705915762985 -0.05344879454921322
12658638666.666666 -0.9991734465000977 -0.04065001609986321 1.497192531082636e-16 -3.898149235812349e-17 1.497192531082636e-16 -3.898149235812349e-17 -0.9991734177647057 -0.04065072240685915
12659256000.0 -0.9996122452727532 -0.027845270703791586 1.49174811505858e-16 -4.090175111732113e-17 1.49174811505858e-16 -4.090175111732113e-17 -0.9996122255898843 -0.027845977286523486
12659873333.333334 -0.9998869536478538 -0.015035954396634358 1.4860575496861617e-16 -4.2814453769810416e-17 1.4860575496861617e-16 -4.2814453769810416e-17 -0.9998869430198551 -0.015036661139092551
12660490666.666666 -0.9999975265310164 -0.002224169879643208 1.4801218779291708e-16 -4.471928496639465e-17 1.4801218779291708e-16 -4.471928496639465e-17 -0.9999975249587497 -0.0022248766658031537
12661108000.0 -0.9999439457713646 0.010587979741106915 1.4739421831283751e-16 -4.661593079065941e-17 1.4739421831283751e-16 -4.661593079065941e-17 -0.9999439532542058 0.010587273027265627
12661725333.333334 -0.9997262201645077 0.02339839129921228 1.4675195888058183e-16 -4.8504078810548734e-17 1.4675195888058183e-16 -4.8504078810548734e-17 -0.9997262367003449 0.02339768477368687
12662342666.666666 -0.999344385451091 0.03620496191386562 1.460855258462094e-16 -5.038341812980858e-17 1.460855258462094e-16 -5.038341812980858e-17 -0.9993444110363288 0.03620425569261113
12662960000.0 -0.998798504310944 0.04900558933454129 1.4539503953672434e-16 -5.2253639439096474e-17 1.4539503953672434e-16 -5.2253639439096474e-17 -0.9987985389404991 0.04900488353345146
12663577333.333334 -0.9980886663527712 0.061798172286485605 1.4468062423449364e-16 -5.4114435066856574e-17 1.4468062423449364e-16 -5.4114435066856574e-17 -0.998088710020079 0.06179746702137398
12664194666.666666 -0.9972149880994579 0.07458061081542264 1.4394240815504546e-16 -5.596549902981998e-17 1.4394240815504546e-16 -5.596549902981998e-17 -0.997215040796469 0.07457990620200343
12664812000.0 -0.996177612968935 0.0873508066323268 1.4318052342419588e-16 -5.780652708327909e-17 1.4318052342419588e-16 -5.780652708327909e-17 -0.9961776746861193 0.08735010278619601
12665429333.333334 -0.9949767112506331 0.10010666345792225 1.423951060545285e-16 -5.963721677106039e-17 1.423951060545285e-16 -5.963721677106039e-17 -0.994976781976981 0.10010596049453864
12666046666.666666 -0.9936124800775499 0.112846087366569 1.4158629592128733e-16 -6.145726747505877e-17 1.4158629592128733e-16 -6.145726747505877e-17 -0.9936125598005744 0.11284538540123527
12666664000.0 -0.9920851433938526 0.1255669871303857 1.4075423673755213e-16 -6.326638046464922e-17 1.4075423673755213e-16 -6.326638046464922e-17 -0.9920852320995899 0.12556628627822933
12667281333.333334 -0.9903949519181615 0.13826727456208046 1.3989907602887054e-16 -6.50642589455634e-17 1.3989907602887054e-16 -6.50642589455634e-17 -0.9903950495911759 0.13826657493803515
12667898666.666666 -0.988542183102352 0.15094486485813116 1.3902096510721405e-16 -6.685060810854582e-17 1.3902096510721405e-16 -6.685060810854582e-17 -0.9885422897257372 0.15094416657691778
12668516000.0 -0.9865271410860325 0.16359767694078783 1.381200590443156e-16 -6.862513517765205e-17 1.381200590443156e-16 -6.862513517765205e-17 -0.9865272566414143 0.1635969801168956
12669133333.333334 -0.9843501566466049 0.17622363379980321 1.3719651664442915e-16 -7.038754945811979e-17 1.3719651664442915e-16 -7.038754945811979e-17 -0.9843502811141454 0.17622293854747104
12669750666.666666 -0.9820115871450041 0.18882066283315765 1.3625050041643728e-16 -7.213756238395266e-17 1.3625050041643728e-16 -7.213756238395266e-17 -0.9820117205034041 0.1888199692663554
