! Parameters = {f0=12700.012000; bw=77.238000; Q=6100.000000; N=10; m_0_1=1.176672; m_1_1=-1.114671; m_1_2=1.011484; m_2_2=-1.115320; m_2_3=0.648447; m_2_8=-0.004103; m_2_9=0.032601; m_3_3=-1.117257; m_3_4=0.536976; m_3_7=-0.003503; m_3_8=-0.100591; m_3_9=-0.004103; m_4_4=-1.120182; m_4_5=0.373311; m_4_6=0.000014; m_4_7=-0.121140; m_4_8=-0.003503; m_5_5=-1.119800; m_5_6=0.780666; m_5_7=0.000014; m_6_6=-1.119801; m_6_7=0.373653; m_7_7=-1.120168; m_7_8=0.537094; m_8_8=-1.117259; m_8_9=0.648760; m_9_9=-1.115325; m_9_10=1.012562; m_10_10=-1.114681; m_10_11=1.177467}
!
! Created with skrf (http://scikit-rf.org).
# Hz S RI R 50.0 
!freq ReS11 ImS11 ReS21 ImS21 ReS12 ImS12 ReS22 ImS22
12607400000.0 0.8250841836940135 0.5650098139128484 -6.631886570267655e-17 -2.142203031059542e-17 -6.631886570267655e-17 -2.142203031059542e-17 0.8250838333314305 0.5650103255472063
12608017333.333334 0.8294459612424024 0.5585869649199801 -6.647201507141059e-17 -2.089650544340072e-17 -6.647201507141059e-17 -2.089650544340072e-17 0.8294456148795887 0.5585874792338877
12608634666.666666 0.8337577413691298 0.5521304453721919 -6.662100447187807e-17 -2.0369897536311577e-17 -6.662100447187807e-17 -2.0369897536311577e-17 0.8337573990265705 0.5521309623343865
12609252000.0 0.8380192641683895 0.5456406444561481 -6.676582634694254e-17 -1.9842239484567156e-17 -6.676582634694254e-17 -1.9842239484567156e-17 0.838018925866325 0.5456411640352098
12609869333.333334 0.8422302727637413 0.539117953364719 -6.690647339932292e-17 -1.931356423524282e-17 -6.690647339932292e-17 -1.931356423524282e-17 0.8422299385221681 0.5391184755290745
12610486666.666666 0.8463905133236485 0.5325627652733331 -6.704293859193513e-17 -1.878390478522241e-17 -6.704293859193513e-17 -1.878390478522241e-17 0.8463901831623154 0.5325632899912559
12611104000.0 0.8504997350768357 0.5259754753161797 -6.71752151482308e-17 -1.8253294179118647e-17 -6.71752151482308e-17 -1.8253294179118647e-17 0.850499409015243 0.5259760025557916
12611721333.333334 0.8545576903272365 0.5193564805626542 -6.730329655250754e-17 -1.772176550723921e-17 -6.730329655250754e-17 -1.772176550723921e-17 0.8545573683846375 0.5193570102919296
12612338666.666666 0.858564134469125 0.5127061799931123 -6.742717655021013e-17 -1.7189351903522115e-17 -6.742717655021013e-17 -1.7189351903522115e-17 0.8585638166645203 0.5127067121798774
12612956000.0 0.8625188260017645 0.5060249744749633 -6.75468491482151e-17 -1.6656086543471006e-17 -6.75468491482151e-17 -1.6656086543471006e-17 0.8625185123539045 0.5060255090868996
12613573333.333334 0.8664215265438776 0.4993132667386526 -6.766230861509477e-17 -1.6122002642106088e-17 -6.766230861509477e-17 -1.6122002642106088e-17 0.8664212170712615 0.49931380374329953
12614190666.666666 0.8702720008482108 0.4925714613530711 -6.777354948136948e-17 -1.558713345189612e-17 -6.777354948136948e-17 -1.558713345189612e-17 0.8702716955690826 0.4925720007178259
12614808000.0 0.8740700168155492 0.4857999647014356 -6.788056653974332e-17 -1.505151226068887e-17 -6.788056653974332e-17 -1.505151226068887e-17 0.8740697157478984 0.48580050639355654
12615425333.333334 0.8778153455087649 0.4789991849566937 -6.798335484531925e-17 -1.451517238965946e-17 -6.798335484531925e-17 -1.451517238965946e-17 0.8778150486703279 0.4789997289433033
12616042666.666666 0.8815077611666637 0.47216953205684903 -6.808190971580449e-17 -1.3978147191228565e-17 -6.808190971580449e-17 -1.3978147191228565e-17 0.8815074685749182 0.47217007830493385
12616660000.0 0.8851470412175066 0.4653114176803977 -6.817622673169341e-17 -1.3440470047008464e-17 -6.817622673169341e-17 -1.3440470047008464e-17 0.8851467528896726 0.4653119661568108
12617277333.333334 0.8887329662924806 0.45842525522141303 -6.826630173643859e-17 -1.290217436572682e-17 -6.826630173643859e-17 -1.290217436572682e-17 0.8887326822455193 0.4584258058928767
12617894666.666666 0.892265320238895 0.4515114597646778 -6.835213083660323e-17 -1.2363293581161229e-17 -6.835213083660323e-17 -1.2363293581161229e-17 0.8922650404895092 0.45151201259778573
12618512000.0 0.8957438901332673 0.4445704480605638 -6.843371040199927e-17 -1.182386115006132e-17 -6.843371040199927e-17 -1.182386115006132e-17 0.895743614697897 0.44457100302178193
12619129333.333334 0.8991684662940723 0.43760263850006026 -6.85110370658065e-17 -1.1283910550089841e-17 -6.85110370658065e-17 -1.1283910550089841e-17 0.8991681951888989 0.43760319555573046
12619746666.666666 0.9025388422944283 0.430608451089481 -6.858410772467742e-17 -1.0743475277745591e-17 -6.858410772467742e-17 -1.0743475277745591e-17 0.9025385755353678 0.43060901020582126
12620364000.0 0.9058548149745712 0.4235883074250681 -6.865291953882645e-17 -1.0202588846286091e-17 -6.865291953882645e-17 -1.0202588846286091e-17 0.905854552577278 0.4235888685681763
12620981333.333334 0.9091161844540291 0.41654263066773334 -6.871746993210011e-17 -9.661284783667581e-18 -6.871746993210011e-17 -9.661284783667581e-18 0.9091159264338928 0.4165431938035884
12621598666.666666 0.9123227541437207 0.40947184551744936 -6.877775659203361e-17 -9.11959663046537e-18 -6.877775659203361e-17 -9.11959663046537e-18 0.912322500515864 0.40947241061191264
12622216000.0 0.9154743307577765 0.4023763781876983 -6.883377746988955e-17 -8.577557937805954e-18 -6.883377746988955e-17 -8.577557937805954e-18 0.9154740815370583 0.40237694520651746
12622833333.333334 0.9185707243252558 0.39525665637965457 -6.888553078068235e-17 -8.035202265285643e-18 -6.888553078068235e-17 -8.035202265285643e-18 0.9185704795262658 0.3952572252884639
12623450666.666666 0.9216117482014737 0.3881131092566599 -6.893301500318234e-17 -7.492563178920714e-18 -6.893301500318234e-17 -7.492563178920714e-18 0.9216115078385352 0.3881136800209837
12624068000.0 0.9245972190793523 0.38094616741814963 -6.897622887990942e-17 -6.94967424905107e-18 -6.897622887990942e-17 -6.94967424905107e-18 0.9245969831665192 0.38094674000340334
12624685333.333334 0.9275269570005051 0.3737562628735889 -6.901517141710552e-17 -6.406569048281559e-18 -6.901517141710552e-17 -6.406569048281559e-18 0.927526725551562 0.3737568372450818
12625302666.666666 0.9304007853659154 0.3665438290168532 -6.904984188469194e-17 -5.86328114942606e-18 -6.904984188469194e-17 -5.86328114942606e-18 0.9304005583943759 0.3665444051397902
12625920000.0 0.9332185309467725 0.3593093005996306 -6.908023981621404e-17 -5.319844123403214e-18 -6.908023981621404e-17 -5.319844123403214e-18 0.9332183084658797 0.3593098784391147
12626537333.333334 0.9359800238947978 0.35205311370550596 -6.910636500876341e-17 -4.776291537209673e-18 -6.910636500876341e-17 -4.776291537209673e-18 0.9359798059175223 0.3520536932265396
12627154666.666666 0.9386850977524841 0.3447757057236746 -6.912821752288973e-17 -4.23265695182569e-18 -6.912821752288973e-17 -4.23265695182569e-18 0.9386848842915239 0.3447762868911627
12627772000.0 0.9413335894632197 0.3374775153223383 -6.91457976824931e-17 -3.6889739201512855e-18 -6.91457976824931e-17 -3.6889739201512855e-18 0.9413333805309999 0.33747809810109003
12628389333.333334 0.9439253393810079 0.3301589824225563 -6.91591060747007e-17 -3.145275984963465e-18 -6.91591060747007e-17 -3.145275984963465e-18 0.9439251349896788 0.3301595667772869
12629006666.666666 0.9464601912801675 0.322820548171514 -6.916814354972875e-17 -2.6015966768177838e-18 -6.916814354972875e-17 -2.6015966768177838e-18 0.9464599914416053 0.3228211340668475
12629624000.0 0.9489379923647223 0.31546265491601155 -6.91729112207259e-17 -2.0579695120203235e-18 -6.91729112207259e-17 -2.0579695120203235e-18 0.9489377970905264 0.31546324231648215
12630241333.333334 0.9513585932775994 0.30808574617582657 -6.91734104636027e-17 -1.5144279905502221e-18 -6.91734104636027e-17 -1.5144279905502221e-18 0.9513584025790941 0.30808633504588145
12630858666.666666 0.9537218481096091 0.3006902666170614 -6.916964291684375e-17 -9.71005594007607e-19 -6.916964291684375e-17 -9.71005594007607e-19 0.953721661997842 0.30069085692106295
12631476000.0 0.956027614408363 0.29327666202496155 -6.916161048130402e-17 -4.27735783549703e-19 -6.916161048130402e-17 -4.27735783549703e-19 0.9560274328941022 0.2932772537271885
12632093333.333334 0.9582757531866821 0.2858453792775839 -6.914931531998928e-17 1.1534800215329367e-19 -6.914931531998928e-17 1.1534800215329367e-19 0.95827557628042 0.28584597234223486
12632710666.666666 0.9604661289311027 0.2783968663184827 -6.913275985782017e-17 6.582123489680352e-19 -6.913275985782017e-17 6.582123489680352e-19 0.960465956643052 0.2783974607096775
12633328000.0 0.9625986096100204 0.2709315721297611 -6.911194678138019e-17 1.2008238693632005e-18 -6.911194678138019e-17 1.2008238693632005e-18 0.9625984419501141 0.270932167811543
12633945333.333334 0.9646730666816121 0.26344994670514366 -6.90868790386482e-17 1.7431492044447228e-18 -6.90868790386482e-17 1.7431492044447228e-18 0.9646729036595029 0.2634505436414815
12634562666.666666 0.9666893751016061 0.2559524410227702 -6.905755983871432e-17 2.28515502599632e-18 -6.905755983871432e-17 2.28515502599632e-18 0.9666892167266681 0.2559530391775614
12635180000.0 0.9686474133308449 0.24843950701792963 -6.902399265148018e-17 2.826808038535015e-18 -6.902399265148018e-17 2.826808038535015e-18 0.9686472596121692 0.24844010635500086
12635797333.333334 0.9705470633425632 0.24091159755598177 -6.898618120734292e-17 3.36807498133829e-18 -6.898618120734292e-17 3.36807498133829e-18 0.9705469142889602 0.24091219803909242
12636414666.666666 0.9723882106295344 0.2333691664049508 -6.894412949686424e-17 3.908922630478173e-18 -6.894412949686424e-17 3.908922630478173e-18 0.9723880662495321 0.2333697679977946
12637032000.0 0.9741707442109638 0.22581266820819962 -6.889784177042146e-17 4.449317800871812e-18 -6.889784177042146e-17 4.449317800871812e-18 0.9741706045128085 0.22581327087440714
12637649333.333334 0.9758945566391739 0.2182425584570531 -6.884732253784543e-17 4.989227348289684e-18 -6.884732253784543e-17 4.989227348289684e-18 0.975894421630828 0.21824316216019357
12638266666.666666 0.9775595440061041 0.21065929346323065 -6.879257656804008e-17 5.5286181713996866e-18 -6.879257656804008e-17 5.5286181713996866e-18 0.9775594136952476 0.21065989816681455
12638884000.0 0.9791656059495379 0.20306333033150714 -6.873360888858812e-17 6.0674572137764424e-18 -6.873360888858812e-17 6.0674572137764424e-18 0.9791654803435669 0.20306393599898825
12639501333.333334 0.9807126456591791 0.19545512693204903 -6.86704247853397e-17 6.6057114659285975e-18 -6.86704247853397e-17 6.6057114659285975e-18 0.9807125247652032 0.1954557335268262
12640118666.666666 0.9822005698824651 0.18783514187289715 -6.860302980198653e-17 7.143347967308762e-18 -6.860302980198653e-17 7.143347967308762e-18 0.9822004537073116 0.1878357493583173
12640736000.0 0.983629288930246 0.18020383447204466 -6.853142973961681e-17 7.680333808342984e-18 -6.853142973961681e-17 7.680333808342984e-18 0.9836291774804569 0.18020444281140457
12641353333.333334 0.9849987166820802 0.17256166473033652 -6.845563065626174e-17 8.216636132407694e-18 -6.845563065626174e-17 8.216636132407694e-18 0.9849986099639109 0.17256227388688503
12641970666.666666 0.9863087705915469 0.16490909330307046 -6.83756388664177e-17 8.752222137860918e-18 -6.83756388664177e-17 8.752222137860918e-18 0.9863086686109681 0.16490970324001078
12642588000.0 0.9875593716911393 0.15724658147270548 -6.829146094055927e-17 9.287059080028543e-18 -6.829146094055927e-17 9.287059080028543e-18 0.9875592744538347 0.15724719215319719
12643205333.333334 0.9887504445970654 0.14957459112080415 -6.820310370463292e-17 9.821114273207601e-18 -6.820310370463292e-17 9.821114273207601e-18 0.9887503521084329 0.14957520250796588
12643822666.666666 0.9898819175137784 0.14189358470027544 -6.811057423953706e-17 1.0354355092653507e-17 -6.811057423953706e-17 1.0354355092653507e-17 0.9898818297789298 0.14189419675718679
12644440000.0 0.9909537222382995 0.1342040252075557 -6.801387988058692e-17 1.0886748976562824e-17 -6.801387988058692e-17 1.0886748976562824e-17 0.9909536392620569 0.1342046378972592
12645057333.333334 0.9919657941643373 0.1265063761545865 -6.791302821696183e-17 1.1418263428062924e-17 -6.791302821696183e-17 1.1418263428062924e-17 0.9919657159512391 0.1265069894400906
12645674666.666666 0.99291807228617 0.11880110154104534 -6.780802709114075e-17 1.1948866017175686e-17 -6.780802709114075e-17 1.1948866017175686e-17 0.9929179988404648 0.11880171538532595
12646292000.0 0.993810499202352 0.11108866582609407 -6.769888459831468e-17 1.2478524382818624e-17 -6.769888459831468e-17 1.2478524382818624e-17 0.9938104305280011 0.11108928019209703
12646909333.333334 0.9946430211191396 0.10336953390066399 -6.758560908579692e-17 1.3007206234731794e-17 -6.758560908579692e-17 1.3007206234731794e-17 0.9946429572198167 0.10337014875130737
12647526666.666666 0.9954155878537494 0.09564417105932076 -6.746820915240323e-17 1.3534879355474487e-17 -6.746820915240323e-17 1.3534879355474487e-17 0.9954155287328392 0.095644786357497
12648144000.0 0.996128152837387 0.08791304297216042 -6.734669364782699e-17 1.4061511602366753e-17 -6.734669364782699e-17 1.4061511602366753e-17 0.9961280984979874 0.0879136586807387
12648761333.333334 0.9967806731180523 0.08017661565676817 -6.722107167199609e-17 1.4587070909439007e-17 -6.722107167199609e-17 1.4587070909439007e-17 0.9967806235629706 0.0801772317385964
12649378666.666666 0.9973731093631103 0.07243535545029726 -6.709135257441367e-17 1.5111525289383843e-17 -6.709135257441367e-17 1.5111525289383843e-17 0.9973730645948674 0.07243597186820466
12649996000.0 0.9979054258616882 0.06468972898113305 -6.695754595348432e-17 1.5634842835494443e-17 -6.695754595348432e-17 1.5634842835494443e-17 0.997905385882515 0.06469034569793211
12650613333.333334 0.9983775905268203 0.05694020314076502 -6.681966165582587e-17 1.6156991723599368e-17 -6.681966165582587e-17 1.6156991723599368e-17 0.9983775553386582 0.056940820119253825
12651230666.666666 0.9987895748973641 0.049187245055927066 -6.667770977556608e-17 1.6677940213989483e-17 -6.667770977556608e-17 1.6677940213989483e-17 0.9987895445018681 0.049187862258891685
12651848000.0 0.9991413541397457 0.04143132206007164 -6.653170065362233e-17 1.7197656653346498e-17 -6.653170065362233e-17 1.7197656653346498e-17 0.9991413285382788 0.04143193945028811
12652465333.333334 0.9994329070494353 0.033672901665369404 -6.638164487696879e-17 1.7716109476657968e-17 -6.638164487696879e-17 1.7716109476657968e-17 0.9994328862430727 0.03367351920560615
12653082666.666666 0.999664216052226 0.02591245153469925 -6.622755327789128e-17 1.8233267209114684e-17 -6.622755327789128e-17 1.8233267209114684e-17 0.9996642000417547 0.025913069187719344
12653700000.0 0.9998352672053079 0.018150439453089303 -6.606943693321735e-17 1.8749098468039494e-17 -6.606943693321735e-17 1.8749098468039494e-17 0.9998352559912247 0.01815105718165259
12654317333.333334 0.9999460501980936 0.010387333299831976 -6.590730716354424e-17 1.9263571964764586e-17 -6.590730716354424e-17 1.9263571964764586e-17 0.9999460437806057 0.010387951066697395
12654934666.666666 0.9999965583528464 0.002623601020196045 -6.574117553244363e-17 1.9776656506530324e-17 -6.574117553244363e-17 1.9776656506530324e-17 0.9999965567318727 0.0026242187881238732
12655552000.0 0.9999867886250811 -0.005140289403007612 -6.557105384565277e-17 2.0288320998375628e-17 -6.557105384565277e-17 2.0288320998375628e-17 0.9999867918002522 -0.005139671671253534
12656169333.333334 0.9999167416037501 -0.012903869977180394 -6.539695415025585e-17 2.0798534445004758e-17 -6.539695415025585e-17 2.0798534445004758e-17 0.9999167495744061 -0.012903252318830412
12656786666.666666 0.9997864215112061 -0.020666672728515183 -6.521888873384569e-17 2.130726595266399e-17 -6.521888873384569e-17 2.130726595266399e-17 0.9997864342763977 -0.02066605518079157
12657404000.0 0.9995958362029423 -0.028428229730147938 -6.503687012367072e-17 2.1814484731011306e-17 -6.503687012367072e-17 2.1814484731011306e-17 0.9995958537614336 -0.0284276123302627
12658021333.333334 0.9993449971671303 -0.036188073130221536 -6.485091108577341e-17 2.2320160094962303e-17 -6.485091108577341e-17 2.2320160094962303e-17 0.9993450195173952 -0.036187455915374124
12658638666.666666 0.999033919523919 -0.04394573518017209 -6.466102462410847e-17 2.282426146654561e-17 -6.466102462410847e-17 2.282426146654561e-17 0.9990339466641426 -0.04394511818754718
12659256000.0 0.9986626220245228 -0.051700748263009216 -6.446722397964661e-17 2.3326758376750804e-17 -6.446722397964661e-17 2.3326758376750804e-17 0.9986626539526019 -0.05170013152977443
12659873333.333334 0.9982311270500968 -0.05945264492133257 -6.426952262947003e-17 2.3827620467352444e-17 -6.426952262947003e-17 2.3827620467352444e-17 0.9982311637636406 -0.059452028484636356
12660490666.666666 0.9977394606103881 -0.06720095788559487 -6.406793428584829e-17 2.432681749274333e-17 -6.406793428584829e-17 2.432681749274333e-17 0.9977395021067155 -0.06720034178256401
12661108000.0 0.9971876523421535 -0.07494522010238082 -6.386247289529807e-17 2.4824319321761298e-17 -6.386247289529807e-17 2.4824319321761298e-17 0.9971876986182974 -0.0749446043701185
12661725333.333334 0.9965757355074002 -0.08268496476224883 -6.365315263764056e-17 2.5320095939481602e-17 -6.365315263764056e-17 2.5320095939481602e-17 0.9965757865601053 -0.0826843494378323
12662342666.666666 0.9959037469913493 -0.09041972532826602 -6.343998792502665e-17 2.581411744904647e-17 -6.343998792502665e-17 2.581411744904647e-17 0.995903802817073 -0.09041911044874427
12662960000.0 0.9951717273002394 -0.09814903556381857 -6.322299340096658e-17 2.630635407343962e-17 -6.322299340096658e-17 2.630635407343962e-17 0.9951717878951503 -0.0981484211662101
12663577333.333334 0.9943797205588707 -0.10587242956082872 -6.300218393933098e-17 2.679677615729071e-17 -6.300218393933098e-17 2.679677615729071e-17 0.9943797859188517 -0.10587181568211948
12664194666.666666 0.993527774507941 -0.11358944176792381 -6.277757464334965e-17 2.728535416864277e-17 -6.277757464334965e-17 2.728535416864277e-17 0.9935278446285882 -0.11358882844506485
12664812000.0 0.9926159405011838 -0.12129960701832908 -6.254918084458885e-17 2.77720587007292e-17 -6.254918084458885e-17 2.77720587007292e-17 0.9926160153778059 -0.12129899428823426
12665429333.333334 0.9916442735022608 -0.12900246055802017 -6.23170181019148e-17 2.8256860473744303e-17 -6.23170181019148e-17 2.8256860473744303e-17 0.9916443531298818 -0.12900184845756424
12666046666.666666 0.9906128320814571 -0.1366975380736813 -6.20811022004547e-17 2.8739730336578443e-17 -6.20811022004547e-17 2.8739730336578443e-17 0.9906129164548133 -0.13669692663969715
12666664000.0 0.9895216784121282 -0.14438437572083357 -6.184144915052437e-17 2.922063926858899e-17 -6.184144915052437e-17 2.922063926858899e-17 0.9895217675256722 -0.1443837649901106
12667281333.333334 0.988370878267 -0.15206251015148556 -6.159807518656317e-17 2.969955838131841e-17 -6.159807518656317e-17 2.969955838131841e-17 0.9883709721148973 -0.15206190016076704
12667898666.666666 0.9871605010141467 -0.15973147854242822 -6.135099676604352e-17 3.0176458920228234e-17 -6.135099676604352e-17 3.0176458920228234e-17 0.9871605995902799 -0.15973086932840935
12668516000.0 0.9858906196128419 -0.16739081862293645 -6.110023056836293e-17 3.065131226643257e-17 -6.110023056836293e-17 3.065131226643257e-17 0.9858907229108089 -0.1673902102222621
12669133333.333334 0.9845613106091651 -0.17504006870260605 -6.084579349374441e-17 3.1124089938379336e-17 -6.084579349374441e-17 3.1124089938379336e-17 0.9845614186222785 -0.17503946115186822
12669750666.666666 0.9831726541313728 -0.18267876769926727 -6.058770266209316e-17 3.159476359358298e-17 -6.058770266209316e-17 3.159476359358298e-17 0.9831727668526621 -0.18267816103500326
12670368000.0 0.9817247338850722 -0.19030645516674985 -6.032597541186567e-17 3.20633050302978e-17 -6.032597541186567e-17 3.20633050302978e-17 0.9817248513072854 -0.19030584942544027
