! Parameters = {f0=12700.012000; bw=77.238000; Q=6100.000000; N=10; m_0_1=1.165460; m_1_1=-1.282839; m_1_2=1.000272; m_2_2=-1.283488; m_2_3=0.637235; m_2_8=-0.004663; m_2_9=0.032041; m_3_3=-1.285425; m_3_4=0.525764; m_3_7=-0.004063; m_3_8=-0.101151; m_3_9=-0.004663; m_4_4=-1.288350; m_4_5=0.362099; m_4_6=-0.000546; m_4_7=-0.121700; m_4_8=-0.004063; m_5_5=-1.287968; m_5_6=0.769454; m_5_7=-0.000546; m_6_6=-1.287969; m_6_7=0.362441; m_7_7=-1.288336; m_7_8=0.525882; m_8_8=-1.285427; m_8_9=0.637548; m_9_9=-1.283493; m_9_10=1.001350; m_10_10=-1.282849; m_10_11=1.166255}
!
! Created with skrf (http://scikit-rf.org).
# Hz S RI R 50.0 
!freq ReS11 ImS11 ReS21 ImS21 ReS12 ImS12 ReS22 ImS22
12607400000.0 0.46216047393300025 0.8867963105098463 -4.567837878383436e-17 -4.7254593948896076e-17 -4.567837878383436e-17 -4.7254593948896076e-17 0.46215992925324967 0.8867965943735248
12608017333.333334 0.468738746847785 0.8833368480955716 -4.602347637935685e-17 -4.690051692787896e-17 -4.602347637935685e-17 -4.690051692787896e-17 0.46873820431944274 0.8833371359855958
12608634666.666666 0.47529112590352923 0.879828588781478 -4.636583453496165e-17 -4.654392471867185e-17 -4.636583453496165e-17 -4.654392471867185e-17 0.47529058555635306 0.8798288806815505
12609252000.0 0.4818172491366493 0.8762717263693054 -4.6705434957922086e-17 -4.6184838477716866e-17 -4.6705434957922086e-17 -4.6184838477716866e-17 0.48181671100027385 0.8762720222629098
12609869333.333334 0.48831675603397573 0.8726664573457067 -4.7042259518620956e-17 -4.5823279494196636e-17 -4.7042259518620956e-17 -4.5823279494196636e-17 0.4883162201379104 0.8726667572161063
12610486666.666666 0.4947892875526662 0.8690129808713883 -4.73762902515052e-17 -4.545926918878572e-17 -4.73762902515052e-17 -4.545926918878572e-17 0.49478875392629407 0.86901328470163
12611104000.0 0.5012344861400422 0.8653114987701138 -4.770750935605103e-17 -4.5092829112373055e-17 -4.770750935605103e-17 -4.5092829112373055e-17 0.5012339548126173 0.8653118065430252
12611721333.333334 0.5076519957533365 0.8615622155175474 -4.803589919768796e-17 -4.4723980944812125e-17 -4.803589919768796e-17 -4.4723980944812125e-17 0.5076514667539846 0.8615625272157432
12612338666.666666 0.5140414618793445 0.857765338229984 -4.8361442308743186e-17 -4.4352746493631057e-17 -4.8361442308743186e-17 -4.4352746493631057e-17 0.5140409352370583 0.8577656538358609
12612956000.0 0.520402531554121 0.8539210766528219 -4.8684121389363484e-17 -4.3979147692749794e-17 -4.8684121389363484e-17 -4.3979147692749794e-17 0.5204020072977611 0.853921396148564
12613573333.333334 0.5267348533822414 0.850029643149132 -4.900391930841518e-17 -4.360320660120476e-17 -4.900391930841518e-17 -4.360320660120476e-17 0.5267343315405336 0.8500299665167098
12614190666.666666 0.5330380775564543 0.8460912526877759 -4.932081910440369e-17 -4.322494540183334e-17 -4.932081910440369e-17 -4.322494540183334e-17 0.5330375581579885 0.8460915799089486
12614808000.0 0.5393118558768856 0.8421061228316071 -4.9634803986352295e-17 -4.2844386399986786e-17 -4.9634803986352295e-17 -4.2844386399986786e-17 0.5393113389501125 0.8421064538879206
12615425333.333334 0.545555841770293 0.838074473725431 -4.99458573346907e-17 -4.2461552022214364e-17 -4.99458573346907e-17 -4.2461552022214364e-17 0.5455553273435261 0.8380748085982239
12616042666.666666 0.5517696903092184 0.8339965280838532 -5.0253962702126217e-17 -4.207646481494963e-17 -5.0253962702126217e-17 -4.207646481494963e-17 0.5517691784106286 0.833996866754253
12616660000.0 0.5579530582310357 0.8298725111789677 -5.0559103814506e-17 -4.1689147443189e-17 -5.0559103814506e-17 -4.1689147443189e-17 0.5579525488886526 0.8298728536278959
12617277333.333334 0.5641056039569411 0.8257026508279028 -5.086126457167024e-17 -4.12996226891625e-17 -5.086126457167024e-17 -4.12996226891625e-17 0.5641050971986502 0.825702997036073
12617894666.666666 0.5702269876107032 0.8214871773803136 -5.116042904828871e-17 -4.090791345100763e-17 -5.116042904828871e-17 -4.090791345100763e-17 0.5702264834642438 0.8214875273282327
12618512000.0 0.5763168710376951 0.8172263237054788 -5.145658149470479e-17 -4.0514042741413196e-17 -5.145658149470479e-17 -4.0514042741413196e-17 0.5763163695306605 0.817226677373451
12619129333.333334 0.5823749178232503 0.8129203251796664 -5.174970633774116e-17 -4.0118033686294276e-17 -5.174970633774116e-17 -4.0118033686294276e-17 0.5823744189830845 0.8129206825477909
12619746666.666666 0.5884007933114764 0.8085694196729656 -5.203978818152261e-17 -3.971990952342609e-17 -5.203978818152261e-17 -3.971990952342609e-17 0.5884002971654743 0.8085697807211402
12620364000.0 0.594394164623745 0.8041738475361482 -5.232681180827538e-17 -3.931969360108776e-17 -5.232681180827538e-17 -3.931969360108776e-17 0.5943936711990491 0.8041742122440687
12620981333.333334 0.6003547006768466 0.7997338515875548 -5.261076217911243e-17 -3.8917409376706914e-17 -5.261076217911243e-17 -3.8917409376706914e-17 0.6003542100004471 0.7997342199347174
12621598666.666666 0.6062820722016043 0.7952496770994498 -5.289162443481785e-17 -3.8513080415484955e-17 -5.289162443481785e-17 -3.8513080415484955e-17 0.6062815843003366 0.7952500490651512
12622216000.0 0.6121759517608109 0.7907215717846564 -5.316938389661535e-17 -3.810673038902415e-17 -5.316938389661535e-17 -3.810673038902415e-17 0.6121754666613543 0.7907219473479948
12622833333.333334 0.6180360137674513 0.7861497857827677 -5.344402606692849e-17 -3.7698383073946484e-17 -5.344402606692849e-17 -3.7698383073946484e-17 0.618035531496328 0.7861501649226459
12623450666.666666 0.6238619345025787 0.7815345716464196 -5.3715536630125264e-17 -3.728806235051467e-17 -5.3715536630125264e-17 -3.728806235051467e-17 0.6238614550861522 0.7815349543415445
12624068000.0 0.6296533921333095 0.776876184327251 -5.398390145326116e-17 -3.6875792201233946e-17 -5.398390145326116e-17 -3.6875792201233946e-17 0.6296529155977834 0.7768765705561356
12624685333.333334 0.6354100667306213 0.7721748811617999 -5.424910658680756e-17 -3.646159670945478e-17 -5.424910658680756e-17 -3.646159670945478e-17 0.6354095931020367 0.7721752709027632
12625302666.666666 0.6411316402868066 0.7674309218574663 -5.45111382653585e-17 -3.604550005798764e-17 -5.45111382653585e-17 -3.604550005798764e-17 0.6411311695910421 0.7674313150886364
12625920000.0 0.6468177967333704 0.7626445684778987 -5.476998290835167e-17 -3.5627526527673635e-17 -5.476998290835167e-17 -3.5627526527673635e-17 0.6468173289961396 0.7626449651772123
12626537333.333334 0.6524682219581822 0.7578160854287669 -5.5025627120748965e-17 -3.520770049599708e-17 -5.5025627120748965e-17 -3.520770049599708e-17 0.652467757205033 0.7578164855739714
12627154666.666666 0.6580826038229617 0.7529457394430505 -5.527805769373118e-17 -3.478604643565419e-17 -5.527805769373118e-17 -3.478604643565419e-17 0.6580821420792753 0.752946143011706
12627772000.0 0.6636606321806491 0.7480337995661908 -5.552726160537121e-17 -3.436258891313198e-17 -5.552726160537121e-17 -3.436258891313198e-17 0.6636601734716371 0.7480342065356695
12628389333.333334 0.6692019988922382 0.7430805371414895 -5.577322602128801e-17 -3.393735258729918e-17 -5.577322602128801e-17 -3.393735258729918e-17 0.6692015432429416 0.7430809474889776
12629006666.666666 0.6747063978441176 0.738086225794837 -5.601593829531177e-17 -3.351036220795363e-17 -5.601593829531177e-17 -3.351036220795363e-17 0.6747059452794075 0.7380866394973379
12629624000.0 0.6801735249647484 0.7330511414198054 -5.625538597011488e-17 -3.308164261440536e-17 -5.625538597011488e-17 -3.308164261440536e-17 0.6801730755093225 0.7330515584541387
12630241333.333334 0.6856030782415683 0.7279755621623145 -5.649155677784777e-17 -3.2651218734027755e-17 -5.649155677784777e-17 -3.2651218734027755e-17 0.6856026319199492 0.7279759825051171
12630858666.666666 0.6909947577376504 0.7228597684052808 -5.672443864075296e-17 -3.22191155808238e-17 -5.672443864075296e-17 -3.22191155808238e-17 0.6909943145741868 0.7228601920330109
12631476000.0 0.6963482656082782 0.7177040427531357 -5.695401967178315e-17 -3.178535825396026e-17 -5.695401967178315e-17 -3.178535825396026e-17 0.6963478256271403 0.71770446964207
12632093333.333334 0.701663306117412 0.7125086700161861 -5.718028817518626e-17 -3.134997193633843e-17 -5.718028817518626e-17 -3.134997193633843e-17 0.7016628693425934 0.7125091001424263
12632710666.666666 0.7069395856539314 0.7072739371949883 -5.740323264710153e-17 -3.0912981893119906e-17 -5.740323264710153e-17 -3.0912981893119906e-17 0.7069391521092452 0.7072743705344574
12633328000.0 0.712176812748052 0.7020001334642879 -5.762284177613012e-17 -3.047441347027431e-17 -5.762284177613012e-17 -3.047441347027431e-17 0.7121763824571316 0.7020005699927354
12633945333.333334 0.717374698087228 0.6966875501572495 -5.783910444389953e-17 -3.003429209311502e-17 -5.783910444389953e-17 -3.003429209311502e-17 0.7173742710735238 0.6966879898502499
12634562666.666666 0.7225329545322337 0.6913364807492611 -5.805200972562009e-17 -2.95926432648244e-17 -5.805200972562009e-17 -2.95926432648244e-17 0.7225325308190128 0.691336923582217
12635180000.0 0.7276512971330041 0.6859472208417412 -5.826154689062136e-17 -2.914949256499137e-17 -5.826154689062136e-17 -2.914949256499137e-17 0.7276508767433498 0.6859476667898844
12635797333.333334 0.7327294431443984 0.6805200681457908 -5.846770540288745e-17 -2.87048656481275e-17 -5.846770540288745e-17 -2.87048656481275e-17 0.7327290261012075 0.6805205171841827
12636414666.666666 0.7377671120417388 0.6750553224658283 -5.867047492157214e-17 -2.825878824219578e-17 -5.867047492157214e-17 -2.825878824219578e-17 0.7377666983677216 0.675055774569363
12637032000.0 0.7427640255364267 0.6695532856829057 -5.886984530151226e-17 -2.7811286147117585e-17 -5.886984530151226e-17 -2.7811286147117585e-17 0.7427636152541041 0.6695537408263095
12637649333.333334 0.7477199075912334 0.6640142617381116 -5.906580659372099e-17 -2.736238523329268e-17 -5.906580659372099e-17 -2.736238523329268e-17 0.747719500722938 0.6640147198959463
12638266666.666666 0.7526344844355732 0.6584385566157641 -5.925834904587483e-17 -2.691211144010773e-17 -5.925834904587483e-17 -2.691211144010773e-17 0.7526340810034463 0.6584390177624267
12638884000.0 0.7575074845806238 0.6528264783265053 -5.944746310278793e-17 -2.646049077444302e-17 -5.944746310278793e-17 -2.646049077444302e-17 0.7575070846066151 0.6528269424362309
12639501333.333334 0.762338638834326 0.6471783368902881 -5.963313940687486e-17 -2.6007549309175847e-17 -5.963313940687486e-17 -2.6007549309175847e-17 0.7623382423401909 0.6471788039371499
12640118666.666666 0.7671276803162326 0.6414944443192694 -5.981536879860224e-17 -2.5553313181682785e-17 -5.981536879860224e-17 -2.5553313181682785e-17 0.7671272873235336 0.6414949142771815
12640736000.0 0.7718743444723463 0.6357751146004677 -5.999414231693176e-17 -2.5097808592328134e-17 -5.999414231693176e-17 -2.5097808592328134e-17 0.7718739550024496 0.6357755874431857
12641353333.333334 0.7765783690895497 0.6300206636786349 -6.016945119974316e-17 -2.4641061802975706e-17 -6.016945119974316e-17 -2.4641061802975706e-17 0.776577983163625 0.6300211393797576
12641970666.666666 0.7812394943102724 0.624231409438584 -6.034128688425795e-17 -2.4183099135462866e-17 -6.034128688425795e-17 -2.4183099135462866e-17 0.7812391119492922 0.6242318879715556
12642588000.0 0.7858574626467577 0.6184076716877412 -6.050964100744264e-17 -2.3723946970097914e-17 -6.050964100744264e-17 -2.3723946970097914e-17 0.7858570838714938 0.6184081530258506
12643205333.333334 0.7904320189952807 0.6125497721384737 -6.067450540640305e-17 -2.32636317441459e-17 -6.067450540640305e-17 -2.32636317441459e-17 0.7904316438263072 0.6125502562548591
12643822666.666666 0.7949629106503192 0.6066580343902349 -6.083587211877055e-17 -2.280217995030511e-17 -6.083587211877055e-17 -2.280217995030511e-17 0.7949625391080074 0.6066585212578829
12644440000.0 0.7994498873184207 0.6007327839117961 -6.099373338307013e-17 -2.2339618135196367e-17 -6.099373338307013e-17 -2.2339618135196367e-17 0.7994495194229394 0.6007332735035432
12645057333.333334 0.8038927011320457 0.5947743480232448 -6.11480816390818e-17 -2.1875972897839732e-17 -6.11480816390818e-17 -2.1875972897839732e-17 0.8038923369033611 0.5947748403117811
12645674666.666666 0.8082911066632655 0.5887830558779066 -6.129890952818906e-17 -2.1411270888130387e-17 -6.129890952818906e-17 -2.1411270888130387e-17 0.8082907461211394 0.5887835508357748
12646292000.0 0.8126448609374343 0.5827592384439982 -6.144620989371974e-17 -2.0945538805301796e-17 -6.144620989371974e-17 -2.0945538805301796e-17 0.812644504101423 0.5827597360435977
12646909333.333334 0.8169537234463962 0.5767032284866467 -6.15899757812665e-17 -2.047880339641299e-17 -6.15899757812665e-17 -2.047880339641299e-17 0.8169533703358481 0.5767037287002316
12647526666.666666 0.8212174561619334 0.5706153605492718 -6.173020043900315e-17 -2.0011091454810837e-17 -6.173020043900315e-17 -2.0011091454810837e-17 0.8212171067959906 0.5706158633489561
12648144000.0 0.8254358235489032 0.5644959709351319 -6.186687731798863e-17 -1.9542429818592103e-17 -6.186687731798863e-17 -1.9542429818592103e-17 0.8254354779464982 0.5644964762928887
12648761333.333334 0.8296085925781789 0.5583453976888363 -6.200000007245566e-17 -1.9072845369077742e-17 -6.200000007245566e-17 -1.9072845369077742e-17 0.8296082507580359 0.5583459055765012
12649378666.666666 0.8337355327395308 0.5521639805776757 -6.212956256008994e-17 -1.8602365029276464e-17 -6.212956256008994e-17 -1.8602365029276464e-17 0.8337351947201613 0.5521644909669459
12649996000.0 0.8378164160544306 0.5459520610727301 -6.225555884230053e-17 -1.8131015762337667e-17 -6.225555884230053e-17 -1.8131015762337667e-17 0.8378160818541364 0.5459525739351687
12650613333.333334 0.8418510170885886 0.5397099823301037 -6.237798318447439e-17 -1.7658824570016898e-17 -6.237798318447439e-17 -1.7658824570016898e-17 0.8418506867254575 0.5397104976371391
12651230666.666666 0.8458391129644057 0.533438089171967 -6.249683005621898e-17 -1.7185818491141558e-17 -6.249683005621898e-17 -1.7185818491141558e-17 0.8458387864563116 0.5334386068948954
12651848000.0 0.8497804833733441 0.5271367280674123 -6.261209413160005e-17 -1.6712024600050168e-17 -6.261209413160005e-17 -1.6712024600050168e-17 0.849780160737947 0.5271372481773997
12652465333.333334 0.853674910588025 0.520806247113435 -6.272377028935791e-17 -1.6237470005065833e-17 -6.272377028935791e-17 -1.6237470005065833e-17 0.8536745918427683 0.5208067695815178
12653082666.666666 0.8575221794742377 0.5144469960157273 -6.283185361311974e-17 -1.5762181846941735e-17 -6.283185361311974e-17 -1.5762181846941735e-17 0.8575218646363492 0.5144475208128149
12653700000.0 0.8613220775029772 0.5080593260691195 -6.293633939159651e-17 -1.5286187297315946e-17 -6.293633939159651e-17 -1.5286187297315946e-17 0.8613217665894667 0.5080598531659954
12654317333.333334 0.8650743947619746 0.5016435901385127 -6.303722311876974e-17 -1.4809513557163505e-17 -6.303722311876974e-17 -1.4809513557163505e-17 0.8650740877896337 0.5016441195058362
12654934666.666666 0.8687789239674412 0.49520014263914297 -6.313450049406543e-17 -1.433218785524909e-17 -6.313450049406543e-17 -1.433218785524909e-17 0.8687786209528425 0.49520067424745134
12655552000.0 0.872435460475517 0.48872933951700226 -6.322816742251905e-17 -1.3854237446568017e-17 -6.322816742251905e-17 -1.3854237446568017e-17 0.8724351614350119 0.4887298733367108
12656169333.333334 0.8760438022934481 0.48223153822939613 -6.331822001492268e-17 -1.3375689610813257e-17 -6.331822001492268e-17 -1.3375689610813257e-17 0.8760435072431683 0.48223207423080194
12656786666.666666 0.8796037500908882 0.47570709772495273 -6.340465458796873e-17 -1.289657165080582e-17 -6.340465458796873e-17 -1.289657165080582e-17 0.879603459046742 0.47570763587823467
12657404000.0 0.8831151072108369 0.46915637842391505 -6.348746766437555e-17 -1.2416910890951275e-17 -6.348746766437555e-17 -1.2416910890951275e-17 0.8831148201885105 0.4691569186991361
12658021333.333334 0.8865776796805319 0.4625797421981825 -6.356665597300456e-17 -1.193673467568317e-17 -6.356665597300456e-17 -1.193673467568317e-17 0.8865773966954869 0.46258028456529116
12658638666.666666 0.8899912762220976 0.4559775523514451 -6.36422164489628e-17 -1.1456070367918473e-17 -6.36422164489628e-17 -1.1456070367918473e-17 0.8899909972895726 0.4559780967802778
12659256000.0 0.8933557082632445 0.4493501735988633 -6.371414623369921e-17 -1.0974945347485548e-17 -6.371414623369921e-17 -1.0974945347485548e-17 0.8933554333982525 0.4493507200591456
12659873333.333334 0.8966707899475679 0.44269797204714734 -6.378244267508239e-17 -1.0493387009587905e-17 -6.378244267508239e-17 -1.0493387009587905e-17 0.8966705191648949 0.442698520508495
12660490666.666666 0.8999363381448139 0.4360213151743322 -6.384710332747137e-17 -1.0011422763242366e-17 -6.384710332747137e-17 -1.0011422763242366e-17 0.8999360714590199 0.4360218656062538
12661108000.0 0.9031521724611139 0.4293205718092507 -6.390812595177396e-17 -9.529080029716984e-18 -6.390812595177396e-17 -9.529080029716984e-18 0.9031519098865305 0.42932112418114865
12661725333.333334 0.906318115248819 0.4225961121114112 -6.39655085154906e-17 -9.046386240994411e-18 -6.39655085154906e-17 -9.046386240994411e-18 0.9063178567995492 0.42259666639258386
12662342666.666666 0.909433991616379 0.4158483075504235 -6.4019249192751e-17 -8.563368838198847e-18 -6.4019249192751e-17 -8.563368838198847e-18 0.9094337373062968 0.41584886371006674
12662960000.0 0.9124996294379918 0.40907753088550364 -6.406934636433537e-17 -8.080055270050348e-18 -6.406934636433537e-17 -8.080055270050348e-18 0.9124993792807415 0.40907808889271263
12663577333.333334 0.9155148593631085 0.40228415614488067 -6.411579861768581e-17 -7.596472991308437e-18 -6.411579861768581e-17 -7.596472991308437e-18 0.9155146133721042 0.40228471596865195
12664194666.666666 0.9184795148257945 0.3954685586051377 -6.415860474690543e-17 -7.112649461217783e-18 -6.415860474690543e-17 -7.112649461217783e-18 0.9184792730142171 0.3954691202143696
12664812000.0 0.9213934320539231 0.3886311147704774 -6.419776375274584e-17 -6.6286121419542155e-18 -6.419776375274584e-17 -6.6286121419542155e-18 0.9213931944347235 0.38863167813397353
12665429333.333334 0.9242564500782409 0.3817722023519002 -6.423327484258335e-17 -6.144388497069377e-18 -6.423327484258335e-17 -6.144388497069377e-18 0.9242562166641354 0.38177276743836974
12666046666.666666 0.9270684107411998 0.37489220024646785 -6.426513743038233e-17 -5.660005989946852e-18 -6.426513743038233e-17 -5.660005989946852e-18 0.9270681815446722 0.3748927670245282
12666664000.0 0.9298291587058171 0.36799148851608543 -6.429335113664921e-17 -5.175492082231506e-18 -6.429335113664921e-17 -5.175492082231506e-18 0.9298289337391166 0.3679920569542634
12667281333.333334 0.9325385414641033 0.3610704483668732 -6.431791578837214e-17 -4.6908742322960886e-18 -6.431791578837214e-17 -4.6908742322960886e-18 0.9325383207392446 0.36107101843360706
12667898666.666666 0.9351964093455959 0.3541294621278454 -6.433883141895053e-17 -4.206179893683011e-18 -6.433883141895053e-17 -4.206179893683011e-18 0.935196192874358 0.3541300337914866
12668516000.0 0.937802615525623 0.3471689132297886 -6.435609826811319e-17 -3.721436513547017e-18 -6.435609826811319e-17 -3.721436513547017e-18 0.9378024033195489 0.34716948645860346
12669133333.333334 0.9403570160333264 0.34018918618432037 -6.436971678182357e-17 -3.2366715311244438e-18 -6.436971678182357e-17 -3.2366715311244438e-18 0.9403568081037227 0.3401897609464919
12669750666.666666 0.9428594697597138 0.33319066656238183 -6.437968761217476e-17 -2.7519123761669074e-18 -6.437968761217476e-17 -2.7519123761669074e-18 0.9428592661176487 0.33319124282601115
12670368000.0 0.9453098384654023 0.3261737409730708 -6.438601161727191e-17 -2.2671864674017654e-18 -6.438601161727191e-17 -2.2671864674017654e-18 0.9453096391217071 0.32617431870617936
