! Parameters = {f0=12700.012000; bw=77.238000; Q=6100.000000; N=10; m_0_1=1.302197; m_1_1=0.768212; m_1_2=1.137009; m_2_2=0.767563; m_2_3=0.773972; m_2_8=0.002174; m_2_9=0.038878; m_3_3=0.765626; m_3_4=0.662501; m_3_7=0.002774; m_3_8=-0.094314; m_3_9=0.002174; m_4_4=0.762701; m_4_5=0.498836; m_4_6=0.006291; m_4_7=-0.114863; m_4_8=0.002774; m_5_5=0.763083; m_5_6=0.906191; m_5_7=0.006291; m_6_6=0.763082; m_6_7=0.499178; m_7_7=0.762715; m_7_8=0.662619; m_8_8=0.765624; m_8_9=0.774285; m_9_9=0.767558; m_9_10=1.138087; m_10_10=0.768202; m_10_11=1.302992}
!
! Created with skrf (http://scikit-rf.org).
# Hz S RI R 50.0 
!freq ReS11 ImS11 ReS21 ImS21 ReS12 ImS12 ReS22 ImS22
12607400000.0 0.9865705745329542 0.1633355486889835 -1.2744492695454282e-16 1.587669468390071e-17 -1.2744492695454282e-16 1.587669468390071e-17 0.986570462482125 0.16333622549091914
12608017333.333334 0.988379822589903 0.152004362756362 -1.2722790299233737e-16 1.734590857499586e-17 -1.2722790299233737e-16 1.734590857499586e-17 0.9883797183175385 0.15200504076627588
12608634666.666666 0.9900589315122198 0.1406531625406834 -1.2699395174699068e-16 1.881222774387977e-17 -1.2699395174699068e-16 1.881222774387977e-17 0.9900588350312891 0.14065384166918884
12609252000.0 0.9916076802131484 0.1292834426448803 -1.2674311112538569e-16 2.0275457283491385e-17 -1.2674311112538569e-16 2.0275457283491385e-17 0.9916075915355907 0.12928412280245175
12609869333.333334 0.9930258647703551 0.11789670011032573 -1.2647542127727472e-16 2.1735402776108033e-17 -1.2647542127727472e-16 2.1735402776108033e-17 0.993025783907081 0.11789738120731094
12610486666.666666 0.9943132984527602 0.10649443421985991 -1.261909245890384e-16 2.3191870319117652e-17 -1.261909245890384e-16 2.3191870319117652e-17 0.9943132254136521 0.10649511616649196
12611104000.0 0.9954698117451661 0.09507814630007119 -1.2588966567713404e-16 2.4644666550790952e-17 -1.2588966567713404e-16 2.4644666550790952e-17 0.9954697465390752 0.09507882900648
12611721333.333334 0.996495252370532 0.08364933952401261 -1.2557169138127671e-16 2.609359867582439e-17 -1.2557169138127671e-16 2.609359867582439e-17 0.9964951950052765 0.08365002290023683
12612338666.666666 0.9973894853100529 0.07220951871299792 -1.2523705075729111e-16 2.753847449097274e-17 -1.2523705075729111e-16 2.753847449097274e-17 0.9973894357924175 0.07221020266899675
12612956000.0 0.9981523928209323 0.0607601901384624 -1.2488579506969462e-16 2.8979102410467264e-17 -1.2488579506969462e-16 2.8979102410467264e-17 0.9981523511566689 0.060760874584127635
12613573333.333334 0.9987838744518719 0.0493028613238891 -1.2451797778398511e-16 3.041529149136687e-17 -1.2451797778398511e-16 3.041529149136687e-17 0.9987838406456973 0.04930354616905682
12614190666.666666 0.9992838470563142 0.03783904084603056 -1.2413365455862536e-16 3.184685145885919e-17 -1.2413365455862536e-16 3.184685145885919e-17 0.9992838211119112 0.03783972600049314
12614808000.0 0.9996522448033838 0.02637023813641781 -1.237328832367498e-16 3.3273592731413064e-17 -1.237328832367498e-16 3.3273592731413064e-17 0.9996522267233978 0.02637092350993565
12615425333.333334 0.9998890191865528 0.014897963282586267 -1.2331572383757715e-16 3.46953264458496e-17 -1.2331572383757715e-16 3.46953264458496e-17 0.9998890089725953 0.014898648784899816
12616042666.666666 0.9999941390300313 0.0034237268292723368 -1.228822385475369e-16 3.6111864482304034e-17 -1.228822385475369e-16 3.6111864482304034e-17 0.9999941366826778 0.0034244123701138987
12616660000.0 0.9999675904928724 -0.008050960420592477 -1.2243249171111054e-16 3.752301948907498e-17 -1.2243249171111054e-16 3.752301948907498e-17 0.9999675960116615 -0.00805027493148684
12617277333.333334 0.9998093770707903 -0.01952458760469402 -1.2196654982138044e-16 3.892860490738555e-17 -1.2196654982138044e-16 3.892860490738555e-17 0.999809390454226 -0.0195239022575726
12617894666.666666 0.9995195195957075 -0.030995644000098965 -1.2148448151031883e-16 4.032843499595253e-17 -1.2148448151031883e-16 4.032843499595253e-17 0.9995195408412586 -0.03099495888518254
12618512000.0 0.9990980562330003 -0.042462619222738696 -1.2098635753874992e-16 4.1722324855578615e-17 -1.2098635753874992e-16 4.1722324855578615e-17 0.9990980853370998 -0.04246193443020862
12619129333.333334 0.9985450424764876 -0.05392400342559836 -1.2047225078608796e-16 4.3110090453449933e-17 -1.2047225078608796e-16 4.3110090453449933e-17 0.9985450794345355 -0.05392331904558478
12619746666.666666 0.9978605511411158 -0.06537828749794351 -1.1994223623974974e-16 4.449154864744593e-17 -1.1994223623974974e-16 4.449154864744593e-17 0.9978605959474768 -0.06537760362051334
12620364000.0 0.9970446723533644 -0.0768239632639945 -1.1939639098430754e-16 4.586651721026554e-17 -1.1939639098430754e-16 4.586651721026554e-17 0.9970447250013718 -0.07682327997913975
12620981333.333334 0.9960975135393988 -0.08825952368125171 -1.1883479419037837e-16 4.723481485339502e-17 -1.1883479419037837e-16 4.723481485339502e-17 0.9960975740213545 -0.08825884107887762
12621598666.666666 0.9950191994109089 -0.09968346303921033 -1.1825752710321218e-16 4.859626125100484e-17 -1.1825752710321218e-16 4.859626125100484e-17 0.9950192677180821 -0.09968278120912329
12622216000.0 0.9938098719486907 -0.11109427715747355 -1.17664673031028e-16 4.9950677063658167e-17 -1.17664673031028e-16 4.9950677063658167e-17 0.9938099480713241 -0.11109359618936977
12622833333.333334 0.9924696903839556 -0.12249046358386413 -1.1705631733306966e-16 5.1297883961901846e-17 -1.1705631733306966e-16 5.1297883961901846e-17 0.9924697743112616 -0.12248978356731739
12623450666.666666 0.9909988311773714 -0.13387052179213754 -1.1643254740740016e-16 5.263770464969289e-17 -1.1643254740740016e-16 5.263770464969289e-17 0.990998922897536 -0.13386984281658748
12624068000.0 0.989397487995814 -0.14523295337969622 -1.1579345267841726e-16 5.3969962887704796e-17 -1.1579345267841726e-16 5.3969962887704796e-17 0.9893975874959995 -0.14523227553443688
12624685333.333334 0.98766587168686 -0.15657626226491098 -1.1513912458410027e-16 5.5294483516485975e-17 -1.1513912458410027e-16 5.5294483516485975e-17 0.9876659789532053 -0.15657558563907878
12625302666.666666 0.9858042102510732 -0.1678989548837995 -1.1446965656302674e-16 5.661109247939655e-17 -1.1446965656302674e-16 5.661109247939655e-17 0.9858043252686972 -0.1678982795663618
12625920000.0 0.9838127488118943 -0.17919954038724434 -1.1378514404107033e-16 5.791961684550286e-17 -1.1378514404107033e-16 5.791961684550286e-17 0.9838128715648937 -0.1791988664669871
12626537333.333334 0.9816917495834739 -0.1904765308366182 -1.130856844178944e-16 5.921988483220216e-17 -1.130856844178944e-16 5.921988483220216e-17 0.9816918800549309 -0.19047585840213502
12627154666.666666 0.9794414918360831 -0.201728441400121 -1.1237137705315187e-16 6.051172582775328e-17 -1.1237137705315187e-16 6.051172582775328e-17 0.9794416300080654 -0.20172777053980126
12627772000.0 0.9770622718593021 -0.21295379054845254 -1.1164232325242793e-16 6.179497041364086e-17 -1.1164232325242793e-16 6.179497041364086e-17 0.977062417712864 -0.21295312135046948
12628389333.333334 0.9745544029231419 -0.22415110024921542 -1.1089862625296373e-16 6.306945038670887e-17 -1.1089862625296373e-16 6.306945038670887e-17 0.9745545564383291 -0.22415043280151503
12629006666.666666 0.9719182152366296 -0.23531889616233337 -1.101403912090755e-16 6.433499878121397e-17 -1.101403912090755e-16 6.433499878121397e-17 0.9719183763924817 -0.2353182305526227
12629624000.0 0.9691540559044632 -0.24645570783356552 -1.0936772517737275e-16 6.559144989062067e-17 -1.0936772517737275e-16 6.559144989062067e-17 0.9691542246790145 -0.24645504414930067
12630241333.333334 0.9662622888812361 -0.25756006888842387 -1.0858073710168458e-16 6.683863928929085e-17 -1.0858073710168458e-16 6.683863928929085e-17 0.9662624652515209 -0.2575594072167992
12630858666.666666 0.9632432949235692 -0.26863051722505793 -1.0777953779779329e-16 6.807640385390744e-17 -1.0777953779779329e-16 6.807640385390744e-17 0.9632434788656226 -0.26862985765299396
12631476000.0 0.9600974715398908 -0.2796655952070691 -1.069642399378432e-16 6.930458178484466e-17 -1.069642399378432e-16 6.930458178484466e-17 0.960097663028756 -0.2796649378212021
12632093333.333334 0.9568252329381989 -0.2906638498550813 -1.0613495803459986e-16 7.052301262720593e-17 -1.0613495803459986e-16 7.052301262720593e-17 0.9568254319479255 -0.2906631947417506
12632710666.666666 0.9534270099714758 -0.30162383303821727 -1.0529180842541416e-16 7.173153729176301e-17 -1.0529180842541416e-16 7.173153729176301e-17 0.9534272164751277 -0.30162318028345503
12633328000.0 0.9499032500809179 -0.31254410166490904 -1.0443490925593098e-16 7.292999807572734e-17 -1.0443490925593098e-16 7.292999807572734e-17 0.9499034640505727 -0.3125434513544279
12633945333.333334 0.9462544172370917 -0.323423217872663 -1.0356438046362995e-16 7.411823868322944e-17 -1.0356438046362995e-16 7.411823868322944e-17 0.9462546386438485 -0.3234225700918459
12634562666.666666 0.9424809918788054 -0.33425974921751844 -1.0268034376107424e-16 7.529610424568914e-17 -1.0268034376107424e-16 7.529610424568914e-17 0.942481220692787 -0.3342591040514069
12635180000.0 0.9385834708498584 -0.3450522688626297 -1.017829226189533e-16 7.646344134195112e-17 -1.017829226189533e-16 7.646344134195112e-17 0.9385837070402143 -0.34505162639591247
12635797333.333334 0.9345623673336091 -0.3557993557661616 -1.0087224224889069e-16 7.762009801822808e-17 -1.0087224224889069e-16 7.762009801822808e-17 0.9345626108685214 -0.3557987160831639
12636414666.666666 0.9304182107854473 -0.36649959486829176 -9.994842958603712e-17 7.87659238078257e-17 -9.994842958603712e-17 7.87659238078257e-17 0.9304184616321339 -0.36649895805296406
12637032000.0 0.9261515468630206 -0.3771515772776896 -9.901161327141793e-17 7.990076975068962e-17 -9.901161327141793e-17 7.990076975068962e-17 0.9261518049877403 -0.37715094341359656
12637649333.333334 0.9217629373544389 -0.38775390045689095 -9.806192363408362e-17 8.102448841271209e-17 -9.806192363408362e-17 8.102448841271209e-17 0.9217632027224949 -0.38775326962720047
12638266666.666666 0.9172529601042493 -0.3983051684071003 -9.709949267301985e-17 8.213693390485576e-17 -9.709949267301985e-17 8.213693390485576e-17 0.9172532326799948 -0.39830454069457266
12638884000.0 0.9126222089374187 -0.40880399185184396 -9.612445403886591e-17 8.323796190203225e-17 -9.612445403886591e-17 8.323796190203225e-17 0.9126224886842622 -0.4088033673388213
12639501333.333334 0.9078712935810895 -0.41924898842002506 -9.513694301539411e-17 8.4327429661795e-17 -9.513694301539411e-17 8.4327429661795e-17 0.9078715804614987 -0.41924836718842
12640118666.666666 0.9030008395843808 -0.4296387828277591 -9.413709650080763e-17 8.540519604278109e-17 -9.413709650080763e-17 8.540519604278109e-17 0.9030011335598869 -0.429638164959044
12640736000.0 0.8980114882358284 -0.43997200705986733 -9.312505298877273e-17 8.647112152299281e-17 -9.312505298877273e-17 8.647112152299281e-17 0.8980117892670326 -0.43997139263506385
12641353333.333334 0.8929038964792382 -0.4502473005493852 -9.210095254934405e-17 8.75250682177498e-17 -9.210095254934405e-17 8.75250682177498e-17 0.8929042045258179 -0.45024668964905445
12641970666.666666 0.8876787368269338 -0.46046331035724797 -9.10649368095755e-17 8.856689989753416e-17 -9.10649368095755e-17 8.856689989753416e-17 0.8876790518476443 -0.46046270306147785
12642588000.0 0.8823366972713235 -0.47061869135017115 -9.001714893400737e-17 8.959648200552576e-17 -9.001714893400737e-17 8.959648200552576e-17 0.8823370192240084 -0.4706180877385685
12643205333.333334 0.8768784811943101 -0.4807121063777933 -8.895773360493122e-17 9.061368167493398e-17 -8.895773360493122e-17 9.061368167493398e-17 0.876878810035903 -0.4807115065294713
12643822666.666666 0.8713048072746165 -0.49074222644883464 -8.788683700243816e-17 9.1618367746116e-17 -8.788683700243816e-17 9.1618367746116e-17 0.871305142961148 -0.4907416304424032
12644440000.0 0.8656164093932267 -0.5007077309059592 -8.680460678432453e-17 9.261041078341329e-17 -8.680460678432453e-17 9.261041078341329e-17 0.8656167518798316 -0.5007071388195151
12645057333.333334 0.8598140365367448 -0.5106073075996909 -8.571119206576365e-17 9.358968309179325e-17 -8.571119206576365e-17 9.358968309179325e-17 0.8598143857776669 -0.5106067195108076
12645674666.666666 0.853898452698779 -0.5204396530611849 -8.460674339882278e-17 9.455605873322298e-17 -8.460674339882278e-17 9.455605873322298e-17 0.8538988086473769 -0.5204390690469016
12646292000.0 0.8478704367792417 -0.5302034726740229 -8.349141275173326e-17 9.550941354285589e-17 -8.349141275173326e-17 9.550941354285589e-17 0.8478707993879953 -0.5302028928108345
12646909333.333334 0.8417307824819837 -0.5398974808443576 -8.236535348808852e-17 9.644962514488058e-17 -8.236535348808852e-17 9.644962514488058e-17 0.8417311517025005 -0.5398969052082052
12647526666.666666 0.8354802982101566 -0.5495204011704058 -8.122872034575998e-17 9.737657296821404e-17 -8.122872034575998e-17 9.737657296821404e-17 0.835480673993179 -0.5495198298366669
12648144000.0 0.8291198069597213 -0.559070966610581 -8.008166941568399e-17 9.829013826190742e-17 -8.008166941568399e-17 9.829013826190742e-17 0.8291201892551321 -0.5590703996540588
12648761333.333334 0.8226501462112411 -0.5685479196500846 -7.892435812048233e-17 9.919020411029865e-17 -7.892435812048233e-17 9.919020411029865e-17 0.8226505349680706 -0.5685473571449988
12649378666.666666 0.8160721678195483 -0.5779500124665781 -7.775694519290139e-17 1.0007665544792252e-16 -7.775694519290139e-17 1.0007665544792252e-16 0.8160725629859811 -0.5779494544865555
12649996000.0 0.8093867379015208 -0.587276007094579 -7.657959065407093e-17 1.009493790741791e-16 -7.657959065407093e-17 1.009493790741791e-16 0.8093871394249019 -0.5872754537126424
12650613333.333334 0.8025947367220811 -0.5965246755883854 -7.539245579162132e-17 1.0180826366772883e-16 -7.539245579162132e-17 1.0180826366772883e-16 0.802595144548926 -0.596524126876947
12651230666.666666 0.7956970585783714 -0.605694800183676 -7.419570313764704e-17 1.0265319980062834e-16 -7.419570313764704e-17 1.0265319980062834e-16 0.7956974726543686 -0.6056942562145246
12651848000.0 0.7886946116818232 -0.614785173458074 -7.298949644645577e-17 1.0348407995224568e-16 -7.298949644645577e-17 1.0348407995224568e-16 0.7886950319518442 -0.6147846343023667
12652465333.333334 0.7815883180387302 -0.6237945984899229 -7.17740006722487e-17 1.0430079852285623e-16 -7.17740006722487e-17 1.0430079852285623e-16 0.7815887444468373 -0.6237940642181774
12653082666.666666 0.774379113328853 -0.6327218890158895 -7.054938194659325e-17 1.0510325184701582e-16 -7.054938194659325e-17 1.0510325184701582e-16 0.774379545818305 -0.6327213596979725
12653700000.0 0.7670679467820372 -0.6415658695873759 -6.931580755573158e-17 1.0589133820667888e-16 -6.931580755573158e-17 1.0589133820667888e-16 0.7670683852952981 -0.6415653452924958
12654317333.333334 0.7596557810534821 -0.6503253757249825 -6.807344591781356e-17 1.0666495784400717e-16 -6.807344591781356e-17 1.0666495784400717e-16 0.7596562255322288 -0.6503248565216794
12654934666.666666 0.7521435920968085 -0.6589992540720545 -6.682246655991397e-17 1.0742401297395714e-16 -6.682246655991397e-17 1.0742401297395714e-16 0.7521440424819377 -0.6589987400281916
12655552000.0 0.7445323690355536 -0.6675863625465409 -6.556304009494149e-17 1.0816840779658003e-16 -6.556304009494149e-17 1.0816840779658003e-16 0.7445328252671898 -0.667585853729295
12656169333.333334 0.7368231140330999 -0.6760855704911775 -6.429533819843869e-17 1.0889804850903477e-16 -6.429533819843869e-17 1.0889804850903477e-16 0.7368235760506043 -0.6760850669670313
12656786666.666666 0.7290168421605376 -0.6844957588225761 -6.301953358519113e-17 1.0961284331736504e-16 -6.301953358519113e-17 1.0961284331736504e-16 0.7290173099025152 -0.684495260657308
12657404000.0 0.7211145812631214 -0.6928158201784428 -6.173579998575571e-17 1.1031270244797351e-16 -6.173579998575571e-17 1.1031270244797351e-16 0.7211150546674302 -0.6928153274371209
12658021333.333334 0.7131173718248014 -0.7010446590635321 -6.044431212282209e-17 1.1099753815884472e-16 -6.044431212282209e-17 1.1099753815884472e-16 0.7131178508285589 -0.7010441718105025
12658638666.666666 0.7050262668315357 -0.7091811919935581 -5.91452456875231e-17 1.1166726475045292e-16 -5.91452456875231e-17 1.1166726475045292e-16 0.7050267513711292 -0.7091807102924389
12659256000.0 0.6968423316321719 -0.717224347638348 -5.78387773154985e-17 1.1232179857645989e-16 -5.78387773154985e-17 1.1232179857645989e-16 0.6968428216432654 -0.7172238715520195
12659873333.333334 0.6885666437985687 -0.7251730669624951 -5.652508456298135e-17 1.129610580540609e-16 -5.652508456298135e-17 1.129610580540609e-16 0.6885671392161126 -0.7251725965530926
12660490666.666666 0.6802002929836172 -0.7330263033649054 -5.520434588269151e-17 1.135849636740926e-16 -5.520434588269151e-17 1.135849636740926e-16 0.6802007937418562 -0.7330258386938109
12661108000.0 0.6717443807775796 -0.7407830228167777 -5.387674059960519e-17 1.141934380108652e-16 -5.387674059960519e-17 1.141934380108652e-16 0.6717448868100624 -0.7407825639446118
12661725333.333334 0.6632000205633358 -0.7484422039974815 -5.254244888669196e-17 1.1478640573167677e-16 -5.254244888669196e-17 1.1478640573167677e-16 0.6632005318029216 -0.7484417509840948
12662342666.666666 0.654568337369553 -0.756002838429245 -5.120165174046705e-17 1.1536379360608297e-16 -5.120165174046705e-17 1.1536379360608297e-16 0.6545688537484239 -0.7560023913337118
12662960000.0 0.6458504677226622 -0.763463930609846 -4.985453095649452e-17 1.1592553051485708e-16 -4.985453095649452e-17 1.1592553051485708e-16 0.6458509891723285 -0.7634634894904545
12663577333.333334 0.6370475594971874 -0.7708244981437041 -4.8501269104774284e-17 1.1647154745867406e-16 -4.8501269104774284e-17 1.1647154745867406e-16 0.6370480859484998 -0.7708240630579515
12664194666.666666 0.6281607717646113 -0.7780835718712384 -4.714204950504159e-17 1.1700177756650517e-16 -4.714204950504159e-17 1.1700177756650517e-16 0.628161303147768 -0.7780831428758204
12664812000.0 0.6191912746407562 -0.7852401959964689 -4.577705620195917e-17 1.17516156103731e-16 -4.577705620195917e-17 1.17516156103731e-16 0.6191918108853127 -0.7852397731472744
12665429333.333334 0.6101402491316953 -0.7922934282128857 -4.440647394025224e-17 1.1801462047995404e-16 -4.440647394025224e-17 1.1801462047995404e-16 0.610140790166576 -0.7922930115649908
12666046666.666666 0.6010088869783666 -0.799242339827439 -4.303048813974665e-17 1.1849711025652798e-16 -4.303048813974665e-17 1.1849711025652798e-16 0.601009432731869 -0.7992419294350946
12666664000.0 0.5917983904994035 -0.8060860158830018 -4.1649284870289e-17 1.1896356715380868e-16 -4.1649284870289e-17 1.1896356715380868e-16 0.5917989408992124 -0.806085611799632
12667281333.333334 0.5825099724331454 -0.8128235552786053 -4.0263050826670965e-17 1.1941393505808541e-16 -4.0263050826670965e-17 1.1941393505808541e-16 0.5825105274063409 -0.8128231575567976
12667898666.666666 0.5731448557777565 -0.8194540708882412 -3.8871973303398607e-17 1.1984816002824852e-16 -3.8871973303398607e-17 1.1984816002824852e-16 0.5731454152508235 -0.819453679579741
12668516000.0 0.5637042736300968 -0.8259766896777305 -3.74762401694252e-17 1.2026619030215182e-16 -3.74762401694252e-17 1.2026619030215182e-16 0.5637048375289352 -0.8259763048334336
12669133333.333334 0.5541894690237097 -0.8323905528194284 -3.60760398428478e-17 1.20667976302672e-16 -3.60760398428478e-17 1.20667976302672e-16 0.5541900372736444 -0.8323901744893754
12669750666.666666 0.5446016947648322 -0.8386948158055405 -3.467156126547572e-17 1.2105347064349436e-16 -3.467156126547572e-17 1.2105347064349436e-16 0.5446022672906206 -0.8386944440389069
12670368000.0 0.5349422132675465 -0.8448886485592255 -3.326299387738633e-17 1.2142262813458777e-16 -3.326299387738633e-17 1.2142262813458777e-16 0.5349427899933932 -0.8448882834043214
