! Parameters = {f0=12700.012000; bw=77.238000; Q=6100.000000; N=10; m_0_1=1.245140; m_1_1=-0.087644; m_1_2=1.079952; m_2_2=-0.088293; m_2_3=0.716915; m_2_8=-0.000679; m_2_9=0.036025; m_3_3=-0.090230; m_3_4=0.605444; m_3_7=-0.000079; m_3_8=-0.097167; m_3_9=-0.000679; m_4_4=-0.093155; m_4_5=0.441779; m_4_6=0.003438; m_4_7=-0.117716; m_4_8=-0.000079; m_5_5=-0.092773; m_5_6=0.849134; m_5_7=0.003438; m_6_6=-0.092774; m_6_7=0.442121; m_7_7=-0.093141; m_7_8=0.605562; m_8_8=-0.090232; m_8_9=0.717228; m_9_9=-0.088298; m_9_10=1.081030; m_10_10=-0.087654; m_10_11=1.245935}
!
! Created with skrf (http://scikit-rf.org).
# Hz S RI R 50.0 
!freq ReS11 ImS11 ReS21 ImS21 ReS12 ImS12 ReS22 ImS22
12607400000.0 -0.9970506345428366 -0.07674654492259775 9.604235958906495e-17 -2.05899133019493e-17 9.604235958906495e-17 -2.05899133019493e-17 -0.9970505841924016 -0.07674719904609499
12608017333.333334 -0.9977540585422581 -0.06698386867212316 9.581554937974822e-17 -2.15332583831968e-17 9.581554937974822e-17 -2.15332583831968e-17 -0.9977540145988599 -0.0669845232250584
12608634666.666666 -0.9983618930602823 -0.05721477505784774 9.557948039508685e-17 -2.2474133266305862e-17 9.557948039508685e-17 -2.2474133266305862e-17 -0.998361855527505 -0.05721542997747287
12609252000.0 -0.9988740798636107 -0.047440200004369715 9.533417928731947e-17 -2.3412447146620172e-17 9.533417928731947e-17 -2.3412447146620172e-17 -0.9988740487444226 -0.04744085522790757
12609869333.333334 -0.9992905698824389 -0.0376610799614334 9.507967359856186e-17 -2.4348109504799443e-17 9.507967359856186e-17 -2.4348109504799443e-17 -0.9992905451791917 -0.03766173542608375
12610486666.666666 -0.9996113232151518 -0.02787835181432651 9.48159917577764e-17 -2.528103011551987e-17 9.48159917577764e-17 -2.528103011551987e-17 -0.9996113049295852 -0.027879007457272318
12611104000.0 -0.9998363091321665 -0.018092952793810124 9.454316307764509e-17 -2.6211119056185656e-17 9.454316307764509e-17 -2.6211119056185656e-17 -0.9998362972654019 -0.018093608552223313
12611721333.333334 -0.9999655060788522 -0.00830582038672493 9.426121775137586e-17 -2.713828671554037e-17 9.426121775137586e-17 -2.713828671554037e-17 -0.9999655006313997 -0.008306476197772602
12612338666.666666 -0.9999989016776147 0.0014821077541081668 9.397018684940634e-17 -2.8062443802309056e-17 9.397018684940634e-17 -2.8062443802309056e-17 -0.999998902649368 0.0014814519532578437
12612956000.0 -0.9999364927290731 0.011269893899719769 9.367010231603094e-17 -2.8983501353778864e-17 9.367010231603094e-17 -2.8983501353778864e-17 -0.9999365001193103 0.011269238171891498
12613573333.333334 -0.9997782852123664 0.021056600334574918 9.336099696595106e-17 -2.990137074432026e-17 9.336099696595106e-17 -2.990137074432026e-17 -0.9997782990197515 0.02105594474258026
12614190666.666666 -0.9995242942845841 0.030841289446694863 9.304290448072635e-17 -3.0815963693925573e-17 9.304290448072635e-17 -3.0815963693925573e-17 -0.9995243145071653 0.030840634053326196
12614808000.0 -0.9991745442793096 0.04062302381734247 9.271585940515839e-17 -3.1727192276656973e-17 9.271585940515839e-17 -3.1727192276656973e-17 -0.9991745709145226 0.04062236868536703
12615425333.333334 -0.9987290687042937 0.050400866310859806 9.237989714357906e-17 -3.2634968929099435e-17 9.237989714357906e-17 -3.2634968929099435e-17 -0.9987291017489587 0.050400211503013624
12616042666.666666 -0.9981879102382385 0.06017388016447836 9.203505395606514e-17 -3.3539206458745556e-17 9.203505395606514e-17 -3.3539206458745556e-17 -0.9981879496885627 0.060173225743460276
12616660000.0 -0.9975511207267181 0.06994112907795187 9.168136695456734e-17 -3.443981805235449e-17 9.168136695456734e-17 -3.443981805235449e-17 -0.9975511665782958 0.06994047510641759
12617277333.333334 -0.996818761177199 0.07970167730345686 9.131887409895733e-17 -3.533671728427039e-17 9.131887409895733e-17 -3.533671728427039e-17 -0.9968188134250109 0.0797010238440128
12617894666.666666 -0.9959909017532114 0.08945458973498631 9.094761419299989e-17 -3.6229818124684364e-17 9.094761419299989e-17 -3.6229818124684364e-17 -0.995990960391626 0.08945393685018375
12618512000.0 -0.9950676217676022 0.0991989319982773 9.056762688022779e-17 -3.711903494789589e-17 9.056762688022779e-17 -3.711903494789589e-17 -0.9950676867903763 0.09919827975060631
12619129333.333334 -0.9940490096749679 0.10893377053993178 9.017895263976235e-17 -3.800428254046717e-17 9.017895263976235e-17 -3.800428254046717e-17 -0.9940490810752479 0.10893311899181539
12619746666.666666 -0.992935163063158 0.11865817271713866 8.978163278202962e-17 -3.8885476109396005e-17 8.978163278202962e-17 -3.8885476109396005e-17 -0.9929352408334806 0.11865752193092674
12620364000.0 -0.9917261886439219 0.128371206887025 8.937570944440645e-17 -3.9762531290218364e-17 8.937570944440645e-17 -3.9762531290218364e-17 -0.9917262727762123 0.1283705569249882
12620981333.333334 -0.9904222022427135 0.13807194249565738 8.896122558679893e-17 -4.063536415504356e-17 8.896122558679893e-17 -4.063536415504356e-17 -0.9904222927282907 0.13807129341998153
12621598666.666666 -0.9890233287875652 0.1477594501674761 8.853822498712064e-17 -4.1503891220591905e-17 8.853822498712064e-17 -4.1503891220591905e-17 -0.989023425617138 0.14775880204025585
12622216000.0 -0.9875297022971313 0.1574328017941921 8.810675223670985e-17 -4.2368029456147634e-17 8.810675223670985e-17 -4.2368029456147634e-17 -0.987529805460804 0.15743215467742533
12622833333.333334 -0.9859414658678458 0.1670910706237607 8.766685273566087e-17 -4.322769629148239e-17 8.766685273566087e-17 -4.322769629148239e-17 -0.9859415753551146 0.16709042457934217
12623450666.666666 -0.9842587716602247 0.17673333134905597 8.721857268808668e-17 -4.408280962471604e-17 8.721857268808668e-17 -4.408280962471604e-17 -0.9842588874599836 0.17673268643877202
12624068000.0 -0.9824817808842744 0.18635866019666075 8.676195909729273e-17 -4.4933287830150655e-17 8.676195909729273e-17 -4.4933287830150655e-17 -0.9824819029848114 0.18635801648218275
12624685333.333334 -0.9806106637840256 0.19596613501542287 8.629705976088008e-17 -4.577904976604516e-17 8.629705976088008e-17 -4.577904976604516e-17 -0.9806107921730276 0.1959654925583017
12625302666.666666 -0.9786455996213039 0.20555483536441138 8.582392326578771e-17 -4.6620014782313146e-17 8.582392326578771e-17 -4.6620014782313146e-17 -0.9786457342858552 0.20555419422607132
12625920000.0 -0.9765867766584378 0.21512384260168455 8.534259898322618e-17 -4.7456102728230314e-17 8.534259898322618e-17 -4.7456102728230314e-17 -0.9765869175850248 0.2151232028434177
12626537333.333334 -0.9744343921403259 0.2246722399717985 8.485313706357634e-17 -4.828723396002012e-17 8.485313706357634e-17 -4.828723396002012e-17 -0.9744345393148355 0.22467160165475888
12627154666.666666 -0.9721886522754997 0.23419911269383226 8.435558843118698e-17 -4.9113329348435525e-17 8.435558843118698e-17 -4.9113329348435525e-17 -0.9721888056832219 0.23419847587902967
12627772000.0 -0.9698497722163288 0.24370354804919328 8.385000477909642e-17 -4.993431028628929e-17 8.385000477909642e-17 -4.993431028628929e-17 -0.9698499318419581 0.24370291279748782
12628389333.333334 -0.9674179760384991 0.25318463546867337 8.33364385637177e-17 -5.0750098695871366e-17 8.33364385637177e-17 -5.0750098695871366e-17 -0.9674181418661343 0.253184001840769
12629006666.666666 -0.9648934967194428 0.2626414666200988 8.281494299939544e-17 -5.1560617036404405e-17 8.281494299939544e-17 -5.1560617036404405e-17 -0.964893668732592 0.2626408346765385
12629624000.0 -0.9622765761160991 0.27207313549505086 8.228557205294246e-17 -5.2365788311358425e-17 8.228557205294246e-17 -5.2365788311358425e-17 -0.9622767542976783 0.2720725052962101
12630241333.333334 -0.9595674649416931 0.2814787384958292 8.174838043807371e-17 -5.3165536075761795e-17 8.174838043807371e-17 -5.3165536075761795e-17 -0.9595676492740296 0.2814781101019104
12630858666.666666 -0.9567664227417699 0.29085737452185806 8.120342360978858e-17 -5.395978444342519e-17 8.120342360978858e-17 -5.395978444342519e-17 -0.9567666132066032 0.2908567479928848
12631476000.0 -0.953873717869235 0.30020814505631443 8.065075775865721e-17 -5.474845809414727e-17 8.065075775865721e-17 -5.474845809414727e-17 -0.9538739144477202 0.30020752045212623
12632093333.333334 -0.9508896274587479 0.3095301542518848 8.009043980507452e-17 -5.553148228080746e-17 8.009043980507452e-17 -5.553148228080746e-17 -0.9508898301314537 0.30952953163213015
12632710666.666666 -0.9478144374001499 0.31882250901664494 7.952252739341562e-17 -5.630878283644348e-17 7.952252739341562e-17 -5.630878283644348e-17 -0.9478146461470661 0.31882188844077725
12633328000.0 -0.9446484423109857 0.3280843190999213 7.894707888612474e-17 -5.708028618126743e-17 7.894707888612474e-17 -5.708028618126743e-17 -0.9446486571115202 0.3280837006271919
12633945333.333334 -0.9413919455083868 0.3373146971772287 7.836415335775789e-17 -5.784591932958952e-17 7.836415335775789e-17 -5.784591932958952e-17 -0.9413921663413696 0.3373140808666814
12634562666.666666 -0.9380452589799594 0.3465127589354419 7.777381058893733e-17 -5.860560989671384e-17 7.777381058893733e-17 -5.860560989671384e-17 -0.9380454858236458 0.34651214484590837
12635180000.0 -0.9346087033539053 0.355677623157491 7.717611106024818e-17 -5.935928610575846e-17 7.717611106024818e-17 -5.935928610575846e-17 -0.9346089361859762 0.35567701134758367
12635797333.333334 -0.9310826078682934 0.36480841180681195 7.657111594606617e-17 -6.010687679441833e-17 7.657111594606617e-17 -6.010687679441833e-17 -0.931082846665858 0.3648078023349194
12636414666.666666 -0.9274673103395574 0.37390425011136014 7.595888710832908e-17 -6.084831142165502e-17 7.595888710832908e-17 -6.084831142165502e-17 -0.9274675550791559 0.37390364303564133
12637032000.0 -0.9237631571300706 0.3829642666475779 7.53394870902257e-17 -6.158352007434447e-17 7.53394870902257e-17 -6.158352007434447e-17 -0.923763407787676 0.38296366202595633
12637649333.333334 -0.9199705031150022 0.391987593423773 7.471297910983881e-17 -6.231243347383973e-17 7.471297910983881e-17 -6.231243347383973e-17 -0.9199707596660248 0.39198699131393233
12638266666.666666 -0.9160897116483127 0.40097336596330546 7.407942705371586e-17 -6.303498298247993e-17 7.407942705371586e-17 -6.303498298247993e-17 -0.9160899740675983 0.4009727664226819
12638884000.0 -0.9121211545279367 0.40992072338740554 7.343889547037851e-17 -6.375110061003178e-17 7.343889547037851e-17 -6.375110061003178e-17 -0.9121214227897727 0.4099201264731844
12639501333.333334 -0.9080652119601461 0.41882880849770426 7.279144956376885e-17 -6.446071902006814e-17 7.279144956376885e-17 -6.446071902006814e-17 -0.9080654860382614 0.4188282142668129
12640118666.666666 -0.9039222725232474 0.4276967678580702 7.213715518664688e-17 -6.516377153626535e-17 7.213715518664688e-17 -6.516377153626535e-17 -0.9039225523908175 0.42769617636717394
12640736000.0 -0.8996927331300375 0.43652375187707104 7.147607883388644e-17 -6.58601921486791e-17 7.147607883388644e-17 -6.58601921486791e-17 -0.899693018759686 0.43652316318256723
12641353333.333334 -0.8953769989902337 0.4453089148883896 7.080828763578426e-17 -6.654991551987332e-17 7.080828763578426e-17 -6.654991551987332e-17 -0.8953772903540343 0.44530832904640194
12641970666.666666 -0.8909754835712631 0.45405141523266446 7.013384935123432e-17 -6.723287699106245e-17 7.013384935123432e-17 -6.723287699106245e-17 -0.8909757806407435 0.4540508322990382
12642588000.0 -0.8864886085588352 0.4627504153377404 6.94528323608834e-17 -6.790901258814251e-17 6.94528323608834e-17 -6.790901258814251e-17 -0.8864889113049788 0.4627498353680364
12643205333.333334 -0.8819168038165184 0.47140508179896357 6.87653056602267e-17 -6.857825902765503e-17 6.87653056602267e-17 -6.857825902765503e-17 -0.8819171122097674 0.47140450484845353
12643822666.666666 -0.8772605073445029 0.4800145854591254 6.807133885263082e-17 -6.924055372269759e-17 6.807133885263082e-17 -6.924055372269759e-17 -0.8772608213547621 0.4800140115827863
12644440000.0 -0.872520165237705 0.488578101487774 6.737100214231973e-17 -6.989583478874393e-17 6.737100214231973e-17 -6.989583478874393e-17 -0.8725204848343442 0.4885775307402832
12645057333.333334 -0.867696231643018 0.497094809460263 6.666436632729314e-17 -7.054404104940577e-17 6.666436632729314e-17 -7.054404104940577e-17 -0.8676965567948739 0.49709424189599244
12645674666.666666 -0.8627891687158036 0.5055638934363533 6.595150279219217e-17 -7.118511204212108e-17 6.595150279219217e-17 -7.118511204212108e-17 -0.8627894993911829 0.5055633291093641
12646292000.0 -0.8577994465755097 0.5139845420385519 6.523248350109518e-17 -7.181898802378294e-17 6.523248350109518e-17 -7.181898802378294e-17 -0.8577997827421963 0.5139839810025914
12646909333.333334 -0.8527275432608267 0.5223559485295322 6.450738099030217e-17 -7.244560997626022e-17 6.450738099030217e-17 -7.244560997626022e-17 -0.8527278848860783 0.5223553908380256
12647526666.666666 -0.8475739446837354 0.5306773108896632 6.377626836101804e-17 -7.306491961188677e-17 6.377626836101804e-17 -7.306491961188677e-17 -0.8475742917342924 0.5306767565957112
12648144000.0 -0.8423391445829587 0.5389478318938481 6.303921927200673e-17 -7.367685937885754e-17 6.303921927200673e-17 -7.367685937885754e-17 -0.842339497025045 0.5389472810502212
12648761333.333334 -0.8370236444767787 0.5471667191877102 6.229630793219997e-17 -7.428137246654533e-17 6.229630793219997e-17 -7.428137246654533e-17 -0.8370240022761024 0.5471661718468414
12649378666.666666 -0.8316279536148955 0.5553331853636457 6.15476090932472e-17 -7.487840281075073e-17 6.15476090932472e-17 -7.487840281075073e-17 -0.8316283167366565 0.5553326415776282
12649996000.0 -0.8261525889296261 0.5634464480362872 6.079319804200475e-17 -7.546789509888584e-17 6.079319804200475e-17 -7.546789509888584e-17 -0.8261529573385185 0.5634459078568691
12650613333.333334 -0.8205980749864087 0.5715057299174106 6.003315059299242e-17 -7.604979477506824e-17 6.003315059299242e-17 -7.604979477506824e-17 -0.8205984486466228 0.5715051933959892
12651230666.666666 -0.8149649439336126 0.5795102588903103 5.926754308080458e-17 -7.662404804513857e-17 5.926754308080458e-17 -7.662404804513857e-17 -0.8149653228088397 0.5795097260779274
12651848000.0 -0.8092537354513949 0.5874592680840055 5.849645235244246e-17 -7.719060188162469e-17 5.849645235244246e-17 -7.719060188162469e-17 -0.8092541195048292 0.5874587390313422
12652465333.333334 -0.8034649967001382 0.5953519959464975 5.771995575964104e-17 -7.774940402859753e-17 5.771995575964104e-17 -7.774940402859753e-17 -0.8034653858944827 0.5953514707038704
12653082666.666666 -0.7975992822680381 0.6031876863177345 5.693813115113056e-17 -7.830040300646543e-17 5.693813115113056e-17 -7.830040300646543e-17 -0.7975996765655059 0.6031871649350901
12653700000.0 -0.7916571541177981 0.6109655885022818 5.615105686482963e-17 -7.88435481167062e-17 5.615105686482963e-17 -7.88435481167062e-17 -0.791657553480118 0.6109650710291921
12654317333.333334 -0.7856391815330304 0.6186849573409242 5.5358811720047787e-17 -7.937878944648326e-17 5.5358811720047787e-17 -7.937878944648326e-17 -0.7856395859214489 0.6186844438265812
12654934666.666666 -0.7795459410635447 0.6263450532822818 5.456147500959025e-17 -7.99060778732215e-17 5.456147500959025e-17 -7.99060778732215e-17 -0.7795463504388304 0.6263445437754936
12655552000.0 -0.7733780164701087 0.6339451424536607 5.375912649183932e-17 -8.042536506908946e-17 5.375912649183932e-17 -8.042536506908946e-17 -0.7733784307925579 0.6339446370028476
12656169333.333334 -0.7671359986686652 0.6414844967311847 5.2951846382826214e-17 -8.093660350538166e-17 5.2951846382826214e-17 -8.093660350538166e-17 -0.7671364178981028 0.6414839953843733
12656786666.666666 -0.7608204856736136 0.6489623938096872 5.2139715348194585e-17 -8.143974645686517e-17 5.2139715348194585e-17 -8.143974645686517e-17 -0.7608209097693984 0.6489618966145054
12657404000.0 -0.7544320825404951 0.6563781172719294 5.132281449518077e-17 -8.193474800600817e-17 5.132281449518077e-17 -8.193474800600817e-17 -0.7544325114615251 0.6563776242756048
12658021333.333334 -0.7479714013080667 0.6637309566571975 5.050122536452643e-17 -8.242156304714619e-17 5.050122536452643e-17 -8.242156304714619e-17 -0.7479718350127799 0.6637304679065488
12658638666.666666 -0.7414390609397354 0.6710202075292777 4.967502992237098e-17 -8.290014729055628e-17 4.967502992237098e-17 -8.290014729055628e-17 -0.7414394993861163 0.6710197230707129
12659256000.0 -0.734835687264074 0.6782451715441609 4.8844310552070194e-17 -8.337045726647113e-17 4.8844310552070194e-17 -8.337045726647113e-17 -0.734836130409657 0.6782446914236726
12659873333.333334 -0.7281619129150304 0.6854051565167539 4.8009150046022184e-17 -8.383245032898442e-17 4.8009150046022184e-17 -8.383245032898442e-17 -0.7281623607169041 0.6854046807799148
12660490666.666666 -0.7214183772713234 0.6924994764871971 4.7169631597435725e-17 -8.428608465988835e-17 4.7169631597435725e-17 -8.428608465988835e-17 -0.7214188296861344 0.6924990051791555
12661108000.0 -0.7146057263949906 0.6995274517867898 4.6325838792038443e-17 -8.473131927244097e-17 4.6325838792038443e-17 -8.473131927244097e-17 -0.7146061833789472 0.6995269849522644
12661725333.333334 -0.7077246129697661 0.7064884091028144 4.5477855599807554e-17 -8.516811401501971e-17 4.5477855599807554e-17 -8.516811401501971e-17 -0.7077250744786445 0.7064879467860926
12662342666.666666 -0.7007756962383359 0.7133816815432724 4.462576636660648e-17 -8.559642957472493e-17 4.462576636660648e-17 -8.559642957472493e-17 -0.7007761622274815 0.7133812237882029
12662960000.0 -0.693759641939276 0.7202066087006698 4.3769655805826346e-17 -8.601622748087924e-17 4.3769655805826346e-17 -8.601622748087924e-17 -0.6937601123636103 0.7202061555506606
12663577333.333334 -0.6866771222432523 0.7269625367153092 4.290960898998076e-17 -8.642747010845146e-17 4.290960898998076e-17 -8.642747010845146e-17 -0.6866775970572766 0.7269620882133236
12664194666.666666 -0.6795288156886042 0.7336488183379535 4.2045711342271e-17 -8.683012068139524e-17 4.2045711342271e-17 -8.683012068139524e-17 -0.6795292948464028 0.7336483745265043
12664812000.0 -0.6723154071164178 0.7402648129917543 4.117804862812029e-17 -8.722414327590344e-17 4.117804862812029e-17 -8.722414327590344e-17 -0.672315890571665 0.7402643739129021
12665429333.333334 -0.665037587604773 0.7468098868337615 4.030670694667582e-17 -8.760950282357991e-17 4.030670694667582e-17 -8.760950282357991e-17 -0.6650380753107342 0.7468094525291086
12666046666.666666 -0.6576960544027198 0.7532834128154726 3.9431772722296333e-17 -8.798616511451944e-17 3.9431772722296333e-17 -8.798616511451944e-17 -0.6576965463122586 0.7532829833261598
12666664000.0 -0.6502915108632277 0.7596847707431368 3.8553332695971134e-17 -8.835409680032057e-17 3.8553332695971134e-17 -8.835409680032057e-17 -0.6502920069288088 0.7596843461098393
12667281333.333334 -0.6428246663760968 0.7660133473369066 3.7671473916774714e-17 -8.871326539698623e-17 3.7671473916774714e-17 -8.871326539698623e-17 -0.6428251665497923 0.7660129275998311
12667898666.666666 -0.6352962362997829 0.7722685362897818 3.678628373323384e-17 -8.906363928776444e-17 3.678628373323384e-17 -8.906363928776444e-17 -0.6352967405332762 0.7722681214886623
12668516000.0 -0.6277069418928619 0.7784497383256953 3.589784978469425e-17 -8.940518772589272e-17 3.589784978469425e-17 -8.940518772589272e-17 -0.6277074501374513 0.7784493284997882
12669133333.333334 -0.6200575102451239 0.7845563612567606 3.5006259992682837e-17 -8.973788083724914e-17 3.5006259992682837e-17 -8.973788083724914e-17 -0.6200580224517295 0.7845559564448432
12669750666.666666 -0.6123486742077004 0.7905878200401923 3.4111602552209695e-17 -9.00616896229303e-17 3.4111602552209695e-17 -9.00616896229303e-17 -0.6123491903268656 0.790587420280556
12670368000.0 -0.6045811723229348 0.7965435368342759 3.3213965923057457e-17 -9.037658596174013e-17 3.3213965923057457e-17 -9.037658596174013e-17 -0.6045816923048348 0.7965431421647259
