! Parameters = {f0=12700.012000; bw=77.238000; Q=6100.000000; N=10; m_0_1=1.308604; m_1_1=0.864308; m_1_2=1.143416; m_2_2=0.863659; m_2_3=0.780379; m_2_8=0.002494; m_2_9=0.039198; m_3_3=0.861722; m_3_4=0.668908; m_3_7=0.003094; m_3_8=-0.093994; m_3_9=0.002494; m_4_4=0.858797; m_4_5=0.505243; m_4_6=0.006611; m_4_7=-0.114543; m_4_8=0.003094; m_5_5=0.859179; m_5_6=0.912598; m_5_7=0.006611; m_6_6=0.859178; m_6_7=0.505585; m_7_7=0.858811; m_7_8=0.669026; m_8_8=0.861720; m_8_9=0.780692; m_9_9=0.863654; m_9_10=1.144494; m_10_10=0.864298; m_10_11=1.309399}
!
! Created with skrf (http://scikit-rf.org).
# Hz S RI R 50.0 
!freq ReS11 ImS11 ReS21 ImS21 ReS12 ImS12 ReS22 ImS22
12607400000.0 -0.8447584348973047 0.5351478175884392 8.700406754960515e-17 -9.957889567656571e-17 8.700406754960515e-17 -9.957889567656571e-17 -0.8447588038160974 0.5351472352306502
12608017333.333334 -0.8384590554193126 0.5449645973686426 8.581094290296676e-17 -1.0057484383224965e-16 8.581094290296676e-17 -1.0057484383224965e-16 -0.8384594310871843 0.5449640193818013
12608634666.666666 -0.8320456024588995 0.5547072339789879 8.460643240375386e-17 -1.0155650961578181e-16 8.460643240375386e-17 -1.0155650961578181e-16 -0.8320459848240814 0.5547066604412979
12609252000.0 -0.8255189485750272 0.5643744019207408 8.33907068662255e-17 -1.0252376304143735e-16 8.33907068662255e-17 -1.0252376304143735e-16 -0.825519337584845 0.5643738329097936
12609869333.333334 -0.8188799817278254 0.5739647859627351 8.216393858645981e-17 -1.0347647616461079e-16 8.216393858645981e-17 -1.0347647616461079e-16 -0.818880377328706 0.5739642215554983
12610486666.666666 -0.8121296051578029 0.5834770813202896 8.09263013179874e-17 -1.0441452309868e-16 8.09263013179874e-17 -1.0441452309868e-16 -0.8121300072952808 0.5834765215930967
12611104000.0 -0.8052687372627941 0.5929099938329574 7.967797024720067e-17 -1.0533778003160523e-16 7.967797024720067e-17 -1.0533778003160523e-16 -0.8052691458815214 0.5929094388614984
12611721333.333334 -0.79829831147326 0.6022622401402515 7.84191219686492e-17 -1.0624612524217756e-16 7.84191219686492e-17 -1.0624612524217756e-16 -0.7982987265170124 0.6022616899995624
12612338666.666666 -0.7912192761250595 0.6115325478565717 7.714993446006338e-17 -1.0713943911603812e-16 7.714993446006338e-17 -1.0713943911603812e-16 -0.7912196975367423 0.6115320026210223
12612956000.0 -0.7840325943305231 0.6207196557441708 7.58705870572571e-17 -1.0801760416135501e-16 7.58705870572571e-17 -1.0801760416135501e-16 -0.7840330220521836 0.6207191154874583
12613573333.333334 -0.7767392438475142 0.629822313884642 7.458126042885346e-17 -1.0888050502420228e-16 7.458126042885346e-17 -1.0888050502420228e-16 -0.7767396778203447 0.6298217786797778
12614190666.666666 -0.769340216946261 0.6388392838491491 7.328213655077766e-17 -1.0972802850367793e-16 7.328213655077766e-17 -1.0972802850367793e-16 -0.7693406571106102 0.6388387537684508
12614808000.0 -0.7618365202743715 0.6477693388668914 7.197339868065333e-17 -1.1056006356666763e-16 7.197339868065333e-17 -1.1056006356666763e-16 -0.7618369665697521 0.6477688139819724
12615425333.333334 -0.754229174719973 0.6566112639919013 7.06552313319826e-17 -1.113765013623375e-16 7.06552313319826e-17 -1.113765013623375e-16 -0.7542296270850676 0.65661074437366
12616042666.666666 -0.7465192152727398 0.6653638562684224 6.932782024818457e-17 -1.12177235236305e-16 6.932782024818457e-17 -1.12177235236305e-16 -0.7465196736454139 0.6653633419870357
12616660000.0 -0.7387076908831255 0.6740259248945355 6.799135237645535e-17 -1.1296216074451343e-16 6.799135237645535e-17 -1.1296216074451343e-16 -0.7387081552004314 0.674025416019446
12617277333.333334 -0.7307956643195512 0.68259629138427 6.664601584150035e-17 -1.1373117566677764e-16 6.664601584150035e-17 -1.1373117566677764e-16 -0.73079613451774 0.682595787984179
12617894666.666666 -0.7227842120240283 0.6910737897277094 6.52919999191055e-17 -1.1448418002002413e-16 6.52919999191055e-17 -1.1448418002002413e-16 -0.722784688038556 0.6910732918705658
12618512000.0 -0.7146744239654151 0.6994572665499407 6.392949500950754e-17 -1.1522107607124661e-16 6.392949500950754e-17 -1.1522107607124661e-16 -0.7146749057309538 0.6994567743029331
12619129333.333334 -0.7064674034914206 0.7077455812676634 6.255869261073008e-17 -1.1594176835008287e-16 6.255869261073008e-17 -1.1594176835008287e-16 -0.7064678909418662 0.7077450946972108
12619746666.666666 -0.6981642671783141 0.7159376062445528 6.117978529166786e-17 -1.1664616366113685e-16 6.117978529166786e-17 -1.1664616366113685e-16 -0.6981647602467951 0.7159371254162946
12620364000.0 -0.6897661446789302 0.7240322269447517 5.979296666508223e-17 -1.1733417109595397e-16 5.979296666508223e-17 -1.1733417109595397e-16 -0.6897666432978182 0.7240317519235413
12620981333.333334 -0.6812741785692848 0.7320283420842105 5.839843136049368e-17 -1.1800570204466153e-16 5.839843136049368e-17 -1.1800570204466153e-16 -0.681274682670202 0.7320278729341033
12621598666.666666 -0.6726895241928389 0.7399248637807925 5.699637499686437e-17 -1.1866067020732768e-16 5.699637499686437e-17 -1.1866067020732768e-16 -0.6726900337066687 0.7399244005650397
12622216000.0 -0.6640133495034574 0.7477207177021457 5.55869941552379e-17 -1.1929899160495444e-16 5.55869941552379e-17 -1.1929899160495444e-16 -0.664013864360354 0.7477202604831851
12622833333.333334 -0.6552468349063808 0.7554148432119812 5.417048635120097e-17 -1.1992058459017564e-16 5.417048635120097e-17 -1.1992058459017564e-16 -0.6552473550357782 0.7554143920514285
12623450666.666666 -0.6463911730978426 0.7630061935141865 5.274705000726642e-17 -1.2052536985760851e-16 5.274705000726642e-17 -1.2052536985760851e-16 -0.6463916984284636 0.7630057484728267
12624068000.0 -0.6374475689026077 0.7704937357954109 5.131688442509117e-17 -1.2111327045390104e-16 5.131688442509117e-17 -1.2111327045390104e-16 -0.6374480993624759 0.7704932969331916
12624685333.333334 -0.6284172391100551 0.7778764513655805 4.9880189757631127e-17 -1.2168421178742909e-16 4.9880189757631127e-17 -1.2168421178742909e-16 -0.6284177746265028 0.7778760187416027
12625302666.666666 -0.6193014123088721 0.7851533357962944 4.843716698119738e-17 -1.2223812163766317e-16 4.843716698119738e-17 -1.2223812163766317e-16 -0.6193019528085509 0.7851529094688042
12625920000.0 -0.6101013287194846 0.7923233990578172 4.6988017867322005e-17 -1.2277493016423655e-16 4.6988017867322005e-17 -1.2277493016423655e-16 -0.6101018741283742 0.7923229790841978
12626537333.333334 -0.6008182400257643 0.7993856656534172 4.5532944954657807e-17 -1.2329456991563088e-16 4.5532944954657807e-17 -1.2329456991563088e-16 -0.6008187902691852 0.7993852520901829
12627154666.666666 -0.5914534092045184 0.8063391747522662 4.40721515206785e-17 -1.237969758375688e-16 4.40721515206785e-17 -1.237969758375688e-16 -0.5914539642071409 0.8063387676550542
12627772000.0 -0.5820081103535419 0.8131829803202432 4.26058415533051e-17 -1.2428208528106457e-16 4.26058415533051e-17 -1.2428208528106457e-16 -0.5820086700393949 0.8131825797438039
12628389333.333334 -0.572483628518618 0.8199161512483881 4.113421972251595e-17 -1.2474983801011548e-16 4.113421972251595e-17 -1.2474983801011548e-16 -0.572484192811102 0.8199157572465813
12629006666.666666 -0.5628812595182497 0.8265377714799016 3.965749135175345e-17 -1.2520017620909767e-16 3.965749135175345e-17 -1.2520017620909767e-16 -0.5628818283401446 0.8265373841056854
12629624000.0 -0.553202309767753 0.83304694013449 3.817586238938303e-17 -1.2563304448978193e-16 3.817586238938303e-17 -1.2563304448978193e-16 -0.553202883041231 0.833046559439917
12630241333.333334 -0.5434480961012863 0.8394427716310976 3.6689539379963144e-17 -1.2604838989804785e-16 3.6689539379963144e-17 -1.2604838989804785e-16 -0.5434486737479223 0.8394423976673072
12630858666.666666 -0.5336199455928847 0.8457243958082682 3.5198729435540623e-17 -1.2644616192023022e-16 3.5198729435540623e-17 -1.2644616192023022e-16 -0.5336205275336645 0.8457240286254772
12631476000.0 -0.5237191953755469 0.8518909580427552 3.370364020677841e-17 -1.2682631248915415e-16 3.370364020677841e-17 -1.2682631248915415e-16 -0.5237197815308813 0.8518905976902547
12632093333.333334 -0.5137471924597744 0.8579416193655092 3.220447985412469e-17 -1.2718879598980221e-16 3.220447985412469e-17 -1.2718879598980221e-16 -0.5137477827495082 0.857941265891656
12632710666.666666 -0.5037052935500955 0.863875556575961 3.070145701885454e-17 -1.275335692646599e-16 3.070145701885454e-17 -1.275335692646599e-16 -0.5037058878935186 0.8638752100281706
12633328000.0 -0.49359486486028276 0.8696919623541274 2.919478079404134e-17 -1.278605916187199e-16 2.919478079404134e-17 -1.278605916187199e-16 -0.49359546317614217 0.8696916227788695
12633945333.333334 -0.4834172819278492 0.8753900453702362 2.7684660695564954e-17 -1.2816982482412694e-16 2.7684660695564954e-17 -1.2816982482412694e-16 -0.48341788413435893 0.8753897128130266
12634562666.666666 -0.4731739294266811 0.880969030392515 2.6171306632988944e-17 -1.2846123312449818e-16 2.6171306632988944e-17 -1.2846123312449818e-16 -0.47317453544153404 0.8809687048979108
12635180000.0 -0.46286620097872677 0.8864281583926216 2.4654928880416692e-17 -1.2873478323889579e-16 2.4654928880416692e-17 -1.2873478323889579e-16 -0.4628668107191056 0.8864278400042143
12635797333.333334 -0.45249549896426666 0.8917666866489762 2.31357380473341e-17 -1.28990444365451e-16 2.31357380473341e-17 -1.28990444365451e-16 -0.45249611234685555 0.891766375409387
12636414666.666666 -0.44206323433136835 0.8969838888476778 2.161394504939923e-17 -1.2922818818464842e-16 2.161394504939923e-17 -1.2922818818464842e-16 -0.4420638512723641 0.8969835847985506
12637032000.0 -0.431570826403675 0.9020790551814531 2.008976107918262e-17 -1.2944798886226933e-16 2.008976107918262e-17 -1.2944798886226933e-16 -0.4315714468187981 0.9020787583634494
12637649333.333334 -0.4210197026874282 0.9070514924461587 1.8563397576917674e-17 -1.2964982305198513e-16 1.8563397576917674e-17 -1.2964982305198513e-16 -0.4210203264919355 0.907051202898953
12638266666.666666 -0.41041129867725673 0.9119005241350954 1.7035066201191296e-17 -1.298336698976106e-16 1.7035066201191296e-17 -1.298336698976106e-16 -0.4104119257859518 0.911900241897369
12638884000.0 -0.3997470576607705 0.9166254905310949 1.550497879965651e-17 -1.299995110350083e-16 1.550497879965651e-17 -1.299995110350083e-16 -0.39974768798801563 0.9166252156405306
12639501333.333334 -0.3890284305223294 0.9212257487962152 1.39733473796898e-17 -1.3014733059365236e-16 1.39733473796898e-17 -1.3014733059365236e-16 -0.3890290639820576 0.9212254812894929
12640118666.666666 -0.3782568755457273 0.925700673059169 1.2440384079085983e-17 -1.3027711519784362e-16 1.2440384079085983e-17 -1.3027711519784362e-16 -0.3782575120514538 0.9257004129719603
12640736000.0 -0.3674338582152664 0.9300496545006923 1.0906301136642711e-17 -1.3038885396758755e-16 1.0906301136642711e-17 -1.3038885396758755e-16 -0.3674344976801006 0.9300494018676565
12641353333.333334 -0.35656085101729573 0.9342721014359976 9.371310862927872e-18 -1.3048253851911268e-16 9.371310862927872e-18 -1.3048253851911268e-16 -0.35656149335395304 0.9342718562907759
12641970666.666666 -0.3456393332389564 0.9383674393956473 7.835625610848362e-18 -1.305581629650605e-16 7.835625610848362e-18 -1.305581629650605e-16 -0.34563997835976945 0.938367201770859
12642588000.0 -0.3346707907674749 0.9423351112034868 6.299457746339359e-18 -1.306157239143208e-16 6.299457746339359e-18 -1.306157239143208e-16 -0.3346714385844066 0.9423348811307247
12643205333.333334 -0.32365671588787615 0.9461745770525055 4.7630196190559044e-18 -1.3065522047152404e-16 4.7630196190559044e-18 -1.3065522047152404e-16 -0.32365736631253167 0.9461743545623341
12643822666.666666 -0.3125986070797688 0.9498853145783456 3.226523533033633e-18 -1.3067665423619193e-16 3.226523533033633e-18 -1.3067665423619193e-16 -0.31259926002340604 0.9498850997002914
12644440000.0 -0.30149796881376684 0.9534668189302589 1.6901817174006458e-18 -1.3068002930154133e-16 1.6901817174006458e-18 -1.3068002930154133e-16 -0.30149862418731077 0.9534666116928123
12645057333.333334 -0.290356311346674 0.9569186028398478 1.5420629712231656e-19 -1.3066535225294527e-16 1.5420629712231656e-19 -1.3066535225294527e-16 -0.2903569690607274 0.9569184032704573
12645674666.666666 -0.2791751505160375 0.9602401966873508 -1.3811907362615217e-18 -1.306326321660515e-16 -1.3811907362615217e-18 -1.306326321660515e-16 -0.2791758104808929 0.9602400048124169
12646292000.0 -0.2679560075337238 0.9634311485655842 -2.915797553876966e-18 -1.3058188060455549e-16 -2.915797553876966e-18 -1.3058188060455549e-16 -0.26795666965937714 0.96343096441046
12646909333.333334 -0.2567004087793398 0.96649102434132 -4.449402518648321e-18 -1.3051311161763423e-16 -4.449402518648321e-18 -1.3051311161763423e-16 -0.2567010729755014 0.9664908479303052
12647526666.666666 -0.24540988559218274 0.9694194077144554 -5.981794214496445e-18 -1.3042634173703456e-16 -5.981794214496445e-18 -1.3042634173703456e-16 -0.2454105517682901 0.9694192390707939
12648144000.0 -0.23408597406309134 0.9722159002745976 -7.512761475417232e-18 -1.3032158997382133e-16 -7.512761475417232e-18 -1.3032158997382133e-16 -0.23408664212832156 0.9722157394204748
12648761333.333334 -0.22273021482545902 0.9748801215552706 -9.042093414540259e-18 -1.3019887781478598e-16 -9.042093414540259e-18 -1.3019887781478598e-16 -0.22273088468874072 0.9748799685118084
12649378666.666666 -0.21134415284568328 0.9774117090856616 -1.0569579453130105e-17 -1.3005822921851306e-16 -1.0569579453130105e-17 -1.3005822921851306e-16 -0.21134482441570993 0.9774115638729196
12649996000.0 -0.1999293372127234 0.9798103184400005 -1.2095009349574524e-17 -1.2989967061110543e-16 -1.2095009349574524e-17 -1.2989967061110543e-16 -0.19993001039796476 0.9798101810769695
12650613333.333334 -0.18848732092759254 0.9820756232843552 -1.3618173228248117e-17 -1.2972323088157425e-16 -1.3618173228248117e-17 -1.2972323088157425e-16 -0.1884879956363075 0.9820754937889555
12651230666.666666 -0.1770196606920706 0.9842073154210333 -1.513886160834401e-17 -1.2952894137689064e-16 -1.513886160834401e-17 -1.2952894137689064e-16 -0.17702033683232038 0.9842071938101169
12651848000.0 -0.16552791669669145 0.9862051048305658 -1.6656865432691134e-17 -1.2931683589669228e-16 -1.6656865432691134e-17 -1.2931683589669228e-16 -0.16552859417635085 0.9862049911199064
12652465333.333334 -0.15401365240861334 0.9880687197111201 -1.8171976096398665e-17 -1.2908695068766511e-16 -1.8171976096398665e-17 -1.2908695068766511e-16 -0.15401433113538424 0.9880686139154173
12653082666.666666 -0.142478434359078 0.9897979065154664 -1.968398547549709e-17 -1.288393244375839e-16 -1.968398547549709e-17 -1.288393244375839e-16 -0.14247911424050144 0.9897978086483401
12653700000.0 -0.1309238319298875 0.9913924299855273 -2.119268595551951e-17 -1.2857399826901122e-16 -2.119268595551951e-17 -1.2857399826901122e-16 -0.13092451287335652 0.9913923400595184
12654317333.333334 -0.11935141714031004 0.9928520731843261 -2.2697870459913922e-17 -1.2829101573267914e-16 -2.2697870459913922e-17 -1.2829101573267914e-16 -0.11935209905308233 0.9928519912108938
12654934666.666666 -0.10776276443295149 0.9941766375255366 -2.4199332478476137e-17 -1.2799042280052002e-16 -2.4199332478476137e-17 -1.2799042280052002e-16 -0.10776344722216195 0.994176563515058
12655552000.0 -0.09615945045943684 0.9953659428005123 -2.5696866095620036e-17 -1.2767226785837712e-16 -2.5696866095620036e-17 -1.2767226785837712e-16 -0.09616013403211007 0.995365876762279
12656169333.333334 -0.08454305386632843 0.9964198272027552 -2.7190266018555433e-17 -1.273366016983877e-16 -2.7190266018555433e-17 -1.273366016983877e-16 -0.08454373812939155 0.9964197691449735
12656786666.666666 -0.07291515507995344 0.9973381473499754 -2.8679327605437364e-17 -1.26983477511021e-16 -2.8679327605437364e-17 -1.26983477511021e-16 -0.07291583994024871 0.9973380972797649
12657404000.0 -0.06127733609158261 0.9981207783035746 -3.0163846893327757e-17 -1.2661295087680668e-16 -3.0163846893327757e-17 -1.2661295087680668e-16 -0.06127802145588025 0.9981207362269693
12658021333.333334 -0.04963118024202835 0.9987676135856617 -3.1643620626114e-17 -1.2622507975772384e-16 -3.1643620626114e-17 -1.2622507975772384e-16 -0.049631866017038985 0.9987675795076055
12658638666.666666 -0.03797827200654091 0.9992785651935162 -3.311844628227231e-17 -1.2581992448827555e-16 -3.311844628227231e-17 -1.2581992448827555e-16 -0.03797895809892837 0.9992785391178648
12659256000.0 -0.026320196778841183 0.9996535636115834 -3.4588122102593777e-17 -1.253975477662193e-16 -3.4588122102593777e-17 -1.253975477662193e-16 -0.026320883095235337 0.9996535455411047
12659873333.333334 -0.014658540655709667 0.9998925578209191 -3.605244711769094e-17 -1.2495801464300287e-16 -3.605244711769094e-17 -1.2495801464300287e-16 -0.014659227102718936 0.9998925477572903
12660490666.666666 -0.002994890221224314 0.9999955153061325 -3.7511221175449064e-17 -1.2450139251386228e-16 -3.7511221175449064e-17 -1.2450139251386228e-16 -0.002995576705448491 0.999995513249943
12661108000.0 0.008669167669494172 0.9999624220598153 -3.896424496838857e-17 -1.2402775110758753e-16 -3.896424496838857e-17 -1.2402775110758753e-16 0.008668481241451273 0.9999624280105636
12661725333.333334 0.020332046105607775 0.9997932825844419 -4.0411320060784355e-17 -1.235371624760078e-16 -4.0411320060784355e-17 -1.235371624760078e-16 0.02033135982712558 0.9997932965405374
12662342666.666666 0.03199215833688878 0.9994881198917583 -4.1852248915776864e-17 -1.2302970098311944e-16 -4.1852248915776864e-17 -1.2302970098311944e-16 0.031991472301317256 0.9994881418505216
12662960000.0 0.04364791798940036 0.9990469754996533 -4.3286834922271655e-17 -1.225054432939252e-16 -4.3286834922271655e-17 -1.225054432939252e-16 0.04364723229004735 0.9990470054573174
12663577333.333334 0.05529773928146691 0.9984699094265057 -4.471488242174245e-17 -1.2196446836294581e-16 -4.471488242174245e-17 -1.2196446836294581e-16 0.055297054011585384 0.9984699473782147
12664194666.666666 0.06694003723925122 0.9977570001830212 -4.6136196734853785e-17 -1.2140685742243262e-16 -4.6136196734853785e-17 -1.2140685742243262e-16 0.06693935249202672 0.9977570461228338
12664812000.0 0.07857322791250625 0.9969083447615545 -4.7550584187973267e-17 -1.2083269397025932e-16 -4.7550584187973267e-17 -1.2083269397025932e-16 0.078572543781044 0.9969083986824415
12665429333.333334 0.09019572859007319 0.9959240586229045 -4.8957852139520275e-17 -1.2024206375750917e-16 -4.8957852139520275e-17 -1.2024206375750917e-16 0.09019504516738569 0.9959241205167525
12666046666.666666 0.10180595801504187 0.9948042756806247 -5.035780900614187e-17 -1.196350547757657e-16 -5.035780900614187e-17 -1.196350547757657e-16 0.10180527539403611 0.9948043455382365
12666664000.0 0.11340233660030728 0.9935491482827631 -5.175026428880345e-17 -1.1901175724406778e-16 -5.175026428880345e-17 -1.1901175724406778e-16 0.11340165487377195 0.9935492260938578
12667281333.333334 0.12498328664290857 0.99215884719119 -5.3135028598601273e-17 -1.1837226359561465e-16 -5.3135028598601273e-17 -1.1837226359561465e-16 0.12498260590350183 0.9921589329444068
12667898666.666666 0.1365472325390457 0.9906335615583303 -5.451191368252292e-17 -1.1771666846412043e-16 -5.451191368252292e-17 -1.1771666846412043e-16 0.13654655287928244 0.9906336552412297
12668516000.0 0.14809260099852622 0.9889734989014141 -5.588073244900713e-17 -1.1704506866988548e-16 -5.588073244900713e-17 -1.1704506866988548e-16 0.14809192251076536 0.9889736005004781
12669133333.333334 0.1596178212583915 0.9871788850743006 -5.724129899327337e-17 -1.163575632055994e-16 -5.724129899327337e-17 -1.163575632055994e-16 0.15961714403482338 0.9871789945749356
12669750666.666666 0.1711213252970145 0.9852499642366943 -5.85934286225742e-17 -1.1565425322180417e-16 -5.85934286225742e-17 -1.1565425322180417e-16 0.17112064942964872 0.985250081623234
