! Parameters = {f0=12700.012000; bw=77.238000; Q=6100.000000; N=10; m_0_1=1.347042; m_1_1=1.440885; m_1_2=1.181854; m_2_2=1.440236; m_2_3=0.818817; m_2_8=0.004416; m_2_9=0.041120; m_3_3=1.438299; m_3_4=0.707346; m_3_7=0.005016; m_3_8=-0.092072; m_3_9=0.004416; m_4_4=1.435374; m_4_5=0.543681; m_4_6=0.008533; m_4_7=-0.112621; m_4_8=0.005016; m_5_5=1.435756; m_5_6=0.951036; m_5_7=0.008533; m_6_6=1.435755; m_6_7=0.544023; m_7_7=1.435388; m_7_8=0.707464; m_8_8=1.438297; m_8_9=0.819130; m_9_9=1.440231; m_9_10=1.182932; m_10_10=1.440875; m_10_11=1.347837}
!
! Created with skrf (http://scikit-rf.org).
# Hz S RI R 50.0 
!freq ReS11 ImS11 ReS21 ImS21 ReS12 ImS12 ReS22 ImS22
12607400000.0 -0.22292454820000202 -0.9748357019568099 7.701309740584452e-17 1.3677351844019316e-16 7.701309740584452e-17 1.3677351844019316e-16 -0.22292385650196717 -0.9748358601334335
12608017333.333334 -0.23538434097276068 -0.971902367537306 7.875413040199029e-17 1.3574296508981151e-16 7.875413040199029e-17 1.3574296508981151e-16 -0.23538365138983813 -0.9719025345466427
12608634666.666666 -0.24780556580967705 -0.9688097860537677 8.048139865920504e-17 1.346902648818206e-16 8.048139865920504e-17 1.346902648818206e-16 -0.24780487845464302 -0.9688099618675895
12609252000.0 -0.26018618748213057 -0.9655584642285083 8.219462065692556e-17 1.336156013477646e-16 8.219462065692556e-17 1.336156013477646e-16 -0.26018550246738514 -0.9655586488171475
12609869333.333334 -0.27252417741436646 -0.9621489347935821 8.389351731771769e-17 1.3251916159515274e-16 8.389351731771769e-17 1.3251916159515274e-16 -0.27252349485191535 -0.9621491281259361
12610486666.666666 -0.28481751401571676 -0.9585817564035467 8.557781205265818e-17 1.3140113627499185e-16 8.557781205265818e-17 1.3140113627499185e-16 -0.28481683401715296 -0.9585819584470839
12611104000.0 -0.29706418301222204 -0.9548575135438182 8.724723080632963e-17 1.3026171954871243e-16 8.724723080632963e-17 1.3026171954871243e-16 -0.2970635056887073 -0.9548577242645818
12611721333.333334 -0.3092621777762358 -0.9509768164350288 8.890150210126676e-17 1.291011090546008e-16 8.890150210126676e-17 1.291011090546008e-16 -0.30926150323848306 -0.9509770357976447
12612338666.666666 -0.3214094996555929 -0.9469403009329276 9.054035708209756e-17 1.279195058735716e-16 9.054035708209756e-17 1.279195058735716e-16 -0.3214088280138478 -0.9469405289006094
12612956000.0 -0.3335041583009269 -0.9427486284242432 9.216352955915716e-17 1.2671711449443159e-16 9.216352955915716e-17 1.2671711449443159e-16 -0.3335034896649499 -0.9427488649587984
12613573333.333334 -0.3455441719916303 -0.9384024857183728 9.377075605161394e-17 1.2549414277861264e-16 9.377075605161394e-17 1.2549414277861264e-16 -0.3455435064706781 -0.9384027307802073
12614190666.666666 -0.3575275679609358 -0.933902584934714 9.536177583019378e-17 1.2425080192431162e-16 9.536177583019378e-17 1.2425080192431162e-16 -0.35752690566374473 -0.9339028384828425
12614808000.0 -0.36945238271872916 -0.9292496633861405 9.693633095939487e-17 1.229873064301168e-16 9.693633095939487e-17 1.229873064301168e-16 -0.3694517237534963 -0.9292499253781903
12615425333.333334 -0.3813166623736943 -0.9244444834580325 9.849416633922908e-17 1.2170387405809434e-16 9.849416633922908e-17 1.2170387405809434e-16 -0.38131600684806033 -0.9244447538502516
12616042666.666666 -0.3931184629530356 -0.9194878324835218 1.0003502974646912e-16 1.2040072579635367e-16 1.0003502974646912e-16 1.2040072579635367e-16 -0.3931178109740673 -0.9194881112307868
12616660000.0 -0.40485585072137037 -0.9143805226143424 1.0155867187543692e-16 1.1907808582106362e-16 1.0155867187543692e-16 1.1907808582106362e-16 -0.4048552023955427 -0.9143808096701649
12617277333.333334 -0.4165269024974124 -0.9091233906878169 1.0306484637822841e-16 1.1773618145800382e-16 1.0306484637822841e-16 1.1773618145800382e-16 -0.4165262579305918 -0.9091236860043522
12617894666.666666 -0.42812970596893424 -0.903717298089815 1.0455330990446159e-16 1.1637524314358835e-16 1.0455330990446159e-16 1.1637524314358835e-16 -0.4281290652663606 -0.9037176016178698
12618512000.0 -0.4396623600064617 -0.8981631306134485 1.060238221405819e-16 1.1499550438532053e-16 1.060238221405819e-16 1.1499550438532053e-16 -0.43966172327273134 -0.8981634423024879
12619129333.333334 -0.45112297497436454 -0.892461798314125 1.0747614584848379e-16 1.1359720172190278e-16 1.0747614584848379e-16 1.1359720172190278e-16 -0.45112234231341336 -0.8924621181122824
12619746666.666666 -0.4625096730408329 -0.886614235360263 1.0891004690380339e-16 1.1218057468267917e-16 1.0891004690380339e-16 1.1218057468267917e-16 -0.4625090445559201 -0.8866145632143497
12620364000.0 -0.473820588485409 -0.880621399880302 1.1032529433350894e-16 1.1074586574675338e-16 1.1032529433350894e-16 1.1074586574675338e-16 -0.4738199642790983 -0.8806217357358126
12620981333.333334 -0.48505386800453487 -0.8744842738057906 1.1172166035305824e-16 1.0929332030153708e-16 1.1172166035305824e-16 1.0929332030153708e-16 -0.4850532481786801 -0.8744846176069159
12621598666.666666 -0.49620767101557095 -0.8682038627103116 1.1309892040297214e-16 1.078231866008667e-16 1.1309892040297214e-16 1.078231866008667e-16 -0.49620705567129725 -0.868204214399944
12622216000.0 -0.5072801699579759 -0.8617811956449323 1.1445685318486521e-16 1.0633571572265531e-16 1.1445685318486521e-16 1.0633571572265531e-16 -0.507279559195665 -0.8617815551646791
12622833333.333334 -0.5182695505931532 -0.8552173249693752 1.1579524069692106e-16 1.0483116152609234e-16 1.1579524069692106e-16 1.0483116152609234e-16 -0.5182689445124259 -0.8552176922595659
12623450666.666666 -0.5291740123013666 -0.848513326179781 1.1711386826880593e-16 1.0330978060839755e-16 1.1711386826880593e-16 1.0330978060839755e-16 -0.5291734110010676 -0.8485137011794783
12624068000.0 -0.5399917683768786 -0.841670297732439 1.184125245960098e-16 1.0177183226114435e-16 1.184125245960098e-16 1.0177183226114435e-16 -0.5399911719550593 -0.8416706803794484
12624685333.333334 -0.5507210463210365 -0.8346893608635886 1.196910017736499e-16 1.002175784261125e-16 1.196910017736499e-16 1.002175784261125e-16 -0.5507204548749385 -0.8346897510944665
12625302666.666666 -0.5613600881320714 -0.8275716594060935 1.2094909532960424e-16 9.864728365082561e-17 1.2094909532960424e-16 9.864728365082561e-17 -0.5613595017581132 -0.8275720571561636
12625920000.0 -0.5719071505937277 -0.8203183596016644 1.221866042572056e-16 9.706121504350449e-17 1.221866042572056e-16 9.706121504350449e-17 -0.5719065693874864 -0.8203187648050227
12626537333.333334 -0.5823605055605053 -0.812930649910012 1.234033310472104e-16 9.545964222777582e-17 1.234033310472104e-16 9.545964222777582e-17 -0.5823599296167022 -0.81293106249954
12627154666.666666 -0.5927184402409651 -0.8054097408140276 1.2459908171923208e-16 9.38428372969133e-17 1.2459908171923208e-16 9.38428372969133e-17 -0.5927178696534502 -0.8054101607214035
12627772000.0 -0.6029792574785056 -0.7977568646213411 1.257736658526287e-16 9.221107476761553e-17 1.257736658526287e-16 9.221107476761553e-17 -0.6029786923402416 -0.7977572917770503
12628389333.333334 -0.6131412760290766 -0.7899732752626742 1.2692689661665468e-16 9.056463153357654e-17 1.2692689661665468e-16 9.056463153357654e-17 -0.6131407164321258 -0.789973709596023
12629006666.666666 -0.6232028308372013 -0.7820602480859774 1.2805859080016197e-16 8.8903786818466e-17 1.2805859080016197e-16 8.8903786818466e-17 -0.6232022768727069 -0.7820606895251007
12629624000.0 -0.6331622733081603 -0.7740190796479405 1.291685688405492e-16 8.722882212873464e-17 1.291685688405492e-16 8.722882212873464e-17 -0.6331617250663351 -0.774019528119817
12630241333.333334 -0.6430179715786568 -0.765851087501136 1.3025665485220507e-16 8.554002120589997e-17 1.3025665485220507e-16 8.554002120589997e-17 -0.643017429148767 -0.7658515429315997
12630858666.666666 -0.6527683107837983 -0.757557609978455 1.3132267665422088e-16 8.383766997864022e-17 1.3132267665422088e-16 8.383766997864022e-17 -0.6527677742541497 -0.7575580722922072
12631476000.0 -0.6624116933220451 -0.7491400059735319 1.3236646579760926e-16 8.212205651434511e-17 1.3236646579760926e-16 8.212205651434511e-17 -0.6624111627799673 -0.7491404750941529
12632093333.333334 -0.6719465391166728 -0.7405996547183428 1.3338785759174753e-16 8.039347097055245e-17 1.3338785759174753e-16 8.039347097055245e-17 -0.6719460146485066 -0.7406001305683055
12632710666.666666 -0.6813712858748021 -0.7319379555571095 1.343866911303065e-16 7.865220554587108e-17 1.343866911303065e-16 7.865220554587108e-17 -0.6813707675658841 -0.7319384380577918
12633328000.0 -0.690684389343465 -0.7231563277169388 1.3536280931648714e-16 7.689855443066506e-17 1.3536280931648714e-16 7.689855443066506e-17 -0.6906838772781144 -0.7231568167886361
12633945333.333334 -0.6998843235625022 -0.7142562100753914 1.3631605888759789e-16 7.513281375745768e-17 1.3631605888759789e-16 7.513281375745768e-17 -0.6998838178240074 -0.714256705637331
12634562666.666666 -0.7089695811146806 -0.7052390609246474 1.3724629043902753e-16 7.335528155096448e-17 1.3724629043902753e-16 7.335528155096448e-17 -0.7089690817852852 -0.705239562895001
12635180000.0 -0.7179386733725175 -0.6961063577327187 1.3815335844754313e-16 7.156625767786842e-17 1.3815335844754313e-16 7.156625767786842e-17 -0.7179381805334076 -0.6961068660286165
12635797333.333334 -0.726790130742483 -0.6868595969010899 1.3903712129394112e-16 6.976604379630228e-17 1.3903712129394112e-16 6.976604379630228e-17 -0.7267896444737716 -0.6868601114386325
12636414666.666666 -0.7355225029054665 -0.677500293519849 1.3989744128504012e-16 6.795494330505281e-17 1.3989744128504012e-16 6.795494330505281e-17 -0.7355220232861841 -0.6775008142141236
12637032000.0 -0.7441343590547336 -0.668029981119114 1.4073418467501323e-16 6.613326129249572e-17 1.4073418467501323e-16 6.613326129249572e-17 -0.744133886162813 -0.6680305078842074
12637649333.333334 -0.7526242881300524 -0.6584502114180951 1.415472216860568e-16 6.430130448527006e-17 1.415472216860568e-16 6.430130448527006e-17 -0.7526238220423165 -0.6584507441671076
12638266666.666666 -0.7609908990492038 -0.6487625540705064 1.4233642652838915e-16 6.245938119670904e-17 1.4233642652838915e-16 6.245938119670904e-17 -0.7609904398413528 -0.6487630927155664
12638884000.0 -0.7692328209356081 -0.6389685964077174 1.43101677419596e-16 6.060780127498667e-17 1.43101677419596e-16 6.060780127498667e-17 -0.7692323686822082 -0.6389691408599958
12639501333.333334 -0.7773487033432445 -0.6290699431783241 1.4384285660327145e-16 5.874687605110252e-17 1.4384285660327145e-16 5.874687605110252e-17 -0.7773482581177145 -0.6290704933480487
12640118666.666666 -0.7853372164775899 -0.6190682162855989 1.445598503669955e-16 5.687691828661746e-17 1.445598503669955e-16 5.687691828661746e-17 -0.7853367783521913 -0.6190687720820706
12640736000.0 -0.7931970514139784 -0.6089650545211711 1.4525254905968705e-16 5.4998242121031673e-17 1.4525254905968705e-16 5.4998242121031673e-17 -0.7931966204598012 -0.6089656158527768
12641353333.333334 -0.8009269203114271 -0.5987621132973054 1.4592084710814674e-16 5.311116301928369e-17 1.4592084710814674e-16 5.311116301928369e-17 -0.8009264965983804 -0.5987626800715351
12641970666.666666 -0.8085255566242517 -0.5884610643749055 1.4656464303307615e-16 5.121599771863797e-17 1.4656464303307615e-16 5.121599771863797e-17 -0.8085251402210502 -0.5884616364983649
12642588000.0 -0.8159917153093056 -0.5780635955899478 1.4718383946428126e-16 4.931306417572012e-17 1.4718383946428126e-16 4.931306417572012e-17 -0.8159913062834611 -0.5780641729683772
12643205333.333334 -0.8233241730298902 -0.5675714105770739 1.4777834315525374e-16 4.7402681513197076e-17 1.4777834315525374e-16 4.7402681513197076e-17 -0.8233237714476974 -0.5675719931153601
12643822666.666666 -0.8305217283565567 -0.5569862284899338 1.4834806499705384e-16 4.5485169966300406e-17 1.4834806499705384e-16 4.5485169966300406e-17 -0.8305213342830852 -0.5569868160921283
12644440000.0 -0.8375832019635376 -0.546309783720108 1.4889292003147874e-16 4.356085082925267e-17 1.4889292003147874e-16 4.356085082925267e-17 -0.8375828154626211 -0.5463103762894421
12645057333.333334 -0.8445074368222428 -0.535543825612553 1.4941282746355224e-16 4.1630046401497774e-17 1.4941282746355224e-16 4.1630046401497774e-17 -0.8445070579564674 -0.5355444230514539
12645674666.666666 -0.8512932983907139 -0.5246901181791598 1.4990771067332675e-16 3.969307993375094e-17 1.4990771067332675e-16 3.969307993375094e-17 -0.8512929272214096 -0.5246907203892665
12646292000.0 -0.8579396747997902 -0.5137504398092848 1.503774972269778e-16 3.775027557393657e-17 1.503774972269778e-16 3.775027557393657e-17 -0.8579393113870173 -0.5137510466914623
12646909333.333334 -0.8644454770347767 -0.5027265829791769 1.5082211888717987e-16 3.5801958313084453e-17 1.5082211888717987e-16 3.5801958313084453e-17 -0.8644451214373223 -0.5027271944335371
12647526666.666666 -0.8708096391143948 -0.4916203539574627 1.5124151162282e-16 3.384845393095312e-17 1.5124151162282e-16 3.384845393095312e-17 -0.8708092913897576 -0.4916209698833763
12648144000.0 -0.8770311182651673 -0.48043357250961627 1.516356156179861e-16 3.1890088941628614e-17 1.516356156179861e-16 3.1890088941628614e-17 -0.8770307784695515 -0.48043419280573213
12648761333.333334 -0.8831088950923718 -0.46916807159964774 1.5200437528024565e-16 2.992719053905722e-17 1.5200437528024565e-16 2.992719053905722e-17 -0.8831085632806769 -0.4691686961639084
12649378666.666666 -0.8890419737469587 -0.45782569708996873 1.523477392482377e-16 2.7960086542409394e-17 1.523477392482377e-16 2.7960086542409394e-17 -0.8890416499727695 -0.45782632581962657
12649996000.0 -0.8948293820889058 -0.44640830743859305 1.5266566039854788e-16 2.5989105341403755e-17 1.5266566039854788e-16 2.5989105341403755e-17 -0.8948290664044873 -0.4464089402302295
12650613333.333334 -0.9004701718463268 -0.43491777339498316 1.5295809585188098e-16 2.4014575841549483e-17 1.5295809585188098e-16 2.4014575841549483e-17 -0.9004698643026113 -0.43491841014452287
12651230666.666666 -0.9059634187708953 -0.4233559776934234 1.5322500697852556e-16 2.203682740932427e-17 1.5322500697852556e-16 2.203682740932427e-17 -0.9059631194174782 -0.4233566182961538
12651848000.0 -0.9113082227894563 -0.41172481474417394 1.5346635940310871e-16 2.005618981730573e-17 1.5346635940310871e-16 2.005618981730573e-17 -0.9113079316745859 -0.41172545909476094
12652465333.333334 -0.9165037081512117 -0.40002619032368575 1.5368212300865113e-16 1.8072993189204696e-17 1.5368212300865113e-16 1.8072993189204696e-17 -0.91650342532178 -0.4000268383161909
12653082666.666666 -0.9215490235713594 -0.3882620212620303 1.538722719398946e-16 1.6087567945001093e-17 1.538722719398946e-16 1.6087567945001093e-17 -0.9215487490728982 -0.3882626727899296
12653700000.0 -0.9264433423707331 -0.3764342351284586 1.5403678460594795e-16 1.410024474582506e-17 1.5403678460594795e-16 1.410024474582506e-17 -0.9264430762474042 -0.37643489008465886
12654317333.333334 -0.9311858626108755 -0.3645447699164564 1.5417564368219424e-16 1.2111354439090453e-17 1.5417564368219424e-16 1.2111354439090453e-17 -0.9311856049054649 -0.3645454281933136
12654934666.666666 -0.9357758072258123 -0.35259557372531186 1.542888361115163e-16 1.0121228003347705e-17 1.542888361115163e-16 1.0121228003347705e-17 -0.9357755579797219 -0.352596235214648
12655552000.0 -0.9402124241491951 -0.3405886044413357 1.5437635310479051e-16 8.130196493363841e-18 1.5437635310479051e-16 8.130196493363841e-18 -0.9402121834024367 -0.3405892690344571
12656169333.333334 -0.9444949864374956 -0.32852582941716885 1.5443819014068615e-16 6.138590985071377e-18 1.5443819014068615e-16 6.138590985071377e-18 -0.9444947542286845 -0.32852649700488357
12656786666.666666 -0.9486227923892313 -0.31640922514910913 1.5447434696475036e-16 4.146742520587574e-18 1.5447434696475036e-16 4.146742520587574e-18 -0.948622568755582 -0.31640989562174626
12657404000.0 -0.9525951656598837 -0.3042407769534217 1.5448482758778589e-16 2.1549820532520573e-18 1.5448482758778589e-16 2.1549820532520573e-18 -0.9525949506371996 -0.3042414502008473
12658021333.333334 -0.9564114553726776 -0.2920224786411493 1.5446964028352128e-16 1.636403927005942e-19 1.5446964028352128e-16 1.636403927005942e-19 -0.9564112489953487 -0.29202315455278594
12658638666.666666 -0.9600710362252542 -0.2797563321913738 1.54428797585575e-16 -1.826951850007049e-18 1.54428797585575e-16 -1.826951850007049e-18 -0.9600708385262514 -0.2797570106562185
12659256000.0 -0.9635733085922373 -0.2674443474228072 1.5436231628371092e-16 -3.816464317248781e-18 1.5436231628371092e-16 -3.816464317248781e-18 -0.9635731196031064 -0.2674450283294495
12659873333.333334 -0.9669176986232887 -0.2550885416651354 1.5427021741939143e-16 -5.804566959559367e-18 1.5427021741939143e-16 -5.804566959559367e-18 -0.9669175183741446 -0.25508922490177527
12660490666.666666 -0.9701036583372337 -0.24269093942815037 1.5415252628062606e-16 -7.790930090312266e-18 1.5415252628062606e-16 -7.790930090312266e-18 -0.970103486856757 -0.24269162488261734
12661108000.0 -0.9731306657119311 -0.23025357206970193 1.540092723961123e-16 -9.775224440407503e-18 1.540092723961123e-16 -9.775224440407503e-18 -0.9731305030273618 -0.2302542596294727
12661725333.333334 -0.975998224769633 -0.21777847746351728 1.538404895286825e-16 -1.1757121212702402e-17 1.538404895286825e-16 -1.1757121212702402e-17 -0.9759980709067697 -0.21777916701573508
12662342666.666666 -0.9787058656583597 -0.2052676996649105 1.5364621566804317e-16 -1.3736292136474093e-17 1.5364621566804317e-16 -1.3736292136474093e-17 -0.9787057206415505 -0.20526839109640263
12662960000.0 -0.9812531447288979 -0.19272328857574864 1.5342649302281917e-16 -1.5712409521720906e-17 1.5342649302281917e-16 -1.5712409521720906e-17 -0.9812530085810413 -0.19272398177304595
12663577333.333334 -0.9836396446074145 -0.18014729960896356 1.5318136801189887e-16 -1.768514631335485e-17 1.5318136801189887e-16 -1.768514631335485e-17 -0.983639517349953 -0.18014799445831853
12664194666.666666 -0.9858649742639232 -0.16754179335138067 1.5291089125508422e-16 -1.9654176145267565e-17 1.5291089125508422e-16 -1.9654176145267565e-17 -0.9858648559168399 -0.167542489738786
12664812000.0 -0.9879287690763174 -0.15490883522625665 1.5261511756304778e-16 -2.161917339425213e-17 1.5261511756304778e-16 -2.161917339425213e-17 -0.9879286596581343 -0.15490953303746433
12665429333.333334 -0.9898306908900978 -0.14225049515497054 1.522941059265906e-16 -2.3579813233832494e-17 1.522941059265906e-16 -2.3579813233832494e-17 -0.989830590417872 -0.14225119427551045
12666046666.666666 -0.9915704280737965 -0.12956884721781042 1.5194791950523045e-16 -2.553577168780102e-17 1.5194791950523045e-16 -2.553577168780102e-17 -0.9915703365631177 -0.12956954753300892
12666664000.0 -0.9931476955700813 -0.11686596931373788 1.515766256150672e-16 -2.7486725683818898e-17 1.515766256150672e-16 -2.7486725683818898e-17 -0.9931476130350706 -0.11686667070873705
12667281333.333334 -0.9945622349423808 -0.10414394282059942 1.5118029571600797e-16 -2.943235310657798e-17 1.5118029571600797e-16 -2.943235310657798e-17 -0.9945621613956851 -0.10414464518037529
12667898666.666666 -0.9958138144172701 -0.09140485225375246 1.5075900539826095e-16 -3.137233285105006e-17 1.5075900539826095e-16 -3.137233285105006e-17 -0.9958137498700643 -0.09140555546313443
12668516000.0 -0.9969022289224827 -0.07865078492417643 1.503128343681897e-16 -3.3306344875323706e-17 1.503128343681897e-16 -3.3306344875323706e-17 -0.9969021733844655 -0.07865148886786585
12669133333.333334 -0.9978273001204417 -0.06588383059714345 1.4984186643346535e-16 -3.5234070253382094e-17 1.4984186643346535e-16 -3.5234070253382094e-17 -0.9978272535998346 -0.06588453515973261
12669750666.666666 -0.9985888764375235 -0.05310608114941295 1.4934618948755156e-16 -3.715519122762285e-17 1.4934618948755156e-16 -3.715519122762285e-17 -0.9985888389410705 -0.05310678621540397
