! Parameters = {f0=12700.012000; bw=77.238000; Q=6100.000000; N=10; m_0_1=1.243739; m_1_1=-0.108665; m_1_2=1.078551; m_2_2=-0.109314; m_2_3=0.715514; m_2_8=-0.000749; m_2_9=0.035955; m_3_3=-0.111251; m_3_4=0.604043; m_3_7=-0.000149; m_3_8=-0.097237; m_3_9=-0.000749; m_4_4=-0.114176; m_4_5=0.440378; m_4_6=0.003368; m_4_7=-0.117786; m_4_8=-0.000149; m_5_5=-0.113794; m_5_6=0.847733; m_5_7=0.003368; m_6_6=-0.113795; m_6_7=0.440720; m_7_7=-0.114162; m_7_8=0.604161; m_8_8=-0.111253; m_8_9=0.715827; m_9_9=-0.109319; m_9_10=1.079629; m_10_10=-0.108675; m_10_11=1.244534}
!
! Created with skrf (http://scikit-rf.org).
# Hz S RI R 50.0 
!freq ReS11 ImS11 ReS21 ImS21 ReS12 ImS12 ReS22 ImS22
12607400000.0 -0.6030634848494894 -0.7976931949321244 7.851743354775587e-17 5.790639811753367e-17 7.851743354775587e-17 5.790639811753367e-17 -0.6030629621029857 -0.7976935901330807
12608017333.333334 -0.6108095102138991 -0.791777583815106 7.906766466733973e-17 5.712017988349783e-17 7.906766466733973e-17 5.712017988349783e-17 -0.6108089913694335 -0.7917779840726097
12608634666.666666 -0.6184975115047219 -0.7857867574999572 7.961003114403937e-17 5.63287436528214e-17 7.961003114403937e-17 5.63287436528214e-17 -0.618496996611198 -0.7857871627754925
12609252000.0 -0.6261267583975234 -0.7797212850874602 8.014448359898625e-17 5.553216801900386e-17 8.014448359898625e-17 5.553216801900386e-17 -0.626126247503464 -0.779721695342038
12609869333.333334 -0.633696526149286 -0.7735817427694096 8.067097343796652e-17 5.473053204175859e-17 8.067097343796652e-17 5.473053204175859e-17 -0.63369601930283 -0.7735821579635724
12610486666.666666 -0.6412060956671498 -0.7673687137739724 8.118945285580472e-17 5.392391523919823e-17 8.118945285580472e-17 5.392391523919823e-17 -0.6412055929160462 -0.7673691338677964
12611104000.0 -0.6486547535769606 -0.7610827883100785 8.169987484069302e-17 5.311239757994121e-17 8.169987484069302e-17 5.311239757994121e-17 -0.6486542549685653 -0.7610832132631792
12611721333.333334 -0.6560417922907328 -0.7547245635116124 8.2202193178405e-17 5.229605947523635e-17 8.2202193178405e-17 5.229605947523635e-17 -0.6560412978720037 -0.7547249932831478
12612338666.666666 -0.6633665100740864 -0.7482946433805053 8.269636245646668e-17 5.1474981770991806e-17 8.269636245646668e-17 5.1474981770991806e-17 -0.6633660198915785 -0.7482950779291792
12612956000.0 -0.670628211112905 -0.7417936387293549 8.31823380682326e-17 5.064924573978791e-17 8.31823380682326e-17 5.064924573978791e-17 -0.6706277252127657 -0.741794078013421
12613573333.333334 -0.6778262055792416 -0.7352221671235691 8.366007621687049e-17 4.981893307287398e-17 8.366007621687049e-17 4.981893307287398e-17 -0.677825724007209 -0.7352226111008373
12614190666.666666 -0.6849598096970683 -0.7285808528225173 8.412953391929175e-17 4.8984125872084714e-17 8.412953391929175e-17 4.8984125872084714e-17 -0.6849593324984626 -0.7285813014503536
12614808000.0 -0.6920283458071183 -0.721870326720316 8.459066900998663e-17 4.814490664174368e-17 8.459066900998663e-17 4.814490664174368e-17 -0.6920278730268405 -0.7218707799556492
12615425333.333334 -0.6990311424312838 -0.7150912262858805 8.504344014477426e-17 4.730135828054093e-17 8.504344014477426e-17 4.730135828054093e-17 -0.6990306741138127 -0.7150916840852078
12616042666.666666 -0.7059675343364085 -0.7082441955023732 8.548780680448402e-17 4.6453564073354074e-17 8.548780680448402e-17 4.6453564073354074e-17 -0.7059670705257918 -0.7082446578217602
12616660000.0 -0.7128368625974725 -0.701329884806019 8.592372929854875e-17 4.560160768304711e-17 8.592372929854875e-17 4.560160768304711e-17 -0.7128364033373275 -0.7013303516011078
12617277333.333334 -0.7196384746602148 -0.6943489510243042 8.635116876851904e-17 4.474557314223109e-17 8.635116876851904e-17 4.474557314223109e-17 -0.7196380199937213 -0.6943494222503153
12617894666.666666 -0.7263717244030191 -0.6873020573136782 8.67700871914884e-17 4.388554484500717e-17 8.67700871914884e-17 4.388554484500717e-17 -0.7263712743729178 -0.6873025329254172
12618512000.0 -0.7330359721985136 -0.6801898730963367 8.718044738345607e-17 4.302160753863833e-17 8.718044738345607e-17 4.302160753863833e-17 -0.7330355268470986 -0.6801903530481948
12619129333.333334 -0.7396305849740533 -0.6730130739969113 8.758221300257653e-17 4.2153846315252006e-17 8.758221300257653e-17 4.2153846315252006e-17 -0.7396301443431706 -0.6730135582428722
12619746666.666666 -0.746154936272056 -0.6657723417780849 8.79753485523559e-17 4.128234660345337e-17 8.79753485523559e-17 4.128234660345337e-17 -0.7461545004031006 -0.6657728302717306
12620364000.0 -0.7526084063095148 -0.6584683642758282 8.835981938475279e-17 4.040719415993384e-17 8.835981938475279e-17 4.040719415993384e-17 -0.7526079752434233 -0.6584688569703399
12620981333.333334 -0.7589903820366967 -0.6511018353342438 8.873559170318593e-17 3.952847506107407e-17 8.873559170318593e-17 3.952847506107407e-17 -0.7589899558139475 -0.65110233218241
12621598666.666666 -0.7653002571955764 -0.6436734547394475 8.910263256548012e-17 3.864627569447144e-17 8.910263256548012e-17 3.864627569447144e-17 -0.7652998358561827 -0.6436739556936658
12622216000.0 -0.7715374323773292 -0.6361839281531955 8.946090988671109e-17 3.77606827504785e-17 8.946090988671109e-17 3.77606827504785e-17 -0.771537015960836 -0.6361844331654777
12622833333.333334 -0.777701315079308 -0.6286339670458045 8.981039244197424e-17 3.687178321369783e-17 8.981039244197424e-17 3.687178321369783e-17 -0.7777009036247904 -0.6286344760677828
12623450666.666666 -0.7837913197612609 -0.6210242886286583 9.01510498690636e-17 3.597966435446726e-17 9.01510498690636e-17 3.597966435446726e-17 -0.7837909133073175 -0.621024801611588
12624068000.0 -0.7898068679010413 -0.6133556157859624 9.048285267107428e-17 3.508441372029737e-17 9.048285267107428e-17 3.508441372029737e-17 -0.7898064664857924 -0.6133561326807275
12624685333.333334 -0.7957473880495816 -0.6056286770060512 9.080577221891706e-17 3.4186119127296076e-17 9.080577221891706e-17 3.4186119127296076e-17 -0.7957469917106645 -0.6056291977631681
12625302666.666666 -0.8016123158850034 -0.5978442063124079 9.111978075373743e-17 3.328486865159903e-17 9.111978075373743e-17 3.328486865159903e-17 -0.8016119246595707 -0.5978447308820325
12625920000.0 -0.8074010942664869 -0.5900029431935999 9.142485138927287e-17 3.23807506207133e-17 9.142485138927287e-17 3.23807506207133e-17 -0.8074007081912016 -0.5900034715255302
12626537333.333334 -0.8131131732869552 -0.5821056325333476 9.172095811409826e-17 3.147385360491562e-17 9.172095811409826e-17 3.147385360491562e-17 -0.8131127923979872 -0.5821061645770289
12627154666.666666 -0.8187480103254172 -0.5741530245396264 9.200807579380436e-17 3.056426640857853e-17 9.200807579380436e-17 3.056426640857853e-17 -0.8187476346584401 -0.5741535602441568
12627772000.0 -0.8243050700986116 -0.5661458746732634 9.228618017308943e-17 2.9652078061476945e-17 9.228618017308943e-17 2.9652078061476945e-17 -0.8243046996887995 -0.5661464139873976
12628389333.333334 -0.8297838247116244 -0.5580849435764941 9.255524787774851e-17 2.873737781013167e-17 9.255524787774851e-17 2.873737781013167e-17 -0.8297834595936494 -0.5580854864486497
12629006666.666666 -0.8351837537082855 -0.5499709970003586 9.281525641660399e-17 2.78202551090459e-17 9.281525641660399e-17 2.78202551090459e-17 -0.8351833939163124 -0.5499715433786196
12629624000.0 -0.8405043441204272 -0.5418048057322135 9.306618418332118e-17 2.690079961201981e-17 9.306618418332118e-17 2.690079961201981e-17 -0.8405039896881124 -0.5418053555643363
12630241333.333334 -0.8457450905167111 -0.53358714552237 9.330801045815943e-17 2.5979101163378096e-17 9.330801045815943e-17 2.5979101163378096e-17 -0.8457447414771985 -0.5335876987557883
12630858666.666666 -0.8509054950505514 -0.5253187970105462 9.354071540962332e-17 2.5055249789227527e-17 9.354071540962332e-17 2.5055249789227527e-17 -0.8509051514364692 -0.5253193535923751
12631476000.0 -0.8559850675075713 -0.5170005456514435 9.37642800960407e-17 2.4129335688652447e-17 9.37642800960407e-17 2.4129335688652447e-17 -0.8559847293510293 -0.5170011055284857
12632093333.333334 -0.8609833253519769 -0.5086331816404458 9.397868646703694e-17 2.320144922496094e-17 9.397868646703694e-17 2.320144922496094e-17 -0.8609829926845641 -0.5086337447591965
12632710666.666666 -0.8658997937724894 -0.5002174998384126 9.418391736493625e-17 2.227168091686797e-17 9.418391736493625e-17 2.227168091686797e-17 -0.8658994666252686 -0.5002180661450633
12633328000.0 -0.8707340057275156 -0.4917542996960438 9.43799565260741e-17 2.1340121429669365e-17 9.43799565260741e-17 2.1340121429669365e-17 -0.8707336841310238 -0.49175486913648947
12633945333.333334 -0.8754855019893897 -0.4832443851781594 9.456678858201516e-17 2.040686156644283e-17 9.456678858201516e-17 2.040686156644283e-17 -0.8754851859736333 -0.48324495769800235
12634562666.666666 -0.8801538311880679 -0.4746885646872031 9.474439906069172e-17 1.9471992259201316e-17 9.474439906069172e-17 1.9471992259201316e-17 -0.8801535207825201 -0.4746891402317581
12635180000.0 -0.8847385498539919 -0.46608765098647154 9.491277438745233e-17 1.8535604560053664e-17 9.491277438745233e-17 1.8535604560053664e-17 -0.8847382450875896 -0.4660882295007714
12635797333.333334 -0.8892392224602296 -0.4574424611228806 9.507190188602392e-17 1.7597789632351618e-17 9.507190188602392e-17 1.7597789632351618e-17 -0.8892389233613717 -0.4574430425516818
12636414666.666666 -0.8936554214637954 -0.4487538163494511 9.522176977938431e-17 1.665863874184311e-17 9.522176977938431e-17 1.665863874184311e-17 -0.8936551280603406 -0.44875440063723887
12637032000.0 -0.8979867273463467 -0.44002254204714325 9.53623671905524e-17 1.5718243247792013e-17 9.53623671905524e-17 1.5718243247792013e-17 -0.8979864396656082 -0.44002312913813585
12637649333.333334 -0.9022327286539773 -0.431249467646547 9.549368414328573e-17 1.4776694594119346e-17 9.549368414328573e-17 1.4776694594119346e-17 -0.9022324467227234 -0.4312500574847025
12638266666.666666 -0.906393022036323 -0.42243542654906785 9.561571156269436e-17 1.3834084300526396e-17 9.561571156269436e-17 1.3834084300526396e-17 -0.9063927458807732 -0.42243601907808903
12638884000.0 -0.9104672122848747 -0.4135812560477566 9.572844127576515e-17 1.2890503953616441e-17 9.572844127576515e-17 1.2890503953616441e-17 -0.9104669419306969 -0.4135818512110955
12639501333.333334 -0.9144549123705338 -0.4046877972477434 9.583186601180031e-17 1.1946045198010964e-17 9.583186601180031e-17 1.1946045198010964e-17 -0.914454647842842 -0.40468839498860787
12640118666.666666 -0.9183557434803078 -0.3957558949864938 9.592597940276618e-17 1.1000799727482713e-17 9.592597940276618e-17 1.1000799727482713e-17 -0.9183554848036614 -0.39575649524785234
12640736000.0 -0.9221693350534829 -0.38678639775313745 9.601077598356032e-17 1.0054859276027452e-17 9.601077598356032e-17 1.0054859276027452e-17 -0.9221690822518811 -0.38678700047772424
12641353333.333334 -0.9258953248165467 -0.3777801576084882 9.608625119218121e-17 9.108315609044556e-18 9.608625119218121e-17 9.108315609044556e-18 -0.9258950779134293 -0.37778076273880923
12641970666.666666 -0.9295333588178427 -0.3687380301035564 9.615240136982141e-17 8.161260514395043e-18 9.615240136982141e-17 8.161260514395043e-18 -0.9295331178360884 -0.3687386375818955
12642588000.0 -0.9330830914610849 -0.3596608741985375 9.62092237608663e-17 7.213785793545698e-18 9.62092237608663e-17 7.213785793545698e-18 -0.9330828564230059 -0.3596614839669603
12643205333.333334 -0.9365441855381955 -0.35054955218118716 9.625671651280792e-17 6.26598325268798e-18 9.625671651280792e-17 6.26598325268798e-18 -0.9365439564655369 -0.35055016418154744
12643822666.666666 -0.9399163122613782 -0.3414049295848021 9.629487867607229e-17 5.3179446938380256e-18 9.629487867607229e-17 5.3179446938380256e-18 -0.9399160891753183 -0.34140554375874793
12644440000.0 -0.9431991512943043 -0.33222787510613194 9.63237102037569e-17 4.369761905992562e-18 9.63237102037569e-17 4.369761905992562e-18 -0.9431989342154498 -0.33222849139511024
12645057333.333334 -0.9463923907825529 -0.32301926052283053 9.634321195128375e-17 3.4215266562457533e-18 9.634321195128375e-17 3.4215266562457533e-18 -0.9463921797309368 -0.3230198788680928
12645674666.666666 -0.9494957273832342 -0.31377996061064084 9.635338567596397e-17 2.473330680928004e-18 9.635338567596397e-17 2.473330680928004e-18 -0.9494955223783168 -0.31378058095324945
12646292000.0 -0.9525088662938722 -0.30451085306010744 9.635423403647609e-17 1.5252656767293452e-18 9.635423403647609e-17 1.5252656767293452e-18 -0.9525086673545363 -0.30451147534094053
12646909333.333334 -0.95543152128029 -0.29521281839354974 9.634576059225654e-17 5.774232918848516e-19 9.634576059225654e-17 5.774232918848516e-19 -0.9554313284248412 -0.29521344255330734
12647526666.666666 -0.9582634147038915 -0.2858867398811474 9.632796980280373e-17 -3.701048826947909e-19 9.632796980280373e-17 -3.701048826947909e-19 -0.9582632279500547 -0.28588736586035635
12648144000.0 -0.9610042775480224 -0.2765335034570586 9.630086702689562e-17 -1.3172273222535759e-18 9.630086702689562e-17 -1.3172273222535759e-18 -0.9610040969129431 -0.2765341311960795
12648761333.333334 -0.9636538494434971 -0.2671539976353716 9.626445852172039e-17 -2.2638525770024255e-18 9.626445852172039e-17 -2.2638525770024255e-18 -0.963653674943736 -0.26715462707440313
12649378666.666666 -0.9662118786933316 -0.2577491134256988 9.621875144192122e-17 -3.2098892809317164e-18 9.621875144192122e-17 -3.2098892809317164e-18 -0.9662117103448655 -0.257749744504784
12649996000.0 -0.9686781222966903 -0.24831974424839806 9.61637538385532e-17 -4.1552461606259184e-18 9.61637538385532e-17 -4.1552461606259184e-18 -0.9686779601149099 -0.2483203769074302
12650613333.333334 -0.9710523459719477 -0.23886678584978463 9.609947465795544e-17 -5.099832044043965e-18 9.609947465795544e-17 -5.099832044043965e-18 -0.9710521899716581 -0.23886742002851302
12651230666.666666 -0.9733343241789211 -0.22939113621715015 9.602592374053749e-17 -6.043555869283704e-18 9.602592374053749e-17 -6.043555869283704e-18 -0.9733341743743363 -0.229391771855185
12651848000.0 -0.9755238401403548 -0.2198936954931802 9.594311181947665e-17 -6.986326693370455e-18 9.594311181947665e-17 -6.986326693370455e-18 -0.9755236965451007 -0.21989433252999957
12652465333.333334 -0.9776206858624602 -0.21037536589069541 9.585105051933377e-17 -7.928053700978818e-18 9.585105051933377e-17 -7.928053700978818e-18 -0.9776205484895719 -0.21037600426565037
12653082666.666666 -0.9796246621546751 -0.20083705160694534 9.574975235458176e-17 -8.868646213163325e-18 9.574975235458176e-17 -8.868646213163325e-18 -0.9796245310165933 -0.2008376912592653
12653700000.0 -0.9815355786486404 -0.1912796587374352 9.563923072804523e-17 -9.808013696099647e-18 9.563923072804523e-17 -9.808013696099647e-18 -0.9815354537572146 -0.19128029960623472
12654317333.333334 -0.9833532538162099 -0.18170409519024167 9.551949992926203e-17 -1.0746065769743123e-17 9.551949992926203e-17 -1.0746065769743123e-17 -0.9833531351826932 -0.18170473721452526
12654934666.666666 -0.9850775149867456 -0.1721112705994865 9.539057513275299e-17 -1.1682712216534301e-17 9.539057513275299e-17 -1.1682712216534301e-17 -0.9850774026217971 -0.17211191371815523
12655552000.0 -0.9867081983635215 -0.16250209623892545 9.525247239620868e-17 -1.2617862990058096e-17 9.525247239620868e-17 -1.2617862990058096e-17 -0.986708092277203 -0.16250274039078216
12656169333.333334 -0.9882451490392387 -0.15287748493563333 9.510520865859588e-17 -1.3551428223658786e-17 9.510520865859588e-17 -1.3551428223658786e-17 -0.9882450492410154 -0.15287813005938886
12656786666.666666 -0.9896882210107887 -0.1432383509830097 9.494880173817216e-17 -1.4483318239085622e-17 9.494880173817216e-17 -1.4483318239085622e-17 -0.989688127509527 -0.14323899701728843
12657404000.0 -0.9910372771931009 -0.13358561005406544 9.478327033042243e-17 -1.5413443555073623e-17 9.478327033042243e-17 -1.5413443555073623e-17 -0.9910371899970675 -0.1335862569374112
12658021333.333334 -0.9922921894321711 -0.12392017911438147 9.460863400590629e-17 -1.6341714895934302e-17 9.460863400590629e-17 -1.6341714895934302e-17 -0.9922921085490344 -0.1239208267852636
12658638666.666666 -0.9934528385172161 -0.11424297633517094 9.442491320802996e-17 -1.726804320007756e-17 9.442491320802996e-17 -1.726804320007756e-17 -0.9934527639540432 -0.11424362473198985
12659256000.0 -0.994519114192046 -0.10455492100566197 9.423212925072185e-17 -1.8192339628576482e-17 9.423212925072185e-17 -1.8192339628576482e-17 -0.9945190459553036 -0.10455557006675524
12659873333.333334 -0.995490915165489 -0.0948569334461645 9.403030431603768e-17 -1.9114515573643144e-17 9.403030431603768e-17 -1.9114515573643144e-17 -0.9954908532610415 -0.09485758310981246
12660490666.666666 -0.9963681491210155 -0.08514993492067274 9.38194614516773e-17 -2.0034482667105474e-17 9.38194614516773e-17 -2.0034482667105474e-17 -0.9963680935541263 -0.08515058512510469
12661108000.0 -0.9971507327255592 -0.07543484754881209 9.359962456841247e-17 -2.0952152788884174e-17 9.359962456841247e-17 -2.0952152788884174e-17 -0.997150683500889 -0.07543549823221193
12661725333.333334 -0.9978385916373709 -0.06571259421892098 9.337081843744737e-17 -2.1867438075378702e-17 9.337081843744737e-17 -2.1867438075378702e-17 -0.9978385487589763 -0.06571324531943304
12662342666.666666 -0.9984316605131184 -0.05598409849992779 9.313306868768065e-17 -2.2780250927891374e-17 9.313306868768065e-17 -2.2780250927891374e-17 -0.9984316239844537 -0.05598474995566292
12662960000.0 -0.9989298830140811 -0.04625028455378614 9.288640180289668e-17 -2.3690504020980357e-17 9.288640180289668e-17 -2.3690504020980357e-17 -0.9989298528379975 -0.04625093630282745
12663577333.333334 -0.9993332118115053 -0.03651207704765539 9.263084511887044e-17 -2.4598110310798664e-17 9.263084511887044e-17 -2.4598110310798664e-17 -0.9993331879902494 -0.03651272902806415
12664194666.666666 -0.9996416085910965 -0.02677040106606152 9.236642682039261e-17 -2.5502983043400213e-17 9.236642682039261e-17 -2.5502983043400213e-17 -0.9996415911263119 -0.026771053215883096
12664812000.0 -0.9998550440566631 -0.017026182023018487 9.20931759382134e-17 -2.6405035763014538e-17 9.20931759382134e-17 -2.6405035763014538e-17 -0.9998550329493887 -0.017026834280288162
12665429333.333334 -0.9999734979328972 -0.007280345574089674 9.181112234590489e-17 -2.7304182320291995e-17 9.181112234590489e-17 -2.7304182320291995e-17 -0.9999734931835692 -0.007280997876838593
12666046666.666666 -0.999996958967301 0.002466182471402928 9.152029675664852e-17 -2.820033688050076e-17 9.152029675664852e-17 -2.820033688050076e-17 -0.9999969605757502 0.0024655301851419223
12666664000.0 -0.9999254249312561 0.012212476238638973 9.122073071992862e-17 -2.9093413931731425e-17 9.122073071992862e-17 -2.9093413931731425e-17 -0.9999254328967099 0.012211824030825422
12667281333.333334 -0.999758902620235 0.021957609874855663 9.091245661816823e-17 -2.998332829300269e-17 9.091245661816823e-17 -2.998332829300269e-17 -0.9997589169413167 0.021956957807435607
12667898666.666666 -0.9994974078531557 0.031700657637583694 9.059550766326473e-17 -3.086999512239384e-17 9.059550766326473e-17 -3.086999512239384e-17 -0.999497428527886 0.03170000577248382
12668516000.0 -0.9991409654708754 0.041440693982588386 9.026991789305526e-17 -3.1753329925115446e-17 9.026991789305526e-17 -3.1753329925115446e-17 -0.9991409924966717 0.04144004238171013
12669133333.333334 -0.998689609333841 0.05117679365153657 8.993572216771201e-17 -3.263324856152028e-17 8.993572216771201e-17 -3.263324856152028e-17 -0.9986896427075163 0.0511761423767502
12669750666.666666 -0.9981433823188601 0.060908031760175736 8.959295616604209e-17 -3.350966725512552e-17 8.959295616604209e-17 -3.350966725512552e-17 -0.9981434220366253 0.06090738087331452
12670368000.0 -0.9975023363150319 0.07063348388608007 8.924165638172241e-17 -3.4382502600560866e-17 8.924165638172241e-17 -3.4382502600560866e-17 -0.997502382372497 0.07063283344893448
