! Parameters = {f0=12700.012000; bw=77.238000; Q=6100.000000; N=10; m_0_1=1.280576; m_1_1=0.443888; m_1_2=1.115388; m_2_2=0.443239; m_2_3=0.752351; m_2_8=0.001092; m_2_9=0.037796; m_3_3=0.441302; m_3_4=0.640880; m_3_7=0.001692; m_3_8=-0.095396; m_3_9=0.001092; m_4_4=0.438377; m_4_5=0.477215; m_4_6=0.005209; m_4_7=-0.115945; m_4_8=0.001692; m_5_5=0.438759; m_5_6=0.884570; m_5_7=0.005209; m_6_6=0.438758; m_6_7=0.477557; m_7_7=0.438391; m_7_8=0.640998; m_8_8=0.441300; m_8_9=0.752664; m_9_9=0.443234; m_9_10=1.116466; m_10_10=0.443878; m_10_11=1.281371}
!
! Created with skrf (http://scikit-rf.org).
# Hz S RI R 50.0 
!freq ReS11 ImS11 ReS21 ImS21 ReS12 ImS12 ReS22 ImS22
12607400000.0 0.7899197949461427 0.6132101740448086 -1.0827307540722587e-16 -4.225806230445188e-17 -1.0827307540722587e-16 -4.225806230445188e-17 0.7899193812351949 0.613210706975039
12608017333.333334 0.7965177865033257 0.6046150972177776 -1.0870695269170377e-16 -4.106471620918138e-17 -1.0870695269170377e-16 -4.106471620918138e-17 0.7965173786111361 0.6046156345731267
12608634666.666666 0.8030222598309978 0.5959490332366848 -1.0912768654343906e-16 -3.986693660267947e-17 -1.0912768654343906e-16 -3.986693660267947e-17 0.8030218578048837 0.5959495749536314
12609252000.0 0.8094324512465689 0.5872129995740831 -1.0953523190561444e-16 -3.8664868146069564e-17 -1.0953523190561444e-16 -3.8664868146069564e-17 0.8094320551331559 0.5872135455886017
12609869333.333334 0.8157476081369983 0.5784080219175622 -1.0992954531252061e-16 -3.745865595550466e-17 -1.0992954531252061e-16 -3.745865595550466e-17 0.8157472179822121 0.578408572165128
12610486666.666666 0.8219669890470728 0.5695351340494366 -1.1031058489411284e-16 -3.624844558469439e-17 -1.1031058489411284e-16 -3.624844558469439e-17 0.8219666048961355 0.5695356884650343
12611104000.0 0.8280898637666414 0.5605953777251158 -1.1067831038039163e-16 -3.503438300733646e-17 -1.1067831038039163e-16 -3.503438300733646e-17 0.8280894856640658 0.5605959362432477
12611721333.333334 0.8341155134161197 0.5515898025511196 -1.1103268310556593e-16 -3.381661459958358e-17 -1.1103268310556593e-16 -3.381661459958358e-17 0.8341151414057041 0.5515903651058119
12612338666.666666 0.8400432305310565 0.542519465861611 -1.1137366601204773e-16 -3.259528712239384e-17 -1.1137366601204773e-16 -3.259528712239384e-17 0.8400428646558791 0.5425200323864227
12612956000.0 0.8458723191451898 0.5333854325942533 -1.1170122365424155e-16 -3.137054770387306e-17 -1.1170122365424155e-16 -3.137054770387306e-17 0.8458719594476058 0.5333860030222843
12613573333.333334 0.8516020948720268 0.5241887751653942 -1.120153222021346e-16 -3.014254382160951e-17 -1.120153222021346e-16 -3.014254382160951e-17 0.851601741393661 0.5241893494292926
12614190666.666666 0.8572318849853453 0.5149305733439141 -1.1231592944470805e-16 -2.891142328491314e-17 -1.1231592944470805e-16 -2.891142328491314e-17 0.8572315377670882 0.514931151375884
12614808000.0 0.8627610284981045 0.5056119141245714 -1.1260301479314117e-16 -2.7677334217069905e-17 -1.1260301479314117e-16 -2.7677334217069905e-17 0.8627606875801083 0.5056124958563812
12615425333.333334 0.8681888762400648 0.4962338916003563 -1.1287654928382632e-16 -2.644042503754663e-17 -1.1287654928382632e-16 -2.644042503754663e-17 0.8681885416617374 0.496234476963347
12616042666.666666 0.8735147909340049 0.48679760683403384 -1.131365055811875e-16 -2.52008444441706e-17 -1.131365055811875e-16 -2.52008444441706e-17 0.8735144627340063 0.4867981957591264
12616660000.0 0.8787381472705458 0.47730416772887024 -1.1338285798030416e-16 -2.3958741395282976e-17 -1.1338285798030416e-16 -2.3958741395282976e-17 0.878737825486784 0.47730476014657475
12617277333.333334 0.8838583319815932 0.4677546888985046 -1.1361558240933954e-16 -2.2714265091864852e-17 -1.1361558240933954e-16 -2.2714265091864852e-17 0.8838580166512182 0.4677552847389272
12617894666.666666 0.8888747439122073 0.458150291536334 -1.1383465643176972e-16 -2.146756495966405e-17 -1.1383465643176972e-16 -2.146756495966405e-17 0.8888744350716099 0.4581508907291872
12618512000.0 0.8937867940914772 0.44849210328332434 -1.140400592484291e-16 -2.021879063123086e-17 -1.140400592484291e-16 -2.021879063123086e-17 0.8937864917762796 0.4484927057579322
12619129333.333334 0.8985939058012985 0.4387812580963174 -1.1423177169933715e-16 -1.8968091928065732e-17 -1.1423177169933715e-16 -1.8968091928065732e-17 0.8985936100463559 0.43878186378162676
12619746666.666666 0.9032955146443534 0.42901889611439376 -1.1440977626535314e-16 -1.771561884261203e-17 -1.1440977626535314e-16 -1.771561884261203e-17 0.9032952254837462 0.42901950493898106
12620364000.0 0.9078910686103637 0.4192061635250036 -1.1457405706962287e-16 -1.6461521520300265e-17 -1.1457405706962287e-16 -1.6461521520300265e-17 0.9078907860773954 0.41920677541708407
12620981333.333334 0.9123800281406865 0.40934421242985936 -1.1472459987882355e-16 -1.5205950241623464e-17 -1.1472459987882355e-16 -1.5205950241623464e-17 0.9123797522678782 0.40934482731729444
12621598666.666666 0.9167618661919031 0.39943420070915264 -1.1486139210422481e-16 -1.3949055404112264e-17 -1.1486139210422481e-16 -1.3949055404112264e-17 0.9167615970109931 0.39943481851946033
12622216000.0 0.921036068297583 0.38947729188586894 -1.149844228025444e-16 -1.269098750436829e-17 -1.149844228025444e-16 -1.269098750436829e-17 0.9210358058395185 0.38947791254623004
12622833333.333334 0.9252021326287164 0.3794746549890993 -1.1509368267661106e-16 -1.1431897120063386e-17 -1.1509368267661106e-16 -1.1431897120063386e-17 0.9252018769236533 0.3794752784263677
12623450666.666666 0.9292595700525911 0.36942746441689206 -1.1518916407582665e-16 -1.0171934891975425e-17 -1.1518916407582665e-16 -1.0171934891975425e-17 0.9292593211298898 0.36942809055760284
12624068000.0 0.9332079041902785 0.3593368997982377 -1.1527086099643944e-16 -8.911251505945116e-18 -1.1527086099643944e-16 -8.911251505945116e-18 0.9332076620785001 0.35933752856861556
12624685333.333334 0.9370466714725691 0.3492041458545412 -1.1533876908161254e-16 -7.649997674912994e-18 -1.1533876908161254e-16 -7.649997674912994e-18 0.937046436199472 0.34920477718050924
12625302666.666666 0.940775421194301 0.33903039226079185 -1.1539288562129966e-16 -6.388324120947246e-18 -1.1539288562129966e-16 -6.388324120947246e-18 0.9407751927868382 0.33903102606798075
12625920000.0 0.9443937155674255 0.32881683350548574 -1.154332095519263e-16 -5.126381557215071e-18 -1.154332095519263e-16 -5.126381557215071e-18 0.9443934940517411 0.3288174697192417
12626537333.333334 0.9479011297722687 0.3185646687507549 -1.1545974145587034e-16 -3.864320670054021e-18 -1.1545974145587034e-16 -3.864320670054021e-18 0.9479009151736961 0.3185653072961495
12627154666.666666 0.9512972520074722 0.3082751016914165 -1.154724835607504e-16 -2.6022921009879575e-18 -1.154724835607504e-16 -2.6022921009879575e-18 0.9512970443505294 0.30827574249325435
12627772000.0 0.9545816835383912 0.2979493404134851 -1.1547143973851632e-16 -1.3404464287553617e-18 -1.1547143973851632e-16 -1.3404464287553617e-18 0.9545814828467799 0.2979499833963138
12628389333.333334 0.9577540387437892 0.287588597252712 -1.1545661550434437e-16 -7.893415141780143e-20 -1.1545661550434437e-16 -7.893415141780143e-20 0.9577538450403883 0.28758924234082955
12629006666.666666 0.9608139451612362 0.2771940886518379 -1.154280180153361e-16 1.182094331610158e-18 -1.154280180153361e-16 1.182094331610158e-18 0.9608137584681051 0.27719473576930354
12629624000.0 0.9637610435307538 0.2667670350180728 -1.1538565606902378e-16 2.44248873742692e-18 -1.1538565606902378e-16 2.44248873742692e-18 0.9637608638691262 0.2667676840887146
12630241333.333334 0.9665949878370411 0.25630866057964485 -1.1532954010167855e-16 3.702098917544732e-18 -1.1532954010167855e-16 3.702098917544732e-18 0.9665948152273226 0.25630931152706904
12630858666.666666 0.9693154453500542 0.2458201932422297 -1.1525968218642592e-16 4.960774875728178e-18 -1.1525968218642592e-16 4.960774875728178e-18 0.9693152798118198 0.24582084598982945
12631476000.0 0.9719220966641534 0.2353028644444814 -1.1517609603116372e-16 6.218366785863229e-18 -1.1517609603116372e-16 6.218366785863229e-18 0.971921938216146 0.23530351891544607
12632093333.333334 0.9744146357355079 0.2247579090138078 -1.1507879697629041e-16 7.474725009720436e-18 -1.1507879697629041e-16 7.474725009720436e-18 0.9744144843956374 0.22475856513113207
12632710666.666666 0.9767927699180768 0.21418656502122685 -1.1496780199223585e-16 8.729700114750976e-18 -1.1496780199223585e-16 8.729700114750976e-18 0.9767926257034167 0.21418722270771973
12633328000.0 0.9790562199979964 0.20359007363586695 -1.1484312967679832e-16 9.983142891847886e-18 -1.1484312967679832e-16 9.983142891847886e-18 0.9790560829247804 0.20359073281416046
12633945333.333334 0.9812047202263012 0.1929696789794912 -1.1470480025229238e-16 1.1234904373027977e-17 -1.1470480025229238e-16 1.1234904373027977e-17 0.9812045903099256 0.19297033957205018
12634562666.666666 0.9832380183501648 0.18232662798028942 -1.1455283556250046e-16 1.2484835849123831e-17 -1.1455283556250046e-16 1.2484835849123831e-17 0.9832378956051827 0.18232728990942013
12635180000.0 0.9851558756425034 0.17166217022650462 -1.143872590694334e-16 1.3732788887418374e-17 -1.143872590694334e-16 1.3732788887418374e-17 0.9851557600826248 0.17166283341436384
12635797333.333334 0.9869580669300132 0.1609775578196922 -1.142080958498993e-16 1.4978615349246166e-17 -1.142080958498993e-16 1.4978615349246166e-17 0.986957958568103 0.16097822218829663
12636414666.666666 0.9886443806195866 0.15027404522782467 -1.1401537259188252e-16 1.6222167407536423e-17 -1.1401537259188252e-16 1.6222167407536423e-17 0.9886442794676635 0.15027471069906004
12637032000.0 0.9902146187231856 0.1395528891378378 -1.1380911759072843e-16 1.746329756434462e-17 -1.1380911759072843e-16 1.746329756434462e-17 0.9902145247924199 0.13955355563346783
12637649333.333334 0.9916685968810649 0.1288153483081961 -1.13589360745141e-16 1.870185866830529e-17 -1.13589360745141e-16 1.870185866830529e-17 0.9916685101817795 0.12881601574987217
12638266666.666666 0.9930061443834252 0.11806268342107593 -1.133561335529902e-16 1.993770393205321e-17 -1.133561335529902e-16 1.993770393205321e-17 0.9930060649250931 0.118063351730346
12638884000.0 0.9942271041904559 0.10729615693435032 -1.1310946910692926e-16 2.1170686949590826e-17 -1.1310946910692926e-16 2.1170686949590826e-17 0.9942270319816983 0.10729682603266799
12639501333.333334 0.9953313329507756 0.09651703293333666 -1.128494020898239e-16 2.240066171360685e-17 -1.128494020898239e-16 2.240066171360685e-17 0.9953312679993607 0.09651770274207057
12640118666.666666 0.9963187010182416 0.0857265769825515 -1.125759687699976e-16 2.362748263271797e-17 -1.125759687699976e-16 2.362748263271797e-17 0.9963186433310874 0.08572724742299476
12640736000.0 0.9971890924672219 0.07492605597666993 -1.1228920699627483e-16 2.4851004548724585e-17 -1.1228920699627483e-16 2.4851004548724585e-17 0.9971890420503916 0.07492672697004903
12641353333.333334 0.9979424051061405 0.06411673799245994 -1.11989156192866e-16 2.6071082753680543e-17 -1.11989156192866e-16 2.6071082753680543e-17 0.9979423619648419 0.06411740945994408
12641970666.666666 0.9985785504895253 0.05329989213930422 -1.1167585735403391e-16 2.7287573007045802e-17 -1.1167585735403391e-16 2.7287573007045802e-17 0.998578514628113 0.05330056400201478
12642588000.0 0.9990974539283709 0.04247678841047905 -1.1134935303859778e-16 2.850033155267809e-17 -1.1134935303859778e-16 2.850033155267809e-17 0.9990974253503454 0.04247746058949871
12643205333.333334 0.9994990544989136 0.03164869753401756 -1.1100968736424507e-16 2.9709215135795144e-17 -1.1100968736424507e-16 2.9709215135795144e-17 0.9994990332069181 0.031649369950399506
12643822666.666666 0.9997833050497833 0.020816890823401234 -1.1065690600165608e-16 3.091408101987972e-17 -1.1065690600165608e-16 3.091408101987972e-17 0.9997832910456068 0.020817563398178536
12644440000.0 0.9999501722075381 0.00998264002843864 -1.1029105616845411e-16 3.211478700348817e-17 -1.1029105616845411e-16 3.211478700348817e-17 0.999950165492112 0.009983312682633444
12645057333.333334 0.9999996363805808 -0.000852782814077671 -1.0991218662296814e-16 3.331119143700735e-17 -1.0991218662296814e-16 3.331119143700735e-17 0.9999996369539829 -0.0008521101594447942
12645674666.666666 0.999931691761466 -0.01168810552971946 -1.0952034765781513e-16 3.4503153239336106e-17 -1.0952034765781513e-16 3.4503153239336106e-17 0.9999316996229172 -0.0116874329536203
12646292000.0 0.999746346327576 -0.022522055955986338 -1.0911559109329446e-16 3.569053191451411e-17 -1.0911559109329446e-16 3.569053191451411e-17 0.9997463614754416 -0.02252138353737575
12646909333.333334 0.9994436218401858 -0.033353362091299354 -1.086979702706229e-16 3.6873187568212224e-17 -1.086979702706229e-16 3.6873187568212224e-17 0.9994436442719761 -0.033352689909106
12647526666.666666 0.9990235538419107 -0.044180752244629536 -1.0826754004496831e-16 3.805098092421639e-17 -1.0826754004496831e-16 3.805098092421639e-17 0.9990235835542809 -0.04418008037774659
12648144000.0 0.9984861916525256 -0.05500295518477702 -1.0782435677831485e-16 3.922377334079657e-17 -1.0782435677831485e-16 3.922377334079657e-17 0.9984862286412771 -0.05500228371205298
12648761333.333334 0.9978315983631814 -0.06581870028951123 -1.0736847833215683e-16 4.039142682698523e-17 -1.0736847833215683e-16 4.039142682698523e-17 0.9978316426232616 -0.06581802928974063
12649378666.666666 0.9970598508290015 -0.0766267176947535 -1.0689996406001097e-16 4.155380405878367e-17 -1.0689996406001097e-16 4.155380405878367e-17 0.9970599023545041 -0.0766260472466676
12649996000.0 0.9961710396600456 -0.08742573844381178 -1.0641887479974797e-16 4.271076839529778e-17 -1.0641887479974797e-16 4.271076839529778e-17 0.9961710984442125 -0.08742506862606947
12650613333.333334 0.9951652692106784 -0.09821449463628251 -1.059252728657595e-16 4.386218389476182e-17 -1.059252728657595e-16 4.386218389476182e-17 0.9951653352458992 -0.0982138255274609
12651230666.666666 0.9940426575673272 -0.10899171957680004 -1.0541922204095359e-16 4.500791533046946e-17 -1.0541922204095359e-16 4.500791533046946e-17 0.9940427308451422 -0.10899105125538544
12651848000.0 0.9928033365345916 -0.11975614792404077 -1.0490078756856157e-16 4.614782820665246e-17 -1.0490078756856157e-16 4.614782820665246e-17 0.992803417045691 -0.11975548046841937
12652465333.333334 0.991447451619791 -0.1305065158390307 -1.0437003614379048e-16 4.728178877422695e-17 -1.0437003614379048e-16 4.728178877422695e-17 0.9914475393540171 -0.13050584932747947
12653082666.666666 0.9899751620158882 -0.14124156113353215 -1.038270359053154e-16 4.8409664046423926e-17 -1.038270359053154e-16 4.8409664046423926e-17 0.989975256962235 -0.1412408956442093
12653700000.0 0.988386640582756 -0.1519600234185168 -1.0327185642655398e-16 4.953132181442917e-17 -1.0327185642655398e-16 4.953132181442917e-17 0.9883867427293729 -0.15195935902945315
12654317333.333334 0.9866820738269376 -0.16266064425175253 -1.0270456870684745e-16 5.0646630662765037e-17 -1.0270456870684745e-16 5.0646630662765037e-17 0.9866821831611305 -0.1626599810408422
12654934666.666666 0.9848616618797129 -0.17334216728583762 -1.0212524516240728e-16 5.1755459984715906e-17 -1.0212524516240728e-16 5.1755459984715906e-17 0.9848617783879441 -0.1733415053308286
12655552000.0 0.9829256184735947 -0.18400333841570607 -1.0153395961712435e-16 5.2857679997588794e-17 -1.0153395961712435e-16 5.2857679997588794e-17 0.982925742141485 -0.1840026777941913
12656169333.333334 0.9808741709172765 -0.19464290592561806 -1.0093078729323479e-16 5.395316175783293e-17 -1.0093078729323479e-16 5.395316175783293e-17 0.9808743017296091 -0.19464224671502658
12656786666.666666 0.9787075600689011 -0.2052596206364037 -1.0031580480178043e-16 5.504177717613407e-17 -1.0031580480178043e-16 5.504177717613407e-17 0.9787076980096221 -0.20525896291399137
12657404000.0 0.9764260403078053 -0.21585223605198714 -9.96890901329372e-17 5.61233990323432e-17 -9.96890901329372e-17 5.61233990323432e-17 0.9764261853600242 -0.21585157989482737
12658021333.333334 0.9740298795046308 -0.2264195085058191 -9.905072264617061e-17 5.719790099031883e-17 -9.905072264617061e-17 5.719790099031883e-17 0.9740300316506247 -0.2264188539907942
12658638666.666666 0.9715193589899436 -0.23696019730661816 -9.840078306024365e-17 5.826515761263843e-17 -9.840078306024365e-17 5.826515761263843e-17 0.9715195182111577 -0.23695954451040988
12659256000.0 0.9688947735210718 -0.24747306488459211 -9.773935344304095e-17 5.93250443752388e-17 -9.773935344304095e-17 5.93250443752388e-17 0.9688949397981235 -0.24747241388367333
12659873333.333334 0.9661564312476129 -0.2579568769362411 -9.706651720126786e-17 6.037743768188863e-17 -9.706651720126786e-17 6.037743768188863e-17 0.9661566045602924 -0.2579562278068661
12660490666.666666 0.963304653675264 -0.26841040256927773 -9.638235906997952e-17 6.142221487857039e-17 -9.638235906997952e-17 6.142221487857039e-17 0.9633048340025381 -0.2684097553874741
12661108000.0 0.9603397756279245 -0.27883241444769363 -9.568696510193707e-17 6.245925426777102e-17 -9.568696510193707e-17 6.245925426777102e-17 0.9603399629479378 -0.2788317692892523
12661725333.333334 0.9572621452085917 -0.28922168893509065 -9.498042265685374e-17 6.348843512258769e-17 -9.498042265685374e-17 6.348843512258769e-17 0.9572623394986719 -0.2892210458755584
12662342666.666666 0.9540721237583294 -0.299577006238951 -9.426282039044447e-17 6.450963770078017e-17 -9.426282039044447e-17 6.450963770078017e-17 0.954072324994985 -0.29957636535362003
12662960000.0 0.950770085813914 -0.3098971505535765 -9.35342482433543e-17 6.552274325865721e-17 -9.35342482433543e-17 6.552274325865721e-17 0.9507702939728415 -0.3098965119174764
12663577333.333334 0.9473564190638452 -0.3201809102028889 -9.279479742992637e-17 6.652763406485411e-17 -9.279479742992637e-17 6.652763406485411e-17 0.9473566341199324 -0.32018027389077885
12664194666.666666 0.9438315243028339 -0.3304270777826945 -9.204456042682493e-17 6.752419341398194e-17 -9.204456042682493e-17 6.752419341398194e-17 0.9438317462301603 -0.33042644386905284
12664812000.0 0.9401958153847397 -0.34063445030244055 -9.128363096151171e-17 6.851230564014897e-17 -9.128363096151171e-17 6.851230564014897e-17 0.9401960441565804 -0.340633818861457
12665429333.333334 0.9364497191739729 -0.3508018293264858 -9.051210400057589e-17 6.949185613035522e-17 -9.051210400057589e-17 6.949185613035522e-17 0.9364499547628017 -0.3508012004320522
12666046666.666666 0.9325936754954266 -0.36092802111467354 -8.973007573793267e-17 7.046273133774111e-17 -8.973007573793267e-17 7.046273133774111e-17 0.9325939178729193 -0.36092739484037556
12666664000.0 0.9286281370827242 -0.3710118367627787 -8.893764358284777e-17 7.14248187947443e-17 -8.893764358284777e-17 7.14248187947443e-17 0.9286283862197652 -0.37101121318188823
12667281333.333334 0.9245535695252142 -0.3810520923417273 -8.813490614787294e-17 7.237800712605965e-17 -8.813490614787294e-17 7.237800712605965e-17 0.9245538253918936 -0.38105147152719154
12667898666.666666 0.9203704512132045 -0.391047609036835 -8.732196323659273e-17 7.33221860615241e-17 -8.732196323659273e-17 7.33221860615241e-17 0.920370713778828 -0.3910469910612703
12668516000.0 0.9160792732817449 -0.40099721328634297 -8.649891583125481e-17 7.425724644883923e-17 -8.649891583125481e-17 7.425724644883923e-17 0.9160795425148331 -0.4009965982220248
12669133333.333334 0.9116805395531705 -0.4108997369187064 -8.566586608028411e-17 7.518308026613444e-17 -8.566586608028411e-17 7.518308026613444e-17 0.9116808154214654 -0.4108991248375617
12669750666.666666 0.9071747664777277 -0.42075401729027134 -8.482291728562198e-17 7.609958063443608e-17 -8.482291728562198e-17 7.609958063443608e-17 0.9071750489481946 -0.42075340826386953
12670368000.0 0.9025624830730373 -0.4305588974215437 -8.397017388996221e-17 7.700664182996145e-17 -8.397017388996221e-17 7.700664182996145e-17 0.9025627721118701 -0.4305582915210886
