! Parameters = {f0=12700.012000; bw=77.238000; Q=6100.000000; N=10; m_0_1=1.193889; m_1_1=-0.856412; m_1_2=1.028701; m_2_2=-0.857061; m_2_3=0.665664; m_2_8=-0.003242; m_2_9=0.033462; m_3_3=-0.858998; m_3_4=0.554193; m_3_7=-0.002642; m_3_8=-0.099730; m_3_9=-0.003242; m_4_4=-0.861923; m_4_5=0.390528; m_4_6=0.000875; m_4_7=-0.120279; m_4_8=-0.002642; m_5_5=-0.861541; m_5_6=0.797883; m_5_7=0.000875; m_6_6=-0.861542; m_6_7=0.390870; m_7_7=-0.861909; m_7_8=0.554311; m_8_8=-0.859000; m_8_9=0.665977; m_9_9=-0.857066; m_9_10=1.029779; m_10_10=-0.856422; m_10_11=1.194684}
!
! Created with skrf (http://scikit-rf.org).
# Hz S RI R 50.0 
!freq ReS11 ImS11 ReS21 ImS21 ReS12 ImS12 ReS22 ImS22
12607400000.0 -0.9300184677779184 0.3675127883378439 5.995825242199592e-17 -4.695248900386505e-17 5.995825242199592e-17 -4.695248900386505e-17 -0.9300186989958786 0.3675122032230454
12608017333.333334 -0.9269462795408616 0.3751940762394839 5.955189687385374e-17 -4.744289374224038e-17 5.955189687385374e-17 -4.744289374224038e-17 -0.9269465155798917 0.3751934930860884
12608634666.666666 -0.9238106506152058 0.3828496856597311 5.914153597548876e-17 -4.792978867169302e-17 5.914153597548876e-17 -4.792978867169302e-17 -0.9238108914586806 0.38284910450745624
12609252000.0 -0.9206117956051125 0.39047909264463165 5.872719998490396e-17 -4.8413141127441906e-17 5.872719998490396e-17 -4.8413141127441906e-17 -0.9206120412360791 0.3904785135330541
12609869333.333334 -0.9173499334419262 0.3980817750336459 5.830891942608238e-17 -4.889291870508868e-17 5.830891942608238e-17 -4.889291870508868e-17 -0.9173501838431051 0.39808119800219827
12610486666.666666 -0.9140252873692768 0.4056572124951754 5.788672508674815e-17 -4.936908926278379e-17 5.788672508674815e-17 -4.936908926278379e-17 -0.9140255425230638 0.40565663758314435
12611104000.0 -0.9106380849277129 0.4132048865623837 5.746064801610019e-17 -4.984162092338226e-17 5.746064801610019e-17 -4.984162092338226e-17 -0.9106383448161808 0.4132043138089071
12611721333.333334 -0.9071885579392075 0.42072428066849826 5.703071952256467e-17 -5.031048207653991e-17 5.703071952256467e-17 -5.031048207653991e-17 -0.9071888225441072 0.42072371011256265
12612338666.666666 -0.9036769424912718 0.4282148801822179 5.659697117148143e-17 -5.0775641380844986e-17 5.659697117148143e-17 -5.0775641380844986e-17 -0.9036772117940325 0.4282143118626552
12612956000.0 -0.9001034789206966 0.4356761724431379 5.61594347828092e-17 -5.1237067765889783e-17 5.61594347828092e-17 -5.1237067765889783e-17 -0.9001037529024284 0.43567560639862346
12613573333.333334 -0.8964684117973141 0.4431076467964022 5.571814242880576e-17 -5.1694730434332646e-17 5.571814242880576e-17 -5.1694730434332646e-17 -0.8964686904388078 0.44310708306545166
12614190666.666666 -0.8927719899070351 0.4505087946281126 5.5273126431677594e-17 -5.2148598863953787e-17 5.5273126431677594e-17 -5.2148598863953787e-17 -0.8927722731887657 0.4505082332490799
12614808000.0 -0.8890144662349886 0.45787910939980925 5.482441936123556e-17 -5.2598642809667754e-17 5.482441936123556e-17 -5.2598642809667754e-17 -0.8890147541371136 0.45787855041088255
12615425333.333334 -0.8851960979480978 0.4652180866833366 5.437205403251005e-17 -5.304483230554063e-17 5.437205403251005e-17 -5.304483230554063e-17 -0.885196390450463 0.46521753012253836
12616042666.666666 -0.8813171463775279 0.4725252241952969 5.3916063503374393e-17 -5.3487137666762365e-17 5.3916063503374393e-17 -5.3487137666762365e-17 -0.8813174434596639 0.47252467010047833
12616660000.0 -0.8773778770008305 0.4798000218313461 5.3456481072129014e-17 -5.392552949162144e-17 5.3456481072129014e-17 -5.392552949162144e-17 -0.8773781786419581 0.4797994702401868
12617277333.333334 -0.8733785594236738 0.48704198170062474 5.299334027508392e-17 -5.4359978663445536e-17 5.299334027508392e-17 -5.4359978663445536e-17 -0.873378865602704 0.48704143265062927
12617894666.666666 -0.8693194673615674 0.4942506081595099 5.252667488413449e-17 -5.47904563525123e-17 5.252667488413449e-17 -5.47904563525123e-17 -0.8693197780571008 0.4942500616880045
12618512000.0 -0.8652008786208616 0.5014254078460062 5.2056518904281416e-17 -5.5216934017978266e-17 5.2056518904281416e-17 -5.5216934017978266e-17 -0.865201193811194 0.5014248639901377
12619129333.333334 -0.8610230750800464 0.5085658897129708 5.158290657119805e-17 -5.563938340972758e-17 5.158290657119805e-17 -5.563938340972758e-17 -0.861023394743167 0.5085653485097035
12619746666.666666 -0.8567863426702033 0.5156715650621622 5.110587234871951e-17 -5.605777657025863e-17 5.110587234871951e-17 -5.605777657025863e-17 -0.8567866667837986 0.5156710265482752
12620364000.0 -0.8524909713555525 0.5227419475774933 5.0625450926357804e-17 -5.647208583651099e-17 5.0625450926357804e-17 -5.647208583651099e-17 -0.8524912998970039 0.5227414117895769
12620981333.333334 -0.8481372551136312 0.5297765533582617 5.0141677216793086e-17 -5.688228384168061e-17 5.0141677216793086e-17 -5.688228384168061e-17 -0.8481375880600224 0.5297760203327179
12621598666.666666 -0.8437254919150773 0.536774900952443 4.965458635333549e-17 -5.728834351702598e-17 4.965458635333549e-17 -5.728834351702598e-17 -0.8437258292431906 0.5367743707254796
12622216000.0 -0.8392559837033507 0.5437365113894457 4.916421368739677e-17 -5.769023809363138e-17 4.916421368739677e-17 -5.769023809363138e-17 -0.8392563253896721 0.5437359839970768
12622833333.333334 -0.834729036373935 0.5506609082131094 4.867059478592182e-17 -5.808794110417131e-17 4.867059478592182e-17 -5.808794110417131e-17 -0.8347293823946536 0.5506603836911503
12623450666.666666 -0.8301449597535833 0.5575476175140259 4.8173765428830743e-17 -5.848142638463221e-17 4.8173765428830743e-17 -5.848142638463221e-17 -0.8301453100845944 0.5575470958980928
12624068000.0 -0.8255040675789141 0.5643961679622845 4.767376160643216e-17 -5.887066807602465e-17 4.767376160643216e-17 -5.887066807602465e-17 -0.8255044221958213 0.5643956492877915
12624685333.333334 -0.8208066774750483 0.5712060908395638 4.717061951681264e-17 -5.925564062608169e-17 4.717061951681264e-17 -5.925564062608169e-17 -0.8208070363531627 0.5712055751417193
12625302666.666666 -0.8160531109339004 0.5779769200711625 4.666437556325638e-17 -5.963631879089994e-17 4.666437556325638e-17 -5.963631879089994e-17 -0.816053474048245 0.5779764073849687
12625920000.0 -0.8112436932920661 0.584708192258064 4.6155066351584234e-17 -6.001267763661238e-17 4.6155066351584234e-17 -6.001267763661238e-17 -0.811244060617375 0.5847076826183123
12626537333.333334 -0.8063787537086656 0.5913994467084858 4.564272868754553e-17 -6.038469254098667e-17 4.564272868754553e-17 -6.038469254098667e-17 -0.8063791252193897 0.5913989401497577
12627154666.666666 -0.8014586251427728 0.5980502254694832 4.5127399574163016e-17 -6.075233919502774e-17 4.5127399574163016e-17 -6.075233919502774e-17 -0.8014590008130773 0.5980497220261445
12627772000.0 -0.7964836443305725 0.604660073358357 4.460911620904774e-17 -6.11155936045704e-17 4.460911620904774e-17 -6.11155936045704e-17 -0.7964840241343404 0.604659573064557
12628389333.333334 -0.7914541517624325 0.6112285379936481 4.408791598176199e-17 -6.147443209180488e-17 4.408791598176199e-17 -6.147443209180488e-17 -0.7914545356732667 0.6112280408833173
12629006666.666666 -0.7863704916594826 0.6177551698262571 4.3563836471091586e-17 -6.182883129683648e-17 4.3563836471091586e-17 -6.182883129683648e-17 -0.786370879650708 0.6177546759331054
12629624000.0 -0.7812330119501061 0.6242395221701447 4.3036915442379304e-17 -6.217876817916967e-17 4.3036915442379304e-17 -6.217876817916967e-17 -0.7812334039947704 0.6242390315276578
12630241333.333334 -0.7760420642461623 0.6306811512328562 4.250719084479035e-17 -6.252422001920925e-17 4.250719084479035e-17 -6.252422001920925e-17 -0.7760424603170392 0.6306806638742948
12630858666.666666 -0.7707980038189061 0.6370796161459209 4.197470080860479e-17 -6.286516441971145e-17 4.197470080860479e-17 -6.286516441971145e-17 -0.7707984038884963 0.6370791321043178
12631476000.0 -0.7655011895745293 0.6434344789951996 4.1439483642467944e-17 -6.320157930723211e-17 4.1439483642467944e-17 -6.320157930723211e-17 -0.7655015936150625 0.643433998303357
12632093333.333334 -0.760151984029885 0.6497453048505045 4.090157783065673e-17 -6.353344293353456e-17 4.090157783065673e-17 -6.353344293353456e-17 -0.7601523920133203 0.649744827540991
12632710666.666666 -0.7547507532874385 0.6560116617956488 4.0361022030316474e-17 -6.386073387698549e-17 4.0361022030316474e-17 -6.386073387698549e-17 -0.7547511651854704 0.6560111879008005
12633328000.0 -0.7492978670102716 0.6622331209579463 3.981785506868841e-17 -6.418343104392609e-17 3.981785506868841e-17 -6.418343104392609e-17 -0.7492982827943279 0.6622326505098612
12633945333.333334 -0.7437936983967942 0.668409256537537 3.927211594033401e-17 -6.450151367001562e-17 3.927211594033401e-17 -6.450151367001562e-17 -0.7437941180380402 0.6684087895680745
12634562666.666666 -0.7382386241552642 0.6745396458364681 3.872384380435029e-17 -6.48149613215502e-17 3.872384380435029e-17 -6.48149613215502e-17 -0.7382390476246035 0.674539182377246
12635180000.0 -0.7326330244778876 0.6806238692877489 3.81730779815565e-17 -6.51237538967691e-17 3.81730779815565e-17 -6.51237538967691e-17 -0.7326334517459657 0.6806234093701425
12635797333.333334 -0.7269772830148404 0.6866615104840273 3.76198579516962e-17 -6.542787162712164e-17 3.76198579516962e-17 -6.542787162712164e-17 -0.7269777140520439 0.686661054139165
12636414666.666666 -0.7212717868481411 0.6926521562059375 3.7064223350611294e-17 -6.572729507852195e-17 3.7064223350611294e-17 -6.572729507852195e-17 -0.7212722216246037 0.692651703464702
12637032000.0 -0.715516926464912 0.6985953964506566 3.650621396740557e-17 -6.602200515257887e-17 3.650621396740557e-17 -6.602200515257887e-17 -0.7155173649505131 0.6985949473436798
12637649333.333334 -0.7097130957308851 0.7044908244597147 3.594586974161792e-17 -6.631198308779222e-17 3.594586974161792e-17 -6.631198308779222e-17 -0.7097135378952535 0.704490379017377
12638266666.666666 -0.7038606918632677 0.7103380367470168 3.5383230760357714e-17 -6.659721046074004e-17 3.5383230760357714e-17 -6.659721046074004e-17 -0.7038611376757837 0.7103375949994455
12638884000.0 -0.6979601154037188 0.716136633126299 3.4818337255461194e-17 -6.687766918722589e-17 3.4818337255461194e-17 -6.687766918722589e-17 -0.6979605648335158 0.7161361951033645
12639501333.333334 -0.6920117701907733 0.7218862167386748 3.425122960060864e-17 -6.715334152341767e-17 3.425122960060864e-17 -6.715334152341767e-17 -0.6920122232067397 0.7218857824699902
12640118666.666666 -0.6860160633323845 0.7275863940796189 3.368194830846512e-17 -6.742421006694594e-17 3.368194830846512e-17 -6.742421006694594e-17 -0.6860165199031671 0.7275859635945375
12640736000.0 -0.6799734051777984 0.7332367750261546 3.311053402777024e-17 -6.769025775799835e-17 3.311053402777024e-17 -6.769025775799835e-17 -0.6799738652718033 0.7332363483537679
12641353333.333334 -0.6738842092898149 0.7388369728632201 3.2537027540477704e-17 -6.795146788036235e-17 3.2537027540477704e-17 -6.795146788036235e-17 -0.6738846728752109 0.7388365500323565
12641970666.666666 -0.6677488924162205 0.7443866043103926 3.196146975882847e-17 -6.820782406247081e-17 3.196146975882847e-17 -6.820782406247081e-17 -0.6677493594609395 0.7443861853496135
12642588000.0 -0.6615678744613006 0.7498852895480755 3.1383901722447e-17 -6.84593102784086e-17 3.1383901722447e-17 -6.84593102784086e-17 -0.6615683449330425 0.7498848744856768
12643205333.333334 -0.6553415784572548 0.755332652243367 3.0804364595427815e-17 -6.870591084889558e-17 3.0804364595427815e-17 -6.870591084889558e-17 -0.6553420523234864 0.7553322411073724
12643822666.666666 -0.649070430534983 0.7607283195760344 3.022289966340842e-17 -6.89476104422472e-17 3.022289966340842e-17 -6.89476104422472e-17 -0.649070907762943 0.7607279123941978
12644440000.0 -0.642754859895203 0.7660719222637926 2.9639548330633427e-17 -6.918439407531222e-17 2.9639548330633427e-17 -6.918439407531222e-17 -0.6427553404519031 0.7660715190635945
12645057333.333334 -0.6363952987789037 0.7713630945877271 2.905435211702883e-17 -6.941624711437755e-17 2.905435211702883e-17 -6.941624711437755e-17 -0.6363957826311301 0.7713626953963717
12645674666.666666 -0.6299921824378251 0.7766014744172655 2.8467352655241854e-17 -6.964315527605993e-17 2.8467352655241854e-17 -6.964315527605993e-17 -0.6299926695521431 0.7766010792616816
12646292000.0 -0.6235459491045844 0.7817867032350372 2.7878591687679965e-17 -6.986510462817026e-17 2.7878591687679965e-17 -6.986510462817026e-17 -0.6235464394473386 0.7817863121418738
12646909333.333334 -0.6170570399628125 0.7869184261612995 2.728811106358305e-17 -7.00820815905373e-17 2.728811106358305e-17 -7.00820815905373e-17 -0.6170575335001303 0.7869180391569256
12647526666.666666 -0.610525899116918 0.7919962919782657 2.6695952736023808e-17 -7.029407293583243e-17 2.6695952736023808e-17 -7.029407293583243e-17 -0.610526395814711 0.7919959090887677
12648144000.0 -0.6039529735615342 0.7970199531542637 2.610215875895366e-17 -7.050106579034911e-17 2.610215875895366e-17 -7.050106579034911e-17 -0.6039534733855013 0.7970195744054431
12648761333.333334 -0.597338713151195 0.8019890658673086 2.550677128421888e-17 -7.07030476347665e-17 2.550677128421888e-17 -7.07030476347665e-17 -0.5973392160668243 0.8019886912846819
12649378666.666666 -0.5906835705693911 0.8069032900287609 2.490983255858314e-17 -7.090000630488367e-17 2.490983255858314e-17 -7.090000630488367e-17 -0.5906840765419625 0.8069029196375567
12649996000.0 -0.5839880012975417 0.8117622893066339 2.4311384920734527e-17 -7.109192999233264e-17 2.4311384920734527e-17 -7.109192999233264e-17 -0.5839885102921294 0.8117619231317911
12650613333.333334 -0.5772524635839562 0.8165657311485085 2.3711470798283123e-17 -7.127880724526681e-17 2.3711470798283123e-17 -7.127880724526681e-17 -0.5772529755654314 0.816565369214676
12651230666.666666 -0.5704774184124066 0.8213132868043482 2.3110132704786068e-17 -7.146062696901412e-17 2.3110132704786068e-17 -7.146062696901412e-17 -0.570477933345439 0.8213129291358818
12651848000.0 -0.5636633294705272 0.8260046313490286 2.250741323670893e-17 -7.163737842672406e-17 2.250741323670893e-17 -7.163737842672406e-17 -0.5636638473195884 0.82600427796999
12652465333.333334 -0.5568106631181055 0.8306394437045598 2.190335507044137e-17 -7.180905123997026e-17 2.190335507044137e-17 -7.180905123997026e-17 -0.5568111838474706 0.8306390946387145
12653082666.666666 -0.5499198883553501 0.8352174066619328 2.1298000959290078e-17 -7.197563538933409e-17 2.1298000959290078e-17 -7.197563538933409e-17 -0.5499204119291008 0.8352170619327488
12653700000.0 -0.5429914767903924 0.8397382069030995 2.0691393730426757e-17 -7.213712121497484e-17 2.0691393730426757e-17 -7.213712121497484e-17 -0.5429920031724194 0.8397378665337463
12654317333.333334 -0.5360259026074125 0.8442015350221498 2.0083576281911773e-17 -7.22934994171513e-17 2.0083576281911773e-17 -7.22934994171513e-17 -0.5360264317614168 0.8442011990354951
12654934666.666666 -0.5290236425340173 0.8486070855465945 1.947459157963425e-17 -7.244476105674103e-17 1.947459157963425e-17 -7.244476105674103e-17 -0.5290241744235158 0.8486067539652055
12655552000.0 -0.5219851758084482 0.8529545569583815 1.8864482654289465e-17 -7.259089755572209e-17 1.8864482654289465e-17 -7.259089755572209e-17 -0.5219857103967719 0.8529542298045198
12656169333.333334 -0.5149109841471875 0.8572436517142719 1.825329259837167e-17 -7.273190069762527e-17 1.825329259837167e-17 -7.273190069762527e-17 -0.5149115213974882 0.8572433290098961
12656786666.666666 -0.5078015517115579 0.8614740762664765 1.7641064563103835e-17 -7.286776262797619e-17 1.7641064563103835e-17 -7.286776262797619e-17 -0.5078020915868077 0.8614737580332372
12657404000.0 -0.5006573650748992 0.8656455410825517 1.7027841755426427e-17 -7.299847585469572e-17 1.7027841755426427e-17 -7.299847585469572e-17 -0.5006579075378949 0.8656452273417921
12658021333.333334 -0.4934789131890488 0.8697577606653474 1.641366743493807e-17 -7.312403324848706e-17 1.641366743493807e-17 -7.312403324848706e-17 -0.4934794582024126 0.8697574514380999
12658638666.666666 -0.48626668735107287 0.8738104535724314 1.5798584910868885e-17 -7.324442804318827e-17 1.5798584910868885e-17 -7.324442804318827e-17 -0.48626723487725715 0.8738101488794187
12659256000.0 -0.4790211811694704 0.8778033424354514 1.5182637539020343e-17 -7.335965383610645e-17 1.5182637539020343e-17 -7.335965383610645e-17 -0.47902173117075875 0.8778030422970835
12659873333.333334 -0.4717428905304372 0.8817361539790868 1.4565868718721865e-17 -7.346970458832245e-17 1.4565868718721865e-17 -7.346970458832245e-17 -0.47174344296894777 0.8817358584154601
12660490666.666666 -0.46443231356413067 0.8856086190396486 1.394832188979811e-17 -7.357457462496789e-17 1.394832188979811e-17 -7.357457462496789e-17 -0.46443286840181836 0.8856083280705445
12661108000.0 -0.45708995061012364 0.8894204725837384 1.3330040529482282e-17 -7.3674258635486e-17 1.3330040529482282e-17 -7.3674258635486e-17 -0.4570905078087825 0.8894201862286207
12661725333.333334 -0.44971630418371433 0.8931714537260959 1.2711068149399238e-17 -7.376875167385435e-17 1.2711068149399238e-17 -7.376875167385435e-17 -0.44971686370498143 0.8931711720041131
12662342666.666666 -0.44231187894105584 0.8968613057477047 1.2091448292494991e-17 -7.385804915879105e-17 1.2091448292494991e-17 -7.385804915879105e-17 -0.4423124407464128 0.8968610286776856
12662960000.0 -0.43487718164494643 0.9004897761131959 1.1471224529977795e-17 -7.394214687393336e-17 1.1471224529977795e-17 -7.394214687393336e-17 -0.4348777456957218 0.9004895037136482
12663577333.333334 -0.4274127211299411 0.904056616488229 1.0850440458277322e-17 -7.402104096798748e-17 1.0850440458277322e-17 -7.402104096798748e-17 -0.4274132873873142 0.9040563487773398
12664194666.666666 -0.4199190082676053 0.9075615827564527 1.0229139695973914e-17 -7.409472795485779e-17 1.0229139695973914e-17 -7.409472795485779e-17 -0.4199195766926074 0.9075613197520854
12664812000.0 -0.41239655593162516 0.9110044350361745 9.607365880748414e-18 -7.416320471374664e-17 9.607365880748414e-18 -7.416320471374664e-17 -0.4123971264851441 0.9110041767558706
12665429333.333334 -0.40484587896250374 0.9143849376968779 8.98516266632983e-18 -7.422646848922966e-17 8.98516266632983e-18 -7.422646848922966e-17 -0.4048464516052846 0.9143846841578525
12666046666.666666 -0.3972674941326577 0.9177028593751922 8.362573719434653e-18 -7.428451689130664e-17 8.362573719434653e-18 -7.428451689130664e-17 -0.39726806882530685 0.9177026105943344
12666664000.0 -0.3896619201105586 0.9209579729909494 7.739642716704223e-18 -7.433734789542592e-17 7.739642716704223e-18 -7.433734789542592e-17 -0.38966249681354576 0.920957728984821
12667281333.333334 -0.3820296774258054 0.9241500557624722 7.1164133416639e-18 -7.438495984248271e-17 7.1164133416639e-18 -7.438495984248271e-17 -0.3820302560994667 0.9241498165473071
12667898666.666666 -0.3743712884330317 0.9272788892220274 6.492929281653173e-18 -7.442735143879339e-17 6.492929281653173e-18 -7.442735143879339e-17 -0.3743718690375724 0.9272786548137301
12668516000.0 -0.3666872772763628 0.9303442592306859 5.8692342247779546e-18 -7.446452175604278e-17 5.8692342247779546e-18 -7.446452175604278e-17 -0.3666878597718594 0.9303440296448293
12669133333.333334 -0.3589781698535963 0.9333459559929576 5.2453718568618825e-18 -7.44964702312067e-17 5.2453718568618825e-18 -7.44964702312067e-17 -0.3589787542000004 0.9333457312447843
12669750666.666666 -0.351244493780026 0.9362837740712269 4.621385858390464e-18 -7.452319666644875e-17 4.621385858390464e-18 -7.452319666644875e-17 -0.3512450799371658 0.9362835541756458
12670368000.0 -0.34348677835251384 0.9391575123997343 3.997319901454702e-18 -7.454470122899249e-17 3.997319901454702e-18 -7.454470122899249e-17 -0.34348736628009846 0.9391572973713228
