! Parameters = {f0=12700.012000; bw=77.238000; Q=6100.000000; N=10; m_0_1=1.332828; m_1_1=1.227672; m_1_2=1.167640; m_2_2=1.227023; m_2_3=0.804603; m_2_8=0.003705; m_2_9=0.040409; m_3_3=1.225086; m_3_4=0.693132; m_3_7=0.004305; m_3_8=-0.092783; m_3_9=0.003705; m_4_4=1.222161; m_4_5=0.529467; m_4_6=0.007822; m_4_7=-0.113332; m_4_8=0.004305; m_5_5=1.222543; m_5_6=0.936822; m_5_7=0.007822; m_6_6=1.222542; m_6_7=0.529809; m_7_7=1.222175; m_7_8=0.693250; m_8_8=1.225084; m_8_9=0.804916; m_9_9=1.227018; m_9_10=1.168718; m_10_10=1.227662; m_10_11=1.333623}
!
! Created with skrf (http://scikit-rf.org).
# Hz S RI R 50.0 
!freq ReS11 ImS11 ReS21 ImS21 ReS12 ImS12 ReS22 ImS22
12607400000.0 0.8734588333394857 0.48689800416620066 -1.4385693304386215e-16 -3.224863337145516e-17 -1.4385693304386215e-16 -3.224863337145516e-17 0.8734584914915644 0.48689861741545987
12608017333.333334 0.8794196867029006 0.4760472819365528 -1.4421960399169116e-16 -3.044645961675369e-17 -1.4421960399169116e-16 -3.044645961675369e-17 0.879419352489555 0.4760478993406621
12608634666.666666 0.885245751457351 0.46512359596833497 -1.4455971082121934e-16 -2.8640257930275884e-17 -1.4455971082121934e-16 -2.8640257930275884e-17 0.8852454249290588 0.46512421743226406
12609252000.0 0.8909361346423048 0.4541286205343526 -1.4487720949704712e-16 -2.6830310668427658e-17 -1.4487720949704712e-16 -2.6830310668427658e-17 0.8909358158483566 0.4541292459624562
12609869333.333334 0.8964899640931454 0.4430640408339138 -1.4517205951508631e-16 -2.5016900659241048e-17 -1.4517205951508631e-16 -2.5016900659241048e-17 0.8964896530816431 0.4430646701299492
12610486666.666666 0.9019063885747917 0.4319315527346695 -1.4544422390746956e-16 -2.320031115825891e-17 -1.4544422390746956e-16 -2.320031115825891e-17 0.9019060853926398 0.4319321858018107
12611104000.0 0.9071845779123017 0.42073286251240616 -1.4569366924692068e-16 -2.138082580427926e-17 -1.4569366924692068e-16 -2.138082580427926e-17 0.9071842826052012 0.42073349925325876
12611721333.333334 0.9123237231179444 0.40946968658988453 -1.4592036565054918e-16 -1.9558728575223005e-17 -1.4592036565054918e-16 -1.9558728575223005e-17 0.9123234357303829 0.4094703269065001
12612338666.666666 0.9173230365152981 0.39814375127353085 -1.46124286783118e-16 -1.7734303743788157e-17 -1.46124286783118e-16 -1.7734303743788157e-17 0.9173227570905466 0.3981443950674232
12612956000.0 0.9221817518600368 0.3867567924887167 -1.4630540985974738e-16 -1.5907835833154312e-17 -1.4630540985974738e-16 -1.5907835833154312e-17 0.9221814804401408 0.3867574396608759
12613573333.333334 0.9268991244571537 0.3753105555141874 -1.464637156480572e-16 -1.40796095727403e-17 -1.464637156480572e-16 -1.40796095727403e-17 0.9268988610829293 0.375311205965096
12614190666.666666 0.9314744312753301 0.3638067947140432 -1.4659918846977472e-16 -1.2249909853793427e-17 -1.4659918846977472e-16 -1.2249909853793427e-17 0.931474175986355 0.3638074483436905
12614808000.0 0.9359069710576388 0.3522472732691079 -1.4671181620177695e-16 -1.0419021685074796e-17 -1.4671181620177695e-16 -1.0419021685074796e-17 0.9359067238922477 0.35224792997700577
12615425333.333334 0.9401960644290495 0.34063376290663416 -1.4680159027658168e-16 -8.587230148535456e-18 -1.4680159027658168e-16 -8.587230148535456e-18 0.9401958254243284 0.3406344225918328
12616042666.666666 0.944341054000555 0.3289680436287509 -1.4686850568228943e-16 -6.7548203549652275e-18 -1.4686850568228943e-16 -6.7548203549652275e-18 0.944340823192336 0.3289687061898539
12616660000.0 0.9483413044699308 0.31725190343964244 -1.4691256096197023e-16 -4.922077399675208e-18 -1.4691256096197023e-16 -4.922077399675208e-18 0.948341081892787 0.3172525687748231
12617277333.333334 0.9521962027191176 0.30548713807147515 -1.4693375821249884e-16 -3.0892863181916758e-18 -1.4693375821249884e-16 -3.0892863181916758e-18 0.9521959884063553 0.3054878060784908
12617894666.666666 0.955905157908145 0.29367555070929874 -1.4693210308283831e-16 -1.2567320420016917e-18 -1.4693210308283831e-16 -1.2567320420016917e-18 0.9559049518918035 0.2936762212855081
12618512000.0 0.9594676015657935 0.2818189517143772 -1.469076047717723e-16 5.753006457346351e-19 -1.469076047717723e-16 5.753006457346351e-19 0.9594674038766341 0.28181962475675437
12619129333.333334 0.9628829876765935 0.2699191583470915 -1.4686027602508625e-16 2.406527154327116e-18 -1.4686027602508625e-16 2.406527154327116e-18 0.9628827983441013 0.26991983375224327
12619746666.666666 0.9661507927646025 0.25797799448816694 -1.4679013313219909e-16 4.236663129751481e-18 -1.4679013313219909e-16 4.236663129751481e-18 0.9661506118169764 0.2579786721523477
12620364000.0 0.9692705159736593 0.24599729035898632 -1.4669719592224403e-16 6.0654244987495265e-18 -1.4669719592224403e-16 6.0654244987495265e-18 0.9692703434378117 0.24599797017811476
12620981333.333334 0.9722416791440184 0.23397888224159513 -1.465814877596043e-16 7.892527512830893e-18 -1.465814877596043e-16 7.892527512830893e-18 0.9722415150455701 0.23397956411126972
12621598666.666666 0.975063826885783 0.22192461219670556 -1.464430355388968e-16 9.717688792286372e-18 -1.464430355388968e-16 9.717688792286372e-18 0.9750636712490591 0.22192529601222086
12622216000.0 0.9777365266486273 0.20983632778163794 -1.4628186967941252e-16 1.1540625370064142e-17 -1.4628186967941252e-16 1.1540625370064142e-17 0.9777363794966546 0.20983701343800054
12622833333.333334 0.9802593687881177 0.1977158817670637 -1.4609802411900957e-16 1.3361054735593898e-17 -1.4609802411900957e-16 1.3361054735593898e-17 0.9802592301426176 0.19771656915900793
12623450666.666666 0.9826319666284695 0.18556513185314163 -1.458915363074638e-16 1.5178694878497975e-17 -1.458915363074638e-16 1.5178694878497975e-17 0.9826318365098594 0.18556582087514634
12624068000.0 0.9848539565218477 0.17338594038465002 -1.456624471992736e-16 1.6993264332245018e-17 -1.456624471992736e-16 1.6993264332245018e-17 0.9848538349492372 0.17338663093095485
12624685333.333334 0.9869249979041048 0.16118017406551677 -1.4541080124592293e-16 1.8804482217685364e-17 -1.4541080124592293e-16 1.8804482217685364e-17 0.9869248848952898 0.1611808660301377
12625302666.666666 0.9888447733469224 0.14894970367301716 -1.4513664638761086e-16 2.0612068286432765e-17 -1.4513664638761086e-16 2.0612068286432765e-17 0.988844668918387 0.1489503969497635
12625920000.0 0.9906129886065621 0.1366964037704801 -1.4484003404442828e-16 2.241574296423434e-17 -1.4484003404442828e-16 2.241574296423434e-17 0.9906128927734709 0.13669709825297008
12626537333.333334 0.9922293726688499 0.12442215242064639 -1.4452101910701376e-16 2.4215227394099138e-17 -1.4452101910701376e-16 2.4215227394099138e-17 0.9922292854450512 0.12442284800232417
12627154666.666666 0.9936936777907943 0.1121288308973704 -1.4417965992666288e-16 2.6010243479380994e-17 -1.4417965992666288e-16 2.6010243479380994e-17 0.9936935991888142 0.11212952747152195
12627772000.0 0.9950056795385489 0.09981832339724725 -1.4381601830490073e-16 2.7800513926725905e-17 -1.4381601830490073e-16 2.7800513926725905e-17 0.9950056095695908 0.09981902085701681
12628389333.333334 0.9961651768217709 0.0874925167511895 -1.434301594825396e-16 2.958576228879627e-17 -1.434301594825396e-16 2.958576228879627e-17 0.9961651154957146 0.08749321498959611
12629006666.666666 0.9971719919244892 0.07515330013480898 -1.4302215212818277e-16 3.136571300696526e-17 -1.4302215212818277e-16 3.136571300696526e-17 0.9971719392498899 0.07515399904476289
12629624000.0 0.9980259705323125 0.06280256477917398 -1.4259206832622117e-16 3.314009145375043e-17 -1.4259206832622117e-16 3.314009145375043e-17 0.9980259265163965 0.06280326425349282
12630241333.333334 0.9987269817560925 0.050442203680770355 -1.4213998356429e-16 3.49086239751552e-17 -1.4213998356429e-16 3.49086239751552e-17 0.9987269464047603 0.05044290361219586
12630858666.666666 0.9992749181519787 0.03807411131153247 -1.416659767202138e-16 3.6671037932790014e-17 -1.416659767202138e-16 3.6671037932790014e-17 0.9992748914698012 0.038074811592746734
12631476000.0 0.9996696957378997 0.02570018332816523 -1.4117013004840513e-16 3.8427061745911574e-17 -1.4117013004840513e-16 3.8427061745911574e-17 0.9996696777281194 0.025700883851807285
12632093333.333334 0.9999112540064191 0.013322316281966031 -1.4065252916578614e-16 4.017642493312475e-17 -1.4065252916578614e-16 4.017642493312475e-17 0.9999112446709486 0.013323016940648191
12632710666.666666 0.9999995559340186 0.0009424073279700892 -1.4011326303715147e-16 4.1918858154054106e-17 -1.4011326303715147e-16 4.1918858154054106e-17 0.9999995552734409 0.0009431080142944892
12633328000.0 0.9999345879867718 -0.011437646065968527 -1.395524239600315e-16 4.3654093250756817e-17 -1.395524239600315e-16 4.3654093250756817e-17 0.999934596000341 -0.0114369454593935
12633945333.333334 0.999716360122417 -0.02381594640974594 -1.3897010754905775e-16 4.538186328890089e-17 -1.3897010754905775e-16 4.538186328890089e-17 0.9997163768080566 -0.023815245990289165
12634562666.666666 0.9993449057888296 -0.03619059648197871 -1.3836641271979472e-16 4.710190259880792e-17 -1.3836641271979472e-16 4.710190259880792e-17 0.9993449311431355 -0.036189896356969925
12635180000.0 0.9988202819188983 -0.048559699620762474 -1.3774144167208607e-16 4.8813946816220356e-17 -1.3774144167208607e-16 4.8813946816220356e-17 0.9988203159371375 -0.04855899989747579
12635797333.333334 0.9981425689217961 -0.06092136001440158 -1.3709529987288005e-16 5.0517732922900955e-17 -1.3709529987288005e-16 5.0517732922900955e-17 0.9981426115979085 -0.06092066080003904
12636414666.666666 0.9973118706706611 -0.07327368299186639 -1.3642809603857436e-16 5.221299928694866e-17 -1.3642809603857436e-16 5.221299928694866e-17 0.9973119219972609 -0.07327298439354164
12637032000.0 0.9963283144866704 -0.08561477531336001 -1.357399421168351e-16 5.3899485702961415e-17 -1.357399421168351e-16 5.3899485702961415e-17 0.9963283744550451 -0.08561407743808169
12637649333.333334 0.9951920511195262 -0.0979427454603811 -1.3503095326794088e-16 5.557693343190267e-17 -1.3503095326794088e-16 5.557693343190267e-17 0.9951921197196414 -0.09794204841503672
12638266666.666666 0.9939032547243534 -0.11025570392566544 -1.3430124784563692e-16 5.72450852407251e-17 -1.3430124784563692e-16 5.72450852407251e-17 0.9939033319448518 -0.11025500781700479
12638884000.0 0.992462122835004 -0.12255176350279055 -1.335509473774868e-16 5.890368544177539e-17 -1.335509473774868e-16 5.890368544177539e-17 0.9924622086632094 -0.12255106843740952
12639501333.333334 0.9908688763337795 -0.13482903957545592 -1.327801765447441e-16 6.0552479931932e-17 -1.327801765447441e-16 6.0552479931932e-17 0.9908689707556965 -0.13482834565978
12640118666.666666 0.9891237594176014 -0.14708565040614077 -1.3198906316176237e-16 6.219121623143614e-17 -1.3198906316176237e-16 6.219121623143614e-17 0.9891238624179197 -0.14708495774640895
12640736000.0 0.9872270395605003 -0.15931971742510895 -1.3117773815486068e-16 6.381964352259431e-17 -1.3117773815486068e-16 6.381964352259431e-17 0.9872271511225961 -0.1593190261273573
12641353333.333334 0.9851790074727595 -0.17152936551738102 -1.3034633554082174e-16 6.543751268798265e-17 -1.3034633554082174e-16 6.543751268798265e-17 0.9851791275786976 -0.1715286756874264
12641970666.666666 0.9829799770562272 -0.18371272331100405 -1.2949499240480897e-16 6.704457634859637e-17 -1.2949499240480897e-16 6.704457634859637e-17 0.9829801056867665 -0.18371203505442837
12642588000.0 0.9806302853562704 -0.19586792346345597 -1.2862384887788363e-16 6.86405889015764e-17 -1.2862384887788363e-16 6.86405889015764e-17 0.980630422490864 -0.19586723688558938
12643205333.333334 0.9781302925101069 -0.20799310294790868 -1.2773304811403533e-16 7.022530655768978e-17 -1.2773304811403533e-16 7.022530655768978e-17 0.978130438126907 -0.20799241815381395
12643822666.666666 0.9754803816915852 -0.22008640333888593 -1.2682273626674467e-16 7.179848737852414e-17 -1.2682273626674467e-16 7.179848737852414e-17 0.9754805357674456 -0.220085720433342
12644440000.0 0.9726809590524814 -0.2321459710969641 -1.258930624651079e-16 7.335989131334788e-17 -1.258930624651079e-16 7.335989131334788e-17 0.9726811215629629 -0.23214529018445054
12645057333.333334 0.9697324536602474 -0.24416995785289308 -1.2494417878949644e-16 7.49092802356842e-17 -1.2494417878949644e-16 7.49092802356842e-17 0.9697326245796197 -0.2441692790375736
12645674666.666666 0.9666353174322475 -0.2561565206908957 -1.2397624024676945e-16 7.644641797956843e-17 -1.2397624024676945e-16 7.644641797956843e-17 0.9666354967334946 -0.2561558440766026
12646292000.0 0.963390025066442 -0.2681038224313235 -1.2298940474502444e-16 7.797107037551025e-17 -1.2298940474502444e-16 7.797107037551025e-17 0.9633902127212655 -0.26810314812154146
12646909333.333334 0.9599970739687242 -0.28001003191188406 -1.2198383306795297e-16 7.948300528606257e-17 -1.2198383306795297e-16 7.948300528606257e-17 0.9599972699475477 -0.2800093600097344
12647526666.666666 0.95645698417661 -0.29187332426857754 -1.2095968884870746e-16 8.09819926411408e-17 -1.2095968884870746e-16 8.09819926411408e-17 0.9564571884485854 -0.29187265487680286
12648144000.0 0.9527702982795376 -0.3036918812153659 -1.1991713854335945e-16 8.246780447296808e-17 -1.1991713854335945e-16 8.246780447296808e-17 0.952770510812548 -0.30369121443631364
12648761333.333334 0.9489375813357348 -0.3154638913227515 -1.1885635140393734e-16 8.394021495067064e-17 -1.1885635140393734e-16 8.394021495067064e-17 0.9489378020964007 -0.3154632272583589
12649378666.666666 0.9449594207856182 -0.3271875502954164 -1.1777749945103132e-16 8.539900041454146e-17 -1.1777749945103132e-16 8.539900041454146e-17 0.9449596497393025 -0.32718688904719473
12649996000.0 0.9408364263617115 -0.33886106124890203 -1.1668075744596595e-16 8.684393940996971e-17 -1.1668075744596595e-16 8.684393940996971e-17 0.9408366634725237 -0.33886040291792074
12650613333.333334 0.9365692299952119 -0.35048263498493376 -1.1556630286257676e-16 8.827481272098681e-17 -1.1556630286257676e-16 8.827481272098681e-17 0.9365694752260176 -0.3504819796718063
12651230666.666666 0.932158485719184 -0.362050490265549 -1.144343158585805e-16 8.969140340344981e-17 -1.144343158585805e-16 8.969140340344981e-17 0.9321587390316058 -0.3620498380704155
12651848000.0 0.9276048695682084 -0.37356285408636963 -1.1328497924650235e-16 9.10934968179031e-17 -1.1328497924650235e-16 9.10934968179031e-17 0.9276051309226337 -0.3735622051088827
12652465333.333334 0.9229090794748571 -0.3850179619481124 -1.1211847846425137e-16 9.24808806620081e-17 -1.1211847846425137e-16 9.24808806620081e-17 0.9229093488304462 -0.38501731628742214
12653082666.666666 0.9180718351627297 -0.39641405812703584 -1.1093500154527963e-16 9.385334500262374e-17 -1.1093500154527963e-16 9.385334500262374e-17 0.9180721124774194 -0.39641341588177414
12653700000.0 0.9130938780360237 -0.40774939594429965 -1.097347390883053e-16 9.521068230755512e-17 -1.097347390883053e-16 9.521068230755512e-17 0.913094163266536 -0.40774875721256565
12654317333.333334 0.907975971066063 -0.41902223803331495 -1.0851788422675515e-16 9.655268747679585e-17 -1.0851788422675515e-16 9.655268747679585e-17 0.9079762641679096 -0.4190216029126589
12654934666.666666 0.9027188986742369 -0.4302308566062876 -1.0728463259770822e-16 9.787915787351362e-17 -1.0728463259770822e-16 9.787915787351362e-17 0.9027191996017297 -0.43023022519369813
12655552000.0 0.8973234666117764 -0.4413735337190386 -1.060351823105133e-16 9.918989335458143e-17 -1.060351823105133e-16 9.918989335458143e-17 0.8973237753180305 -0.4413729061109254
12656169333.333334 0.8917905018363612 -0.45244856153407936 -1.0476973391508593e-16 1.0048469630065541e-16 -1.0476973391508593e-16 1.0048469630065541e-16 0.8917908182733054 -0.4524479378262605
12656786666.666666 0.8861208523852527 -0.46345424258263024 -1.0348849036973486e-16 1.0176337164596112e-16 -1.0348849036973486e-16 1.0176337164596112e-16 0.886121176503635 -0.4634536228703163
12657404000.0 0.8803153872453757 -0.4743888900246626 -1.0219165700869587e-16 1.0302572690759464e-16 -1.0219165700869587e-16 1.0302572690759464e-16 0.8803157189947711 -0.4743882744024421
12658021333.333334 0.8743749962201011 -0.48525082790749036 -1.0087944150929927e-16 1.0427157221442415e-16 -1.0087944150929927e-16 1.0427157221442415e-16 0.8743753355489213 -0.48525021646931665
12658638666.666666 0.8683005897929386 -0.49603839142252093 -9.955205385879798e-17 1.0550072033556354e-16 -9.955205385879798e-17 1.0550072033556354e-16 0.8683009366484378 -0.49603778426169615
12659256000.0 0.862093098987845 -0.5067499271606664 -9.82097063207741e-17 1.0671298670849423e-16 -9.82097063207741e-17 1.0671298670849423e-16 0.8620934533161296 -0.5067493243698288
12659873333.333334 0.8557534752266523 -0.5173837933655394 -9.685261340131968e-17 1.0790818946665504e-16 -9.685261340131968e-17 1.0790818946665504e-16 0.8557538369726879 -0.5173831950366475
12660490666.666666 0.8492826901832448 -0.5279383601850853 -9.548099181480971e-17 1.0908614946666981e-16 -9.548099181480971e-17 1.0908614946666981e-16 0.8492830592908671 -0.5279377664094064
12661108000.0 0.8426817356344878 -0.5384120099216358 -9.409506044933249e-17 1.1024669031515127e-16 -9.409506044933249e-17 1.1024669031515127e-16 0.8426821120464072 -0.5384114207897285
12661725333.333334 0.8359516233084163 -0.5488031372795078 -9.269504033186677e-17 1.1138963839500496e-16 -9.269504033186677e-17 1.1138963839500496e-16 0.8359520069662326 -0.548802552881212
12662342666.666666 0.8290933847290153 -0.5591101496113203 -9.128115459306274e-17 1.1251482289135895e-16 -9.128115459306274e-17 1.1251482289135895e-16 0.8290937755732204 -0.5591095700357401
12662960000.0 0.8221080710581813 -0.5693314671619717 -8.985362843175952e-17 1.1362207581700505e-16 -8.985362843175952e-17 1.1362207581700505e-16 0.8221084690281736 -0.5693308924974648
12663577333.333334 0.8149967529346045 -0.5794655233107984 -8.841268907917635e-17 1.1471123203740659e-16 -8.841268907917635e-17 1.1471123203740659e-16 0.8149971579686957 -0.5794649536449603
12664194666.666666 0.8077605203096685 -0.5895107648116878 -8.695856576280524e-17 1.1578212929525062e-16 -8.695856576280524e-17 1.1578212929525062e-16 0.8077609323450927 -0.5895102002313396
12664812000.0 0.8004004822803911 -0.5994656520311431 -8.549148967000687e-17 1.1683460823454317e-16 -8.549148967000687e-17 1.1683460823454317e-16 0.8004009012533173 -0.5994650926223185
12665429333.333334 0.792917766919422 -0.6093286591842896 -8.401169391131391e-17 1.1786851242424754e-16 -8.401169391131391e-17 1.1786851242424754e-16 0.7929181927649601 -0.6093281050322202
12666046666.666666 0.7853135211022225 -0.6190982745686142 -8.251941348346889e-17 1.1888368838144322e-16 -8.251941348346889e-17 1.1888368838144322e-16 0.785313953754438 -0.6190977257577193
12666664000.0 0.7775889103311001 -0.6287730007959154 -8.101488523212962e-17 1.1987998559405628e-16 -8.101488523212962e-17 1.1987998559405628e-16 0.7775893497230186 -0.6287724574097854
12667281333.333334 0.7697451185568089 -0.6383513550214894 -7.949834781438713e-17 1.2085725654306095e-16 -7.949834781438713e-17 1.2085725654306095e-16 0.7697455646204325 -0.6383508171428773
12667898666.666666 0.7617833479969178 -0.6478318691716355 -7.79700416609345e-17 1.2181535672426258e-16 -7.79700416609345e-17 1.2181535672426258e-16 0.7617838006632307 -0.6478313368824403
12668516000.0 0.7537048189515378 -0.6572130901686587 -7.643020893800863e-17 1.2275414466958005e-16 -7.643020893800863e-17 1.2275414466958005e-16 0.7537052781505205 -0.6572125635499165
12669133333.333334 0.7455107696164556 -0.6664935801533928 -7.487909350910935e-17 1.236734819678297e-16 -7.487909350910935e-17 1.236734819678297e-16 0.7455112352770941 -0.6664930592852624
12669750666.666666 0.7372024558931711 -0.6756719167057962 -7.331694089640282e-17 1.2457323328506656e-16 -7.331694089640282e-17 1.2457323328506656e-16 0.737202927943467 -0.6756714016675462
