! Parameters = {f0=12700.012000; bw=77.238000; Q=6100.000000; N=10; m_0_1=1.230325; m_1_1=-0.309866; m_1_2=1.065137; m_2_2=-0.310515; m_2_3=0.702100; m_2_8=-0.001420; m_2_9=0.035284; m_3_3=-0.312452; m_3_4=0.590629; m_3_7=-0.000820; m_3_8=-0.097908; m_3_9=-0.001420; m_4_4=-0.315377; m_4_5=0.426964; m_4_6=0.002697; m_4_7=-0.118457; m_4_8=-0.000820; m_5_5=-0.314995; m_5_6=0.834319; m_5_7=0.002697; m_6_6=-0.314996; m_6_7=0.427306; m_7_7=-0.315363; m_7_8=0.590747; m_8_8=-0.312454; m_8_9=0.702413; m_9_9=-0.310520; m_9_10=1.066215; m_10_10=-0.309876; m_10_11=1.231120}
!
! Created with skrf (http://scikit-rf.org).
# Hz S RI R 50.0 
!freq ReS11 ImS11 ReS21 ImS21 ReS12 ImS12 ReS22 ImS22
12607400000.0 0.9219232328446018 -0.38737262776452375 -7.072521591620608e-17 5.787311850310421e-17 -7.072521591620608e-17 5.787311850310421e-17 0.9219234839699313 -0.3873720301010103
12608017333.333334 0.918261029939873 -0.3959756064375659 -7.016207990882576e-17 5.852662337494793e-17 -7.016207990882576e-17 5.852662337494793e-17 0.9182612866297634 -0.3959750111773285
12608634666.666666 0.914518549927657 -0.4045439677439897 -6.959291297161729e-17 5.917465754211108e-17 -6.959291297161729e-17 5.917465754211108e-17 0.914518812159124 -0.4045433749388301
12609252000.0 0.9106961199867414 -0.4130769626122109 -6.901776816895437e-17 5.981716541952302e-17 -6.901776816895437e-17 5.981716541952302e-17 0.9106963877363181 -0.4130763723137108
12609869333.333334 0.9067940742853721 -0.4215738450624846 -6.843669907683222e-17 6.045409193606446e-17 -6.843669907683222e-17 6.045409193606446e-17 0.9067943475291136 -0.42157325732200246
12610486666.666666 0.9028127539520581 -0.4300338722720985 -6.784975977790023e-17 6.108538253926615e-17 -6.784975977790023e-17 6.108538253926615e-17 0.9028130326655374 -0.4300332871407622
12611104000.0 0.8987525070456763 -0.43845630464043533 -6.72570048564233e-17 6.171098319999e-17 -6.72570048564233e-17 6.171098319999e-17 0.8987527912039945 -0.4384557221691415
12611721333.333334 0.8946136885251893 -0.4468404058533542 -6.665848939326018e-17 6.233084041699688e-17 -6.665848939326018e-17 6.233084041699688e-17 0.8946139781029723 -0.4468398260927612
12612338666.666666 0.890396660218447 -0.4551854429478916 -6.605426896074172e-17 6.294490122152871e-17 -6.605426896074172e-17 6.294490122152871e-17 0.8903969551898505 -0.45518486594841623
12612956000.0 0.8861017907906326 -0.4634906863761865 -6.544439961752426e-17 6.355311318182177e-17 -6.544439961752426e-17 6.355311318182177e-17 0.8861020911293409 -0.4634901121879984
12613573333.333334 0.8817294557120912 -0.4717554100691314 -6.48289379034348e-17 6.415542440753722e-17 -6.48289379034348e-17 6.415542440753722e-17 0.8817297613913243 -0.47175483874215035
12614190666.666666 0.877280037225409 -0.47997889150005235 -6.420794083422291e-17 6.475178355419572e-17 -6.420794083422291e-17 6.475178355419572e-17 0.8772803482179228 -0.4799783230839432
12614808000.0 0.8727539243120059 -0.48816041174784786 -6.358146589630993e-17 6.534213982752234e-17 -6.358146589630993e-17 6.534213982752234e-17 0.8727542405900931 -0.4881598462920156
12615425333.333334 0.8681515126581935 -0.4962992555597121 -6.294957104147715e-17 6.592644298776365e-17 -6.294957104147715e-17 6.592644298776365e-17 0.8681518341936889 -0.4962986931132988
12616042666.666666 0.8634732046205492 -0.504394711413743 -6.231231468153405e-17 6.650464335393265e-17 -6.231231468153405e-17 6.650464335393265e-17 0.8634735313848296 -0.5043941520256223
12616660000.0 0.8587194091906933 -0.5124460715812168 -6.166975568293198e-17 6.707669180801977e-17 -6.166975568293198e-17 6.707669180801977e-17 0.8587197411546814 -0.51244551529999
12617277333.333334 0.8538905419596046 -0.5204526321883363 -6.10219533613366e-17 6.764253979915283e-17 -6.10219533613366e-17 6.764253979915283e-17 0.8538908790937715 -0.520452079062329
12617894666.666666 0.8489870250813067 -0.528413693277744 -6.036896747619156e-17 6.820213934767912e-17 -6.036896747619156e-17 6.820213934767912e-17 0.8489873673556763 -0.5284131433550016
12618512000.0 0.8440092872358308 -0.5363285588699332 -5.971085822519651e-17 6.875544304923799e-17 -5.971085822519651e-17 6.875544304923799e-17 0.8440096346199767 -0.5363280121982147
12619129333.333334 0.8389577635918792 -0.5441965370238457 -5.904768623879697e-17 6.930240407873834e-17 -5.904768623879697e-17 6.930240407873834e-17 0.838958116054935 -0.5441959936506232
12619746666.666666 0.8338328957687331 -0.5520169398974675 -5.837951257460838e-17 6.984297619430793e-17 -5.837951257460838e-17 6.984297619430793e-17 0.8338332532793891 -0.5520163998699185
12620364000.0 0.8286351317975876 -0.5597890838080256 -5.770639871180576e-17 7.037711374118729e-17 -5.770639871180576e-17 7.037711374118729e-17 0.8286354943240976 -0.5597885471730318
12620981333.333334 0.8233649260824865 -0.5675122892916212 -5.702840654549726e-17 7.090477165555607e-17 -5.702840654549726e-17 7.090477165555607e-17 0.8233652935926673 -0.5675117560957622
12621598666.666666 0.8180227393605259 -0.5751858811627211 -5.63455983810412e-17 7.142590546832026e-17 -5.63455983810412e-17 7.142590546832026e-17 0.8180231118217635 -0.5751853514522721
12622216000.0 0.8126090386615975 -0.582809188573163 -5.565803692834222e-17 7.194047130883627e-17 -5.565803692834222e-17 7.194047130883627e-17 0.8126094160408474 -0.5828086623940898
12622833333.333334 0.807124297267556 -0.5903815450708032 -5.4965785296098765e-17 7.244842590859112e-17 -5.4965785296098765e-17 7.244842590859112e-17 0.8071246795313467 -0.5903810224687578
12623450666.666666 0.801568994670843 -0.5979022886577774 -5.426890698604821e-17 7.294972660480366e-17 -5.426890698604821e-17 7.294972660480366e-17 0.8015693817852806 -0.5979017696780956
12624068000.0 0.7959436165325888 -0.6053707618483551 -5.356746588713999e-17 7.344433134400064e-17 -5.356746588713999e-17 7.344433134400064e-17 0.7959440084633568 -0.6053702465360504
12624685333.333334 0.7902486546400643 -0.6127863117265292 -5.286152626969756e-17 7.393219868552138e-17 -5.286152626969756e-17 7.393219868552138e-17 0.7902490513524301 -0.6127858001262915
12625302666.666666 0.784484606863898 -0.6201482900028272 -5.2151152779558626e-17 7.441328780495867e-17 -5.2151152779558626e-17 7.441328780495867e-17 0.7844850083227136 -0.6201477821590167
12625920000.0 0.7786519771142179 -0.627456053071412 -5.1436410432153186e-17 7.48875584975665e-17 -5.1436410432153186e-17 7.48875584975665e-17 0.7786523832839243 -0.6274555490280561
12626537333.333334 0.7727512752969496 -0.634708962065901 -5.071736460659311e-17 7.535497118158143e-17 -5.071736460659311e-17 7.535497118158143e-17 0.7727516861415794 -0.6347084618666913
12627154666.666666 0.766783017269082 -0.6419063829154192 -4.999408103968919e-17 7.581548690151658e-17 -4.999408103968919e-17 7.581548690151658e-17 0.7667834327522628 -0.6419058866037067
12627772000.0 0.7607477247934058 -0.6490476864002298 -4.926662581995763e-17 7.626906733138515e-17 -4.926662581995763e-17 7.626906733138515e-17 0.7607481448783628 -0.649047194019021
12628389333.333334 0.7546459254932599 -0.6561322482063009 -4.853506538162165e-17 7.671567477785148e-17 -4.853506538162165e-17 7.671567477785148e-17 0.75464635014282 -0.6561317597982551
12629006666.666666 0.7484781528060621 -0.6631594489803035 -4.779946649852169e-17 7.715527218336514e-17 -4.779946649852169e-17 7.715527218336514e-17 0.7484785819826564 -0.6631589645877279
12629624000.0 0.7422449459369093 -0.6701286743834712 -4.70598962780738e-17 7.75878231291883e-17 -4.70598962780738e-17 7.75878231291883e-17 0.7422453796025775 -0.6701281940483186
12630241333.333334 0.7359468498112558 -0.6770393151455258 -4.631642215514415e-17 7.801329183840139e-17 -4.631642215514415e-17 7.801329183840139e-17 0.7359472879276484 -0.6770388389093893
12630858666.666666 0.7295844150275002 -0.6838907671176851 -4.556911188592312e-17 7.843164317883379e-17 -4.556911188592312e-17 7.843164317883379e-17 0.7295848575558819 -0.6838902950217955
12631476000.0 0.7231581978085807 -0.690682431325773 -4.481803354175484e-17 7.884284266594607e-17 -4.481803354175484e-17 7.884284266594607e-17 0.7231586447098355 -0.6906819634109962
12632093333.333334 0.7166687599535437 -0.697413714022376 -4.4063255502975514e-17 7.924685646563503e-17 -4.4063255502975514e-17 7.924685646563503e-17 0.7166692111881771 -0.6974132503292082
12632710666.666666 0.7101166687884312 -0.7040840267387526 -4.330484645268346e-17 7.964365139700347e-17 -4.330484645268346e-17 7.964365139700347e-17 0.7101171243165725 -0.704083567307316
12633328000.0 0.703502497116502 -0.7106927863364595 -4.254287537050713e-17 8.003319493505781e-17 -4.254287537050713e-17 8.003319493505781e-17 0.7035029568979109 -0.7106923312065009
12633945333.333334 0.6968268231683787 -0.7172394150581106 -4.1777411526358376e-17 8.041545521334181e-17 -4.1777411526358376e-17 8.041545521334181e-17 0.6968272871624448 -0.7172389642689961
12634562666.666666 0.6900902305513109 -0.723723340578065 -4.100852447414417e-17 8.07904010265202e-17 -4.100852447414417e-17 8.07904010265202e-17 0.6900906987170616 -0.7237228941687781
12635180000.0 0.6832933081983017 -0.7301439960523234 -4.0236284045455543e-17 8.115800183290281e-17 -4.0236284045455543e-17 8.115800183290281e-17 0.6832937804944029 -0.7301435540614609
12635797333.333334 0.6764366503165373 -0.7365008201681635 -3.9460760343252186e-17 8.151822775689805e-17 -3.9460760343252186e-17 8.151822775689805e-17 0.6764371267012974 -0.7365003826339311
12636414666.666666 0.6695208563354601 -0.7427932571931892 -3.8682023735516883e-17 8.18710495914127e-17 -3.8682023735516883e-17 8.18710495914127e-17 0.669521336766835 -0.7427928241534006
12637032000.0 0.6625465308543654 -0.7490207570239162 -3.790014484886503e-17 8.221643880020056e-17 -3.790014484886503e-17 8.221643880020056e-17 0.6625470152899611 -0.7490203285159882
12637649333.333334 0.6555142835895449 -0.7551827752338635 -3.711519456217801e-17 8.255436752013063e-17 -3.711519456217801e-17 8.255436752013063e-17 0.6555147719866214 -0.7551823512948128
12638266666.666666 0.6484247293210069 -0.7612787731211311 -3.632724400018416e-17 8.288480856340945e-17 -3.632724400018416e-17 8.288480856340945e-17 0.6484252216364818 -0.7612783537875711
12638884000.0 0.6412784878386403 -0.7673082177555649 -3.5536364527022243e-17 8.320773541974083e-17 -3.5536364527022243e-17 8.320773541974083e-17 0.6412789840290936 -0.7673078030637039
12639501333.333334 0.6340761838881425 -0.7732705820252606 -3.474262773980532e-17 8.352312225841698e-17 -3.474262773980532e-17 8.352312225841698e-17 0.6340766839098194 -0.7732701720108968
12640118666.666666 0.6268184471164451 -0.7791653446826051 -3.394610546216168e-17 8.383094393035002e-17 -3.394610546216168e-17 8.383094393035002e-17 0.6268189509252599 -0.7791649393811243
12640736000.0 0.6195059120163605 -0.7849919903901007 -3.3146869737705484e-17 8.413117597006308e-17 -3.3146869737705484e-17 8.413117597006308e-17 0.6195064195679011 -0.7849915898364738
12641353333.333334 0.6121392178715539 -0.7907500097650565 -3.2344992823607605e-17 8.442379459757345e-17 -3.2344992823607605e-17 8.442379459757345e-17 0.6121397291210849 -0.7907496139938353
12641970666.666666 0.6047190087003231 -0.7964388994243895 -3.1540547184020794e-17 8.470877672026491e-17 -3.1540547184020794e-17 8.470877672026491e-17 0.6047195236027908 -0.7964385084697048
12642588000.0 0.5972459331994533 -0.8020581620285081 -3.073360548356293e-17 8.498609993466834e-17 -3.073360548356293e-17 8.498609993466834e-17 0.5972464517094888 -0.8020577759240662
12643205333.333334 0.5897206446874147 -0.8076073063248599 -2.992424058078071e-17 8.525574252818358e-17 -2.992424058078071e-17 8.525574252818358e-17 0.589721166759338 -0.8076069251039395
12643822666.666666 0.5821438010472919 -0.8130858471908403 -2.9112525521566766e-17 8.551768348074923e-17 -2.9112525521566766e-17 8.551768348074923e-17 0.5821443266351164 -0.813085470886291
12644440000.0 0.5745160646692947 -0.8184933056761933 -2.829853353259937e-17 8.577190246643841e-17 -2.829853353259937e-17 8.577190246643841e-17 0.574516593726731 -0.8184929343204307
12645057333.333334 0.5668381023928727 -0.8238292090448621 -2.7482338014739327e-17 8.601837985500162e-17 -2.7482338014739327e-17 8.601837985500162e-17 0.5668386348733324 -0.8238288426698663
12645674666.666666 0.5591105854483264 -0.8290930908163849 -2.66640125364407e-17 8.625709671333813e-17 -2.66640125364407e-17 8.625709671333813e-17 0.5591111213049265 -0.8290927294536977
12646292000.0 0.551334189398099 -0.8342844908066892 -2.5843630827110013e-17 8.648803480691697e-17 -2.5843630827110013e-17 8.648803480691697e-17 0.5513347285836664 -0.8342841344874117
12646909333.333334 0.543509594077957 -0.8394029551681664 -2.502126677050299e-17 8.671117660112087e-17 -2.502126677050299e-17 8.671117660112087e-17 0.5435101365450312 -0.8394026039229544
12647526666.666666 0.5356374835372454 -0.8444480364295502 -2.419699439807547e-17 8.692650526253677e-17 -2.419699439807547e-17 8.692650526253677e-17 0.5356380292380846 -0.8444476902886142
12648144000.0 0.5277185459792542 -0.8494192935349281 -2.3370887882328783e-17 8.713400466018229e-17 -2.3370887882328783e-17 8.713400466018229e-17 0.5277190948658386 -0.8494189525280295
12648761333.333334 0.5197534737010535 -0.8543162918823004 -2.254302153015268e-17 8.73336593666674e-17 -2.254302153015268e-17 8.73336593666674e-17 0.5197540257250884 -0.8543159560387472
12649378666.666666 0.5117429630330186 -0.8591386033615425 -2.1713469776171084e-17 8.752545465928913e-17 -2.1713469776171084e-17 8.752545465928913e-17 0.5117435181459412 -0.8591382727101908
12649996000.0 0.5036877142777386 -0.8638858063919695 -2.0882307176044572e-17 8.770937652107295e-17 -2.0882307176044572e-17 8.770937652107295e-17 0.5036882724307197 -0.8638854809612169
12650613333.333334 0.49558843164900923 -0.8685574859590537 -2.0049608399784304e-17 8.788541164174479e-17 -2.0049608399784304e-17 8.788541164174479e-17 0.49558899279295915 -0.8685571657768395
12651230666.666666 0.48744582321029734 -0.8731532336506986 -1.9215448225083567e-17 8.805354741863491e-17 -1.9215448225083567e-17 8.805354741863491e-17 0.4874463872958698 -0.8731529187445005
12651848000.0 0.4792606008125176 -0.8776726476931251 -1.837990153058474e-17 8.821377195753105e-17 -1.837990153058474e-17 8.821377195753105e-17 0.4792611677901138 -0.877672338089957
12652465333.333334 0.47103348003216977 -0.882115332985783 -1.7543043289187464e-17 8.836607407345754e-17 -1.7543043289187464e-17 8.836607407345754e-17 0.47103404985194336 -0.8821150287121928
12653082666.666666 0.4627651801086851 -0.8864809011359528 -1.6704948561351093e-17 8.851044329139156e-17 -1.6704948561351093e-17 8.851044329139156e-17 0.4627657527205456 -0.8864806022180192
12653700000.0 0.454456423881347 -0.8907689704928065 -1.5865692488341664e-17 8.86468698469255e-17 -1.5865692488341664e-17 8.86468698469255e-17 0.4544569992349645 -0.890768676956137
12654317333.333334 0.4461079377263464 -0.8949791661806338 -1.5025350285549834e-17 8.877534468685164e-17 -1.5025350285549834e-17 8.877534468685164e-17 0.4461085157711573 -0.8949788780503655
12654934666.666666 0.43772045149318395 -0.8991111201316772 -1.418399723572928e-17 8.889585946969717e-17 -1.418399723572928e-17 8.889585946969717e-17 0.43772103217839353 -0.8991108374324697
12655552000.0 0.4292946984407592 -0.9031644711183525 -1.3341708682281972e-17 8.900840656618596e-17 -1.3341708682281972e-17 8.900840656618596e-17 0.42929528171534725 -0.9031641938743897
12656169333.333334 0.42083141517354883 -0.9071388647846949 -1.2498560022541024e-17 8.911297905963842e-17 -1.2498560022541024e-17 8.911297905963842e-17 0.42083200098627344 -0.9071385930196803
12656786666.666666 0.41233134157685136 -0.9110339536775068 -1.1654626701002973e-17 8.920957074631351e-17 -1.1654626701002973e-17 8.920957074631351e-17 0.4123319298762541 -0.9110336874146638
12657404000.0 0.4037952207523878 -0.9148493972766039 -1.0809984202619522e-17 8.929817613567956e-17 -1.0809984202619522e-17 8.929817613567956e-17 0.40379581148679783 -0.9148491365386723
12658021333.333334 0.39522379895320786 -0.9185848620246421 -9.964708046047563e-18 8.937879045062612e-17 -9.964708046047563e-18 8.937879045062612e-17 0.39522439207074594 -0.918584606833875
12658638666.666666 0.386617825518502 -0.9222400213562528 -9.118873776916737e-18 8.945140962761098e-17 -9.118873776916737e-18 8.945140962761098e-17 0.3866184209670864 -0.9222397717344185
12659256000.0 0.3779780528079882 -0.9258145557266415 -8.272556961081823e-18 8.951603031674375e-17 -8.272556961081823e-18 8.951603031674375e-17 0.3779786505353381 -0.9258143116950182
12659873333.333334 0.36930523613626853 -0.9293081526394634 -7.425833177901553e-18 8.957264988180512e-17 -7.425833177901553e-18 8.957264988180512e-17 0.36930583608990925 -0.929307914218839
12660490666.666666 0.36060013370685073 -0.9327205066741254 -6.578778013495826e-18 8.96212664002035e-17 -6.578778013495826e-18 8.96212664002035e-17 0.3606007358341182 -0.9327202738847956
12661108000.0 0.35186350654549525 -0.9360513195126346 -5.73146705400244e-18 8.966187866286847e-17 -5.73146705400244e-18 8.966187866286847e-17 0.3518641107935401 -0.9360510923744
12661725333.333334 0.34309611843421034 -0.939300299965466 -4.8839758788746825e-18 8.969448617407855e-17 -4.8839758788746825e-18 8.969448617407855e-17 0.343096724750003 -0.9393000784976313
12662342666.666666 0.3342987358441118 -0.9424671639971673 -4.036380054118394e-18 8.971908915122901e-17 -4.036380054118394e-18 8.971908915122901e-17 0.3342993441744477 -0.9424669482185407
12662960000.0 0.3254721278684677 -0.9455516347511689 -3.1887551255966085e-18 8.973568852453298e-17 -3.1887551255966085e-18 8.973568852453298e-17 0.3254727381599706 -0.9455514246800578
12663577333.333334 0.31661706615559393 -0.948553442573933 -2.3411766122977913e-18 8.9744285936661e-17 -2.3411766122977913e-18 8.9744285936661e-17 0.3166176783547218 -0.9485532382281457
12664194666.666666 0.3077343248412899 -0.9514723250385745 -1.4937199996269711e-18 8.974488374231714e-17 -1.4937199996269711e-18 8.974488374231714e-17 0.3077349388943392 -0.9514721264354166
12664812000.0 0.29882468048121374 -0.9543080269677796 -6.464607326871405e-19 8.973748500775144e-17 -6.464607326871405e-19 8.973748500775144e-17 0.29882529633432386 -0.9543078341240521
12665429333.333334 0.28988891198285816 -0.9570603004561578 2.0052579041015236e-19 8.972209351020936e-17 2.0052579041015236e-19 8.972209351020936e-17 0.2898895295820164 -0.9570601133881574
12666046666.666666 0.28092780053775446 -0.9597289048918218 1.0471642252350938e-18 8.969871373731854e-17 1.0471642252350938e-18 8.969871373731854e-17 0.2809284198288013 -0.9597287236153396
12666664000.0 0.27194212955277125 -0.9623136069775479 1.893379287763284e-18 8.966735088641137e-17 1.893379287763284e-18 8.966735088641137e-17 0.27194275048140404 -0.9623134315078661
12667281333.333334 0.2629326845820624 -0.9648141807510423 2.739095761004754e-18 8.962801086378672e-17 2.739095761004754e-18 8.962801086378672e-17 0.2629333070938405 -0.9648140111029336
12667898666.666666 0.2539002532580088 -0.9672304076048036 3.584238501708547e-18 8.958070028390686e-17 3.584238501708547e-18 8.958070028390686e-17 0.25390087729835886 -0.9672302437925315
12668516000.0 0.2448456252225254 -0.9695620763051879 4.428732447032587e-18 8.952542646853155e-17 4.428732447032587e-18 8.952542646853155e-17 0.24484625073674546 -0.969561918342503
12669133333.333334 0.23576959205819337 -0.9718089830108326 5.272502621158041e-18 8.946219744579277e-17 5.272502621158041e-18 8.946219744579277e-17 0.2357702189914584 -0.9718088309109746
12669750666.666666 0.2266729472187005 -0.9739709312905718 6.115474141964549e-18 8.939102194920221e-17 6.115474141964549e-18 8.939102194920221e-17 0.22667357551606634 -0.9739707850662654
12670368000.0 0.2175564859597496 -0.9760477321405349 6.957572227658918e-18 8.931190941659901e-17 6.957572227658918e-18 8.931190941659901e-17 0.2175571155661585 -0.9760475918039905
12670985333.333334 0.20842100526950819 -0.9780392040006799 7.798722203371987e-18 8.922486998903648e-17 7.798722203371987e-18 8.922486998903648e-17 0.20842163612979317 -0.9780390695635915
