! Parameters = {f0=12700.012000; bw=77.238000; Q=6100.000000; N=10; m_0_1=1.298994; m_1_1=0.720164; m_1_2=1.133806; m_2_2=0.719515; m_2_3=0.770769; m_2_8=0.002013; m_2_9=0.038717; m_3_3=0.717578; m_3_4=0.659298; m_3_7=0.002613; m_3_8=-0.094475; m_3_9=0.002013; m_4_4=0.714653; m_4_5=0.495633; m_4_6=0.006130; m_4_7=-0.115024; m_4_8=0.002613; m_5_5=0.715035; m_5_6=0.902988; m_5_7=0.006130; m_6_6=0.715034; m_6_7=0.495975; m_7_7=0.714667; m_7_8=0.659416; m_8_8=0.717576; m_8_9=0.771082; m_9_9=0.719510; m_9_10=1.134884; m_10_10=0.720154; m_10_11=1.299789}
!
! Created with skrf (http://scikit-rf.org).
# Hz S RI R 50.0 
!freq ReS11 ImS11 ReS21 ImS21 ReS12 ImS12 ReS22 ImS22
12607400000.0 -0.5041931121103435 0.8635909365552086 3.013778805163302e-17 -1.2292041069944304e-16 3.013778805163302e-17 -1.2292041069944304e-16 -0.5041937030941973 0.863590591518907
12608017333.333334 -0.49433293749727375 0.8692726539499168 2.8720465537159695e-17 -1.2323382678769786e-16 2.8720465537159695e-17 -1.2323382678769786e-16 -0.4943335323401945 0.8692723156778212
12608634666.666666 -0.48440874432125103 0.874841796226566 2.7299920296323298e-17 -1.235309106685814e-16 2.7299920296323298e-17 -1.235309106685814e-16 -0.4844093429458291 0.874841464761819
12609252000.0 -0.47442181781451914 0.880297642153711 2.5876340414373713e-17 -1.2381162966668942e-16 2.5876340414373713e-17 -1.2381162966668942e-16 -0.4744224201428635 0.880297317538571
12609869333.333334 -0.46437345133357266 0.8856394851723599 2.4449914301943698e-17 -1.2407595327133067e-16 2.4449914301943698e-17 -1.2407595327133067e-16 -0.4643740572873196 0.8856391674481929
12610486666.666666 -0.45426494619178587 0.8908666334874094 2.3020830670185325e-17 -1.2432385313968463e-16 2.3020830670185325e-17 -1.2432385313968463e-16 -0.45426555569211075 0.8908663226946862
12611104000.0 -0.4440976114906103 0.8959784101573823 2.1589278505766948e-17 -1.245553030996929e-16 2.1589278505766948e-17 -1.245553030996929e-16 -0.44409822445823666 0.8959781063356721
12611721333.333334 -0.43387276395039265 0.9009741531819117 2.0155447046002695e-17 -1.2477027915263431e-16 2.0155447046002695e-17 -1.2477027915263431e-16 -0.4338733803056022 0.9009738563698757
12612338666.666666 -0.42359172773959947 0.9058532155876017 1.8719525753821123e-17 -1.2496875947543944e-16 1.8719525753821123e-17 -1.2496875947543944e-16 -0.42359234740224344 0.9058529258229904
12612956000.0 -0.41325583430332924 0.9106149655118108 1.7281704292770183e-17 -1.2515072442270616e-16 1.7281704292770183e-17 -1.2515072442270616e-16 -0.4132564571928385 0.9106146828314589
12613573333.333334 -0.4028664221911161 0.9152587862843736 1.584217250203452e-17 -1.253161565284266e-16 1.584217250203452e-17 -1.253161565284266e-16 -0.40286704822651204 0.9152585107241954
12614190666.666666 -0.3924248368833243 0.9197840765075859 1.440112037137156e-17 -1.2546504050743453e-16 1.440112037137156e-17 -1.2546504050743453e-16 -0.39242546598322775 0.919783808102568
12614808000.0 -0.3819324306170283 0.9241902501340216 1.2958738016091183e-17 -1.255973632565594e-16 1.2958738016091183e-17 -1.255973632565594e-16 -0.3819330626996719 0.924189988918222
12615425333.333334 -0.3713905622108675 0.928476736542447 1.1515215652007176e-17 -1.2571311385549487e-16 1.1515215652007176e-17 -1.2571311385549487e-16 -0.3713911971941056 0.9284764825489895
12616042666.666666 -0.36080059688907157 0.9326429806117159 1.0070743570388989e-17 -1.258122835673809e-16 1.0070743570388989e-17 -1.258122835673809e-16 -0.3608012346903911 0.9326427338727862
12616660000.0 -0.35016390610465825 0.936688442792663 8.625512112913292e-18 -1.2589486583909754e-16 8.625512112913292e-18 -1.2589486583909754e-16 -0.35016454664118885 0.936688203339503
12617277333.333334 -0.339481867361795 0.9406125991779849 7.179711646615106e-18 -1.2596085630127204e-16 7.179711646615106e-18 -1.2596085630127204e-16 -0.33948251055032036 0.9406123670408902
12617894666.666666 -0.3287558640375403 0.9444149415700421 5.733532538866948e-18 -1.2601025276799787e-16 5.733532538866948e-18 -1.2601025276799787e-16 -0.3287565097945091 0.9444147167783591
12618512000.0 -0.3179872852023946 0.9480949775467783 4.287165132310387e-18 -1.260430552362694e-16 4.287165132310387e-18 -1.260430552362694e-16 -0.317987933443931 0.9480947601288985
12619129333.333334 -0.3071775254407848 0.9516522305253597 2.840799719890216e-18 -1.2605926588512622e-16 2.840799719890216e-18 -1.2605926588512622e-16 -0.3071781760826989 0.951652020508716
12619746666.666666 -0.29632798467018834 0.9550862398239859 1.3946265198189478e-18 -1.2605888907451408e-16 1.3946265198189478e-18 -1.2605888907451408e-16 -0.29632863762798856 0.9550860372350524
12620364000.0 -0.2854400679598386 0.9583965607215512 -5.11643494032409e-20 -1.2604193134385775e-16 -5.11643494032409e-20 -1.2604193134385775e-16 -0.285440723148741 0.9583963655858359
12620981333.333334 -0.2745151853490038 0.96158276451516 -1.4963828939134422e-18 -1.2600840141034894e-16 -1.4963828939134422e-18 -1.2600840141034894e-16 -0.27451584268394424 0.9615825768572035
12621598666.666666 -0.2635547516641093 0.9646444385757303 -2.9408392694528838e-18 -1.259583101669476e-16 -2.9408392694528838e-18 -1.259583101669476e-16 -0.2635554110597537 0.9646442584191022
12622216000.0 -0.2525601863356458 0.9675811864013885 -4.3843438062506255e-18 -1.2589167068009915e-16 -4.3843438062506255e-18 -1.2589167068009915e-16 -0.25256084770640214 0.9675810137686862
12622833333.333334 -0.2415329132142651 0.9703926276688448 -5.826707033899654e-18 -1.2580849818716576e-16 -5.826707033899654e-18 -1.2580849818716576e-16 -0.24153357647429327 0.9703924625816874
12623450666.666666 -0.23047436038660296 0.9730783982825856 -7.267739706175574e-18 -1.2570881009357448e-16 -7.267739706175574e-18 -1.2570881009357448e-16 -0.23047502544982706 0.9730782407616139
12624068000.0 -0.2193859599900608 0.975638150422099 -8.70725282584831e-18 -1.255926259696802e-16 -8.70725282584831e-18 -1.255926259696802e-16 -0.21938662677017984 0.9756380004869722
12624685333.333334 -0.2082691480272802 0.9780715525869293 -1.0145057669437027e-17 -1.254599675473449e-16 -1.0145057669437027e-17 -1.254599675473449e-16 -0.20826981643777903 0.9780714102563218
12625302666.666666 -0.19712536418072737 0.9803782896394798 -1.1580965811880207e-17 -1.2531085871623826e-16 -1.1580965811880207e-17 -1.2531085871623826e-16 -0.1971260341348883 0.9803781549310793
12625920000.0 -0.18595605162541498 0.982558062846009 -1.3014789151245884e-17 -1.2514532551984775e-16 -1.3014789151245884e-17 -1.2514532551984775e-16 -0.18595672303632904 0.9825579357765151
12626537333.333334 -0.1747626568428102 0.9846105899151493 -1.4446339933286565e-17 -1.2496339615121733e-16 -1.4446339933286565e-17 -1.2496339615121733e-16 -0.1747633296233881 0.9846104705002701
12627154666.666666 -0.16354662943303497 0.9865356050345617 -1.5875430776009953e-17 -1.2476510094839814e-16 -1.5875430776009953e-17 -1.2476510094839814e-16 -0.16354730349601876 0.9865354932890137
12627772000.0 -0.152309421927107 0.9883328589053619 -1.7301874694191004e-17 -1.245504723896174e-16 -1.7301874694191004e-17 -1.245504723896174e-16 -0.15231009718508096 0.9883327548428654
12628389333.333334 -0.1410524895991937 0.9900021187743413 -1.8725485123751517e-17 -1.2431954508817907e-16 -1.8725485123751517e-17 -1.2431954508817907e-16 -0.14105316596459602 0.9900020224076215
12629006666.666666 -0.12977729027772647 0.9915431684641813 -2.0146075946177343e-17 -1.2407235578706993e-16 -2.0146075946177343e-17 -1.2407235578706993e-16 -0.12977796766286043 0.9915430798049641
12629624000.0 -0.11848528415691338 0.992955808401397 -2.156346151277559e-17 -1.2380894335330192e-16 -2.156346151277559e-17 -1.2380894335330192e-16 -0.11848596247395903 0.9929557274604118
12630241333.333334 -0.10717793360746844 0.9942398556422131 -2.2977456668920656e-17 -1.2352934877196825e-16 -2.2977456668920656e-17 -1.2352934877196825e-16 -0.10717861276849355 0.9942397824291872
12630858666.666666 -0.09585670298739646 0.995395143896233 -2.4387876778183635e-17 -1.2323361514003121e-16 -2.4387876778183635e-17 -1.2323361514003121e-16 -0.09585738290436806 0.9953950784198915
12631476000.0 -0.08452305845204042 0.9964215235480058 -2.5794537746443575e-17 -1.2292178765982185e-16 -2.5794537746443575e-17 -1.2292178765982185e-16 -0.08452373903683631 0.9964214658160716
12632093333.333334 -0.07317846776457483 0.9973188616763672 -2.7197256045834245e-17 -1.225939136322837e-16 -2.7197256045834245e-17 -1.225939136322837e-16 -0.07317914892899502 0.9973188116955602
12632710666.666666 -0.06182440010575368 0.9980870420716724 -2.859584873867347e-17 -1.2225004244992928e-16 -2.859584873867347e-17 -1.2225004244992928e-16 -0.06182508176153159 0.9980869998477069
12633328000.0 -0.05046232588350199 0.9987259652508504 -2.999013350130183e-17 -1.2189022558952397e-16 -2.999013350130183e-17 -1.2189022558952397e-16 -0.05046300794231617 0.998725930788437
12633945333.333334 -0.039093716542746286 0.9992355484702745 -3.137992864778283e-17 -1.2151451660451126e-16 -3.137992864778283e-17 -1.2151451660451126e-16 -0.03909439891623167 0.9992355217731177
12634562666.666666 -0.027720044374713173 0.9996157257364857 -3.27650531535585e-17 -1.2112297111715547e-16 -3.27650531535585e-17 -1.2112297111715547e-16 -0.02772072697447253 0.9996157068072823
12635180000.0 -0.01634278232628862 0.9998664478147326 -3.4145326678988016e-17 -1.2071564681042132e-16 -3.4145326678988016e-17 -1.2071564681042132e-16 -0.016343465063904182 0.999866436655177
12635797333.333334 -0.004963403809235918 0.9999876822353574 -3.5520569592793937e-17 -1.2029260341958337e-16 -3.5520569592793937e-17 -1.2029260341958337e-16 -0.004964086596280595 0.9999876788461348
12636414666.666666 0.006416617490505039 0.999979413297993 -3.6890602995389225e-17 -1.1985390272357477e-16 -3.6890602995389225e-17 -1.1985390272357477e-16 0.00641593474245605 0.9999794176787826
12637032000.0 0.017795807803837747 0.9998416420735959 -3.8255248742132866e-17 -1.1939960853605944e-16 -3.8255248742132866e-17 -1.1939960853605944e-16 0.017795125183195582 0.9998416542230727
12637649333.333334 0.0291726934692559 0.9995743864043162 -3.961432946644325e-17 -1.1892978669625157e-16 -3.961432946644325e-17 -1.1892978669625157e-16 0.029172011064406547 0.9995744063201472
12638266666.666666 0.04054580112371822 0.9991776809011761 -4.096766860281708e-17 -1.1844450505946637e-16 -4.096766860281708e-17 -1.1844450505946637e-16 0.04054511902301108 0.9991777085800234
12638884000.0 0.05191365789345622 0.9986515769395932 -4.231509040973093e-17 -1.1794383348741162e-16 -4.231509040973093e-17 -1.1794383348741162e-16 0.05191297618519272 0.998651612377115
12639501333.333334 0.06327479158474725 0.9979961426527275 -4.365641999242838e-17 -1.174278438382168e-16 -4.365641999242838e-17 -1.174278438382168e-16 0.0632741103571693 0.997996185843576
12640118666.666666 0.07462773087440035 0.9972114629226618 -4.4991483325564036e-17 -1.1689660995621315e-16 -4.4991483325564036e-17 -1.1689660995621315e-16 0.07462705021567904 0.9972115138604863
12640736000.0 0.08597100550075377 0.9962976393693835 -4.6320107275797324e-17 -1.1635020766142857e-16 -4.6320107275797324e-17 -1.1635020766142857e-16 0.08597032549897794 0.9962976980468317
12641353333.333334 0.09730314645340082 0.9952547903376724 -4.764211962412762e-17 -1.1578871473887852e-16 -4.764211962412762e-17 -1.1578871473887852e-16 0.09730246719656568 0.9952548567463902
12641970666.666666 0.10862268616402923 0.9940830508817295 -4.895734908824938e-17 -1.1521221092754383e-16 -4.895734908824938e-17 -1.1521221092754383e-16 0.10862200774002474 0.9940831250123615
12642588000.0 0.11992815869619478 0.9927825727477071 -5.026562534467296e-17 -1.1462077790913695e-16 -5.026562534467296e-17 -1.1462077790913695e-16 0.11992748119279466 0.9927826545898997
12643205333.333334 0.13121809993519615 0.9913535243540581 -5.156677905074702e-17 -1.1401449929660254e-16 -5.156677905074702e-17 -1.1401449929660254e-16 0.1312174234400463 0.99135361389646
12643822666.666666 0.14249104777779795 0.9897960907697106 -5.28606418665533e-17 -1.1339346062236459e-16 -5.28606418665533e-17 -1.1339346062236459e-16 0.14249037237840512 0.989796187999974
12644440000.0 0.15374554232143844 0.9881104736901144 -5.414704647663137e-17 -1.1275774932633805e-16 -5.414704647663137e-17 -1.1275774932633805e-16 0.15374486810515894 0.9881105785948978
12645057333.333334 0.16498012605335172 0.9862968914111189 -5.5425826611580264e-17 -1.1210745474368672e-16 -5.5425826611580264e-17 -1.1210745474368672e-16 0.16497945310738 0.9862970039760873
12645674666.666666 0.1761933440391819 0.9843555788007232 -5.669681706951062e-17 -1.1144266809233764e-16 -5.669681706951062e-17 -1.1144266809233764e-16 0.1761926724505396 0.9843556990105523
12646292000.0 0.1873837441119091 0.9822867872685751 -5.795985373737014e-17 -1.107634824602413e-16 -5.795985373737014e-17 -1.107634824602413e-16 0.18738307396743356 0.9822869151069514
12646909333.333334 0.19854987705915586 0.9800907847335416 -5.921477361205455e-17 -1.1006999279242405e-16 -5.921477361205455e-17 -1.1006999279242405e-16 0.19854920844548907 0.9800909201831667
12647526666.666666 0.20969029681142795 0.9777678555889183 -6.046141482143699e-17 -1.0936229587776321e-16 -6.046141482143699e-17 -1.0936229587776321e-16 0.20968962981500472 0.9777679986315071
12648144000.0 0.22080356062932902 0.9753183006655964 -6.169961664520545e-17 -1.0864049033554318e-16 -6.169961664520545e-17 -1.0864049033554318e-16 0.2208028953363667 0.9753184512818844
12648761333.333334 0.23188822929018146 0.972742437193156 -6.292921953553205e-17 -1.0790467660178186e-16 -6.292921953553205e-17 -1.0790467660178186e-16 0.23188756578666836 0.9727425953628994
12649378666.666666 0.24294286727441297 0.9700405987587859 -6.415006513759206e-17 -1.071549569153163e-16 -6.415006513759206e-17 -1.071549569153163e-16 0.24294220564609725 0.9700407644607649
12649996000.0 0.25396604295174074 0.9672131352640184 -6.536199630993383e-17 -1.0639143530364829e-16 -6.536199630993383e-17 -1.0639143530364829e-16 0.2539653832841193 0.9672133084760394
12650613333.333334 0.2649563287663797 0.9642604128794562 -6.656485714465607e-17 -1.0561421756857375e-16 -6.656485714465607e-17 -1.0561421756857375e-16 0.2649556711446874 0.9642605935783563
12651230666.666666 0.2759123014218376 0.9611828139973805 -6.7758492987413e-17 -1.0482341127158776e-16 -6.7758492987413e-17 -1.0482341127158776e-16 0.2759116459310358 0.9611830021590286
12651848000.0 0.2868325420655113 0.9579807371821492 -6.894275045728845e-17 -1.0401912571903648e-16 -6.894275045728845e-17 -1.0401912571903648e-16 0.28683188879027727 0.9579809327814506
12652465333.333334 0.29771563647219035 0.9546545971186523 -7.011747746643794e-17 -1.0320147194708239e-16 -7.011747746643794e-17 -1.0320147194708239e-16 0.29771498549690617 0.9546548001295511
12653082666.666666 0.3085601752272056 0.9512048245586086 -7.128252323958066e-17 -1.0237056270643088e-16 -7.128252323958066e-17 -1.0237056270643088e-16 0.3085595266359474 0.9512050349540924
12653700000.0 0.3193647539092277 0.947631866264699 -7.243773833333932e-17 -1.0152651244681611e-16 -7.243773833333932e-17 -1.0152651244681611e-16 0.3193641077857543 0.9476320840168008
12654317333.333334 0.3301279732717662 0.9439361849528246 -7.358297465532885e-17 -1.0066943730132015e-16 -7.358297465532885e-17 -1.0066943730132015e-16 0.33012732969950914 0.943936410032629
12654934666.666666 0.3408484394246508 0.9401182592321017 -7.471808548312835e-17 -9.97994550704258e-17 -7.471808548312835e-17 -9.97994550704258e-17 0.340847798486703 0.9401184916097457
12655552000.0 0.3515247640145449 0.9361785835428708 -7.584292548303724e-17 -9.891668520587807e-17 -7.584292548303724e-17 -9.891668520587807e-17 0.3515241257936501 0.9361788231875507
12656169333.333334 0.36215556440450397 0.9321176680927531 -7.695735072861595e-17 -9.80212487943539e-17 -7.695735072861595e-17 -9.80212487943539e-17 0.36215492898304574 0.9321179149727261
12656786666.666666 0.3727394638533016 0.9279360387904816 -7.806121871908848e-17 -9.711326854088305e-17 -7.806121871908848e-17 -9.711326854088305e-17 0.37273883131329294 0.9279362928730709
12657404000.0 0.38327509169359003 0.9236342371778383 -7.915438839750719e-17 -9.619286875209405e-17 -7.915438839750719e-17 -9.619286875209405e-17 0.383274462116663 0.923634498429438
12658021333.333334 0.39376108350946143 0.9192128203595029 -8.023672016874118e-17 -9.526017531924185e-17 -8.023672016874118e-17 -9.526017531924185e-17 0.3937604569768564 0.9192130887455824
12658638666.666666 0.40419608131301654 0.9146723609309615 -8.130807591724624e-17 -9.431531570104947e-17 -8.130807591724624e-17 -9.431531570104947e-17 0.40419545790557154 0.9146726364160687
12659256000.0 0.4145787337204907 0.9100134469042381 -8.236831902467323e-17 -9.335841890631513e-17 -8.236831902467323e-17 -9.335841890631513e-17 0.41457811351863183 0.9100137294520065
12659873333.333334 0.4249076961270304 0.9052366816318461 -8.341731438722229e-17 -9.238961547636695e-17 -8.341731438722229e-17 -9.238961547636695e-17 0.4249070792107602 0.9052369712049976
12660490666.666666 0.4351816308808279 0.9003426837286567 -8.445492843281589e-17 -9.14090374673027e-17 -8.445492843281589e-17 -9.14090374673027e-17 0.43518101732971587 0.9003429802890065
12661108000.0 0.4453992074566103 0.8953320869916591 -8.548102913808817e-17 -9.041681843201181e-17 -8.548102913808817e-17 -9.041681843201181e-17 0.44539859734978227 0.8953323905001221
12661725333.333334 0.4555591026275901 0.8902055403180562 -8.649548604510368e-17 -8.941309340206704e-17 -8.649548604510368e-17 -8.941309340206704e-17 0.4555584960437181 0.8902058507346506
12662342666.666666 0.4656600006371101 0.8849637076210887 -8.749817027792691e-17 -8.839799886936701e-17 -8.749817027792691e-17 -8.839799886936701e-17 0.4656593976544026 0.8849640249049426
12662960000.0 0.47570059336891485 0.8796072677441222 -8.848895455893702e-17 -8.737167276763372e-17 -8.848895455893702e-17 -8.737167276763372e-17 0.47569999406510605 0.8796075918534781
12663577333.333334 0.48567958051658144 0.8741369143727166 -8.946771322494124e-17 -8.633425445371265e-17 -8.946771322494124e-17 -8.633425445371265e-17 0.48567898496892203 0.874137245264938
12664194666.666666 0.4955956697519175 0.8685533559447949 -9.043432224306716e-17 -8.528588468869544e-17 -9.043432224306716e-17 -8.528588468869544e-17 0.49559507803716374 0.86855369357637
12664812000.0 0.5054475768923223 0.8628573155588921 -9.138865922643458e-17 -8.422670561886574e-17 -9.138865922643458e-17 -8.422670561886574e-17 0.5054469890867267 0.8628576598854408
12665429333.333334 0.5152340260671205 0.8570495308804991 -9.233060344960714e-17 -8.315686075646736e-17 -9.233060344960714e-17 -8.315686075646736e-17 0.5152334422464221 0.8570498818567794
12666046666.666666 0.5249537498826709 0.8511307540466032 -9.326003586380574e-17 -8.207649496031648e-17 -9.326003586380574e-17 -8.207649496031648e-17 0.5249531701220855 0.8511311116265164
12666664000.0 0.5346054895867688 0.8451017515681224 -9.417683911193243e-17 -8.098575441620187e-17 -9.417683911193243e-17 -8.098575441620187e-17 0.5346049139609789 0.8451021157047184
12667281333.333334 0.5441879952313198 0.8389633042308425 -9.508089754330866e-17 -7.988478661718473e-17 -9.508089754330866e-17 -7.988478661718473e-17 0.5441874238144655 0.8389636748763277
12667898666.666666 0.5537000258344582 0.8327162069941576 -9.59720972282361e-17 -7.877374034367334e-17 -9.59720972282361e-17 -7.877374034367334e-17 0.5536994587001264 0.8327165840998989
12668516000.0 0.5631403495412561 0.8263612688881109 -9.68503259723158e-17 -7.765276564334572e-17 -9.68503259723158e-17 -7.765276564334572e-17 0.5631397867624729 0.8263616524046442
12669133333.333334 0.5725077437830433 0.8198993129087657 -9.771547333048109e-17 -7.652201381098058e-17 -9.771547333048109e-17 -7.652201381098058e-17 0.572507185432263 0.8198997027858013
12669750666.666666 0.5818009954359726 0.8133311759114665 -9.856743062088055e-17 -7.538163736802397e-17 -9.856743062088055e-17 -7.538163736802397e-17 0.5818004415850697 0.8133315720978961
