! Parameters = {f0=12700.012000; bw=77.238000; Q=6100.000000; N=10; m_0_1=1.336031; m_1_1=1.275720; m_1_2=1.170843; m_2_2=1.275071; m_2_3=0.807806; m_2_8=0.003865; m_2_9=0.040569; m_3_3=1.273134; m_3_4=0.696335; m_3_7=0.004465; m_3_8=-0.092623; m_3_9=0.003865; m_4_4=1.270209; m_4_5=0.532670; m_4_6=0.007982; m_4_7=-0.113172; m_4_8=0.004465; m_5_5=1.270591; m_5_6=0.940025; m_5_7=0.007982; m_6_6=1.270590; m_6_7=0.533012; m_7_7=1.270223; m_7_8=0.696453; m_8_8=1.273132; m_8_9=0.808119; m_9_9=1.275066; m_9_10=1.171921; m_10_10=1.275710; m_10_11=1.336826}
!
! Created with skrf (http://scikit-rf.org).
# Hz S RI R 50.0 
!freq ReS11 ImS11 ReS21 ImS21 ReS12 ImS12 ReS22 ImS22
12607400000.0 0.14365941055663806 -0.9896271892780257 2.1436691927294336e-17 1.479909520464184e-16 2.1436691927294336e-17 1.479909520464184e-16 0.14366010703078683 -0.9896270881739783
12608017333.333334 0.13130295500565367 -0.9913422890236185 2.328970207869217e-17 1.4768103431579668e-16 2.328970207869217e-17 1.4768103431579668e-16 0.13130365265269503 -0.9913421966202515
12608634666.666666 0.11892606562406519 -0.992903112551766 2.513831059740231e-17 1.4734792766625588e-16 2.513831059740231e-17 1.4734792766625588e-16 0.11892676433531908 -0.9929030288626055
12609252000.0 0.10653066854748325 -0.9943094169616576 2.6982227454291285e-17 1.4699169374937548e-16 2.6982227454291285e-17 1.4699169374937548e-16 0.10653136821411487 -0.9943093419988738
12609869333.333334 0.09411869279172126 -0.9955609833993008 2.882116347418203e-17 1.4661239784215643e-16 2.882116347418203e-17 1.4661239784215643e-16 0.09411939330475787 -0.9955609171737051
12610486666.666666 0.08169206995273696 -0.996657617091568 3.065483038108005e-17 1.4621010883531431e-16 3.065483038108005e-17 1.4621010883531431e-16 0.08169277120308469 -0.9966575596126107
12611104000.0 0.06925273390571884 -0.9975991473765338 3.248294084337341e-17 1.4578489922098122e-16 3.248294084337341e-17 1.4578489922098122e-16 0.06925343578417988 -0.9975990986523048
12611721333.333334 0.05680262050452639 -0.998385427730004 3.4305208518741453e-17 1.453368450798701e-16 3.4305208518741453e-17 1.453368450798701e-16 0.056803322901815625 -0.9983853877672272
12612338666.666666 0.044343667280170265 -0.9990163357883345 3.612134809896456e-17 1.4486602606786247e-16 3.612134809896456e-17 1.4486602606786247e-16 0.04434437008693276 -0.9990163045923715
12612956000.0 0.03187781313911661 -0.9994917733674812 3.793107535459397e-17 1.4437252540202527e-16 3.793107535459397e-17 1.4437252540202527e-16 0.031878516245944344 -0.9994917509423283
12613573333.333334 0.019406998062257375 -0.9998116664782505 3.973410717927801e-17 1.4385642984611206e-16 3.973410717927801e-17 1.4385642984611206e-16 0.01940770135970637 -0.9998116528265398
12614190666.666666 0.006933162802037921 -0.9999759653378497 4.1530161634049704e-17 1.4331782969546976e-16 4.1530161634049704e-17 1.4331782969546976e-16 0.0069338661806452135 -0.9999759604608471
12614808000.0 -0.005541751418831214 -0.9999846443776107 4.331895799137189e-17 1.427568187614049e-16 4.331895799137189e-17 1.427568187614049e-16 -0.005541048068530498 -0.9999846482752158
12615425333.333334 -0.01801580320978684 -0.999837702246975 4.5100216778900274e-17 1.4217349435502127e-16 4.5100216778900274e-17 1.4217349435502127e-16 -0.01801509999724245 -0.999837714917723
12616042666.666666 -0.030487051314482382 -0.9995351618137068 4.6873659823153666e-17 1.415679572704768e-16 4.6873659823153666e-17 1.415679572704768e-16 -0.030486348349111916 -0.9995351832547671
12616660000.0 -0.04295355491289309 -0.9990770701603309 4.863901029283254e-17 1.4094031176773732e-16 4.863901029283254e-17 1.4094031176773732e-16 -0.04295285230406498 -0.9990771003675091
12617277333.333334 -0.05541337392341011 -0.998463498576803 5.039599274203773e-17 1.4029066555474813e-16 5.039599274203773e-17 1.4029066555474813e-16 -0.05541267178042662 -0.998463537544541
12617894666.666666 -0.06786456930447919 -0.9976945425494337 5.21443331531256e-17 1.3961912976911276e-16 5.21443331531256e-17 1.3961912976911276e-16 -0.06786386773655939 -0.9976945902708101
12618512000.0 -0.08030520335698522 -0.9967703217459868 5.3883758979448244e-17 1.389258189591911e-16 5.3883758979448244e-17 1.389258189591911e-16 -0.08030450247324808 -0.9967703782127201
12619129333.333334 -0.09273334002501005 -0.9956909799971126 5.561399918771864e-17 1.3821085106471617e-16 5.561399918771864e-17 1.3821085106471617e-16 -0.09273263993445725 -0.9956910451995593
12619746666.666666 -0.1051470451976952 -0.9944566852739231 5.733478430023843e-17 1.3747434739683598e-16 5.733478430023843e-17 1.3747434739683598e-16 -0.10514634600919448 -0.9944567592010826
12620364000.0 -0.11754438701017826 -0.9930676296618506 5.904584643678487e-17 1.367164326176621e-16 5.904584643678487e-17 1.367164326176621e-16 -0.11754368883244615 -0.9930677123013644
12620981333.333334 -0.12992343614395346 -0.9915240293307843 6.074691935623821e-17 1.3593723471929716e-16 6.074691935623821e-17 1.3593723471929716e-16 -0.12992273908553872 -0.9915241206689406
12621598666.666666 -0.14228226612734546 -0.9898261245014054 6.24377384979643e-17 1.3513688500232914e-16 6.24377384979643e-17 1.3513688500232914e-16 -0.14228157029661215 -0.9898262245231405
12622216000.0 -0.15461895363525763 -0.9879741794078136 6.41180410229168e-17 1.343155180538141e-16 6.41180410229168e-17 1.343155180538141e-16 -0.15461825914036795 -0.9879742880967128
12622833333.333334 -0.16693157878854226 -0.9859684822563909 6.578756585442712e-17 1.3347327172475674e-16 6.578756585442712e-17 1.3347327172475674e-16 -0.16693088573744 -0.9859685995946924
12623450666.666666 -0.17921822545255436 -0.9838093451809868 6.744605371865636e-17 1.3261028710711004e-16 6.744605371865636e-17 1.3261028710711004e-16 -0.17921753395294834 -0.9838094711495865
12624068000.0 -0.1914769815356295 -0.9814971041943068 6.909324718489073e-17 1.3172670851020083e-16 6.909324718489073e-17 1.3172670851020083e-16 -0.1914762916949762 -0.9814972387727566
12624685333.333334 -0.2037059392867031 -0.9790321191355917 7.072889070538559e-17 1.3082268343672683e-16 7.072889070538559e-17 1.3082268343672683e-16 -0.20370525121219069 -0.9790322623021084
12625302666.666666 -0.21590319559164536 -0.9764147736147382 7.235273065493648e-17 1.2989836255824365e-16 7.235273065493648e-17 1.2989836255824365e-16 -0.2159025093901764 -0.9764149253462024
12625920000.0 -0.22806685227026582 -0.9736454749524277 7.396451537019706e-17 1.2895389969012278e-16 7.396451537019706e-17 1.2895389969012278e-16 -0.22806616804844104 -0.9736456352243902
12626537333.333334 -0.24019501637088014 -0.9707246541169117 7.556399518856898e-17 1.27989451766082e-16 7.556399518856898e-17 1.27989451766082e-16 -0.240194334234982 -0.9707248229035967
12627154666.666666 -0.25228580046551025 -0.9676527656568148 7.715092248683473e-17 1.2700517881219167e-16 7.715092248683473e-17 1.2700517881219167e-16 -0.25228512052148583 -0.967652942931124
12627772000.0 -0.2643373229433336 -0.9644302876304528 7.872505171945255e-17 1.2600124392040234e-16 7.872505171945255e-17 1.2600124392040234e-16 -0.26433664529677886 -0.9644304733639696
12628389333.333334 -0.2763477083035078 -0.9610577215314405 8.028613945643049e-17 1.2497781322164896e-16 8.028613945643049e-17 1.2497781322164896e-16 -0.276347033059651 -0.9610579156944362
12629006666.666666 -0.28831508744726186 -0.9575355922105889 8.183394442099391e-17 1.2393505585839476e-16 8.183394442099391e-17 1.2393505585839476e-16 -0.28831441471094665 -0.9575357947720233
12629624000.0 -0.30023759796844207 -0.9538644477943105 8.336822752671425e-17 1.2287314395683034e-16 8.336822752671425e-17 1.2287314395683034e-16 -0.30023692784411193 -0.9538646587218416
12630241333.333334 -0.3121133844436214 -0.9500448595992478 8.488875191446195e-17 1.2179225259849305e-16 8.488875191446195e-17 1.2179225259849305e-16 -0.3121127170353028 -0.950045078859233
12630858666.666666 -0.3239405987205202 -0.9460774220434588 8.639528298884503e-17 1.2069255979152847e-16 8.639528298884503e-17 1.2069255979152847e-16 -0.3239399341318074 -0.9460776496009646
12631476000.0 -0.3357174002062174 -0.9419627525537216 8.788758845439555e-17 1.195742464414212e-16 8.788758845439555e-17 1.195742464414212e-16 -0.3357167385402555 -0.941962988372526
12632093333.333334 -0.34744195615283513 -0.9377014914696985 8.936543835127497e-17 1.184374963213526e-16 8.936543835127497e-17 1.184374963213526e-16 -0.34744129751230424 -0.9377017355122963
12632710666.666666 -0.35911244194334874 -0.9332943019440813 9.082860509066646e-17 1.1728249604206898e-16 9.082860509066646e-17 1.1728249604206898e-16 -0.35911178643044833 -0.9332945541716923
12633328000.0 -0.3707270413752728 -0.9287418698394843 9.227686348977092e-17 1.1610943502131705e-16 9.227686348977092e-17 1.1610943502131705e-16 -0.3707263890917053 -0.9287421302120578
12633945333.333334 -0.38228394694335727 -0.9240449036216869 9.37099908063839e-17 1.1491850545287062e-16 9.37099908063839e-17 1.1491850545287062e-16 -0.3822832979903131 -0.9240451720979094
12634562666.666666 -0.3937813601208788 -0.9192041342493814 9.512776677306766e-17 1.1370990227513625e-16 9.512776677306766e-17 1.1370990227513625e-16 -0.3937807145990198 -0.9192044107866817
12635180000.0 -0.40521749163948173 -0.914220315060441 9.652997363098444e-17 1.1248382313928505e-16 9.652997363098444e-17 1.1248382313928505e-16 -0.405216849648926 -0.914220599614997
12635797333.333334 -0.41659056176788883 -0.9090942216545647 9.791639616322977e-17 1.1124046837704404e-16 9.791639616322977e-17 1.1124046837704404e-16 -0.41658992340819595 -0.9090945141813136
12636414666.666666 -0.42789880058835333 -0.9038266517728134 9.92868217278171e-17 1.0998004096802372e-16 9.92868217278171e-17 1.0998004096802372e-16 -0.42789816595850694 -0.9038269522254533
12637032000.0 -0.43914044827261445 -0.8984184251732222 1.0064104029024157e-16 1.0870274650663899e-16 1.0064104029024157e-16 1.0870274650663899e-16 -0.43913981747100894 -0.8984187335042241
12637649333.333334 -0.45031375535551277 -0.8928703835033508 1.0197884445555804e-16 1.074087931686876e-16 1.0197884445555804e-16 1.074087931686876e-16 -0.45031312847993715 -0.8928706996639639
12638266666.666666 -0.461416983007298 -0.8871833901692756 1.0330002950012307e-16 1.0609839167744916e-16 1.0330002950012307e-16 1.0609839167744916e-16 -0.46141636015492044 -0.8871837141095354
12638884000.0 -0.4724484033042312 -0.8813583302012231 1.0460439340280457e-16 1.0477175526948702e-16 1.0460439340280457e-16 1.0477175526948702e-16 -0.47244778457158493 -0.8813586618699601
12639501333.333334 -0.48340629949749275 -0.8753961101158413 1.0589173687585052e-16 1.0342909965997451e-16 1.0589173687585052e-16 1.0342909965997451e-16 -0.48340568498045977 -0.8753964494606873
12640118666.666666 -0.49428896628029745 -0.8692976577751497 1.0716186339521228e-16 1.0207064300774378e-16 1.0716186339521228e-16 1.0207064300774378e-16 -0.49428835607409477 -0.8692980047425476
12640736000.0 -0.5050947100535276 -0.8630639222420021 1.0841457923054903e-16 1.0069660587982983e-16 1.0841457923054903e-16 1.0069660587982983e-16 -0.5050941042526922 -0.8630642767772142
12641353333.333334 -0.5158218491888048 -0.8566958736326731 1.09649693474601e-16 9.930721121583881e-17 1.09649693474601e-16 9.930721121583881e-17 -0.5158212478871782 -0.8566962356797881
12641970666.666666 -0.5264687142906811 -0.8501945029655995 1.1086701807231188e-16 9.79026842917335e-17 1.1086701807231188e-16 9.79026842917335e-17 -0.5264681175813972 -0.8501948724675451
12642588000.0 -0.5370336484561945 -0.8435608220073013 1.1206636784931343e-16 9.648325268345668e-17 1.1206636784931343e-16 9.648325268345668e-17 -0.5370330564316619 -0.8435611989058488
12643205333.333334 -0.5475150075327191 -0.8367958631149249 1.1324756054006309e-16 9.504914623007472e-17 1.1324756054006309e-16 9.504914623007472e-17 -0.5475144202846086 -0.8367962473507002
12643822666.666666 -0.5579111603740271 -0.8299006790754617 1.144104168154444e-16 9.360059699665387e-17 1.144104168154444e-16 9.360059699665387e-17 -0.5579105779932577 -0.8299010705879554
12644440000.0 -0.5682204890938931 -0.8228763429420625 1.155547603099264e-16 9.213783923676184e-17 1.155547603099264e-16 9.213783923676184e-17 -0.5682199116706176 -0.8228767416696386
12645057333.333334 -0.5784413893179255 -0.8157239478670174 1.1668041764822418e-16 9.066110935466487e-17 1.1668041764822418e-16 9.066110935466487e-17 -0.5784408169415162 -0.8157243537469236
12645674666.666666 -0.5885722704332488 -0.808444606931642 1.1778721847147197e-16 8.917064586720718e-17 1.1778721847147197e-16 8.917064586720718e-17 -0.5885717031922835 -0.8084450199000178
12646292000.0 -0.5986115558363111 -0.8010394529728463 1.1887499546299167e-16 8.7666689365265e-17 1.1887499546299167e-16 8.7666689365265e-17 -0.5986109938185605 -0.801039872964736
12646909333.333334 -0.6085576831778297 -0.7935096384071448 1.1994358437342374e-16 8.614948247508204e-17 1.1994358437342374e-16 8.614948247508204e-17 -0.6085571264702431 -0.7935100653565055
12647526666.666666 -0.6184091046061587 -0.7858563350511439 1.2099282404548689e-16 8.461926981913917e-17 1.2099282404548689e-16 8.461926981913917e-17 -0.6184085532948501 -0.7858567688908559
12648144000.0 -0.6281642870081238 -0.7780807339392117 1.2202255643820317e-16 8.307629797676993e-17 1.2202255643820317e-16 8.307629797676993e-17 -0.6281637411783595 -0.7780811746010906
12648761333.333334 -0.6378217122476124 -0.7701840451381283 1.230326266506084e-16 8.152081544450393e-17 1.230326266506084e-16 8.152081544450393e-17 -0.6378211719837974 -0.7701844925529342
12649378666.666666 -0.6473798774018313 -0.7621674975587688 1.2402288294495814e-16 7.995307259612362e-17 1.2402288294495814e-16 7.995307259612362e-17 -0.6473793427874962 -0.7621679516562176
12649996000.0 -0.6568372949951963 -0.7540323387648562 1.2499317676944485e-16 7.837332164241267e-17 1.2499317676944485e-16 7.837332164241267e-17 -0.6568367661129844 -0.7540327994736316
12650613333.333334 -0.6661924932308614 -0.7457798347787743 1.259433627804063e-16 7.678181659062229e-17 1.259433627804063e-16 7.678181659062229e-17 -0.6661919701625153 -0.7457803020265366
12651230666.666666 -0.6754440162195505 -0.7374112698847295 1.2687329886397625e-16 7.517881320374196e-17 1.2687329886397625e-16 7.517881320374196e-17 -0.6754434990459015 -0.7374117435981306
12651848000.0 -0.6845904242065571 -0.7289279464285157 1.2778284615727717e-16 7.356456895940805e-17 1.2778284615727717e-16 7.356456895940805e-17 -0.6845899130075097 -0.7289284265332061
12652465333.333334 -0.693630293795416 -0.7203311846151689 1.2867186906904938e-16 7.193934300863053e-17 1.2867186906904938e-16 7.193934300863053e-17 -0.6936297886499384 -0.7203316710358137
12653082666.666666 -0.7025622181694261 -0.7116223223035251 1.295402352997566e-16 7.030339613427186e-17 1.295402352997566e-16 7.030339613427186e-17 -0.702561719155537 -0.7116228149638139
12653700000.0 -0.7113848073109537 -0.7028027147976614 1.3038781586120424e-16 6.865699070921106e-17 1.3038781586120424e-16 6.865699070921106e-17 -0.7113843145057093 -0.7028032136203195
12654317333.333334 -0.7200966882173394 -0.6938737346363714 1.312144850955723e-16 6.700039065437685e-17 1.312144850955723e-16 6.700039065437685e-17 -0.7200962016968222 -0.6938742395431725
12654934666.666666 -0.7286965051147759 -0.6848367713793689 1.3202012069395125e-16 6.533386139648627e-17 1.3202012069395125e-16 6.533386139648627e-17 -0.7286960249540827 -0.6848372822911477
12655552000.0 -0.7371829196692551 -0.6756932313910787 1.3280460371435908e-16 6.365766982552387e-17 1.3280460371435908e-16 6.365766982552387e-17 -0.7371824459424872 -0.6756937482277444
12656169333.333334 -0.7455546111948494 -0.6664445376217762 1.3356781859915125e-16 6.197208425215032e-17 1.3356781859915125e-16 6.197208425215032e-17 -0.7455541439750979 -0.666445060302322
12656786666.666666 -0.7538102768592356 -0.657092129386138 1.3430965319195954e-16 6.027737436476011e-17 1.3430965319195954e-16 6.027737436476011e-17 -0.7538098162185727 -0.6570926578286564
12657404000.0 -0.7619486318864496 -0.647637462139254 1.350299987540683e-16 5.857381118637599e-17 1.350299987540683e-16 5.857381118637599e-17 -0.7619481778959173 -0.6476379962609495
12658021333.333334 -0.769968409756865 -0.6380820072500804 1.3572874998021778e-16 5.686166703141067e-17 1.3572874998021778e-16 5.686166703141067e-17 -0.7699679624864624 -0.6380825469672811
12658638666.666666 -0.7778683624041074 -0.628427251772676 1.3640580501389154e-16 5.514121546217354e-17 1.3640580501389154e-16 5.514121546217354e-17 -0.777867921922782 -0.6284277970008477
12659256000.0 -0.7856472604096523 -0.6186746982143484 1.3706106546204844e-16 5.341273124520423e-17 1.3706106546204844e-16 5.341273124520423e-17 -0.7856468267852879 -0.6186752488681075
12659873333.333334 -0.7933038931937814 -0.6088258643022612 1.3769443640929014e-16 5.167649030746418e-17 1.3769443640929014e-16 5.167649030746418e-17 -0.7933034664931885 -0.6088264202953884
12660490666.666666 -0.8008370692041664 -0.5988822827470257 1.3830582643147297e-16 4.993276969237097e-17 1.3830582643147297e-16 4.993276969237097e-17 -0.8008366494930705 -0.5988828439924784
12661108000.0 -0.8082456161012581 -0.5888455010042141 1.388951476087913e-16 4.8181847515594327e-17 1.388951476087913e-16 4.8181847515594327e-17 -0.8082452034442928 -0.588846067414142
12661725333.333334 -0.8155283809407381 -0.5787170810335436 1.3946231553826176e-16 4.642400292081896e-17 1.3946231553826176e-16 4.642400292081896e-17 -0.8155279754014308 -0.5787176525193006
12662342666.666666 -0.8226842303529374 -0.5684985990557951 1.4000724934569047e-16 4.46595160352355e-17 1.4000724934569047e-16 4.46595160352355e-17 -0.8226838319937029 -0.568499175527954
12662960000.0 -0.8297120507192203 -0.558191645307518 1.4052987169703713e-16 4.288866792502085e-17 1.4052987169703713e-16 4.288866792502085e-17 -0.8297116596013492 -0.5581922266758842
12663577333.333334 -0.836610748345285 -0.5477978237935504 1.410301088092571e-16 4.111174055056031e-17 1.410301088092571e-16 4.111174055056031e-17 -0.8366103645289363 -0.5477984099671768
12664194666.666666 -0.8433792496313733 -0.5373187520374 1.415078904605394e-16 3.9329016721673846e-17 1.415078904605394e-16 3.9329016721673846e-17 -0.8433788731755629 -0.5373193429246002
12664812000.0 -0.8500165012393442 -0.5267560608295183 1.4196315000001676e-16 3.7540780052597656e-17 1.4196315000001676e-16 3.7540780052597656e-17 -0.8500161322019374 -0.5267566563378813
12665429333.333334 -0.8565214702566285 -0.5161113939734621 1.4239582435687426e-16 3.574731491697677e-17 1.4239582435687426e-16 3.574731491697677e-17 -0.8565211086943307 -0.5161119940098672
12666046666.666666 -0.8628931443568282 -0.5053864080303233 1.4280585404891074e-16 3.3948906402683346e-17 1.4280585404891074e-16 3.3948906402683346e-17 -0.8628927903251756 -0.5053870125009539
12666664000.0 -0.8691305319575791 -0.494582772060392 1.4319318319053973e-16 3.214584026649048e-17 1.4319318319053973e-16 3.214584026649048e-17 -0.8691301855109307 -0.49458338087075043
12667281333.333334 -0.8752326623744311 -0.48370216736414584 1.4355775950017383e-16 3.033840288886164e-17 1.4355775950017383e-16 3.033840288886164e-17 -0.8752323235659599 -0.48370278041906845
12667898666.666666 -0.881198585972335 -0.47274628721986095 1.4389953430710069e-16 2.8526881228382825e-17 1.4389953430710069e-16 2.8526881228382825e-17 -0.8811982548540216 -0.4727469044235334
12668516000.0 -0.8870273743131222 -0.4617168366206437 1.442184625577403e-16 2.6711562776324545e-17 1.442184625577403e-16 2.6711562776324545e-17 -0.887027050935744 -0.4617174578766147
12669133333.333334 -0.892718120300128 -0.45061553200884397 1.4451450282134156e-16 2.4892735511088944e-17 1.4451450282134156e-16 2.4892735511088944e-17 -0.8927178047132528 -0.45061615722004106
12669750666.666666 -0.8982699383193292 -0.43944410100898584 1.4478761729511802e-16 2.307068785252389e-17 1.4478761729511802e-16 2.307068785252389e-17 -0.8982696305713093 -0.4394447300777314
12670368000.0 -0.903681964377194 -0.428204282158859 1.450377718087884e-16 2.1245708616300137e-17 1.450377718087884e-16 2.1245708616300137e-17 -0.9036816645151557 -0.4282049149868837
