! Parameters = {f0=12700.012000; bw=77.238000; Q=6100.000000; N=10; m_0_1=1.180475; m_1_1=-1.057614; m_1_2=1.015287; m_2_2=-1.058263; m_2_3=0.652250; m_2_8=-0.003913; m_2_9=0.032791; m_3_3=-1.060200; m_3_4=0.540779; m_3_7=-0.003313; m_3_8=-0.100401; m_3_9=-0.003913; m_4_4=-1.063125; m_4_5=0.377114; m_4_6=0.000204; m_4_7=-0.120950; m_4_8=-0.003313; m_5_5=-1.062743; m_5_6=0.784469; m_5_7=0.000204; m_6_6=-1.062744; m_6_7=0.377456; m_7_7=-1.063111; m_7_8=0.540897; m_8_8=-1.060202; m_8_9=0.652563; m_9_9=-1.058268; m_9_10=1.016365; m_10_10=-1.057624; m_10_11=1.181270}
!
! Created with skrf (http://scikit-rf.org).
# Hz S RI R 50.0 
!freq ReS11 ImS11 ReS21 ImS21 ReS12 ImS12 ReS22 ImS22
12607400000.0 -0.1264374764266113 -0.9919745785828981 2.8645547080017475e-17 6.505427083931794e-17 2.8645547080017475e-17 6.505427083931794e-17 -0.12643685932143947 -0.9919746572391747
12608017333.333334 -0.13424662926738284 -0.9909479514738369 2.9157081475303855e-17 6.481134889383238e-17 2.9157081475303855e-17 6.481134889383238e-17 -0.13424601283106163 -0.9909480349840802
12608634666.666666 -0.14204745387046833 -0.9898598490941862 2.966656524781581e-17 6.456440929624651e-17 2.966656524781581e-17 6.456440929624651e-17 -0.14204683814117214 -0.9898599374527405
12609252000.0 -0.14983946629743558 -0.9887103389464212 3.0173966879753226e-17 6.431346928601451e-17 3.0173966879753226e-17 6.431346928601451e-17 -0.14983885131329114 -0.9887104321473305
12609869333.333334 -0.15762218315656065 -0.9874994923425569 3.067925499771173e-17 6.405854634954221e-17 3.067925499771173e-17 6.405854634954221e-17 -0.15762156895564483 -0.987499590379565
12610486666.666666 -0.16539512163270356 -0.986227384399739 3.1182398374608035e-17 6.379965821898543e-17 3.1182398374608035e-17 6.379965821898543e-17 -0.1653945082530409 -0.9862274872662911
12611104000.0 -0.17315779951745747 -0.9848940940355573 3.1683365931622316e-17 6.353682287101961e-17 3.1683365931622316e-17 6.353682287101961e-17 -0.17315718699701763 -0.9848942017247981
12611721333.333334 -0.18090973523883785 -0.983499703963179 3.2182126740085186e-17 6.32700585256167e-17 3.2182126740085186e-17 6.32700585256167e-17 -0.180909123615534 -0.9834998164679579
12612338666.666666 -0.18865044789132795 -0.9820443006862006 3.267865002339982e-17 6.299938364478523e-17 3.267865002339982e-17 6.299938364478523e-17 -0.18864983720301332 -0.9820444179990658
12612956000.0 -0.1963794572657381 -0.9805279744932636 3.317290515892612e-17 6.272481693130792e-17 3.317290515892612e-17 6.272481693130792e-17 -0.1963788475502045 -0.9805280966064671
12613573333.333334 -0.20409628387874623 -0.9789508194525067 3.366486167985691e-17 6.244637732746522e-17 3.366486167985691e-17 6.244637732746522e-17 -0.20409567517372137 -0.9789509463580035
12614190666.666666 -0.21180044900295034 -0.9773129334056702 3.415448927709905e-17 6.216408401373446e-17 3.415448927709905e-17 6.216408401373446e-17 -0.21179984134609567 -0.9773130650951188
12614808000.0 -0.2194914746963167 -0.9756144179620774 3.4641757801126116e-17 6.18779564074843e-17 3.4641757801126116e-17 6.18779564074843e-17 -0.2194908681252248 -0.9756145544268403
12615425333.333334 -0.22716888383202402 -0.9738553784922889 3.512663726382936e-17 6.158801416165024e-17 3.512663726382936e-17 6.158801416165024e-17 -0.22716827838421658 -0.9738555197234333
12616042666.666666 -0.23483220012795208 -0.9720359241215896 3.560909784035562e-17 6.129427716339607e-17 3.560909784035562e-17 6.129427716339607e-17 -0.2348315958408773 -0.9720360701098875
12616660000.0 -0.24248094817625626 -0.9701561677232129 3.608910987093437e-17 6.099676553276144e-17 3.608910987093437e-17 6.099676553276144e-17 -0.24248034508728683 -0.9701563184591429
12617277333.333334 -0.2501146534728883 -0.9682162259113322 3.656664386269526e-17 6.069549962129401e-17 3.656664386269526e-17 6.069549962129401e-17 -0.2501140516193188 -0.9682163813850786
12617894666.666666 -0.25773284244692257 -0.9662162190338546 3.7041670491465837e-17 6.039050001067282e-17 3.7041670491465837e-17 6.039050001067282e-17 -0.25773224186596727 -0.9662163792353088
12618512000.0 -0.2653350424901274 -0.9641562711649032 3.7514160603576474e-17 6.008178751130561e-17 3.7514160603576474e-17 6.008178751130561e-17 -0.265334443218918 -0.9641564360836647
12619129333.333334 -0.2729207819860648 -0.9620365100971808 3.7984085217628636e-17 5.976938316092884e-17 3.7984085217628636e-17 5.976938316092884e-17 -0.27292018406164836 -0.9620366797225577
12619746666.666666 -0.2804895903395125 -0.9598570673339967 3.8451415526274796e-17 5.945330822317816e-17 3.8451415526274796e-17 5.945330822317816e-17 -0.28048899379884884 -0.9598572416550062
12620364000.0 -0.2880409980056849 -0.9576180780810978 3.8916122897978467e-17 5.913358418615064e-17 3.8916122897978467e-17 5.913358418615064e-17 -0.2880404028856445 -0.9576182570864672
12620981333.333334 -0.29557453651911747 -0.9553196812383566 3.9378178878745655e-17 5.881023276096487e-17 3.9378178878745655e-17 5.881023276096487e-17 -0.2955739428564787 -0.9553198649165227
12621598666.666666 -0.30308973852302756 -0.9529620193910615 3.9837555193877624e-17 5.848327588028465e-17 3.9837555193877624e-17 5.848327588028465e-17 -0.30308914635447476 -0.952962207730172
12622216000.0 -0.3105861377980635 -0.9505452388011473 4.029422374967837e-17 5.815273569685181e-17 4.029422374967837e-17 5.815273569685181e-17 -0.3105855471601849 -0.9505454317890627
12622833333.333334 -0.31806326929144435 -0.9480694893980535 4.0748156635178404e-17 5.781863458198683e-17 4.0748156635178404e-17 5.781863458198683e-17 -0.3180626802207299 -0.9480696870223482
12623450666.666666 -0.3255206691455941 -0.9455349247694941 4.1199326123819394e-17 5.74809951240938e-17 4.1199326123819394e-17 5.74809951240938e-17 -0.3255200816784326 -0.9455351270174545
12624068000.0 -0.33295787472707933 -0.9429417021518736 4.164770467514997e-17 5.713984012713671e-17 4.164770467514997e-17 5.713984012713671e-17 -0.33295728889975756 -0.9429419090105031
12624685333.333334 -0.34037442465533724 -0.9402899824205267 4.2093264936500186e-17 5.679519260910753e-17 4.2093264936500186e-17 5.679519260910753e-17 -0.34037384050403524 -0.9402901938765406
12625302666.666666 -0.3477698588310554 -0.9375799300798175 4.253597974462657e-17 5.644707580049588e-17 4.253597974462657e-17 5.644707580049588e-17 -0.347769276391846 -0.9375801461196477
12625920000.0 -0.35514371846500964 -0.9348117132528311 4.297582212738393e-17 5.609551314271427e-17 4.297582212738393e-17 5.609551314271427e-17 -0.35514313777385675 -0.9348119338626286
12626537333.333334 -0.36249554610631346 -0.9319855036710246 4.341276530533839e-17 5.574052828654678e-17 4.341276530533839e-17 5.574052828654678e-17 -0.36249496719906854 -0.931985728836657
12627154666.666666 -0.3698248856708493 -0.9291014766635513 4.384678269340101e-17 5.538214509055904e-17 4.384678269340101e-17 5.538214509055904e-17 -0.3698243085832496 -0.929101706370605
12627772000.0 -0.37713128246974803 -0.926159811146311 4.4277847902440307e-17 5.5020387619501694e-17 4.4277847902440307e-17 5.5020387619501694e-17 -0.3771307072374148 -0.926160045380093
12628389333.333334 -0.384414283237253 -0.9231606896109894 4.470593474086635e-17 5.4655280142714314e-17 4.470593474086635e-17 5.4655280142714314e-17 -0.38441370989568824 -0.9231609283565254
12629006666.666666 -0.3916734361591284 -0.9201042981136154 4.51310172162309e-17 5.4286847132492425e-17 4.51310172162309e-17 5.4286847132492425e-17 -0.3916728647437143 -0.9201045413556553
12629624000.0 -0.3989082909005586 -0.9169908262630783 4.55530695367822e-17 5.39151132624695e-17 4.55530695367822e-17 5.39151132624695e-17 -0.3989077214465535 -0.9169910739860924
12630241333.333334 -0.40611839863413585 -0.9138204672093379 4.597206611303087e-17 5.354010340596621e-17 4.597206611303087e-17 5.354010340596621e-17 -0.4061178311766736 -0.9138207193975213
12630858666.666666 -0.41330331206757565 -0.9105934176315028 4.6387981559285546e-17 5.316184263434179e-17 4.6387981559285546e-17 5.316184263434179e-17 -0.4133027466416622 -0.9105936742687739
12631476000.0 -0.42046258547174936 -0.9073098777254991 4.680079069519321e-17 5.27803562153178e-17 4.680079069519321e-17 5.27803562153178e-17 -0.42046202211226213 -0.9073101387955037
12632093333.333334 -0.42759577470800036 -0.9039700511918042 4.721046854724487e-17 5.239566961130865e-17 4.721046854724487e-17 5.239566961130865e-17 -0.42759521344968426 -0.9039703166779135
12632710666.666666 -0.4347024372558774 -0.9005741452227282 4.761699035028118e-17 5.200780847772873e-17 4.761699035028118e-17 5.200780847772873e-17 -0.4347018781333444 -0.9005744151080415
12633328000.0 -0.44178213224061347 -0.8971223704895469 4.8020331548989664e-17 5.161679866128189e-17 4.8020331548989664e-17 5.161679866128189e-17 -0.4417815752883392 -0.8971226447568925
12633945333.333334 -0.44883442046039834 -0.8936149411294696 4.8420467799366386e-17 5.1222666198260275e-17 4.8420467799366386e-17 5.1222666198260275e-17 -0.44883386571272044 -0.8936152197614048
12634562666.666666 -0.4558588644136513 -0.8900520747323408 4.8817374970184116e-17 5.082543731281279e-17 4.8817374970184116e-17 5.082543731281279e-17 -0.45585831190476717 -0.890052357711154
12635180000.0 -0.46285502832616143 -0.8864339923271425 4.921102914443757e-17 5.042513841521028e-17 4.921102914443757e-17 5.042513841521028e-17 -0.46285447809012675 -0.8864342796348551
12635797333.333334 -0.46982247817814865 -0.88276091836827 4.960140662077746e-17 5.0021796100096954e-17 4.960140662077746e-17 5.0021796100096954e-17 -0.46982193024887436 -0.8827612099866362
12636414666.666666 -0.47676078173111186 -0.8790330807216461 4.9988483914924674e-17 4.961543714473648e-17 4.9988483914924674e-17 4.961543714473648e-17 -0.4767602361423626 -0.8790333766321541
12637032000.0 -0.4836695085546948 -0.8752507106505587 5.0372237761077e-17 4.920608850723997e-17 5.0372237761077e-17 4.920608850723997e-17 -0.48366896534008713 -0.8752510108344331
12637649333.333334 -0.4905482300534393 -0.8714140428012892 5.075264511330187e-17 4.87937773247834e-17 5.075264511330187e-17 4.87937773247834e-17 -0.4905476892464385 -0.8714143472394905
12638266666.666666 -0.49739651949329605 -0.8675233151885908 5.112968314690716e-17 4.8378530911821354e-17 5.112968314690716e-17 4.8378530911821354e-17 -0.4973959811272157 -0.8675236238618185
12638884000.0 -0.504213952028127 -0.8635787691809163 5.15033292598032e-17 4.796037675828439e-17 5.15033292598032e-17 4.796037675828439e-17 -0.5042134161361251 -0.8635790820696078
12639501333.333334 -0.5110001047260821 -0.8595806494854236 5.187356107385025e-17 4.7539342527766375e-17 5.187356107385025e-17 4.7539342527766375e-17 -0.5109995713411606 -0.8595809665697574
12640118666.666666 -0.5177545565957163 -0.8555292041328699 5.224035643618294e-17 4.711545605570994e-17 5.224035643618294e-17 4.711545605570994e-17 -0.5177540257507182 -0.8555295253927668
12640736000.0 -0.5244768886123995 -0.8514246844620518 5.2603693420542733e-17 4.66887453475566e-17 5.2603693420542733e-17 4.66887453475566e-17 -0.5244763603400069 -0.8514250098771746
12641353333.333334 -0.5311666837438731 -0.8472673451044749 5.296355032855586e-17 4.6259238576932004e-17 5.296355032855586e-17 4.6259238576932004e-17 -0.531166158076605 -0.8472676746542303
12641970666.666666 -0.537823526976533 -0.8430574439683047 5.331990569104217e-17 4.582696408376819e-17 5.331990569104217e-17 4.582696408376819e-17 -0.5378230039467446 -0.8430577776318463
12642588000.0 -0.5444470053409594 -0.8387952422225038 5.367273826927501e-17 4.5391950372455435e-17 5.367273826927501e-17 4.5391950372455435e-17 -0.544446484980839 -0.838795579978732
12643205333.333334 -0.5510367079375846 -0.8344810042805995 5.402202705623909e-17 4.4954226109969417e-17 5.402202705623909e-17 4.4954226109969417e-17 -0.5510361902791503 -0.8344813461081606
12643822666.666666 -0.5575922259621806 -0.8301149977842764 5.436775127787677e-17 4.451382012398381e-17 5.436775127787677e-17 4.451382012398381e-17 -0.5575917110372817 -0.8301153436615689
12644440000.0 -0.564113152731248 -0.8256974935867614 5.470989039430795e-17 4.4070761400987804e-17 5.470989039430795e-17 4.4070761400987804e-17 -0.56411264057156 -0.8256978434919338
12645057333.333334 -0.5705990837071716 -0.8212287657360673 5.5048424101042125e-17 4.3625079084384547e-17 5.5048424101042125e-17 4.3625079084384547e-17 -0.5705985743441955 -0.8212291196470197
12645674666.666666 -0.5770496165233423 -0.8167090914579751 5.5383332330175e-17 4.3176802472580793e-17 5.5383332330175e-17 4.3176802472580793e-17 -0.5770491099884032 -0.8167094493523629
12646292000.0 -0.5834643510092811 -0.8121387511387239 5.57145952515718e-17 4.272596101706374e-17 5.57145952515718e-17 4.272596101706374e-17 -0.5834638473335245 -0.8121391129939558
12646909333.333334 -0.589842889215161 -0.8075180283078265 5.604219327402366e-17 4.2272584320485506e-17 5.604219327402366e-17 4.2272584320485506e-17 -0.5898423884295529 -0.8075183941010685
12647526666.666666 -0.596184835436751 -0.8028472096203003 5.636610704640312e-17 4.181670213471738e-17 5.636610704640312e-17 4.181670213471738e-17 -0.5961843375720751 -0.8028475793284765
12648144000.0 -0.6024897962398487 -0.7981265848389677 5.668631745879747e-17 4.135834435890535e-17 5.668631745879747e-17 4.135834435890535e-17 -0.6024893013267038 -0.7981269584387614
12648761333.333334 -0.6087573804847319 -0.7933564468164458 5.700280564362132e-17 4.089754103752337e-17 5.700280564362132e-17 4.089754103752337e-17 -0.6087568885535313 -0.793356824284301
12649378666.666666 -0.6149871993503352 -0.7885370914770462 5.731555297671837e-17 4.043432235841185e-17 5.731555297671837e-17 4.043432235841185e-17 -0.6149867104313044 -0.78853747278917
12649996000.0 -0.6211788663585056 -0.7836688177983161 5.762454107845386e-17 3.996871865079792e-17 5.762454107845386e-17 3.996871865079792e-17 -0.6211783804816798 -0.7836692029306787
12650613333.333334 -0.6273319973979103 -0.7787519277925395 5.792975181477645e-17 3.9500760383328726e-17 5.792975181477645e-17 3.9500760383328726e-17 -0.6273315145931336 -0.7787523167208771
12651230666.666666 -0.6334462107477999 -0.7737867264880562 5.823116729827435e-17 3.9030478162082074e-17 5.823116729827435e-17 3.9030478162082074e-17 -0.6334457310447226 -0.7737871191878712
12651848000.0 -0.6395211271018221 -0.7687735219102322 5.852876988921984e-17 3.855790272856238e-17 5.852876988921984e-17 3.855790272856238e-17 -0.6395206505298993 -0.7687739183567963
12652465333.333334 -0.6455563695914865 -0.7637126250624043 5.88225421965819e-17 3.8083064957711956e-17 5.88225421965819e-17 3.8083064957711956e-17 -0.6455558961799758 -0.7637130252307579
12653082666.666666 -0.6515515638094553 -0.7586043499066565 5.911246707903191e-17 3.7605995855901506e-17 5.911246707903191e-17 3.7605995855901506e-17 -0.6515510935874163 -0.7586047537716132
12653700000.0 -0.6575063378330128 -0.7534490133441476 5.93985276459436e-17 3.712672655889616e-17 5.93985276459436e-17 3.712672655889616e-17 -0.657505870829303 -0.7534494208802924
12654317333.333334 -0.6634203222468302 -0.7482469351957011 5.968070725835131e-17 3.664528832985461e-17 5.968070725835131e-17 3.664528832985461e-17 -0.6634198584901067 -0.748247346377396
12654934666.666666 -0.6692931501661274 -0.7429984381817702 5.995898952991822e-17 3.616171255727861e-17 5.995898952991822e-17 3.616171255727861e-17 -0.6692926896848412 -0.7429988529831515
12655552000.0 -0.6751244572593399 -0.7377038479024834 6.023335832787223e-17 3.5676030752980696e-17 6.023335832787223e-17 3.5676030752980696e-17 -0.6751240000817371 -0.7377042662974663
12656169333.333334 -0.6809138817706617 -0.7323634928175069 6.050379777392716e-17 3.518827455004349e-17 6.050379777392716e-17 3.518827455004349e-17 -0.68091342792478 -0.7323639147797859
12656786666.666666 -0.6866610645426126 -0.726977704225552 6.077029224519588e-17 3.4698475700756395e-17 6.077029224519588e-17 3.4698475700756395e-17 -0.6866606140562812 -0.7269781297286037
12657404000.0 -0.6923656490382367 -0.7215468162439009 6.103282637507735e-17 3.4206666074562846e-17 6.103282637507735e-17 3.4206666074562846e-17 -0.6923652019390732 -0.721547245260984
12658021333.333334 -0.6980272813632595 -0.716071165787637 6.129138505413258e-17 3.3712877655990615e-17 6.129138505413258e-17 3.3712877655990615e-17 -0.6980268376786686 -0.7160715982917951
12658638666.666666 -0.7036456102879627 -0.7105510925488244 6.15459534309387e-17 3.3217142542586025e-17 6.15459534309387e-17 3.3217142542586025e-17 -0.7036451700451348 -0.7105515285128878
12659256000.0 -0.7092202872690963 -0.7049869389753182 6.17965169129353e-17 3.2719492942824293e-17 6.17965169129353e-17 3.2719492942824293e-17 -0.7092198504950051 -0.7049873783719043
12659873333.333334 -0.7147509664714362 -0.699379050249574 6.204306116724585e-17 3.2219961174029524e-17 6.204306116724585e-17 3.2219961174029524e-17 -0.7147505331928388 -0.6993794930510908
12660490666.666666 -0.7202373047891639 -0.6937277742673196 6.228557212148163e-17 3.171857966029035e-17 6.228557212148163e-17 3.171857966029035e-17 -0.7202368750325969 -0.6937282204459663
12661108000.0 -0.7256789618673671 -0.6880334616157472 6.252403596454177e-17 3.1215380930342984e-17 6.252403596454177e-17 3.1215380930342984e-17 -0.7256785356591473 -0.6880339111435169
12661725333.333334 -0.731075600122879 -0.6822964655520508 6.27584391473752e-17 3.071039761549313e-17 6.27584391473752e-17 3.071039761549313e-17 -0.7310751774890982 -0.6822969184007298
12662342666.666666 -0.7364268847654546 -0.6765171419812632 6.298876838374634e-17 3.0203662447487276e-17 6.298876838374634e-17 3.0203662447487276e-17 -0.7364264657319824 -0.6765175981224363
12662960000.0 -0.741732483818367 -0.6706958494343647 6.321501065097112e-17 2.969520825640737e-17 6.321501065097112e-17 2.969520825640737e-17 -0.7417320684108469 -0.6706963088394147
12663577333.333334 -0.7469920681391377 -0.6648329490458954 6.343715319064131e-17 2.918506796854739e-17 6.343715319064131e-17 2.918506796854739e-17 -0.7469916563829851 -0.6648334116860052
12664194666.666666 -0.7522053114398763 -0.6589288045316336 6.365518350932703e-17 2.867327460429543e-17 6.365518350932703e-17 2.867327460429543e-17 -0.7522049033602777 -0.6589292703777883
12664812000.0 -0.7573718903075425 -0.6529837821660115 6.386908937927048e-17 2.81598612759927e-17 6.386908937927048e-17 2.81598612759927e-17 -0.7573714859294541 -0.6529842511890002
12665429333.333334 -0.7624914842240282 -0.6469982507593715 6.407885883905506e-17 2.7644861185803693e-17 6.407885883905506e-17 2.7644861185803693e-17 -0.7624910835721751 -0.6469987229297899
12666046666.666666 -0.7675637755859694 -0.6409725816351739 6.428448019425681e-17 2.7128307623583442e-17 6.428448019425681e-17 2.7128307623583442e-17 -0.7675633786848417 -0.6409730569234242
12666664000.0 -0.772588449724575 -0.6349071486068072 6.44859420180901e-17 2.6610233964712547e-17 6.44859420180901e-17 2.6610233964712547e-17 -0.7725880565984281 -0.6349076269831012
12667281333.333334 -0.7775651949250031 -0.6288023279545734 6.468323315201719e-17 2.6090673667973523e-17 6.468323315201719e-17 2.6090673667973523e-17 -0.7775648055978562 -0.6288028093889347
12667898666.666666 -0.782493702445808 -0.6226584984022139 6.487634270635932e-17 2.5569660273376728e-17 6.487634270635932e-17 2.5569660273376728e-17 -0.7824933169414424 -0.6226589828644794
12668516000.0 -0.7873736665381114 -0.6164760410933914 6.506526006087921e-17 2.5047227400009543e-17 6.506526006087921e-17 2.5047227400009543e-17 -0.7873732848800682 -0.6164765285532123
12669133333.333334 -0.7922047844644062 -0.6102553395682433 6.524997486534729e-17 2.452340874387965e-17 6.524997486534729e-17 2.452340874387965e-17 -0.7922044066759875 -0.6102558299950895
12669750666.666666 -0.7969867565175394 -0.6039967797393475 6.54304770400971e-17 2.3998238075737656e-17 6.54304770400971e-17 2.3998238075737656e-17 -0.7969863826218022 -0.603997273102506
12670368000.0 -0.8017192860391553 -0.5977007498679546 6.560675677655617e-17 2.3471749238912183e-17 6.560675677655617e-17 2.3471749238912183e-17 -0.8017189160589157 -0.5977012461365346
