! Parameters = {f0=12700.012000; bw=77.238000; Q=6100.000000; N=10; m_0_1=1.177873; m_1_1=-1.096653; m_1_2=1.012685; m_2_2=-1.097302; m_2_3=0.649648; m_2_8=-0.004043; m_2_9=0.032661; m_3_3=-1.099239; m_3_4=0.538177; m_3_7=-0.003443; m_3_8=-0.100531; m_3_9=-0.004043; m_4_4=-1.102164; m_4_5=0.374512; m_4_6=0.000074; m_4_7=-0.121080; m_4_8=-0.003443; m_5_5=-1.101782; m_5_6=0.781867; m_5_7=0.000074; m_6_6=-1.101783; m_6_7=0.374854; m_7_7=-1.102150; m_7_8=0.538295; m_8_8=-1.099241; m_8_9=0.649961; m_9_9=-1.097307; m_9_10=1.013763; m_10_10=-1.096663; m_10_11=1.178668}
!
! Created with skrf (http://scikit-rf.org).
# Hz S RI R 50.0 
!freq ReS11 ImS11 ReS21 ImS21 ReS12 ImS12 ReS22 ImS22
12607400000.0 0.9921671126501709 -0.12491765517840851 -6.422560548053633e-17 2.816326842062014e-17 -6.422560548053633e-17 2.816326842062014e-17 0.9921671901901998 -0.12491703930982276
12608017333.333334 0.9911626592718652 -0.13265211217681938 -6.398891817422444e-17 2.8663390330085225e-17 -6.398891817422444e-17 2.8663390330085225e-17 0.9911627416088776 -0.1326514969618574
12608634666.666666 0.9900979127242996 -0.1403784998453558 -6.374834099786948e-17 2.91615323691191e-17 -6.374834099786948e-17 2.91615323691191e-17 0.9900979998528161 -0.14037788532137557
12609252000.0 0.9889729377768609 -0.14809634818202772 -6.350389044387678e-17 2.96576643191957e-17 -6.350389044387678e-17 2.96576643191957e-17 0.9889730296911123 -0.14809573438634166
12609869333.333334 0.9877878028626601 -0.15580518770441248 -6.325558323911514e-17 3.015175609865685e-17 -6.325558323911514e-17 3.015175609865685e-17 0.9877878995565867 -0.1558045746742851
12610486666.666666 0.986542580074411 -0.16350454947790383 -6.300343634378922e-17 3.064377776452028e-17 -6.300343634378922e-17 3.064377776452028e-17 0.9865426815416639 -0.16350393725054954
12611104000.0 0.9852373451599855 -0.17119396514466 -6.274746695028467e-17 3.1133699514304996e-17 -6.274746695028467e-17 3.1133699514304996e-17 0.9852374513939248 -0.17119335375724057
12611721333.333334 0.9838721775178692 -0.1788729669516723 -6.24876924820171e-17 3.1621491687811614e-17 -6.24876924820171e-17 3.1621491687811614e-17 0.9838722885115663 -0.1788723564412948
12612338666.666666 0.9824471601922864 -0.18654108777949996 -6.222413059225456e-17 3.2107124768918025e-17 -6.222413059225456e-17 3.2107124768918025e-17 0.9824472759385234 -0.18654047818321448
12612956000.0 0.9809623798681472 -0.19419786117068466 -6.195679916292602e-17 3.259056938736534e-17 -6.195679916292602e-17 3.259056938736534e-17 0.9809625003594187 -0.19419725252548212
12613573333.333334 0.9794179268658256 -0.20184282135784629 -6.168571630342939e-17 3.307179632050949e-17 -6.168571630342939e-17 3.307179632050949e-17 0.9794180520943375 -0.20184221370065605
12614190666.666666 0.9778138951355935 -0.20947550329240716 -6.141090034940702e-17 3.35507764950981e-17 -6.141090034940702e-17 3.35507764950981e-17 0.9778140250932642 -0.20947489666009492
12614808000.0 0.9761503822519599 -0.2170954426725733 -6.11323698615224e-17 3.4027480989009196e-17 -6.11323698615224e-17 3.4027480989009196e-17 0.976150516930422 -0.21709483710193883
12615425333.333334 0.9744274894077152 -0.22470217597171918 -6.085014362421335e-17 3.450188103299922e-17 -6.085014362421335e-17 3.450188103299922e-17 0.9744276287983146 -0.22470157149949424
12616042666.666666 0.9726453214077746 -0.23229524046655536 -6.056424064444214e-17 3.497394801242163e-17 -6.056424064444214e-17 3.497394801242163e-17 0.9726454655015712 -0.23229463712940102
12616660000.0 0.9708039866628071 -0.23987417426527688 -6.027468015042255e-17 3.5443653468952616e-17 -6.027468015042255e-17 3.5443653468952616e-17 0.9708041354505751 -0.23987357209978155
12617277333.333334 0.968903597182631 -0.24743851633568756 -5.998148159033745e-17 3.5910969102299344e-17 -5.998148159033745e-17 3.5910969102299344e-17 0.9689037506548611 -0.24743791537836524
12617894666.666666 0.9669442685694365 -0.2549878065331077 -5.968466463104887e-17 3.637586677188952e-17 -5.968466463104887e-17 3.637586677188952e-17 0.9669444267163346 -0.25498720682039483
12618512000.0 0.9649261200106836 -0.2625215856286401 -5.938424915677872e-17 3.6838318498575404e-17 -5.938424915677872e-17 3.6838318498575404e-17 0.9649262828221731 -0.26252098719689426
12619129333.333334 0.9628492742719224 -0.2700393953368304 -5.908025526779806e-17 3.729829646629371e-17 -5.908025526779806e-17 3.729829646629371e-17 0.9628494417376423 -0.27003879822232735
12619746666.666666 0.9607138576892951 -0.2775407783436544 -5.877270327908822e-17 3.775577302373802e-17 -5.877270327908822e-17 3.775577302373802e-17 0.9607140297986038 -0.27754018258258634
12620364000.0 0.9585200001618221 -0.2850252783344466 -5.846161371898931e-17 3.8210720686020285e-17 -5.846161371898931e-17 3.8210720686020285e-17 0.9585201769037965 -0.28502468396291997
12620981333.333334 0.9562678351435773 -0.2924924400213848 -5.81470073278512e-17 3.86631121362983e-17 -5.81470073278512e-17 3.86631121362983e-17 0.9562680165070138 -0.2924918470754182
12621598666.666666 0.9539574996354924 -0.2999418091714591 -5.782890505665097e-17 3.911292022742336e-17 -5.782890505665097e-17 3.911292022742336e-17 0.9539576856089056 -0.29994121768698023
12622216000.0 0.9515891341770589 -0.3073729326339657 -5.750732806560869e-17 3.9560117983560105e-17 -5.750732806560869e-17 3.9560117983560105e-17 0.951589324748686 -0.3073723426468103
12622833333.333334 0.9491628828377747 -0.3147853583681003 -5.718229772279429e-17 4.000467860179037e-17 -5.718229772279429e-17 4.000467860179037e-17 0.9491630779955739 -0.3147847699140097
12623450666.666666 0.94667889320838 -0.3221786354704568 -5.685383560271785e-17 4.044657545371238e-17 -5.685383560271785e-17 4.044657545371238e-17 0.9466790929400315 -0.32217804858507526
12624068000.0 0.9441373163918859 -0.32955231420242764 -5.652196348490228e-17 4.088578208703441e-17 -5.652196348490228e-17 4.088578208703441e-17 0.944137520684794 -0.32955172892130097
12624685333.333334 0.9415383069943405 -0.3369059460176979 -5.618670335244781e-17 4.1322272227152435e-17 -5.618670335244781e-17 4.1322272227152435e-17 0.9415385158356309 -0.33690536237627
12625302666.666666 0.9388820231155208 -0.3442390835892334 -5.584807739059732e-17 4.175601977869853e-17 -5.584807739059732e-17 4.175601977869853e-17 0.938882236492046 -0.34423850162284586
12625920000.0 0.93616862633918 -0.3515512808368957 -5.550610798526085e-17 4.2186998827115405e-17 -5.550610798526085e-17 4.2186998827115405e-17 0.9361688442375168 -0.3515507005807842
12626537333.333334 0.933398281723357 -0.3588420929541753 -5.516081772155731e-17 4.261518364018146e-17 -5.516081772155731e-17 4.261518364018146e-17 0.9333985041298096 -0.35884151444346846
12627154666.666666 0.930571157790244 -0.3661110764355173 -5.4812229382332076e-17 4.304054866953939e-17 -5.4812229382332076e-17 4.304054866953939e-17 0.9305713846908423 -0.3661104997052338
12627772000.0 0.927687426515928 -0.3733577891032989 -5.446036594665074e-17 4.3463068552228544e-17 -5.446036594665074e-17 4.3463068552228544e-17 0.9276876578964309 -0.3733572141883459
12628389333.333334 0.9247472633200357 -0.3805817901344629 -5.4105250588312185e-17 4.388271811216629e-17 -5.4105250588312185e-17 4.388271811216629e-17 0.9247474991659314 -0.3805812170696339
12629006666.666666 0.9217508470549179 -0.3877826400877041 -5.3746906674313706e-17 4.4299472361661854e-17 -5.3746906674313706e-17 4.4299472361661854e-17 0.9217510873514227 -0.3877820689076759
12629624000.0 0.9186983599948817 -0.39495990092990885 -5.338535776333157e-17 4.471330650288583e-17 -5.338535776333157e-17 4.471330650288583e-17 0.9186986047269442 -0.39495933166924113
12630241333.333334 0.9155899878250416 -0.4021131360629606 -5.3020627604180787e-17 4.512419592933764e-17 -5.3020627604180787e-17 4.512419592933764e-17 0.9155902369773419 -0.40211256875609264
12630858666.666666 0.9124259196300902 -0.4092419103501408 -5.265274013426686e-17 4.5532116227297974e-17 -5.265274013426686e-17 4.5532116227297974e-17 0.9124261731870408 -0.40924134503138954
12631476000.0 0.9092063478826828 -0.4163457901428596 -5.2281719478010635e-17 4.5937043177286456e-17 -5.2281719478010635e-17 4.5937043177286456e-17 0.9092066058284294 -0.41634522684641767
12632093333.333334 0.9059314684318311 -0.42342434330680023 -5.190758994529319e-17 4.63389527554707e-17 -5.190758994529319e-17 4.63389527554707e-17 0.9059317307502541 -0.4234237820667338
12632710666.666666 0.9026014804909908 -0.4304771392482067 -5.1530376029858746e-17 4.6737821135098625e-17 -5.1530376029858746e-17 4.6737821135098625e-17 0.9026017471657072 -0.4304765800984542
12633328000.0 0.899216586625838 -0.4375037489403104 -5.115010240772079e-17 4.713362468790122e-17 -5.115010240772079e-17 4.713362468790122e-17 0.8992168576402005 -0.4375031919146791
12633945333.333334 0.8957769927420622 -0.444503744949168 -5.076679393556332e-17 4.752633998547712e-17 -5.076679393556332e-17 4.752633998547712e-17 0.8957772680791622 -0.4445031900813333
12634562666.666666 0.8922829080727886 -0.45147670145979496 -5.038047564911904e-17 4.7915943800676875e-17 -5.038047564911904e-17 4.7915943800676875e-17 0.8922831877154536 -0.4514761487832965
12635180000.0 0.8887345451658515 -0.45842219430203773 -4.9991172761544237e-17 4.830241310896744e-17 -4.9991172761544237e-17 4.830241310896744e-17 0.8887348290966522 -0.4584216438502801
12635797333.333334 0.8851321198708757 -0.46533980097638117 -4.9598910661781207e-17 4.868572508978416e-17 -4.9598910661781207e-17 4.868572508978416e-17 0.8851324080721218 -0.46533925278262955
12636414666.666666 0.8814758513261385 -0.4722291006796457 -4.920371491291131e-17 4.9065857127870616e-17 -4.920371491291131e-17 4.9065857127870616e-17 0.8814761437798823 -0.4722285547770251
12637032000.0 0.8777659619452438 -0.4790896743305878 -4.880561125049694e-17 4.944278681460412e-17 -4.880561125049694e-17 4.944278681460412e-17 0.8777662586332794 -0.47908913075207976
12637649333.333334 0.8740026774035898 -0.48592110459539095 -4.8404625580914047e-17 4.981649194930861e-17 -4.8404625580914047e-17 4.981649194930861e-17 0.8740029783074572 -0.4859205633738332
12638266666.666666 0.8701862266246418 -0.49272297591305325 -4.800078397967447e-17 5.018695054055382e-17 -4.800078397967447e-17 5.018695054055382e-17 0.8701865317256259 -0.4927224370811371
12638884000.0 0.8663168417660084 -0.49949487452066704 -4.7594112689738347e-17 5.05541408074408e-17 -4.7594112689738347e-17 5.05541408074408e-17 0.8663171510451402 -0.49949433811093474
12639501333.333334 0.862394758205316 -0.5062363884785869 -4.7184638119816907e-17 5.0918041180874176e-17 -4.7184638119816907e-17 5.0918041180874176e-17 0.8623950716433744 -0.5062358545234303
12640118666.666666 0.8584202145259077 -0.5129471076954654 -4.677238684266864e-17 5.127863030481797e-17 -4.677238684266864e-17 5.127863030481797e-17 0.8584205321034207 -0.5129465762271239
12640736000.0 0.8543934525022558 -0.5196266239533193 -4.6357385593367755e-17 5.1635887037553085e-17 -4.6357385593367755e-17 5.1635887037553085e-17 0.8543937741995018 -0.5196260950038785
12641353333.333334 0.8503147170854014 -0.52627453093212 -4.593966126760823e-17 5.198979045288232e-17 -4.593966126760823e-17 5.198979045288232e-17 0.8503150428824096 -0.5262740045335081
12641970666.666666 0.8461842563879062 -0.5328904242347524 -4.5519240919938945e-17 5.234031984137344e-17 -4.5519240919938945e-17 5.234031984137344e-17 0.846184586264459 -0.5328899004187407
12642588000.0 0.8420023216688356 -0.5394739014114949 -4.509615176203402e-17 5.2687454711549005e-17 -4.509615176203402e-17 5.2687454711549005e-17 0.8420026556044682 -0.5394733802096929
12643205333.333334 0.8377691673184716 -0.5460245619844979 -4.467042116093815e-17 5.3031174791077036e-17 -4.467042116093815e-17 5.3031174791077036e-17 0.8377695052924756 -0.5460240434283542
12643822666.666666 0.8334850508427799 -0.5525420074722441 -4.42420766372994e-17 5.33714600279494e-17 -4.42420766372994e-17 5.33714600279494e-17 0.8334853928342022 -0.5525414915930428
12644440000.0 0.8291502328478338 -0.5590258414136426 -4.381114586359953e-17 5.370829059164151e-17 -4.381114586359953e-17 5.370829059164151e-17 0.82915057883548 -0.5590253282425023
12645057333.333334 0.824764977023889 -0.5654756693922668 -4.3377656662381684e-17 5.404164687425269e-17 -4.3377656662381684e-17 5.404164687425269e-17 0.8247653269863228 -0.5654751589601378
12645674666.666666 0.8203295501294343 -0.5718910990602045 -4.294163700445557e-17 5.437150949164348e-17 -4.294163700445557e-17 5.437150949164348e-17 0.8203299040449799 -0.5718905913978676
12646292000.0 0.8158442219747893 -0.5782717401621831 -4.250311500709247e-17 5.4697859284559344e-17 -4.250311500709247e-17 5.4697859284559344e-17 0.815844579821533 -0.578271235300248
12646909333.333334 0.8113092654059177 -0.5846172045589813 -4.206211893223374e-17 5.5020677319723694e-17 -4.206211893223374e-17 5.5020677319723694e-17 0.8113096271617093 -0.5846167025278848
12647526666.666666 0.8067249562876702 -0.5909271062512755 -4.161867718467071e-17 5.533994489093149e-17 -4.161867718467071e-17 5.533994489093149e-17 0.8067253219301215 -0.5909266070812774
12648144000.0 0.8020915734870113 -0.5972010614030916 -4.1172818310217746e-17 5.565564352012717e-17 -4.1172818310217746e-17 5.565564352012717e-17 0.8020919429935032 -0.5972005651242768
12648761333.333334 0.7974093988561487 -0.6034386883650443 -4.07245709938902e-17 5.596775495845884e-17 -4.07245709938902e-17 5.596775495845884e-17 0.7974097722038271 -0.6034381950073179
12649378666.666666 0.7926787172153135 -0.6096396076976415 -4.0273964058066485e-17 5.627626118732363e-17 -4.0273964058066485e-17 5.627626118732363e-17 0.7926790943810937 -0.6096391172907283
12649996000.0 0.7878998163354555 -0.6158034421943448 -3.9821026460634045e-17 5.658114441940366e-17 -3.9821026460634045e-17 5.658114441940366e-17 0.7879001972960227 -0.6158029547677871
12650613333.333334 0.7830729869207197 -0.6219298169045377 -3.936578729314233e-17 5.688238709967742e-17 -3.936578729314233e-17 5.688238709967742e-17 0.7830733716525301 -0.6219293324876934
12651230666.666666 0.7781985225908481 -0.6280183591562204 -3.8908275778941685e-17 5.71799719064207e-17 -3.8908275778941685e-17 5.71799719064207e-17 0.7781989110701311 -0.6280178777782617
12651848000.0 0.773276719863144 -0.6340686985789044 -3.844852127130803e-17 5.747388175219668e-17 -3.844852127130803e-17 5.747388175219668e-17 0.7732771120659041 -0.6340682202688163
12652465333.333334 0.7683078781345956 -0.6400804671259431 -3.798655325157535e-17 5.776409978482188e-17 -3.798655325157535e-17 5.776409978482188e-17 0.7683082740366117 -0.64007999191252
12653082666.666666 0.7632922996636596 -0.6460532990969174 -3.752240132725403e-17 5.805060938832103e-17 -3.752240132725403e-17 5.805060938832103e-17 0.7632926992404899 -0.646052827008764
12653700000.0 0.7582302895517176 -0.6519868311600837 -3.705609523012569e-17 5.83333941838775e-17 -3.705609523012569e-17 5.83333941838775e-17 0.7582306927786977 -0.6519863622256109
12654317333.333334 0.7531221557246929 -0.6578807023742529 -3.658766481436256e-17 5.861243803074895e-17 -3.658766481436256e-17 5.861243803074895e-17 0.7531225625769391 -0.657880236621677
12654934666.666666 0.7479682089142501 -0.6637345542108366 -3.611714005461665e-17 5.888772502718194e-17 -3.611714005461665e-17 5.888772502718194e-17 0.7479686193666605 -0.6637340916681778
12655552000.0 0.7427687626388154 -0.6695480305757401 -3.564455104410202e-17 5.915923951131146e-17 -3.564455104410202e-17 5.915923951131146e-17 0.7427691766660718 -0.6695475712708205
12656169333.333334 0.7375241331846952 -0.6753207778308129 -3.516992799269434e-17 5.942696606203145e-17 -3.516992799269434e-17 5.942696606203145e-17 0.7375245507612643 -0.6753203217912549
12656786666.666666 0.732234639586645 -0.6810524448155703 -3.469330122498987e-17 5.969088949986946e-17 -3.469330122498987e-17 5.969088949986946e-17 0.7322350606867811 -0.681051992068796
12657404000.0 0.7269006036085603 -0.686742682868453 -3.42147011783851e-17 5.995099488783033e-17 -3.42147011783851e-17 5.995099488783033e-17 0.7269010282063043 -0.6867422334416801
12658021333.333334 0.7215223497238806 -0.6923911458480531 -3.3734158401130084e-17 6.020726753223613e-17 -3.3734158401130084e-17 6.020726753223613e-17 0.7215227777930642 -0.6923906997682955
12658638666.666666 0.7161002050958742 -0.697997490154153 -3.325170355040438e-17 6.04596929835346e-17 -3.325170355040438e-17 6.04596929835346e-17 0.71610063661012 -0.6979970474482182
12659256000.0 0.710634499557656 -0.7035613747487065 -3.276736739034415e-17 6.070825703711539e-17 -3.276736739034415e-17 6.070825703711539e-17 0.7106349344903801 -0.7035609354431942
12659873333.333334 0.7051255655922226 -0.7090824611764831 -3.2281180790104693e-17 6.095294573408824e-17 -3.2281180790104693e-17 6.095294573408824e-17 0.7051260039166352 -0.7090820252977834
12660490666.666666 0.6995737383122477 -0.7145604135856372 -3.179317472190022e-17 6.119374536205575e-17 -3.179317472190022e-17 6.119374536205575e-17 0.6995741800013564 -0.7145599811599297
12661108000.0 0.6939793554394972 -0.7199948987483389 -3.1303380259021763e-17 6.143064245587726e-17 -3.1303380259021763e-17 6.143064245587726e-17 0.693979800466106 -0.7199944698015899
12661725333.333334 0.6883427572845857 -0.7253855860807437 -3.081182857388326e-17 6.166362379840123e-17 -3.081182857388326e-17 6.166362379840123e-17 0.6883432056212999 -0.7253851606387064
12662342666.666666 0.6826642867259731 -0.7307321476634018 -3.031855093603568e-17 6.18926764211945e-17 -3.031855093603568e-17 6.18926764211945e-17 0.6826647383451984 -0.7307317257516133
12662960000.0 0.6769442891893304 -0.7360342582609884 -2.9823578710186566e-17 6.211778760525107e-17 -2.9823578710186566e-17 6.211778760525107e-17 0.676944744063275 -0.7360338399047672
12663577333.333334 0.6711831126264225 -0.7412915953421818 -2.93269433542125e-17 6.233894488168522e-17 -2.93269433542125e-17 6.233894488168522e-17 0.6711835707271009 -0.7412911805666299
12664194666.666666 0.6653811074939678 -0.7465038390992715 -2.882867641716682e-17 6.255613603240985e-17 -2.882867641716682e-17 6.255613603240985e-17 0.6653815687931998 -0.746503427929269
12664812000.0 0.6595386267323153 -0.7516706724676058 -2.832880953728398e-17 6.276934909079713e-17 -2.832880953728398e-17 6.276934909079713e-17 0.6595390912017289 -0.7516702649278119
12665429333.333334 0.6536560257439537 -0.7567917811448994 -2.782737443996853e-17 6.297857234232878e-17 -2.782737443996853e-17 6.297857234232878e-17 0.6536564933549879 -0.7567913772597504
12666046666.666666 0.6477336623720031 -0.7618668536102629 -2.732440293580815e-17 6.318379432521743e-17 -2.732440293580815e-17 6.318379432521743e-17 0.6477341330959073 -0.7618664534039694
12666664000.0 0.6417718968782276 -0.7668955811433334 -2.681992691853535e-17 6.338500383103227e-17 -2.681992691853535e-17 6.338500383103227e-17 0.6417723706860653 -0.7668951846398806
12667281333.333334 0.6357710919213381 -0.7718776578428723 -2.6313978363038995e-17 6.358218990528596e-17 -2.6313978363038995e-17 6.358218990528596e-17 0.6357715687839883 -0.7718772650660177
12667898666.666666 0.6297316125348461 -0.7768127806454477 -2.5806589323326336e-17 6.377534184802438e-17 -2.5806589323326336e-17 6.377534184802438e-17 0.6297320924230039 -0.7768123916187193
12668516000.0 0.6236538261047665 -0.7817006493439383 -2.5297791930500647e-17 6.396444921439138e-17 -2.5297791930500647e-17 6.396444921439138e-17 0.6236543089889469 -0.7817002640906346
12669133333.333334 0.6175381023474948 -0.7865409666056207 -2.4787618390742567e-17 6.414950181517609e-17 -2.4787618390742567e-17 6.414950181517609e-17 0.6175385881980329 -0.7865405851488079
12669750666.666666 0.6113848132870923 -0.7913334379904317 -2.4276100983270625e-17 6.433048971734873e-17 -2.4276100983270625e-17 6.433048971734873e-17 0.6113853020741459 -0.791333060352943
12670368000.0 0.6051943332327678 -0.7960777719687916 -2.3763272058305765e-17 6.450740324457897e-17 -2.3763272058305765e-17 6.450740324457897e-17 0.6051948249263184 -0.7960773981732252
