! Parameters = {f0=12700.012000; bw=77.238000; Q=6100.000000; N=10; m_0_1=1.216111; m_1_1=-0.523079; m_1_2=1.050923; m_2_2=-0.523728; m_2_3=0.687886; m_2_8=-0.002131; m_2_9=0.034573; m_3_3=-0.525665; m_3_4=0.576415; m_3_7=-0.001531; m_3_8=-0.098619; m_3_9=-0.002131; m_4_4=-0.528590; m_4_5=0.412750; m_4_6=0.001986; m_4_7=-0.119168; m_4_8=-0.001531; m_5_5=-0.528208; m_5_6=0.820105; m_5_7=0.001986; m_6_6=-0.528209; m_6_7=0.413092; m_7_7=-0.528576; m_7_8=0.576533; m_8_8=-0.525667; m_8_9=0.688199; m_9_9=-0.523733; m_9_10=1.052001; m_10_10=-0.523089; m_10_11=1.216906}
!
! Created with skrf (http://scikit-rf.org).
# Hz S RI R 50.0 
!freq ReS11 ImS11 ReS21 ImS21 ReS12 ImS12 ReS22 ImS22
12607400000.0 -0.3293068751634982 0.9442229514102539 4.049788619875823e-18 -8.508633617746018e-17 4.049788619875823e-18 -8.508633617746018e-17 -0.3293074802349929 0.944222740385508
12608017333.333334 -0.32086208839050323 0.9471259262809374 3.281637153947628e-18 -8.510272739746965e-17 3.281637153947628e-18 -8.510272739746965e-17 -0.32086269529254735 0.9471257206777993
12608634666.666666 -0.3123917155356007 0.9499533757319684 2.51351959876589e-18 -8.51121894049118e-17 2.51351959876589e-18 -8.51121894049118e-17 -0.31239232421962193 0.9499531755663018
12609252000.0 -0.3038964320406289 0.9527050742978198 1.7454984098529675e-18 -8.51147241443918e-17 1.7454984098529675e-18 -8.51147241443918e-17 -0.30389704245791743 0.9527048795850522
12609869333.333334 -0.2953769153338135 0.9553808025534729 9.776360104323248e-19 -8.51103341229948e-17 9.776360104323248e-19 -8.51103341229948e-17 -0.29537752743552675 0.955380613308598
12610486666.666666 -0.2868338447758866 0.9579803471318806 2.0999478636931476e-19 -8.509902240986275e-17 2.0999478636931476e-19 -8.509902240986275e-17 -0.2868344585130519 0.9579801633694526
12611104000.0 -0.2782679016056123 0.9605035007410682 -5.573629188975699e-19 -8.50807926357237e-17 -5.573629188975699e-19 -8.50807926357237e-17 -0.278268516929131 0.9605033224752013
12611721333.333334 -0.2696797688858444 0.9629500621805451 -1.3243748093837118e-18 -8.505564899237766e-17 -1.3243748093837118e-18 -8.505564899237766e-17 -0.26968038574649683 0.9629498894249165
12612338666.666666 -0.26107013144878694 0.9653198363574387 -2.0909786416255183e-18 -8.502359623213562e-17 -2.0909786416255183e-18 -8.502359623213562e-17 -0.26107074979723566 0.9653196691252842
12612956000.0 -0.2524396758413828 0.9676126343020411 -2.8571122297195353e-18 -8.498463966721342e-17 -2.8571122297195353e-18 -8.498463966721342e-17 -0.25244029562817644 0.9676124726061551
12613573333.333334 -0.24378909027081497 0.9698282731828178 -3.6227134503331945e-18 -8.49387851690818e-17 -3.6227134503331945e-18 -8.49387851690818e-17 -0.24378971144639225 0.9698281170355516
12614190666.666666 -0.23511906454935266 0.9719665763210561 -4.387720247754387e-18 -8.488603916776897e-17 -4.387720247754387e-18 -8.488603916776897e-17 -0.23511968706404643 0.971966425734317
12614808000.0 -0.22643029003948198 0.9740273732049192 -5.152070638897364e-18 -8.482640865111997e-17 -5.152070638897364e-18 -8.482640865111997e-17 -0.22643091384352323 0.9740272281901702
12615425333.333334 -0.2177234595987482 0.9760104995030487 -5.9157027183152244e-18 -8.47599011640097e-17 -5.9157027183152244e-18 -8.47599011640097e-17 -0.21772408464226997 0.976010360071308
12616042666.666666 -0.20899926752450618 0.9779157970776724 -6.678554663201756e-18 -8.468652480751193e-17 -6.678554663201756e-18 -8.468652480751193e-17 -0.20899989375754752 0.977915663239511
12616660000.0 -0.2002584094985553 0.9797431139972079 -7.440564738384581e-18 -8.460628823802296e-17 -7.440564738384581e-18 -8.460628823802296e-17 -0.20025903687106567 0.9797429857627519
12617277333.333334 -0.19150158253163835 0.9814923045483938 -8.201671301311628e-18 -8.451920066634007e-17 -8.201671301311628e-18 -8.451920066634007e-17 -0.19150221099348053 0.9814921819273177
12617894666.666666 -0.1827294849079977 0.9831632292478681 -8.961812807013741e-18 -8.442527185669745e-17 -8.961812807013741e-18 -8.442527185669745e-17 -0.18273011440895315 0.9831631122494017
12618512000.0 -0.1739428161293881 0.9847557548533623 -9.720927813095752e-18 -8.432451212575248e-17 -9.720927813095752e-18 -8.432451212575248e-17 -0.1739434466191601 0.984755643486284
12619129333.333334 -0.16514227685968738 0.9862697543742462 -1.0478954984657392e-17 -8.421693234153506e-17 -1.0478954984657392e-17 -8.421693234153506e-17 -0.16514290828790534 0.9862696486468854
12619746666.666666 -0.156328568868745 0.9877051070817086 -1.1235833099261022e-17 -8.410254392234561e-17 -1.1235833099261022e-17 -8.410254392234561e-17 -0.15632920118496824 0.9877050070019429
12620364000.0 -0.14750239497642068 0.9890616985183778 -1.1991501051861835e-17 -8.398135883561112e-17 -1.1991501051861835e-17 -8.398135883561112e-17 -0.14750302813014304 0.9890616040936361
12620981333.333334 -0.13866445899679447 0.9903394205074161 -1.2745897859717254e-17 -8.385338959669994e-17 -1.2745897859717254e-17 -8.385338959669994e-17 -0.13866509293744766 0.9903393317446739
12621598666.666666 -0.12981546568178964 0.9915381711611811 -1.3498962667305737e-17 -8.371864926768803e-17 -1.3498962667305737e-17 -8.371864926768803e-17 -0.12981610035874755 0.9915380880669616
12622216000.0 -0.12095612066500241 0.992657854889343 -1.4250634751221525e-17 -8.357715145608381e-17 -1.4250634751221525e-17 -8.357715145608381e-17 -0.12095675602758545 0.9926577774697185
12622833333.333334 -0.11208713040554705 0.9936983824064969 -1.5000853525061447e-17 -8.342891031350807e-17 -1.5000853525061447e-17 -8.342891031350807e-17 -0.11208776640302567 0.9936983106670854
12623450666.666666 -0.10320920213172093 0.9946596707392801 -1.574955854428683e-17 -8.327394053433258e-17 -1.574955854428683e-17 -8.327394053433258e-17 -0.10320983871331994 0.9946596046852453
12624068000.0 -0.09432304378449646 0.9955416432330024 -1.649668951109335e-17 -8.311225735427111e-17 -1.649668951109335e-17 -8.311225735427111e-17 -0.09432368089939926 0.9955415828690566
12624685333.333334 -0.08542936396104035 0.9963442295577624 -1.72421862792574e-17 -8.294387654892812e-17 -1.72421862792574e-17 -8.294387654892812e-17 -0.08543000155839252 0.9963441748881613
12625302666.666666 -0.07652887185849142 0.9970673657140247 -1.798598885894256e-17 -8.276881443231077e-17 -1.798598885894256e-17 -8.276881443231077e-17 -0.07652950988740524 0.9970673167425714
12625920000.0 -0.06762227721698383 0.9977109940377663 -1.872803742155013e-17 -8.25870878552839e-17 -1.872803742155013e-17 -8.25870878552839e-17 -0.06762291562654205 0.997710950767808
12626537333.333334 -0.05871029026344736 0.9982750632050376 -1.9468272304486613e-17 -8.239871420399801e-17 -1.9468272304486613e-17 -8.239871420399801e-17 -0.05871092900270736 0.9982750256394662
12627154666.666666 -0.04979362165480306 0.9987595282360705 -2.0206634015962835e-17 -8.220371139826343e-17 -2.0206634015962835e-17 -8.220371139826343e-17 -0.049794260672801 0.9987594963773249
12627772000.0 -0.04087298242112389 0.9991643504988764 -2.0943063239776973e-17 -8.200209788988081e-17 -2.0943063239776973e-17 -8.200209788988081e-17 -0.04087362166687863 0.9991643243489385
12628389333.333334 -0.0319490839093333 0.9994894977123043 -2.1677500840035205e-17 -8.179389266094223e-17 -2.1677500840035205e-17 -8.179389266094223e-17 -0.0319497233318505 0.9994894772727003
12629006666.666666 -0.023022637726055277 0.9997349439486314 -2.240988786592305e-17 -8.157911522207102e-17 -2.240988786592305e-17 -8.157911522207102e-17 -0.023023277274331573 0.9997349292204346
12629624000.0 -0.014094355681182233 0.9999006696356246 -2.3140165556399497e-17 -8.135778561063617e-17 -2.3140165556399497e-17 -8.135778561063617e-17 -0.014094995304209124 0.99990066061945
12630241333.333334 -0.0051649497309434085 0.9999866615581008 -2.3868275344911028e-17 -8.112992438891425e-17 -2.3868275344911028e-17 -8.112992438891425e-17 -0.00516558937771146 0.9999866582541085
12630858666.666666 0.003764868078697065 0.9999929128589805 -2.45941588640718e-17 -8.089555264221419e-17 -2.45941588640718e-17 -8.089555264221419e-17 0.0037642284591941897 0.999992915266876
12631476000.0 0.012694385669132564 0.999919423039838 -2.5317757950341787e-17 -8.0654691976955e-17 -2.5317757950341787e-17 -8.0654691976955e-17 0.01269374612789404 0.9999194311588704
12632093333.333334 0.021622890985526857 0.9997661979609372 -2.603901464865451e-17 -8.040736451871213e-17 -2.603901464865451e-17 -8.040736451871213e-17 0.021622251573540627 0.9997662117899007
12632710666.666666 0.03054967205376508 0.9995332498407679 -2.6757871217058195e-17 -8.015359291021269e-17 -2.6757871217058195e-17 -8.015359291021269e-17 0.030549032822003816 0.9995332693780021
12633328000.0 0.03947401703736985 0.9992205972550668 -2.7474270131337462e-17 -7.98934003092883e-17 -2.7474270131337462e-17 -7.98934003092883e-17 0.03947337803678688 0.9992206224984567
12633945333.333334 0.048395214294008566 0.9988282651353417 -2.8188154089583895e-17 -7.962681038679844e-17 -2.8188154089583895e-17 -7.962681038679844e-17 0.04839457557553378 0.9988282960823158
12634562666.666666 0.05731255243238296 0.9983562847668782 -2.8899466016778483e-17 -7.935384732450189e-17 -2.8899466016778483e-17 -7.935384732450189e-17 0.05731191404691877 0.9983563214144119
12635180000.0 0.06622532036892839 0.9978046937862504 -2.9608149069340197e-17 -7.907453581289176e-17 -2.9608149069340197e-17 -7.907453581289176e-17 0.06622468236734569 0.9978047361308634
12635797333.333334 0.07513280738454496 0.997173536178311 -3.031414663965857e-17 -7.87889010489891e-17 -3.031414663965857e-17 -7.87889010489891e-17 0.07513216981767906 0.9971735842160708
12636414666.666666 0.08403430318115822 0.9964628622726976 -3.101740236059407e-17 -7.849696873409998e-17 -3.101740236059407e-17 -7.849696873409998e-17 0.0840336660998049 0.9964629159992182
12637032000.0 0.09292909793852965 0.9956727287398054 -3.171786010997949e-17 -7.819876507152374e-17 -3.171786010997949e-17 -7.819876507152374e-17 0.0929284613934409 0.9956727881502466
12637649333.333334 0.10181648237074549 0.9948031985862766 -3.241546401507749e-17 -7.789431676423066e-17 -3.241546401507749e-17 -7.789431676423066e-17 0.10181584641262555 0.9948032636753453
12638266666.666666 0.11069574778280462 0.9938543411499721 -3.311015845702709e-17 -7.75836510124948e-17 -3.311015845702709e-17 -7.75836510124948e-17 0.11069511246230607 0.9938544119119237
12638884000.0 0.11956618612713123 0.9928262320944442 -3.3801888075265674e-17 -7.726679551148867e-17 -3.3801888075265674e-17 -7.726679551148867e-17 0.11956555149485086 0.9928263085230822
12639501333.333334 0.12842709006006386 0.9917189534028998 -3.4490597771930465e-17 -7.694377844883759e-17 -3.4490597771930465e-17 -7.694377844883759e-17 0.12842645616653864 0.9917190354915764
12640118666.666666 0.13727775299809125 0.9905325933716843 -3.517623271622167e-17 -7.661462850214198e-17 -3.517623271622167e-17 -7.661462850214198e-17 0.13727711989379415 0.9905326811133004
12640736000.0 0.14611746917464674 0.9892672466031792 -3.585873834878774e-17 -7.627937483643929e-17 -3.585873834878774e-17 -7.627937483643929e-17 0.14611683690998317 0.9892673399901872
12641353333.333334 0.15494553369571196 0.9879230139983521 -3.653806038601122e-17 -7.593804710166357e-17 -3.653806038601122e-17 -7.593804710166357e-17 0.15494490232101532 0.9879231130227544
12641970666.666666 0.16376124259661767 0.9865000027486318 -3.721414482434597e-17 -7.559067543003002e-17 -3.721414482434597e-17 -7.559067543003002e-17 0.16376061216214527 0.9865001074019804
12642588000.0 0.17256389289789648 0.9849983263273914 -3.788693794458472e-17 -7.52372904334036e-17 -3.788693794458472e-17 -7.52372904334036e-17 0.17256326345382597 0.9849984366007919
12643205333.333334 0.18135278266136926 0.9834181044809058 -3.855638631611488e-17 -7.487792320062326e-17 -3.855638631611488e-17 -7.487792320062326e-17 0.18135215425779436 0.9834182203650166
12643822666.666666 0.19012721104622965 0.981759463218777 -3.9222436801157416e-17 -7.45126052947837e-17 -3.9222436801157416e-17 -7.45126052947837e-17 0.19012658373315647 0.9817595847038104
12644440000.0 0.19888647836476367 0.9800225348039208 -3.988503655896163e-17 -7.414136875049048e-17 -3.988503655896163e-17 -7.414136875049048e-17 0.19888585219210603 0.9800226618796419
12645057333.333334 0.20762988613828218 0.9782074577419876 -4.054413304998641e-17 -7.376424607107021e-17 -4.054413304998641e-17 -7.376424607107021e-17 0.20762926115585859 0.9782075903977189
12645674666.666666 0.2163567371526533 0.97631437677036 -4.1199674040053795e-17 -7.338127022574592e-17 -4.1199674040053795e-17 -7.338127022574592e-17 0.21635611341018207 0.976314514994978
12646292000.0 0.22506633551420413 0.9743434428465395 -4.185160760448994e-17 -7.299247464676607e-17 -4.185160760448994e-17 -7.299247464676607e-17 0.22506571306130002 0.9743435866284788
12646909333.333334 0.2337579867048236 0.9722948131361943 -4.249988213219847e-17 -7.259789322652203e-17 -4.249988213219847e-17 -7.259789322652203e-17 0.23375736559099378 0.9722949624634477
12647526666.666666 0.24243099763762296 0.9701686510005698 -4.314444632975403e-17 -7.21975603146012e-17 -4.314444632975403e-17 -7.21975603146012e-17 0.24243037791226313 0.9701688058606895
12648144000.0 0.2510846767121752 0.9679651259834633 -4.3785249225445664e-17 -7.179151071481725e-17 -4.3785249225445664e-17 -7.179151071481725e-17 0.25108405842456505 0.9679652863635599
12648761333.333334 0.2597183338695531 0.9656844137977287 -4.442224017328647e-17 -7.13797796822085e-17 -4.442224017328647e-17 -7.13797796822085e-17 0.2597177170688532 0.9656845796844754
12649378666.666666 0.26833128064735734 0.9633266963112714 -4.505536885700351e-17 -7.096240291999627e-17 -4.505536885700351e-17 -7.096240291999627e-17 0.2683306653826051 0.9633268676909034
12649996000.0 0.27692283023475234 0.9608921615325069 -4.568458529400929e-17 -7.053941657650096e-17 -4.568458529400929e-17 -7.053941657650096e-17 0.27692221655485766 0.960892338390823
12650613333.333334 0.2854922975271516 0.9583810035953905 -4.6309839839326295e-17 -7.011085724203483e-17 -4.6309839839326295e-17 -7.011085724203483e-17 0.285491685480893 0.9583811859177525
12651230666.666666 0.29403899918073934 0.9557934227439676 -4.693108318949114e-17 -6.967676194575558e-17 -4.693108318949114e-17 -6.967676194575558e-17 0.29403838881676075 0.955793610515305
12651848000.0 0.3025622536672346 0.953129625316328 -4.754826638643664e-17 -6.923716815247898e-17 -4.754826638643664e-17 -6.923716815247898e-17 0.30256164503404087 0.9531298185211363
12652465333.333334 0.31106138132799205 0.9503898237282221 -4.816134082132686e-17 -6.879211375947033e-17 -4.816134082132686e-17 -6.879211375947033e-17 0.3110607744739455 0.9503900223505656
12653082666.666666 0.3195357044282004 0.9475742364561278 -4.8770258238370724e-17 -6.834163709319675e-17 -4.8770258238370724e-17 -6.834163709319675e-17 0.31953509940151636 0.9475744404796397
12653700000.0 0.327984547211195 0.9446830880197375 -4.9374970738625664e-17 -6.78857769060297e-17 -4.9374970738625664e-17 -6.78857769060297e-17 0.32798394405993875 0.9446832974276225
12654317333.333334 0.3364072359519672 0.9417166089641811 -4.9975430783725394e-17 -6.74245723729486e-17 -4.9975430783725394e-17 -6.74245723729486e-17 0.33640663472404997 0.9417168237392167
12654934666.666666 0.34480309901115774 0.9386750358415529 -5.057159119962255e-17 -6.695806308817714e-17 -5.057159119962255e-17 -6.695806308817714e-17 0.3448024997543321 0.938675255966089
12655552000.0 0.3531714668886129 0.9355586111920438 -5.1163405180281204e-17 -6.648628906180095e-17 -5.1163405180281204e-17 -6.648628906180095e-17 0.3531708696504698 0.9355588366480058
12656169333.333334 0.3615116722765311 0.9323675835246875 -5.1750826291321017e-17 -6.600929071636603e-17 -5.1750826291321017e-17 -6.600929071636603e-17 0.3615110771044965 0.9323678142935791
12656786666.666666 0.369823050112944 0.9291022072974524 -5.2333808473665836e-17 -6.552710888341739e-17 -5.2333808473665836e-17 -6.552710888341739e-17 0.3698224570542737 0.9291024433603534
12657404000.0 0.37810493763461384 0.9257627428969932 -5.2912306047131695e-17 -6.503978480002749e-17 -5.2912306047131695e-17 -6.503978480002749e-17 0.378104346736391 0.925762984234564
12658021333.333334 0.3863566744299381 0.9223494566178696 -5.348627371399611e-17 -6.454736010528291e-17 -5.348627371399611e-17 -6.454736010528291e-17 0.3863560857390688 0.9223497032103521
12658638666.666666 0.394577602491479 0.9188626206413648 -5.4055666562521954e-17 -6.404987683675041e-17 -5.4055666562521954e-17 -6.404987683675041e-17 0.3945770160546888 0.9188628724685837
12659256000.0 0.40276706626869785 0.9153025130136735 -5.462044007047584e-17 -6.35473774268889e-17 -5.462044007047584e-17 -6.35473774268889e-17 0.4027664821325284 0.9153027700550385
12659873333.333334 0.4109244127199931 0.9116694176238279 -5.518055010857895e-17 -6.303990469945971e-17 -5.518055010857895e-17 -6.303990469945971e-17 0.4109238309307973 0.9116696798583337
12660490666.666666 0.41904899136477514 0.9079636241810595 -5.573595294394117e-17 -6.25275018658934e-17 -5.573595294394117e-17 -6.25275018658934e-17 0.4190484119687151 0.9079638915872905
12661108000.0 0.4271401543355977 0.904185428191586 -5.62866052434773e-17 -6.201021252161109e-17 -5.62866052434773e-17 -6.201021252161109e-17 0.42713957737863956 0.9041857007477149
12661725333.333334 0.43519725642945584 0.9003351309352058 -5.68324640772561e-17 -6.148808064234731e-17 -5.68324640772561e-17 -6.148808064234731e-17 0.4351966819573671 0.9003354086189977
12662342666.666666 0.4432196551595205 0.8964130394411473 -5.737348692184128e-17 -6.096115058041836e-17 -5.737348692184128e-17 -6.096115058041836e-17 0.4432190832178658 0.8964133222299596
12662960000.0 0.45120671080624214 0.8924194664636425 -5.790963166358825e-17 -6.042946706097222e-17 -5.790963166358825e-17 -6.042946706097222e-17 0.45120614144038024 0.892419754334429
12663577333.333334 0.4591577864683891 0.8883547304569773 -5.844085660190728e-17 -5.989307517820691e-17 -5.844085660190728e-17 -5.989307517820691e-17 0.45915721972346896 0.8883550233862885
12664194666.666666 0.4670722481138353 0.8842191555500977 -5.896712045249255e-17 -5.935202039156138e-17 -5.896712045249255e-17 -5.935202039156138e-17 0.46707168403479216 0.8842194535140824
12664812000.0 0.47494946463011833 0.8800130715207605 -5.948838235051562e-17 -5.880634852187748e-17 -5.948838235051562e-17 -5.880634852187748e-17 0.47494890326167083 0.8800133744951691
12665429333.333334 0.4827888078747666 0.8757368137692406 -6.000460185378521e-17 -5.825610574753245e-17 -6.000460185378521e-17 -5.825610574753245e-17 0.4827882492614126 0.8757371217294261
12666046666.666666 0.4905896527253619 0.871390723291595 -6.051573894586201e-17 -5.770133860055461e-17 -6.051573894586201e-17 -5.770133860055461e-17 0.49058909691137537 0.8713910362125147
12666664000.0 0.4983513771295133 0.8669751466524037 -6.102175403916323e-17 -5.714209396268369e-17 -6.102175403916323e-17 -5.714209396268369e-17 0.4983508241589411 0.8669754645086234
12667281333.333334 0.5060733621542128 0.862490435957276 -6.152260797799089e-17 -5.657841906144781e-17 -6.152260797799089e-17 -5.657841906144781e-17 0.5060728120708698 0.8624907587229681
12667898666.666666 0.5137549920354109 0.85793694882464 -6.201826204156241e-17 -5.601036146617224e-17 -6.201826204156241e-17 -5.601036146617224e-17 0.5137544448828791 0.8579372764735914
12668516000.0 0.5213956542271218 0.8533150483572347 -6.250867794698855e-17 -5.543796908397913e-17 -6.250867794698855e-17 -5.543796908397913e-17 0.5213951100487436 0.8533153808628422
12669133333.333334 0.5289947394500445 0.8486251031132764 -6.299381785220053e-17 -5.4861290155777474e-17 -6.299381785220053e-17 -5.4861290155777474e-17 0.5289941982889215 0.848625440448553
12669750666.666666 0.5365516417403934 0.843867487076927 -6.347364435886995e-17 -5.4280373252193724e-17 -6.347364435886995e-17 -5.4280373252193724e-17 0.536551103639383 0.8438678292145043
12670368000.0 0.5440657584981229 0.8390425796285323 -6.394812051526968e-17 -5.369526726950211e-17 -6.394812051526968e-17 -5.369526726950211e-17 0.5440652234998331 0.8390429265406602
