! Parameters = {f0=12700.012000; bw=77.238000; Q=6100.000000; N=10; m_0_1=1.204299; m_1_1=-0.700256; m_1_2=1.039111; m_2_2=-0.700905; m_2_3=0.676074; m_2_8=-0.002721; m_2_9=0.033983; m_3_3=-0.702842; m_3_4=0.564603; m_3_7=-0.002121; m_3_8=-0.099209; m_3_9=-0.002721; m_4_4=-0.705767; m_4_5=0.400938; m_4_6=0.001396; m_4_7=-0.119758; m_4_8=-0.002121; m_5_5=-0.705385; m_5_6=0.808293; m_5_7=0.001396; m_6_6=-0.705386; m_6_7=0.401280; m_7_7=-0.705753; m_7_8=0.564721; m_8_8=-0.702844; m_8_9=0.676387; m_9_9=-0.700910; m_9_10=1.040189; m_10_10=-0.700266; m_10_11=1.205094}
!
! Created with skrf (http://scikit-rf.org).
# Hz S RI R 50.0 
!freq ReS11 ImS11 ReS21 ImS21 ReS12 ImS12 ReS22 ImS22
12607400000.0 -0.9277489998637375 0.37320476048903284 6.290554429946637e-17 -4.988532620940739e-17 6.290554429946637e-17 -4.988532620940739e-17 -0.9277492367033445 0.3732041717293673
12608017333.333334 -0.9245125415986953 0.3811516239327358 6.245847676874935e-17 -5.0418917739965816e-17 6.245847676874935e-17 -5.0418917739965816e-17 -0.924512783469624 0.3811510372556908
12608634666.666666 -0.9212080139716652 0.38907042420906457 6.200688926657235e-17 -5.094851022340039e-17 6.200688926657235e-17 -5.094851022340039e-17 -0.9212082608556155 0.3890698396576296
12609252000.0 -0.9178356602861291 0.39696057827820597 6.155081750116198e-17 -5.147406542621573e-17 6.155081750116198e-17 -5.147406542621573e-17 -0.9178359121644329 0.3969599958952093
12609869333.333334 -0.9143957288394379 0.40482150520943727 6.109029750367138e-17 -5.199554543322702e-17 6.109029750367138e-17 -5.199554543322702e-17 -0.9143959856930628 0.4048209250375442
12610486666.666666 -0.9108884729045604 0.4126526262238493 6.062536562535074e-17 -5.2512912650280074e-17 6.062536562535074e-17 -5.2512912650280074e-17 -0.910888734714108 0.4126520483055573
12611104000.0 -0.9073141507112665 0.4204533647373214 6.015605853468496e-17 -5.302612980695598e-17 6.015605853468496e-17 -5.302612980695598e-17 -0.9073144174569767 0.4204527891149586
12611721333.333334 -0.9036730254273511 0.42822314640245634 5.96824132145244e-17 -5.353515995923371e-17 5.96824132145244e-17 -5.353515995923371e-17 -0.9036732970891018 0.4282225731181774
12612338666.666666 -0.8999653651391061 0.43596139915120513 5.920446695917924e-17 -5.403996649214241e-17 5.920446695917924e-17 -5.403996649214241e-17 -0.8999656416964152 0.4359608282469885
12612956000.0 -0.8961914428315413 0.4436675532370622 5.872225737149151e-17 -5.4540513122387774e-17 5.872225737149151e-17 -5.4540513122387774e-17 -0.8961917242635684 0.44366698475470684
12613573333.333334 -0.8923515363684698 0.4513410412766295 5.82358223598993e-17 -5.503676390093773e-17 5.82358223598993e-17 -5.503676390093773e-17 -0.8923518226540178 0.4513404752577522
12614190666.666666 -0.888445928471892 0.45898129829172574 5.774520013546305e-17 -5.552868321559806e-17 5.774520013546305e-17 -5.552868321559806e-17 -0.8884462195894083 0.4589807347777577
12614808000.0 -0.8844749067012004 0.4665877617509314 5.725042920888042e-17 -5.601623579355266e-17 5.725042920888042e-17 -5.601623579355266e-17 -0.8844752026287781 0.46658720078311516
12615425333.333334 -0.8804387634320717 0.4741598716108795 5.675154838746972e-17 -5.649938670388634e-17 5.675154838746972e-17 -5.649938670388634e-17 -0.880439064147453 0.4741593132302664
12616042666.666666 -0.876337795834904 0.4816970703575672 5.624859677214835e-17 -5.697810136006502e-17 5.624859677214835e-17 -5.697810136006502e-17 -0.8763381013154808 0.4816965146050144
12616660000.0 -0.8721723058528945 0.4891988030474788 5.574161375437623e-17 -5.745234552240388e-17 5.574161375437623e-17 -5.745234552240388e-17 -0.8721726160757098 0.48919824996364536
12617277333.333334 -0.8679426001798756 0.4966645173483186 5.523063901307651e-17 -5.792208530050954e-17 5.523063901307651e-17 -5.792208530050954e-17 -0.8679429151216251 0.4966639669736632
12617894666.666666 -0.8636489902377642 0.5040936635796303 5.471571251156248e-17 -5.838728715567039e-17 5.471571251156248e-17 -5.838728715567039e-17 -0.8636493098747988 0.5040931159544084
12618512000.0 -0.8592917921534325 0.5114856947536118 5.4196874494392816e-17 -5.88479179032674e-17 5.4196874494392816e-17 -5.88479179032674e-17 -0.8592921164617606 0.5114851499178731
12619129333.333334 -0.8548713267357193 0.5188400666148987 5.367416548427373e-17 -5.93039447150959e-17 5.367416548427373e-17 -5.93039447150959e-17 -0.8548716556910073 0.518839524608483
12619746666.666666 -0.850387919451625 0.5261562376809549 5.314762627888447e-17 -5.97553351217119e-17 5.314762627888447e-17 -5.97553351217119e-17 -0.8503882530291988 0.52615569854349
12620364000.0 -0.8458419004022981 0.5334336692820112 5.261729794770003e-17 -6.020205701473493e-17 5.261729794770003e-17 -6.020205701473493e-17 -0.8458422385771464 0.5334331330529093
12620981333.333334 -0.8412336042989556 0.540671825600363 5.2083221828825555e-17 -6.064407864909609e-17 5.2083221828825555e-17 -6.064407864909609e-17 -0.8412339470457308 0.5406712923188189
12621598666.666666 -0.8365633704380476 0.5478701737101375 5.1545439525763875e-17 -6.108136864529973e-17 5.1545439525763875e-17 -6.108136864529973e-17 -0.8365637177310676 0.5478696434151246
12622216000.0 -0.8318315426763002 0.5550281836164797 5.100399290419006e-17 -6.151389599163445e-17 5.100399290419006e-17 -6.151389599163445e-17 -0.8318318944895517 0.5550276563467483
12622833333.333334 -0.8270384694054638 0.5621453282944809 5.045892408871274e-17 -6.194163004635117e-17 5.045892408871274e-17 -6.194163004635117e-17 -0.8270388257126029 0.5621448040885548
12623450666.666666 -0.8221845035266773 0.5692210837279597 4.9910275459601944e-17 -6.236454053982603e-17 4.9910275459601944e-17 -6.236454053982603e-17 -0.8221848643010323 0.5692205626241336
12624068000.0 -0.8172700024243582 0.5762549289482308 4.935808964950893e-17 -6.278259757668543e-17 4.935808964950893e-17 -6.278259757668543e-17 -0.8172703676389302 0.5762544109845664
12624685333.333334 -0.812295327939968 0.5832463460723456 4.8802409540158147e-17 -6.319577163791062e-17 4.8802409540158147e-17 -6.319577163791062e-17 -0.8122956975674337 0.58324583128667
12625302666.666666 -0.8072608463454847 0.5901948203410584 4.824327825904143e-17 -6.360403358289843e-17 4.824327825904143e-17 -6.360403358289843e-17 -0.8072612203581992 0.590194308770961
12625920000.0 -0.8021669283161412 0.597099840157146 4.7680739176065946e-17 -6.4007354651514e-17 4.7680739176065946e-17 -6.4007354651514e-17 -0.8021673066861398 0.5970993318399762
12626537333.333334 -0.7970139489034632 0.6039608971226123 4.711483590022177e-17 -6.440570646608754e-17 4.711483590022177e-17 -6.440570646608754e-17 -0.7970143316024627 0.6039603920954764
12627154666.666666 -0.7918022875075081 0.610777486076329 4.6545612276196495e-17 -6.479906103340858e-17 4.6545612276196495e-17 -6.479906103340858e-17 -0.7918026745069094 0.6107769843760871
12627772000.0 -0.7865323278487736 0.6175491051314317 4.597311238099108e-17 -6.518739074667634e-17 4.597311238099108e-17 -6.518739074667634e-17 -0.786532719119664 0.6175486067946955
12628389333.333334 -0.7812044579402901 0.62427525571182 4.5397380520529726e-17 -6.557066838741496e-17 4.5397380520529726e-17 -6.557066838741496e-17 -0.7812048534534458 0.6242747607749506
12629006666.666666 -0.7758190700587438 0.6309554425892747 4.481846122622712e-17 -6.594886712737605e-17 4.481846122622712e-17 -6.594886712737605e-17 -0.77581946978463 0.6309549510883783
12629624000.0 -0.770376560715726 0.637589173919735 4.4236399251570546e-17 -6.632196053039121e-17 4.4236399251570546e-17 -6.632196053039121e-17 -0.7703769646245018 0.6375886858906618
12630241333.333334 -0.7648773306285476 0.6441759612795167 4.365123956865437e-17 -6.668992255421578e-17 4.365123956865437e-17 -6.668992255421578e-17 -0.7648777386900661 0.6441754767578572
12630858666.666666 -0.7593217846907852 0.6507153197012063 4.3063027364739346e-17 -6.705272755231594e-17 4.3063027364739346e-17 -6.705272755231594e-17 -0.7593221968745978 0.6507148387222901
12631476000.0 -0.7537103319422167 0.6572067677096728 4.247180803874749e-17 -6.741035027565753e-17 4.247180803874749e-17 -6.741035027565753e-17 -0.7537107482175742 0.6572062903085654
12632093333.333334 -0.748043385539071 0.6636498273570842 4.1877627197788494e-17 -6.776276587443518e-17 4.1877627197788494e-17 -6.776276587443518e-17 -0.7480438058749255 0.6636493535685837
12632710666.666666 -0.74232136272335 0.6700440242583993 4.12805306536546e-17 -6.810994989978159e-17 4.12805306536546e-17 -6.810994989978159e-17 -0.7423217870883584 0.670043554117035
12633328000.0 -0.7365446847921463 0.6763888876262534 4.0680564419274053e-17 -6.845187830546228e-17 4.0680564419274053e-17 -6.845187830546228e-17 -0.7365451131546706 0.6763884211662817
12633945333.333334 -0.7307137770667146 0.682683950305511 4.007777470520762e-17 -6.878852744950605e-17 4.007777470520762e-17 -6.878852744950605e-17 -0.7307142093948273 0.6826834875609153
12634562666.666666 -0.7248290688611049 0.6889287488077306 3.947220791608451e-17 -6.911987409583183e-17 3.947220791608451e-17 -6.911987409583183e-17 -0.7248295051225886 0.6889282898122167
12635180000.0 -0.7188909934504918 0.6951228233453476 3.8863910647037066e-17 -6.944589541583765e-17 3.8863910647037066e-17 -6.944589541583765e-17 -0.7188914336128425 0.6951223681323414
12635797333.333334 -0.7128999880393897 0.7012657178654039 3.825292968013605e-17 -6.976656898995042e-17 3.825292968013605e-17 -6.976656898995042e-17 -0.7129004320698199 0.7012652664680504
12636414666.666666 -0.7068564937293871 0.7073569800832101 3.76393119808058e-17 -7.00818728091493e-17 3.76393119808058e-17 -7.00818728091493e-17 -0.706856941594828 0.7073565325343705
12637032000.0 -0.7007609554866874 0.7133961615156239 3.7023104694206726e-17 -7.039178527646775e-17 3.7023104694206726e-17 -7.039178527646775e-17 -0.7007614071537909 0.7133957178478723
12637649333.333334 -0.6946138221093686 0.7193828175140522 3.6404355141645863e-17 -7.069628520844323e-17 3.6404355141645863e-17 -7.069628520844323e-17 -0.6946142775445092 0.7193823777596733
12638266666.666666 -0.6884155461942565 0.7253165072972669 3.578311081693545e-17 -7.099535183655609e-17 3.578311081693545e-17 -7.099535183655609e-17 -0.6884160053635353 0.7253160714882547
12638884000.0 -0.6821665841037242 0.7311967939837398 3.5159419382772154e-17 -7.128896480862011e-17 3.5159419382772154e-17 -7.128896480862011e-17 -0.6821670469729708 0.731196362151795
12639501333.333334 -0.6758673959320101 0.7370232446238895 3.4533328667082906e-17 -7.157710419015277e-17 3.4533328667082906e-17 -7.157710419015277e-17 -0.6758678624667852 0.7370228168004169
12640118666.666666 -0.6695184454714058 0.7427954302319008 3.3904886659374025e-17 -7.185975046570673e-17 3.3904886659374025e-17 -7.185975046570673e-17 -0.6695189156370029 0.7427950064480061
12640736000.0 -0.6631202001778957 0.7485129258174976 3.327414150704256e-17 -7.213688454018049e-17 3.327414150704256e-17 -7.213688454018049e-17 -0.6631206739393447 0.748512506103987
12641353333.333334 -0.6566731311371827 0.7541753104168357 3.264114151174155e-17 -7.24084877400698e-17 3.264114151174155e-17 -7.24084877400698e-17 -0.656673608459253 0.754174894804213
12641970666.666666 -0.6501777130294988 0.7597821671239547 3.2005935125642135e-17 -7.267454181472749e-17 3.2005935125642135e-17 -7.267454181472749e-17 -0.6501781938766997 0.7597817556424176
12642588000.0 -0.643634424094991 0.7653330831211678 3.13685709477703e-17 -7.29350289375533e-17 3.13685709477703e-17 -7.29350289375533e-17 -0.6436349084315766 0.7653326758006076
12643205333.333334 -0.637043746098428 0.7708276497095338 3.072909772028048e-17 -7.318993170717559e-17 3.072909772028048e-17 -7.318993170717559e-17 -0.6370442338883993 0.7708272465795333
12643822666.666666 -0.6304061642935762 0.7762654623390778 3.0087564324744636e-17 -7.343923314858961e-17 3.0087564324744636e-17 -7.343923314858961e-17 -0.6304066555006826 0.7762650634289072
12644440000.0 -0.6237221673877101 0.7816461206383735 2.944401977843032e-17 -7.368291671426425e-17 2.944401977843032e-17 -7.368291671426425e-17 -0.6237226619754539 0.7816457259769902
12645057333.333334 -0.6169922475055457 0.7869692284440971 2.8798513230557395e-17 -7.39209662852214e-17 2.8798513230557395e-17 -7.39209662852214e-17 -0.6169927454371823 0.786968838060142
12645674666.666666 -0.6102169001529377 0.7922343938302491 2.8151093958567384e-17 -7.415336617207459e-17 2.8151093958567384e-17 -7.415336617207459e-17 -0.6102174013914816 0.7922340077520461
12646292000.0 -0.603396624180375 0.7974412291370251 2.7501811364350775e-17 -7.438010111604732e-17 2.7501811364350775e-17 -7.438010111604732e-17 -0.6033971286886006 0.797440847392579
12646909333.333334 -0.5965319217464767 0.8025893509991875 2.6850714970508878e-17 -7.460115628994346e-17 2.6850714970508878e-17 -7.460115628994346e-17 -0.5965324294869208 0.8025889736161802
12647526666.666666 -0.5896232982807266 0.8076783803745152 2.6197854416578347e-17 -7.481651729909557e-17 2.6197854416578347e-17 -7.481651729909557e-17 -0.5896238092156914 0.8076780073803048
12648144000.0 -0.5826712624464151 0.8127079425715876 2.554327945525263e-17 -7.50261701822784e-17 2.554327945525263e-17 -7.50261701822784e-17 -0.5826717765379724 0.8127075739932077
12648761333.333334 -0.575676326103215 0.8176776672773616 2.4887039948602744e-17 -7.523010141258771e-17 2.4887039948602744e-17 -7.523010141258771e-17 -0.575676843313207 0.8176773031415163
12649378666.666666 -0.5686390042694232 0.8225871885844824 2.4229185864304293e-17 -7.542829789828187e-17 2.4229185864304293e-17 -7.542829789828187e-17 -0.5686395245594663 0.8225868289175472
12649996000.0 -0.5615598150840642 0.8274361450182085 2.3569767271815058e-17 -7.562074698360428e-17 2.3569767271815058e-17 -7.562074698360428e-17 -0.561560338415553 0.8274357898462281
12650613333.333334 -0.554439279768744 0.83222417956303 2.2908834338595847e-17 -7.580743644955698e-17 2.2908834338595847e-17 -7.580743644955698e-17 -0.5544398061028518 0.8322238289117144
12651230666.666666 -0.5472779225892944 0.8369509396889337 2.2246437326306096e-17 -7.598835451464737e-17 2.2246437326306096e-17 -7.598835451464737e-17 -0.5472784518869768 0.8369505935836571
12651848000.0 -0.5400762708170782 0.8416160773774234 2.1582626586963667e-17 -7.616348983561049e-17 2.1582626586963667e-17 -7.616348983561049e-17 -0.5400768030390771 0.8416157358432241
12652465333.333334 -0.5328348546903107 0.8462192491470503 2.0917452559159895e-17 -7.633283150808064e-17 2.0917452559159895e-17 -7.633283150808064e-17 -0.5328353897971574 0.8462189122086279
12653082666.666666 -0.5255542073749506 0.8507601160787518 2.025096576423072e-17 -7.649636906724142e-17 2.025096576423072e-17 -7.649636906724142e-17 -0.525554745326966 0.8507597837604629
12653700000.0 -0.518234864925343 0.8552383438408582 1.9583216802401158e-17 -7.665409248844705e-17 1.9583216802401158e-17 -7.665409248844705e-17 -0.5182354056826443 0.85523801616672
12654317333.333334 -0.5108773662450222 0.8596536027135537 1.8914256348999557e-17 -7.680599218779229e-17 1.8914256348999557e-17 -7.680599218779229e-17 -0.5108779097675228 0.859653279707237
12654934666.666666 -0.5034822530467159 0.8640055676133382 1.824413515058257e-17 -7.69520590226699e-17 1.824413515058257e-17 -7.69520590226699e-17 -0.5034827992941294 0.8640052492981679
12655552000.0 -0.4960500698126044 0.8682939181168747 1.7572904021110776e-17 -7.709228429228114e-17 1.7572904021110776e-17 -7.709228429228114e-17 -0.4960506187444487 0.8682936045158294
12656169333.333334 -0.4885813637543831 0.8725183384844993 1.6900613838118858e-17 -7.722665973811442e-17 1.6900613838118858e-17 -7.722665973811442e-17 -0.4885819153299817 0.872518029620207
12656786666.666666 -0.48107668477264987 0.8766785176836488 1.622731553884055e-17 -7.735517754439918e-17 1.622731553884055e-17 -7.735517754439918e-17 -0.4810772389511361 0.876678213578388
12657404000.0 -0.47353658541669075 0.8807741494116094 1.5553060116383412e-17 -7.747783033851466e-17 1.5553060116383412e-17 -7.747783033851466e-17 -0.47353714215700987 0.8807738500873049
12658021333.333334 -0.46596162084367204 0.8848049321181368 1.4877898615865768e-17 -7.759461119137354e-17 1.4877898615865768e-17 -7.759461119137354e-17 -0.4659621801045848 0.8848046375963593
12658638666.666666 -0.4583523487778166 0.8887705690276325 1.420188213056665e-17 -7.77055136177683e-17 1.420188213056665e-17 -7.77055136177683e-17 -0.4583529105179024 0.8887702793295974
12659256000.0 -0.4507093294692387 0.8926707681610463 1.352506179806246e-17 -7.781053157668613e-17 1.352506179806246e-17 -7.781053157668613e-17 -0.45070989364689806 0.8926704833076117
12659873333.333334 -0.44303312565284564 0.8965052423572957 1.2847488796370847e-17 -7.790965947158926e-17 1.2847488796370847e-17 -7.790965947158926e-17 -0.44303369222630395 0.8965049623689608
12660490666.666666 -0.4353243025068299 0.900273709294448 1.2169214340106213e-17 -7.800289215065935e-17 1.2169214340106213e-17 -7.800289215065935e-17 -0.4353248714341405 0.9002734341913526
12661108000.0 -0.4275834276109549 0.9039758915105592 1.1490289676589681e-17 -7.809022490701539e-17 1.1490289676589681e-17 -7.809022490701539e-17 -0.4275839988500014 0.9039756213124805
12661725333.333334 -0.4198110709050447 0.9076115164239607 1.0810766082011361e-17 -7.817165347889007e-17 1.0810766082011361e-17 -7.817165347889007e-17 -0.41981164441354535 0.9076112511503138
12662342666.666666 -0.4120078046466652 0.911180316353507 1.0130694857556447e-17 -7.824717404977803e-17 1.0130694857556447e-17 -7.824717404977803e-17 -0.41200838038217447 0.9111800560233417
12662960000.0 -0.4041742033692703 0.9146820285381468 9.450127325546443e-18 -7.831678324854794e-17 9.450127325546443e-18 -7.831678324854794e-17 -0.4041747812891831 0.9146817731701471
12663577333.333334 -0.3963108438397985 0.9181163951563167 8.76911482556702e-18 -7.838047814952331e-17 8.76911482556702e-18 -7.838047814952331e-17 -0.39631142390135354 0.9181161447688004
12664194666.666666 -0.3884183050161299 0.9214831633449628 8.087708710620532e-18 -7.843825627252663e-17 8.087708710620532e-18 -7.843825627252663e-17 -0.388418887176412 0.9214829179558788
12664812000.0 -0.3804971680046141 0.9247820852180857 7.405960343245658e-18 -7.849011558289393e-17 7.405960343245658e-18 -7.849011558289393e-17 -0.38049775222055787 0.924781844845013
12665429333.333334 -0.3725480160171817 0.9280129178850396 6.723921091668972e-18 -7.853605449145231e-17 6.723921091668972e-18 -7.853605449145231e-17 -0.3725486022455743 0.9280126825451857
12666046666.666666 -0.3645714343284547 0.9311754234683903 6.041642325948766e-18 -7.857607185446555e-17 6.041642325948766e-18 -7.857607185446555e-17 -0.36457202252593995 0.931175193178592
12666664000.0 -0.356568010232551 0.9342693691214765 5.35917541408443e-18 -7.861016697354845e-17 5.35917541408443e-18 -7.861016697354845e-17 -0.3565686003556318 0.9342691438981965
12667281333.333334 -0.3485383330000007 0.9372945270454873 4.6765717182034996e-18 -7.863833959554274e-17 4.6765717182034996e-18 -7.863833959554274e-17 -0.3485389250050419 0.9372943069048125
12667898666.666666 -0.3404829938342802 0.9402506745062664 3.993882590676871e-18 -7.866058991236418e-17 3.993882590676871e-18 -7.866058991236418e-17 -0.3404835876775128 0.9402504594639094
12668516000.0 -0.3324025858282043 0.9431375938507419 3.3111593702586145e-18 -7.867691856081497e-17 3.3111593702586145e-18 -7.867691856081497e-17 -0.3324031814657283 0.9431373839220375
12669133333.333334 -0.32429770392041773 0.9459550725228908 2.6284533782708016e-18 -7.868732662236073e-17 2.6284533782708016e-18 -7.868732662236073e-17 -0.3242983013082054 0.9459548677227976
12669750666.666666 -0.3161689448514858 0.9487029030794314 1.9458159147151077e-18 -7.869181562287781e-17 1.9458159147151077e-18 -7.869181562287781e-17 -0.31616954394538427 0.9487027034225266
12670368000.0 -0.3080169071199825 0.9513808832050822 1.2632982544523588e-18 -7.869038753236413e-17 1.2632982544523588e-18 -7.869038753236413e-17 -0.30801750787571847 0.9513806887055649
12670985333.333334 -0.2998421909384272 0.9539888157274619 5.809516433608861e-19 -7.868304476461861e-17 5.809516433608861e-19 -7.868304476461861e-17 -0.29984279331160846 0.9539886263991488
