! Parameters = {f0=12700.012000; bw=77.238000; Q=6100.000000; N=10; m_0_1=1.271967; m_1_1=0.314759; m_1_2=1.106779; m_2_2=0.314110; m_2_3=0.743742; m_2_8=0.000662; m_2_9=0.037366; m_3_3=0.312173; m_3_4=0.632271; m_3_7=0.001262; m_3_8=-0.095826; m_3_9=0.000662; m_4_4=0.309248; m_4_5=0.468606; m_4_6=0.004779; m_4_7=-0.116375; m_4_8=0.001262; m_5_5=0.309630; m_5_6=0.875961; m_5_7=0.004779; m_6_6=0.309629; m_6_7=0.468948; m_7_7=0.309262; m_7_8=0.632389; m_8_8=0.312171; m_8_9=0.744055; m_9_9=0.314105; m_9_10=1.107857; m_10_10=0.314749; m_10_11=1.272762}
!
! Created with skrf (http://scikit-rf.org).
# Hz S RI R 50.0 
!freq ReS11 ImS11 ReS21 ImS21 ReS12 ImS12 ReS22 ImS22
12607400000.0 0.9121529741183392 -0.4098499137573303 -8.463581073872041e-17 7.279085660782988e-17 -8.463581073872041e-17 7.279085660782988e-17 0.9121532487766925 -0.4098493024831781
12608017333.333334 0.9077653321857998 -0.4194783685500706 -8.383792403563243e-17 7.367531126516869e-17 -8.383792403563243e-17 7.367531126516869e-17 0.9077656132828434 -0.4194777602460535
12608634666.666666 0.9032760581699868 -0.42905985915337425 -8.303080487395696e-17 7.455103165039483e-17 -8.303080487395696e-17 7.455103165039483e-17 0.9032763456736227 -0.4290592538873039
12609252000.0 0.8986856546835673 -0.4385933128375202 -8.221454874414891e-17 7.541792150039447e-17 -8.221454874414891e-17 7.541792150039447e-17 0.8986859485609796 -0.4385927106768598
12609869333.333334 0.8939946356615015 -0.44807766225095647 -8.138925213916376e-17 7.627588559476095e-17 -8.138925213916376e-17 7.627588559476095e-17 0.8939949358791658 -0.4480770632628157
12610486666.666666 0.8892035263035317 -0.4575118455397502 -8.055501254307821e-17 7.712482976622871e-17 -8.055501254307821e-17 7.712482976622871e-17 0.8892038328272169 -0.45751124979087715
12611104000.0 0.884312863015314 -0.46689480646659653 -7.97119284196002e-17 7.796466091098535e-17 -7.97119284196002e-17 7.796466091098535e-17 0.8843131758100876 -0.4668942140233705
12611721333.333334 0.8793231933485118 -0.47622549452879787 -7.886009920050569e-17 7.879528699882516e-17 -7.886009920050569e-17 7.879528699882516e-17 0.8793235123787405 -0.4762249054572204
12612338666.666666 0.8742350759393165 -0.48550286507620133 -7.799962527391571e-17 7.961661708323007e-17 -7.799962527391571e-17 7.961661708323007e-17 0.8742354011686734 -0.48550227944189084
12612956000.0 0.869049080445997 -0.49472587942798146 -7.713060797251433e-17 8.042856131127855e-17 -7.713060797251433e-17 8.042856131127855e-17 0.8690494118374653 -0.4947252972961652
12613573333.333334 0.8637657874851371 -0.5038935049889047 -7.625314956165034e-17 8.123103093344023e-17 -7.625314956165034e-17 8.123103093344023e-17 0.8637661250010134 -0.5038929264244112
12614190666.666666 0.8583857885665896 -0.5130047153650125 -7.536735322733045e-17 8.202393831324683e-17 -7.536735322733045e-17 8.202393831324683e-17 0.8583861321684881 -0.5130041404322645
12614808000.0 0.8529096860272781 -0.522058490478484 -7.447332306411025e-17 8.280719693683573e-17 -7.447332306411025e-17 8.280719693683573e-17 0.8529100356761359 -0.5220579192414917
12615425333.333334 0.8473380929637028 -0.5310538166819414 -7.357116406290741e-17 8.358072142234191e-17 -7.357116406290741e-17 8.358072142234191e-17 0.847338448619785 -0.5310532492042955
12616042666.666666 0.8416716331634051 -0.5399896868717676 -7.266098209869662e-17 8.434442752917732e-17 -7.266098209869662e-17 8.434442752917732e-17 0.8416719947863054 -0.53998912321663
12616660000.0 0.8359109410350026 -0.5488651006010484 -7.174288391810855e-17 8.509823216717595e-17 -7.174288391810855e-17 8.509823216717595e-17 0.8359113085836534 -0.5488645408311487
12617277333.333334 0.830056661537259 -0.5576790641914422 -7.08169771269561e-17 8.584205340558637e-17 -7.08169771269561e-17 8.584205340558637e-17 0.8300570349699319 -0.5576785083690677
12617894666.666666 0.8241094501069067 -0.5664305908443821 -6.98833701776468e-17 8.657581048194768e-17 -6.98833701776468e-17 8.657581048194768e-17 0.8241098293812187 -0.5664300390313726
12618512000.0 0.8180699725850391 -0.5751187007518846 -6.894217235649945e-17 8.729942381082918e-17 -6.894217235649945e-17 8.729942381082918e-17 0.8180703576579587 -0.5751181530096257
12619129333.333334 0.8119389051428896 -0.5837424212057819 -6.799349377101031e-17 8.801281499240561e-17 -6.799349377101031e-17 8.801281499240561e-17 0.8119392959707386 -0.583741877595196
12619746666.666666 0.8057169342059153 -0.5923007867069259 -6.703744533696925e-17 8.87159068209391e-17 -6.703744533696925e-17 8.87159068209391e-17 0.8057173307443766 -0.592300247288468
12620364000.0 0.7994047563768949 -0.6007928390733525 -6.607413876553962e-17 8.940862329308366e-17 -6.607413876553962e-17 8.940862329308366e-17 0.7994051585810162 -0.600792303907002
12620981333.333334 0.7930030783582075 -0.6092176275471922 -6.510368655023818e-17 9.0090889616062e-17 -6.510368655023818e-17 9.0090889616062e-17 0.7930034861824061 -0.6092170966924464
12621598666.666666 0.7865126168724051 -0.6175742089015265 -6.412620195382264e-17 9.076263221570606e-17 -6.412620195382264e-17 9.076263221570606e-17 0.7865130302704737 -0.6175736824173939
12622216000.0 0.7799340985821737 -0.6258616475457144 -6.31417989950947e-17 9.142377874435803e-17 -6.31417989950947e-17 9.142377874435803e-17 0.779934517507287 -0.6258611254907103
12622833333.333334 0.7732682600088949 -0.634079015630259 -6.215059243564268e-17 9.207425808861395e-17 -6.215059243564268e-17 9.207425808861395e-17 0.7732686844136127 -0.6340784980623958
12623450666.666666 0.7665158474502018 -0.6422253931506621 -6.115269776649474e-17 9.271400037693149e-17 -6.115269776649474e-17 9.271400037693149e-17 0.7665162772864736 -0.6422248801274434
12624068000.0 0.7596776168964576 -0.6502998680503808 -6.014823119467049e-17 9.334293698710908e-17 -6.014823119467049e-17 9.334293698710908e-17 0.7596780521156311 -0.6502993596287968
12624685333.333334 0.7527543339459549 -0.658301536323139 -5.913730962969303e-17 9.396100055359484e-17 -5.913730962969303e-17 9.396100055359484e-17 0.7527547744987801 -0.6583010325596598
12625302666.666666 0.7457467737195129 -0.6662295021137701 -5.812005067001651e-17 9.456812497465815e-17 -5.812005067001651e-17 9.456812497465815e-17 0.7457472195561463 -0.6662290030643371
12625920000.0 0.7386557207733604 -0.6740828778189011 -5.70965725893531e-17 9.516424541942985e-17 -5.70965725893531e-17 9.516424541942985e-17 0.7386561718433727 -0.6740823835389241
12626537333.333334 0.7314819690115051 -0.6818607841860939 -5.606699432298005e-17 9.574929833476485e-17 -5.606699432298005e-17 9.574929833476485e-17 0.7314824252638861 -0.6818602947304425
12627154666.666666 0.7242263215968513 -0.6895623504122868 -5.5031435453922994e-17 9.63232214519892e-17 -5.5031435453922994e-17 9.63232214519892e-17 0.7242267829800155 -0.6895618658352854
12627772000.0 0.7168895908611039 -0.6971867142414742 -5.3990016199096994e-17 9.688595379348063e-17 -5.3990016199096994e-17 9.688595379348063e-17 0.7168900573228963 -0.6971862345968958
12628389333.333334 0.7094725982140337 -0.7047330220610155 -5.294285739539604e-17 9.743743567909445e-17 -5.294285739539604e-17 9.743743567909445e-17 0.709473069701736 -0.7047325474020755
12629006666.666666 0.7019761740513596 -0.7122004289973711 -5.1890080485680614e-17 9.797760873245713e-17 -5.1890080485680614e-17 9.797760873245713e-17 0.7019766505116956 -0.7121999593767213
12629624000.0 0.6944011576618337 -0.7195880990106276 -5.0831807504729794e-17 9.85064158870949e-17 -5.0831807504729794e-17 9.85064158870949e-17 0.6944016390409768 -0.7195876344803516
12630241333.333334 0.6867483971332988 -0.7268952049880831 -4.976816106512621e-17 9.902380139241422e-17 -4.976816106512621e-17 9.902380139241422e-17 0.6867488833768766 -0.726894745599689
12630858666.666666 0.6790187492578018 -0.7341209288367917 -4.8699264343086236e-17 9.952971081952704e-17 -4.8699264343086236e-17 9.952971081952704e-17 0.6790192403109013 -0.7341204746412061
12631476000.0 0.6712130794353738 -0.7412644615754258 -4.7625241064183336e-17 1.0002409106694679e-16 -4.7625241064183336e-17 1.0002409106694679e-16 0.6712135752425501 -0.74126401262299
12632093333.333334 0.6633322615775393 -0.7483250034244817 -4.654621548910822e-17 1.0050689036608591e-16 -4.654621548910822e-17 1.0050689036608591e-16 0.663332762082821 -0.7483245597649448
12632710666.666666 0.6553771780092881 -0.7553017638959975 -4.546231239929455e-17 1.0097805828663884e-16 -4.546231239929455e-17 1.0097805828663884e-16 0.6553776831561833 -0.7553013255785117
12633328000.0 0.6473487193701191 -0.762193961882204 -4.4373657082492686e-17 1.014375457418065e-16 -4.4373657082492686e-17 1.014375457418065e-16 0.6473492291016206 -0.7621935289553176
12633945333.333334 0.6392477845146659 -0.7690008257426738 -4.3280375318361345e-17 1.018853049933371e-16 -4.3280375318361345e-17 1.018853049933371e-16 0.6392482987732603 -0.7690003982543282
12634562666.666666 0.6310752804117858 -0.7757215933909595 -4.2182593363925005e-17 1.0232128965644748e-16 -4.2182593363925005e-17 1.0232128965644748e-16 0.631075799139458 -0.7757211713884815
12635180000.0 0.6228321220431878 -0.7823555123797636 -4.1080437939046227e-17 1.0274545470456114e-16 -4.1080437939046227e-17 1.0274545470456114e-16 0.6228326451814276 -0.7823550959098616
12635797333.333334 0.6145192323009073 -0.7889018399852589 -3.9974036211798954e-17 1.0315775647391205e-16 -3.9974036211798954e-17 1.0315775647391205e-16 0.6145197597907169 -0.7889014290940175
12636414666.666666 0.6061375418840008 -0.7953598432902212 -3.8863515783854665e-17 1.0355815266796778e-16 -3.8863515783854665e-17 1.0355815266796778e-16 0.6061380736659006 -0.7953594380230956
12637032000.0 0.5976879891943465 -0.8017287992660872 -3.774900467576655e-17 1.0394660236171861e-16 -3.774900467576655e-17 1.0394660236171861e-16 0.5976885252083832 -0.8017283996678993
12637649333.333334 0.5891715202316072 -0.8080079948538882 -3.6630631312240885e-17 1.0432306600579715e-16 -3.6630631312240885e-17 1.0432306600579715e-16 0.5891720604173583 -0.8080076009688199
12638266666.666666 0.5805890884872218 -0.8141967270441464 -3.5508524507383146e-17 1.0468750543043494e-16 -3.5508524507383146e-17 1.0468750543043494e-16 0.5805896327838049 -0.8141963389157371
12638884000.0 0.5719416548378186 -0.8202943029554703 -3.4382813449864053e-17 1.0503988384927502e-16 -3.4382813449864053e-17 1.0503988384927502e-16 0.5719422031838962 -0.8202939206266093
12639501333.333334 0.5632301874374261 -0.8263000399122742 -3.32536276880934e-17 1.053801658630105e-16 -3.32536276880934e-17 1.053801658630105e-16 0.5632307397712136 -0.8262996634251977
12640118666.666666 0.5544556616094077 -0.8322132655209827 -3.2121097115331995e-17 1.0570831746287309e-16 -3.2121097115331995e-17 1.0570831746287309e-16 0.5544562178686805 -0.8322128949172695
12640736000.0 0.5456190597367028 -0.8380333177456968 -3.098535195474888e-17 1.060243060339672e-16 -3.098535195474888e-17 1.060243060339672e-16 0.5456196198588024 -0.8380329530662625
12641353333.333334 0.5367213711525697 -0.8437595449818208 -2.9846522744537375e-17 1.0632810035841875e-16 -2.9846522744537375e-17 1.0632810035841875e-16 0.5367219350744109 -0.8437591862669133
12641970666.666666 0.5277635920292564 -0.8493913061293955 -2.8704740322865466e-17 1.0661967061840276e-16 -2.8704740322865466e-17 1.0661967061840276e-16 0.5277641596873358 -0.8493909534185917
12642588000.0 0.5187467252666341 -0.8549279706647614 -2.7560135812921466e-17 1.0689898839897458e-16 -2.7560135812921466e-17 1.0689898839897458e-16 0.5187472965970358 -0.8549276239969623
12643205333.333334 0.5096717803800346 -0.8603689187110782 -2.6412840607854703e-17 1.071660266907631e-16 -2.6412840607854703e-17 1.071660266907631e-16 0.5096723553184375 -0.8603685781245036
12643822666.666666 0.5005397733870582 -0.865713541107829 -2.5262986355730585e-17 1.0742075989249158e-16 -2.5262986355730585e-17 1.0742075989249158e-16 0.500540351868744 -0.865713206640015
12644440000.0 0.4913517266938688 -0.8709612394789893 -2.4110704944441458e-17 1.0766316381334369e-16 -2.4110704944441458e-17 1.0766316381334369e-16 0.49135230865372914 -0.870960911166784
12645057333.333334 0.4821086689808508 -0.8761114262999526 -2.2956128486623403e-17 1.0789321567516093e-16 -2.2956128486623403e-17 1.0789321567516093e-16 0.4821092543533933 -0.8761111041795095
12645674666.666666 0.472811635087366 -0.8811635249633498 -2.1799389304525946e-17 1.0811089411448534e-16 -2.1799389304525946e-17 1.0811089411448534e-16 0.4728122238067235 -0.8811632090701272
12646292000.0 0.4634616658956453 -0.8861169698437434 -2.0640619914842133e-17 1.0831617918444388e-16 -2.0640619914842133e-17 1.0831617918444388e-16 0.4634622578955822 -0.8861166602124988
12646909333.333334 0.45405980821475217 -0.890971206360681 -1.9479953013614773e-17 1.0850905235645325e-16 -1.9479953013614773e-17 1.0850905235645325e-16 0.4540604034286718 -0.8909709030254669
12647526666.666666 0.4446071146629324 -0.8957256910410281 -1.83175214610112e-17 1.0868949652178508e-16 -1.83175214610112e-17 1.0868949652178508e-16 0.4446077130238851 -0.8957253940351894
12648144000.0 0.4351046435499905 -0.9003798915796932 -1.715345826616835e-17 1.0885749599295271e-16 -1.715345826616835e-17 1.0885749599295271e-16 0.4351052449906808 -0.9003796009358627
12648761333.333334 0.42555345875870226 -0.904933286899278 -1.5987896571986957e-17 1.0901303650494437e-16 -1.5987896571986957e-17 1.0901303650494437e-16 0.42555406321149625 -0.904933002649373
12649378666.666666 0.415954629625881 -0.909385367208325 -1.4820969639950263e-17 1.0915610521628717e-16 -1.4820969639950263e-17 1.0915610521628717e-16 0.4159552370228147 -0.9093850893835449
12649996000.0 0.4063092308224551 -0.9137356340584999 -1.3652810834888847e-17 1.0928669070995668e-16 -1.3652810834888847e-17 1.0928669070995668e-16 0.40630984109524104 -0.9137353626893208
12650613333.333334 0.39661834223314457 -0.9179836004003867 -1.2483553609764307e-17 1.094047829941195e-16 -1.2483553609764307e-17 1.094047829941195e-16 0.3966189553131799 -0.9179833355165582
12651230666.666666 0.3868830488358201 -0.9221287906379048 -1.1313331490483175e-17 1.0951037350271033e-16 -1.1313331490483175e-17 1.0951037350271033e-16 0.38688366465419494 -0.9221285322684494
12651848000.0 0.377104440579693 -0.9261707406817069 -1.0142278060618154e-17 1.0960345509585593e-16 -1.0142278060618154e-17 1.0960345509585593e-16 0.37710505906719716 -0.9261704888549136
12652465333.333334 0.3672836122634402 -0.930108998001064 -8.970526946234648e-18 1.0968402206012589e-16 -8.970526946234648e-18 1.0968402206012589e-16 0.3672842333505719 -0.9301087527444879
12653082666.666666 0.3574216634128191 -0.9339431216744619 -7.798211800659247e-18 1.097520701086277e-16 -7.798211800659247e-18 1.097520701086277e-16 0.3574222870297918 -0.9339428830149182
12653700000.0 0.3475196981570889 -0.93767268243915 -6.625466289219732e-18 1.0980759638093991e-16 -6.625466289219732e-18 1.0980759638093991e-16 0.34752032423384016 -0.9376724504027145
12654317333.333334 0.33757882510595116 -0.9412972627389872 -5.452424074095871e-18 1.0985059944287726e-16 -5.452424074095871e-18 1.0985059944287726e-16 0.33757945357214975 -0.9412970373509908
12654934666.666666 0.32760015722508773 -0.9448164567713255 -4.279218799054708e-18 1.098810792861006e-16 -4.279218799054708e-18 1.098810792861006e-16 0.3276007880101418 -0.9448162380563526
12655552000.0 0.3175848117114708 -0.9482298705324647 -3.1059840742719183e-18 1.0989903732755938e-16 -3.1059840742719183e-18 1.0989903732755938e-16 0.31758544474453565 -0.9482296585143493
12656169333.333334 0.3075339098686873 -0.9515371218616238 -1.9328534611598716e-18 1.0990447640877497e-16 -1.9328534611598716e-18 1.0990447640877497e-16 0.3075345450786739 -0.9515369165634497
12656786666.666666 0.29744857698105054 -0.9547378404838541 -7.599604571477476e-19 1.0989740079496163e-16 -7.599604571477476e-19 1.0989740079496163e-16 0.29744921429663246 -0.9547376419279487
12657404000.0 0.2873299421876667 -0.9578316680514667 4.1256151944700495e-19 1.0987781617398553e-16 4.1256151944700495e-19 1.0987781617398553e-16 0.2873305815372897 -0.9578314762594028
12658021333.333334 0.277179138356129 -0.9608182581841263 1.5845791446010388e-18 1.0984572965516238e-16 1.5845791446010388e-18 1.0984572965516238e-16 0.27717977966801693 -0.960818073176714
12658638666.666666 0.26699730195573546 -0.9636972765076086 2.7559592036790006e-18 1.098011497678944e-16 2.7559592036790006e-18 1.098011497678944e-16 0.2669979451579004 -0.9636970983048992
12659256000.0 0.25678557292989895 -0.9664684006913459 3.92656860660586e-18 1.0974408646014458e-16 3.92656860660586e-18 1.0974408646014458e-16 0.25678621795014794 -0.9664682293126261
12659873333.333334 0.2465450945689564 -0.9691313204843851 5.096274402913039e-18 1.0967455109675268e-16 5.096274402913039e-18 1.0967455109675268e-16 0.2465457413349004 -0.9691311559481764
12660490666.666666 0.2362770133819504 -0.9716857377501892 6.2649437968221e-18 1.0959255645758937e-16 6.2649437968221e-18 1.0959255645758937e-16 0.2362776618210115 -0.971685580074244
12661108000.0 0.22598247896818333 -0.9741313665000315 7.432444162336056e-18 1.094981167355477e-16 7.432444162336056e-18 1.094981167355477e-16 0.22598312900760364 -0.9741312157013329
12661725333.333334 0.21566264388881448 -0.9764679329249429 8.598643058199607e-18 1.0939124753438081e-16 8.598643058199607e-18 1.0939124753438081e-16 0.21566329545566404 -0.9764677890197029
12662342666.666666 0.20531866353743353 -0.978695175426459 9.763408242957034e-18 1.0927196586637227e-16 9.763408242957034e-18 1.0927196586637227e-16 0.20531931655861846 -0.9786950384301157
12662960000.0 0.19495169601103665 -0.98081284464583 1.0926607689885042e-17 1.091402901498536e-16 1.0926607689885042e-17 1.091402901498536e-16 0.1949523504133076 -0.9808127145730479
12663577333.333334 0.18456290198011824 -0.9828207034919958 1.2088109601945105e-17 1.0899624020655904e-16 1.2088109601945105e-17 1.0899624020655904e-16 0.18456355769007812 -0.9828205803566616
12664194666.666666 0.17415344455891812 -0.9847185271680877 1.324778242670073e-17 1.0883983725882205e-16 1.324778242670073e-17 1.0883983725882205e-16 0.17415410150303076 -0.9847184109833108
12664812000.0 0.16372448917511795 -0.9865061031966152 1.4405494871170038e-17 1.0867110392661612e-16 1.4405494871170038e-17 1.0867110392661612e-16 0.16372514727971604 -0.9865059939747249
12665429333.333334 0.15327720343924925 -0.9881832314432721 1.5561115916692616e-17 1.0849006422443285e-16 1.5561115916692616e-17 1.0849006422443285e-16 0.15327786263054277 -0.988183129195817
12666046666.666666 0.14281275701430593 -0.989749724139288 1.671451483369141e-17 1.0829674355801104e-16 1.671451483369141e-17 1.0829674355801104e-16 0.1428134172183906 -0.9897496288770359
12666664000.0 0.13233232148425741 -0.9912054059025359 1.7865561196494513e-17 1.0809116872089426e-16 1.7865561196494513e-17 1.0809116872089426e-16 0.13233298262712254 -0.9912053176354705
12667281333.333334 0.12183707022346948 -0.992550113757077 1.901412489799364e-17 1.0787336789085143e-16 1.901412489799364e-17 1.0787336789085143e-16 0.12183773223100651 -0.9925500324943973
12667898666.666666 0.11132817826496977 -0.9937836971514613 2.016007616436511e-17 1.0764337062612437e-16 2.016007616436511e-17 1.0764337062612437e-16 0.11132884106298085 -0.9937836229015843
12668516000.0 0.10080682216880803 -0.9949060179755932 2.130328556971623e-17 1.0740120786152359e-16 2.130328556971623e-17 1.0740120786152359e-16 0.10080748568301368 -0.9949059507461463
12669133333.333334 0.09027417989075288 -0.9959169505761398 2.2443624050628634e-17 1.071469119043817e-16 2.2443624050628634e-17 1.071469119043817e-16 0.09027484404680092 -0.995916890373966
12669750666.666666 0.0797314306500433 -0.9968163817706455 2.358096292075827e-17 1.0688051643033076e-16 2.358096292075827e-17 1.0688051643033076e-16 0.0797320953735169 -0.9968163286018004
12670368000.0 0.06917975479739272 -0.9976042108601976 2.4715173885298524e-17 1.0660205647894397e-16 2.4715173885298524e-17 1.0660205647894397e-16 0.06918042001381865 -0.9976041647299474
