! Parameters = {f0=12700.012000; bw=77.238000; Q=6100.000000; N=10; m_0_1=1.243538; m_1_1=-0.111668; m_1_2=1.078350; m_2_2=-0.112317; m_2_3=0.715313; m_2_8=-0.000759; m_2_9=0.035945; m_3_3=-0.114254; m_3_4=0.603842; m_3_7=-0.000159; m_3_8=-0.097247; m_3_9=-0.000759; m_4_4=-0.117179; m_4_5=0.440177; m_4_6=0.003358; m_4_7=-0.117796; m_4_8=-0.000159; m_5_5=-0.116797; m_5_6=0.847532; m_5_7=0.003358; m_6_6=-0.116798; m_6_7=0.440519; m_7_7=-0.117165; m_7_8=0.603960; m_8_8=-0.114256; m_8_9=0.715626; m_9_9=-0.112322; m_9_10=1.079428; m_10_10=-0.111678; m_10_11=1.244333}
!
! Created with skrf (http://scikit-rf.org).
# Hz S RI R 50.0 
!freq ReS11 ImS11 ReS21 ImS21 ReS12 ImS12 ReS22 ImS22
12607400000.0 -0.5024133033941031 -0.86462759184082 7.088847076072694e-17 6.689191572696369e-17 7.088847076072694e-17 6.689191572696369e-17 -0.5024127368748927 -0.8646279210306075
12608017333.333334 -0.5108113935089459 -0.8596928057517284 7.152852956700826e-17 6.61789436632969e-17 7.152852956700826e-17 6.61789436632969e-17 -0.5108108302506729 -0.8596931404277042
12608634666.666666 -0.5191610178206498 -0.8546764519835902 7.216142622295363e-17 6.545985625619238e-17 7.216142622295363e-17 6.545985625619238e-17 -0.5191604578764337 -0.8546767921134644
12609252000.0 -0.5274613841166598 -0.8495790064882537 7.278710239188351e-17 6.473472536915984e-17 7.278710239188351e-17 6.473472536915984e-17 -0.5274608275393017 -0.8495793520392226
12609869333.333334 -0.5357117048580249 -0.8444009529115531 7.340550045737245e-17 6.400362342128515e-17 7.340550045737245e-17 6.400362342128515e-17 -0.5357111517000004 -0.8444013038503019
12610486666.666666 -0.5439111972540224 -0.8391427825474793 7.401656352852409e-17 6.326662338002803e-17 7.401656352852409e-17 6.326662338002803e-17 -0.5439106475674778 -0.8391431388401847
12611104000.0 -0.5520590833366937 -0.8338049942913999 7.462023544520036e-17 6.252379875393767e-17 7.462023544520036e-17 6.252379875393767e-17 -0.5520585371734404 -0.8338053559037336
12611721333.333334 -0.5601545900343208 -0.8283880945929343 7.521646078313359e-17 6.177522358537185e-17 7.521646078313359e-17 6.177522358537185e-17 -0.5601540474458321 -0.8283884614900687
12612338666.666666 -0.5681969492450193 -0.8228925974077572 7.580518485900848e-17 6.102097244311672e-17 7.580518485900848e-17 6.102097244311672e-17 -0.5681964102824224 -0.8228929695543639
12612956000.0 -0.5761853979096303 -0.8173190241488029 7.638635373545221e-17 6.026112041497933e-17 7.638635373545221e-17 6.026112041497933e-17 -0.5761848626237059 -0.8173194015090622
12613573333.333334 -0.5841191780838233 -0.8116679036370162 7.695991422593594e-17 5.949574310035323e-17 7.695991422593594e-17 5.949574310035323e-17 -0.5841186465249965 -0.8116682861746148
12614190666.666666 -0.5919975370103793 -0.8059397720509124 7.752581389963382e-17 5.872491660269569e-17 7.752581389963382e-17 5.872491660269569e-17 -0.5919970092287163 -0.8059401597290492
12614808000.0 -0.599819727190401 -0.800135172875848 7.808400108618315e-17 5.794871752198979e-17 7.808400108618315e-17 5.794871752198979e-17 -0.5998192032356069 -0.8001355656572405
12615425333.333334 -0.6075850064542883 -0.7942546568524319 7.863442488037197e-17 5.716722294715992e-17 7.863442488037197e-17 5.716722294715992e-17 -0.607584486375698 -0.7942550546993138
12616042666.666666 -0.6152926380321476 -0.7882987819242596 7.917703514676495e-17 5.638051044842252e-17 7.917703514676495e-17 5.638051044842252e-17 -0.6152921218787253 -0.7882991847983908
12616660000.0 -0.6229418906237035 -0.7822681131849852 7.9711782524237e-17 5.558865806961588e-17 7.9711782524237e-17 5.558865806961588e-17 -0.6229413784440345 -0.7822685210476499
12617277333.333334 -0.630532038467702 -0.7761632228246814 8.023861843044002e-17 5.479174432047356e-17 8.023861843044002e-17 5.479174432047356e-17 -0.630531530309991 -0.7761636356366953
12617894666.666666 -0.638062361410662 -0.7699846900756411 8.075749506618197e-17 5.3989848168872154e-17 8.075749506618197e-17 5.3989848168872154e-17 -0.638061857322727 -0.7699851077973542
12618512000.0 -0.6455321449754681 -0.7637331011572054 8.126836541975297e-17 5.3183049033000684e-17 8.126836541975297e-17 5.3183049033000684e-17 -0.6455316450047366 -0.763733523748506
12619129333.333334 -0.6529406804287649 -0.7574090492204671 8.177118327113587e-17 5.2371426773547727e-17 8.177118327113587e-17 5.2371426773547727e-17 -0.6529401846222688 -0.7574094766407854
12619746666.666666 -0.6602872648485519 -0.7510131342917039 8.226590319617452e-17 5.155506168579274e-17 8.226590319617452e-17 5.155506168579274e-17 -0.660286773252924 -0.7510135665000154
12620364000.0 -0.6675712011907876 -0.7445459632155156 8.275248057064901e-17 5.0734034491682267e-17 8.275248057064901e-17 5.0734034491682267e-17 -0.6675707138522559 -0.7445464001703461
12620981333.333334 -0.6747917983553537 -0.7380081495973998 8.323087157425868e-17 4.990842633188872e-17 8.323087157425868e-17 4.990842633188872e-17 -0.6747913153197382 -0.7380085912568286
12621598666.666666 -0.6819483712518427 -0.731400313745345 8.370103319455382e-17 4.9078318757787593e-17 8.370103319455382e-17 4.9078318757787593e-17 -0.6819478925645507 -0.7314007600670095
12622216000.0 -0.6890402408644499 -0.7247230826110692 8.416292323076714e-17 4.824379372343079e-17 8.416292323076714e-17 4.824379372343079e-17 -0.689039766570472 -0.7247235335521685
12622833333.333334 -0.6960667343164424 -0.7179770897304969 8.461650029756889e-17 4.7404933577479796e-17 8.461650029756889e-17 4.7404933577479796e-17 -0.696066264460347 -0.7179775452477953
12623450666.666666 -0.703027184933938 -0.7111629751637061 8.506172382874722e-17 4.656182105509429e-17 8.506172382874722e-17 4.656182105509429e-17 -0.7030267195598687 -0.7111634352135386
12624068000.0 -0.7099209323091823 -0.7042813854341833 8.549855408080629e-17 4.5714539269788934e-17 8.549855408080629e-17 4.5714539269788934e-17 -0.709920471460854 -0.7042818499724597
12624685333.333334 -0.7167473223633481 -0.6973329734673389 8.592695213648484e-17 4.486317170525429e-17 8.592695213648484e-17 4.486317170525429e-17 -0.7167468660840418 -0.6973334424495475
12625302666.666666 -0.7235057074083153 -0.6903183985288417 8.63468799081785e-17 4.4007802207174666e-17 8.63468799081785e-17 4.4007802207174666e-17 -0.7235052557408721 -0.6903188719100515
12625920000.0 -0.7301954462084371 -0.683238326161738 8.675830014131212e-17 4.3148514974952845e-17 8.675830014131212e-17 4.3148514974952845e-17 -0.7301949991952594 -0.6832388038966074
12626537333.333334 -0.7368159040411086 -0.6760934281235953 8.716117641759408e-17 4.228539455347522e-17 8.716117641759408e-17 4.228539455347522e-17 -0.7368154617241517 -0.6760939101663737
12627154666.666666 -0.7433664527571077 -0.6688843823226441 8.755547315821399e-17 4.1418525824797806e-17 8.755547315821399e-17 4.1418525824797806e-17 -0.7433660151778777 -0.6688848686271762
12627772000.0 -0.7498464708403068 -0.6616118727533294 8.794115562695633e-17 4.054799399980207e-17 8.794115562695633e-17 4.054799399980207e-17 -0.7498460380398551 -0.6616123632730596
12628389333.333334 -0.7562553434663742 -0.6542765894317072 8.831818993320969e-17 3.9673884609873e-17 8.831818993320969e-17 3.9673884609873e-17 -0.7562549154852967 -0.6542770841196857
12629006666.666666 -0.7625924625614146 -0.6468792283296392 8.868654303492683e-17 3.8796283498473895e-17 8.868654303492683e-17 3.8796283498473895e-17 -0.7625920394398438 -0.646879727138524
12629624000.0 -0.768857226859377 -0.639420491309076 8.904618274146672e-17 3.79152768127723e-17 8.904618274146672e-17 3.79152768127723e-17 -0.7688568086369825 -0.6394209941911401
12630241333.333334 -0.775049041959332 -0.63190108605521 8.939707771638385e-17 3.7030950995172045e-17 8.939707771638385e-17 3.7030950995172045e-17 -0.7750486286753133 -0.6319015929623438
12630858666.666666 -0.7811673203816799 -0.624321726009545 8.973919748010922e-17 3.614339277487547e-17 8.973919748010922e-17 3.614339277487547e-17 -0.7811669120747653 -0.6243222368932624
12631476000.0 -0.787211481624111 -0.616683130301943 9.007251241257133e-17 3.5252689159365496e-17 9.007251241257133e-17 3.5252689159365496e-17 -0.7872110783325525 -0.6166836451133851
12632093333.333334 -0.7931809522164489 -0.6089860236826778 9.039699375570704e-17 3.43589274259278e-17 9.039699375570704e-17 3.43589274259278e-17 -0.7931805539780182 -0.6089865423726176
12632710666.666666 -0.7990751657751698 -0.6012311364535413 9.071261361590831e-17 3.346219511310201e-17 9.071261361590831e-17 3.346219511310201e-17 -0.7990747726271559 -0.6012316589723884
12633328000.0 -0.8048935630572264 -0.5934192043984364 9.101934496638179e-17 3.2562580012112956e-17 9.101934496638179e-17 3.2562580012112956e-17 -0.8048931750364327 -0.5934197306962432
12633945333.333334 -0.8106355920129718 -0.5855509687137491 9.13171616494119e-17 3.166017015831749e-17 9.13171616494119e-17 3.166017015831749e-17 -0.8106352091557099 -0.5855514987402128
12634562666.666666 -0.8163007078385538 -0.5776271759379986 9.160603837855192e-17 3.0755053822594675e-17 9.160603837855192e-17 3.0755053822594675e-17 -0.8163003301806435 -0.5776277096424687
12635180000.0 -0.8218883730276924 -0.5696485778808937 9.18859507407238e-17 2.984731950273208e-17 9.18859507407238e-17 2.984731950273208e-17 -0.8218880006044553 -0.5696491152123752
12635797333.333334 -0.827398057422625 -0.5616159315520686 9.215687519823647e-17 2.8937055914785904e-17 9.215687519823647e-17 2.8937055914785904e-17 -0.8273976902688843 -0.5616164724592276
12636414666.666666 -0.8328292382643635 -0.5535299990893279 9.241878909071017e-17 2.802435198444951e-17 9.241878909071017e-17 2.802435198444951e-17 -0.8328288764144381 -0.5535305435204967
12637032000.0 -0.8381814002423866 -0.5453915476861959 9.267167063693111e-17 2.710929683835246e-17 9.267167063693111e-17 2.710929683835246e-17 -0.8381810437300883 -0.5453920955893764
12637649333.333334 -0.8434540355434688 -0.5372013495192163 9.291549893660539e-17 2.619197979539643e-17 9.291549893660539e-17 2.619197979539643e-17 -0.8434536844021013 -0.5372019008420875
12638266666.666666 -0.848646643899882 -0.5289601816746685 9.315025397203434e-17 2.5272490358049285e-17 9.315025397203434e-17 2.5272490358049285e-17 -0.8486462981622342 -0.5289607363645886
12638884000.0 -0.8537587326368686 -0.5206688260748089 9.337591660970259e-17 2.4350918203630307e-17 9.337591660970259e-17 2.4350918203630307e-17 -0.8537583923352148 -0.5206693840788227
12639501333.333334 -0.8587898167193473 -0.5123280694037584 9.359246860178124e-17 2.342735317557929e-17 9.359246860178124e-17 2.342735317557929e-17 -0.8587894818854429 -0.5123286306686015
12640118666.666666 -0.8637394187979326 -0.5039387030328605 9.379989258753997e-17 2.2501885274731585e-17 9.379989258753997e-17 2.2501885274731585e-17 -0.8637390894630114 -0.5039392675049641
12640736000.0 -0.8686070692543992 -0.495501522945303 9.399817209468684e-17 2.1574604650522652e-17 9.399817209468684e-17 2.1574604650522652e-17 -0.8686067454491698 -0.4955020905707994
12641353333.333334 -0.8733923062459087 -0.48701732966115874 9.418729154059748e-17 2.0645601592288642e-17 9.418729154059748e-17 2.0645601592288642e-17 -0.8733919880005511 -0.48701790038588566
12641970666.666666 -0.8780946757491266 -0.47848692816091487 9.436723623348462e-17 1.9714966520436442e-17 9.436723623348462e-17 1.9714966520436442e-17 -0.8780943630932926 -0.47848750193042267
12642588000.0 -0.8827137316031634 -0.4699111278093456 9.453799237346312e-17 1.878278997768754e-17 9.453799237346312e-17 1.878278997768754e-17 -0.8827134245659699 -0.4699117045688998
12643205333.333334 -0.8872490355519167 -0.4612907422786921 9.469954705353534e-17 1.7849162620281338e-17 9.469954705353534e-17 1.7849162620281338e-17 -0.8872487341619454 -0.46129132197328065
12643822666.666666 -0.8917001572857072 -0.4526265894713626 9.485188826048858e-17 1.6914175209176278e-17 9.485188826048858e-17 1.6914175209176278e-17 -0.8916998615710017 -0.4526271720457004
12644440000.0 -0.8960666744820538 -0.44391949144242965 9.499500487570692e-17 1.5977918601241687e-17 9.499500487570692e-17 1.5977918601241687e-17 -0.8960663844701157 -0.4439200768409633
12645057333.333334 -0.9003481728457049 -0.4351702743217097 9.512888667589364e-17 1.5040483740454465e-17 9.512888667589364e-17 1.5040483740454465e-17 -0.9003478885634923 -0.4351708624886236
12645674666.666666 -0.9045442461480278 -0.4263797682352297 9.525352433371012e-17 1.4101961649080182e-17 9.525352433371012e-17 1.4101961649080182e-17 -0.904543967621952 -0.42638035911445066
12646292000.0 -0.9086544962655797 -0.417548807226384 9.536890941832843e-17 1.3162443418833553e-17 9.536890941832843e-17 1.3162443418833553e-17 -0.9086542235215053 -0.4175494007615878
12646909333.333334 -0.9126785332177433 -0.4086782291771113 9.54750343958911e-17 1.2222020202090101e-17 9.54750343958911e-17 1.2222020202090101e-17 -0.9126782662809816 -0.40867882531172633
12647526666.666666 -0.9166159752038433 -0.39976887572813685 9.557189262989187e-17 1.128078320303287e-17 9.557189262989187e-17 1.128078320303287e-17 -0.9166157140991532 -0.3997694744053511
12648144000.0 -0.9204664486393607 -0.3908215921991445 9.565947838146553e-17 1.0338823668827504e-17 9.565947838146553e-17 1.0338823668827504e-17 -0.9204661933909453 -0.39082219336190976
12648761333.333334 -0.9242295881913315 -0.38183722750867516 9.573778680959056e-17 9.396232880804744e-18 9.573778680959056e-17 9.396232880804744e-18 -0.9242293388228368 -0.3818378310997138
12649378666.666666 -0.9279050368130252 -0.3728166340935577 9.580681397120629e-17 8.453102145632264e-18 9.580681397120629e-17 8.453102145632264e-18 -0.9279047933475347 -0.3728172400553661
12649996000.0 -0.9314924457778265 -0.36376066782800126 9.586655682124443e-17 7.509522786471076e-18 9.586655682124443e-17 7.509522786471076e-18 -0.9314922082378643 -0.36376127610285763
12650613333.333334 -0.9349914747123617 -0.35467018794231325 9.591701321257077e-17 6.565586134169271e-18 9.591701321257077e-17 6.565586134169271e-18 -0.9349912431198841 -0.3546707984722809
12651230666.666666 -0.9384017916287002 -0.34554605694158413 9.595818189584304e-17 5.62138351843393e-18 9.595818189584304e-17 5.62138351843393e-18 -0.9384015660051016 -0.3455466696685194
12651848000.0 -0.9417230729559781 -0.33638914052356433 9.599006251928138e-17 4.6770062589956246e-18 9.599006251928138e-17 4.6770062589956246e-18 -0.9417228533220803 -0.3363897553891194
12652465333.333334 -0.9449550035709933 -0.32720030749676204 9.601265562835097e-17 3.7325456568155694e-18 9.601265562835097e-17 3.7325456568155694e-18 -0.944954789947051 -0.3272009244423933
12653082666.666666 -0.9480972768281197 -0.3179804296980157 9.602596266535958e-17 2.7880929852761895e-18 9.602596266535958e-17 2.7880929852761895e-18 -0.9480970692338139 -0.31798104866498694
12653700000.0 -0.9511495945884878 -0.3087303819095027 9.602998596896857e-17 1.8437394813504673e-18 9.602998596896857e-17 1.8437394813504673e-18 -0.9511493930429246 -0.30873100283889165
12654317333.333334 -0.9541116672481506 -0.2994510417760892 9.602472877361684e-17 8.99576336843789e-19 9.602472877361684e-17 8.99576336843789e-19 -0.9541114717698633 -0.29945166460879413
12654934666.666666 -0.9569832137656259 -0.2901432897219013 9.601019520885881e-17 -4.4305310421966924e-20 9.601019520885881e-17 -4.4305310421966924e-20 -0.9569830243725665 -0.29014391439864423
12655552000.0 -0.9597639616885993 -0.28080800886662277 9.598639029861663e-17 -9.87814385388365e-19 9.598639029861663e-17 -9.87814385388365e-19 -0.9597637783981443 -0.2808086353279578
12656169333.333334 -0.9624536471796753 -0.2714460849420612 9.595331996034588e-17 -1.930859884506326e-18 9.595331996034588e-17 -1.930859884506326e-18 -0.9624534700086189 -0.27144671312837837
12656786666.666666 -0.9650520150414975 -0.26205840620780924 9.59109910041156e-17 -2.8733508845235602e-18 9.59109910041156e-17 -2.8733508845235602e-18 -0.9650518440060519 -0.2620590360593409
12657404000.0 -0.9675588187409194 -0.25264586336710243 9.585941113160189e-17 -3.815196551222611e-18 9.585941113160189e-17 -3.815196551222611e-18 -0.9675586538567129 -0.25264649482392865
12658021333.333334 -0.9699738204324125 -0.24320934948225484 9.579858893499696e-17 -4.756306148152374e-18 9.579858893499696e-17 -4.756306148152374e-18 -0.9699736617144888 -0.2432099824843093
12658638666.666666 -0.9722967909805983 -0.233749759890063 9.572853389583205e-17 -5.696589045354954e-18 9.572853389583205e-17 -5.696589045354954e-18 -0.9722966384434143 -0.2337503943771387
12659256000.0 -0.974527509982057 -0.2242679921165806 9.564925638371331e-17 -6.6359547280923875e-18 9.564925638371331e-17 -6.6359547280923875e-18 -0.9745273636394823 -0.2242686280283356
12659873333.333334 -0.9766657657861839 -0.21476494579218178 9.556076765497582e-17 -7.57431280552081e-18 9.556076765497582e-17 -7.57431280552081e-18 -0.9766656256514981 -0.21476558306814456
12660490666.666666 -0.9787113555152469 -0.20524152256631503 9.546307985125065e-17 -8.511573019371009e-18 9.546307985125065e-17 -8.511573019371009e-18 -0.9787112216011401 -0.20524216114589086
12661108000.0 -0.9806640850837376 -0.19569862602151175 9.535620599794446e-17 -9.447645252639925e-18 9.535620599794446e-17 -9.447645252639925e-18 -0.980663957402308 -0.19569926584398792
12661725333.333334 -0.9825237692166733 -0.18613716158815338 9.524016000264095e-17 -1.0382439538200047e-17 9.524016000264095e-17 -1.0382439538200047e-17 -0.9825236477794267 -0.18613780259270518
12662342666.666666 -0.9842902314672467 -0.17655803645823032 9.511495665341048e-17 -1.131586606745873e-17 9.511495665341048e-17 -1.131586606745873e-17 -0.9842901162850968 -0.17655867858392718
12662960000.0 -0.9859633042335436 -0.16696215949940765 9.498061161703977e-17 -1.2247835198955435e-17 9.498061161703977e-17 -1.2247835198955435e-17 -0.9859631953168075 -0.16696280268521815
12663577333.333334 -0.9875428287744427 -0.1573504411687628 9.483714143717647e-17 -1.3178257466955834e-17 9.483714143717647e-17 -1.3178257466955834e-17 -0.9875427261328434 -0.15735108535356113
12664194666.666666 -0.9890286552246833 -0.1477237934264021 9.468456353238914e-17 -1.4107043590025515e-17 9.468456353238914e-17 -1.4107043590025515e-17 -0.9890285588673474 -0.1477244385489736
12664812000.0 -0.9904206426090862 -0.13808312964890565 9.45228961941452e-17 -1.5034104479569055e-17 9.45228961941452e-17 -1.5034104479569055e-17 -0.9904205525445432 -0.13808377564795263
12665429333.333334 -0.9917186588559167 -0.12842936454275022 9.435215858470167e-17 -1.595935124837683e-17 9.435215858470167e-17 -1.595935124837683e-17 -0.9917185750920968 -0.12843001135689772
12666046666.666666 -0.9929225808094204 -0.11876341405749426 9.41723707349191e-17 -1.6882695219106016e-17 9.41723707349191e-17 -1.6882695219106016e-17 -0.9929225033536578 -0.11876406162529614
12666664000.0 -0.9940322942415358 -0.10908619529867505 9.398355354198257e-17 -1.780404793279426e-17 9.398355354198257e-17 -1.780404793279426e-17 -0.994032223100564 -0.10908684355861961
12667281333.333334 -0.9950476938626827 -0.0993986264411602 9.378572876705325e-17 -1.8723321157279507e-17 9.378572876705325e-17 -1.8723321157279507e-17 -0.9950476290426351 -0.09939927533167599
12667898666.666666 -0.9959686833317889 -0.08970162664174926 9.357891903282472e-17 -1.9640426895658674e-17 9.357891903282472e-17 -1.9640426895658674e-17 -0.9959686248381995 -0.08970227610121108
12668516000.0 -0.9967951752654269 -0.07999611595196361 9.336314782100253e-17 -2.0555277394693625e-17 9.336314782100253e-17 -2.0555277394693625e-17 -0.9967951231032288 -0.07999676591869828
12669133333.333334 -0.9975270912460832 -0.07028301523100688 9.313843946970668e-17 -2.1467785153166434e-17 9.313843946970668e-17 -2.1467785153166434e-17 -0.9975270454196082 -0.07028366564329916
12669750666.666666 -0.9981643618296236 -0.06056324605808226 9.290481917078189e-17 -2.2377862930257556e-17 9.290481917078189e-17 -2.2377862930257556e-17 -0.9981643223426034 -0.06056389685418065
12670368000.0 -0.9987069265518699 -0.05083773064517994 9.266231296703441e-17 -2.328542375385843e-17 9.266231296703441e-17 -2.328542375385843e-17 -0.9987068934074306 -0.05083838176330235
