! Parameters = {f0=12700.012000; bw=77.238000; Q=6100.000000; N=10; m_0_1=1.248543; m_1_1=-0.036593; m_1_2=1.083355; m_2_2=-0.037242; m_2_3=0.720318; m_2_8=-0.000509; m_2_9=0.036195; m_3_3=-0.039179; m_3_4=0.608847; m_3_7=0.000091; m_3_8=-0.096997; m_3_9=-0.000509; m_4_4=-0.042104; m_4_5=0.445182; m_4_6=0.003608; m_4_7=-0.117546; m_4_8=0.000091; m_5_5=-0.041722; m_5_6=0.852537; m_5_7=0.003608; m_6_6=-0.041723; m_6_7=0.445524; m_7_7=-0.042090; m_7_8=0.608965; m_8_8=-0.039181; m_8_9=0.720631; m_9_9=-0.037247; m_9_10=1.084433; m_10_10=-0.036603; m_10_11=1.249338}
!
! Created with skrf (http://scikit-rf.org).
# Hz S RI R 50.0 
!freq ReS11 ImS11 ReS21 ImS21 ReS12 ImS12 ReS22 ImS22
12607400000.0 0.3972360003990579 0.9177164921623614 -6.405920996816538e-17 -7.65943806492633e-17 -6.405920996816538e-17 -7.65943806492633e-17 0.3972353966832388 0.9177167534821072
12608017333.333334 0.4062913967234614 0.9137435641077469 -6.480752146618764e-17 -7.593656490106843e-17 -6.480752146618764e-17 -7.593656490106843e-17 0.4062907956506461 0.9137438313714598
12608634666.666666 0.4153070641014437 0.9096812862246153 -6.554908795628147e-17 -7.52714468760128e-17 -6.554908795628147e-17 -7.52714468760128e-17 0.41530646573014524 0.9096815594055784
12609252000.0 0.42428212094174506 0.9055300557402852 -6.628383826736616e-17 -7.459909563745263e-17 -6.628383826736616e-17 -7.459909563745263e-17 0.42428152533020835 0.9055303348112096
12609869333.333334 0.4332156896242874 0.9012902785802046 -6.701170193456631e-17 -7.39195809415202e-17 -6.701170193456631e-17 -7.39195809415202e-17 0.4332150968304804 0.9012905635132252
12610486666.666666 0.44210689658570534 0.8969623693283826 -6.773260920593389e-17 -7.323297322992336e-17 -6.773260920593389e-17 -7.323297322992336e-17 0.4421063066673152 0.8969626600950648
12611104000.0 0.45095487240515386 0.8925467511866712 -6.844649104913172e-17 -7.253934362264675e-17 -6.844649104913172e-17 -7.253934362264675e-17 0.4509542854195811 0.892547047758013
12611721333.333334 0.4597587518889395 0.8880438559335653 -6.915327915798958e-17 -7.183876391063921e-17 -6.915327915798958e-17 -7.183876391063921e-17 0.45975816789329216 0.8880441582799996
12612338666.666666 0.46851767415537837 0.8834541238818592 -6.985290595904478e-17 -7.113130654838068e-17 -6.985290595904478e-17 -7.113130654838068e-17 0.4685170932064671 0.8834544319732582
12612956000.0 0.477230782718977 0.8787780038355892 -7.054530461796638e-17 -7.041704464642487e-17 -7.054530461796638e-17 -7.041704464642487e-17 0.47723020487330753 0.878778317641264
12613573333.333334 0.4858972255739535 0.8740159530462615 -7.12304090459057e-17 -6.969605196387823e-17 -7.12304090459057e-17 -6.969605196387823e-17 0.48589665088772416 0.8740162725349696
12614190666.666666 0.4945161552777809 0.8691684371680278 -7.190815390579821e-17 -6.8968402900789e-17 -7.190815390579821e-17 -6.8968402900789e-17 0.49451558380687505 0.8691687623079738
12614808000.0 0.5030867290340244 0.8642359302121583 -7.257847461855818e-17 -6.823417249050589e-17 -7.257847461855818e-17 -6.823417249050589e-17 0.5030861608340059 0.8642362609709975
12615425333.333334 0.5116081087746331 0.859218914500765 -7.324130736921716e-17 -6.749343639195408e-17 -7.324130736921716e-17 -6.749343639195408e-17 0.5116075439007395 0.859219250845605
12616042666.666666 0.5200794612419848 0.8541178806195763 -7.389658911296252e-17 -6.67462708818747e-17 -7.389658911296252e-17 -6.67462708818747e-17 0.5200788997491236 0.8541182225169828
12616660000.0 0.5284999580703446 0.8489333273699846 -7.454425758111695e-17 -6.59927528469857e-17 -7.454425758111695e-17 -6.59927528469857e-17 0.528499400013088 0.8489336747859844
12617277333.333334 0.5368687758668885 0.8436657617202551 -7.518425128702984e-17 -6.523295977609263e-17 -7.518425128702984e-17 -6.523295977609263e-17 0.5368682212994668 0.8436661146203372
12617894666.666666 0.5451850962920987 0.8383156987560266 -7.581650953187995e-17 -6.446696975215385e-17 -7.581650953187995e-17 -6.446696975215385e-17 0.5451845452683955 0.8383160571051483
12618512000.0 0.5534481061400234 0.8328836616297923 -7.644097241042465e-17 -6.369486144425732e-17 -7.644097241042465e-17 -6.369486144425732e-17 0.5534475587135713 0.8328840253923818
12619129333.333334 0.5616569974175577 0.8273701815098987 -7.705758081663179e-17 -6.291671409958547e-17 -7.705758081663179e-17 -6.291671409958547e-17 0.5616564536415316 0.8273705506498571
12619746666.666666 0.5698109674235472 0.8217757975285419 -7.766627644925503e-17 -6.213260753529535e-17 -7.766627644925503e-17 -6.213260753529535e-17 0.5698104273507599 0.8217761720092486
12620364000.0 0.5779092188273731 0.8161010567289843 -7.826700181732648e-17 -6.134262213034481e-17 -7.826700181732648e-17 -6.134262213034481e-17 0.5779086825102706 0.8161014365133002
12620981333.333334 0.585950959746686 0.8103465140122258 -7.885970024554302e-17 -6.054683881729785e-17 -7.885970024554302e-17 -6.054683881729785e-17 0.5859504272373421 0.8103468990624979
12621598666.666666 0.5939354038250722 0.8045127320825807 -7.944431587960305e-17 -5.974533907403264e-17 -7.944431587960305e-17 -5.974533907403264e-17 0.5939348751751823 0.8045131223606428
12622216000.0 0.6018617703088299 0.798600281392733 -8.002079369143249e-17 -5.893820491543486e-17 -8.002079369143249e-17 -5.893820491543486e-17 0.6018612455697074 0.7986006768599121
12622833333.333334 0.6097292841233606 0.7926097400879218 -8.058907948434682e-17 -5.81255188850136e-17 -8.058907948434682e-17 -5.81255188850136e-17 0.6097287633459332 0.7926101407050434
12623450666.666666 0.6175371759488498 0.7865416939494999 -8.114911989810169e-17 -5.730736404650461e-17 -8.114911989810169e-17 -5.730736404650461e-17 0.6175366591836503 0.7865420996768869
12624068000.0 0.6252846822956923 0.7803967363374895 -8.170086241388976e-17 -5.648382397538139e-17 -8.170086241388976e-17 -5.648382397538139e-17 0.6252841695928573 0.7803971471349701
12624685333.333334 0.6329710455790388 0.7741754681326507 -8.224425535923676e-17 -5.56549827503392e-17 -8.224425535923676e-17 -5.56549827503392e-17 0.632970536988303 0.7741758839595618
12625302666.666666 0.6405955141927432 0.7678784976778326 -8.277924791279618e-17 -5.482092494475612e-17 -8.277924791279618e-17 -5.482092494475612e-17 0.6405950097634345 0.767878918493023
12625920000.0 0.6481573425831673 0.7615064407182357 -8.330579010909465e-17 -5.3981735618051645e-17 -8.330579010909465e-17 -5.3981735618051645e-17 0.6481568423642019 0.761506866480071
12626537333.333334 0.655655791321777 0.7550599203414544 -8.382383284315336e-17 -5.3137500307057013e-17 -8.382383284315336e-17 -5.3137500307057013e-17 0.6556552953616538 0.7550603510078194
12627154666.666666 0.6630901271775572 0.7485395669164602 -8.433332787503738e-17 -5.228830501731782e-17 -8.433332787503738e-17 -5.228830501731782e-17 0.6630896355243545 0.7485400024447647
12627772000.0 0.6704596231889213 0.7419460180317696 -8.483422783433173e-17 -5.14342362143291e-17 -8.483422783433173e-17 -5.14342362143291e-17 0.6704591358902925 0.7419464583789536
12628389333.333334 0.6777635587343748 0.7352799184334803 -8.532648622449306e-17 -5.0575380814788767e-17 -8.532648622449306e-17 -5.0575380814788767e-17 0.677763075837541 0.7352803635560146
12629006666.666666 0.6850012196033793 0.7285419199618597 -8.58100574271556e-17 -4.9711826177736645e-17 -8.58100574271556e-17 -4.9711826177736645e-17 0.685000741155128 0.7285423698157537
12629624000.0 0.6921718980659407 0.7217326814878364 -8.628489670630964e-17 -4.8843660095718585e-17 -8.628489670630964e-17 -4.8843660095718585e-17 0.6921714241126193 0.7217331360286414
12630241333.333334 0.6992748929419386 0.714852868848458 -8.675096021242163e-17 -4.797097078585737e-17 -8.675096021242163e-17 -4.797097078585737e-17 0.6992744235294508 0.7148533280312707
12630858666.666666 0.7063095096695677 0.7079031547818989 -8.720820498643427e-17 -4.7093846880938874e-17 -8.720820498643427e-17 -4.7093846880938874e-17 0.706309044843369 0.7079036185613672
12631476000.0 0.7132750603734801 0.7008842188614608 -8.765658896371242e-17 -4.621237742039338e-17 -8.765658896371242e-17 -4.621237742039338e-17 0.7132746001785717 0.7008846871917865
12632093333.333334 0.720170863931762 0.6937967474293968 -8.809607097786059e-17 -4.532665184131239e-17 -8.809607097786059e-17 -4.532665184131239e-17 0.7201704084126896 0.6937972202643428
12632710666.666666 0.726996246042744 0.6866414335296039 -8.852661076447591e-17 -4.4436759969379494e-17 -8.852661076447591e-17 -4.4436759969379494e-17 0.7269957952435909 0.6866419108224958
12633328000.0 0.7337505392909093 0.6794189768398652 -8.894816896480613e-17 -4.3542792009770585e-17 -8.894816896480613e-17 -4.3542792009770585e-17 0.7337500932552943 0.679419458543599
12633945333.333334 0.7404330832120657 0.6721300836035426 -8.936070712930571e-17 -4.264483853804301e-17 -8.936070712930571e-17 -4.264483853804301e-17 0.7404326419831349 0.6721305696705852
12634562666.666666 0.7470432243579987 0.6647754665604285 -8.9764187721105e-17 -4.174299049098125e-17 -8.9764187721105e-17 -4.174299049098125e-17 0.7470427879784263 0.6647759569428264
12635180000.0 0.7535803163603573 0.6573558448770768 -9.015857411939177e-17 -4.0837339157400065e-17 -9.015857411939177e-17 -4.0837339157400065e-17 0.7535798848723377 0.6573563395264584
12635797333.333334 0.7600437199938699 0.6498719440764538 -9.054383062269691e-17 -3.9927976168923794e-17 -9.054383062269691e-17 -3.9927976168923794e-17 0.7600432934391173 0.6498724429440367
12636414666.666666 0.7664328032387657 0.6423244959671062 -9.091992245208292e-17 -3.9014993490745534e-17 -9.091992245208292e-17 -3.9014993490745534e-17 0.7664323816585055 0.6423249990036985
12637032000.0 0.7727469413427542 0.6347142385713811 -9.128681575424948e-17 -3.8098483412333594e-17 -9.128681575424948e-17 -3.8098483412333594e-17 0.772746524777722 0.6347147457273887
12637649333.333334 0.7789855168819352 0.6270419160534777 -9.16444776045398e-17 -3.7178538538121993e-17 -9.16444776045398e-17 -3.7178538538121993e-17 0.7789851053723722 0.6270424272789082
12638266666.666666 0.7851479198212625 0.6193082786465688 -9.199287600984794e-17 -3.625525177818627e-17 -9.199287600984794e-17 -3.625525177818627e-17 0.7851475134069128 0.6193087938910377
12638884000.0 0.7912335475741816 0.611514082579465 -9.233197991144323e-17 -3.5328716338869645e-17 -9.233197991144323e-17 -3.5328716338869645e-17 0.7912331462942873 0.6115146017922002
12639501333.333334 0.7972418050615693 0.6036600900026443 -9.266175918769466e-17 -3.439902571339308e-17 -9.266175918769466e-17 -3.439902571339308e-17 0.7972414089548647 0.6036606131324888
12640118666.666666 0.8031721047698168 0.595747068913858 -9.298218465669541e-17 -3.346627367245939e-17 -9.298218465669541e-17 -3.346627367245939e-17 0.8031717138745277 0.5957475959092776
12640736000.0 0.809023866808555 0.5877757930826718 -9.329322807881787e-17 -3.2530554254761846e-17 -9.329322807881787e-17 -3.2530554254761846e-17 0.8090234811623944 0.58777632389176
12641353333.333334 0.8147965189669346 0.5797470419753731 -9.359486215912747e-17 -3.15919617576023e-17 -9.359486215912747e-17 -3.15919617576023e-17 0.8147961386070987 0.5797475765458554
12641970666.666666 0.8204894967700022 0.5716616006781801 -9.388706054975267e-17 -3.0650590727341545e-17 -9.388706054975267e-17 -3.0650590727341545e-17 0.8204891217331648 0.5716621389574182
12642588000.0 0.8261022435336244 0.5635202598208366 -9.416979785212622e-17 -2.970653594992389e-17 -9.416979785212622e-17 -2.970653594992389e-17 0.826101873855937 0.5635208017558361
12643205333.333334 0.8316342104190106 0.5553238154991896 -9.444304961914252e-17 -2.875989244134997e-17 -9.444304961914252e-17 -2.875989244134997e-17 0.8316338461360976 0.5553243610366034
12643822666.666666 0.8370848564864294 0.547073069197272 -9.470679235722101e-17 -2.7810755438125004e-17 -9.470679235722101e-17 -2.7810755438125004e-17 0.8370844976333829 0.5470736182834058
12644440000.0 0.8424536487480191 0.5387688277090458 -9.496100352827004e-17 -2.685922038769926e-17 -9.496100352827004e-17 -2.685922038769926e-17 0.842453295359397 0.5387693802898633
12645057333.333334 0.8477400622199256 0.5304119030594883 -9.520566155155284e-17 -2.5905382938902546e-17 -9.520566155155284e-17 -2.5905382938902546e-17 0.8477397143297479 0.5304124590806171
12645674666.666666 0.8529435799736232 0.5220031124252136 -9.544074580546399e-17 -2.4949338932337882e-17 -9.544074580546399e-17 -2.4949338932337882e-17 0.852943237615371 0.522003671831951
12646292000.0 0.858063693186627 0.5135432780543001 -9.56662366292103e-17 -2.399118439075416e-17 -9.56662366292103e-17 -2.399118439075416e-17 0.8580633563932357 0.5135438407916166
12646909333.333334 0.8630999011919624 0.5050332271863455 -9.588211532438342e-17 -2.3031015509456434e-17 -9.588211532438342e-17 -2.3031015509456434e-17 0.86309956999582 0.5050337931988917
12647526666.666666 0.8680517115273326 0.4964737919712379 -9.608836415645031e-17 -2.206892864664273e-17 -9.608836415645031e-17 -2.206892864664273e-17 0.8680513859602764 0.49647436120334953
12648144000.0 0.8729186399832385 0.48786580938783053 -9.628496635614323e-17 -2.1105020313744742e-17 -9.628496635614323e-17 -2.1105020313744742e-17 0.872918320076554 0.48786638178353453
12648761333.333334 0.8777002106502771 0.4792101211621996 -9.647190612074506e-17 -2.0139387165792626e-17 -9.647190612074506e-17 -2.0139387165792626e-17 0.8776998964346908 0.4792106966652179
12649378666.666666 0.8823959559656713 0.47050757368533364 -9.664916861528716e-17 -1.9172125991731076e-17 -9.664916861528716e-17 -1.9172125991731076e-17 0.8823956474713524 0.4705081522390908
12649996000.0 0.887005416759052 0.4617590179302739 -9.68167399736494e-17 -1.8203333704725636e-17 -9.68167399736494e-17 -1.8203333704725636e-17 0.8870051140156064 0.46175959947790157
12650613333.333334 0.8915281422973649 0.4529653093688742 -9.697460729956025e-17 -1.723310733247985e-17 -9.697460729956025e-17 -1.723310733247985e-17 0.8915278453338333 0.4529658938532164
12651230666.666666 0.895963690328817 0.4441273078884021 -9.712275866749873e-17 -1.6261544007550187e-17 -9.712275866749873e-17 -1.6261544007550187e-17 0.8959633991736717 0.4441278952520214
12651848000.0 0.9003116271262994 0.43524587770710044 -9.726118312350867e-17 -1.5288740957602015e-17 -9.726118312350867e-17 -1.5288740957602015e-17 0.9003113418074447 0.4352464678922846
12652465333.333334 0.904571527529679 0.4263218872899368 -9.738987068590231e-17 -1.4314795495739845e-17 -9.738987068590231e-17 -1.4314795495739845e-17 0.9045712480744414 0.42632248023870145
12653082666.666666 0.9087429749873636 0.41735620926367806 -9.750881234587646e-17 -1.3339805010780587e-17 -9.750881234587646e-17 -1.3339805010780587e-17 0.9087427014224964 0.41735680491777544
12653700000.0 0.9128255615971621 0.40834972033130645 -9.761800006803173e-17 -1.2363866957508901e-17 -9.761800006803173e-17 -1.2363866957508901e-17 0.9128252939488403 0.4083503186322299
12654317333.333334 0.9168188881459909 0.3993033011866782 -9.771742679078778e-17 -1.138707884699382e-17 -9.771742679078778e-17 -1.138707884699382e-17 0.9168186264398078 0.3993039020756682
12654934666.666666 0.9207225641490744 0.3902178364280434 -9.780708642670891e-17 -1.0409538236839605e-17 -9.780708642670891e-17 -1.0409538236839605e-17 0.9207223084100394 0.3902184398460924
12655552000.0 0.9245362078880571 0.3810942144717006 -9.788697386273007e-17 -9.43134272144958e-18 -9.788697386273007e-17 -9.43134272144958e-18 0.9245359581405934 0.38109482035955955
12656169333.333334 0.9282594464482731 0.3719333274652539 -9.795708496028178e-17 -8.452589922343082e-18 -9.795708496028178e-17 -8.452589922343082e-18 0.9282592027162179 0.371933935763439
12656786666.666666 0.9318919157553183 0.3627360712001427 -9.801741655532539e-17 -7.473377478392778e-18 -9.801741655532539e-17 -7.473377478392778e-18 0.9318916780619152 0.3627366818489392
12657404000.0 0.9354332606105853 0.3535033450241738 -9.80679664582856e-17 -6.493803036119621e-18 -9.80679664582856e-17 -6.493803036119621e-18 0.9354330289784879 0.35350395796364376
12658021333.333334 0.9388831347260279 0.3442360517535304 -9.810873345388907e-17 -5.513964239968712e-18 -9.810873345388907e-17 -5.513964239968712e-18 0.9388829091772934 0.3442366669235173
12658638666.666666 0.9422412007579556 0.334935097584648 -9.81397173009043e-17 -4.53395872261137e-18 -9.81397173009043e-17 -4.53395872261137e-18 0.9422409813140452 0.3349357149247833
12659256000.0 0.9455071303401611 0.3256013920052303 -9.816091873178718e-17 -3.5538840951963784e-18 -9.816091873178718e-17 -3.5538840951963784e-18 0.9455069170219371 0.32560201145493933
12659873333.333334 0.9486806041158835 0.31623584770571583 -9.817233945222631e-17 -2.5738379376880986e-18 -9.817233945222631e-17 -2.5738379376880986e-18 0.9486803969436056 0.31623646920422294
12660490666.666666 0.9517613117690747 0.30683938048992454 -9.817398214059517e-17 -1.5939177891584549e-18 -9.817398214059517e-17 -1.5939177891584549e-18 0.951761110762401 0.30684000397626005
12661108000.0 0.9547489520548263 0.297412909185264 -9.816585044730538e-17 -6.142211380727812e-19 -9.816585044730538e-17 -6.142211380727812e-19 0.9547487572328097 0.29741353459826986
12661725333.333334 0.9576432328287002 0.28795735555325996 -9.814794899406463e-17 3.6515458735129185e-19 -9.814794899406463e-17 3.6515458735129185e-19 0.9576430442097873 0.2879579828315958
12662342666.666666 0.9604438710753949 0.27847364419912646 -9.812028337303826e-17 1.344112028842183e-18 -9.812028337303826e-17 1.344112028842183e-18 0.9604436886774236 0.2784742732812751
12662960000.0 0.9631505929363726 0.2689627024814869 -9.808286014591369e-17 2.3225539077312648e-18 -9.808286014591369e-17 2.3225539077312648e-18 0.9631504167765719 0.2689633333057614
12663577333.333334 0.9657631337366437 0.2594254604216955 -9.803568684287027e-17 3.3003830345869427e-18 -9.803568684287027e-17 3.3003830345869427e-18 0.96576296383163 0.2594260929262441
12664194666.666666 0.9682812380106748 0.2498628506127846 -9.797877196145144e-17 4.2775023188611736e-18 -9.797877196145144e-17 4.2775023188611736e-18 0.9682810743764513 0.2498634847355975
12664812000.0 0.9707046595273244 0.24027580812843669 -9.79121249653427e-17 5.253814778508471e-18 -9.79121249653427e-17 5.253814778508471e-18 0.9707045021792796 0.24027644380735175
12665429333.333334 0.9730331613139585 0.23066527043141136 -9.783575628305293e-17 6.229223549595924e-18 -9.783575628305293e-17 6.229223549595924e-18 0.9730330102668654 0.23066590760412056
12666046666.666666 0.9752665156795813 0.22103217728204202 -9.774967730650156e-17 7.20363189587826e-18 -9.774967730650156e-17 7.20363189587826e-18 0.9752663709475959 0.22103281588609744
12666664000.0 0.9774045042371737 0.21137747064603776 -9.765390038950643e-17 8.176943218414808e-18 -9.765390038950643e-17 8.176943218414808e-18 0.9774043658338308 0.21137811061885714
12667281333.333334 0.9794469179249523 0.20170209460276065 -9.754843884618408e-17 9.149061065071889e-18 -9.754843884618408e-17 9.149061065071889e-18 0.97944678586317 0.2017027358816346
12667898666.666666 0.9813935570268815 0.19200699525266215 -9.743330694924739e-17 1.0119889140101238e-17 -9.743330694924739e-17 1.0119889140101238e-17 0.9813934313189525 0.1920076377747591
12668516000.0 0.9832442311922079 0.18229312062465503 -9.730851992821149e-17 1.1089331313657503e-17 -9.730851992821149e-17 1.1089331313657503e-17 0.9832441118498054 0.1822937643270283
12669133333.333334 0.9849987594540013 0.17256142058383045 -9.717409396750907e-17 1.2057291631270683e-17 -9.717409396750907e-17 1.2057291631270683e-17 0.9849986464881746 0.17256206540342414
12669750666.666666 0.9866569702469239 0.16281284673818566 -9.703004620450305e-17 1.3023674323363778e-17 -9.703004620450305e-17 1.3023674323363778e-17 0.9866568636680968 0.1628134926118407
12670368000.0 0.9882187014239779 0.15304835234571057 -9.687639472741307e-17 1.3988383814681952e-17 -9.687639472741307e-17 1.3988383814681952e-17 0.98821860124195 0.153048999210171
12670985333.333334 0.9896838002723516 0.1432688922212587 -9.671315857314569e-17 1.4951324733729243e-17 -9.671315857314569e-17 1.4951324733729243e-17 0.9896837064962947 0.1432695400131778
