! Parameters = {f0=12700.012000; bw=77.238000; Q=6100.000000; N=10; m_0_1=1.286782; m_1_1=0.536981; m_1_2=1.121594; m_2_2=0.536332; m_2_3=0.758557; m_2_8=0.001403; m_2_9=0.038107; m_3_3=0.534395; m_3_4=0.647086; m_3_7=0.002003; m_3_8=-0.095085; m_3_9=0.001403; m_4_4=0.531470; m_4_5=0.483421; m_4_6=0.005520; m_4_7=-0.115634; m_4_8=0.002003; m_5_5=0.531852; m_5_6=0.890776; m_5_7=0.005520; m_6_6=0.531851; m_6_7=0.483763; m_7_7=0.531484; m_7_8=0.647204; m_8_8=0.534393; m_8_9=0.758870; m_9_9=0.536327; m_9_10=1.122672; m_10_10=0.536971; m_10_11=1.287577}
!
! Created with skrf (http://scikit-rf.org).
# Hz S RI R 50.0 
!freq ReS11 ImS11 ReS21 ImS21 ReS12 ImS12 ReS22 ImS22
12607400000.0 -0.9986319883645998 -0.05228911755600738 1.1632435002846187e-16 -2.793643410879994e-17 1.1632435002846187e-16 -2.793643410879994e-17 -0.9986319529164188 -0.05228979455073183
12608017333.333334 -0.999147527480877 -0.041282179311031966 1.1598415273580473e-16 -2.9221062504726204e-17 1.1598415273580473e-16 -2.9221062504726204e-17 -0.9991474994959146 -0.04128285662209212
12608634666.666666 -0.9995417516328761 -0.030270228649629936 1.1562977791128484e-16 -3.050158239231375e-17 1.1562977791128484e-16 -3.050158239231375e-17 -0.9995417311137976 -0.030270906194760694
12609252000.0 -0.9998146129545881 -0.019254602626005517 1.1526127482485593e-16 -3.177783740756465e-17 1.1526127482485593e-16 -3.177783740756465e-17 -0.9998145999031541 -0.0192552803229215
12609869333.333334 -0.9999660783156981 -0.008236638740589892 1.148786944698557e-16 -3.304967177378061e-17 1.148786944698557e-16 -3.304967177378061e-17 -0.9999660727327615 -0.008237316506995346
12610486666.666666 -0.9999961293255969 0.0027823252222141286 1.1448208955604684e-16 -3.431693032052488e-17 1.1448208955604684e-16 -3.431693032052488e-17 -0.9999961312111059 0.0027816474686153305
12611104000.0 -0.9999047623356275 0.013800951356776366 1.14071514502434e-16 -3.5579458502557546e-17 1.14071514502434e-16 -3.5579458502557546e-17 -0.9999047716886202 0.013800273698270743
12611721333.333334 -0.9996919884395139 0.02481790179828787 1.13647025429897e-16 -3.6837102418604995e-17 1.13647025429897e-16 -3.6837102418604995e-17 -0.9996920052581251 0.02481722431714236
12612338666.666666 -0.9993578334720271 0.03583183888548671 1.1320868015359323e-16 -3.808970883012053e-17 1.1320868015359323e-16 -3.808970883012053e-17 -0.9993578577534833 0.03583116166393862
12612956000.0 -0.9989023380058343 0.046841425323074545 1.1275653817516346e-16 -3.9337125179923366e-17 1.1275653817516346e-16 -3.9337125179923366e-17 -0.9989023697464574 0.04684074844332168
12613573333.333334 -0.9983255573465886 0.05784532434383349 1.1229066067474375e-16 -4.057919961071761e-17 1.1229066067474375e-16 -4.057919961071761e-17 -0.998325596541794 0.057844647888024035
12614190666.666666 -0.9976275615261994 0.06884219987121819 1.1181111050275186e-16 -4.1815780983578564e-17 1.1181111050275186e-16 -4.1815780983578564e-17 -0.9976276081704999 0.06884152392144093
12614808000.0 -0.9968084352943387 0.07983071668143851 1.1131795217148778e-16 -4.3046718896295164e-17 1.1131795217148778e-16 -4.3046718896295164e-17 -0.9968084893813415 0.07983004131971262
12615425333.333334 -0.9958682781081457 0.09080954056560832 1.1081125184652588e-16 -4.4271863701633526e-17 1.1081125184652588e-16 -4.4271863701633526e-17 -0.9958683396305558 0.09080886587387366
12616042666.666666 -0.9948072041201529 0.10177733849174336 1.1029107733790781e-16 -4.549106652549722e-17 1.1029107733790781e-16 -4.549106652549722e-17 -0.9948072730697736 0.10177666455185048
12616660000.0 -0.993625342164431 0.11273277876658791 1.0975749809113589e-16 -4.6704179284984905e-17 1.0975749809113589e-16 -4.6704179284984905e-17 -0.9936254185321632 0.11273210566028788
12617277333.333334 -0.9923228357409214 0.1236745311974758 1.0921058517796715e-16 -4.7911054706346595e-17 1.0921058517796715e-16 -4.7911054706346595e-17 -0.9923229195167674 0.12367385900641059
12617894666.666666 -0.9908998429980707 0.13460126725338922 1.0865041128702018e-16 -4.9111546342811424e-17 1.0865041128702018e-16 -4.9111546342811424e-17 -0.9908999341711346 0.13460059605908176
12618512000.0 -0.9893565367135356 0.14551166022700013 1.0807705071415496e-16 -5.030550859237419e-17 1.0807705071415496e-16 -5.030550859237419e-17 -0.9893566352720238 0.1455109901108442
12619129333.333334 -0.9876931042733159 0.15640438539491158 1.0749057935271709e-16 -5.149279671534483e-17 1.0749057935271709e-16 -5.149279671534483e-17 -0.9876932102045402 0.1564037164381623
12619746666.666666 -0.9859097476489066 0.16727812017920773 1.0689107468351864e-16 -5.267326685193518e-17 1.0689107468351864e-16 -5.267326685193518e-17 -0.9859098609392835 0.16727745246297135
12620364000.0 -0.9840066833728129 0.17813154430772887 1.0627861576467626e-16 -5.384677603962243e-17 1.0627861576467626e-16 -5.384677603962243e-17 -0.9840068040078684 0.17813087791295323
12620981333.333334 -0.9819841425122862 0.18896333997426587 1.0565328322125144e-16 -5.5013182230417866e-17 1.0565328322125144e-16 -5.5013182230417866e-17 -0.9819842704766548 0.18896267498173033
12621598666.666666 -0.9798423706412204 0.19977219199881768 1.0501515923467962e-16 -5.617234430805442e-17 1.0501515923467962e-16 -5.617234430805442e-17 -0.9798425059186492 0.19977152848912352
12622216000.0 -0.9775816278103627 0.210556787987139 1.04364327532034e-16 -5.732412210501071e-17 1.04364327532034e-16 -5.732412210501071e-17 -0.9775817703837119 0.2105561260406996
12622833333.333334 -0.9752021885157239 0.2213158184901443 1.0370087337509146e-16 -5.846837641943242e-17 1.0370087337509146e-16 -5.846837641943242e-17 -0.9752023383669691 0.22131515818717526
12623450666.666666 -0.9727043416652758 0.23204797716278847 1.0302488354922425e-16 -5.960496903191037e-17 1.0302488354922425e-16 -5.960496903191037e-17 -0.9727044987755121 0.23204731858329827
12624068000.0 -0.9700883905438439 0.24275196092282045 1.0233644635209214e-16 -6.073376272215706e-17 1.0233644635209214e-16 -6.073376272215706e-17 -0.970088554893286 0.24275130414660023
12624685333.333334 -0.9673546527762703 0.2534264701090275 1.0163565158215936e-16 -6.18546212855418e-17 1.0163565158215936e-16 -6.18546212855418e-17 -0.9673548243442558 0.2534258152156418
12625302666.666666 -0.9645034602889199 0.26407020863876374 1.0092259052705117e-16 -6.296740954946273e-17 1.0092259052705117e-16 -6.296740954946273e-17 -0.9645036390539132 0.26406955570754076
12625920000.0 -0.9615351592692715 0.27468188416573014 1.0019735595168532e-16 -6.407199338965618e-17 1.0019735595168532e-16 -6.407199338965618e-17 -0.9615353452088649 0.27468123327575217
12626537333.333334 -0.9584501101239885 0.2852602082365059 9.946004208627996e-17 -6.516823974628856e-17 9.946004208627996e-17 -6.516823974628856e-17 -0.9584503032149035 0.2852595594665991
12627154666.666666 -0.9552486874351098 0.29580389644715394 9.871074461414854e-17 -6.625601663996726e-17 9.871074461414854e-17 -6.625601663996726e-17 -0.9552488876532056 0.2958032498758804
12627772000.0 -0.9519312799145275 0.3063116685993364 9.794956065931892e-17 -6.733519318761106e-17 9.794956065931892e-17 -6.733519318761106e-17 -0.9519314872347963 0.3063110243049826
12628389333.333334 -0.9484982903568953 0.3167822488553711 9.717658877402124e-17 -6.840563961812166e-17 9.717658877402124e-17 -6.840563961812166e-17 -0.9484985047534726 0.31678160691594004
12629006666.666666 -0.9449501355906043 0.327214365893551 9.639192892593823e-17 -6.946722728800579e-17 9.639192892593823e-17 -6.946722728800579e-17 -0.9449503570367681 0.3272137263867521
12629624000.0 -0.9412872464272601 0.33760675306220683 9.559568248535611e-17 -7.051982869675277e-17 9.559568248535611e-17 -7.051982869675277e-17 -0.9412874748954349 0.33760611606544627
12630241333.333334 -0.9375100676093263 0.3479581485336647 9.478795221209461e-17 -7.156331750213933e-17 9.478795221209461e-17 -7.156331750213933e-17 -0.9375103030710867 0.3479575141240367
12630858666.666666 -0.9336190577561788 0.3582672954572945 9.396884224230515e-17 -7.259756853533972e-17 9.396884224230515e-17 -7.259756853533972e-17 -0.9336193001822529 0.3582666637115712
12631476000.0 -0.9296146893083138 0.36853294211240795 9.313845807506656e-17 -7.362245781593283e-17 9.313845807506656e-17 -7.362245781593283e-17 -0.9296149386685874 0.36853231310703094
12632093333.333334 -0.9254974484701125 0.3787538420598943 9.229690655886888e-17 -7.463786256669357e-17 9.229690655886888e-17 -7.463786256669357e-17 -0.9254977047336324 0.3787532158709649
12632710666.666666 -0.9212678351507515 0.3889287542937222 9.144429587789567e-17 -7.56436612282803e-17 9.144429587789567e-17 -7.56436612282803e-17 -0.9212680982857302 0.3889281309969925
12633328000.0 -0.9169263629034482 0.3990564433917512 9.058073553814909e-17 -7.663973347376338e-17 9.058073553814909e-17 -7.663973347376338e-17 -0.9169266328772653 0.3990558230626142
12633945333.333334 -0.9124735588631987 0.40913567966549635 8.970633635344736e-17 -7.762596022295979e-17 8.970633635344736e-17 -7.762596022295979e-17 -0.9124738356424084 0.4091350623789783
12634562666.666666 -0.9079099636827264 0.4191652393095698 8.882121043123633e-17 -7.860222365664461e-17 8.882121043123633e-17 -7.860222365664461e-17 -0.9079102472330596 0.41916462514031977
12635180000.0 -0.9032361314668439 0.429143904550245 8.792547115826027e-17 -7.95684072305863e-17 8.792547115826027e-17 -7.95684072305863e-17 -0.9032364217532112 0.42914329357252556
12635797333.333334 -0.8984526297051609 0.4390704637933419 8.701923318607556e-17 -8.052439568942372e-17 8.701923318607556e-17 -8.052439568942372e-17 -0.8984529266916605 0.4390698560810221
12636414666.666666 -0.8935600392032336 0.4489437117712364 8.610261241642615e-17 -8.147007508036716e-17 8.610261241642615e-17 -8.147007508036716e-17 -0.8935603428531531 0.4489431073977811
12637032000.0 -0.8885589540119677 0.458762449689355 8.517572598644715e-17 -8.240533276675752e-17 8.517572598644715e-17 -8.240533276675752e-17 -0.8885592642877888 0.45876184872781617
12637649333.333334 -0.8834499813555382 0.46852548537162647 8.423869225374487e-17 -8.333005744143334e-17 8.423869225374487e-17 -8.333005744143334e-17 -0.8834502982189429 0.46852488789463553
12638266666.666666 -0.8782337415576524 0.4782316334052632 8.329163078132113e-17 -8.424413913994134e-17 8.329163078132113e-17 -8.424413913994134e-17 -0.8782340649695253 0.4782310394850206
12638884000.0 -0.8729108679662266 0.48787971528468826 8.233466232235663e-17 -8.514746925357337e-17 8.233466232235663e-17 -8.514746925357337e-17 -0.8729111978866622 0.48787912499295616
12639501333.333334 -0.8674820068764751 0.4974685595546553 8.136790880485109e-17 -8.603994054223333e-17 8.136790880485109e-17 -8.603994054223333e-17 -0.8674823432647806 0.4974679729627477
12640118666.666666 -0.8619478174525353 0.5069970019523105 8.039149331614476e-17 -8.692144714711262e-17 8.039149331614476e-17 -8.692144714711262e-17 -0.8619481602672378 0.5069964191310861
12640736000.0 -0.8563089716471349 0.5164638855490732 7.940554008723316e-17 -8.77918846032534e-17 7.940554008723316e-17 -8.77918846032534e-17 -0.8563093208459849 0.5164633065689255
12641353333.333334 -0.8505661541204913 0.5258680608902735 7.841017447708616e-17 -8.865114985180836e-17 7.841017447708616e-17 -8.865114985180836e-17 -0.850566509660468 0.5258674858211227
12641970666.666666 -0.8447200621567355 0.5352083861354772 7.740552295665994e-17 -8.949914125228054e-17 7.740552295665994e-17 -8.949914125228054e-17 -0.8447204239940522 0.5352078150467618
12642588000.0 -0.838771405579463 0.5444837271967576 7.63917130929175e-17 -9.033575859445698e-17 7.63917130929175e-17 -9.033575859445698e-17 -0.8387717736695736 0.5444831601574265
12643205333.333334 -0.8327209066655394 0.5536929578764229 7.536887353265335e-17 -9.116090311022287e-17 7.536887353265335e-17 -9.116090311022287e-17 -0.8327212809631429 0.5536923949549267
12643822666.666666 -0.8265693000572766 0.562834960003947 7.43371339861978e-17 -9.197447748518492e-17 7.43371339861978e-17 -9.197447748518492e-17 -0.8265696805163222 0.5628344012682287
12644440000.0 -0.820317332673402 0.5719086235714711 7.329662521101786e-17 -9.277638587009488e-17 7.329662521101786e-17 -9.277638587009488e-17 -0.820317719247096 0.5719080690889603
12645057333.333334 -0.8139657636182809 0.5809128468687278 7.224747899517972e-17 -9.356653389210059e-17 7.224747899517972e-17 -9.356653389210059e-17 -0.8139661562590902 0.5809122967063294
12645674666.666666 -0.8075153640898398 0.589846536616664 7.118982814069313e-17 -9.434482866580814e-17 7.118982814069313e-17 -9.434482866580814e-17 -0.8075157627495017 0.5898459908407535
12646292000.0 -0.8009669172856535 0.5987086081005829 7.012380644671849e-17 -9.511117880417071e-17 7.012380644671849e-17 -9.511117880417071e-17 -0.8009673219151779 0.5987080667769961
12646909333.333334 -0.794321218308227 0.6074979853013138 6.904954869271103e-17 -9.586549442914754e-17 6.904954869271103e-17 -9.586549442914754e-17 -0.7943216288579033 0.607497448495339
12647526666.666666 -0.7875790740682065 0.6162136010262081 6.796719062138946e-17 -9.660768718222008e-17 6.796719062138946e-17 -9.660768718222008e-17 -0.787579490487612 0.61621306880258
12648144000.0 -0.7807413031864403 0.624854397038669 6.687686892162101e-17 -9.733767023469264e-17 6.687686892162101e-17 -9.733767023469264e-17 -0.7807417254244433 0.624853869461559
12648761333.333334 -0.7738087358946493 0.6334193241865502 6.577872121120589e-17 -9.805535829779662e-17 6.577872121120589e-17 -9.805535829779662e-17 -0.7738091638994161 0.6334188013195584
12649378666.666666 -0.7667822139346223 0.6419073425295425 6.467288601954246e-17 -9.876066763260768e-17 6.467288601954246e-17 -9.876066763260768e-17 -0.7667826476536261 0.6419068244356926
12649996000.0 -0.7596625904559284 0.6503174214655555 6.355950277017278e-17 -9.945351605977756e-17 6.355950277017278e-17 -9.945351605977756e-17 -0.7596630298359518 0.6503169082072843
12650613333.333334 -0.7524507299123756 0.6586485398557802 6.243871176324705e-17 -1.0013382296905433e-16 6.243871176324705e-17 -1.0013382296905433e-16 -0.7524511748995208 0.6586480314949327
12651230666.666666 -0.7451475079571328 0.6668996861485957 6.131065415789315e-17 -1.008015093286034e-16 6.131065415789315e-17 -1.008015093286034e-16 -0.745147958496824 0.6668991827464138
12651848000.0 -0.7377538113362123 0.6750698585025947 6.017547195443183e-17 -1.0145649769416194e-16 6.017547195443183e-17 -1.0145649769416194e-16 -0.7377542673732075 0.6750693601197147
12652465333.333334 -0.7302705377809794 0.6831580649080408 5.903330797657918e-17 -1.0209871221794469e-16 5.903330797657918e-17 -1.0209871221794469e-16 -0.7302709992593741 0.6831575716044835
12653082666.666666 -0.7226985958991523 0.6911633233073173 5.788430585349967e-17 -1.0272807865738234e-16 5.788430585349967e-17 -1.0272807865738234e-16 -0.7226990627623849 0.691162835142479
12653700000.0 -0.7150389050642798 0.6990846617143706 5.672861000175178e-17 -1.0334452438366553e-16 5.672861000175178e-17 -1.0334452438366553e-16 -0.7150393772551434 0.6990841787470207
12654317333.333334 -0.7072923953043943 0.7069211183324432 5.556636560721148e-17 -1.0394797839005023e-16 5.556636560721148e-17 -1.0394797839005023e-16 -0.7072928727650386 0.7069206406207125
12654934666.666666 -0.6994600071888867 0.7146717416710568 5.439771860683682e-17 -1.0453837129999733e-16 5.439771860683682e-17 -1.0453837129999733e-16 -0.6994604898608282 0.7146712692724327
12655552000.0 -0.6915426917143049 0.7223355906615386 5.3222815670376595e-17 -1.0511563537509257e-16 5.3222815670376595e-17 -1.0511563537509257e-16 -0.691543179538432 0.7223351236328575
12656169333.333334 -0.6835414101890659 0.7299117347711046 5.20418041820231e-17 -1.0567970452274812e-16 5.20418041820231e-17 -1.0567970452274812e-16 -0.6835419031056487 0.7299112731685461
12656786666.666666 -0.675457134116534 0.737399254116044 5.085483222192642e-17 -1.0623051430372607e-16 5.085483222192642e-17 -1.0623051430372607e-16 -0.6754576320652294 0.7373987979951231
12657404000.0 -0.6672908450771635 0.7447972395733115 4.966204854767583e-17 -1.0676800193943363e-16 4.966204854767583e-17 -1.0676800193943363e-16 -0.6672913479970234 0.7447967889888724
12658021333.333334 -0.6590435346092745 0.7521047928909471 4.846360257568318e-17 -1.0729210631902001e-16 4.846360257568318e-17 -1.0729210631902001e-16 -0.659044042438753 0.7521043478971562
12658638666.666666 -0.6507162040887681 0.7593210267970489 4.725964436251408e-17 -1.0780276800625621e-16 4.725964436251408e-17 -1.0780276800625621e-16 -0.6507167167657298 0.7593205874473891
12659256000.0 -0.6423098646073294 0.7664450651076922 4.6050324586101244e-17 -1.082999292462249e-16 4.6050324586101244e-17 -1.082999292462249e-16 -0.6423103820690564 0.7664446314549557
12659873333.333334 -0.6338255368498517 0.7734760428331428 4.4835794526946836e-17 -1.087835339717756e-16 4.4835794526946836e-17 -1.087835339717756e-16 -0.6338260590330508 0.7734756149294247
12660490666.666666 -0.6252642509705103 0.7804131062828883 4.3616206049233765e-17 -1.0925352780978042e-16 4.3616206049233765e-17 -1.0925352780978042e-16 -0.6252647778113216 0.7804126841795813
12661108000.0 -0.6166270464674627 0.78725541316947 4.2391711581821925e-17 -1.0970985808719686e-16 4.2391711581821925e-17 -1.0970985808719686e-16 -0.616627577901467 0.7872549969172571
12661725333.333334 -0.6079149720569427 0.794002132710503 4.116246409930728e-17 -1.1015247383687105e-16 4.116246409930728e-17 -1.1015247383687105e-16 -0.607915508019169 0.794001722359351
12662342666.666666 -0.5991290855456823 0.8006524457297399 3.9928617102864826e-17 -1.1058132580318779e-16 3.9928617102864826e-17 -1.1058132580318779e-16 -0.5991296259706173 0.8006520413288964
12662960000.0 -0.590270453702588 0.8072055447564522 3.869032460116229e-17 -1.109963664474589e-16 3.869032460116229e-17 -1.109963664474589e-16 -0.5902709985241814 0.8072051463544357
12663577333.333334 -0.5813401521291903 0.8136606341234837 3.744774109114974e-17 -1.1139754995312356e-16 3.744774109114974e-17 -1.1139754995312356e-16 -0.5813407012808659 0.8136602417680806
12664194666.666666 -0.5723392651290481 0.8200169300638626 3.6201021538818626e-17 -1.117848322307262e-16 3.6201021538818626e-17 -1.117848322307262e-16 -0.5723398185437093 0.82001654380212
12664812000.0 -0.5632688855761154 0.8262736608059474 3.495032135990702e-17 -1.1215817092268015e-16 3.495032135990702e-17 -1.1215817092268015e-16 -0.5632694431861553 0.8262732806841684
12665429333.333334 -0.5541301147819077 0.8324300666672313 3.369579640055415e-17 -1.1251752540781802e-16 3.369579640055415e-17 -1.1251752540781802e-16 -0.5541306765192168 0.8324296927309692
12666046666.666666 -0.5449240623621562 0.8384854001463261 3.243760291792816e-17 -1.1286285680571888e-16 3.243760291792816e-17 -1.1286285680571888e-16 -0.5449246281581305 0.838485032440379
12666664000.0 -0.53565184610147 0.8444389260141357 3.117589756075981e-17 -1.1319412798083556e-16 3.117589756075981e-17 -1.1319412798083556e-16 -0.535652415887019 0.84443856458254
12667281333.333334 -0.5263145918183242 0.8502899214026542 2.991083734991553e-17 -1.1351130354638118e-16 2.991083734991553e-17 -1.1351130354638118e-16 -0.5263151655238792 0.8502895662886802
12667898666.666666 -0.51691343322777 0.8560376758931231 2.864257965885512e-17 -1.1381434986802079e-16 2.864257965885512e-17 -1.1381434986802079e-16 -0.516914010783295 0.8560373271392717
12668516000.0 -0.5074495118040445 0.8616814916021215 2.7371282194085533e-17 -1.1410323506733567e-16 2.7371282194085533e-17 -1.1410323506733567e-16 -0.5074500931390412 0.8616811492501149
12669133333.333334 -0.4979239766420711 0.8672206832662411 2.6097102975610735e-17 -1.1437792902506396e-16 2.6097102975610735e-17 -1.1437792902506396e-16 -0.4979245616855902 0.8672203473570219
12669750666.666666 -0.48833798431772035 0.872654578325425 2.4820200317288592e-17 -1.146384033841368e-16 2.4820200317288592e-17 -1.146384033841368e-16 -0.4883385729983688 0.872654248899149
12670368000.0 -0.4786926987474771 0.8779825170045692 2.3540732807204876e-17 -1.1488463155248591e-16 2.3540732807204876e-17 -1.1488463155248591e-16 -0.4786932909934266 0.8779821941005999
