! Parameters = {f0=12700.012000; bw=77.238000; Q=6100.000000; N=10; m_0_1=1.284780; m_1_1=0.506951; m_1_2=1.119592; m_2_2=0.506302; m_2_3=0.756555; m_2_8=0.001303; m_2_9=0.038007; m_3_3=0.504365; m_3_4=0.645084; m_3_7=0.001903; m_3_8=-0.095185; m_3_9=0.001303; m_4_4=0.501440; m_4_5=0.481419; m_4_6=0.005420; m_4_7=-0.115734; m_4_8=0.001903; m_5_5=0.501822; m_5_6=0.888774; m_5_7=0.005420; m_6_6=0.501821; m_6_7=0.481761; m_7_7=0.501454; m_7_8=0.645202; m_8_8=0.504363; m_8_9=0.756868; m_9_9=0.506297; m_9_10=1.120670; m_10_10=0.506941; m_10_11=1.285575}
!
! Created with skrf (http://scikit-rf.org).
# Hz S RI R 50.0 
!freq ReS11 ImS11 ReS21 ImS21 ReS12 ImS12 ReS22 ImS22
12607400000.0 -0.30410633043226976 -0.9526380948664814 6.663149560103628e-17 9.802278065835691e-17 6.663149560103628e-17 9.802278065835691e-17 -0.30410568561899787 -0.9526383007070515
12608017333.333334 -0.3145286527671051 -0.9492479795018418 6.769715844321212e-17 9.726158070998698e-17 6.769715844321212e-17 9.726158070998698e-17 -0.3145280102799594 -0.9492481923865583
12608634666.666666 -0.32491319464581364 -0.9457438426682306 6.875413988494389e-17 9.648880569890842e-17 6.875413988494389e-17 9.648880569890842e-17 -0.3249125545617366 -0.945744062570834
12609252000.0 -0.3352587087012929 -0.9421261052745332 6.9802314315869e-17 9.570455447928304e-17 6.9802314315869e-17 9.570455447928304e-17 -0.3352580710969311 -0.9421263321679237
12609869333.333334 -0.3455639522544276 -0.9383952018750515 7.084155724959886e-17 9.490892726706321e-17 7.084155724959886e-17 9.490892726706321e-17 -0.3455633172061219 -0.9383954357312918
12610486666.666666 -0.35582768746311627 -0.9345515806173944 7.187174533844406e-17 9.41020256272493e-17 7.187174533844406e-17 9.41020256272493e-17 -0.3558270550468931 -0.9345518214077136
12611104000.0 -0.36604868147141195 -0.9305957031884794 7.28927563880534e-17 9.328395246094148e-17 7.28927563880534e-17 9.328395246094148e-17 -0.36604805176297456 -0.9305959508832772
12611721333.333334 -0.3762257065571568 -0.9265280447592444 7.390446937182443e-17 9.245481199229835e-17 7.390446937182443e-17 9.245481199229835e-17 -0.37622507963187507 -0.9265282993280931
12612338666.666666 -0.3863575402796399 -0.922349093927503 7.490676444525604e-17 9.161470975526892e-17 7.490676444525604e-17 9.161470975526892e-17 -0.3863569162125431 -0.9223493553391543
12612956000.0 -0.3964429656265923 -0.9180593526591907 7.589952296009767e-17 9.07637525802105e-17 7.589952296009767e-17 9.07637525802105e-17 -0.39644234449235816 -0.9180596208815754
12613573333.333334 -0.40648077116002823 -0.9136593362282072 7.68826274783401e-17 8.990204858036132e-17 7.68826274783401e-17 8.990204858036132e-17 -0.4064801530329754 -0.9136596112284424
12614190666.666666 -0.4164697511620765 -0.9091495731543943 7.785596178608673e-17 8.902970713813387e-17 7.785596178608673e-17 8.902970713813387e-17 -0.41646913611615494 -0.9091498548987856
12614808000.0 -0.4264087057795731 -0.9045306051401514 7.881941090725698e-17 8.814683889126945e-17 7.881941090725698e-17 8.814683889126945e-17 -0.4264080938883556 -0.9045308935941981
12615425333.333334 -0.43629644116836713 -0.8998029870052882 7.977286111712299e-17 8.725355571885342e-17 7.977286111712299e-17 8.725355571885342e-17 -0.43629583250503984 -0.899803282133686
12616042666.666666 -0.4461317696366163 -0.8949672866204222 8.071619995570114e-17 8.634997072717371e-17 8.071619995570114e-17 8.634997072717371e-17 -0.4461311642739718 -0.8949675883870714
12616660000.0 -0.4559135097875055 -0.8900240848387522 8.164931624096929e-17 8.543619823544892e-17 8.164931624096929e-17 8.543619823544892e-17 -0.4559129077979315 -0.890024393206756
12617277333.333334 -0.46564048666107305 -0.8849739754263164 8.25721000819498e-17 8.45123537613884e-17 8.25721000819498e-17 8.45123537613884e-17 -0.46563988811654583 -0.884974290357991
12617894666.666666 -0.47531153187537306 -0.8798175649906662 8.348444289159133e-17 8.357855400664954e-17 8.348444289159133e-17 8.357855400664954e-17 -0.47531093684744785 -0.8798178864475424
12618512000.0 -0.4849254837670179 -0.8745554729078908 8.43862373995384e-17 8.263491684210344e-17 8.43862373995384e-17 8.263491684210344e-17 -0.48492489232682007 -0.8745558008507186
12619129333.333334 -0.49448118753028725 -0.8691883312484455 8.527737766466286e-17 8.168156129303843e-17 8.527737766466286e-17 8.168156129303843e-17 -0.494480599748505 -0.8691886656372012
12619746666.666666 -0.5039774953562441 -0.8637167847010186 8.615775908750804e-17 8.071860752414714e-17 8.615775908750804e-17 8.071860752414714e-17 -0.5039769113031197 -0.8637171254949084
12620364000.0 -0.5134132665705046 -0.8581414904951428 8.702727842251681e-17 7.974617682442747e-17 8.702727842251681e-17 7.974617682442747e-17 -0.5134126863158238 -0.8581418376526048
12620981333.333334 -0.522787367770078 -0.8524631183223439 8.788583379008372e-17 7.87643915919609e-17 8.788583379008372e-17 7.87643915919609e-17 -0.5227867913831653 -0.8524634718010591
12621598666.666666 -0.5320986729596612 -0.8466823502556248 8.873332468846544e-17 7.777337531852918e-17 8.873332468846544e-17 7.777337531852918e-17 -0.532098100509369 -0.8466827100125177
12622216000.0 -0.5413460636869118 -0.840799880667514 8.956965200550672e-17 7.677325257411583e-17 8.956965200550672e-17 7.677325257411583e-17 -0.5413454952416137 -0.84080024665876
12622833333.333334 -0.5505284291767701 -0.8348164161466751 9.039471803018552e-17 7.576414899128947e-17 9.039471803018552e-17 7.576414899128947e-17 -0.5505278648043507 -0.8348167883277037
12623450666.666666 -0.5596446664647141 -0.8287326754131392 9.120842646398326e-17 7.474619124946427e-17 9.120842646398326e-17 7.474619124946427e-17 -0.5596441062325629 -0.8287330537386424
12624068000.0 -0.5686936805295097 -0.8225493892318079 9.201068243208433e-17 7.371950705903068e-17 9.201068243208433e-17 7.371950705903068e-17 -0.5686931245045128 -0.8225497736557433
12624685333.333334 -0.5776743844246687 -0.8162673003247162 9.280139249441025e-17 7.268422514535107e-17 9.280139249441025e-17 7.268422514535107e-17 -0.5776738326731995 -0.8162676908003135
12625302666.666666 -0.5865856994087988 -0.809887163281966 9.358046465643087e-17 7.164047523269304e-17 9.358046465643087e-17 7.164047523269304e-17 -0.5865851519967116 -0.8098875597617329
12625920000.0 -0.595426555075554 -0.8034097444708258 9.434780837985631e-17 7.058838802796742e-17 9.434780837985631e-17 7.058838802796742e-17 -0.5954260120681748 -0.8034101469065531
12626537333.333334 -0.6041958894817913 -0.7968358219439732 9.510333459308858e-17 6.952809520443039e-17 9.510333459308858e-17 6.952809520443039e-17 -0.6041953509439109 -0.7968362302867411
12627154666.666666 -0.6128926492754064 -0.7901661853458376 9.584695570152051e-17 6.845972938523411e-17 9.584695570152051e-17 6.845972938523411e-17 -0.612892115271273 -0.7901665995460222
12627772000.0 -0.6215157898219275 -0.7834016358176983 9.65785855976693e-17 6.738342412684003e-17 9.65785855976693e-17 6.738342412684003e-17 -0.6215152604152375 -0.783402055824976
12628389333.333334 -0.6300642753296081 -0.7765429859017434 9.729813967106719e-17 6.629931390240729e-17 9.729813967106719e-17 6.629931390240729e-17 -0.6300637505835007 -0.7765434116650992
12629006666.666666 -0.6385370789743187 -0.7695910594431075 9.800553481803176e-17 6.520753408497897e-17 9.800553481803176e-17 6.520753408497897e-17 -0.6385365589513659 -0.7695914909108391
12629624000.0 -0.6469331830225483 -0.7625466914911734 9.870068945118918e-17 6.410822093065437e-17 9.870068945118918e-17 6.410822093065437e-17 -0.6469326677847496 -0.7625471286108988
12630241333.333334 -0.6552515789538298 -0.7554107281991249 9.938352350885849e-17 6.300151156158481e-17 9.938352350885849e-17 6.300151156158481e-17 -0.6552510685626038 -0.7554111709177891
12630858666.666666 -0.6634912675816678 -0.7481840267224982 1.0005395846420617e-16 6.188754394893177e-17 1.0005395846420617e-16 6.188754394893177e-17 -0.6634907620978444 -0.7481844749863773
12631476000.0 -0.6716512591739195 -0.7408674551158994 1.0071191733424987e-16 6.076645689566301e-17 1.0071191733424987e-16 6.076645689566301e-17 -0.6716507586577337 -0.7408679088706098
12632093333.333334 -0.6797305735713378 -0.7334618922290373 1.013573246886194e-16 5.96383900193401e-17 1.013573246886194e-16 5.96383900193401e-17 -0.6797300780824224 -0.7334623514195419
12632710666.666666 -0.6877282403053742 -0.7259682276011071 1.0199010665817402e-16 5.850348373472955e-17 1.0199010665817402e-16 5.850348373472955e-17 -0.6877277499027518 -0.72596869217172
12633328000.0 -0.6956432987149759 -0.7183873613537246 1.026101909434068e-16 5.736187923635538e-17 1.026101909434068e-16 5.736187923635538e-17 -0.6956428134570524 -0.7183878312481193
12633945333.333334 -0.7034747980617062 -0.7107202040830561 1.0321750682264139e-16 5.621371848098643e-17 1.0321750682264139e-16 5.621371848098643e-17 -0.7034743180062646 -0.7107206792442731
12634562666.666666 -0.7112217976440933 -0.7029676767503074 1.0381198516004614e-16 5.505914417001433e-17 1.0381198516004614e-16 5.505914417001433e-17 -0.7112213228482847 -0.7029681571207584
12635180000.0 -0.7188833669105205 -0.6951307105711951 1.0439355841345851e-16 5.3898299731736154e-17 1.0439355841345851e-16 5.3898299731736154e-17 -0.7188828974308598 -0.6951311960926736
12635797333.333334 -0.726458585571144 -0.6872102469039535 1.0496216064199822e-16 5.2731329303578084e-17 1.0496216064199822e-16 5.2731329303578084e-17 -0.7264581214635024 -0.6872107375176401
12636414666.666666 -0.7339465437082975 -0.6792072371364029 1.0551772751348467e-16 5.1558377714237245e-17 1.0551772751348467e-16 5.1558377714237245e-17 -0.7339460850278942 -0.6792077327828702
12637032000.0 -0.7413463418858454 -0.6711226425716057 1.0606019631166092e-16 5.037959046573396e-17 1.0606019631166092e-16 5.037959046573396e-17 -0.741345888687244 -0.6711231431908307
12637649333.333334 -0.7486570912572656 -0.6629574343123632 1.0658950594321775e-16 4.919511371538902e-17 1.0658950594321775e-16 4.919511371538902e-17 -0.7486566435943646 -0.6629579398437284
12638266666.666666 -0.7558779136723509 -0.6547125931446218 1.0710559694460922e-16 4.80050942577428e-17 1.0710559694460922e-16 4.80050942577428e-17 -0.7558774715983791 -0.6547131035269278
12638884000.0 -0.7630079417827316 -0.6463891094196277 1.0760841148867463e-16 4.680967950638892e-17 1.0760841148867463e-16 4.680967950638892e-17 -0.763007505350242 -0.6463896245910978
12639501333.333334 -0.7700463191460049 -0.637987982935031 1.0809789339105079e-16 4.560901747575452e-17 1.0809789339105079e-16 4.560901747575452e-17 -0.7700458884068663 -0.6379885028333188
12640118666.666666 -0.7769922003286075 -0.629510222814793 1.0857398811638632e-16 4.440325676280542e-17 1.0857398811638632e-16 4.440325676280542e-17 -0.7769917753340009 -0.6295107473769908
12640736000.0 -0.7838447510076011 -0.620956847387685 1.0903664278436585e-16 4.3192546528649846e-17 1.0903664278436585e-16 4.3192546528649846e-17 -0.7838443318080127 -0.6209573765503315
12641353333.333334 -0.7906031480704074 -0.6123288840655672 1.0948580617548948e-16 4.197703648018624e-17 1.0948580617548948e-16 4.197703648018624e-17 -0.7906027347156216 -0.6123294177646543
12641970666.666666 -0.7972665797141582 -0.6036273692193799 1.099214287366939e-16 4.0756876851570354e-17 1.099214287366939e-16 4.0756876851570354e-17 -0.7972661722532534 -0.6036279073903613
12642588000.0 -0.8038342455429589 -0.5948533480549668 1.1034346258674301e-16 3.9532218385690635e-17 1.1034346258674301e-16 3.9532218385690635e-17 -0.8038338440243005 -0.594853890632765
12643205333.333334 -0.810305356664067 -0.5860078744874843 1.1075186152141419e-16 3.830321231558578e-17 1.1075186152141419e-16 3.830321231558578e-17 -0.8103049611353023 -0.5860084214064993
12643822666.666666 -0.8166791357827364 -0.5770920110146937 1.111465810184859e-16 3.7070010345784404e-17 1.111465810184859e-16 3.7070010345784404e-17 -0.8166787462907872 -0.5770925622088093
12644440000.0 -0.8229548172954306 -0.5681068285895399 1.115275782425094e-16 3.5832764633623095e-17 1.115275782425094e-16 3.5832764633623095e-17 -0.8229544338864904 -0.5681073839921343
12645057333.333334 -0.8291316473819216 -0.5590534064913303 1.1189481204937344e-16 3.4591627770513243e-17 1.1189481204937344e-16 3.4591627770513243e-17 -0.8291312701014488 -0.5590539660352822
12645674666.666666 -0.8352088840957079 -0.5499328321962808 1.1224824299067081e-16 3.334675276313389e-17 1.1224824299067081e-16 3.334675276313389e-17 -0.8352085129884197 -0.549933395813978
12646292000.0 -0.8411857974533545 -0.5407462012465581 1.125878333178521e-16 3.2098293014587095e-17 1.125878333178521e-16 3.2098293014587095e-17 -0.841185432563223 -0.540746768869906
12646909333.333334 -0.8470616695219135 -0.5314946171190916 1.1291354698615412e-16 3.0846402305576724e-17 1.1291354698615412e-16 3.0846402305576724e-17 -0.8470613108921583 -0.5314951886795202
12647526666.666666 -0.8528357945053264 -0.5221791910927609 1.1322534965834665e-16 2.959123477544574e-17 1.1322534965834665e-16 2.959123477544574e-17 -0.8528354421784128 -0.5221797665212351
12648144000.0 -0.8585074788292061 -0.5128010421149134 1.1352320870825125e-16 2.833294490324469e-17 1.1352320870825125e-16 2.833294490324469e-17 -0.8585071328468378 -0.5128016213419401
12648761333.333334 -0.8640760412240251 -0.5033612966671516 1.138070932240522e-16 2.7071687488756242e-17 1.138070932240522e-16 2.7071687488756242e-17 -0.86407570162714 -0.5033618796227883
12649378666.666666 -0.8695408128070418 -0.49386108862987854 1.1407697401139638e-16 2.5807617633494895e-17 1.1407697401139638e-16 2.5807617633494895e-17 -0.8695404796358055 -0.4938616752437411
12649996000.0 -0.874901137162667 -0.48430155914604756 1.143328235962934e-16 2.4540890721628503e-17 1.143328235962934e-16 2.4540890721628503e-17 -0.8749008104564696 -0.48430214934731924
12650613333.333334 -0.8801563704212287 -0.47468385648423844 1.145746162277907e-16 2.327166240093102e-17 1.145746162277907e-16 2.327166240093102e-17 -0.8801560502186812 -0.47468445020167943
12651230666.666666 -0.8853058813363436 -0.46500913590068393 1.1480232788044164e-16 2.200008856369777e-17 1.1480232788044164e-16 2.200008856369777e-17 -0.8853055676752715 -0.46500973306263865
12651848000.0 -0.890349051360817 -0.4552785595003491 1.1501593625657014e-16 2.072632532759255e-17 1.1501593625657014e-16 2.072632532759255e-17 -0.8903487442782564 -0.4552791600347554
12652465333.333334 -0.8952852747208503 -0.44549329609752003 1.1521542078830928e-16 1.9450529016553106e-17 1.1521542078830928e-16 1.9450529016553106e-17 -0.895284974253043 -0.445493899931917
12653082666.666666 -0.9001139584887521 -0.43565452107550784 1.1540076263943947e-16 1.8172856141616867e-17 1.1540076263943947e-16 1.8172856141616867e-17 -0.900113664671143 -0.43565512813704627
12653700000.0 -0.9048345226543669 -0.42576341624506114 1.1557194470701441e-16 1.6893463381727868e-17 1.1557194470701441e-16 1.6893463381727868e-17 -0.9048342355215978 -0.42576402646051076
12654317333.333334 -0.9094464001945265 -0.41582116970283983 1.1572895162276335e-16 1.561250756460957e-17 1.1572895162276335e-16 1.561250756460957e-17 -0.9094461197804335 -0.4158217829985989
12654934666.666666 -0.9139490371412514 -0.4058289756885276 1.1587176975429694e-16 1.4330145647518532e-17 1.1587176975429694e-16 1.4330145647518532e-17 -0.9139487634788607 -0.4058295919906318
12655552000.0 -0.9183418926483603 -0.39578803444122607 1.1600038720609105e-16 1.3046534698055528e-17 1.1600038720609105e-16 1.3046534698055528e-17 -0.9183416257698819 -0.3957886536753564
12656169333.333334 -0.9226244390562797 -0.3856995520556199 1.1611479382025746e-16 1.1761831874983895e-17 1.1611479382025746e-16 1.1761831874983895e-17 -0.9226241789931084 -0.3857001741471136
12656786666.666666 -0.9267961619555705 -0.3755647403367953 1.1621498117710995e-16 1.0476194408981694e-17 1.1621498117710995e-16 1.0476194408981694e-17 -0.9267959087382777 -0.3755653652106528
12657404000.0 -0.9308565602486111 -0.3653848166549129 1.1630094259550955e-16 9.189779583458409e-18 1.1630094259550955e-16 9.189779583458409e-18 -0.9308563139069433 -0.36538544423580804
12658021333.333334 -0.9348051462098771 -0.355161003798771 1.163726731330049e-16 7.90274471531679e-18 1.163726731330049e-16 7.90274471531679e-18 -0.9348049067727526 -0.3551616340110601
12658638666.666666 -0.9386414455444316 -0.3448945298291653 1.1643016958575424e-16 6.615247135774099e-18 1.1643016958575424e-16 6.615247135774099e-18 -0.9386412130399356 -0.34489516259689545
12659256000.0 -0.9423649974450159 -0.33458662793105665 1.1647343048824028e-16 5.327444171119722e-18 1.1647343048824028e-16 5.327444171119722e-18 -0.9423647719003998 -0.3345872631779761
12659873333.333334 -0.9459753546472747 -0.3242385362657922 1.1650245611276924e-16 4.03949312356363e-18 1.1650245611276924e-16 4.03949312356363e-18 -0.9459751360889496 -0.32423917391535817
12660490666.666666 -0.9494720834835384 -0.313851497822219 1.1651724846876093e-16 2.7515512520323356e-18 1.1651724846876093e-16 2.7515512520323356e-18 -0.9494718719370744 -0.3138521377976081
12661108000.0 -0.9528547639349753 -0.30342676026719073 1.165178113018256e-16 1.4637757529775838e-18 1.165178113018256e-16 1.4637757529775838e-18 -0.9528545594250988 -0.30342740249130773
12661725333.333334 -0.9561229896818954 -0.2929655757961598 1.1650415009262983e-16 1.7632374125981896e-19 1.1650415009262983e-16 1.7632374125981896e-19 -0.9561227922324835 -0.2929662201916465
12662342666.666666 -0.9592763681527017 -0.2824692009823061 1.1647627205555118e-16 -1.1106477690139122e-18 1.1647627205555118e-16 -1.1106477690139122e-18 -0.9592761777867828 -0.2824698474715515
12662960000.0 -0.962314520570971 -0.2719388966258455 1.1643418613712176e-16 -2.396981883612393e-18 1.1643418613712176e-16 -2.396981883612393e-18 -0.962314337310719 -0.2719395451309942
12663577333.333334 -0.9652370820009727 -0.2613759276025022 1.1637790301426127e-16 -3.682521847267359e-18 1.1637790301426127e-16 -3.682521847267359e-18 -0.9652369058677066 -0.26137657804546466
12664194666.666666 -0.9680437013914746 -0.2507815627116849 1.1630743509229907e-16 -4.967111062752764e-18 1.1630743509229907e-16 -4.967111062752764e-18 -0.9680435324056554 -0.2507822150141463
12664812000.0 -0.9707340416179572 -0.24015707452391802 1.1622279650278743e-16 -6.250593109917494e-18 1.1622279650278743e-16 -6.250593109917494e-18 -0.9707338797991858 -0.2401577286073479
12665429333.333334 -0.9733077795230908 -0.2295037392280367 1.1612400310110298e-16 -7.532811764725411e-18 1.1612400310110298e-16 -7.532811764725411e-18 -0.973307624890105 -0.2295043950136984
12666046666.666666 -0.9757646059555001 -0.218822836478116 1.1601107246384218e-16 -8.813611018211224e-18 1.1601107246384218e-16 -8.813611018211224e-18 -0.975764458526172 -0.21882349388707578
12666664000.0 -0.9781042258070098 -0.2081156492392914 1.1588402388600133e-16 -1.0092835095475226e-17 1.1588402388600133e-16 -1.0092835095475226e-17 -0.978104085598345 -0.2081163081924284
12667281333.333334 -0.9803263580479754 -0.19738346363414985 1.157428783779585e-16 -1.1370328474540028e-17 1.157428783779585e-16 -1.1370328474540028e-17 -0.9803262250761121 -0.19738412405216574
12667898666.666666 -0.9824307357611195 -0.18662756878791237 1.155876586622363e-16 -1.264593590528102e-17 1.155876586622363e-16 -1.264593590528102e-17 -0.9824306100413233 -0.18662823059134026
12668516000.0 -0.9844171061735609 -0.1758492566736964 1.1541838917006213e-16 -1.3919502428250318e-17 1.1541838917006213e-16 -1.3919502428250318e-17 -0.9844169877202265 -0.1758499197829111
12669133333.333334 -0.9862852306871722 -0.16504982195741313 1.1523509603772504e-16 -1.5190873393448334e-17 1.1523509603772504e-16 -1.5190873393448334e-17 -0.9862851195138169 -0.1650504862926397
12669750666.666666 -0.9880348849072613 -0.15423056184205672 1.1503780710271867e-16 -1.64598944790927e-17 1.1503780710271867e-16 -1.64598944790927e-17 -0.9880347810265305 -0.1542312273233814
12670368000.0 -0.9896658586695045 -0.14339277591208585 1.1482655189968135e-16 -1.77264117103269e-17 1.1482655189968135e-16 -1.77264117103269e-17 -0.9896657620931648 -0.14339344245946478
