! Parameters = {f0=12700.012000; bw=77.238000; Q=6100.000000; N=10; m_0_1=1.205701; m_1_1=-0.679235; m_1_2=1.040513; m_2_2=-0.679884; m_2_3=0.677476; m_2_8=-0.002651; m_2_9=0.034053; m_3_3=-0.681821; m_3_4=0.566005; m_3_7=-0.002051; m_3_8=-0.099139; m_3_9=-0.002651; m_4_4=-0.684746; m_4_5=0.402340; m_4_6=0.001466; m_4_7=-0.119688; m_4_8=-0.002051; m_5_5=-0.684364; m_5_6=0.809695; m_5_7=0.001466; m_6_6=-0.684365; m_6_7=0.402682; m_7_7=-0.684732; m_7_8=0.566123; m_8_8=-0.681823; m_8_9=0.677789; m_9_9=-0.679889; m_9_10=1.041591; m_10_10=-0.679245; m_10_11=1.206496}
!
! Created with skrf (http://scikit-rf.org).
# Hz S RI R 50.0 
!freq ReS11 ImS11 ReS21 ImS21 ReS12 ImS12 ReS22 ImS22
12607400000.0 -0.3350865290844173 0.9421873582393255 4.3388047730114385e-18 -8.073752579987776e-17 4.3388047730114385e-18 -8.073752579987776e-17 -0.33508712770014726 0.9421871453429549
12608017333.333334 -0.32695054976113397 0.9450414477739761 3.6346503281255805e-18 -8.075643634645032e-17 3.6346503281255805e-18 -8.075643634645032e-17 -0.3269511501608001 0.9450412400569465
12608634666.666666 -0.3187902649405455 0.947825282939308 2.9304958473087815e-18 -8.076921079215017e-17 2.9304958473087815e-18 -8.076921079215017e-17 -0.3187908670793411 0.9478250804165517
12609252000.0 -0.310606281258161 0.9505386567850977 2.226394756125787e-18 -8.077585057130229e-17 2.226394756125787e-18 -8.077585057130229e-17 -0.31060688509115547 0.9505384594711626
12609869333.333334 -0.3023992071111554 0.9531813675992558 1.5224004551688944e-18 -8.077635758300076e-17 1.5224004551688944e-18 -8.077635758300076e-17 -0.30239981259329585 0.9531811755082981
12610486666.666666 -0.29416965261343553 0.9557532189227156 8.185663160227766e-19 -8.077073419078297e-17 8.185663160227766e-19 -8.077073419078297e-17 -0.29417025969955135 0.9557530320685045
12611104000.0 -0.2859182295498807 0.9582540195641769 1.1494567719634524e-19 -8.075898322226882e-17 1.1494567719634524e-19 -8.075898322226882e-17 -0.28591883819468633 0.9582538379600896
12611721333.333334 -0.27764555133129565 0.9606835836141796 -5.884081598632352e-19 -8.074110796876422e-17 -5.884081598632352e-19 -8.074110796876422e-17 -0.27764616148939353 0.9606834072732005
12612338666.666666 -0.2693522329484281 0.9630417304590381 -1.2914419348302094e-18 -8.071711218483004e-17 -1.2914419348302094e-18 -8.071711218483004e-17 -0.2693528445743134 0.9630415593937607
12612956000.0 -0.26103889092641414 0.9653282847942188 -1.994102432518447e-18 -8.068700008781547e-17 -1.994102432518447e-18 -8.068700008781547e-17 -0.2610395039744775 0.9653281190168446
12613573333.333334 -0.25270614327908425 0.9675430766373414 -2.6963364868878044e-18 -8.065077635735799e-17 -2.6963364868878044e-18 -8.065077635735799e-17 -0.25270675770361445 0.967542916159675
12614190666.666666 -0.24435460946279886 0.9696859413408675 -3.3980909850658194e-18 -8.060844613484651e-17 -3.3980909850658194e-18 -8.060844613484651e-17 -0.24435522521798694 0.9696857861743193
12614808000.0 -0.23598491033042626 0.9717567196043373 -4.099312871350056e-18 -8.056001502285136e-17 -4.099312871350056e-18 -8.056001502285136e-17 -0.23598552737036904 0.9717565697599218
12615425333.333334 -0.2275976680853257 0.9737552574861731 -4.799949151218276e-18 -8.050548908451815e-17 -4.799949151218276e-18 -8.050548908451815e-17 -0.227598286364029 0.9737551129745089
12616042666.666666 -0.21919350623498313 0.9756814064151557 -5.4999468953095125e-18 -8.044487484292834e-17 -5.4999468953095125e-18 -8.044487484292834e-17 -0.21919412570636504 0.9756812672464626
12616660000.0 -0.21077304954471432 0.9775350232014515 -6.199253243421554e-18 -8.037817928042425e-17 -6.199253243421554e-18 -8.037817928042425e-17 -0.21077367016260903 0.9775348893855528
12617277333.333334 -0.20233692399108166 0.9793159700472922 -6.897815408490144e-18 -8.030540983789969e-17 -6.897815408490144e-18 -8.030540983789969e-17 -0.2023375457092423 0.9793158415936102
12617894666.666666 -0.19388575671566388 0.9810241145571477 -7.595580680561121e-18 -8.022657441405658e-17 -7.595580680561121e-18 -8.022657441405658e-17 -0.19388637948776663 0.9810239914747072
12618512000.0 -0.185420175978018 0.9826593297476608 -8.29249643076879e-18 -8.014168136462532e-17 -8.29249643076879e-18 -8.014168136462532e-17 -0.18542079975766504 0.9826592120450856
12619129333.333334 -0.17694081110941953 0.9842214940569944 -8.98851011527019e-18 -8.005073950155523e-17 -8.98851011527019e-18 -8.005073950155523e-17 -0.17694143585014288 0.9842213817425076
12619746666.666666 -0.1684482924656881 0.9857104913539452 -9.683569279226005e-18 -7.995375809216448e-17 -9.683569279226005e-18 -7.995375809216448e-17 -0.16844891812095267 0.9857103844353684
12620364000.0 -0.1599432513804932 0.9871262109465418 -1.0377621560729841e-17 -7.985074685825998e-17 -1.0377621560729841e-17 -7.985074685825998e-17 -0.15994387790370068 0.9871261094312958
12620981333.333334 -0.1514263201185625 0.9884685475902568 -1.1070614694731421e-17 -7.974171597522483e-17 -1.1070614694731421e-17 -7.974171597522483e-17 -0.15142694746305443 0.9884684514853584
12621598666.666666 -0.14289813182845357 0.9897374014958605 -1.1762496516980175e-17 -7.962667607106583e-17 -1.1762496516980175e-17 -7.962667607106583e-17 -0.14289875994751525 0.989737310807925
12622216000.0 -0.1343593204955149 0.9909326783368411 -1.245321496793941e-17 -7.950563822543138e-17 -1.245321496793941e-17 -7.950563822543138e-17 -0.13435994934237827 0.990932593072079
12622833333.333334 -0.1258105208948664 0.9920542892563909 -1.3142718096684027e-17 -7.937861396859502e-17 -1.3142718096684027e-17 -7.937861396859502e-17 -0.12581115042271426 0.9920542094206114
12623450666.666666 -0.11725236854421187 0.993102150874024 -1.3830954064795586e-17 -7.924561528040637e-17 -1.3830954064795586e-17 -7.924561528040637e-17 -0.11725299870618072 0.9931020764726299
12624068000.0 -0.10868549965650925 0.9940761852917793 -1.4517871150267244e-17 -7.910665458920259e-17 -1.4517871150267244e-17 -7.910665458920259e-17 -0.10868613040569307 0.9940761163297693
12624685333.333334 -0.10011055109253321 0.9949763201000261 -1.520341775136927e-17 -7.896174477069274e-17 -1.520341775136927e-17 -7.896174477069274e-17 -0.10011118238198709 0.9949762565819957
12625302666.666666 -0.09152816031398334 0.9958024883828009 -1.588754239050173e-17 -7.881089914680922e-17 -1.588754239050173e-17 -7.881089914680922e-17 -0.09152879209672661 0.9958024303129387
12625920000.0 -0.08293896533555793 0.9965546287228351 -1.6570193718078703e-17 -7.865413148451677e-17 -1.6570193718078703e-17 -7.865413148451677e-17 -0.08293959756457793 0.9965545761049249
12626537333.333334 -0.07434360467797659 0.9972326852060782 -1.7251320516349925e-17 -7.849145599459921e-17 -1.7251320516349925e-17 -7.849145599459921e-17 -0.0743442373062321 0.9972326380434988
12627154666.666666 -0.06574271732022975 0.9978366074258814 -1.7930871703233244e-17 -7.832288733040825e-17 -1.7930871703233244e-17 -7.832288733040825e-17 -0.06574335030065442 0.9978365657216045
12627772000.0 -0.05713694265207668 0.9983663504867407 -1.860879633615529e-17 -7.814844058657437e-17 -1.860879633615529e-17 -7.814844058657437e-17 -0.05713757593758266 0.998366314243333
12628389333.333334 -0.04852692042679695 0.9988218750076174 -1.9285043615835723e-17 -7.796813129769573e-17 -1.9285043615835723e-17 -7.796813129769573e-17 -0.04852755397027825 0.9988218442272391
12629006666.666666 -0.03991329071326232 0.9992031471248876 -1.99595628901033e-17 -7.778197543698255e-17 -1.99595628901033e-17 -7.778197543698255e-17 -0.039913924467598394 0.9992031218092925
12629624000.0 -0.03129669384855272 0.9995101384948485 -2.0632303657664115e-17 -7.758998941487873e-17 -2.0632303657664115e-17 -7.758998941487873e-17 -0.03129732776661199 0.9995101186453844
12630241333.333334 -0.02267777039035355 0.9997428262958247 -2.1303215571881052e-17 -7.739219007764374e-17 -2.1303215571881052e-17 -7.739219007764374e-17 -0.02267840442499685 0.9997428119134328
12630858666.666666 -0.014057161069393568 0.9999011932298658 -2.197224844452695e-17 -7.718859470590629e-17 -2.197224844452695e-17 -7.718859470590629e-17 -0.014057795173477678 0.999901184315081
12631476000.0 -0.005435506741557209 0.999985227524039 -2.2639352249539494e-17 -7.697922101318031e-17 -2.2639352249539494e-17 -7.697922101318031e-17 -0.005436140867938348 0.9999852240769882
12632093333.333334 0.003186551659500942 0.9999949229312928 -2.3304477126729597e-17 -7.676408714435924e-17 -2.3304477126729597e-17 -7.676408714435924e-17 0.003185917557963587 0.9999949249516993
12632710666.666666 0.011808373170003064 0.9999302787309321 -2.3967573385517416e-17 -7.654321167416559e-17 -2.3967573385517416e-17 -7.654321167416559e-17 0.011807739140443859 0.9999302862181103
12633328000.0 0.02042931684395316 0.9997912997286634 -2.462859150863185e-17 -7.631661360557439e-17 -2.462859150863185e-17 -7.631661360557439e-17 0.020428682933496523 0.9997913126815234
12633945333.333334 0.02904874180047236 0.9995779962562458 -2.528748215578718e-17 -7.608431236820868e-17 -2.528748215578718e-17 -7.608431236820868e-17 0.029048108056229222 0.9995780146732892
12634562666.666666 0.03766600727169771 0.9992903841707121 -2.5944196167361925e-17 -7.584632781669681e-17 -2.5944196167361925e-17 -7.584632781669681e-17 0.03766537374076208 0.9992904080500371
12635180000.0 0.046280472650218 0.9989284848532023 -2.6598684568062764e-17 -7.560268022899892e-17 -2.6598684568062764e-17 -7.560268022899892e-17 0.04627983937966339 0.998928514192499
12635797333.333334 0.05489149753683847 0.9984923252073621 -2.7250898570555487e-17 -7.535339030470668e-17 -2.7250898570555487e-17 -7.535339030470668e-17 0.054890864573714476 0.9984923600039164
12636414666.666666 0.06349844178801788 0.9979819376573581 -2.7900789579089416e-17 -7.509847916331046e-17 -2.7900789579089416e-17 -7.509847916331046e-17 0.06349780917934665 0.9979819779080503
12637032000.0 0.07210066556374041 0.9973973601454469 -2.854830919312667e-17 -7.483796834242584e-17 -2.854830919312667e-17 -7.483796834242584e-17 0.07210003335651313 0.9973974058467521
12637649333.333334 0.0806975293747978 0.9967386361291736 -2.919340921091515e-17 -7.457187979600539e-17 -2.919340921091515e-17 -7.457187979600539e-17 0.0806968976159712 0.9967386872771615
12638266666.666666 0.08928839413047049 0.9960058145781294 -2.983604163307661e-17 -7.430023589250652e-17 -2.983604163307661e-17 -7.430023589250652e-17 0.0892877628669634 0.9960058711684657
12638884000.0 0.09787262118598135 0.9951989499703198 -3.04761586661635e-17 -7.402305941303547e-17 -3.04761586661635e-17 -7.402305941303547e-17 0.0978719904646712 0.9951990119982661
12639501333.333334 0.10644957239011361 0.9943181022880977 -3.111371272621317e-17 -7.374037354945365e-17 -3.111371272621317e-17 -7.374037354945365e-17 0.106448942257833 0.9943181697485118
12640118666.666666 0.11501861013231204 0.99336333701374 -3.1748656442249593e-17 -7.345220190246957e-17 -3.1748656442249593e-17 -7.345220190246957e-17 0.11501798063584509 0.9933634099010763
12640736000.0 0.12357909739064767 0.9923347251245187 -3.2380942659831717e-17 -7.315856847967127e-17 -3.2380942659831717e-17 -7.315856847967127e-17 0.12357846857672686 0.9923348034328298
12641353333.333334 0.13213039777844027 0.991232343087509 -3.301052444450154e-17 -7.285949769356726e-17 -3.301052444450154e-17 -7.285949769356726e-17 0.13212976969374257 0.9912324268104433
12641970666.666666 0.14067187559227232 0.9900562728538179 -3.3637355085288083e-17 -7.255501435956196e-17 -3.3637355085288083e-17 -7.255501435956196e-17 0.1406712482834161 0.9900563619846234
12642588000.0 0.1492028958587964 0.988806601852552 -3.4261388098150223e-17 -7.224514369392283e-17 -3.4261388098150223e-17 -7.224514369392283e-17 0.1492022693723376 0.9888066963840739
12643205333.333334 0.15772282438207977 0.9874834229842957 -3.488257722941097e-17 -7.192991131171226e-17 -3.488257722941097e-17 -7.192991131171226e-17 0.15772219876450888 0.9874835229089804
12643822666.666666 0.1662310277908068 0.9860868346142008 -3.5500876459191257e-17 -7.160934322468124e-17 -3.5500876459191257e-17 -7.160934322468124e-17 0.16623040308854506 0.9860869399240928
12644440000.0 0.17472687358533545 0.9846169405646724 -3.611624000478623e-17 -7.128346583915293e-17 -3.611624000478623e-17 -7.128346583915293e-17 0.17472624984473167 0.9846170512514186
12645057333.333334 0.18320973018457726 0.9830738501076797 -3.672862232405254e-17 -7.09523059538621e-17 -3.672862232405254e-17 -7.09523059538621e-17 0.183209107451904 0.9830739661625257
12645674666.666666 0.19167896697306122 0.9814576779566102 -3.733797811877424e-17 -7.061589075776667e-17 -3.733797811877424e-17 -7.061589075776667e-17 0.19167834529451191 0.9814577993704059
12646292000.0 0.20013395434795384 0.9797685442577206 -3.7944262338004335e-17 -7.027424782783187e-17 -3.7944262338004335e-17 -7.027424782783187e-17 0.20013333376963865 0.9797686710209164
12646909333.333334 0.2085740637656115 0.9780065745812457 -3.854743018136685e-17 -6.992740512679753e-17 -3.854743018136685e-17 -6.992740512679753e-17 0.20857344433355446 0.9780067066838957
12647526666.666666 0.21699866778841848 0.9761718999120466 -3.9147437102372206e-17 -6.957539100089807e-17 -3.9147437102372206e-17 -6.957539100089807e-17 0.21699804954855417 0.97617203734381
12648144000.0 0.22540714013151447 0.9742646566398548 -3.9744238811702075e-17 -6.921823417755972e-17 -3.9744238811702075e-17 -6.921823417755972e-17 0.22540652312968426 0.9742647993899959
12648761333.333334 0.23379885570918538 0.9722849865491693 -4.0337791280447846e-17 -6.885596376308428e-17 -4.0337791280447846e-17 -6.885596376308428e-17 0.23379823999113397 0.9722851346065565
12649378666.666666 0.2421731906814432 0.9702330368086899 -4.0928050743353936e-17 -6.8488609240291e-17 -4.0928050743353936e-17 -6.8488609240291e-17 0.24217257629281558 0.9702331901617995
12649996000.0 0.2505295225003747 0.9681089599603843 -4.151497370204902e-17 -6.811620046612392e-17 -4.151497370204902e-17 -6.811620046612392e-17 0.2505289094867125 0.9681091185972995
12650613333.333334 0.2588672299564491 0.9659129139081413 -4.2098516928223223e-17 -6.77387676692526e-17 -4.2098516928223223e-17 -6.77387676692526e-17 0.2588666183631875 0.9659130778165547
12651230666.666666 0.2671856932245344 0.9636450619060766 -4.2678637466800896e-17 -6.735634144763457e-17 -4.2678637466800896e-17 -6.735634144763457e-17 0.2671850830969982 0.9636452310732885
12651848000.0 0.27548429391035867 0.9613055725462913 -4.325529263910645e-17 -6.696895276604096e-17 -4.325529263910645e-17 -6.696895276604096e-17 0.27548368529375933 0.9613057469592132
12652465333.333334 0.2837624150960698 0.9588946197464496 -4.38284400459837e-17 -6.657663295357141e-17 -4.38284400459837e-17 -6.657663295357141e-17 0.2837618080355023 0.9588947993916042
12653082666.666666 0.2920194413862082 0.9564123827368239 -4.439803757089047e-17 -6.617941370114338e-17 -4.439803757089047e-17 -6.617941370114338e-17 0.29201883592664746 0.9564125676003468
12653700000.0 0.3002547589536732 0.9538590460469056 -4.496404338300671e-17 -6.577732705893141e-17 -4.496404338300671e-17 -6.577732705893141e-17 0.3002541551399706 0.9538592361145454
12654317333.333334 0.30846775558508177 0.9512347994917683 -4.552641594027466e-17 -6.537040543381048e-17 -4.552641594027466e-17 -6.537040543381048e-17 0.3084671534619619 0.9512349947488877
12654934666.666666 0.3166578207263898 0.9485398381579219 -4.608511399244367e-17 -6.49586815867539e-17 -4.608511399244367e-17 -6.49586815867539e-17 0.31665722033844734 0.9485400385895
12655552000.0 0.3248243455283884 0.9457743623887763 -4.6640096584091887e-17 -6.454218863020547e-17 -4.6640096584091887e-17 -6.454218863020547e-17 0.32482374692008487 0.9457745679794095
12656169333.333334 0.33296672289166984 0.9429385777698481 -4.719132305759709e-17 -6.412096002544621e-17 -4.719132305759709e-17 -6.412096002544621e-17 0.3329661261073298 0.9429387885037497
12656786666.666666 0.34108434751213534 0.9400326951133472 -4.773875305612893e-17 -6.369502957990162e-17 -4.773875305612893e-17 -6.369502957990162e-17 0.34108375259594376 0.9400329109743502
12657404000.0 0.3491766159256979 0.9370569304426064 -4.828234652657207e-17 -6.32644314444577e-17 -4.828234652657207e-17 -6.32644314444577e-17 0.3491760229216963 0.9370571514141646
12658021333.333334 0.3572429265533048 0.9340115049759679 -4.882206372245404e-17 -6.28292001107304e-17 -4.882206372245404e-17 -6.28292001107304e-17 0.3572423355053886 0.9340117310411563
12658638666.666666 0.36528267974547296 0.9308966451104057 -4.935786520683651e-17 -6.23893704083203e-17 -4.935786520683651e-17 -6.23893704083203e-17 0.36528209069738743 0.9308968762519225
12659256000.0 0.3732952778272377 0.9277125824045541 -4.988971185519165e-17 -6.194497750203286e-17 -4.988971185519165e-17 -6.194497750203286e-17 0.3732946908225758 0.9277128186047227
12659873333.333334 0.38128012514218695 0.9244595535616473 -5.041756485823879e-17 -6.149605688908883e-17 -5.041756485823879e-17 -6.149605688908883e-17 0.381279540224385 0.9244597948024154
12660490666.666666 0.389236628096848 0.9211378004118804 -5.094138572476098e-17 -6.10426443963053e-17 -5.094138572476098e-17 -6.10426443963053e-17 0.38923604530918315 0.9211380466748235
12661108000.0 0.39716419520502705 0.9177475698943509 -5.1461136284424005e-17 -6.058477617722992e-17 -5.1461136284424005e-17 -6.058477617722992e-17 0.39716361459061333 0.9177478211606719
12661725333.333334 0.4050622371315142 0.9142891140388004 -5.197677869051138e-17 -6.0122488709301e-17 -5.197677869051138e-17 -6.0122488709301e-17 0.40506165873330124 0.9142893702893348
12662342666.666666 0.4129301667360308 0.9107626899468361 -5.2488275422692245e-17 -5.965581879093445e-17 -5.2488275422692245e-17 -5.965581879093445e-17 0.41292959059679807 0.9107629511620481
12662960000.0 0.42076739911684613 0.9071685597728167 -5.29955892897359e-17 -5.918480353861092e-17 -5.29955892897359e-17 -5.918480353861092e-17 0.42076682527920156 0.9071688259328048
12663577333.333334 0.4285733516542376 0.9035069907043862 -5.3498683432195185e-17 -5.87094803839443e-17 -5.3498683432195185e-17 -5.87094803839443e-17 0.42857278016061356 0.9035072617888824
12664194666.666666 0.4363474440539017 0.8997782549425547 -5.399752132507927e-17 -5.822988707071457e-17 -5.399752132507927e-17 -5.822988707071457e-17 0.43634687494655294 0.8997785309309283
12664812000.0 0.44408909838994237 0.8959826296815417 -5.449206678048954e-17 -5.774606165188665e-17 -5.449206678048954e-17 -5.774606165188665e-17 0.44408853171094087 0.8959829105527976
12665429333.333334 0.4517977391479337 0.8921203970881166 -5.498228395024066e-17 -5.725804248659637e-17 -5.498228395024066e-17 -5.725804248659637e-17 0.4517971749391678 0.8921206828209
12666046666.666666 0.4594727932676547 0.8881918442806499 -5.54681373284287e-17 -5.676586823713939e-17 -5.54681373284287e-17 -5.676586823713939e-17 0.4594722315708251 0.888192134853247
12666664000.0 0.4671136901858161 0.8841972633077029 -5.59495917540127e-17 -5.626957786589896e-17 -5.59495917540127e-17 -5.626957786589896e-17 0.4671131310424324 0.884197558698042
12667281333.333334 0.47471986187822435 0.8801369511264495 -5.642661241332925e-17 -5.576921063229177e-17 -5.642661241332925e-17 -5.576921063229177e-17 0.4747193053296021 0.8801372513121021
12667898666.666666 0.4822907429022346 0.8760112095804788 -5.689916484260328e-17 -5.5264806089668595e-17 -5.689916484260328e-17 -5.5264806089668595e-17 0.48229018898949255 0.8760115145386626
12668516000.0 0.48982577043875997 0.8718203453773706 -5.736721493043125e-17 -5.475640408219345e-17 -5.736721493043125e-17 -5.475640408219345e-17 0.48982521920281724 0.8718206550849512
12669133333.333334 0.49732438433398773 0.8675646700659627 -5.783072892021381e-17 -5.4244044741726964e-17 -5.783072892021381e-17 -5.4244044741726964e-17 0.49732383581556033 0.8675649844994547
12669750666.666666 0.5047860271411198 0.8632445000131351 -5.82896734125989e-17 -5.372776848464769e-17 -5.82896734125989e-17 -5.372776848464769e-17 0.5047854813807177 0.8632448191487042
