! Parameters = {f0=12700.012000; bw=77.238000; Q=6100.000000; N=10; m_0_1=1.207502; m_1_1=-0.652208; m_1_2=1.042314; m_2_2=-0.652857; m_2_3=0.679277; m_2_8=-0.002561; m_2_9=0.034143; m_3_3=-0.654794; m_3_4=0.567806; m_3_7=-0.001961; m_3_8=-0.099049; m_3_9=-0.002561; m_4_4=-0.657719; m_4_5=0.404141; m_4_6=0.001556; m_4_7=-0.119598; m_4_8=-0.001961; m_5_5=-0.657337; m_5_6=0.811496; m_5_7=0.001556; m_6_6=-0.657338; m_6_7=0.404483; m_7_7=-0.657705; m_7_8=0.567924; m_8_8=-0.654796; m_8_9=0.679590; m_9_9=-0.652862; m_9_10=1.043392; m_10_10=-0.652218; m_10_11=1.208297}
!
! Created with skrf (http://scikit-rf.org).
# Hz S RI R 50.0 
!freq ReS11 ImS11 ReS21 ImS21 ReS12 ImS12 ReS22 ImS22
12607400000.0 0.6793216634471623 0.7338406349959239 -7.015024073323943e-17 -4.166481294466956e-17 -7.015024073323943e-17 -4.166481294466956e-17 0.6793211965092316 0.7338410672435184
12608017333.333334 0.6856623494921855 0.7279197362956277 -7.049888353669729e-17 -4.104038107440544e-17 -7.049888353669729e-17 -4.104038107440544e-17 0.6856618863443621 0.7279201725563944
12608634666.666666 0.6919514316677017 0.7219440533814643 -7.084197394034813e-17 -4.041304098683394e-17 -7.084197394034813e-17 -4.041304098683394e-17 0.6919509723444696 0.7219444936221783
12609252000.0 0.6981884366489534 0.7159140359914246 -7.11794877688733e-17 -3.978284200242449e-17 -7.11794877688733e-17 -3.978284200242449e-17 0.6981879811845059 0.7159144801785648
12609869333.333334 0.7043728950306859 0.7098301379526866 -7.151140128460856e-17 -3.9149833641849115e-17 -7.151140128460856e-17 -3.9149833641849115e-17 0.7043724434589225 0.7098305860524382
12610486666.666666 0.7105043413622315 0.7036928171476972 -7.183769118919853e-17 -3.851406562209673e-17 -7.183769118919853e-17 -3.851406562209673e-17 0.7105038937167545 0.7036932691259533
12611104000.0 0.7165823141828204 0.69750253547943 -7.215833462521685e-17 -3.787558785257121e-17 -7.215833462521685e-17 -3.787558785257121e-17 0.7165818704969347 0.6975029913017969
12611721333.333334 0.7226063560560932 0.6912597588368462 -7.2473309177737e-17 -3.723445043120772e-17 -7.2473309177737e-17 -3.723445043120772e-17 0.7226059163628018 0.6912602184686428
12612338666.666666 0.7285760136045869 0.684964957059768 -7.278259287589302e-17 -3.6590703640526207e-17 -7.278259287589302e-17 -3.6590703640526207e-17 0.7285755779365888 0.6849654204660307
12612956000.0 0.7344908375440116 0.6786186039033539 -7.308616419438472e-17 -3.594439794371353e-17 -7.308616419438472e-17 -3.594439794371353e-17 0.7344904059337004 0.6786190710488386
12613573333.333334 0.7403503827167353 0.672221177002795 -7.338400205495506e-17 -3.5295583980681364e-17 -7.338400205495506e-17 -3.5295583980681364e-17 0.7403499551961962 0.6722216478519795
12614190666.666666 0.7461542081256367 0.665773157836995 -7.367608582783482e-17 -3.464431256410528e-17 -7.367608582783482e-17 -3.464431256410528e-17 0.7461537847266426 0.6657736323540808
12614808000.0 0.7519018769670603 0.6592750316925801 -7.396239533315367e-17 -3.3990634675450225e-17 -7.396239533315367e-17 -3.3990634675450225e-17 0.7519014577210723 0.6592755098414976
12615425333.333334 0.7575929566637712 0.6527272876272958 -7.42429108423063e-17 -3.3334601461005693e-17 -7.42429108423063e-17 -3.3334601461005693e-17 0.757592541601934 0.6527277693717053
12616042666.666666 0.7632270188975654 0.6461304184331339 -7.451761307929791e-17 -3.267626422787805e-17 -7.451761307929791e-17 -3.267626422787805e-17 0.7632266080507062 0.6461309037364285
12616660000.0 0.7688036396413762 0.6394849205993944 -7.478648322203905e-17 -3.2015674440005926e-17 -7.478648322203905e-17 -3.2015674440005926e-17 0.7688032330400021 0.639485409424703
12617277333.333334 0.7743223991913528 0.6327912942751249 -7.504950290362115e-17 -3.13528837141292e-17 -7.504950290362115e-17 -3.13528837141292e-17 0.7743219968656483 0.6327917865853153
12617894666.666666 0.7797828821982292 0.6260500432317403 -7.530665421353771e-17 -3.0687943815792417e-17 -7.530665421353771e-17 -3.0687943815792417e-17 0.7797824841780534 0.6260505389894208
12618512000.0 0.7851846776988357 0.6192616748248005 -7.555791969889238e-17 -3.0020906655282783e-17 -7.555791969889238e-17 -3.0020906655282783e-17 0.7851842840137216 0.6192621739923243
12619129333.333334 0.7905273791468324 0.6124266999560686 -7.580328236555047e-17 -2.935182428361238e-17 -7.580328236555047e-17 -2.935182428361238e-17 0.790526989825984 0.6124272024955365
12619746666.666666 0.7958105844433618 0.6055456330349972 -7.60427256792666e-17 -2.868074888846094e-17 -7.60427256792666e-17 -2.868074888846094e-17 0.7958101995156512 0.6055461389082586
12620364000.0 0.8010338959674466 0.5986189919398265 -7.627623356677991e-17 -2.8007732790098815e-17 -7.627623356677991e-17 -2.8007732790098815e-17 0.8010335154614124 0.5986195011084846
12620981333.333334 0.8061969206056243 0.5916472979789985 -7.650379041685432e-17 -2.7332828437355686e-17 -7.650379041685432e-17 -2.7332828437355686e-17 0.8061965445494699 0.5916478104044118
12621598666.666666 0.81129926978184 0.584631075851509 -7.67253810813104e-17 -2.6656088403505028e-17 -7.67253810813104e-17 -2.6656088403505028e-17 0.8112988982034323 0.5846315914947958
12622216000.0 0.8163405594864905 0.5775708536076969 -7.694099087599651e-17 -2.5977565382207814e-17 -7.694099087599651e-17 -2.5977565382207814e-17 0.8163401924133548 0.5775713724297357
12622833333.333334 0.8213204103054056 0.5704671626093828 -7.715060558174225e-17 -2.529731218339869e-17 -7.715060558174225e-17 -2.529731218339869e-17 0.821320047764726 0.5704676845708171
12623450666.666666 0.8262384474483897 0.5633205374899048 -7.735421144525929e-17 -2.4615381729212822e-17 -7.735421144525929e-17 -2.4615381729212822e-17 0.8262380894670065 0.563321062551146
12624068000.0 0.8310943007773947 0.5561315161139259 -7.755179518002422e-17 -2.3931827049850982e-17 -7.755179518002422e-17 -2.3931827049850982e-17 0.8310939473818032 0.556132044235156
12624685333.333334 0.835887604834523 0.5489006395367434 -7.774334396711038e-17 -2.3246701279481622e-17 -7.774334396711038e-17 -2.3246701279481622e-17 0.8358872560508699 0.5489011706779177
12625302666.666666 0.8406179988692435 0.5416284519639909 -7.792884545598848e-17 -2.2560057652126145e-17 -7.792884545598848e-17 -2.2560057652126145e-17 0.8406176547233274 0.5416289860848421
12625920000.0 0.8452851268659076 0.5343155007101388 -7.810828776529595e-17 -2.187194949751538e-17 -7.810828776529595e-17 -2.187194949751538e-17 0.8452847873831745 0.5343160377701787
12626537333.333334 0.8498886375701988 0.5269623361578237 -7.828165948355893e-17 -2.118243023698288e-17 -7.828165948355893e-17 -2.118243023698288e-17 0.8498883027757408 0.5269628761163468
12627154666.666666 0.8544281845157855 0.5195695117160929 -7.844894966989e-17 -2.049155337930824e-17 -7.844894966989e-17 -2.049155337930824e-17 0.8544278544343398 0.5195700545321796
12627772000.0 0.8589034260503782 0.5121375837787763 -7.861014785464305e-17 -1.9799372516577467e-17 -7.861014785464305e-17 -1.9799372516577467e-17 0.858903100706325 0.5121381294112962
12628389333.333334 0.8633140253612825 0.5046671116828793 -7.876524404002962e-17 -1.9105941320049916e-17 -7.876524404002962e-17 -1.9105941320049916e-17 0.8633137047786436 0.504667660090494
12629006666.666666 0.86765965050101 0.4971586576660472 -7.891422870070513e-17 -1.841131353599152e-17 -7.891422870070513e-17 -1.841131353599152e-17 0.8676593347034461 0.4971592088072136
12629624000.0 0.8719399744120007 0.48961278682469134 -7.90570927843144e-17 -1.7715542981526526e-17 -7.90570927843144e-17 -1.7715542981526526e-17 0.8719396634228099 0.4896133406576644
12630241333.333334 0.8761546749514374 0.48203006707111373 -7.919382771199998e-17 -1.7018683540482932e-17 -7.919382771199998e-17 -1.7018683540482932e-17 0.876154368793554 0.4820306235539502
12630858666.666666 0.8803034349153087 0.4744110690910884 -7.932442537887705e-17 -1.6320789159225637e-17 -7.932442537887705e-17 -1.6320789159225637e-17 0.8803031336113016 0.4744116281816497
12631476000.0 0.8843859420624777 0.4667563663005625 -7.944887815447111e-17 -1.5621913842483978e-17 -7.944887815447111e-17 -1.5621913842483978e-17 0.8843856456345475 0.46675692795651785
12632093333.333334 0.8884018891380395 0.45906653480274806 -7.956717888311622e-17 -1.492211164919461e-17 -7.956717888311622e-17 -1.492211164919461e-17 0.8884015976080184 0.459067098981578
12632710666.666666 0.8923509738964409 0.4513421533447924 -7.967932088431857e-17 -1.422143668833283e-17 -7.967932088431857e-17 -1.422143668833283e-17 0.8923506872857893 0.45134272000379105
12633328000.0 0.8962328991243919 0.44358380327388985 -7.978529795308615e-17 -1.351994311472115e-17 -7.978529795308615e-17 -1.351994311472115e-17 0.8962326174541988 0.44358437237016957
12633945333.333334 0.9000473726630156 0.43579206849395996 -7.988510436021732e-17 -1.2817685124867895e-17 -7.988510436021732e-17 -1.2817685124867895e-17 0.9000470959539961 0.43579263998445367
12634562666.666666 0.9037941074300039 0.42796753542137245 -7.99787348525536e-17 -1.2114716952795058e-17 -7.99787348525536e-17 -1.2114716952795058e-17 0.9037938357024978 0.4279681092628373
12635180000.0 0.9074728214411227 0.42011079294101644 -8.006618465319944e-17 -1.1411092865844505e-17 -8.006618465319944e-17 -1.1411092865844505e-17 0.9074725547150924 0.42011136909003644
12635797333.333334 0.9110832378314833 0.4122224323618775 -8.014744946170025e-17 -1.0706867160515063e-17 -8.014744946170025e-17 -1.0706867160515063e-17 0.911082976126513 0.4122230107748675
12636414666.666666 0.914625084876367 0.4043030473725607 -8.022252545418774e-17 -1.0002094158274e-17 -8.022252545418774e-17 -1.0002094158274e-17 0.9146248282116624 0.4043036280057699
12637032000.0 0.9180980960116674 0.396353233996636 -8.029140928348655e-17 -9.29682820138186e-18 -8.029140928348655e-17 -9.29682820138186e-18 0.9180978444060512 0.39635381680615006
12637649333.333334 0.9215020098539933 0.38837359054767495 -8.035409807918596e-17 -8.591123648703682e-18 -8.035409807918596e-17 -8.591123648703682e-18 0.9215017633259063 0.38837417548942016
12638266666.666666 0.9248365702202626 0.38036471758440304 -8.041058944767186e-17 -7.88503487154562e-18 -8.041058944767186e-17 -7.88503487154562e-18 0.9248363287877623 0.3803653046141501
12638884000.0 0.9281015261470761 0.37232721786529444 -8.046088147212656e-17 -7.178616249458097e-18 -8.046088147212656e-17 -7.178616249458097e-18 0.9281012898278339 0.3723278069386605
12639501333.333334 0.9312966319095327 0.3642616963033608 -8.050497271248747e-17 -6.47192216607411e-18 -8.050497271248747e-17 -6.47192216607411e-18 0.9312964007208345 0.3642622873758143
12640118666.666666 0.9344216470397001 0.35616875992070846 -8.054286220537253e-17 -5.765007004928397e-18 -8.054286220537253e-17 -5.765007004928397e-18 0.9344214209984429 0.3561693529475712
12640736000.0 0.9374763363449031 0.3480490178023473 -8.057454946396854e-17 -5.057925145262099e-18 -8.057454946396854e-17 -5.057925145262099e-18 0.9374761154675961 0.3480496127387987
12641353333.333334 0.9404604699251108 0.33990308105117356 -8.060003447787984e-17 -4.35073095789818e-18 -8.060003447787984e-17 -4.35073095789818e-18 0.9404602542278712 0.33990367785225317
12641970666.666666 0.9433738231905311 0.3317315627412065 -8.061931771294594e-17 -3.643478801015989e-18 -8.061931771294594e-17 -3.643478801015989e-18 0.9433736126890856 0.3317321613618183
12642588000.0 0.9462161768783333 0.3235350778719264 -8.063240011101759e-17 -2.9362230160223687e-18 -8.063240011101759e-17 -2.9362230160223687e-18 0.9462159715880173 0.3235356782668424
12643205333.333334 0.9489873170692398 0.31531424332174995 -8.063928308969969e-17 -2.2290179233661158e-18 -8.063928308969969e-17 -2.2290179233661158e-18 0.9489871170049942 0.31531484544561234
12643822666.666666 0.9516870352035969 0.3070696778016822 -8.063996854205589e-17 -1.5219178183854442e-18 -8.063996854205589e-17 -1.5219178183854442e-18 0.9516868403799674 0.3070702816090078
12644440000.0 0.9543151280970514 0.29880200180880573 -8.063445883627797e-17 -8.149769671429865e-19 -8.063445883627797e-17 -8.149769671429865e-19 0.9543149385281882 0.29880260725398883
12645057333.333334 0.9568713979558792 0.29051183757947313 -8.062275681531821e-17 -1.0824960228756233e-19 -8.062275681531821e-17 -1.0824960228756233e-19 0.9568712136555354 0.2905124446167895
12645674666.666666 0.9593556523918144 0.2821998090426674 -8.060486579648605e-17 5.98210081114238e-19 -8.060486579648605e-17 5.98210081114238e-19 0.9593554733733456 0.2822004176262773
12646292000.0 0.9617677044366475 0.27386654177263486 -8.05807895710075e-17 1.3043479297213285e-18 -8.05807895710075e-17 1.3043479297213285e-18 0.9617675307130106 0.27386715185658667
12646909333.333334 0.964107372556133 0.2655126629423772 -8.055053240354992e-17 2.0101098360474307e-18 -8.055053240354992e-17 2.0101098360474307e-18 0.9641072041398842 0.26551327448061085
12647526666.666666 0.966374480663788 0.25713880127595695 -8.051409903170923e-17 2.7154417426035676e-18 -8.051409903170923e-17 2.7154417426035676e-18 0.9663743175670851 0.25713941422230785
12648144000.0 0.9685688581340881 0.24874558700139854 -8.047149466546118e-17 3.4202896460327917e-18 -8.047149466546118e-17 3.4202896460327917e-18 0.9685687003686856 0.24874620130960007
12648761333.333334 0.9706903398152983 0.24033365180328337 -8.042272498657748e-17 4.124599601232306e-18 -8.042272498657748e-17 4.124599601232306e-18 0.970690187392549 0.24033426742697134
12649378666.666666 0.9727387660419261 0.2319036287751265 -8.036779614800597e-17 4.828317725455773e-18 -8.036779614800597e-17 4.828317725455773e-18 0.9727386189727792 0.231904245667842
12649996000.0 0.9747139826467244 0.2234561523717841 -8.030671477321271e-17 5.531390202454957e-18 -8.030671477321271e-17 5.531390202454957e-18 0.9747138409417252 0.22345677048697732
12650613333.333334 0.9766158409723251 0.21499185836156495 -8.023948795549125e-17 6.233763286559786e-18 -8.023948795549125e-17 6.233763286559786e-18 0.9766157046416147 0.21499247765259868
12651230666.666666 0.9784441978823595 0.2065113837786868 -8.016612325723442e-17 6.935383306785727e-18 -8.016612325723442e-17 6.935383306785727e-18 0.9784440669356729 0.20651200419883983
12651848000.0 0.9801989157723093 0.19801536687497137 -8.00866287091698e-17 7.636196670929152e-18 -8.00866287091698e-17 7.636196670929152e-18 0.9801987902189767 0.19801598837744233
12652465333.333334 0.9818798625798303 0.18950444707197578 -8.0001012809561e-17 8.336149869648319e-18 -8.0001012809561e-17 8.336149869648319e-18 0.9818797424287726 0.18950506960988592
12653082666.666666 0.9834869117946453 0.18097926491306282 -7.990928452337443e-17 9.035189480520429e-18 -7.990928452337443e-17 9.035189480520429e-18 0.9834867970543789 0.18097988843946056
12653700000.0 0.9850199424681723 0.1724404620146921 -7.981145328140448e-17 9.733262172149534e-18 -7.981145328140448e-17 9.733262172149534e-18 0.9850198331468035 0.17244108648255574
12654317333.333334 0.9864788392225035 0.16388868101874435 -7.970752897937342e-17 1.0430314708177303e-17 -7.970752897937342e-17 1.0430314708177303e-17 0.9864787353277312 0.16388930638098603
12654934666.666666 0.9878634922591868 0.1553245655436529 -7.95975219769867e-17 1.1126293951362079e-17 -7.95975219769867e-17 1.1126293951362079e-17 0.987863393798301 0.15532519175312218
12655552000.0 0.9891737973674499 0.14674876013615942 -7.948144309695524e-17 1.1821146867625977e-17 -7.948144309695524e-17 1.1821146867625977e-17 0.9891737043473294 0.14674938714564645
12656169333.333334 0.9904096559320187 0.13816191022297317 -7.935930362398966e-17 1.2514820530049648e-17 -7.935930362398966e-17 1.2514820530049648e-17 0.9904095683591336 0.13816253798521266
12656786666.666666 0.9915709749405969 0.12956466206183023 -7.923111530374731e-17 1.320726212293397e-17 -7.923111530374731e-17 1.320726212293397e-17 0.9915708928210057 0.12956529052950475
12657404000.0 0.9926576669908113 0.12095766269319211 -7.909689034175516e-17 1.389841894578168e-17 -7.909689034175516e-17 1.389841894578168e-17 0.9926575903301637 0.12095829181893601
12658021333.333334 0.9936696502968368 0.11234155989126812 -7.895664140229013e-17 1.458823841732051e-17 -7.895664140229013e-17 1.458823841732051e-17 0.993669579100368 0.11234218962767048
12658638666.666666 0.9946068486954976 0.10371700211562854 -7.881038160723287e-17 1.527666807946381e-17 -7.881038160723287e-17 1.527666807946381e-17 0.9946067829680328 0.10371763241523733
12659256000.0 0.9954691916520628 0.0950846384618931 -7.865812453487427e-17 1.5963655601329735e-17 -7.865812453487427e-17 1.5963655601329735e-17 0.9954691313980161 0.09508526927721861
12659873333.333334 0.9962566142655055 0.08644511861333128 -7.849988421870251e-17 1.6649148783170737e-17 -7.849988421870251e-17 1.6649148783170737e-17 0.9962565594888766 0.0864457498968494
12660490666.666666 0.996969057273395 0.07779909279188114 -7.833567514614495e-17 1.733309556034741e-17 -7.833567514614495e-17 1.733309556034741e-17 0.9969690079777717 0.07779972449603728
12661108000.0 0.9976064670563902 0.06914721170884507 -7.816551225727726e-17 1.801544400727684e-17 -7.816551225727726e-17 1.801544400727684e-17 0.9976064232449494 0.06914784378605773
12661725333.333334 0.9981687956422287 0.06049012651651112 -7.798941094350361e-17 1.8696142341351165e-17 -7.798941094350361e-17 1.8696142341351165e-17 0.9981687573177315 0.06049075891917517
12662342666.666666 0.9986560007093733 0.051828488758607856 -7.780738704619675e-17 1.937513892686571e-17 -7.780738704619675e-17 1.937513892686571e-17 0.998655967874169 0.051829121439098444
12662960000.0 0.9990680455901757 0.043162950321637 -7.761945685530742e-17 2.005238227892099e-17 -7.761945685530742e-17 2.005238227892099e-17 0.9990680182462 0.04316358323231296
12663577333.333334 0.9994048992736485 0.0344941633855562 -7.742563710793694e-17 2.0727821067325053e-17 -7.742563710793694e-17 2.0727821067325053e-17 0.9994048774224242 0.03449479647876372
12664194666.666666 0.9996665364077919 0.025822780374893828 -7.722594498688175e-17 2.1401404120457907e-17 -7.722594498688175e-17 2.1401404120457907e-17 0.9996665200504273 0.025823413602969972
12664812000.0 0.9998529373015039 0.017149453909561435 -7.702039811913598e-17 2.2073080429155556e-17 -7.702039811913598e-17 2.2073080429155556e-17 0.9998529264386948 0.017150087224837803
12665429333.333334 0.9999640879260648 0.008474836755623062 -7.680901457436923e-17 2.274279915054686e-17 -7.680901457436923e-17 2.274279915054686e-17 0.9999640825580931 0.008475470110429312
12666046666.666666 0.9999999799161889 -0.00020041822349182753 -7.659181286336526e-17 2.3410509611898352e-17 -7.659181286336526e-17 2.3410509611898352e-17 0.9999999800429219 -0.00019978487682434831
12666664000.0 0.9999606105706552 -0.008875658116663658 -7.636881193642649e-17 2.407616131444407e-17 -7.636881193642649e-17 2.407616131444407e-17 0.9999606161915494 -0.008875024825798352
12667281333.333334 0.9998459828525145 -0.017550230013596478 -7.614003118175253e-17 2.4739703937181393e-17 -7.614003118175253e-17 2.4739703937181393e-17 0.999845993966611 -0.017549596826187907
12667898666.666666 0.9996561053888624 -0.026223481054468478 -7.590549042377956e-17 2.5401087340668878e-17 -7.590549042377956e-17 2.5401087340668878e-17 0.9996561219947879 -0.026222848018158735
12668516000.0 0.9993909924701858 -0.03489475847886796 -7.566520992148229e-17 2.606026157082156e-17 -7.566520992148229e-17 2.606026157082156e-17 0.999391014566157 -0.034894125641283205
12669133333.333334 0.9990506640493019 -0.04356340967475078 -7.541921036666169e-17 2.6717176862639082e-17 -7.541921036666169e-17 2.6717176862639082e-17 0.9990506916331198 -0.04356277708349749
12669750666.666666 0.9986351457398388 -0.05222878222792589 -7.516751288217775e-17 2.7371783643980004e-17 -7.516751288217775e-17 2.7371783643980004e-17 0.998635178808893 -0.052228149930587414
12670368000.0 0.9981444688143204 -0.06089022397084456 -7.491013902016097e-17 2.802403253928992e-17 -7.491013902016097e-17 2.802403253928992e-17 0.9981445073655877 -0.06088959201497748
