! Parameters = {f0=12700.012000; bw=77.238000; Q=6100.000000; N=10; m_0_1=1.152247; m_1_1=-1.481037; m_1_2=0.987059; m_2_2=-1.481686; m_2_3=0.624022; m_2_8=-0.005324; m_2_9=0.031380; m_3_3=-1.483623; m_3_4=0.512551; m_3_7=-0.004724; m_3_8=-0.101812; m_3_9=-0.005324; m_4_4=-1.486548; m_4_5=0.348886; m_4_6=-0.001207; m_4_7=-0.122361; m_4_8=-0.004724; m_5_5=-1.486166; m_5_6=0.756241; m_5_7=-0.001207; m_6_6=-1.486167; m_6_7=0.349228; m_7_7=-1.486534; m_7_8=0.512669; m_8_8=-1.483625; m_8_9=0.624335; m_9_9=-1.481691; m_9_10=0.988137; m_10_10=-1.481047; m_10_11=1.153042}
!
! Created with skrf (http://scikit-rf.org).
# Hz S RI R 50.0 
!freq ReS11 ImS11 ReS21 ImS21 ReS12 ImS12 ReS22 ImS22
12607400000.0 -0.938746540061089 0.34460837703571384 4.91546286691779e-17 -3.658483942408731e-17 4.91546286691779e-17 -3.658483942408731e-17 -0.9387467493310252 0.34460780696363813
12608017333.333334 -0.9362965989524947 0.35121030564299555 4.888293355413264e-17 -3.6927171043961224e-17 4.888293355413264e-17 -3.6927171043961224e-17 -0.9362968122211346 0.35120973708653946
12608634666.666666 -0.9338002290752997 0.3577948185465699 4.860885851835587e-17 -3.726749032021386e-17 4.860885851835587e-17 -3.726749032021386e-17 -0.9338004463316769 0.35779425153377714
12609252000.0 -0.931257554218698 0.3643615892358351 4.833241842938616e-17 -3.760578073796053e-17 4.833241842938616e-17 -3.760578073796053e-17 -0.931257775451649 0.3643610237946699
12609869333.333334 -0.9286687004680696 0.3709102920799052 4.8053628269136695e-17 -3.7942025891909096e-17 4.8053628269136695e-17 -3.7942025891909096e-17 -0.9286689256662359 0.3709097282382514
12610486666.666666 -0.9260337961987 0.377440602343838 4.777250313309829e-17 -3.8276209487139895e-17 4.777250313309829e-17 -3.8276209487139895e-17 -0.9260340253505255 0.37744004012949667
12611104000.0 -0.9233529720693782 0.3839521962048148 4.748905822951767e-17 -3.860831533990217e-17 4.748905822951767e-17 -3.860831533990217e-17 -0.9233532051631143 0.38395163564550455
12611721333.333334 -0.9206263610159854 0.3904447507680419 4.72033088785942e-17 -3.8938327378376855e-17 4.72033088785942e-17 -3.8938327378376855e-17 -0.9206265980396878 0.3904441918913961
12612338666.666666 -0.9178540982448822 0.3969179440828151 4.6915270511643203e-17 -3.926622964346676e-17 4.6915270511643203e-17 -3.926622964346676e-17 -0.9178543391864126 0.39691738691638084
12612956000.0 -0.9150363212261108 0.403371455158692 4.6624958670276017e-17 -3.959200628955356e-17 4.6624958670276017e-17 -3.959200628955356e-17 -0.9150365660731389 0.403370899729929
12613573333.333334 -0.9121731696867725 0.4098049639809661 4.6332389005568655e-17 -3.991564158525746e-17 4.6332389005568655e-17 -3.991564158525746e-17 -0.9121734184267754 0.4098044103172456
12614190666.666666 -0.9092647856038949 0.4162181515270056 4.603757727722128e-17 -4.0237119914194116e-17 4.603757727722128e-17 -4.0237119914194116e-17 -0.9092650382241574 0.4162175996556083
12614808000.0 -0.9063113131975271 0.4226106997817597 4.5740539352711586e-17 -4.055642577572696e-17 4.5740539352711586e-17 -4.055642577572696e-17 -0.9063115696851427 0.4226101497298745
12615425333.333334 -0.9033128989235436 0.42898229175363256 4.5441291206454515e-17 -4.08735437857003e-17 4.5441291206454515e-17 -4.08735437857003e-17 -0.9033131592654158 0.4289817435483559
12616042666.666666 -0.9002696914663447 0.4353326114902791 4.5139848918939605e-17 -4.118845867718579e-17 4.5139848918939605e-17 -4.118845867718579e-17 -0.9002699556491881 0.43533206515861356
12616660000.0 -0.897181841731571 0.44166134409409386 4.4836228675881544e-17 -4.1501155301201575e-17 4.4836228675881544e-17 -4.1501155301201575e-17 -0.8971821097419085 0.44166079966294536
12617277333.333334 -0.8940495028385038 0.44796817573805325 4.4530446767346346e-17 -4.181161862744761e-17 4.4530446767346346e-17 -4.181161862744761e-17 -0.8940497746626723 0.4479676332342319
12617894666.666666 -0.8908728301126412 0.4542527936809497 4.422251958689812e-17 -4.211983374500613e-17 4.422251958689812e-17 -4.211983374500613e-17 -0.8908731057367892 0.4542522531311672
12618512000.0 -0.8876519810777532 0.460514886283381 4.3912463630703026e-17 -4.242578586307647e-17 4.3912463630703026e-17 -4.242578586307647e-17 -0.887652260487841 0.4605143477142489
12619129333.333334 -0.8843871154483491 0.46675414302264506 4.360029549667738e-17 -4.272946031165195e-17 4.360029549667738e-17 -4.272946031165195e-17 -0.8843873986301521 0.46675360646067493
12619746666.666666 -0.8810783951215286 0.47297025450859503 4.32860318835829e-17 -4.3030842542240324e-17 4.32860318835829e-17 -4.3030842542240324e-17 -0.8810786820606367 0.47296971998019627
12620364000.0 -0.8777259841690582 0.47916291249877935 4.29696895901484e-17 -4.332991812854537e-17 4.29696895901484e-17 -4.332991812854537e-17 -0.8777262748508751 0.47916238003025724
12620981333.333334 -0.8743300488292437 0.4853318099136989 4.26512855141786e-17 -4.3626672767151007e-17 4.26512855141786e-17 -4.3626672767151007e-17 -0.8743303432389896 0.4853312795312546
12621598666.666666 -0.8708907574986673 0.4914766408520888 4.233083665165422e-17 -4.3921092278202045e-17 4.233083665165422e-17 -4.3921092278202045e-17 -0.8708910556213791 0.4914761125818174
12622216000.0 -0.8674082807237893 0.4975971006061582 4.2008360095826364e-17 -4.421316260608005e-17 4.2008360095826364e-17 -4.421316260608005e-17 -0.8674085825443215 0.49759657447404754
12622833333.333334 -0.8638827911925794 0.5036928856765537 4.168387303631756e-17 -4.450286982006156e-17 4.168387303631756e-17 -4.450286982006156e-17 -0.863883096695604 0.5036923617084827
12623450666.666666 -0.8603144637258936 0.5097636937875062 4.1357392758205714e-17 -4.479020011498182e-17 4.1357392758205714e-17 -4.479020011498182e-17 -0.8603147728959024 0.5097631720092447
12624068000.0 -0.8567034752688386 0.5158092239017738 4.1028936641112354e-17 -4.5075139811883523e-17 4.1028936641112354e-17 -4.5075139811883523e-17 -0.8567037880901418 0.5158087043389795
12624685333.333334 -0.8530500048819324 0.5218291762356624 4.069852215827091e-17 -4.5357675358672576e-17 4.069852215827091e-17 -4.5357675358672576e-17 -0.8530503213386621 0.5218286589138816
12625302666.666666 -0.8493542337323344 0.5278232522737258 4.036616687562589e-17 -4.5637793330736585e-17 4.036616687562589e-17 -4.5637793330736585e-17 -0.8493545538084439 0.5278227372183911
12625920000.0 -0.8456163450847396 0.5337911547837599 4.003188845087403e-17 -4.5915480431603115e-17 4.003188845087403e-17 -4.5915480431603115e-17 -0.8456166687640034 0.5337906420201887
12626537333.333334 -0.8418365242923974 0.5397325878313733 3.9695704632560146e-17 -4.619072349354015e-17 3.9695704632560146e-17 -4.619072349354015e-17 -0.8418368515584124 0.5397320773847659
12627154666.666666 -0.8380149587878719 0.5456472567947327 3.935763325912153e-17 -4.6463509478190745e-17 3.935763325912153e-17 -4.6463509478190745e-17 -0.8380152896240605 0.5456467486901737
12627772000.0 -0.8341518380736902 0.55153486837927 3.9017692257948835e-17 -4.6733825477182047e-17 3.9017692257948835e-17 -4.6733825477182047e-17 -0.8341521724632988 0.5515343626417252
12628389333.333334 -0.830247353713131 0.5573951306319413 3.8675899644448877e-17 -4.7001658712724334e-17 3.8675899644448877e-17 -4.7001658712724334e-17 -0.8302476916392306 0.557394627286256
12629006666.666666 -0.8263016993204396 0.5632277529561275 3.833227352108506e-17 -4.7266996538216107e-17 3.833227352108506e-17 -4.7266996538216107e-17 -0.8263020407659294 0.5632272520270267
12629624000.0 -0.8223150705515003 0.569032446125646 3.7986832076428106e-17 -4.7529826438832605e-17 3.7986832076428106e-17 -4.7529826438832605e-17 -0.8223154154991047 0.5690319476377316
12630241333.333334 -0.818287665093988 0.5748089222993021 3.763959358420058e-17 -4.779013603210748e-17 3.763959358420058e-17 -4.779013603210748e-17 -0.8182880135262599 0.5748084262770532
12630858666.666666 -0.8142196826576144 0.5805568950350943 3.72905764023128e-17 -4.8047913068512665e-17 3.72905764023128e-17 -4.8047913068512665e-17 -0.8142200345569365 0.5805564015028651
12631476000.0 -0.8101113249641602 0.5862760793045098 3.693979897189287e-17 -4.830314543203151e-17 3.693979897189287e-17 -4.830314543203151e-17 -0.8101116803127447 0.5862755882865293
12632093333.333334 -0.8059627957375707 0.5919661915065206 3.6587279816324237e-17 -4.8555821140717294e-17 3.6587279816324237e-17 -4.8555821140717294e-17 -0.80596315451746 0.5919657030268897
12632710666.666666 -0.8017743006938025 0.5976269494817141 3.623303754027517e-17 -4.88059283472472e-17 3.623303754027517e-17 -4.88059283472472e-17 -0.8017746628868715 0.5976264635644064
12633328000.0 -0.7975460475305751 0.603258072526356 3.5877090828703555e-17 -4.905345533948499e-17 3.5877090828703555e-17 -4.905345533948499e-17 -0.7975464131185298 0.603257589195215
12633945333.333334 -0.7932782459171854 0.6088592814061468 3.5519458445900075e-17 -4.9298390541005913e-17 3.5519458445900075e-17 -4.9298390541005913e-17 -0.7932786148815669 0.608858800684886
12634562666.666666 -0.7889711074839798 0.6144302983702534 3.5160159234485596e-17 -4.954072251164499e-17 3.5160159234485596e-17 -4.954072251164499e-17 -0.7889714798061628 0.6144298202824544
12635180000.0 -0.7846248458119925 0.6199708471648985 3.4799212114434365e-17 -4.978043994801672e-17 3.4799212114434365e-17 -4.978043994801672e-17 -0.7846252214731875 0.6199703717340102
12635797333.333334 -0.7802396764222028 0.6254806530472637 3.443663608207704e-17 -5.001753168404017e-17 3.443663608207704e-17 -5.001753168404017e-17 -0.7802400554034554 0.6254801802966005
12636414666.666666 -0.7758158167650545 0.6309594427988445 3.407245020910844e-17 -5.025198669145039e-17 3.407245020910844e-17 -5.025198669145039e-17 -0.7758161990472481 0.6309589727515854
12637032000.0 -0.7713534862094256 0.6364069447393078 3.3706673641583467e-17 -5.0483794080308896e-17 3.3706673641583467e-17 -5.0483794080308896e-17 -0.7713538717732833 0.6364064774184972
12637649333.333334 -0.7668529060319696 0.6418228887397035 3.333932559892527e-17 -5.071294309949591e-17 3.333932559892527e-17 -5.071294309949591e-17 -0.766853294858052 0.6418224241682468
12638266666.666666 -0.7623142994059743 0.6472070062360528 3.2970425372908675e-17 -5.09394231372102e-17 3.2970425372908675e-17 -5.09394231372102e-17 -0.762314691474682 0.6472065444367168
12638884000.0 -0.7577378913904248 0.6525590302425132 3.2599992326663264e-17 -5.116322372144605e-17 3.2599992326663264e-17 -5.116322372144605e-17 -0.7577382866819999 0.6525585712379252
12639501333.333334 -0.7531239089187705 0.6578786953647061 3.2228045893648685e-17 -5.1384334520479077e-17 3.2228045893648685e-17 -5.1384334520479077e-17 -0.7531243074132982 0.6578782391773534
12640118666.666666 -0.748472580787729 0.6631657378128138 3.18546055766588e-17 -5.160274534332446e-17 3.18546055766588e-17 -5.160274534332446e-17 -0.7484729824651363 0.663165284465041
12640736000.0 -0.7437841376457678 0.6684198954148479 3.147969094677576e-17 -5.181844614021664e-17 3.147969094677576e-17 -5.181844614021664e-17 -0.743784542485828 0.6684194449288582
12641353333.333334 -0.7390588119819745 0.6736409076293158 3.1103321642381666e-17 -5.2031427003045536e-17 3.1103321642381666e-17 -5.2031427003045536e-17 -0.7390592199643031 0.6736404600271656
12641970666.666666 -0.7342968381142757 0.6788285155584093 3.0725517368106156e-17 -5.2241678165820975e-17 3.0725517368106156e-17 -5.2241678165820975e-17 -0.7342972492183361 0.6788280708620116
12642588000.0 -0.7294984521778592 0.6839824619608039 3.0346297893818756e-17 -5.2449190005102e-17 3.0346297893818756e-17 -5.2449190005102e-17 -0.7294988663829622 0.683982020191926
12643205333.333334 -0.7246638921136003 0.6891024912642699 2.9965683053587175e-17 -5.2653953040437235e-17 2.9965683053587175e-17 -5.2653953040437235e-17 -0.7246643093989042 0.6891020524445307
12643822666.666666 -0.7197933976560261 0.6941883495785908 2.958369274464883e-17 -5.2855957934787786e-17 2.958369274464883e-17 -5.2855957934787786e-17 -0.7197938180005391 0.6941879137294612
12644440000.0 -0.7148872103216859 0.6992397847078878 2.920034692637833e-17 -5.305519549494413e-17 2.920034692637833e-17 -5.305519549494413e-17 -0.7148876337042654 0.6992393518506888
12645057333.333334 -0.7099455733969926 0.704256546163307 2.881566561924475e-17 -5.3251656671939524e-17 2.881566561924475e-17 -5.3251656671939524e-17 -0.7099459997963492 0.7042561163192103
12645674666.666666 -0.7049687319263248 0.7092383851752837 2.8429668903773524e-17 -5.344533256145173e-17 2.8429668903773524e-17 -5.344533256145173e-17 -0.7049691613210209 0.7092379583653091
12646292000.0 -0.6999569326995703 0.7141850547061761 2.804237691949659e-17 -5.3636214404201836e-17 2.804237691949659e-17 -5.3636214404201836e-17 -0.6999573650680213 0.7141846309511903
12646909333.333334 -0.6949104242403114 0.7190963094620947 2.7653809863915526e-17 -5.3824293586338395e-17 2.7653809863915526e-17 -5.3824293586338395e-17 -0.6949108595607879 0.7190958887828116
12647526666.666666 -0.6898294567931402 0.7239719059054278 2.7263987991447927e-17 -5.40095616398201e-17 2.7263987991447927e-17 -5.40095616398201e-17 -0.6898298950437677 0.7239714883224057
12648144000.0 -0.6847142823114057 0.7288116022667531 2.6872931612373193e-17 -5.419201024279086e-17 2.6872931612373193e-17 -5.419201024279086e-17 -0.6847147234701686 0.728811187800397
12648761333.333334 -0.6795651544447486 0.7336151585568148 2.6480661091781834e-17 -5.4371631219943887e-17 2.6480661091781834e-17 -5.4371631219943887e-17 -0.6795655984894875 0.7336147472273712
12649378666.666666 -0.6743823285264557 0.7383823365784762 2.6087196848522545e-17 -5.4548416542878424e-17 2.6087196848522545e-17 -5.4548416542878424e-17 -0.6743827754348712 0.7383819284060352
12649996000.0 -0.6691660615608445 0.7431128999384982 2.5692559354139103e-17 -5.472235833045236e-17 2.5692559354139103e-17 -5.472235833045236e-17 -0.669166511310496 0.74311249494299
12650613333.333334 -0.663916612210408 0.7478066140593502 2.5296769131811305e-17 -5.489344884912443e-17 2.5296769131811305e-17 -5.489344884912443e-17 -0.663917064778718 0.7478062122605472
12651230666.666666 -0.6586342407832492 0.7524632461906227 2.489984675529372e-17 -5.506168051328905e-17 2.489984675529372e-17 -5.506168051328905e-17 -0.6586346961475011 0.7524628476081355
12651848000.0 -0.6533192092197838 0.7570825654209001 2.4501812847845783e-17 -5.522704588560546e-17 2.4501812847845783e-17 -5.522704588560546e-17 -0.6533196673571263 0.7570821700741796
12652465333.333334 -0.6479717810801194 0.7616643426888998 2.410268808116799e-17 -5.538953767731683e-17 2.410268808116799e-17 -5.538953767731683e-17 -0.6479722419675642 0.7616639505972325
12653082666.666666 -0.6425922215308105 0.7662083507949733 2.3702493174337487e-17 -5.554914874856047e-17 2.3702493174337487e-17 -5.554914874856047e-17 -0.6425926851452364 0.7662079619774842
12653700000.0 -0.6371807973316694 0.7707143644124151 2.330124889272561e-17 -5.570587210867667e-17 2.330124889272561e-17 -5.570587210867667e-17 -0.637181263649822 0.7707139788880644
12654317333.333334 -0.6317377768226664 0.7751821600985216 2.2898976046936217e-17 -5.585970091650165e-17 2.2898976046936217e-17 -5.585970091650165e-17 -0.6317382458211588 0.7751817778861034
12654934666.666666 -0.6262634299105593 0.7796115163057289 2.2495695491725775e-17 -5.601062848065834e-17 2.2495695491725775e-17 -5.601062848065834e-17 -0.6262639015658744 0.7796111374238722
12655552000.0 -0.6207580280554414 0.78400221339265 2.2091428124921792e-17 -5.615864825983982e-17 2.2091428124921792e-17 -5.615864825983982e-17 -0.6207585023439336 0.7840018378598176
12656169333.333334 -0.6152218442574164 0.7883540336348624 2.168619488635392e-17 -5.630375386307933e-17 2.168619488635392e-17 -5.630375386307933e-17 -0.6152223211553106 0.7883536614693479
12656786666.666666 -0.6096551530429917 0.7926667612357557 2.1280016756768856e-17 -5.644593905001825e-17 2.1280016756768856e-17 -5.644593905001825e-17 -0.6096556325263854 0.7926663924556836
12657404000.0 -0.604058230451397 0.7969401823372835 2.08729147567436e-17 -5.658519773116603e-17 2.08729147567436e-17 -5.658519773116603e-17 -0.6040587124962637 0.7969398169606107
12658021333.333334 -0.5984313540210354 0.8011740850304674 2.0464909945611564e-17 -5.672152396814714e-17 2.0464909945611564e-17 -5.672152396814714e-17 -0.5984318386032222 0.8011737230749783
12658638666.666666 -0.5927748027756486 0.8053682593659537 2.0056023420372773e-17 -5.68549119739458e-17 2.0056023420372773e-17 -5.68549119739458e-17 -0.5927752898708805 0.8053679008492631
12659256000.0 -0.5870888572104394 0.809522497364462 1.9646276314603956e-17 -5.698535611314173e-17 1.9646276314603956e-17 -5.698535611314173e-17 -0.5870893467943183 0.8095221423040115
12659873333.333334 -0.5813737992781813 0.8136365930270769 1.92356897973722e-17 -5.71128509021368e-17 1.92356897973722e-17 -5.71128509021368e-17 -0.5813742913261879 0.8136362414401341
12660490666.666666 -0.5756299123754 0.8177103423453478 1.8824285072158637e-17 -5.723739100937029e-17 1.8824285072158637e-17 -5.723739100937029e-17 -0.575630406862896 0.8177099942490083
12661108000.0 -0.5698574813280207 0.8217435433116219 1.841208337573839e-17 -5.73589712555397e-17 1.841208337573839e-17 -5.73589712555397e-17 -0.5698579782302493 0.8217431987228061
12661725333.333334 -0.5640567923775237 0.8257359959288654 1.7999105977124515e-17 -5.747758661379322e-17 1.7999105977124515e-17 -5.747758661379322e-17 -0.5640572916696092 0.8257356548643162
12662342666.666666 -0.5582281331665362 0.8296875022207219 1.758537417644385e-17 -5.759323220993539e-17 1.758537417644385e-17 -5.759323220993539e-17 -0.5582286348234886 0.8296871646970082
12662960000.0 -0.5523717927247367 0.8335978662412211 1.7170909303863858e-17 -5.770590332260844e-17 1.7170909303863858e-17 -5.770590332260844e-17 -0.5523722967214506 0.8335975322747339
12663577333.333334 -0.5464880614544517 0.8374668940845437 1.6755732718482572e-17 -5.781559538347723e-17 1.6755732718482572e-17 -5.781559538347723e-17 -0.5464885677657079 0.8374665636914952
12664194666.666666 -0.5405772311161823 0.8412943938946799 1.6339865807245174e-17 -5.79223039773976e-17 1.6339865807245174e-17 -5.79223039773976e-17 -0.54057773971665 0.8412940670911059
12664812000.0 -0.5346395948143055 0.8450801758748411 1.592332998383343e-17 -5.802602484258476e-17 1.592332998383343e-17 -5.802602484258476e-17 -0.5346401056785416 0.845079852676594
12665429333.333334 -0.5286754469823214 0.8488240522969993 1.550614668757883e-17 -5.812675387076669e-17 1.550614668757883e-17 -5.812675387076669e-17 -0.5286759600847746 0.8488237327197549
12666046666.666666 -0.5226850833685687 0.8525258375110094 1.508833738235846e-17 -5.822448710733478e-17 1.508833738235846e-17 -5.822448710733478e-17 -0.5226855986835784 0.852525521570261
12666664000.0 -0.5166688010210999 0.8561853479540954 1.4669923555489837e-17 -5.83192207514854e-17 1.4669923555489837e-17 -5.83192207514854e-17 -0.516669318522898 0.8561850356651537
12667281333.333334 -0.5106268982734814 0.8598024021596239 1.4250926716640124e-17 -5.841095115635103e-17 1.4250926716640124e-17 -5.841095115635103e-17 -0.5106274179361945 0.8598020935376183
12667898666.666666 -0.504559674729567 0.8633768207663732 1.3831368396721237e-17 -5.84996748291262e-17 1.3831368396721237e-17 -5.84996748291262e-17 -0.5045601965272164 0.863376515826249
12668516000.0 -0.4984674312488318 0.8669084265273045 1.3411270146774338e-17 -5.858538843118788e-17 1.3411270146774338e-17 -5.858538843118788e-17 -0.49846795515533654 0.8669081252838238
12669133333.333334 -0.49235046993148124 0.8703970443183423 1.2990653536895388e-17 -5.866808877819857e-17 1.2990653536895388e-17 -5.866808877819857e-17 -0.49235099592065706 0.8703967467860809
12669750666.666666 -0.48620909410339463 0.8738425011470963 1.2569540155101845e-17 -5.874777284021482e-17 1.2569540155101845e-17 -5.874777284021482e-17 -0.4862096221489576 0.8738422073404466
12670368000.0 -0.48004360830111015 0.8772446261614298 1.2147951606248799e-17 -5.882443774177611e-17 1.2147951606248799e-17 -5.882443774177611e-17 -0.4800441383766766 0.8772443360945973
