! Parameters = {f0=12700.012000; bw=77.238000; Q=6100.000000; N=10; m_0_1=1.327623; m_1_1=1.149594; m_1_2=1.162435; m_2_2=1.148945; m_2_3=0.799398; m_2_8=0.003445; m_2_9=0.040149; m_3_3=1.147008; m_3_4=0.687927; m_3_7=0.004045; m_3_8=-0.093043; m_3_9=0.003445; m_4_4=1.144083; m_4_5=0.524262; m_4_6=0.007562; m_4_7=-0.113592; m_4_8=0.004045; m_5_5=1.144465; m_5_6=0.931617; m_5_7=0.007562; m_6_6=1.144464; m_6_7=0.524604; m_7_7=1.144097; m_7_8=0.688045; m_8_8=1.147006; m_8_9=0.799711; m_9_9=1.148940; m_9_10=1.163513; m_10_10=1.149584; m_10_11=1.328418}
!
! Created with skrf (http://scikit-rf.org).
# Hz S RI R 50.0 
!freq ReS11 ImS11 ReS21 ImS21 ReS12 ImS12 ReS22 ImS22
12607400000.0 -0.8719631647466193 -0.4895714854082777 1.4046583553631983e-16 3.194068729112705e-17 1.4046583553631983e-16 3.194068729112705e-17 -0.871962822359219 -0.48957209522515954
12608017333.333334 -0.8778835518345217 -0.47887416866877597 1.408209488378442e-16 3.020254170116457e-17 1.408209488378442e-16 3.020254170116457e-17 -0.8778832169448012 -0.47887478259609234
12608634666.666666 -0.8836727097548738 -0.4681052681120829 1.41154566313567e-16 2.846049620065576e-17 1.41154566313567e-16 2.846049620065576e-17 -0.8836723824121566 -0.4681058860576637
12609252000.0 -0.8893297731237947 -0.4572663935119076 1.4146664579075838e-16 2.6714816480348758e-17 1.4146664579075838e-16 2.6714816480348758e-17 -0.8893294533762719 -0.4572670153829912
12609869333.333334 -0.8948538963033806 -0.44635916510190043 1.4175714837881009e-16 2.4965768677976515e-17 1.4175714837881009e-16 2.4965768677976515e-17 -0.8948535841981037 -0.4463597908051477
12610486666.666666 -0.9002442535280138 -0.43538521333365954 1.4202603847384138e-16 2.321361933776725e-17 1.4202603847384138e-16 2.321361933776725e-17 -0.9002439491108869 -0.43538584277516745
12611104000.0 -0.9055000390280286 -0.42434617863254637 1.4227328376282172e-16 2.1458635369804086e-17 1.4227328376282172e-16 2.1458635369804086e-17 -0.9054997423438023 -0.42434681171786265
12611721333.333334 -0.9106204671498864 -0.413243711153032 1.4249885522716695e-16 1.970108400950667e-17 1.4249885522716695e-16 1.970108400950667e-17 -0.9106201782421504 -0.41324434778716823
12612338666.666666 -0.9156047724738245 -0.402079470531588 1.4270272714585925e-16 1.794123277692176e-17 1.4270272714585925e-16 1.794123277692176e-17 -0.9156044913850037 -0.40208011061903587
12612956000.0 -0.9204522099282405 -0.3908551256386775 1.42884877098053e-16 1.6179349436067385e-17 1.42884877098053e-16 1.6179349436067385e-17 -0.9204519366995842 -0.39085576908342057
12613573333.333334 -0.9251620549009215 -0.3795723543295948 1.4304528596517712e-16 1.4415701954292658e-17 1.4304528596517712e-16 1.4415701954292658e-17 -0.925161789572503 -0.379573001035125
12614190666.666666 -0.9297336033475665 -0.36823284319321403 1.4318393793254777e-16 1.2650558461508909e-17 1.4318393793254777e-16 1.2650558461508909e-17 -0.929733345958272 -0.36823349306254516
12614808000.0 -0.9341661718968736 -0.35683828730020944 1.4330082049046892e-16 1.0884187209509568e-17 1.4330082049046892e-16 1.0884187209509568e-17 -0.9341659224844014 -0.3568389402358923
12615425333.333334 -0.938459097952791 -0.3453903899494629 1.4339592443483504e-16 9.116856531263253e-18 1.4339592443483504e-16 9.116856531263253e-18 -0.9384588565536399 -0.34539104585359826
12616042666.666666 -0.9426117397935174 -0.33389086241352234 1.4346924386723484e-16 7.348834800177845e-18 1.4346924386723484e-16 7.348834800177845e-18 -0.9426115064429879 -0.33389152118777815
12616660000.0 -0.9466234766674135 -0.3223414236828806 1.4352077619455013e-16 5.580390389410992e-18 1.4352077619455013e-16 5.580390389410992e-18 -0.9466232513995982 -0.3223420852285049
12617277333.333334 -0.9504937088858624 -0.31074380020879677 1.435505221280558e-16 3.8117916311925855e-18 1.435505221280558e-16 3.8117916311925855e-18 -0.9504934917336426 -0.31074446442663295
12617894666.666666 -0.9542218579127978 -0.29909972564557136 1.435584856820194e-16 2.0433067761570795e-18 1.435584856820194e-16 2.0433067761570795e-18 -0.9542216489078386 -0.2991003924360733
12618512000.0 -0.9578073664513436 -0.2874109405909072 1.4354467417179957e-16 2.7520395267552084e-19 1.4354467417179957e-16 2.7520395267552084e-19 -0.957807165624089 -0.28741160985415365
12619129333.333334 -0.9612496985269712 -0.2756791923261776 1.4350909821144582e-16 -1.4922488736759458e-18 1.4350909821144582e-16 -1.4922488736759458e-18 -0.9612495059066415 -0.2756798639618882
12619746666.666666 -0.9645483395676879 -0.2639062345550501 1.434517717107986e-16 -3.258783940741701e-18 1.434517717107986e-16 -3.258783940741701e-18 -0.9645481551822703 -0.2639069084625984
12620364000.0 -0.9677027964809893 -0.2520938271411677 1.4337271187209032e-16 -5.024133730287989e-18 1.4337271187209032e-16 -5.024133730287989e-18 -0.967702620357241 -0.2520945032195989
12620981333.333334 -0.9707125977274884 -0.24024373584541064 1.432719391860512e-16 -6.788031008414808e-18 1.432719391860512e-16 -6.788031008414808e-18 -0.9707124298909272 -0.2402444139934546
12621598666.666666 -0.9735772933914506 -0.22835773206175058 1.4314947742751491e-16 -8.550208866023002e-18 1.4314947742751491e-16 -8.550208866023002e-18 -0.9735771338663537 -0.22835841217783784
12622216000.0 -0.9762964552480605 -0.21643759255240083 1.4300535365052952e-16 -1.0310400759118449e-17 1.4300535365052952e-16 -1.0310400759118449e-17 -0.976296304057461 -0.21643827453467787
12622833333.333334 -0.9788696768273998 -0.20448509918238628 1.4283959818297447e-16 -1.2068340549073721e-17 1.4283959818297447e-16 -1.2068340549073721e-17 -0.9788695339930811 -0.20448578292873024
12623450666.666666 -0.9812965734752263 -0.19250203865307192 1.4265224462068149e-16 -1.3823762542828814e-17 1.4265224462068149e-16 -1.3823762542828814e-17 -0.9812964390177215 -0.19250272406110644
12624068000.0 -0.9835767824104615 -0.1804902022351647 1.4244332982106416e-16 -1.557640153298421e-17 1.4244332982106416e-16 -1.557640153298421e-17 -0.9835766563490508 -0.18049088920227527
12624685333.333334 -0.9857099627794644 -0.1684513855007251 1.4221289389625118e-16 -1.732599283784921e-17 1.4221289389625118e-16 -1.732599283784921e-17 -0.9857098451321692 -0.16845207392407383
12625302666.666666 -0.9876957957069055 -0.15638738805514846 1.419609802057391e-16 -1.9072272341305932e-17 1.419609802057391e-16 -1.9072272341305932e-17 -0.9876956864904879 -0.15638807783169
12625920000.0 -0.9895339843435168 -0.14430001326767825 1.4168763534853977e-16 -2.0814976532697177e-17 1.4168763534853977e-16 -2.0814976532697177e-17 -0.9895338835734793 -0.1443007042941752
12626537333.333334 -0.9912242539103931 -0.13219106800230918 1.4139290915485908e-16 -2.255384254646985e-17 1.4139290915485908e-16 -2.255384254646985e-17 -0.9912241616009725 -0.13219176017534728
12627154666.666666 -0.9927663517401029 -0.12006236234746635 1.4107685467727463e-16 -2.4288608201805865e-17 1.4107685467727463e-16 -2.4288608201805865e-17 -0.9927662679042688 -0.12006305556346994
12627772000.0 -0.9941600473144808 -0.10791570934520038 1.4073952818142713e-16 -2.6019012042133474e-17 1.4073952818142713e-16 -2.6019012042133474e-17 -0.9941599719639366 -0.10791640350044819
12628389333.333334 -0.9954051322990304 -0.09575292472064745 1.403809891362461e-16 -2.774479337441327e-17 1.403809891362461e-16 -2.774479337441327e-17 -0.9954050654442107 -0.09575361971128805
12629006666.666666 -0.9965014205741212 -0.08357582661012804 1.4000130020366892e-16 -2.946569230842909e-17 1.4000130020366892e-16 -2.946569230842909e-17 -0.9965013622241884 -0.08357652233219512
12629624000.0 -0.997448748262766 -0.07138623528978948 1.3960052722790518e-16 -3.1181449795814226e-17 1.3960052722790518e-16 -3.1181449795814226e-17 -0.9974486984256106 -0.0713869316392176
12630241333.333334 -0.998246973755151 -0.05918597290313658 1.3917873922419933e-16 -3.289180766904615e-17 1.3917873922419933e-16 -3.289180766904615e-17 -0.9982469324373907 -0.05918666977577672
12630858666.666666 -0.9988959777297759 -0.046976863189048014 1.387360083671414e-16 -3.459650868018542e-17 1.387360083671414e-16 -3.459650868018542e-17 -0.9988959449367545 -0.04697756048068315
12631476000.0 -0.9993956631713242 -0.0347607312086184 1.3827240997847205e-16 -3.6295296539586446e-17 1.3827240997847205e-16 -3.6295296539586446e-17 -0.9993956389071095 -0.03476142881497899
12632093333.333334 -0.9997459553851284 -0.02253940307293739 1.3778802251445028e-16 -3.798791595431389e-17 1.3778802251445028e-16 -3.798791595431389e-17 -0.9997459396525147 -0.02254010088971712
12632710666.666666 -0.9999468020083637 -0.010314705669747416 1.3728292755273116e-16 -3.967411266646789e-17 1.3728292755273116e-16 -3.967411266646789e-17 -0.9999467948088684 -0.010315403592618658
12633328000.0 -0.9999981730178649 0.001911533609703241 1.3675720977876634e-16 -4.1353633491368416e-17 1.3675720977876634e-16 -4.1353633491368416e-17 -0.9999981743517301 0.001910835685073753
12633945333.333334 -0.9999000607346092 0.014137487143484286 1.3621095697176363e-16 -4.302622635547198e-17 1.3621095697176363e-16 -4.302622635547198e-17 -0.9999000706008023 0.014136789321419891
12634562666.666666 -0.9996524798248755 0.02636132735249548 1.3564425999016992e-16 -4.4691640334160536e-17 1.3564425999016992e-16 -4.4691640334160536e-17 -0.9996524982210877 0.026360629737293983
12635180000.0 -0.9992554672980395 0.03858122697354589 1.3505721275668607e-16 -4.6349625689352047e-17 1.3505721275668607e-16 -4.6349625689352047e-17 -0.999255494220688 0.038580529669464014
12635797333.333334 -0.9987090825010538 0.05079535933244311 1.3444991224283362e-16 -4.799993390689e-17 1.3444991224283362e-16 -4.799993390689e-17 -0.9987091179452805 0.050794662443680826
12636414666.666666 -0.9980134071095657 0.06300189861713595 1.3382245845307201e-16 -4.964231773371352e-17 1.3382245845307201e-16 -4.964231773371352e-17 -0.9980134510692413 0.06300120224782106
12637032000.0 -0.9971685451157191 0.07519902015058696 1.331749544084346e-16 -5.127653121489834e-17 1.331749544084346e-16 -5.127653121489834e-17 -0.9971685975834402 0.07519832440475942
12637649333.333334 -0.9961746228125966 0.08738490066361644 1.3250750612974867e-16 -5.290232973039103e-17 1.3250750612974867e-16 -5.290232973039103e-17 -0.9961746837796889 0.08738420564521272
12638266666.666666 -0.9950317887753454 0.09955771856739429 1.3182022262037926e-16 -5.451947003160276e-17 1.3182022262037926e-16 -5.451947003160276e-17 -0.995031858231867 0.09955702438023227
12638884000.0 -0.9937402138389805 0.1117156542256534 1.3111321584854315e-16 -5.612771027773905e-17 1.3111321584854315e-16 -5.612771027773905e-17 -0.9937402917737188 0.11171496097341624
12639501333.333334 -0.9923000910728191 0.1238568902269208 1.3038660072917875e-16 -5.772681007190568e-17 1.3038660072917875e-16 -5.772681007190568e-17 -0.9923001774732975 0.12385619801314203
12640118666.666666 -0.9907116357516691 0.1359796116557961 1.2964049510537516e-16 -5.931653049698988e-17 1.2964049510537516e-16 -5.931653049698988e-17 -0.9907117306041455 0.1359789205838438
12640736000.0 -0.9889750853235616 0.14808200636492788 1.2887501972933955e-16 -6.08966341513497e-17 1.2887501972933955e-16 -6.08966341513497e-17 -0.9889751886130328 0.14808131653798942
12641353333.333334 -0.9870906993743782 0.16016226524499874 1.2809029824300232e-16 -6.246688518411417e-17 1.2809029824300232e-16 -6.246688518411417e-17 -0.9870908110845809 0.16016157676606532
12641970666.666666 -0.9850587595889371 0.1722185824959455 1.2728645715809453e-16 -6.4027049330435e-17 1.2728645715809453e-16 -6.4027049330435e-17 -0.9850588797023514 0.17221789546779676
12642588000.0 -0.9828795697089366 0.18424915589653063 1.2646362583588007e-16 -6.557689394631688e-17 1.2646362583588007e-16 -6.557689394631688e-17 -0.9828796982067873 0.1842484704217193
12643205333.333334 -0.9805534554875641 0.1962521870736894 1.2562193646641667e-16 -6.71161880432825e-17 1.2562193646641667e-16 -6.71161880432825e-17 -0.9805535923498251 0.19625150325452595
12643822666.666666 -0.978080764640749 0.20822588177163634 1.2476152404741077e-16 -6.864470232274438e-17 1.2476152404741077e-16 -6.864470232274438e-17 -0.9780809098461467 0.20822519971017403
12644440000.0 -0.9754618667952273 0.22016845011985364 1.2388252636266097e-16 -7.016220921009615e-17 1.2388252636266097e-16 -7.016220921009615e-17 -0.975462020321242 0.22016776991787274
12645057333.333334 -0.9726971534333003 0.23207810690059172 1.2298508396008594e-16 -7.166848288853328e-17 1.2298508396008594e-16 -7.166848288853328e-17 -0.9726973152561714 0.23207742865958486
12645674666.666666 -0.9697870378342843 0.24395307181589798 1.2206934012933456e-16 -7.316329933260833e-17 1.2206934012933456e-16 -7.316329933260833e-17 -0.969787207929013 0.24395239563705462
12646292000.0 -0.9667319550126955 0.2557915697538504 1.2113544087897287e-16 -7.464643634152499e-17 1.2113544087897287e-16 -7.464643634152499e-17 -0.9667321333530496 0.25579089573804203
12646909333.333334 -0.9635323616533388 0.2675918310534676 1.2018353491332129e-16 -7.61176735720566e-17 1.2018353491332129e-16 -7.61176735720566e-17 -0.9635325482118549 0.26759115930123223
12647526666.666666 -0.9601887360429171 0.27935209176971154 1.192137736088354e-16 -7.757679257126354e-17 1.192137736088354e-16 -7.757679257126354e-17 -0.9601889307909078 0.2793514223812394
12648144000.0 -0.9567015779986022 0.29107059393692086 1.182263109901123e-16 -7.90235768088722e-17 1.182263109901123e-16 -7.90235768088722e-17 -0.9567017809061582 0.291069927012039
12648761333.333334 -0.9530714087932887 0.30274558583170763 1.1722130370552594e-16 -8.04578117093248e-17 1.1722130370552594e-16 -8.04578117093248e-17 -0.9530716198292831 0.3027449214698649
12649378666.666666 -0.9492987710777383 0.3143753222345933 1.1619891100243796e-16 -8.187928468356947e-17 1.1619891100243796e-16 -8.187928468356947e-17 -0.9492989902098331 0.3143746605348459
12649996000.0 -0.9453842287993621 0.32595806469121624 1.1515929470204843e-16 -8.328778516050392e-17 1.1515929470204843e-16 -8.328778516050392e-17 -0.9453844559940127 0.325957405752213
12650613333.333334 -0.9413283671179699 0.3374920817720392 1.141026191738467e-16 -8.468310461812704e-17 1.141026191738467e-16 -8.468310461812704e-17 -0.9413286023404288 0.33749142569200635
12651230666.666666 -0.9371317923183635 0.3489756493309818 1.1302905130972735e-16 -8.606503661431288e-17 1.1302905130972735e-16 -8.606503661431288e-17 -0.9371320355326874 0.3489749962077088
12651848000.0 -0.9327951317195574 0.36040705076358104 1.1193876049766294e-16 -8.743337681735032e-17 1.1193876049766294e-16 -8.743337681735032e-17 -0.9327953828886119 0.3604064006944057
12652465333.333334 -0.928319033581116 0.37178457726327296 1.108319185950796e-16 -8.87879230360581e-17 1.108319185950796e-16 -8.87879230360581e-17 -0.9283192926665814 0.3717839303450675
12653082666.666666 -0.923704167006289 0.38310652807675527 1.0970869990184804e-16 -9.012847524959324e-17 1.0970869990184804e-16 -9.012847524959324e-17 -0.9237044339686658 0.3831058844059112
12653700000.0 -0.9189512218418072 0.39437121075866854 1.0856928113286468e-16 -9.145483563697727e-17 1.0856928113286468e-16 -9.145483563697727e-17 -0.9189514966404216 0.39437057043108215
12654317333.333334 -0.9140609085749998 0.4055769414240105 1.074138413903634e-16 -9.276680860617548e-17 1.074138413903634e-16 -9.276680860617548e-17 -0.914061191168012 0.4055763045350697
12654934666.666666 -0.9090339582274028 0.41672204500029597 1.0624256213581323e-16 -9.406420082290064e-17 1.0624256213581323e-16 -9.406420082290064e-17 -0.9090342485718119 0.4167214116448652
12655552000.0 -0.9038711222455137 0.4278048554778723 1.0505562716147206e-16 -9.53468212390603e-17 1.0505562716147206e-16 -9.53468212390603e-17 -0.9038714202971644 0.42780422575027865
12656169333.333334 -0.8985731723886045 0.4388237161586505 1.0385322256164674e-16 -9.661448112079226e-17 1.0385322256164674e-16 -9.661448112079226e-17 -0.8985734781021922 0.4388230901526691
12656786666.666666 -0.8931409006131522 0.4497769799041926 1.02635536703563e-16 -9.786699407619454e-17 1.02635536703563e-16 -9.786699407619454e-17 -0.893141213942233 0.4497763577130335
12657404000.0 -0.8875751189546146 0.46066300938159827 1.0140276019792003e-16 -9.910417608267267e-17 1.0140276019792003e-16 -9.910417608267267e-17 -0.8875754398516109 0.4606623910978925
12658021333.333334 -0.8818766594059173 0.47148017730851394 1.0015508586912015e-16 -1.0032584551391001e-16 1.0015508586912015e-16 -1.0032584551391001e-16 -0.8818769878221249 0.4714795630242993
12658638666.666666 -0.8760463737932556 0.48222686669605674 9.889270872519663e-17 -1.0153182316644596e-16 9.889270872519663e-17 -1.0153182316644596e-16 -0.8760467096788499 0.48222625650276374
12659256000.0 -0.8700851336485312 0.4929014710909541 9.761582592735188e-17 -1.0272193228594323e-16 9.761582592735188e-17 -1.0272193228594323e-16 -0.8700854769525772 0.49290086507939324
12659873333.333334 -0.8639938300792349 0.5035023948153808 9.632463675926197e-17 -1.0389599859299508e-16 9.632463675926197e-17 -1.0389599859299508e-16 -0.8639941807496938 0.503501793075729
12660490666.666666 -0.8577733736352855 0.5140280532054152 9.501934259604703e-17 -1.050538503085739e-16 9.501934259604703e-17 -1.050538503085739e-16 -0.8577737316190228 0.514027455827202
12661108000.0 -0.8514246941726923 0.5244768728483148 9.370014687287541e-17 -1.0619531817914356e-16 9.370014687287541e-17 -1.0619531817914356e-16 -0.8514250594154833 0.524476279920408
12661725333.333334 -0.8449487407147936 0.5348472918172938 9.236725505338545e-17 -1.0732023550127495e-16 9.236725505338545e-17 -1.0732023550127495e-16 -0.8449491131613366 0.534846703427889
12662342666.666666 -0.8383464813102873 0.545137759905209 9.102087459769161e-17 -1.0842843814597233e-16 9.102087459769161e-17 -1.0842843814597233e-16 -0.8383468609042074 0.5451371761418133
12662960000.0 -0.831618902888501 0.5553467388563073 8.966121493017835e-17 -1.0951976458252974e-16 8.966121493017835e-17 -1.0951976458252974e-16 -0.8316192895723613 0.5553461598057287
12663577333.333334 -0.8247670111118931 0.5654727025961234 8.828848740699186e-17 -1.1059405590200202e-16 8.828848740699186e-17 -1.1059405590200202e-16 -0.8247674048272028 0.5654721283444571
12664194666.666666 -0.8177918302257727 0.5755141374595333 8.690290528322623e-17 -1.116511558402889e-16 8.690290528322623e-17 -1.116511558402889e-16 -0.8177922309129949 0.5755135680921483
12664812000.0 -0.8106944029050781 0.5854695424171855 8.550468367986213e-17 -1.1269091080078545e-16 8.550468367986213e-17 -1.1269091080078545e-16 -0.8106948105036403 0.5854689780187127
12665429333.333334 -0.8034757900986274 0.5953374292997167 8.409403955043332e-17 -1.137131698766232e-16 8.409403955043332e-17 -1.137131698766232e-16 -0.8034762045469298 0.5953368699540365
12666046666.666666 -0.7961370708704942 0.605116323020258 8.267119164741882e-17 -1.1471778487250252e-16 8.267119164741882e-17 -1.1471778487250252e-16 -0.7961374921059192 0.6051157688104863
12666664000.0 -0.788679342238568 0.6148047617951152 8.12363604883517e-17 -1.1570461032612015e-16 8.12363604883517e-17 -1.1570461032612015e-16 -0.7886797701974887 0.6148042128035929
12667281333.333334 -0.7811037190108553 0.6244012973618964 7.97897683217562e-17 -1.1667350352911716e-16 7.97897683217562e-17 -1.1667350352911716e-16 -0.7811041536286473 0.624400753670176
12667898666.666666 -0.773411333618565 0.6339044951963665 7.833163909272716e-17 -1.1762432454767762e-16 7.833163909272716e-17 -1.1762432454767762e-16 -0.7734117748296143 0.6339039568852007
12668516000.0 -0.7656033359468739 0.6433129347268147 7.686219840832763e-17 -1.1855693624265352e-16 7.686219840832763e-17 -1.1855693624265352e-16 -0.7656037836845871 0.6433124018761437
12669133333.333334 -0.757680893163253 0.652625209546141 7.538167350277924e-17 -1.194712042892404e-16 7.538167350277924e-17 -1.194712042892404e-16 -0.757681347360068 0.6526246822350811
12669750666.666666 -0.7496451895426911 0.661839927622466 7.389029320232157e-17 -1.2036699719628147e-16 7.389029320232157e-17 -1.2036699719628147e-16 -0.7496456501300878 0.661839405929299
