! Parameters = {f0=12700.012000; bw=77.238000; Q=6100.000000; N=10; m_0_1=1.153248; m_1_1=-1.466022; m_1_2=0.988060; m_2_2=-1.466671; m_2_3=0.625023; m_2_8=-0.005274; m_2_9=0.031430; m_3_3=-1.468608; m_3_4=0.513552; m_3_7=-0.004674; m_3_8=-0.101762; m_3_9=-0.005274; m_4_4=-1.471533; m_4_5=0.349887; m_4_6=-0.001157; m_4_7=-0.122311; m_4_8=-0.004674; m_5_5=-1.471151; m_5_6=0.757242; m_5_7=-0.001157; m_6_6=-1.471152; m_6_7=0.350229; m_7_7=-1.471519; m_7_8=0.513670; m_8_8=-1.468610; m_8_9=0.625336; m_9_9=-1.466676; m_9_10=0.989138; m_10_10=-1.466032; m_10_11=1.154043}
!
! Created with skrf (http://scikit-rf.org).
# Hz S RI R 50.0 
!freq ReS11 ImS11 ReS21 ImS21 ReS12 ImS12 ReS22 ImS22
12607400000.0 -0.5763319534264085 0.8172156872329076 1.974196309900318e-17 -5.835443523221237e-17 1.974196309900318e-17 -5.835443523221237e-17 -0.5763324501260958 0.8172153369409468
12608017333.333334 -0.5705386851166924 0.8212707280703304 1.931984903933094e-17 -5.848283512702275e-17 1.931984903933094e-17 -5.848283512702275e-17 -0.5705391842565681 0.8212703813164726
12608634666.666666 -0.5647168868426782 0.8252847010060035 1.8896909492819937e-17 -5.86081853607965e-17 1.8896909492819937e-17 -5.86081853607965e-17 -0.5647173883975453 0.8252843578072411
12609252000.0 -0.5588668497252656 0.8292574053199728 1.8473166465736646e-17 -5.873048070198334e-17 1.8473166465736646e-17 -5.873048070198334e-17 -0.5588673536698079 0.829257065693118
12609869333.333334 -0.5529888662973497 0.8331886423559954 1.8048641996900728e-17 -5.884971607763956e-17 1.8048641996900728e-17 -5.884971607763956e-17 -0.5529893726061351 0.833188306317682
12610486666.666666 -0.5470832304894565 0.8370782155313055 1.7623358156551743e-17 -5.896588657362378e-17 1.7623358156551743e-17 -5.896588657362378e-17 -0.5470837391369364 0.8370778830979841
12611104000.0 -0.5411502376146873 0.8409259303466762 1.7197337045189344e-17 -5.907898743479111e-17 1.7197337045189344e-17 -5.907898743479111e-17 -0.5411507485751986 0.8409256015346164
12611721333.333334 -0.5351901843543068 0.844731594395911 1.6770600792446095e-17 -5.918901406516963e-17 1.6770600792446095e-17 -5.918901406516963e-17 -0.5351906976020737 0.8447312692212
12612338666.666666 -0.5292033687426729 0.848495017375624 1.634317155593568e-17 -5.92959620281356e-17 1.634317155593568e-17 -5.92959620281356e-17 -0.5292038842518082 0.8484946958541658
12612956000.0 -0.52319009015233 0.852216011094753 1.5915071520099985e-17 -5.939982704657983e-17 1.5915071520099985e-17 -5.939982704657983e-17 -0.5231906078968342 0.8522156932422658
12613573333.333334 -0.517150649279255 0.8558943894838315 1.5486322895079136e-17 -5.950060500306017e-17 1.5486322895079136e-17 -5.950060500306017e-17 -0.5171511692330211 0.8558940753158498
12614190666.666666 -0.5110853481276063 0.8595299686044334 1.505694791554664e-17 -5.959829193995408e-17 1.505694791554664e-17 -5.959829193995408e-17 -0.5110858702644189 0.8595296581363067
12614808000.0 -0.5049944899946447 0.8631225666583539 1.462696883956922e-17 -5.96928840595967e-17 1.462696883956922e-17 -5.96928840595967e-17 -0.5049950142881813 0.8631222599052428
12615425333.333334 -0.498878379455687 0.866672003996623 1.4196407947457406e-17 -5.978437772441282e-17 1.4196407947457406e-17 -5.978437772441282e-17 -0.49887890587952094 0.8666717009735039
12616042666.666666 -0.4927373223487815 0.870178103128554 1.376528754060864e-17 -5.987276945704212e-17 1.376528754060864e-17 -5.987276945704212e-17 -0.4927378508763809 0.8701778038502128
12616660000.0 -0.48657162575943513 0.8736406887305986 1.3333629940366707e-17 -5.995805594045209e-17 1.3333629940366707e-17 -5.995805594045209e-17 -0.48657215636416673 0.8736403932116341
12617277333.333334 -0.48038159800523617 0.8770595876551319 1.290145748686198e-17 -6.004023401804724e-17 1.290145748686198e-17 -6.004023401804724e-17 -0.4803821306603647 0.8770592959099528
12617894666.666666 -0.47416754862055827 0.8804346289390392 1.2468792537869819e-17 -6.011930069376579e-17 1.2468792537869819e-17 -6.011930069376579e-17 -0.4741680832992491 0.8804343409818647
12618512000.0 -0.4679297883408109 0.8837656438124187 1.2035657467639497e-17 -6.019525313217412e-17 1.2035657467639497e-17 -6.019525313217412e-17 -0.4679303250161297 0.8837653596572754
12619129333.333334 -0.4616686290872462 0.8870524657068248 1.1602074665765524e-17 -6.026808865854442e-17 1.1602074665765524e-17 -6.026808865854442e-17 -0.4616691677321628 0.8870521853675502
12619746666.666666 -0.45538438395111625 0.8902949302637401 1.1168066536017495e-17 -6.033780475893208e-17 1.1168066536017495e-17 -6.033780475893208e-17 -0.4553849245385039 0.8902946537539779
12620364000.0 -0.4490773671780375 0.8934928753427738 1.0733655495188554e-17 -6.040439908024116e-17 1.0733655495188554e-17 -6.040439908024116e-17 -0.44907790968067546 0.8934926026759762
12620981333.333334 -0.44274789415240495 0.8966461410297074 1.0298863971950484e-17 -6.046786943028049e-17 1.0298863971950484e-17 -6.046786943028049e-17 -0.442748438542979 0.8966458722191322
12621598666.666666 -0.43639628138152003 0.899754569644543 9.863714405693225e-18 -6.052821377781427e-17 9.863714405693225e-18 -6.052821377781427e-17 -0.4363968276326242 0.899754304703254
12622216000.0 -0.4300228464797878 0.9028180057493732 9.428229245372812e-18 -6.05854302526027e-17 9.428229245372812e-18 -6.05854302526027e-17 -0.4300233945639263 0.9028177446902405
12622833333.333334 -0.4236279081528107 0.9058362961561699 8.992430948355887e-18 -6.0639517145435e-17 8.992430948355887e-18 -6.0639517145435e-17 -0.4236284580423982 0.9058360389918667
12623450666.666666 -0.41721178618155264 0.9088092899343921 8.556341979274602e-18 -6.069047290815288e-17 8.556341979274602e-18 -6.069047290815288e-17 -0.41721233784891615 0.9088090366773957
12624068000.0 -0.4107748014062205 0.9117368384185954 8.119984808855665e-18 -6.073829615366927e-17 8.119984808855665e-18 -6.073829615366927e-17 -0.41077535482360156 0.9117365890811878
12624685333.333334 -0.40431727571019405 0.9146187952158767 7.683381912784036e-18 -6.07829856559736e-17 7.683381912784036e-18 -6.07829856559736e-17 -0.40431783084974904 0.9146185498101425
12625302666.666666 -0.39783953200418937 0.9174550162130791 7.24655577054275e-18 -6.082454035013311e-17 7.24655577054275e-18 -6.082454035013311e-17 -0.3978400888379913 0.9174547747509046
12625920000.0 -0.3913418942097488 0.9202453595841609 6.80952886425286e-18 -6.086295933228465e-17 6.80952886425286e-18 -6.086295933228465e-17 -0.39134245270978807 0.9202451220772329
12626537333.333334 -0.3848246872433 0.9229896857971658 6.372323677536251e-18 -6.089824185961641e-17 6.372323677536251e-18 -6.089824185961641e-17 -0.38482524738148777 0.922989452256975
12627154666.666666 -0.3782882369999141 0.9256878576212133 5.9349626943546366e-18 -6.093038735034415e-17 5.9349626943546366e-18 -6.093038735034415e-17 -0.37828879874808125 0.9256876280590488
12627772000.0 -0.3717328703367423 0.9283397401334604 5.4974683978488716e-18 -6.095939538367828e-17 5.4974683978488716e-18 -6.095939538367828e-17 -0.37173343366664263 0.9283395145604124
12628389333.333334 -0.3651589150570683 0.930945200725692 5.059863269204886e-18 -6.098526569978152e-17 5.059863269204886e-18 -6.098526569978152e-17 -0.36515947994037873 0.930944979152649
12629006666.666666 -0.3585666998935199 0.9335041091111088 4.6221697864871084e-18 -6.100799819971998e-17 4.6221697864871084e-18 -6.100799819971998e-17 -0.3585672663018428 0.9335038915487593
12629624000.0 -0.35195655449192104 0.9360163373307274 4.184410423500327e-18 -6.102759294540454e-17 4.184410423500327e-18 -6.102759294540454e-17 -0.3519571223967853 0.9360161237895577
12630241333.333334 -0.3453288093946764 0.9384817597598317 3.7466076486313885e-18 -6.104405015952561e-17 3.7466076486313885e-18 -6.104405015952561e-17 -0.34532937876753866 0.9384815502501261
12630858666.666666 -0.3386837960242677 0.940900253114243 3.308783923710677e-18 -6.105737022547789e-17 3.308783923710677e-18 -6.105737022547789e-17 -0.3386843668365145 0.9409000476460841
12631476000.0 -0.3320218466666825 0.9432716964564877 2.870961702844913e-18 -6.106755368727908e-17 2.870961702844913e-18 -6.106755368727908e-17 -0.33202241888963063 0.943271495039754
12632093333.333334 -0.3253432944547697 0.9455959712018507 2.4331634312941718e-18 -6.1074601249478e-17 2.4331634312941718e-18 -6.1074601249478e-17 -0.3253438680596687 0.9455957738462182
12632710666.666666 -0.3186484733517165 0.9478729611242611 1.9954115443081388e-18 -6.107851377705646e-17 1.9954115443081388e-18 -6.107851377705646e-17 -0.318649048309749 0.9478727678392
12633328000.0 -0.3119377181340787 0.9501025523621953 1.557728465982432e-18 -6.1079292295322e-17 1.557728465982432e-18 -6.1079292295322e-17 -0.3119382944163632 0.9501023631569735
12633945333.333334 -0.3052113643753102 0.95228463342428 1.120136608122885e-18 -6.107693798979255e-17 1.120136608122885e-18 -6.107693798979255e-17 -0.30521194195290124 0.952284448307959
12634562666.666666 -0.29846974842884727 0.9544190951949123 6.826583690952782e-19 -6.107145220607328e-17 6.826583690952782e-19 -6.107145220607328e-17 -0.29847032727273765 0.9544189141763482
12635180000.0 -0.2917132074113159 0.9565058309397063 2.453161326848884e-19 -6.106283644972491e-17 2.453161326848884e-19 -6.106283644972491e-17 -0.2917137874924381 0.9565056540275506
12635797333.333334 -0.2849420791856743 0.9585447363108307 -1.9186773304624058e-19 -6.105109238612402e-17 -1.9186773304624058e-19 -6.105109238612402e-17 -0.2849426604749017 0.9585445635135279
12636414666.666666 -0.2781567023443188 0.960535709352229 -6.2887087689036355e-19 -6.103622184031548e-17 -6.2887087689036355e-19 -6.103622184031548e-17 -0.27815728481246704 0.9605355406780173
12637032000.0 -0.2713574161921508 0.9624786505047143 -1.0656709656498205e-18 -6.101822679685628e-17 -1.0656709656498205e-18 -6.101822679685628e-17 -0.2713579998099799 0.962478485961625
12637649333.333334 -0.26454456072961124 0.9643734626109495 -1.50224568525675e-18 -6.099710939965154e-17 -1.50224568525675e-18 -6.099710939965154e-17 -0.26454514546782615 0.9643733022068074
12638266666.666666 -0.25771847663567804 0.9662200509203069 -1.9385727419174113e-18 -6.097287195178269e-17 -1.9385727419174113e-18 -6.097287195178269e-17 -0.25771906246493065 0.9662198946627275
12638884000.0 -0.2508795052508303 0.968018323093604 -2.3746298632446023e-18 -6.094551691532676e-17 -2.3746298632446023e-18 -6.094551691532676e-17 -0.25088009214172097 0.9680181709899957
12639501333.333334 -0.2440279885599525 0.96976818920773 -2.8103947993920222e-18 -6.091504691116852e-17 -2.8103947993920222e-18 -6.091504691116852e-17 -0.2440285764830311 0.9697680412652919
12640118666.666666 -0.23716426917539749 0.9714695617600966 -3.2458453241749026e-18 -6.088146471880438e-17 -3.2458453241749026e-18 -6.088146471880438e-17 -0.23716485810116555 0.9714694179858209
12640736000.0 -0.2302886903194424 0.9731223556731246 -3.6809592362253324e-18 -6.084477327613658e-17 -3.6809592362253324e-18 -6.084477327613658e-17 -0.2302892802183538 0.9731222160737921
12641353333.333334 -0.22340159580767557 0.9747264882983531 -4.115714360085328e-18 -6.080497567926302e-17 -4.115714360085328e-18 -6.080497567926302e-17 -0.22340218665013856 0.974726352880536
12641970666.666666 -0.21650333003139116 0.9762818794206796 -4.550088547358654e-18 -6.076207518225507e-17 -4.550088547358654e-18 -6.076207518225507e-17 -0.21650392178776978 0.9762817481907415
12642588000.0 -0.20959423794053272 0.9777884512623289 -4.984059677824527e-18 -6.071607519692983e-17 -4.984059677824527e-18 -6.071607519692983e-17 -0.20959483058114825 0.9777883242264223
12643205333.333334 -0.20267466502644457 0.9792461284867429 -5.417605660559781e-18 -6.066697929261366e-17 -5.417605660559781e-18 -6.066697929261366e-17 -0.20267525852157692 0.9792460056508103
12643822666.666666 -0.1957449573044837 0.9806548382023718 -5.85070443506604e-18 -6.061479119589738e-17 -5.85070443506604e-18 -6.061479119589738e-17 -0.19574555162437315 0.9806547195721466
12644440000.0 -0.188805461296857 0.9820145099662918 -6.283333972379309e-18 -6.055951479038447e-17 -6.283333972379309e-18 -6.055951479038447e-17 -0.18880605641170492 0.9820143955472931
12645057333.333334 -0.18185652401526403 0.9833250757877284 -6.7154722761862095e-18 -6.050115411643093e-17 -6.7154722761862095e-18 -6.050115411643093e-17 -0.18185711989523543 0.9833249655852663
12645674666.666666 -0.1748984929435464 0.9845864701314617 -7.147097383944953e-18 -6.043971337087653e-17 -7.147097383944953e-18 -6.043971337087653e-17 -0.17489908955877095 0.9845863641506357
12646292000.0 -0.16793171602014328 0.9857986299211339 -7.578187367998929e-18 -6.03751969067679e-17 -7.578187367998929e-18 -6.03751969067679e-17 -0.1679323133407167 0.9857985281668312
12646909333.333334 -0.16095654162094408 0.9869614945423563 -8.008720336671025e-18 -6.030760923307706e-17 -8.008720336671025e-18 -6.030760923307706e-17 -0.16095713961692962 0.9869613970192512
12647526666.666666 -0.15397331854172788 0.9880750058457628 -8.43867443538645e-18 -6.023695501440704e-17 -8.43867443538645e-18 -6.023695501440704e-17 -0.1539739171831581 0.9880749125583186
12648144000.0 -0.14698239598077834 0.9891391081499136 -8.868027847776104e-18 -6.016323907069251e-17 -8.868027847776104e-18 -6.016323907069251e-17 -0.14698299523765648 0.9891390191023821
12648761333.333334 -0.13998412352128106 0.9901537482440969 -9.296758796772482e-18 -6.008646637689326e-17 -9.296758796772482e-18 -6.008646637689326e-17 -0.13998472336358256 0.9901536634405168
12649378666.666666 -0.132978851114124 0.991118875390951 -9.7248455457082e-18 -6.0006642062679e-17 -9.7248455457082e-18 -6.0006642062679e-17 -0.13297945151179774 0.991118794835148
12649996000.0 -0.12596692906011642 0.9920344413290394 -1.0152266399429146e-17 -5.992377141210384e-17 -1.0152266399429146e-17 -5.992377141210384e-17 -0.12596752998308666 0.9920343650246274
12650613333.333334 -0.11894870799258468 0.9929004002752494 -1.0578999705374302e-17 -5.983785986327747e-17 -1.0578999705374302e-17 -5.983785986327747e-17 -0.11894930941075224 0.9929003282256283
12651230666.666666 -0.1119245388599517 0.9937167089270673 -1.1005023854668407e-17 -5.974891300802685e-17 -1.1005023854668407e-17 -5.974891300802685e-17 -0.11192514074319564 0.9937166411354252
12651848000.0 -0.1048947729079055 0.99448332646478 -1.1430317283227149e-17 -5.965693659154676e-17 -1.1430317283227149e-17 -5.965693659154676e-17 -0.10489537522608443 0.9944832629340902
12652465333.333334 -0.09785976166211695 0.9952002145534785 -1.1854858472829106e-17 -5.956193651204832e-17 -1.1854858472829106e-17 -5.956193651204832e-17 -0.09786036438507076 0.9952001552865013
12653082666.666666 -0.0908198569105491 0.9958673373449916 -1.2278625952200254e-17 -5.946391882039755e-17 -1.2278625952200254e-17 -5.946391882039755e-17 -0.0908204600081005 0.9958672823442752
12653700000.0 -0.08377541068575262 0.9964846614796887 -1.2701598298110713e-17 -5.936288971974208e-17 -1.2701598298110713e-17 -5.936288971974208e-17 -0.08377601412770837 0.9964846107475663
12654317333.333334 -0.07672677524754525 0.9970521560881204 -1.3123754136436699e-17 -5.925885556513811e-17 -1.3123754136436699e-17 -5.925885556513811e-17 -0.07672737900369794 0.9970521096267126
12654934666.666666 -0.0696743030651421 0.9975697927925857 -1.3545072143242987e-17 -5.915182286316357e-17 -1.3545072143242987e-17 -5.915182286316357e-17 -0.06967490710527159 0.9975697506037996
12655552000.0 -0.06261834679953057 0.998037545708552 -1.396553104586247e-17 -5.904179827152432e-17 -1.396553104586247e-17 -5.904179827152432e-17 -0.06261895109340532 0.9980375077940792
12656169333.333334 -0.05555925928609003 0.9984553914459262 -1.4385109623949135e-17 -5.892878859865802e-17 -1.4385109623949135e-17 -5.892878859865802e-17 -0.055559863803468876 0.9984553578072456
12656786666.666666 -0.04849739351666504 0.9988233091102482 -1.4803786710561557e-17 -5.88128008033226e-17 -1.4803786710561557e-17 -5.88128008033226e-17 -0.04849799822729858 0.9988232797486251
12657404000.0 -0.041433102622055566 0.999141280303725 -1.522154119321792e-17 -5.869384199418283e-17 -1.522154119321792e-17 -5.869384199418283e-17 -0.04143370749568768 0.99914125522021
12658021333.333334 -0.03436673985433014 0.999409289126152 -1.5638352014958103e-17 -5.857191942938748e-17 -1.5638352014958103e-17 -5.857191942938748e-17 -0.03436734486069951 0.9994092683215825
12658638666.666666 -0.027298658569189935 0.9996273221757094 -1.605419817539912e-17 -5.844704051613982e-17 -1.605419817539912e-17 -5.844704051613982e-17 -0.027299263678031545 0.9996273056507076
12659256000.0 -0.02022921220818527 0.9997953685496306 -1.6469058731795318e-17 -5.83192128102575e-17 -1.6469058731795318e-17 -5.83192128102575e-17 -0.020229817389231946 0.9997953563046056
12659873333.333334 -0.013158754281183849 0.9999134198447495 -1.688291280008063e-17 -5.818844401573031e-17 -1.688291280008063e-17 -5.818844401573031e-17 -0.01315935950416776 0.9999134118798965
12660490666.666666 -0.00608763834872179 0.9999814701579176 -1.7295739555913883e-17 -5.805474198426818e-17 -1.7295739555913883e-17 -5.805474198426818e-17 -0.006088243583375942 0.9999814664732166
12661108000.0 0.0009837819959604976 0.9999995160863029 -1.770751823573872e-17 -5.791811471483617e-17 -1.770751823573872e-17 -5.791811471483617e-17 0.00098317677990071 0.9999995166815205
12661725333.333334 0.00805515314420195 0.9999675567275564 -1.8118228137800656e-17 -5.77785703531945e-17 -1.8118228137800656e-17 -5.77785703531945e-17 0.008054547976997253 0.9999675616022459
12662342666.666666 0.01512612148991578 0.9998855936798603 -1.8527848623199778e-17 -5.763611719141861e-17 -1.8527848623199778e-17 -5.763611719141861e-17 0.015125516401821514 0.9998856028333607
12662960000.0 0.02219633344712961 0.9997536310418484 -1.8936359116922015e-17 -5.749076366741808e-17 -1.8936359116922015e-17 -5.749076366741808e-17 0.022195728468394176 0.9997536444732834
12663577333.333334 0.02926543546769493 0.9995716754123946 -1.9343739108859974e-17 -5.734251836444983e-17 -1.9343739108859974e-17 -5.734251836444983e-17 0.029264830628558378 0.9995716931206771
12664194666.666666 0.03633307405893819 0.9993397358902942 -1.9749968154844947e-17 -5.719139001061979e-17 -1.9749968154844947e-17 -5.719139001061979e-17 0.036332469389630584 0.9993397578741211
12664812000.0 0.043398895801450746 0.9990578240737973 -2.0155025877666816e-17 -5.703738747837964e-17 -2.0155025877666816e-17 -5.703738747837964e-17 0.04339829133219071 0.9990578503316518
12665429333.333334 0.05046254736661975 0.9987259540600352 -2.0558891968093516e-17 -5.688051978401557e-17 -2.0558891968093516e-17 -5.688051978401557e-17 0.050461943127613 0.9987259845901882
12666046666.666666 0.0575236755342681 0.9983441424443195 -2.0961546185876857e-17 -5.672079608713314e-17 -2.0961546185876857e-17 -5.672079608713314e-17 0.057523071555705865 0.9983441772448277
12666664000.0 0.06458192721060124 0.9979124083192975 -2.136296836077858e-17 -5.655822569012606e-17 -2.136296836077858e-17 -5.655822569012606e-17 0.0645813235226588 0.9979124473880047
12667281333.333334 0.07163694944546632 0.9974307732740177 -2.1763138393560337e-17 -5.639281803765032e-17 -2.1763138393560337e-17 -5.639281803765032e-17 0.07163634607830141 0.9974308166085532
12667898666.666666 0.07868838945028524 0.9968992613928334 -2.2162036256992052e-17 -5.622458271608212e-17 -2.2162036256992052e-17 -5.622458271608212e-17 0.07868778643403675 0.9968993089906155
12668516000.0 0.08573589461569603 0.9963178992541994 -2.2559641996856114e-17 -5.605352945296892e-17 -2.2559641996856114e-17 -5.605352945296892e-17 0.08573529198048237 0.9963179511124332
12669133333.333334 0.09277911252890202 0.9956867159293651 -2.2955935732925434e-17 -5.587966811648291e-17 -2.2955935732925434e-17 -5.587966811648291e-17 0.09277851030481943 0.9956867720450412
12669750666.666666 0.09981769099169034 0.9950057429808852 -2.3350897659968676e-17 -5.570300871485363e-17 -2.3350897659968676e-17 -5.570300871485363e-17 0.09981708920881167 0.9950058033507823
