! Parameters = {f0=12700.012000; bw=77.238000; Q=6100.000000; N=10; m_0_1=1.274770; m_1_1=0.356801; m_1_2=1.109582; m_2_2=0.356152; m_2_3=0.746545; m_2_8=0.000802; m_2_9=0.037506; m_3_3=0.354215; m_3_4=0.635074; m_3_7=0.001402; m_3_8=-0.095686; m_3_9=0.000802; m_4_4=0.351290; m_4_5=0.471409; m_4_6=0.004919; m_4_7=-0.116235; m_4_8=0.001402; m_5_5=0.351672; m_5_6=0.878764; m_5_7=0.004919; m_6_6=0.351671; m_6_7=0.471751; m_7_7=0.351304; m_7_8=0.635192; m_8_8=0.354213; m_8_9=0.746858; m_9_9=0.356147; m_9_10=1.110660; m_10_10=0.356791; m_10_11=1.275565}
!
! Created with skrf (http://scikit-rf.org).
# Hz S RI R 50.0 
!freq ReS11 ImS11 ReS21 ImS21 ReS12 ImS12 ReS22 ImS22
12607400000.0 -0.5182210897449957 -0.8552466908110963 8.368083187283838e-17 7.610444891957996e-17 8.368083187283838e-17 7.610444891957996e-17 -0.5182205153477077 -0.8552470388563639
12608017333.333334 -0.5273117625145672 -0.8496718808537812 8.447775611813315e-17 7.518555039797055e-17 8.447775611813315e-17 7.518555039797055e-17 -0.5273111918893472 -0.8496722349871499
12608634666.666666 -0.5363424700013469 -0.8440004471993345 8.526460059886955e-17 7.425831844716703e-17 8.526460059886955e-17 7.425831844716703e-17 -0.5363419032127128 -0.844000807379938
12609252000.0 -0.5453121852437981 -0.8382330347966817 8.604127829924689e-17 7.332286352352501e-17 8.604127829924689e-17 7.332286352352501e-17 -0.5453116223558262 -0.8382334009829716
12609869333.333334 -0.5542198882164493 -0.8323702995092801 8.680770341268322e-17 7.237929699059848e-17 8.680770341268322e-17 7.237929699059848e-17 -0.554219329292765 -0.8323706716590269
12610486666.666666 -0.5630645659456256 -0.8264129080407 8.756379135124387e-17 7.142773110593167e-17 8.756379135124387e-17 7.142773110593167e-17 -0.5630640110493982 -0.8264132861110026
12611104000.0 -0.5718452126250008 -0.8203615378585773 8.83094587549702e-17 7.046827900769859e-17 8.83094587549702e-17 7.046827900769859e-17 -0.5718446618189347 -0.8203619218058639
12611721333.333334 -0.5805608297296212 -0.8142168771178083 8.904462350099208e-17 6.950105470133302e-17 8.904462350099208e-17 6.950105470133302e-17 -0.5805602830759504 -0.814217266897844
12612338666.666666 -0.5892104261296703 -0.8079796245821516 8.976920471256229e-17 6.85261730459787e-17 8.976920471256229e-17 6.85261730459787e-17 -0.58920988369015 -0.807980020150042
12612956000.0 -0.597793018203268 -0.8016504895446955 9.04831227679129e-17 6.754374974088338e-17 9.04831227679129e-17 6.754374974088338e-17 -0.597792480039168 -0.8016508908548927
12613573333.333334 -0.6063076299479817 -0.7952301917474481 9.118629930894669e-17 6.655390131172477e-17 9.118629930894669e-17 6.655390131172477e-17 -0.6063070961200805 -0.7952305987537565
12614190666.666666 -0.6147532930921401 -0.7887194612992577 9.187865724982462e-17 6.555674509678439e-17 9.187865724982462e-17 6.555674509678439e-17 -0.6147527636607163 -0.7887198739548371
12614808000.0 -0.6231290472048041 -0.7821190385928828 9.25601207853554e-17 6.455239923309745e-17 9.25601207853554e-17 6.455239923309745e-17 -0.6231285222296306 -0.7821194568502557
12615425333.333334 -0.6314339398049869 -0.7754296742207989 9.323061539926229e-17 6.354098264247703e-17 9.323061539926229e-17 6.354098264247703e-17 -0.6314334193453245 -0.7754300980318561
12616042666.666666 -0.6396670264700586 -0.7686521288897692 9.389006787229584e-17 6.252261501745572e-17 9.389006787229584e-17 6.252261501745572e-17 -0.6396665105846486 -0.7686525582057746
12616660000.0 -0.647827370943012 -0.761787173334447 9.453840629017698e-17 6.149741680716723e-17 9.453840629017698e-17 6.149741680716723e-17 -0.6478268596900696 -0.7617876081060425
12617277333.333334 -0.655914045239041 -0.7548355882296355 9.517556005140577e-17 6.046550920311689e-17 9.517556005140577e-17 6.046550920311689e-17 -0.6559135386762489 -0.7548360284068475
12617894666.666666 -0.6639261297509204 -0.7477981641016425 9.580145987489538e-17 5.942701412490464e-17 9.580145987489538e-17 5.942701412490464e-17 -0.6639256279354228 -0.7477986096338886
12618512000.0 -0.671862713353903 -0.7406757012381007 9.641603780748676e-17 5.838205420580907e-17 9.641603780748676e-17 5.838205420580907e-17 -0.6718622163422994 -0.7406761520741947
12619129333.333334 -0.6797228935089076 -0.7334690095973386 9.701922723124886e-17 5.733075277839065e-17 9.701922723124886e-17 5.733075277839065e-17 -0.6797224013572436 -0.7334694656854945
12619746666.666666 -0.6875057763654472 -0.7261789087160037 9.761096287067825e-17 5.627323385992642e-17 9.761096287067825e-17 5.627323385992642e-17 -0.6875052891292119 -0.7261793700038445
12620364000.0 -0.6952104768632588 -0.7188062276158874 9.819118079971545e-17 5.520962213781251e-17 9.819118079971545e-17 5.520962213781251e-17 -0.6952099945973765 -0.7188066940504502
12620981333.333334 -0.7028361188327417 -0.711351804709843 9.875981844858901e-17 5.414004295491993e-17 9.875981844858901e-17 5.414004295491993e-17 -0.7028356415915668 -0.7113522762375849
12621598666.666666 -0.7103818350948845 -0.7038164877061682 9.931681461053794e-17 5.306462229481379e-17 9.931681461053794e-17 5.306462229481379e-17 -0.7103813629321934 -0.7038169642729714
12622216000.0 -0.7178467675596533 -0.6962011335124213 9.98621094483345e-17 5.198348676697364e-17 9.98621094483345e-17 5.198348676697364e-17 -0.7178463005286405 -0.696201615063601
12622833333.333334 -0.7252300673236934 -0.6885066081378545 1.0039564450067284e-16 5.0896763591899877e-17 1.0039564450067284e-16 5.0896763591899877e-17 -0.7252296054769657 -0.6885070946181653
12623450666.666666 -0.7325308947667709 -0.6807337865950372 1.0091736268837843e-16 4.980458058618955e-17 1.0091736268837843e-16 4.980458058618955e-17 -0.7325304381563378 -0.6807342779486764
12624068000.0 -0.739748419647326 -0.672883552800264 1.0142720832047685e-16 4.8707066147506007e-17 1.0142720832047685e-16 4.8707066147506007e-17 -0.7397479683245994 -0.6728840489708828
12624685333.333334 -0.7468818211969884 -0.6649567994729367 1.0192512710007873e-16 4.760434923952701e-17 1.0192512710007873e-16 4.760434923952701e-17 -0.7468813752127725 -0.6649573004036426
12625302666.666666 -0.7539302882136032 -0.6569544280343768 1.024110661301024e-16 4.6496559376837295e-17 1.024110661301024e-16 4.6496559376837295e-17 -0.7539298476180896 -0.6569549336677414
12625920000.0 -0.7608930191538433 -0.6488773485049175 1.028849739188563e-16 4.5383826609707475e-17 1.028849739188563e-16 4.5383826609707475e-17 -0.7608925839966063 -0.6488778587829834
12626537333.333334 -0.7677692222240758 -0.6407264794007355 1.0334680038542707e-16 4.426628150888423e-17 1.0334680038542707e-16 4.426628150888423e-17 -0.7677687925540673 -0.6407269942650237
12627154666.666666 -0.7745581154705019 -0.6325027476292951 1.0379649686491588e-16 4.314405515029727e-17 1.0379649686491588e-16 4.314405515029727e-17 -0.7745576913360448 -0.6325032670208104
12627772000.0 -0.7812589268682576 -0.6242070883837194 1.0423401611352042e-16 4.201727909968396e-17 1.0423401611352042e-16 4.201727909968396e-17 -0.7812585083170408 -0.6242076122429577
12628389333.333334 -0.7878708944088482 -0.6158404450368817 1.0465931231342048e-16 4.088608539724085e-17 1.0465931231342048e-16 4.088608539724085e-17 -0.7878704814879197 -0.6158409733038359
12629006666.666666 -0.7943932661871402 -0.6074037690337049 1.050723410775372e-16 3.975060654212191e-17 1.050723410775372e-16 3.975060654212191e-17 -0.7943928589429049 -0.6074043016478733
12629624000.0 -0.8008253004866402 -0.5988980197832552 1.0547305945408361e-16 3.8610975476997304e-17 1.0547305945408361e-16 3.8610975476997304e-17 -0.8008248989648524 -0.5988985566836479
12630241333.333334 -0.8071662658640153 -0.5903241645494145 1.0586142593097898e-16 3.746732557248639e-17 1.0586142593097898e-16 3.746732557248639e-17 -0.8071658701097733 -0.5903247056745594
12630858666.666666 -0.8134154412320647 -0.5816831783411549 1.0623740044007475e-16 3.631979061160124e-17 1.0623740044007475e-16 3.631979061160124e-17 -0.8134150512898074 -0.581683723629106
12631476000.0 -0.8195721159419768 -0.5729760438013212 1.0660094436123561e-16 3.516850477407909e-17 1.0660094436123561e-16 3.516850477407909e-17 -0.8195717318554779 -0.572976593189665
12632093333.333334 -0.8256355898639074 -0.5642037510952054 1.0695202052621775e-16 3.401360262077811e-17 1.0695202052621775e-16 3.401360262077811e-17 -0.8256352116762701 -0.5642043045210685
12632710666.666666 -0.8316051734666998 -0.5553672977978105 1.072905932224069e-16 3.285521907794737e-17 1.072905932224069e-16 3.285521907794737e-17 -0.8316048012203534 -0.5553678551978668
12633328000.0 -0.837480187896362 -0.5464676887803134 1.0761662819637956e-16 3.1693489421478585e-17 1.0761662819637956e-16 3.1693489421478585e-17 -0.8374798216330542 -0.5464682500907903
12633945333.333334 -0.8432599650531785 -0.5375059360959052 1.0793009265728259e-16 3.052854926116679e-17 1.0793009265728259e-16 3.052854926116679e-17 -0.843259604813974 -0.5375065012525923
12634562666.666666 -0.8489438476676769 -0.5284830588647302 1.0823095528005893e-16 2.9360534524880133e-17 1.0823095528005893e-16 2.9360534524880133e-17 -0.8489434934929514 -0.528483627802986
12635180000.0 -0.8545311893754189 -0.5194000831579211 1.085191862084886e-16 2.818958144274828e-17 1.085191862084886e-16 2.818958144274828e-17 -0.8545308413048532 -0.5194006558126795
12635797333.333334 -0.8600213547904969 -0.5102580418809104 1.0879475705806952e-16 2.7015826531285263e-17 1.0879475705806952e-16 2.7015826531285263e-17 -0.8600210128630762 -0.5102586181866909
12636414666.666666 -0.8654137195777244 -0.5010579746560984 1.0905764091871779e-16 2.5839406577519237e-17 1.0905764091871779e-16 2.5839406577519237e-17 -0.8654133838317293 -0.5010585545470101
12637032000.0 -0.8707076705237738 -0.49180092770437794 1.0930781235730907e-16 2.4660458623047792e-17 1.0930781235730907e-16 2.4660458623047792e-17 -0.8707073409967795 -0.4918015111141293
12637649333.333334 -0.8759026056067692 -0.48248795372640846 1.0954524742003316e-16 2.3479119948131936e-17 1.0954524742003316e-16 2.3479119948131936e-17 -0.8759022823356392 -0.4824885405883141
12638266666.666666 -0.880997934064816 -0.4731201117827781 1.0976992363458804e-16 2.2295528055722335e-17 1.0976992363458804e-16 2.2295528055722335e-17 -0.8809976170857009 -0.4731207020297676
12638884000.0 -0.8859930764631608 -0.4636984671736225 1.0998182001219663e-16 2.1109820655487663e-17 1.0998182001219663e-16 2.1109820655487663e-17 -0.8859927658114893 -0.46369906073824557
12639501333.333334 -0.8908874647601415 -0.45422409131734964 1.1018091704945556e-16 1.9922135647803525e-17 1.1018091704945556e-16 1.9922135647803525e-17 -0.8908871604706206 -0.45422468813178585
12640118666.666666 -0.8956805423716315 -0.44469806162910414 1.1036719673000254e-16 1.873261110777886e-17 1.1036719673000254e-16 1.873261110777886e-17 -0.8956802444782427 -0.44469866162517097
12640736000.0 -0.9003717642345951 -0.43512146139774016 1.1054064252602737e-16 1.7541385269167896e-17 1.1054064252602737e-16 1.7541385269167896e-17 -0.9003714727705875 -0.4351220645068991
12641353333.333334 -0.9049605968687466 -0.42549537966326334 1.1070123939958887e-16 1.6348596508411595e-17 1.1070123939958887e-16 1.6348596508411595e-17 -0.9049603118666358 -0.42549598581662884
12641970666.666666 -0.9094465184374741 -0.4158209110924789 1.1084897380377956e-16 1.5154383328527143e-17 1.1084897380377956e-16 1.5154383328527143e-17 -0.9094462399290374 -0.4158215202208258
12642588000.0 -0.9138290188071054 -0.40609915585465967 1.1098383368370675e-16 1.395888434307112e-17 1.1098383368370675e-16 1.395888434307112e-17 -0.9138287468233779 -0.4060997678884312
12643205333.333334 -0.9181075996048554 -0.3963312194965636 1.111058084773001e-16 1.2762238260092836e-17 1.111058084773001e-16 1.2762238260092836e-17 -0.9181073341761299 -0.39633183436588054
12643822666.666666 -0.9222817742756036 -0.38651821281650883 1.1121488911595237e-16 1.1564583866045315e-17 1.1121488911595237e-16 1.1564583866045315e-17 -0.9222815154314213 -0.3865188304511748
12644440000.0 -0.9263510681371462 -0.37666125173820675 1.1131106802498334e-16 1.0366060009721854e-17 1.1131106802498334e-16 1.0366060009721854e-17 -0.9263508159062983 -0.37666187206771845
12645057333.333334 -0.9303150184341926 -0.3667614571838369 1.113943391239301e-16 9.16680558620112e-18 1.113943391239301e-16 9.16680558620112e-18 -0.9303147728447166 -0.36676208013739203
12645674666.666666 -0.9341731743909834 -0.35681995494660473 1.1146469782666785e-16 7.966959520764783e-18 1.1146469782666785e-16 7.966959520764783e-18 -0.9341729354701567 -0.3568205804531086
12646292000.0 -0.9379250972626592 -0.34683787556242435 1.1152214104135728e-16 6.7666607528114824e-18 1.1152214104135728e-16 6.7666607528114824e-18 -0.9379248650369991 -0.3468385035504994
12646909333.333334 -0.9415703603849606 -0.3368163541818592 1.1156666717021553e-16 5.566048219838884e-18 1.1156666717021553e-16 5.566048219838884e-18 -0.9415701348802217 -0.3368169845798527
12647526666.666666 -0.9451085492228845 -0.32675653044069036 1.115982761091205e-16 4.3652608413434635e-18 1.115982761091205e-16 4.3652608413434635e-18 -0.9451083304640534 -0.32675716317668263
12648144000.0 -0.9485392614178378 -0.31665954833026355 1.1161696924703774e-16 3.1644375027951808e-18 1.1161696924703774e-16 3.1644375027951808e-18 -0.9485390494291311 -0.3166601833320755
12648761333.333334 -0.9518621068332962 -0.30652655606766227 1.116227494652774e-16 1.963717039600209e-18 1.116227494652774e-16 1.963717039600209e-18 -0.9518619016381595 -0.3065271932628648
12649378666.666666 -0.9550767075992148 -0.29635870596502933 1.1161562113657908e-16 7.632382210820289e-19 1.1161562113657908e-16 7.632382210820289e-19 -0.9550765092203185 -0.2963593452809508
12649996000.0 -0.9581826981550309 -0.2861571542984181 1.1159559012402415e-16 -4.368602655584987e-19 1.1159559012402415e-16 -4.368602655584987e-19 -0.9581825066142675 -0.2861577956621526
12650613333.333334 -0.9611797252912057 -0.27592306117638216 1.1156266377977582e-16 -1.6364398312101877e-18 1.1156266377977582e-16 -1.6364398312101877e-18 -0.9611795406096894 -0.27592370451479864
12651230666.666666 -0.964067448189357 -0.26565759040818737 1.115168509436492e-16 -2.8353620008295847e-18 1.115168509436492e-16 -2.8353620008295847e-18 -0.9640672703874189 -0.2656582356479369
12651848000.0 -0.966845538461123 -0.2553619093710814 1.1145816194150798e-16 -4.0334884294249516e-18 1.1145816194150798e-16 -4.0334884294249516e-18 -0.9668453675583099 -0.2553625564386059
12652465333.333334 -0.969513680185388 -0.24503718887795034 1.1138660858349145e-16 -5.230680917977773e-18 1.1138660858349145e-16 -5.230680917977773e-18 -0.9695135162004608 -0.24503783769949145
12653082666.666666 -0.9720715699442456 -0.23468460304406796 1.1130220416207153e-16 -6.426801429338071e-18 1.1130220416207153e-16 -6.426801429338071e-18 -0.9720714128951771 -0.23468525354567496
12653700000.0 -0.9745189168575641 -0.22430532915332774 1.112049634499354e-16 -7.621712104158051e-18 1.112049634499354e-16 -7.621712104158051e-18 -0.9745187667615351 -0.22430598126086584
12654317333.333334 -0.9768554426159605 -0.21390054752477713 1.1109490269770422e-16 -8.815275276704152e-18 1.1109490269770422e-16 -8.815275276704152e-18 -0.9768552994893607 -0.21390120116393635
12654934666.666666 -0.9790808815125437 -0.2034714413780063 1.1097203963147501e-16 -1.000735349073536e-17 1.1097203963147501e-16 -1.000735349073536e-17 -0.9790807453709691 -0.20347209647430992
12655552000.0 -0.9811949804730904 -0.19301919669875978 1.1083639345019715e-16 -1.1197809515287853e-17 1.1083639345019715e-16 -1.1197809515287853e-17 -0.9811948513313405 -0.1930198531775724
12656169333.333334 -0.9831974990847966 -0.1825450021042066 1.1068798482288166e-16 -1.238650636043084e-17 1.1068798482288166e-16 -1.238650636043084e-17 -0.9831973769568735 -0.182545659890743
12656786666.666666 -0.9850882096236635 -0.1720500487075499 1.1052683588563546e-16 -1.3573307293029155e-17 1.1052683588563546e-16 -1.3573307293029155e-17 -0.9850880945227699 -0.17205070772688333
12657404000.0 -0.9868668970803831 -0.1615355299826016 1.1035297023853155e-16 -1.4758075852441815e-17 1.1035297023853155e-16 -1.4758075852441815e-17 -0.986866789018924 -0.16153619015967285
12658021333.333334 -0.988533359184775 -0.15100264162817503 1.1016641294231159e-16 -1.5940675866173442e-17 1.1016641294231159e-16 -1.5940675866173442e-17 -0.9885332581743513 -0.1510033028878002
12658638666.666666 -0.9900874064287818 -0.14045258143213896 1.0996719051492108e-16 -1.71209714654959e-17 1.0996719051492108e-16 -1.71209714654959e-17 -0.990087312480191 -0.14045324369901835
12659256000.0 -0.9915288620880569 -0.12988654913495393 1.0975533092787184e-16 -1.8298827101056673e-17 1.0975533092787184e-16 -1.8298827101056673e-17 -0.991528775211294 -0.12988721233368075
12659873333.333334 -0.9928575622420217 -0.11930574629351996 1.0953086360244518e-16 -1.947410755840375e-17 1.0953086360244518e-16 -1.947410755840375e-17 -0.9928574824462761 -0.11930641034858891
12660490666.666666 -0.9940733557925232 -0.10871137614442519 1.0929381940572956e-16 -2.064667797346264e-17 1.0929381940572956e-16 -2.064667797346264e-17 -0.9940732830861785 -0.10871204098024087
12661108000.0 -0.9951761044810292 -0.09810464346700158 1.0904423064648147e-16 -2.1816403848029128e-17 1.0904423064648147e-16 -2.1816403848029128e-17 -0.9951760388716613 -0.09810530900788715
12661725333.333334 -0.9961656829043166 -0.08748675444660133 1.0878213107083802e-16 -2.2983151065123516e-17 1.0878213107083802e-16 -2.2983151065123516e-17 -0.9961656243986945 -0.08748742061680721
12662342666.666666 -0.9970419785287672 -0.07685891653714857 1.0850755585785099e-16 -2.41467859043726e-17 1.0850755585785099e-16 -2.41467859043726e-17 -0.9970419271328516 -0.07685958326086108
12662960000.0 -0.9978048917031452 -0.06622233832399876 1.0822054161486202e-16 -2.5307175057305394e-17 1.0822054161486202e-16 -2.5307175057305394e-17 -0.9978048474220864 -0.06622300552534847
12663577333.333334 -0.9984543356699394 -0.05557822938635776 1.0792112637271908e-16 -2.6464185642583227e-17 1.0792112637271908e-16 -2.6464185642583227e-17 -0.9984542985080799 -0.05557889698942851
12664194666.666666 -0.9989902365752208 -0.044927800159900444 1.0760934958082332e-16 -2.761768522120228e-17 1.0760934958082332e-16 -2.761768522120228e-17 -0.9989902065360916 -0.04492846808873769
12664812000.0 -0.999412533477044 -0.03427226179900759 1.072852521020183e-16 -2.8767541811620446e-17 1.072852521020183e-16 -2.8767541811620446e-17 -0.9994125105633671 -0.0342729299776272
12665429333.333334 -0.9997211783523813 -0.02361282603903502 1.0694887620731271e-16 -2.9913623904847124e-17 1.0694887620731271e-16 -2.9913623904847124e-17 -0.9997211625660672 -0.023613494391431865
12666046666.666666 -0.9999161361025769 -0.012950705058686824 1.0660026557045496e-16 -3.105580047942341e-17 1.0660026557045496e-16 -3.105580047942341e-17 -0.999916127444726 -0.012951373508843409
12666664000.0 -0.9999973845573475 -0.0022871113417416112 1.0623946526232655e-16 -3.2193941016419517e-17 1.0623946526232655e-16 -3.2193941016419517e-17 -0.9999973830282495 -0.0022877798136367485
12667281333.333334 -0.9999649144772926 0.008376742460261396 1.0586652174520248e-16 -3.3327915514273976e-17 1.0586652174520248e-16 -3.3327915514273976e-17 -0.9999649200764273 0.00837607404264396
12667898666.666666 -0.9998187295549547 0.019039643666321517 1.0548148286682724e-16 -3.4457594503658356e-17 1.0548148286682724e-16 -3.4457594503658356e-17 -0.9998187422809911 0.01903897537898448
12668516000.0 -0.9995588464143923 0.029700379703852874 1.0508439785434947e-16 -3.5582849062213725e-17 1.0508439785434947e-16 -3.5582849062213725e-17 -0.999558866265188 0.02969971162277668
12669133333.333334 -0.9991852946092965 0.04035773824629257 1.0467531730810145e-16 -3.670355082922205e-17 1.0467531730810145e-16 -3.670355082922205e-17 -0.9991853215819005 0.04035707044742684
12669750666.666666 -0.9986981166196218 0.05101050735136286 1.0425429319520762e-16 -3.7819572020245385e-17 1.0425429319520762e-16 -3.7819572020245385e-17 -0.9986981507102721 0.05100983991061768
