! Parameters = {f0=12700.012000; bw=77.238000; Q=6100.000000; N=10; m_0_1=1.284980; m_1_1=0.509954; m_1_2=1.119792; m_2_2=0.509305; m_2_3=0.756755; m_2_8=0.001313; m_2_9=0.038017; m_3_3=0.507368; m_3_4=0.645284; m_3_7=0.001913; m_3_8=-0.095175; m_3_9=0.001313; m_4_4=0.504443; m_4_5=0.481619; m_4_6=0.005430; m_4_7=-0.115724; m_4_8=0.001913; m_5_5=0.504825; m_5_6=0.888974; m_5_7=0.005430; m_6_6=0.504824; m_6_7=0.481961; m_7_7=0.504457; m_7_8=0.645402; m_8_8=0.507366; m_8_9=0.757068; m_9_9=0.509300; m_9_10=1.120870; m_10_10=0.509944; m_10_11=1.285775}
!
! Created with skrf (http://scikit-rf.org).
# Hz S RI R 50.0 
!freq ReS11 ImS11 ReS21 ImS21 ReS12 ImS12 ReS22 ImS22
12607400000.0 -0.4168239949764075 -0.9089872150980604 7.80441024274799e-17 8.935043690449792e-17 7.80441024274799e-17 8.935043690449792e-17 -0.4168233796135909 -0.9089874972777807
12608017333.333334 -0.4267665013790791 -0.904361848653779 7.901156134065511e-17 8.846493113538298e-17 7.901156134065511e-17 8.846493113538298e-17 -0.42676588917749775 -0.9043621375501955
12608634666.666666 -0.4366576901965762 -0.8996277350059912 7.99689857776193e-17 8.756896125678518e-17 7.99689857776193e-17 8.756896125678518e-17 -0.4366570812295328 -0.8996280305837095
12609252000.0 -0.4464963720387212 -0.8947854434198619 8.091626268412698e-17 8.666264084155502e-17 8.091626268412698e-17 8.666264084155502e-17 -0.4464957663791223 -0.894785745642687
12609869333.333334 -0.45628136382919265 -0.889835556168661 8.185328028990227e-17 8.574608468255418e-17 8.185328028990227e-17 8.574608468255418e-17 -0.4562807615495399 -0.8898358649996029
12610486666.666666 -0.46601148894766137 -0.8847786684638157 8.277992812176704e-17 8.481940877817736e-17 8.277992812176704e-17 8.481940877817736e-17 -0.46601089012004243 -0.8847789838650918
12611104000.0 -0.4756855773715529 -0.8796153883831909 8.369609701666796e-17 8.388273031767127e-17 8.369609701666796e-17 8.388273031767127e-17 -0.47568498206763427 -0.8796157103162346
12611721333.333334 -0.48530246581641273 -0.8743463367981414 8.460167913445424e-17 8.293616766639634e-17 8.460167913445424e-17 8.293616766639634e-17 -0.4853018741074295 -0.8743466652236035
12612338666.666666 -0.49486099787594057 -0.8689721472987778 8.549656797055865e-17 8.197984035088247e-17 8.549656797055865e-17 8.197984035088247e-17 -0.4948604098326889 -0.8689724821765321
12612956000.0 -0.5043600241611915 -0.8634934661176898 8.638065836848313e-17 8.101386904377362e-17 8.638065836848313e-17 8.101386904377362e-17 -0.50435943985402 -0.863493807406839
12613573333.333334 -0.5137984024384681 -0.8579109520524255 8.725384653209551e-17 8.0038375548662e-17 8.725384653209551e-17 8.0038375548662e-17 -0.5137978219372685 -0.8579112997113039
12614190666.666666 -0.523174997766939 -0.8522252763861117 8.8116030037798e-17 7.905348278474229e-17 8.8116030037798e-17 7.905348278474229e-17 -0.5231744211411397 -0.8522256303722937
12614808000.0 -0.532488682634992 -0.846437122806809 8.896710784648951e-17 7.805931477137325e-17 8.896710784648951e-17 7.805931477137325e-17 -0.5324881099535489 -0.8464374830771126
12615425333.333334 -0.5417383370958413 -0.8405471873252878 8.98069803153696e-17 7.705599661249302e-17 8.98069803153696e-17 7.705599661249302e-17 -0.541737768427227 -0.8405475538357766
12616042666.666666 -0.550922848902191 -0.8345561781913265 9.063554920955446e-17 7.604365448092392e-17 9.063554920955446e-17 7.604365448092392e-17 -0.5509222843143913 -0.8345565508973208
12616660000.0 -0.5600411136400111 -0.8284648158085386 9.145271771353833e-17 7.502241560252705e-17 9.145271771353833e-17 7.502241560252705e-17 -0.5600405532005132 -0.8284651946646173
12617277333.333334 -0.5690920348612655 -0.8222738326477892 9.225839044245668e-17 7.399240824025716e-17 9.225839044245668e-17 7.399240824025716e-17 -0.5690914786370518 -0.8222742176077965
12617894666.666666 -0.5780745242157818 -0.8159839731591031 9.305247345316961e-17 7.295376167810072e-17 9.305247345316961e-17 7.295376167810072e-17 -0.5780739722733215 -0.815984364176154
12618512000.0 -0.5869875015822884 -0.8095959936820358 9.383487425519495e-17 7.190660620485504e-17 9.383487425519495e-17 7.190660620485504e-17 -0.5869869539875282 -0.8095963907085201
12619129333.333334 -0.5958298951979881 -0.8031106623549298 9.460550182140873e-17 7.085107309785829e-17 9.460550182140873e-17 7.085107309785829e-17 -0.595829352016347 -0.8031110653425213
12619746666.666666 -0.6046006417876736 -0.796528759022393 9.536426659861185e-17 6.978729460654044e-17 9.536426659861185e-17 6.978729460654044e-17 -0.6046001030840324 -0.7965291679220522
12620364000.0 -0.6132986866915988 -0.7898510751414977 9.611108051789149e-17 6.87154039358888e-17 9.611108051789149e-17 6.87154039358888e-17 -0.6132981525302943 -0.7898514899034799
12620981333.333334 -0.621922983992009 -0.7830784136868386 9.684585700478234e-17 6.763553522982535e-17 9.684585700478234e-17 6.763553522982535e-17 -0.6219224544368253 -0.7830788342606986
12621598666.666666 -0.6304724966392689 -0.7762115890536981 9.756851098926848e-17 6.654782355443761e-17 9.756851098926848e-17 6.654782355443761e-17 -0.6304719717534297 -0.7762120153882969
12622216000.0 -0.6389461965763636 -0.769251426960275 9.827895891558805e-17 6.545240488111723e-17 9.827895891558805e-17 6.545240488111723e-17 -0.6389456764225255 -0.7692518590037859
12622833333.333334 -0.6473430648625854 -0.7621987643483386 9.897711875184253e-17 6.434941606960232e-17 9.897711875184253e-17 6.434941606960232e-17 -0.6473425495028301 -0.7621992020482541
12623450666.666666 -0.6556620917959731 -0.7550544492826652 9.966290999941571e-17 6.32389948509217e-17 9.966290999941571e-17 6.32389948509217e-17 -0.655661581291799 -0.7550548925858022
12624068000.0 -0.6639022770348338 -0.747819340848966 1.003362537022156e-16 6.212127981021625e-17 1.003362537022156e-16 6.212127981021625e-17 -0.6639017714471502 -0.7478197897014733
12624685333.333334 -0.6720626297180737 -0.7404943090505469 1.0099707245571681e-16 6.099641036947402e-17 1.0099707245571681e-16 6.099641036947402e-17 -0.672062129107192 -0.7404947633979105
12625302666.666666 -0.6801421685840489 -0.7330802347039568 1.0164529041579143e-16 5.986452677020158e-17 1.0164529041579143e-16 5.986452677020158e-17 -0.6801416730096764 -0.733080694491008
12625920000.0 -0.6881399220890023 -0.7255780093326718 1.022808333073899e-16 5.872577005592705e-17 1.022808333073899e-16 5.872577005592705e-17 -0.6881394316102354 -0.725578474503593
12626537333.333334 -0.696054928523514 -0.7179885350602382 1.0290362843296985e-16 5.758028205471064e-17 1.0290362843296985e-16 5.758028205471064e-17 -0.6960544431988307 -0.7179890055585706
12627154666.666666 -0.7038862361282893 -0.7103127245016599 1.0351360468077936e-16 5.642820536147897e-17 1.0351360468077936e-16 5.642820536147897e-17 -0.7038857560155419 -0.7103132002703092
12627772000.0 -0.7116329032087271 -0.7025515006535376 1.0411069253292528e-16 5.5269683320301386e-17 1.0411069253292528e-16 5.5269683320301386e-17 -0.7116324283651362 -0.702551981634782
12628389333.333334 -0.7192939982478742 -0.6947057967833629 1.0469482407322129e-16 5.410486000662633e-17 1.0469482407322129e-16 5.410486000662633e-17 -0.7192935287300195 -0.6947062829188576
12629006666.666666 -0.7268686000187559 -0.6867765563169684 1.0526593299488072e-16 5.293388020935237e-17 1.0526593299488072e-16 5.293388020935237e-17 -0.7268681358825727 -0.6867770475477566
12629624000.0 -0.7343557976948547 -0.678764732725393 1.0582395460796945e-16 5.175688941289632e-17 1.0582395460796945e-16 5.175688941289632e-17 -0.7343553389956254 -0.6787652289919099
12630241333.333334 -0.741754690959872 -0.6706712894099799 1.0636882584668466e-16 5.057403377913277e-17 1.0636882584668466e-16 5.057403377913277e-17 -0.7417542377522199 -0.6706717906520617
12630858666.666666 -0.7490643901157941 -0.6624971995867402 1.0690048527641458e-16 4.938546012929403e-17 1.0690048527641458e-16 4.938546012929403e-17 -0.7490639424536771 -0.6624977057436306
12631476000.0 -0.7562840161901051 -0.6542434461690727 1.0741887310062185e-16 4.81913159257421e-17 1.0741887310062185e-16 4.81913159257421e-17 -0.7562835741268086 -0.6542439571794297
12632093333.333334 -0.763412701041253 -0.6459110216498233 1.0792393116748326e-16 4.699174925375739e-17 1.0792393116748326e-16 4.699174925375739e-17 -0.763412264629384 -0.6459115374517281
12632710666.666666 -0.7704495874630639 -0.6375009279819239 1.0841560297636704e-16 4.578690880317063e-17 1.0841560297636704e-16 4.578690880317063e-17 -0.7704491567545452 -0.6375014485128875
12633328000.0 -0.7773938292881127 -0.6290141764575622 1.0889383368408938e-16 4.457694384996102e-17 1.0889383368408938e-16 4.457694384996102e-17 -0.7773934043341755 -0.6290147016545325
12633945333.333334 -0.7842445914890486 -0.6204517875870739 1.0935857011095532e-16 4.336200423781804e-17 1.0935857011095532e-16 4.336200423781804e-17 -0.7842441723402283 -0.620452317386445
12634562666.666666 -0.7910010502793001 -0.6118147909758832 1.0980976074661098e-16 4.214224035960119e-17 1.0980976074661098e-16 4.214224035960119e-17 -0.7910006369854283 -0.6118153253135015
12635180000.0 -0.7976623932120235 -0.6031042252008257 1.1024735575568172e-16 4.09178031387583e-17 1.1024735575568172e-16 4.09178031387583e-17 -0.7976619858222228 -0.6031047640119979
12635797333.333334 -0.8042278192778285 -0.5943211376852147 1.1067130698320548e-16 3.9688844010679785e-17 1.1067130698320548e-16 3.9688844010679785e-17 -0.8042274178405087 -0.5943216809047168
12636414666.666666 -0.8106965390010377 -0.5854665845729875 1.1108156795985546e-16 3.845551490401089e-17 1.1108156795985546e-16 3.845551490401089e-17 -0.8106961435638851 -0.5854671321350703
12637032000.0 -0.8170677745347296 -0.5765416306015418 1.114780939069596e-16 3.721796822189472e-17 1.114780939069596e-16 3.721796822189472e-17 -0.8170673851447063 -0.5765421824399418
12637649333.333334 -0.8233407597541426 -0.5675473489738914 1.118608417413113e-16 3.597635682316475e-17 1.118608417413113e-16 3.597635682316475e-17 -0.8233403764574794 -0.5675479050218369
12638266666.666666 -0.8295147403489151 -0.5584848212294515 1.1222977007976677e-16 3.4730834003504954e-17 1.1222977007976677e-16 3.4730834003504954e-17 -0.8295143631911046 -0.5584853814196713
12638884000.0 -0.8355889739137231 -0.5493551371140813 1.1258483924363628e-16 3.348155347655117e-17 1.1258483924363628e-16 3.348155347655117e-17 -0.8355886029395162 -0.5493557013788131
12639501333.333334 -0.8415627300375843 -0.5401593944489971 1.1292601126286612e-16 3.222866935494885e-17 1.1292601126286612e-16 3.222866935494885e-17 -0.841562365290983 -0.540159962719994
12640118666.666666 -0.847435290391597 -0.530898698998905 1.1325324988000373e-16 3.097233613139195e-17 1.1325324988000373e-16 3.097233613139195e-17 -0.8474349319158505 -0.530899271207446
12640736000.0 -0.8532059488155733 -0.5215741643386271 1.1356652055397082e-16 2.971270865955187e-17 1.1356652055397082e-16 2.971270865955187e-17 -0.8532055966531732 -0.5215747404155247
12641353333.333334 -0.8588740114025338 -0.5121869117198733 1.1386579046359239e-16 2.844994213509899e-17 1.1386579046359239e-16 2.844994213509899e-17 -0.858873665595208 -0.5121874915954809
12641970666.666666 -0.8644387965825502 -0.5027380699357588 1.141510285109516e-16 2.7184192076541058e-17 1.141510285109516e-16 2.7184192076541058e-17 -0.8644384571712589 -0.5027386535399809
12642588000.0 -0.8698996352044981 -0.49322877518541264 1.1442220532450424e-16 2.5915614306146182e-17 1.1442220532450424e-16 2.5915614306146182e-17 -0.8698993022294275 -0.4932293624477113
12643205333.333334 -0.8752558706165429 -0.48366017093729896 1.146792932619975e-16 2.4644364930768157e-17 1.146792932619975e-16 2.4644364930768157e-17 -0.8752555441171027 -0.48366076178670403
12643822666.666666 -0.8805068587451657 -0.47403340779162395 1.149222664131708e-16 2.337060032266714e-17 1.149222664131708e-16 2.337060032266714e-17 -0.8805065387599821 -0.4740340021567403
12644440000.0 -0.8856519681725354 -0.46434964334210016 1.1515110060224152e-16 2.20944771003185e-17 1.1515110060224152e-16 2.20944771003185e-17 -0.8856516547394467 -0.4643502411511164
12645057333.333334 -0.8906905802124624 -0.4546100420366979 1.1536577339018132e-16 2.0816152109182796e-17 1.1536577339018132e-16 2.0816152109182796e-17 -0.8906902733685179 -0.4546106432173971
12645674666.666666 -0.8956220889847489 -0.44481577503772957 1.1556626407677942e-16 1.953578240245888e-17 1.1556626407677942e-16 1.953578240245888e-17 -0.8956217887662004 -0.4448163795174953
12646292000.0 -0.900445901488206 -0.43496802008068636 1.1575255370249518e-16 1.825352522179596e-17 1.1575255370249518e-16 1.825352522179596e-17 -0.9004456079305059 -0.43496862778651335
12646909333.333334 -0.9051614376717466 -0.4250679613330529 1.1592462505008835e-16 1.6969537978052798e-17 1.1592462505008835e-16 1.6969537978052798e-17 -0.9051611508095417 -0.4250685721915543
12647526666.666666 -0.9097681305042711 -0.4151167892516323 1.1608246264604459e-16 1.5683978231987804e-17 1.1608246264604459e-16 1.5683978231987804e-17 -0.9097678503714012 -0.41511740318905
12648144000.0 -0.9142654260428399 -0.40511570043942274 1.1622605276178873e-16 1.4397003674921745e-17 1.1622605276178873e-16 1.4397003674921745e-17 -0.9142651526723321 -0.40511631738163556
12648761333.333334 -0.9186527834992351 -0.3950658975018315 1.1635538341467295e-16 1.3108772109484553e-17 1.1635538341467295e-16 1.3108772109484553e-17 -0.9186525169232989 -0.3950665173743636
12649378666.666666 -0.9229296753049999 -0.3849685889020393 1.1647044436876358e-16 1.1819441430260317e-17 1.1647044436876358e-16 1.1819441430260317e-17 -0.9229294155550262 -0.3849692116300706
12649996000.0 -0.9270955871748936 -0.3748249888156611 1.1657122713540926e-16 1.052916960446485e-17 1.1657122713540926e-16 1.052916960446485e-17 -0.9270953342814485 -0.3748256143240349
12650613333.333334 -0.9311500181687592 -0.3646363169846633 1.166577249735947e-16 9.238114652628557e-18 1.166577249735947e-16 9.238114652628557e-18 -0.9311497721615825 -0.3646369451978963
12651230666.666666 -0.935092480751681 -0.3544037985709063 1.1672993289008182e-16 7.946434629287089e-18 1.1672993289008182e-16 7.946434629287089e-18 -0.9350922416596809 -0.3544044294131972
12651848000.0 -0.9389225008527192 -0.3441286640085287 1.1678784763933878e-16 6.654287603628788e-18 1.1678784763933878e-16 6.654287603628788e-18 -0.9389222687039699 -0.34412929740376746
12652465333.333334 -0.9426396179218259 -0.33381214885623056 1.16831467723253e-16 5.361831640207731e-18 1.16831467723253e-16 5.361831640207731e-18 -0.942639392743563 -0.3338127847280075
12653082666.666666 -0.9462433849852249 -0.32345549364870063 1.168607933906322e-16 4.069224779654897e-18 1.168607933906322e-16 4.069224779654897e-18 -0.9462431668038443 -0.32345613192031586
12653700000.0 -0.9497333686992635 -0.3130599437471503 1.1687582663649348e-16 2.776625019313383e-18 1.1687582663649348e-16 2.776625019313383e-18 -0.9497331575403178 -0.31306058434162315
12654317333.333334 -0.9531091494023568 -0.3026267491900469 1.1687657120113686e-16 1.4841902940492905e-18 1.1687657120113686e-16 1.4841902940492905e-18 -0.9531089452905508 -0.3026273920301247
12654934666.666666 -0.9563703211655955 -0.2921571645423683 1.1686303256900826e-16 1.9207845691490715e-19 1.1686303256900826e-16 1.9207845691490715e-19 -0.9563701241247836 -0.2921578095505355
12655552000.0 -0.9595164918415158 -0.28165244874485074 1.168352179673482e-16 -1.0995527400841793e-18 1.168352179673482e-16 -1.0995527400841793e-18 -0.9595163018947013 -0.2816530958433393
12656169333.333334 -0.962547283111193 -0.27111386496282364 1.1679313636462997e-16 -2.3905456651921677e-18 1.1679313636462997e-16 -2.3905456651921677e-18 -0.9625471002805238 -0.2711145140736215
12656786666.666666 -0.9654623305298158 -0.260542680434045 1.1673679846878411e-16 -3.6807428261437376e-18 1.1673679846878411e-16 -3.6807428261437376e-18 -0.9654621548365806 -0.2605433314789056
12657404000.0 -0.9682612835704648 -0.2499401663164543 1.1666621672521198e-16 -4.969986889330378e-18 1.1666621672521198e-16 -4.969986889330378e-18 -0.9682611150350933 -0.2499408192169064
12658021333.333334 -0.9709438056662876 -0.23930759753523748 1.1658140531458736e-16 -6.2581206989664134e-18 1.1658140531458736e-16 -6.2581206989664134e-18 -0.970943644308347 -0.23930825221259439
12658638666.666666 -0.9735095742509078 -0.22864625262976868 1.164823801504494e-16 -7.544987296182783e-18 1.164823801504494e-16 -7.544987296182783e-18 -0.9735094200891005 -0.22864690900513768
12659256000.0 -0.9759582807973246 -0.2179574135994279 1.1636915887657866e-16 -8.830429938191973e-18 1.1636915887657866e-16 -8.830429938191973e-18 -0.9759581338494844 -0.21795807159371966
12659873333.333334 -0.9782896308549152 -0.20724236574980126 1.1624176086417145e-16 -1.011429211727336e-17 1.1624176086417145e-16 -1.011429211727336e-17 -0.9782894911380084 -0.20724302528373975
12660490666.666666 -0.9805033440848623 -0.19650239753810117 1.1610020720879864e-16 -1.1396417579835149e-17 1.1610020720879864e-16 -1.1396417579835149e-17 -0.9805032116149841 -0.19650305853223288
12661108000.0 -0.9825991542939164 -0.18573880041795338 1.159445207271532e-16 -1.2676650345417654e-17 1.159445207271532e-16 -1.2676650345417654e-17 -0.9825990290862878 -0.18573946279265685
12661725333.333334 -0.9845768094663248 -0.17495286868449286 1.1577472595359724e-16 -1.3954834725596714e-17 1.1577472595359724e-16 -1.3954834725596714e-17 -0.9845766915352929 -0.17495353235998853
12662342666.666666 -0.9864360717942018 -0.1641458993183934 1.1559084913649105e-16 -1.523081534292302e-17 1.1559084913649105e-16 -1.523081534292302e-17 -0.9864359611532381 -0.16414656421475315
12662960000.0 -0.9881767177060823 -0.15331919183016138 1.1539291823432045e-16 -1.6504437149763445e-17 1.1539291823432045e-16 -1.6504437149763445e-17 -0.988176614367779 -0.15331985786731786
12663577333.333334 -0.9897985378938339 -0.14247404810367573 1.1518096291161431e-16 -1.7775545447114458e-17 1.1518096291161431e-16 -1.7775545447114458e-17 -0.989798441869905 -0.14247471520143243
12664194666.666666 -0.9913013373378109 -0.1316117722397527 1.149550145346555e-16 -1.9043985903365657e-17 1.149550145346555e-16 -1.9043985903365657e-17 -0.9913012486390885 -0.1316124403177932
12664812000.0 -0.9926849353303059 -0.12073367039930254 1.14715106166988e-16 -2.0309604572994686e-17 1.14715106166988e-16 -2.0309604572994686e-17 -0.9926848539667416 -0.12073433937720063
12665429333.333334 -0.9939491654972863 -0.10984105064623899 1.144612725647129e-16 -2.1572247915243787e-17 1.144612725647129e-16 -2.1572247915243787e-17 -0.9939490914779486 -0.10984172044346797
12666046666.666666 -0.9950938758183817 -0.09893522279032903 1.1419355017158828e-16 -2.2831762812687295e-17 1.1419355017158828e-16 -2.2831762812687295e-17 -0.9950938091514555 -0.09893589332627165
12666664000.0 -0.9961189286452029 -0.08801749822935279 1.139119771139119e-16 -2.408799658980859e-17 1.139119771139119e-16 -2.408799658980859e-17 -0.9961188693379872 -0.08801816942331064
12667281333.333334 -0.9970242007178395 -0.07708918979191977 1.1361659319521797e-16 -2.5340797031431463e-17 1.1361659319521797e-16 -2.5340797031431463e-17 -0.9970241487767484 -0.07708986156312336
12667898666.666666 -0.997809583179728 -0.06615161157915249 1.133074398907542e-16 -2.6590012401165798e-17 1.133074398907542e-16 -2.6590012401165798e-17 -0.9978095386102885 -0.0661522838467707
12668516000.0 -0.9984749815907258 -0.05520607880678177 1.1298456034176406e-16 -2.783549145975524e-17 1.1298456034176406e-16 -2.783549145975524e-17 -0.9984749443975797 -0.055206751489931725
12669133333.333334 -0.9990203159384557 -0.044253907647222555 1.126479993495746e-16 -2.907708348332798e-17 1.126479993495746e-16 -2.907708348332798e-17 -0.9990202861253558 -0.04425458066497926
12669750666.666666 -0.9994455206479442 -0.033296415071023835 1.1229780336946839e-16 -3.031463828164189e-17 1.1229780336946839e-16 -3.031463828164189e-17 -0.9994454982177552 -0.033297088342429934
12670368000.0 -0.9997505445894966 -0.022334918688591263 1.1193402050437093e-16 -3.154800621619631e-17 1.1193402050437093e-16 -3.154800621619631e-17 -0.9997505295441979 -0.022335592132666875
