! Parameters = {f0=12700.012000; bw=77.238000; Q=6100.000000; N=10; m_0_1=1.260956; m_1_1=0.149594; m_1_2=1.095768; m_2_2=0.148945; m_2_3=0.732731; m_2_8=0.000111; m_2_9=0.036815; m_3_3=0.147008; m_3_4=0.621260; m_3_7=0.000711; m_3_8=-0.096377; m_3_9=0.000111; m_4_4=0.144083; m_4_5=0.457595; m_4_6=0.004228; m_4_7=-0.116926; m_4_8=0.000711; m_5_5=0.144465; m_5_6=0.864950; m_5_7=0.004228; m_6_6=0.144464; m_6_7=0.457937; m_7_7=0.144097; m_7_8=0.621378; m_8_8=0.147006; m_8_9=0.733044; m_9_9=0.148940; m_9_10=1.096846; m_10_10=0.149584; m_10_11=1.261751}
!
! Created with skrf (http://scikit-rf.org).
# Hz S RI R 50.0 
!freq ReS11 ImS11 ReS21 ImS21 ReS12 ImS12 ReS22 ImS22
12607400000.0 0.9985789702622052 -0.05329202707628205 -9.985192464652353e-17 3.5470388744268517e-17 -9.985192464652353e-17 3.5470388744268517e-17 0.9985790056672357 -0.05329136365735648
12608017333.333334 0.9979799258408991 -0.06353005287593248 -9.946019212095643e-17 3.6494219542048225e-17 -9.946019212095643e-17 3.6494219542048225e-17 0.997979968045629 -0.06352938988745073
12608634666.666666 0.9972759178566598 -0.07376139683454017 -9.905796969604276e-17 3.751374411086717e-17 -9.905796969604276e-17 3.751374411086717e-17 0.9972759668559836 -0.07376073434618712
12609252000.0 0.9964670203543263 -0.08398498286000806 -9.864530451445952e-17 3.8528855056654496e-17 -9.864530451445952e-17 3.8528855056654496e-17 0.9964670761424264 -0.08398432094140924
12609869333.333334 0.9955533184106028 -0.0941997356761892 -9.822224481750324e-17 3.95394454995462e-17 -9.822224481750324e-17 3.95394454995462e-17 0.9955533809809459 -0.09419907439690331
12610486666.666666 0.994534908125107 -0.10440458093595112 -9.778883993951262e-17 4.0545409085084134e-17 -9.778883993951262e-17 4.0545409085084134e-17 0.9945349774704497 -0.10440392036546298
12611104000.0 0.9934118966102549 -0.11459844533431353 -9.734514030214674e-17 4.154663999542702e-17 -9.734514030214674e-17 4.154663999542702e-17 0.9934119727226409 -0.11459778554202654
12611721333.333334 0.9921844019800218 -0.12478025672105111 -9.689119740858421e-17 4.25430329604163e-17 -9.689119740858421e-17 4.25430329604163e-17 0.9921844848507837 -0.12477959777628005
12612338666.666666 0.9908525533374968 -0.13494894421368456 -9.642706383758066e-17 4.3534483268645576e-17 -9.642706383758066e-17 4.3534483268645576e-17 0.9908526429572574 -0.1349482861856482
12612956000.0 0.9894164907612849 -0.14510343831022365 -9.595279323741868e-17 4.452088677845182e-17 -9.595279323741868e-17 4.452088677845182e-17 0.9894165871199581 -0.14510278126803766
12613573333.333334 0.9878763652908339 -0.1552426710012311 -9.546844031977037e-17 4.5502139928789775e-17 -9.546844031977037e-17 4.5502139928789775e-17 0.9878764683776254 -0.1552420150139006
12614190666.666666 0.9862323389104926 -0.1653655758825456 -9.497406085341153e-17 4.647813975011889e-17 -9.497406085341153e-17 4.647813975011889e-17 0.986232448713902 -0.16536492101895814
12614808000.0 0.984484584532498 -0.17547108826727312 -9.446971165785227e-17 4.744878387516574e-17 -9.446971165785227e-17 4.744878387516574e-17 0.9844847010403206 -0.17547043459619138
12615425333.333334 0.9826332859787923 -0.1855581452977669 -9.395545059684198e-17 4.841397054965022e-17 -9.395545059684198e-17 4.841397054965022e-17 0.9826334091781186 -0.18555749288782128
12616042666.666666 0.9806786379616662 -0.195625686057526 -9.34313365717798e-17 4.9373598642912373e-17 -9.34313365717798e-17 4.9373598642912373e-17 0.9806787678388842 -0.19562503497720762
12616660000.0 0.9786208460633103 -0.20567265168261056 -9.289742951500495e-17 5.0327567658492716e-17 -9.289742951500495e-17 5.0327567658492716e-17 0.9786209826041076 -0.20567200200026403
12617277333.333334 0.9764601267141692 -0.21569798547314897 -9.235379038297741e-17 5.127577774464295e-17 -9.235379038297741e-17 5.127577774464295e-17 0.9764602699035333 -0.21569733725696513
12617894666.666666 0.9741967071702168 -0.22570063300428236 -9.180048114937334e-17 5.221812970472406e-17 -9.180048114937334e-17 5.221812970472406e-17 0.9741968569924373 -0.2256999863222911
12618512000.0 0.9718308254889619 -0.2356795422374808 -9.123756479803684e-17 5.315452500759867e-17 -9.123756479803684e-17 5.315452500759867e-17 0.9718309819276341 -0.2356788971575444
12619129333.333334 0.9693627305045392 -0.24563366363063896 -9.066510531587054e-17 5.4084865797869753e-17 -9.066510531587054e-17 5.4084865797869753e-17 0.969362893542562 -0.2456330202204441
12619746666.666666 0.9667926818014447 -0.25556195024884965 -9.008316768558627e-17 5.500905490610566e-17 -9.008316768558627e-17 5.500905490610566e-17 0.9667928514210263 -0.25556130857590115
12620364000.0 0.9641209496872403 -0.2654633578744888 -8.949181787835818e-17 5.592699585897409e-17 -8.949181787835818e-17 5.592699585897409e-17 0.9641211258698973 -0.2654627180061018
12620981333.333334 0.961347815164195 -0.27533684511676654 -8.889112284640455e-17 5.683859288924996e-17 -8.889112284640455e-17 5.683859288924996e-17 0.961347997890756 -0.27533620712006013
12621598666.666666 0.9584735698996275 -0.2851813735216413 -8.828115051542032e-17 5.774375094581711e-17 -8.828115051542032e-17 5.774375094581711e-17 0.9584737591502349 -0.285180737463531
12622216000.0 0.9554985161953116 -0.2949959076807383 -8.766196977694277e-17 5.864237570353638e-17 -8.766196977694277e-17 5.864237570353638e-17 0.955498711949424 -0.2949952736279295
12622833333.333334 0.9524229669556384 -0.3047794153404152 -8.703365048059586e-17 5.953437357306533e-17 -8.703365048059586e-17 5.953437357306533e-17 0.9524231691920314 -0.3047787833593953
12623450666.666666 0.9492472456547413 -0.31453086751019177 -8.639626342626114e-17 6.041965171055485e-17 -8.639626342626114e-17 6.041965171055485e-17 0.9492474543515117 -0.3145302376672244
12624068000.0 0.9459716863024477 -0.3242492385710869 -8.574988035612042e-17 6.129811802730756e-17 -8.574988035612042e-17 6.129811802730756e-17 0.9459719014370152 -0.32424861093220403
12624685333.333334 0.9425966334090987 -0.3339335063836214 -8.50945739466069e-17 6.216968119934103e-17 -8.50945739466069e-17 6.216968119934103e-17 0.9425968549582073 -0.33393288101461666
12625302666.666666 0.9391224419494604 -0.3435826523948917 -8.443041780029495e-17 6.30342506768175e-17 -8.443041780029495e-17 6.30342506768175e-17 0.9391226698891826 -0.34358202936131393
12625920000.0 0.9355494773252153 -0.35319566174620903 -8.375748643763191e-17 6.389173669347113e-17 -8.375748643763191e-17 6.389173669347113e-17 0.9355497116309539 -0.35319504111335487
12626537333.333334 0.9318781153266722 -0.3627715233794356 -8.307585528863608e-17 6.474205027586687e-17 -8.307585528863608e-17 6.474205027586687e-17 0.931878355973162 -0.3627709052123426
12627154666.666666 0.928108742093195 -0.37230923014345796 -8.238560068446455e-17 6.558510325261819e-17 -8.238560068446455e-17 6.558510325261819e-17 0.9281089890545078 -0.3723086145068985
12627772000.0 0.924241754072486 -0.3818077789003792 -8.168679984887773e-17 6.642080826352674e-17 -8.168679984887773e-17 6.642080826352674e-17 0.9242420073220308 -0.3818071658588529
12628389333.333334 0.9202775579790983 -0.3912661706304977 -8.097953088966928e-17 6.724907876856256e-17 -8.097953088966928e-17 6.724907876856256e-17 0.9202778174896262 -0.3912655602482249
12629006666.666666 0.9162165707514572 -0.400683410537879 -8.026387278993143e-17 6.806982905684004e-17 -8.026387278993143e-17 6.806982905684004e-17 0.9162168364950625 -0.400682802878794
12629624000.0 0.912059219508149 -0.4100585081546446 -7.95399053992815e-17 6.888297425544309e-17 -7.95399053992815e-17 6.888297425544309e-17 0.9120594914562741 -0.4100579032823893
12630241333.333334 0.9078059415028862 -0.4193904774454055 -7.8807709424982e-17 6.968843033817421e-17 -7.8807709424982e-17 6.968843033817421e-17 0.9078062196263237 -0.41938987542332246
12630858666.666666 0.9034571840786584 -0.4286783369106586 -7.806736642297825e-17 7.04861141342067e-17 -7.806736642297825e-17 7.04861141342067e-17 0.9034574683475539 -0.42867773780178436
12631476000.0 0.8990134046205046 -0.4379211096904045 -7.731895878882318e-17 7.127594333666717e-17 -7.731895878882318e-17 7.127594333666717e-17 0.8990136950043611 -0.4379205135574633
12632093333.333334 0.8944750705075768 -0.4471178236665292 -7.656256974856519e-17 7.205783651107015e-17 -7.656256974856519e-17 7.205783651107015e-17 0.8944753669752556 -0.44711723057192554
12632710666.666666 0.8898426590639201 -0.45626751156517614 -7.579828334950209e-17 7.283171310370896e-17 -7.579828334950209e-17 7.283171310370896e-17 0.8898429615836486 -0.45626692157099014
12633328000.0 0.8851166575081618 -0.46536921105871076 -7.502618445087223e-17 7.359749344992394e-17 -7.502618445087223e-17 7.359749344992394e-17 0.8851169660475308 -0.46536862422668884
12633945333.333334 0.880297562902448 -0.47442196486654936 -7.424635871447205e-17 7.435509878226527e-17 -7.424635871447205e-17 7.435509878226527e-17 0.8802978774284207 -0.4744213812581006
12634562666.666666 0.8753858821000599 -0.4834248208560746 -7.345889259517416e-17 7.510445123857275e-17 -7.345889259517416e-17 7.510445123857275e-17 0.8753862025789715 -0.4834242405322623
12635180000.0 0.8703821316921369 -0.49237683214269823 -7.266387333136456e-17 7.584547386995625e-17 -7.266387333136456e-17 7.584547386995625e-17 0.8703824580897014 -0.49237625516423494
12635797333.333334 0.8652868379532791 -0.5012770571895769 -7.186138893531591e-17 7.657809064865755e-17 -7.186138893531591e-17 7.657809064865755e-17 0.8652871702345909 -0.5012764836168173
12636414666.666666 0.860100536786333 -0.5101245599063907 -7.1051528183473e-17 7.730222647582277e-17 -7.1051528183473e-17 7.730222647582277e-17 0.86010087491587 -0.5101239897993245
12637032000.0 0.8548237736658869 -0.5189184097480444 -7.023438060664961e-17 7.801780718917899e-17 -7.023438060664961e-17 7.801780718917899e-17 0.8548241176075172 -0.5189178431662921
12637649333.333334 0.8494571035809725 -0.5276576818124151 -6.94100364801585e-17 7.872475957060027e-17 -6.94100364801585e-17 7.872475957060027e-17 0.849457453297955 -0.5276571188152201
12638266666.666666 0.8440010909766916 -0.5363414569376314 -6.857858681387598e-17 7.942301135355957e-17 -6.857858681387598e-17 7.942301135355957e-17 0.8440014464316826 -0.5363408975838545
12638884000.0 0.8384563096947918 -0.5449688217988415 -6.77401233422124e-17 8.011249123049406e-17 -6.77401233422124e-17 8.011249123049406e-17 0.8384566708498471 -0.5449682661469547
12639501333.333334 0.8328233429133861 -0.5535388690041549 -6.689473851401999e-17 8.079312886005521e-17 -6.689473851401999e-17 8.079312886005521e-17 0.8328237097299654 -0.5535383171122346
12640118666.666666 0.8271027830856503 -0.5620506971900301 -6.604252548243063e-17 8.146485487425071e-17 -6.604252548243063e-17 8.146485487425071e-17 0.8271031555246225 -0.5620501491157521
12640736000.0 0.8212952318772732 -0.5705034111164309 -6.518357809459411e-17 8.212760088550162e-17 -6.518357809459411e-17 8.212760088550162e-17 0.8212956098989191 -0.5705028669170636
12641353333.333334 0.8154013001035743 -0.5788961217603965 -6.431799088141685e-17 8.278129949353709e-17 -6.431799088141685e-17 8.278129949353709e-17 0.8154016836675926 -0.578895581492796
12641970666.666666 0.8094216076648598 -0.5872279464101314 -6.344585904713962e-17 8.342588429225212e-17 -6.344585904713962e-17 8.342588429225212e-17 0.809421996730369 -0.5872274101307337
12642588000.0 0.8033567834814827 -0.5954980087574714 -6.256727845890629e-17 8.406128987641078e-17 -6.256727845890629e-17 8.406128987641078e-17 0.803357178007027 -0.5954974765222879
12643205333.333334 0.7972074654276121 -0.6037054389901665 -6.168234563626335e-17 8.468745184824116e-17 -6.168234563626335e-17 8.468745184824116e-17 0.7972078653711662 -0.6037049108547783
12643822666.666666 0.7909743002641141 -0.611849373883411 -6.079115774056523e-17 8.530430682394214e-17 -6.079115774056523e-17 8.530430682394214e-17 0.7909747055830859 -0.611848849902962
12644440000.0 0.78465794357054 -0.6199289568906091 -5.989381256433688e-17 8.5911792440063e-17 -5.989381256433688e-17 8.5911792440063e-17 0.7846583542217772 -0.6199284371198008
12645057333.333334 0.7782590596762642 -0.6279433382333509 -5.899040852057998e-17 8.650984735976615e-17 -5.899040852057998e-17 8.650984735976615e-17 0.7782594756160576 -0.6279428227264375
12645674666.666666 0.7717783215905444 -0.6358916749908812 -5.80810446319954e-17 8.709841127899349e-17 -5.80810446319954e-17 8.709841127899349e-17 0.7717787427746334 -0.635891163801663
12646292000.0 0.7652164109316295 -0.6437731311888854 -5.716582052013944e-17 8.767742493252255e-17 -5.716582052013944e-17 8.767742493252255e-17 0.7652168373152051 -0.6437726243707023
12646909333.333334 0.758574017855319 -0.6515868778871042 -5.624483639456982e-17 8.824683009987659e-17 -5.624483639456982e-17 8.824683009987659e-17 0.758574449393031 -0.6515863754928328
12647526666.666666 0.7518518409821244 -0.6593320932668284 -5.5318193041863407e-17 8.880656961116615e-17 -5.5318193041863407e-17 8.880656961116615e-17 0.7518522776280834 -0.659331595348873
12648144000.0 0.7450505873239144 -0.6670079627171763 -5.4385991814628846e-17 8.93565873527821e-17 -5.4385991814628846e-17 8.93565873527821e-17 0.7450510290317002 -0.6670074693274672
12648761333.333334 0.7381709722095575 -0.6746136789207755 -5.34483346204456e-17 8.989682827298453e-17 -5.34483346204456e-17 8.989682827298453e-17 0.7381714189322214 -0.6746131901107612
12649378666.666666 0.7312137192097278 -0.6821484419386333 -5.2505323910753384e-17 9.042723838737404e-17 -5.2505323910753384e-17 9.042723838737404e-17 0.7312141708997972 -0.6821479577592746
12649996000.0 0.7241795600606244 -0.6896114592944551 -5.155706266965883e-17 9.094776478426157e-17 -5.155706266965883e-17 9.094776478426157e-17 0.7241800166701106 -0.689610979796222
12650613333.333334 0.7170692345871876 -0.697001946057809 -5.060365440273624e-17 9.145835562989545e-17 -5.060365440273624e-17 9.145835562989545e-17 0.7170696960675879 -0.6970014712906736
12651230666.666666 0.7098834906252861 -0.7043191249266814 -4.964520312575404e-17 9.195896017358496e-17 -4.964520312575404e-17 9.195896017358496e-17 0.7098839569275918 -0.7043186549401147
12651848000.0 0.7026230839428879 -0.7115622263094163 -4.868181335332967e-17 9.244952875271647e-17 -4.868181335332967e-17 9.244952875271647e-17 0.7026235550175859 -0.7115617611523796
12652465333.333334 0.6952887781607645 -0.7187304884054507 -4.771359008756983e-17 9.293001279763336e-17 -4.771359008756983e-17 9.293001279763336e-17 0.6952892539578466 -0.7187300281263943
12653082666.666666 0.687881344672103 -0.7258231572855239 -4.674063880666571e-17 9.340036483639617e-17 -4.674063880666571e-17 9.340036483639617e-17 0.6878818251410681 -0.7258227019323795
12653700000.0 0.6804015625612873 -0.7328394869710462 -4.576306545338877e-17 9.386053849944988e-17 -4.576306545338877e-17 9.386053849944988e-17 0.6804020476511479 -0.7328390365912228
12654317333.333334 0.6728502185221634 -0.7397787395123645 -4.478097642362124e-17 9.431048852413257e-17 -4.478097642362124e-17 9.431048852413257e-17 0.6728507081814522 -0.7397782941527447
12654934666.666666 0.6652281067751388 -0.7466401850665372 -4.379447855476238e-17 9.475017075910225e-17 -4.379447855476238e-17 9.475017075910225e-17 0.6652286009519108 -0.7466397447734688
12655552000.0 0.6575360289835528 -0.7534231019741608 -4.2803679114145316e-17 9.517954216861712e-17 -4.2803679114145316e-17 9.517954216861712e-17 0.6575365276253956 -0.7534226667934569
12656169333.333334 0.6497747941696903 -0.7601267768349986 -4.180868578741072e-17 9.559856083669799e-17 -4.180868578741072e-17 9.559856083669799e-17 0.6497752972237247 -0.7601263468119277
12656786666.666666 0.6419452186293862 -0.7667505045832689 -4.080960666680425e-17 9.600718597118359e-17 -4.080960666680425e-17 9.600718597118359e-17 0.6419457260422752 -0.7667500797625538
12657404000.0 0.6340481258463018 -0.7732935885616915 -3.980655023945975e-17 9.640537790765363e-17 -3.980655023945975e-17 9.640537790765363e-17 0.634048637564256 -0.7732931689875047
12658021333.333334 0.6260843464052721 -0.7797553405947985 -3.879962537565308e-17 9.679309811322647e-17 -3.879962537565308e-17 9.679309811322647e-17 0.6260848623740531 -0.779754926310754
12658638666.666666 0.6180547179050783 -0.7861350810612021 -3.7788941317011435e-17 9.71703091902382e-17 -3.7788941317011435e-17 9.71703091902382e-17 0.6180552380700062 -0.7861346721103546
12659256000.0 0.6099600848700412 -0.7924321389653248 -3.6774607664662524e-17 9.753697487980794e-17 -3.6774607664662524e-17 9.753697487980794e-17 0.6099606091760017 -0.7924317353901649
12659873333.333334 0.6018012986615343 -0.7986458520077077 -3.575673436738593e-17 9.789306006526621e-17 -3.575673436738593e-17 9.789306006526621e-17 0.6018018270529818 -0.7986454538501556
12660490666.666666 0.5935792173883517 -0.8047755666547408 -3.4735431709734806e-17 9.823853077545944e-17 -3.4735431709734806e-17 9.823853077545944e-17 0.5935797498093156 -0.8047751739561416
12661108000.0 0.585294705816272 -0.810820638207533 -3.371081030007054e-17 9.857335418795015e-17 -3.371081030007054e-17 9.857335418795015e-17 0.5852952422103641 -0.8108202510086552
12661725333.333334 0.5769486352773348 -0.8167804308695508 -3.2682981058651305e-17 9.889749863206423e-17 -3.2682981058651305e-17 9.889749863206423e-17 0.5769491755877549 -0.8167800492105802
12662342666.666666 0.5685418835780827 -0.8226543178135718 -3.1652055205604916e-17 9.921093359184275e-17 -3.1652055205604916e-17 9.921093359184275e-17 0.5685424277476242 -0.822653941734108
12662960000.0 0.5600753349072617 -0.8284416812475983 -3.06181442489475e-17 9.951362970884558e-17 -3.06181442489475e-17 9.951362970884558e-17 0.560075882878317 -0.8284413107866493
12663577333.333334 0.5515498797428459 -0.8341419124798128 -2.9581359972530926e-17 9.980555878484436e-17 -2.9581359972530926e-17 9.980555878484436e-17 0.5515504314574143 -0.8341415476757932
12664194666.666666 0.54296641475829 -0.8397544119826684 -2.8541814423985234e-17 1.0008669378438433e-16 -2.8541814423985234e-17 1.0008669378438433e-16 0.5429669701579819 -0.8397540528733927
12664812000.0 0.534325842728359 -0.8452785894558413 -2.749961990262051e-17 1.0035700883722561e-16 -2.749961990262051e-17 1.0035700883722561e-16 0.5343264017544037 -0.845278236078523
12665429333.333334 0.5256290724340619 -0.8507138638884023 -2.6454888947332115e-17 1.0061647924065168e-16 -2.6454888947332115e-17 1.0061647924065168e-16 0.5256296350273125 -0.8507135162796474
12666046666.666666 0.516877018567213 -0.8560596636198304 -2.5407734324473854e-17 1.0086508146165598e-16 -2.5407734324473854e-17 1.0086508146165598e-16 0.516877584668153 -0.8560593218156347
12666664000.0 0.5080706016339861 -0.8613154264002869 -2.4358269015682597e-17 1.0110279313900885e-16 -2.4358269015682597e-17 1.0110279313900885e-16 0.5080711711827364 -0.8613150904360323
12667281333.333334 0.4992107478583418 -0.8664805994496029 -2.3306606205739324e-17 1.0132959308518547e-16 -2.3306606205739324e-17 1.0132959308518547e-16 0.49921132079466657 -0.8664802693600544
12667898666.666666 0.49029838908451545 -0.8715546395154798 -2.225285927037292e-17 1.0154546128817724e-16 -2.225285927037292e-17 1.0154546128817724e-16 0.49029896534782785 -0.87155431533478
12668516000.0 0.4813344626789076 -0.8765370129306781 -2.1197141764048172e-17 1.0175037891317586e-16 -2.1197141764048172e-17 1.0175037891317586e-16 0.48133504220827783 -0.8765366946923461
12669133333.333334 0.4723199114317458 -0.8814271956690101 -2.0139567407782974e-17 1.0194432830412303e-16 -2.0139567407782974e-17 1.0194432830412303e-16 0.47232049416590594 -0.8814268834059364
12669750666.666666 0.46325568345770185 -0.8862246734005805 -1.9080250076879892e-17 1.0212729298514703e-16 -1.9080250076879892e-17 1.0212729298514703e-16 0.4632562693350526 -0.8862243671450233
12670368000.0 0.45414273209617007 -0.8909289415458754 -1.8019303788715645e-17 1.0229925766185908e-16 -1.8019303788715645e-17 1.0229925766185908e-16 0.45414332105478816 -0.8909286413294589
12670985333.333334 0.44498201581122776 -0.8955395053287174 -1.6956842690488326e-17 1.0246020822252973e-16 -1.6956842690488326e-17 1.0246020822252973e-16 0.4449826077888714 -0.8955392111824267
