! Parameters = {f0=12700.012000; bw=77.238000; Q=6100.000000; N=10; m_0_1=1.282978; m_1_1=0.479924; m_1_2=1.117790; m_2_2=0.479275; m_2_3=0.754753; m_2_8=0.001213; m_2_9=0.037917; m_3_3=0.477338; m_3_4=0.643282; m_3_7=0.001813; m_3_8=-0.095275; m_3_9=0.001213; m_4_4=0.474413; m_4_5=0.479617; m_4_6=0.005330; m_4_7=-0.115824; m_4_8=0.001813; m_5_5=0.474795; m_5_6=0.886972; m_5_7=0.005330; m_6_6=0.474794; m_6_7=0.479959; m_7_7=0.474427; m_7_8=0.643400; m_8_8=0.477336; m_8_9=0.755066; m_9_9=0.479270; m_9_10=1.118868; m_10_10=0.479914; m_10_11=1.283773}
!
! Created with skrf (http://scikit-rf.org).
# Hz S RI R 50.0 
!freq ReS11 ImS11 ReS21 ImS21 ReS12 ImS12 ReS22 ImS22
12607400000.0 0.7029485267914414 -0.7112407248474756 -5.547366314473405e-17 1.0362141986175196e-16 -5.547366314473405e-17 1.0362141986175196e-16 0.7029490075367866 -0.7112402497067124
12608017333.333334 0.6951496462987146 -0.7188650563566095 -5.4320345149079144e-17 1.0420468359396165e-16 -5.4320345149079144e-17 1.0420468359396165e-16 0.6951501321737499 -0.7188645865103092
12608634666.666666 0.6872680756943452 -0.726403876731954 -5.31609114388452e-17 1.0477512052725964e-16 -5.31609114388452e-17 1.0477512052725964e-16 0.6872685666407743 -0.7264034122354843
12609252000.0 0.679304752514585 -0.7338562892085323 -5.199550456286422e-17 1.0533266672965656e-16 -5.199550456286422e-17 1.0533266672965656e-16 0.6793052484735157 -0.733855830116621
12609869333.333334 0.6712606240203773 -0.7412214072998654 -5.0824267736079514e-17 1.0587725985219736e-16 -5.0824267736079514e-17 1.0587725985219736e-16 0.6712611249323251 -0.7412209536665902
12610486666.666666 0.663136647084841 -0.7484983549032658 -4.9647344821972706e-17 1.0640883913587952e-16 -4.9647344821972706e-17 1.0640883913587952e-16 0.6631371528897388 -0.7484979067820505
12611104000.0 0.6549337880790718 -0.755686266404398 -4.846488031491547e-17 1.0692734541837617e-16 -4.846488031491547e-17 1.0692734541837617e-16 0.6549342987162765 -0.7556858238480056
12611721333.333334 0.646653022757653 -0.7627842867798275 -4.727701932247973e-17 1.0743272114055237e-16 -4.727701932247973e-17 1.0743272114055237e-16 0.6466535381659535 -0.7627838498403551
12612338666.666666 0.6382953361422072 -0.7697915716990712 -4.608390754765629e-17 1.0792491035279573e-16 -4.608390754765629e-17 1.0792491035279573e-16 0.63829585625983 -0.7697911404279415
12612956000.0 0.6298617224043914 -0.7767072876248776 -4.488569127099305e-17 1.0840385872115656e-16 -4.488569127099305e-17 1.0840385872115656e-16 0.6298622471690082 -0.776706862072833
12613573333.333334 0.6213531847476604 -0.7835306119123615 -4.368251733272867e-17 1.0886951353326534e-16 -4.368251733272867e-17 1.0886951353326534e-16 0.621353714096398 -0.7835301921294618
12614190666.666666 0.6127707352878934 -0.7902607329069029 -4.24745331148076e-17 1.0932182370407756e-16 -4.24745331148076e-17 1.0932182370407756e-16 0.6127712691573379 -0.7902603189425146
12614808000.0 0.6041153949329499 -0.7968968500407226 -4.126188652285137e-17 1.0976073978141124e-16 -4.126188652285137e-17 1.0976073978141124e-16 0.6041159332591572 -0.7968964419435168
12615425333.333334 0.5953881932612777 -0.803438173928083 -4.0044725968102286e-17 1.1018621395127646e-16 -4.0044725968102286e-17 1.1018621395127646e-16 0.595388735979779 -0.8034377717460269
12616042666.666666 0.5865901683995064 -0.8098839264591308 -3.882320034926905e-17 1.1059820004301933e-16 -3.882320034926905e-17 1.1059820004301933e-16 0.5865907154453175 -0.8098835302394846
12616660000.0 0.5777223668988039 -0.8162333408925809 -3.759745903435214e-17 1.109966535342555e-16 -3.759745903435214e-17 1.109966535342555e-16 0.5777229182064313 -0.81623295068189
12617277333.333334 0.5687858436105419 -0.8224856619467994 -3.6367651842416135e-17 1.113815315556024e-16 -3.6367651842416135e-17 1.113815315556024e-16 0.5687863991139923 -0.8224852777908902
12617894666.666666 0.5597816615607532 -0.8286401458897003 -3.5133929025302606e-17 1.1175279289521572e-16 -3.5133929025302606e-17 1.1175279289521572e-16 0.5597822211935403 -0.8286397678336744
12618512000.0 0.5507108918236077 -0.8346960606272597 -3.389644124929408e-17 1.1211039800312325e-16 -3.389644124929408e-17 1.1211039800312325e-16 0.5507114555187618 -0.8346956887154906
12619129333.333334 0.5415746133941503 -0.8406526857905096 -3.2655339576764055e-17 1.1245430899534811e-16 -3.2655339576764055e-17 1.1245430899534811e-16 0.5415751810842226 -0.840652320066632
12619746666.666666 0.5323739130598992 -0.8465093128212533 -3.141077544776093e-17 1.127844896578373e-16 -3.141077544776093e-17 1.127844896578373e-16 0.5323744846769749 -0.846508953328165
12620364000.0 0.5231098852713824 -0.8522652450564802 -3.0162900661537154e-17 1.1310090545019019e-16 -3.0162900661537154e-17 1.1310090545019019e-16 0.5231104607470843 -0.8522648918363311
12620981333.333334 0.5137836320123537 -0.8579197978109693 -2.891186735810341e-17 1.134035235091672e-16 -2.891186735810341e-17 1.134035235091672e-16 0.5137842112778536 -0.8579194509051614
12621598666.666666 0.504396262668303 -0.8634722984590001 -2.7657827999687712e-17 1.1369231265201119e-16 -2.7657827999687712e-17 1.1369231265201119e-16 0.5043968456543281 -0.8634719579081788
12622216000.0 0.49494889389468044 -0.8689220865142347 -2.6400935352178892e-17 1.139672433795594e-16 -2.6400935352178892e-17 1.139672433795594e-16 0.49494948053152277 -0.8689217523582868
12622833333.333334 0.48544264948409593 -0.874268513708278 -2.5141342466566484e-17 1.142282878791453e-16 -2.5141342466566484e-17 1.142282878791453e-16 0.4854432397016189 -0.8742681859863236
12623450666.666666 0.47587866023256326 -0.8795109440678275 -2.387920266032116e-17 1.1447542002730265e-16 -2.387920266032116e-17 1.1447542002730265e-16 0.4758792539602122 -0.8795106228182195
12624068000.0 0.46625806380506607 -0.8846487539902891 -2.261466949877285e-17 1.1470861539225936e-16 -2.261466949877285e-17 1.1470861539225936e-16 0.46625866097187574 -0.8846484392506064
12624685333.333334 0.4565820046000025 -0.8896813323180733 -2.1347896776430404e-17 1.149278512362336e-16 -2.1347896776430404e-17 1.149278512362336e-16 0.4565826051346055 -0.8896810241251175
12625302666.666666 0.446851633613509 -0.8946080804110585 -2.0079038498349413e-17 1.1513310651751061e-16 -2.0079038498349413e-17 1.1513310651751061e-16 0.44685223744414326 -0.894607778800846
12625920000.0 0.437068108301962 -0.8994284122180954 -1.880824886140014e-17 1.1532436189232908e-16 -1.880824886140014e-17 1.1532436189232908e-16 0.4370687153564821 -0.8994281172258599
12626537333.333334 0.4272325924448579 -0.9041417543464444 -1.753568223558192e-17 1.1550159971655134e-16 -1.753568223558192e-17 1.1550159971655134e-16 0.4272332026507408 -0.9041414660066266
12627154666.666666 0.41734625600604397 -0.908747546130144 -1.6261493145307388e-17 1.1566480404712928e-16 -1.6261493145307388e-17 1.1566480404712928e-16 0.4173468692903994 -0.9087472644763906
12627772000.0 0.40741027499447036 -0.9132452396967365 -1.498583625062289e-17 1.1581396064337253e-16 -1.498583625062289e-17 1.1581396064337253e-16 0.40741089128404895 -0.9132449647618963
12628389333.333334 0.39742583132474013 -0.9176343000322406 -1.3708866328538315e-17 1.1594905696799434e-16 -1.3708866328538315e-17 1.1594905696799434e-16 0.3974264505459421 -0.9176340318483588
12629006666.666666 0.3873941126759449 -0.921914205045045 -1.2430738254205046e-17 1.1607008218796855e-16 -1.2430738254205046e-17 1.1607008218796855e-16 0.3873947347548294 -0.9219139436433622
12629624000.0 0.3773163123508842 -0.9260844456278013 -1.1151606982208282e-17 1.1617702717516837e-16 -1.1151606982208282e-17 1.1617702717516837e-16 0.3773169372131765 -0.9260841910387457
12630241333.333334 0.36719362913374837 -0.9301445257181317 -9.871627527800767e-18 1.1626988450680232e-16 -9.871627527800767e-18 1.1626988450680232e-16 0.3671942567048518 -0.9301442779713224
12630858666.666666 0.3570272671478926 -0.9340939623574963 -8.590954948146708e-18 1.1634864846564646e-16 -8.590954948146708e-18 1.1634864846564646e-16 0.3570278973528943 -0.9340937214817322
12631476000.0 0.34681843571209814 -0.9379322857488346 -7.30974432354121e-18 1.164133150400687e-16 -7.30974432354121e-18 1.164133150400687e-16 0.3468190684757796 -0.9379320517720959
12632093333.333334 0.3365683491972765 -0.9416590393122349 -6.028150738710558e-18 1.1646388192384433e-16 -6.028150738710558e-18 1.1646388192384433e-16 0.3365689844441219 -0.9416588122616772
12632710666.666666 0.3262782268816457 -0.9452737797393875 -4.7463292640430814e-18 1.1650034851577002e-16 -4.7463292640430814e-18 1.1650034851577002e-16 0.3262788645358521 -0.945273559641343
12633328000.0 0.3159492928057739 -0.9487760770462921 -3.464434936832394e-18 1.1652271591907038e-16 -3.464434936832394e-18 1.1652271591907038e-16 0.3159499327912583 -0.9487758639262592
12633945333.333334 0.3055827756270268 -0.9521655146243756 -2.182622742591557e-18 1.1653098694059707e-16 -2.182622742591557e-18 1.1653098694059707e-16 0.3055834178674374 -0.952165308507024
12634562666.666666 0.29517990847336417 -0.9554416892900773 -9.010475963377807e-19 1.165251660898241e-16 -9.010475963377807e-19 1.165251660898241e-16 0.2951805528920876 -0.9554414901992387
12635180000.0 0.28474192879676236 -0.9586042113327692 3.8013567611699503e-19 1.1650525957763806e-16 3.8013567611699503e-19 1.1650525957763806e-16 0.28474257531693414 -0.9586040192914386
12635797333.333334 0.2742700782257992 -0.9616527045611812 1.6607723568342438e-18 1.1647127531492201e-16 1.6607723568342438e-18 1.1647127531492201e-16 0.2742707267703124 -0.961652519591513
12636414666.666666 0.26376560241828534 -0.9645868063480548 2.9407078543801257e-18 1.1642322291093573e-16 2.9407078543801257e-18 1.1642322291093573e-16 0.2637662529097996 -0.9645866284713596
12637032000.0 0.25322975091270744 -0.9674061676733869 4.219787722500383e-18 1.1636111367149e-16 4.219787722500383e-18 1.1636111367149e-16 0.2532304032736583 -0.9674059969101293
12637649333.333334 0.24266377697991967 -0.9701104531658553 5.497857678687667e-18 1.162849605969184e-16 5.497857678687667e-18 1.162849605969184e-16 0.2426644311325282 -0.9701102895356525
12638266666.666666 0.23206893747381696 -0.9726993411427782 6.7747636227913125e-18 1.1619477837984334e-16 6.7747636227913125e-18 1.1619477837984334e-16 0.23206959334009852 -0.9726991846643969
12638884000.0 0.2214464926820483 -0.9751725236483227 8.050351655541569e-18 1.160905834027402e-16 8.050351655541569e-18 1.160905834027402e-16 0.22144715018382227 -0.9751723743396777
12639501333.333334 0.2107977061758542 -0.9775297064902012 9.324468097098525e-18 1.1597239373529605e-16 9.324468097098525e-18 1.1597239373529605e-16 0.21079836523475237 -0.97752956436835
12640118666.666666 0.2001238446601473 -0.9797706092745697 1.0596959505491366e-17 1.1584022913157023e-16 1.0596959505491366e-17 1.1584022913157023e-16 0.20012450519762476 -0.9797704743557168
12640736000.0 0.18942617782219728 -0.9818949654395293 1.1867672695143577e-17 1.1569411102694222e-16 1.1867672695143577e-17 1.1569411102694222e-16 0.18942683975954042 -0.9818948377390189
12641353333.333334 0.178705978181347 -0.9839025222866692 1.313645475519541e-17 1.1553406253487368e-16 1.313645475519541e-17 1.1553406253487368e-16 0.17870664143968354 -0.9839024018189858
12641970666.666666 0.1679645209371427 -0.9857930410112343 1.440315306793396e-17 1.1536010844345336e-16 1.440315306793396e-17 1.1536010844345336e-16 0.16796518543745104 -0.9857929277900015
12642588000.0 0.15720308381772813 -0.9875662967305121 1.566761532711161e-17 1.1517227521174855e-16 1.566761532711161e-17 1.1517227521174855e-16 0.15720374948084642 -0.987566190768489
12643205333.333334 0.1464229469280508 -0.9892220785105471 1.6929689556206597e-17 1.149705909659583e-16 1.6929689556206597e-17 1.149705909659583e-16 0.14642361367468693 -0.9892219798196289
12643822666.666666 0.1356253925972815 -0.9907601893912846 1.8189224126695547e-17 1.1475508549535775e-16 1.8189224126695547e-17 1.1475508549535775e-16 0.13562606034802205 -0.9907600979825011
12644440000.0 0.12481170522650185 -0.9921804464099636 1.9446067776214654e-17 1.145257902480533e-16 1.9446067776214654e-17 1.145257902480533e-16 0.1248123739018216 -0.9921803622934754
12645057333.333334 0.113983171135949 -0.9934826806228753 2.0700069626689254e-17 1.142827383265352e-16 2.0700069626689254e-17 1.142827383265352e-16 0.11398384065622078 -0.9934826038079771
12645674666.666666 0.10314107841194879 -0.9946667371254759 2.1951079202439192e-17 1.140259644830282e-16 2.1951079202439192e-17 1.140259644830282e-16 0.1031417486974525 -0.9946666676205913
12646292000.0 0.09228671675341078 -0.9957324750708373 2.319894644820221e-17 1.137555051146471e-16 2.319894644820221e-17 1.137555051146471e-16 0.09228738772434325 -0.9957324128835201
12646909333.333334 0.08142137731898007 -0.9966797676863418 2.44435217470869e-17 1.134713982583604e-16 2.44435217470869e-17 1.134713982583604e-16 0.0814220488954642 -0.9966797128232746
12647526666.666666 0.07054635257296953 -0.9975085022888133 2.568465593848812e-17 1.1317368358575147e-16 2.568465593848812e-17 1.1317368358575147e-16 0.07054702467506409 -0.9975084547558061
12648144000.0 0.05966293613173016 -0.9982185802979038 2.692220033595325e-17 1.1286240239758254e-16 2.692220033595325e-17 1.1286240239758254e-16 0.059663608679439234 -0.9982185400998957
12648761333.333334 0.048772422609970174 -0.9988099172478089 2.815600674494221e-17 1.1253759761817227e-16 2.815600674494221e-17 1.1253759761817227e-16 0.04877309552325268 -0.9988098843888662
12649378666.666666 0.03787610746655848 -0.9992824427973321 2.9385927480534267e-17 1.1219931378957775e-16 2.9385927480534267e-17 1.1219931378957775e-16 0.03787678066533755 -0.9992824172806456
12649996000.0 0.02697528685051075 -0.9996361007382403 3.0611815385110936e-17 1.1184759706557154e-16 3.0611815385110936e-17 1.1184759706557154e-16 0.02697596025468348 -0.9996360825661298
12650613333.333334 0.016071257446666966 -0.9998708490019617 3.1833523845913916e-17 1.1148249520543975e-16 3.1833523845913916e-17 1.1148249520543975e-16 0.016071930976113785 -0.9998708381758715
12651230666.666666 0.005165316321787614 -0.9999866596645767 3.305090681252748e-17 1.1110405756759042e-16 3.305090681252748e-17 1.1110405756759042e-16 0.005165989896381869 -0.9999866561850765
12651848000.0 -0.005741239230219217 -0.9999835189501488 3.4263818814361883e-17 1.1071233510294919e-16 3.4263818814361883e-17 1.1071233510294919e-16 -0.005740565690601701 -0.9999835228169373
12652465333.333334 -0.016647111842273767 -0.9998614272323595 3.54721149779525e-17 1.1030738034819632e-16 3.54721149779525e-17 1.1030738034819632e-16 -0.01664643841774522 -0.9998614384442602
12653082666.666666 -0.027551004228365098 -0.9996203990344685 3.667565104425608e-17 1.098892474187933e-16 3.667565104425608e-17 1.098892474187933e-16 -0.027550330999016198 -0.9996204175894294
12653700000.0 -0.038451619338350035 -0.9992604630275728 3.787428338586517e-17 1.0945799200181884e-16 3.787428338586517e-17 1.0945799200181884e-16 -0.03845094638424049 -0.9992604889226716
12654317333.333334 -0.04934766051161621 -0.9987816620272174 3.90678690240653e-17 1.0901367134864491e-16 3.90678690240653e-17 1.0901367134864491e-16 -0.04934698791276515 -0.998781695258658
12654934666.666666 -0.060237831631834965 -0.9981840529882835 4.025626564591267e-17 1.0855634426738933e-16 4.025626564591267e-17 1.0855634426738933e-16 -0.06023715946821142 -0.9981840935513963
12655552000.0 -0.07112083728091086 -0.9974677069982185 4.1439331621146876e-17 1.0808607111520994e-16 4.1439331621146876e-17 1.0808607111520994e-16 -0.07112016563242433 -0.9974677548874639
12656169333.333334 -0.08199538289304732 -0.9966327092685869 4.261692601903689e-17 1.0760291379040876e-16 4.261692601903689e-17 1.0760291379040876e-16 -0.08199471183953828 -0.9966327644775543
12656786666.666666 -0.09286017490879586 -0.9956791591249308 4.3788908625144567e-17 1.0710693572434757e-16 4.3788908625144567e-17 1.0710693572434757e-16 -0.09285950453002616 -0.995679221646339
12657404000.0 -0.10371392092901364 -0.9946071699949444 4.495513995799533e-17 1.0659820187318225e-16 4.495513995799533e-17 1.0659820187318225e-16 -0.1037132513046571 -0.9946072398206431
12658021333.333334 -0.11455532986842817 -0.9934168693949967 4.611548128564451e-17 1.0607677870941969e-16 4.611548128564451e-17 1.0607677870941969e-16 -0.11455466107806125 -0.9934169465159693
12658638666.666666 -0.125383112109273 -0.9921083989149642 4.726979464212571e-17 1.0554273421330397e-16 4.726979464212571e-17 1.0554273421330397e-16 -0.12538244423236497 -0.9921084833213246
12659256000.0 -0.1361959796548885 -0.9906819142013572 4.8417942843875254e-17 1.0499613786399047e-16 4.8417942843875254e-17 1.0499613786399047e-16 -0.13619531277079236 -0.9906820058823553
12659873333.333334 -0.14699264628259442 -0.9891375849388502 4.955978950595383e-17 1.0443706063058813e-16 4.955978950595383e-17 1.0443706063058813e-16 -0.14699198047053727 -0.9891376838828708
12660490666.666666 -0.1577718276968876 -0.9874755948300727 5.0695199058237265e-17 1.0386557496299311e-16 5.0695199058237265e-17 1.0386557496299311e-16 -0.15777116303596128 -0.9874757010246387
12661108000.0 -0.1685322416822684 -0.9856961415737462 5.182403676150186e-17 1.0328175478254532e-16 5.182403676150186e-17 1.0328175478254532e-16 -0.16853157825142046 -0.98569625500552
12661725333.333334 -0.17927260825559618 -0.9837994368411973 5.294616872333272e-17 1.0268567547254663e-16 5.294616872333272e-17 1.0268567547254663e-16 -0.17927194613361974 -0.9837995574959801
12662342666.666666 -0.18999164981843064 -0.9817857062511616 5.4061461914026384e-17 1.02077413868555e-16 5.4061461914026384e-17 1.02077413868555e-16 -0.18999098908395562 -0.9817858341138976
12662960000.0 -0.20068809130909002 -0.9796551893429314 5.5169784182292005e-17 1.0145704824855194e-16 5.5169784182292005e-17 1.0145704824855194e-16 -0.2006874320405737 -0.9796553243977095
12663577333.333334 -0.2113606603541284 -0.9774081395479007 5.627100427090473e-17 1.0082465832290742e-16 5.627100427090473e-17 1.0082465832290742e-16 -0.21136000262984586 -0.9774082817779544
12664194666.666666 -0.22200808741988254 -0.9750448241593755 5.736499183219521e-17 1.0018032522420079e-16 5.736499183219521e-17 1.0018032522420079e-16 -0.2220074313179177 -0.975044973547088
12664812000.0 -0.23262910596340358 -0.9725655243007995 5.845161744346714e-17 9.95241314968515e-17 5.845161744346714e-17 9.95241314968515e-17 -0.23262845156163983 -0.9725656808277038
12665429333.333334 -0.243222452583061 -0.9699705348923249 5.953075262227029e-17 9.885616108659617e-17 5.953075262227029e-17 9.885616108659617e-17 -0.2432217999591718 -0.9699706985391066
12666046666.666666 -0.2537868671688828 -0.9672601646157174 6.060226984153785e-17 9.817649932981182e-17 6.060226984153785e-17 9.817649932981182e-17 -0.25378621640032273 -0.9672603353622176
12666664000.0 -0.26432109305253293 -0.9644347358776212 6.166604254467533e-17 9.74852329426307e-17 6.166604254467533e-17 9.74852329426307e-17 -0.2643204442165281 -0.9644349137028373
12667281333.333334 -0.2748238771566288 -0.9614945847712404 6.27219451604141e-17 9.678245000996116e-17 6.27219451604141e-17 9.678245000996116e-17 -0.2748232303301682 -0.9614947696533315
12667898666.666666 -0.28529397014385616 -0.9584400610363585 6.376985311764925e-17 9.606823997428024e-17 6.376985311764925e-17 9.606823997428024e-17 -0.28529332540368185 -0.9584402529526449
12668516000.0 -0.29573012656579745 -0.9552715280176626 6.480964286009453e-17 9.534269362430053e-17 6.480964286009453e-17 9.534269362430053e-17 -0.2957294839883963 -0.9552717269446312
12669133333.333334 -0.3061311050106196 -0.9519893626216626 6.584119186078541e-17 9.460590308349669e-17 6.584119186078541e-17 9.460590308349669e-17 -0.3061304646722136 -0.9519895685349686
12669750666.666666 -0.3164956682512056 -0.948593955271719 6.686437863653033e-17 9.385796179842103e-17 6.686437863653033e-17 9.385796179842103e-17 -0.3164950302277434 -0.9485941681461897
12670368000.0 -0.3268225833921369 -0.9450857098616574 6.787908276215208e-17 9.309896452691797e-17 6.787908276215208e-17 9.309896452691797e-17 -0.3268219477592832 -0.9450859296712917
