! Parameters = {f0=12700.012000; bw=77.238000; Q=6100.000000; N=10; m_0_1=1.321617; m_1_1=1.059504; m_1_2=1.156429; m_2_2=1.058855; m_2_3=0.793392; m_2_8=0.003145; m_2_9=0.039849; m_3_3=1.056918; m_3_4=0.681921; m_3_7=0.003745; m_3_8=-0.093343; m_3_9=0.003145; m_4_4=1.053993; m_4_5=0.518256; m_4_6=0.007262; m_4_7=-0.113892; m_4_8=0.003745; m_5_5=1.054375; m_5_6=0.925611; m_5_7=0.007262; m_6_6=1.054374; m_6_7=0.518598; m_7_7=1.054007; m_7_8=0.682039; m_8_8=1.056916; m_8_9=0.793705; m_9_9=1.058850; m_9_10=1.157507; m_10_10=1.059494; m_10_11=1.322412}
!
! Created with skrf (http://scikit-rf.org).
# Hz S RI R 50.0 
!freq ReS11 ImS11 ReS21 ImS21 ReS12 ImS12 ReS22 ImS22
12607400000.0 0.5416017909922818 0.840635176514617 -1.0630648150129693e-16 -9.14559185730035e-17 -1.0630648150129693e-16 -9.14559185730035e-17 0.54160120573482 0.8406355535821683
12608017333.333334 0.5516909368609593 0.8340486257918573 -1.0738764419915891e-16 -9.014125908682224e-17 -1.0738764419915891e-16 -9.014125908682224e-17 0.5516903562175343 0.8340490098647556
12608634666.666666 0.5616999918149647 0.8273409933001489 -1.084525633783817e-16 -8.881383490317213e-17 -1.084525633783817e-16 -8.881383490317213e-17 0.5616994158694146 0.8273413843219541
12609252000.0 0.5716275028046677 0.8205132528101594 -1.0950108853765756e-16 -8.747384654893486e-17 -1.0950108853765756e-16 -8.747384654893486e-17 0.5716269316401403 0.8205136507234276
12609869333.333334 0.5814720286185092 0.8135663955290217 -1.1053307164913293e-16 -8.612149632291181e-17 -1.1053307164913293e-16 -8.612149632291181e-17 0.5814714623174508 0.813566800275315
12610486666.666666 0.5912321400920199 0.8065014299565866 -1.115483671792167e-16 -8.475698826536776e-17 -1.115483671792167e-16 -8.475698826536776e-17 0.5912315787361622 0.8065018414764807
12611104000.0 0.6009064203156896 0.7993193817387346 -1.125468321090659e-16 -8.338052812726054e-17 -1.125468321090659e-16 -8.338052812726054e-17 0.6009058639860385 0.7993197999718272
12611721333.333334 0.610493464840272 0.7920212935187589 -1.1352832595461959e-16 -8.199232333932962e-17 -1.1352832595461959e-16 -8.199232333932962e-17 0.6104929136170958 0.7920217184036797
12612338666.666666 0.6199918818808378 0.7846082247858904 -1.1449271078633265e-16 -8.059258298084124e-17 -1.1449271078633265e-16 -8.059258298084124e-17 0.619991335843656 0.7846086562603093
12612956000.0 0.6294002925189561 0.7770812517213773 -1.1543985124847909e-16 -7.918151774816256e-17 -1.1543985124847909e-16 -7.918151774816256e-17 0.629399751746527 0.7770816897220133
12613573333.333334 0.6387173309026082 0.7694414670424623 -1.1636961457805053e-16 -7.775933992314106e-17 -1.1636961457805053e-16 -7.775933992314106e-17 0.6387167954729192 0.7694419115050949
12614190666.666666 0.6479416444446336 0.7616899798436328 -1.1728187062332837e-16 -7.63262633411706e-17 -1.1728187062332837e-16 -7.63262633411706e-17 0.6479411144348874 0.7616904307031073
12614808000.0 0.6570718940191058 0.7538279154355814 -1.181764918620073e-16 -7.488250335912322e-17 -1.181764918620073e-16 -7.488250335912322e-17 0.6570713695057124 0.7538283726258231
12615425333.333334 0.6661067541556759 0.7458564151819025 -1.1905335341895217e-16 -7.342827682303e-17 -1.1905335341895217e-16 -7.342827682303e-17 0.6661062352142391 0.745856878635923
12616042666.666666 0.6750449132320376 0.7377766363333556 -1.199123330835423e-16 -7.196380203557876e-17 -1.199123330835423e-16 -7.196380203557876e-17 0.6750443999373442 0.7377771059832634
12616660000.0 0.683885073664254 0.7295897518599386 -1.207533113266389e-16 -7.048929872337651e-17 -1.207533113266389e-16 -7.048929872337651e-17 0.6838845660902657 0.7295902276369511
12617277333.333334 0.6926259520952829 0.7212969502804736 -1.2157617131713208e-16 -6.900498800404117e-17 -1.2157617131713208e-16 -6.900498800404117e-17 0.6926254503151222 0.7212974321149239
12617894666.666666 0.7012662795810962 0.7128994354902358 -1.223807989380736e-16 -6.751109235312707e-17 -1.223807989380736e-16 -6.751109235312707e-17 0.7012657836670381 0.712899923311585
12618512000.0 0.7098048017751649 0.7043984265859259 -1.2316708280246125e-16 -6.600783557075478e-17 -1.2316708280246125e-16 -6.600783557075478e-17 0.7098043117986254 0.7043989203227732
12619129333.333334 0.7182402791101905 0.6957951576890467 -1.2393491426852086e-16 -6.449544274823364e-17 -1.2393491426852086e-16 -6.449544274823364e-17 0.7182397951417169 0.6957956572691394
12619746666.666666 0.7265714869783818 0.6870908777664222 -1.2468418745466995e-16 -6.297414023433579e-17 -1.2468418745466995e-16 -6.297414023433579e-17 0.7265710090876425 0.6870913831166665
12620364000.0 0.7347972159091716 0.6782868504489381 -1.254147992540225e-16 -6.144415560148573e-17 -1.254147992540225e-16 -6.144415560148573e-17 0.7347967441649456 0.6782873614954097
12620981333.333334 0.7429162717445656 0.6693843538483433 -1.261266493484659e-16 -5.990571761181187e-17 -1.261266493484659e-16 -5.990571761181187e-17 0.7429158062147332 0.6693848705162982
12621598666.666666 0.7509274758128166 0.6603846803713732 -1.2681964022237104e-16 -5.835905618293636e-17 -1.2681964022237104e-16 -5.835905618293636e-17 0.7509270165643496 0.6603852025852591
12622216000.0 0.7588296650993774 0.6512891365322901 -1.2749367717584052e-16 -5.680440235369722e-17 -1.2749367717584052e-16 -5.680440235369722e-17 0.7588292121983287 0.6512896642157564
12622833333.333334 0.7666216924157231 0.6420990427632336 -1.2814866833755905e-16 -5.5241988249672204e-17 -1.2814866833755905e-16 -5.5241988249672204e-17 0.7666212459272183 0.6420995758391438
12623450666.666666 0.7743024265659328 0.63281573322249 -1.2878452467720422e-16 -5.3672047048600127e-17 -1.2878452467720422e-16 -5.3672047048600127e-17 0.7743019865541593 0.6328162716129313
12624068000.0 0.7818707525109241 0.6234405556007816 -1.2940116001746304e-16 -5.2094812945591104e-17 -1.2940116001746304e-16 -5.2094812945591104e-17 0.7818703190391237 0.6234410992270788
12624685333.333334 0.7893255715303793 0.6139748709255524 -1.299984910456026e-16 -5.051052111824777e-17 -1.299984910456026e-16 -5.051052111824777e-17 0.7893251446608388 0.6139754197082774
12625302666.666666 0.7966658013820075 0.6044200533636961 -1.3057643732460052e-16 -4.8919407691696944e-17 -1.3057643732460052e-16 -4.8919407691696944e-17 0.7966653811760473 0.6044206072226791
12625920000.0 0.8038903764590377 0.5947774900215677 -1.311349213038946e-16 -4.732170970336897e-17 -1.311349213038946e-16 -4.732170970336897e-17 0.8038899629770067 0.594778048875911
12626537333.333334 0.8109982479445386 0.5850485807441106 -1.316738683296514e-16 -4.571766506779791e-17 -1.316738683296514e-16 -4.571766506779791e-17 0.810997841245803 0.5850491445121991
12627154666.666666 0.817988383963903 0.5752347379113424 -1.3219320665463111e-16 -4.410751254123199e-17 -1.3219320665463111e-16 -4.410751254123199e-17 0.8179879841068394 0.575235306510856
12627772000.0 0.8248597697346954 0.5653373862332424 -1.3269286744763166e-16 -4.249149168609972e-17 -1.3269286744763166e-16 -4.249149168609972e-17 0.8248593767766796 0.5653379595811663
12628389333.333334 0.8316114077136906 0.555357962543316 -1.3317278480246286e-16 -4.086984283548447e-17 -1.3317278480246286e-16 -4.086984283548447e-17 0.831611021711093 0.5553585405559557
12629006666.666666 0.8382423177420347 0.5452979155895155 -1.3363289574652652e-16 -3.9242807057370717e-17 -1.3363289574652652e-16 -3.9242807057370717e-17 0.8382419387502105 0.5452984981825068
12629624000.0 0.8447515371872962 0.5351587058242718 -1.3407314024893214e-16 -3.761062611889493e-17 -1.3407314024893214e-16 -3.761062611889493e-17 0.8447511652605761 0.535159292912594
12630241333.333334 0.8511381210833381 0.5249418051922846 -1.3449346122818882e-16 -3.5973542450461636e-17 -1.3449346122818882e-16 -3.5973542450461636e-17 0.8511377562750235 0.5249423966902732
12630858666.666666 0.8574011422673536 0.5146486969170777 -1.348938045594592e-16 -3.433179910978386e-17 -1.348938045594592e-16 -3.433179910978386e-17 0.8574007846297069 0.5146492927384361
12631476000.0 0.8635396915147203 0.5042808752852629 -1.3527411908138057e-16 -3.268563974581389e-17 -1.3527411908138057e-16 -3.268563974581389e-17 0.863539341098957 0.5042814753430748
12632093333.333334 0.8695528776707533 0.4938398454299945 -1.3563435660242642e-16 -3.1035308562693947e-17 -1.3563435660242642e-16 -3.1035308562693947e-17 0.8695525345270366 0.49384044963673784
12632710666.666666 0.8754398277801304 0.4833271231123961 -1.3597447190685366e-16 -2.9381050283531226e-17 -1.3597447190685366e-16 -2.9381050283531226e-17 0.8754394919575628 0.4833277313799552
12633328000.0 0.8811996872137713 0.472744234501238 -1.3629442276019777e-16 -2.7723110114152812e-17 -1.3629442276019777e-16 -2.7723110114152812e-17 0.8811993587603876 0.4727448467409158
12633945333.333334 0.8868316197927266 0.46209271595169915 -1.3659416991432158e-16 -2.606173370683486e-17 -1.3659416991432158e-16 -2.606173370683486e-17 0.8868312987554874 0.4620933320742312
12634562666.666666 0.8923348079096669 0.45137411378215697 -1.3687367711202955e-16 -2.439716712394937e-17 -1.3687367711202955e-16 -2.439716712394937e-17 0.8923344943344507 0.4513747336977233
12635180000.0 0.8977084526475081 0.44058998404982636 -1.3713291109124117e-16 -2.2729656801549006e-17 -1.3713291109124117e-16 -2.2729656801549006e-17 0.8977081465791068 0.4405906076680655
12635797333.333334 0.9029517738954874 0.42974189232468635 -1.373718415887174e-16 -2.105944951293837e-17 -1.373718415887174e-16 -2.105944951293837e-17 0.9029514753775983 0.42974251955470805
12636414666.666666 0.9080640104623227 0.41883141346237707 -1.3759044134334125e-16 -1.9386792332229476e-17 -1.3759044134334125e-16 -1.9386792332229476e-17 0.9080637195375428 0.4188320442127757
12637032000.0 0.9130444201867577 0.40786013137549737 -1.377886860989668e-16 -1.7711932597793006e-17 -1.377886860989668e-16 -1.7711932597793006e-17 0.9130441368965778 0.4078607655543653
12637649333.333334 0.9178922800453249 0.3968296388036096 -1.3796655460681174e-16 -1.603511787576288e-17 -1.3796655460681174e-16 -1.603511787576288e-17 0.9178920044301249 0.3968302763185511
12638266666.666666 0.9226068862572901 0.38574153708206993 -1.3812402862741373e-16 -1.4356595923478768e-17 -1.3812402862741373e-16 -1.4356595923478768e-17 0.9226066183563287 0.38574217784021253
12638884000.0 0.9271875543867804 0.37459743590963057 -1.3826109293213818e-16 -1.267661465294197e-17 -1.3826109293213818e-16 -1.267661465294197e-17 0.9271872942381956 0.3745980798176416
12639501333.333334 0.9316336194422351 0.363398953114577 -1.3837773530424874e-16 -1.099542209421984e-17 -1.3837773530424874e-16 -1.099542209421984e-17 0.931633367083033 0.36339960007867433
12640118666.666666 0.9359444359728284 0.3521477144201204 -1.3847394653952545e-16 -9.313266358913706e-18 -1.3847394653952545e-16 -9.313266358913706e-18 0.935944191438883 0.3521483643460883
12640736000.0 0.9401193781623611 0.34084535320791126 -1.3854972044644827e-16 -7.630395603519002e-18 -1.3854972044644827e-16 -7.630395603519002e-18 0.9401191414884066 0.3408460060011133
12641353333.333334 0.9441578399198302 0.32949351028165935 -1.3860505384592583e-16 -5.947057992974188e-18 -1.3860505384592583e-16 -5.947057992974188e-18 0.9441576111394568 0.32949416584705193
12641970666.666666 0.9480592349676868 0.31809383362821403 -1.3863994657059303e-16 -4.263501664006076e-18 -1.3863994657059303e-16 -4.263501664006076e-18 0.9480590141133343 0.3180944918703602
12642588000.0 0.951822996926817 0.3066479781786657 -1.3865440146365624e-16 -2.5799746886511527e-18 -1.3865440146365624e-16 -2.5799746886511527e-18 0.9518227840297715 0.30664863900174927
12643205333.333334 0.9554485793987486 0.295157605568148 -1.3864842437729912e-16 -8.967250377612833e-19 -1.3864842437729912e-16 -8.967250377612833e-19 0.95544837448914 0.2951582688759882
12643822666.666666 0.958935456045068 0.28362438389434463 -1.3862202417064682e-16 7.859994555323252e-19 -1.3862202417064682e-16 7.859994555323252e-19 0.9589352591518617 0.28362504959040835
12644440000.0 0.9622831206637528 0.272049987475539 -1.3857521270728582e-16 2.4679511321866862e-18 -1.3857521270728582e-16 2.4679511321866862e-18 0.9622829318147476 0.2720506554629562
12645057333.333334 0.9654910872626459 0.2604360966076034 -1.3850800485234449e-16 4.1488825437008176e-18 -1.3850800485234449e-16 4.1488825437008176e-18 0.9654909064844721 0.2604367667891815
12645674666.666666 0.9685588901300654 0.24878439731990384 -1.3842041846913292e-16 5.828546488437661e-18 -1.3842041846913292e-16 5.828546488437661e-18 0.9685587174481775 0.2487850695981404
12646292000.0 0.9714860839024291 0.23709658113041843 -1.383124744153388e-16 7.50669604798596e-18 -1.383124744153388e-16 7.50669604798596e-18 0.9714859193411056 0.237097255407517
12646909333.333334 0.9742722436288038 0.2253743448006174 -1.3818419653879075e-16 9.183084623344335e-18 -1.3818419653879075e-16 9.183084623344335e-18 0.9742720872111399 0.22537502097850023
12647526666.666666 0.9769169648327046 0.2136193900886957 -1.3803561167277607e-16 1.0857465971154262e-17 -1.3803561167277607e-16 1.0857465971154262e-17 0.9769168165806126 0.21362006806901906
12648144000.0 0.9794198635707801 0.20183342350266106 -1.3786674963092393e-16 1.2529594239823306e-17 -1.3786674963092393e-16 1.2529594239823306e-17 0.9794197235049836 0.20183410318682893
12648761333.333334 0.9817805764885349 0.19001815605264888 -1.3767764320165362e-16 1.4199224005545167e-17 -1.3767764320165362e-16 1.4199224005545167e-17 0.9817804446285687 0.19001883734182776
12649378666.666666 0.9839987608730651 0.1781753030026421 -1.3746832814218408e-16 1.5866110308297744e-17 -1.3746832814218408e-16 1.5866110308297744e-17 0.9839986372372685 0.17817598579777477
12649996000.0 0.9860740947028632 0.1663065836211519 -1.3723884317210717e-16 1.7530008687742863e-17 -1.3723884317210717e-16 1.7530008687742863e-17 0.9860739793083824 0.16630726782297267
12650613333.333334 0.9880062766945403 0.154413720931794 -1.3698922996653265e-16 1.919067521900738e-17 -1.3698922996653265e-16 1.919067521900738e-17 0.9880061695573223 0.15441440644084248
12651230666.666666 0.9897950263465296 0.14249844146334714 -1.3671953314879748e-16 2.0847866548402776e-17 -1.3671953314879748e-16 2.0847866548402776e-17 0.9897949274813216 0.14249912817998286
12651848000.0 0.9914400839798818 0.13056247499865806 -1.3642980028273938e-16 2.250133992906199e-17 -1.3642980028273938e-16 2.250133992906199e-17 0.9914399934002284 0.13056316282307498
12652465333.333334 0.9929412107759071 0.11860755432385918 -1.3612008186454911e-16 2.4150853256422562e-17 -1.3612008186454911e-16 2.4150853256422562e-17 0.9929411284941486 0.11860824315610013
12653082666.666666 0.9942981888108388 0.1066354149768994 -1.357904313141939e-16 2.5796165103613335e-17 -1.357904313141939e-16 2.5796165103613335e-17 0.9942981148381116 0.10663610471687096
12653700000.0 0.9955108210875299 0.09464779499513909 -1.354409049663976e-16 2.743703475680446e-17 -1.354409049663976e-16 2.743703475680446e-17 0.9955107554337609 0.09464848554262545
12654317333.333334 0.9965789315639879 0.08264643466351175 -1.3507156206122039e-16 2.90732222503115e-17 -1.3507156206122039e-16 2.90732222503115e-17 0.9965788742378964 0.08264712591818985
12654934666.666666 0.9975023651789587 0.07063307626171257 -1.3468246473419623e-16 3.070448840166813e-17 -1.3468246473419623e-16 3.070448840166813e-17 0.9975023161880539 0.07063376812316645
12655552000.0 0.9982809878744576 0.05860946381095327 -1.3427367800604758e-16 3.233059484656579e-17 -1.3427367800604758e-16 3.233059484656579e-17 0.998280947225038 0.05861015617868866
12656169333.333334 0.9989146866151809 0.046577342821428225 -1.3384526977199603e-16 3.3951304073586554e-17 -1.3384526977199603e-16 3.3951304073586554e-17 0.9989146543123346 0.04657803559488723
12656786666.666666 0.9994033694049634 0.03453846003828917 -1.3339731079063205e-16 3.556637945889252e-17 -1.3339731079063205e-16 3.556637945889252e-17 0.9994033454525654 0.034539153116864764
12657404000.0 0.9997469653001056 0.022494563188461016 -1.329298746723863e-16 3.717558530069077e-17 -1.329298746723863e-16 3.717558530069077e-17 0.9997469497008183 0.022495256471511686
12658021333.333334 0.9999454244196867 0.01044740072666273 -1.3244303786756906e-16 3.877868685361372e-17 -1.3244303786756906e-16 3.877868685361372e-17 0.9999454171749601 0.010448094113527115
12658638666.666666 0.9999987179527968 -0.0016012784181662727 -1.3193687965401443e-16 4.037545036288114e-17 -1.3193687965401443e-16 4.037545036288114e-17 0.9999987190628683 -0.0016005850281547928
12659256000.0 0.9999068381627284 -0.013649725097105308 -1.31411482124289e-16 4.196564309838171e-17 -1.31411482124289e-16 4.196564309838171e-17 0.999906847626621 -0.013649031804603988
12659873333.333334 0.9996697983880896 -0.025696190194813045 -1.3086693017251974e-16 4.354903338849678e-17 -1.3086693017251974e-16 4.354903338849678e-17 0.9996698162036155 -0.02569549710045517
12660490666.666666 0.9992876330408776 -0.03773892488362327 -1.3030331148079377e-16 4.512539065382655e-17 -1.3030331148079377e-16 4.512539065382655e-17 0.9992876592046365 -0.03773823208800356
12661108000.0 0.9987603976014714 -0.04977618087762715 -1.297207165051489e-16 4.66944854407451e-17 -1.297207165051489e-16 4.66944854407451e-17 0.998760432108851 -0.049775488481287135
12661725333.333334 0.9980881686105939 -0.061806210685995136 -1.2911923846119386e-16 4.8256089454688346e-17 -1.2911923846119386e-16 4.8256089454688346e-17 0.998088211455772 -0.06180551878940863
12662342666.666666 0.9972710436581842 -0.07382726786714928 -1.2849897330928245e-16 4.980997559338365e-17 -1.2849897330928245e-16 4.980997559338365e-17 0.9972710948341277 -0.0738265765707077
12662960000.0 0.9963091413692333 -0.08583760728207274 -1.2786001973932404e-16 5.1355917979795124e-17 -1.2786001973932404e-16 5.1355917979795124e-17 0.9963092008677019 -0.08583691668607066
12663577333.333334 0.9952026013865768 -0.09783548534760161 -1.272024791551836e-16 5.2893691994916265e-17 -1.272024791551836e-16 5.2893691994916265e-17 0.9952026691981214 -0.09783479555222212
12664194666.666666 0.9939515843506024 -0.10981916028971672 -1.2652645565868917e-16 5.4423074310360725e-17 -1.2652645565868917e-16 5.4423074310360725e-17 0.9939516604645686 -0.10981847139501685
12664812000.0 0.9925562718759403 -0.12178689239628969 -1.2583205603325545e-16 5.594384292073216e-17 -1.2583205603325545e-16 5.594384292073216e-17 0.9925563562804697 -0.12178620450218604
12665429333.333334 0.9910168665250896 -0.13373694426972788 -1.2511938972710135e-16 5.745577717583023e-17 -1.2511938972710135e-16 5.745577717583023e-17 0.9910169592071209 -0.13373625747598203
12666046666.666666 0.9893335917790423 -0.14566758107894495 -1.2438856883611644e-16 5.895865781256562e-17 -1.2438856883611644e-16 5.895865781256562e-17 0.9893336927243153 -0.1456668954851491
12666664000.0 0.9875066920047727 -0.15757707081171904 -1.2363970808628259e-16 6.045226698678952e-17 -1.2363970808628259e-16 6.045226698678952e-17 0.9875068011978284 -0.15757638651728154
12667281333.333334 0.9855364324198509 -0.16946368452551655 -1.22872924815802e-16 6.193638830472201e-17 -1.22872924815802e-16 6.193638830472201e-17 0.9855365498440333 -0.16946300162964714
12667898666.666666 0.9834230990538666 -0.1813256965989661 -1.220883389567634e-16 6.341080685432695e-17 -1.220883389567634e-16 6.341080685432695e-17 0.9834232246913281 -0.18132501520066224
12668516000.0 0.9811669987069209 -0.19316138498226065 -1.2128607301647617e-16 6.48753092363683e-17 -1.2128607301647617e-16 6.48753092363683e-17 0.9811671325386226 -0.19316070518029246
12669133333.333334 0.9787684589051225 -0.2049690314469575 -1.2046625205844827e-16 6.632968359520465e-17 -1.2046625205844827e-16 6.632968359520465e-17 0.978768600910838 -0.20496835333985383
12669750666.666666 0.9762278278530113 -0.21674692183558772 -1.1962900368294386e-16 6.77737196494413e-17 -1.1962900368294386e-16 6.77737196494413e-17 0.9762279780113309 -0.21674624552162206
12670368000.0 0.9735454743829953 -0.22849334631056187 -1.1877445800721606e-16 6.920720872225816e-17 -1.1877445800721606e-16 6.920720872225816e-17 0.9735456326713265 -0.22849267188773764
