! Parameters = {f0=12700.012000; bw=77.238000; Q=6100.000000; N=10; m_0_1=1.234930; m_1_1=-0.240797; m_1_2=1.069742; m_2_2=-0.241446; m_2_3=0.706705; m_2_8=-0.001190; m_2_9=0.035514; m_3_3=-0.243383; m_3_4=0.595234; m_3_7=-0.000590; m_3_8=-0.097678; m_3_9=-0.001190; m_4_4=-0.246308; m_4_5=0.431569; m_4_6=0.002927; m_4_7=-0.118227; m_4_8=-0.000590; m_5_5=-0.245926; m_5_6=0.838924; m_5_7=0.002927; m_6_6=-0.245927; m_6_7=0.431911; m_7_7=-0.246294; m_7_8=0.595352; m_8_8=-0.243385; m_8_9=0.707018; m_9_9=-0.241451; m_9_10=1.070820; m_10_10=-0.240807; m_10_11=1.235725}
!
! Created with skrf (http://scikit-rf.org).
# Hz S RI R 50.0 
!freq ReS11 ImS11 ReS21 ImS21 ReS12 ImS12 ReS22 ImS22
12607400000.0 -0.9992781331579421 0.037989637958415944 8.854655689340465e-17 -2.9934971437563506e-17 8.854655689340465e-17 -2.9934971437563506e-17 -0.9992781578774728 0.03798898773114914
12608017333.333334 -0.9988728008625934 0.047467122271642695 8.82385941713313e-17 -3.077537971171529e-17 8.82385941713313e-17 -3.077537971171529e-17 -0.9988728317475823 0.04746647233994823
12608634666.666666 -0.9983775829974803 0.05694033515833984 8.792266161810647e-17 -3.1612637099932955e-17 8.792266161810647e-17 -3.1612637099932955e-17 -0.9983776200445438 0.05693968558067126
12609252000.0 -0.9977925241258379 0.06640842415253023 8.759879131652686e-17 -3.244666808569253e-17 8.759879131652686e-17 -3.244666808569253e-17 -0.9977925673310405 0.06640777498730366
12609869333.333334 -0.9971176768954311 0.07587053724926508 8.726701606432297e-17 -3.32773974777324e-17 8.726701606432297e-17 -3.32773974777324e-17 -0.997117726254281 0.07586988855485362
12610486666.666666 -0.9963531020338134 0.08532582298126454 8.692736937086275e-17 -3.4104750416845513e-17 8.692736937086275e-17 -3.4104750416845513e-17 -0.9963531575412674 0.08532517481599335
12611104000.0 -0.995498868342849 0.09477343049579415 8.657988545380734e-17 -3.492865238259366e-17 8.657988545380734e-17 -3.492865238259366e-17 -0.995498929993309 0.09477278291793494
12611721333.333334 -0.9945550526925356 0.10421250963094668 8.622459923570522e-17 -3.574902919998876e-17 8.622459923570522e-17 -3.574902919998876e-17 -0.9945551204798545 0.10421186269871278
12612338666.666666 -0.9935217400140902 0.11364221099225989 8.586154634050373e-17 -3.656580704618356e-17 8.586154634050373e-17 -3.656580704618356e-17 -0.9935218139315654 0.11364156476380058
12612956000.0 -0.9923990232922787 0.12306168602926268 8.549076309001569e-17 -3.7378912457083324e-17 8.549076309001569e-17 -3.7378912457083324e-17 -0.9923991033326607 0.12306104056265856
12613573333.333334 -0.9911870035570985 0.1324700871115243 8.511228650032543e-17 -3.818827233392273e-17 8.511228650032543e-17 -3.818827233392273e-17 -0.9911870897125844 0.1324694424647814
12614190666.666666 -0.9898857898746286 0.14186656760532412 8.472615427810932e-17 -3.899381394985458e-17 8.472615427810932e-17 -3.899381394985458e-17 -0.9898858821368687 0.14186592383636934
12614808000.0 -0.9884954993372617 0.15125028194952825 8.4332404816928e-17 -3.9795464956429657e-17 8.4332404816928e-17 -3.9795464956429657e-17 -0.988495597697355 0.1512496391162035
12615425333.333334 -0.9870162570531467 0.16062038573179094 8.393107719342171e-17 -4.059315339011644e-17 8.393107719342171e-17 -4.059315339011644e-17 -0.9870163615016472 0.16061974389184877
12616042666.666666 -0.9854481961349243 0.16997603576462622 8.352221116348021e-17 -4.1386807678706067e-17 8.352221116348021e-17 -4.1386807678706067e-17 -0.985448306661836 0.16997539497572353
12616660000.0 -0.9837914576877671 0.17931639016111384 8.310584715831824e-17 -4.2176356647750976e-17 8.310584715831824e-17 -4.2176356647750976e-17 -0.98379157428255 0.1793157504808076
12617277333.333334 -0.9820461907966634 0.18864060841079916 8.268202628051284e-17 -4.296172952691636e-17 8.268202628051284e-17 -4.296172952691636e-17 -0.9820463134482332 0.18863996989654125
12617894666.666666 -0.9802125525130408 0.1979478514551331 8.225079029998207e-17 -4.37428559562929e-17 8.225079029998207e-17 -4.37428559562929e-17 -0.9802126812097668 0.19794721416426428
12618512000.0 -0.9782907078405451 0.20723728176339384 8.181218164987899e-17 -4.4519665992716e-17 8.181218164987899e-17 -4.4519665992716e-17 -0.9782908425702558 0.2072366457531396
12619129333.333334 -0.976280829720306 0.2165080634074967 8.136624342246398e-17 -4.529209011597424e-17 8.136624342246398e-17 -4.529209011597424e-17 -0.9762809704702884 0.21650742873496168
12619746666.666666 -0.9741830990153065 0.22575936213757955 8.091301936488061e-17 -4.60600592350468e-17 8.091301936488061e-17 -4.60600592350468e-17 -0.9741832457723067 0.22575872885974246
12620364000.0 -0.9719977044940793 0.23499034545715636 8.045255387489782e-17 -4.682350469425196e-17 8.045255387489782e-17 -4.682350469425196e-17 -0.9719978572443034 0.2349897136308646
12620981333.333334 -0.9697248428138189 0.24420018269761584 7.998489199659572e-17 -4.758235827935444e-17 7.998489199659572e-17 -4.758235827935444e-17 -0.9697250015429351 0.24419955237958055
12621598666.666666 -0.9673647185025923 0.25338804509335777 7.951007941596915e-17 -4.833655222367056e-17 7.951007941596915e-17 -4.833655222367056e-17 -0.9673648831957344 0.2533874163401495
12622216000.0 -0.9649175439409872 0.26255310585617936 7.902816245649799e-17 -4.9086019214088666e-17 7.902816245649799e-17 -4.9086019214088666e-17 -0.9649177145827516 0.26255247872422166
12622833333.333334 -0.9623835393429493 0.2716945402498385 7.853918807465866e-17 -4.983069239705074e-17 7.853918807465866e-17 -4.983069239705074e-17 -0.9623837159173992 0.2716939147954038
12623450666.666666 -0.9597629327360436 0.2808115256639957 7.804320385536875e-17 -5.0570505384507713e-17 7.804320385536875e-17 -5.0570505384507713e-17 -0.9597631152267102 0.2808109019431999
12624068000.0 -0.9570559599408698 0.2899032416884858 7.754025800737489e-17 -5.130539225982923e-17 7.754025800737489e-17 -5.130539225982923e-17 -0.9570561483307536 0.2899026197572835
12624685333.333334 -0.954262864549843 0.29896887018711515 7.703039935859662e-17 -5.203528758365009e-17 7.703039935859662e-17 -5.203528758365009e-17 -0.954263058821415 0.29896825010129413
12625302666.666666 -0.9513838979053268 0.30800759537112093 7.651367735141953e-17 -5.2760126399667105e-17 7.651367735141953e-17 -5.2760126399667105e-17 -0.9513840980405299 0.3080069771862974
12625920000.0 -0.9484193190769354 0.3170186038728246 7.599014203790618e-17 -5.347984424042797e-17 7.599014203790618e-17 -5.347984424042797e-17 -0.9484195250571887 0.31701798764443895
12626537333.333334 -0.9453693948383227 0.32600108481852896 7.545984407498052e-17 -5.4194377133034516e-17 7.545984407498052e-17 -5.4194377133034516e-17 -0.9453696066445189 0.32600047060183934
12627154666.666666 -0.9422343996430899 0.3349542299017266 7.492283471955864e-17 -5.4903661604797954e-17 7.492283471955864e-17 -5.4903661604797954e-17 -0.9422346172556018 0.33495361775180565
12627772000.0 -0.9390146156000932 0.3438772334558395 7.437916582359578e-17 -5.560763468888947e-17 7.437916582359578e-17 -5.560763468888947e-17 -0.9390148389987713 0.34387662342756764
12628389333.333334 -0.9357103324481474 0.35276929252644784 7.382888982912757e-17 -5.630623392987811e-17 7.382888982912757e-17 -5.630623392987811e-17 -0.9357105616123237 0.35276868467450967
12629006666.666666 -0.9323218475298306 0.3616296069438951 7.327205976321151e-17 -5.699939738928295e-17 7.327205976321151e-17 -5.699939738928295e-17 -0.9323220824383209 0.36162900132277404
12629624000.0 -0.928849465764795 0.3704573793951049 7.270872923285233e-17 -5.768706365102991e-17 7.270872923285233e-17 -5.768706365102991e-17 -0.9288497063958993 0.3704567760590778
12630241333.333334 -0.9252934996223257 0.37925181549532855 7.213895241985633e-17 -5.836917182688313e-17 7.213895241985633e-17 -5.836917182688313e-17 -0.9252937459538327 0.37925121449846216
12630858666.666666 -0.9216542690932606 0.38801212385955236 7.156278407565548e-17 -5.90456615618015e-17 7.156278407565548e-17 -5.90456615618015e-17 -0.9216545211024475 0.3880115252556972
12631476000.0 -0.917932101661041 0.3967375161740788 7.098027951604413e-17 -5.971647303928915e-17 7.098027951604413e-17 -5.971647303928915e-17 -0.9179323593246761 0.39673692001686484
12632093333.333334 -0.9141273322724478 0.40542720726696546 7.039149461591346e-17 -6.038154698663751e-17 7.039149461591346e-17 -6.038154698663751e-17 -0.9141275955667931 0.4054266136097973
12632710666.666666 -0.9102403033073563 0.4140804151789442 6.979648580390303e-17 -6.104082468015626e-17 6.979648580390303e-17 -6.104082468015626e-17 -0.9102405722081687 0.4140798240749959
12633328000.0 -0.9062713645478847 0.4226963612338626 6.919531005700627e-17 -6.169424795034707e-17 6.919531005700627e-17 -6.169424795034707e-17 -0.9062716390304216 0.42269577273607456
12633945333.333334 -0.902220873146983 0.4312742701086278 6.858802489514622e-17 -6.234175918700569e-17 6.858802489514622e-17 -6.234175918700569e-17 -0.9022211531859992 0.4312736842696993
12634562666.666666 -0.8980891935962976 0.43981336990294595 6.797468837568515e-17 -6.298330134428955e-17 6.797468837568515e-17 -6.298330134428955e-17 -0.8980894791660516 0.4398127867753326
12635180000.0 -0.8938766976933433 0.448312892208864 6.735535908790928e-17 -6.361881794570917e-17 6.735535908790928e-17 -6.361881794570917e-17 -0.8938769887675985 0.44831231184477216
12635797333.333334 -0.8895837645080561 0.45677207217988935 6.6730096147427e-17 -6.42482530891075e-17 6.6730096147427e-17 -6.42482530891075e-17 -0.8895840610600825 0.4567714946312716
12636414666.666666 -0.885210780348678 0.4651901485998151 6.609895919057536e-17 -6.487155145152716e-17 6.609895919057536e-17 -6.487155145152716e-17 -0.8852110823512567 0.46518957391836596
12637032000.0 -0.8807581387270015 0.4735663639512219 6.546200836872272e-17 -6.548865829408372e-17 6.546200836872272e-17 -6.548865829408372e-17 -0.8807584461524246 0.4735657921883724
12637649333.333334 -0.876226240322967 0.4818999644836182 6.481930434258529e-17 -6.609951946672317e-17 6.481930434258529e-17 -6.609951946672317e-17 -0.8762265531430411 0.48189939569053153
12638266666.666666 -0.8716154929485522 0.4901902002813668 6.417090827644363e-17 -6.670408141297967e-17 6.417090827644363e-17 -6.670408141297967e-17 -0.8716158111346026 0.4901896345089347
12638884000.0 -0.8669263115111592 0.4984363253310203 6.35168818323526e-17 -6.730229117463993e-17 6.35168818323526e-17 -6.730229117463993e-17 -0.8669266350340302 0.4984357626298572
12639501333.333334 -0.8621591179762067 0.506637597588575 6.285728716430408e-17 -6.789409639635462e-17 6.285728716430408e-17 -6.789409639635462e-17 -0.8621594468062657 0.5066370380090144
12640118666.666666 -0.8573143413292758 0.5147932790460502 6.219218691233636e-17 -6.847944533020446e-17 6.219218691233636e-17 -6.847944533020446e-17 -0.8573146754364147 0.5147927226381391
12640736000.0 -0.8523924175372125 0.5229026357983865 6.152164419657652e-17 -6.905828684022853e-17 6.152164419657652e-17 -6.905828684022853e-17 -0.8523927568908534 0.5229020826118829
12641353333.333334 -0.847393789509339 0.5309649381087571 6.084572261131652e-17 -6.963057040682929e-17 6.084572261131652e-17 -6.963057040682929e-17 -0.8473941340784323 0.530964388193123
12641970666.666666 -0.8423189070572267 0.5389794604748437 6.016448621897294e-17 -7.019624613118491e-17 6.016448621897294e-17 -7.019624613118491e-17 -0.8423192568102581 0.5389789138792423
12642588000.0 -0.8371682268543996 0.5469454816938295 5.947799954403038e-17 -7.075526473958302e-17 5.947799954403038e-17 -7.075526473958302e-17 -0.8371685817593912 0.546944938467121
12643205333.333334 -0.8319422123951623 0.5548622849274196 5.878632756696011e-17 -7.130757758768067e-17 5.878632756696011e-17 -7.130757758768067e-17 -0.8319425724196761 0.554861745118156
12643822666.666666 -0.826641333952922 0.5627291577662986 5.808953571808378e-17 -7.185313666471936e-17 5.808953571808378e-17 -7.185313666471936e-17 -0.8266416990640617 0.5627286214227196
12644440000.0 -0.8212660685379021 0.5705453922941914 5.738768987139832e-17 -7.239189459768035e-17 5.738768987139832e-17 -7.239189459768035e-17 -0.8212664387023173 0.57054485946422
12645057333.333334 -0.815816899854153 0.5783102851516592 5.66808563383787e-17 -7.292380465536626e-17 5.66808563383787e-17 -7.292380465536626e-17 -0.8158172750380424 0.578309755882898
12645674666.666666 -0.8102943182561251 0.5860231375992554 5.5969101861723e-17 -7.344882075243946e-17 5.5969101861723e-17 -7.344882075243946e-17 -0.8102946984252383 0.5860226119389816
12646292000.0 -0.8046988207043594 0.5936832555806562 5.525249360905528e-17 -7.396689745340152e-17 5.525249360905528e-17 -7.396689745340152e-17 -0.8046992058240011 0.5936827335758179
12646909333.333334 -0.7990309107210193 0.6012899497847717 5.453109916663488e-17 -7.447798997648139e-17 5.453109916663488e-17 -7.447798997648139e-17 -0.7990313007560513 0.6012894314819827
12647526666.666666 -0.7932910983443412 0.6088425357080941 5.380498653297004e-17 -7.498205419750488e-17 5.380498653297004e-17 -7.498205419750488e-17 -0.793291493259189 0.6088420211536323
12648144000.0 -0.7874799000828616 0.6163403337161374 5.3074224112443095e-17 -7.547904665366849e-17 5.3074224112443095e-17 -7.547904665366849e-17 -0.7874802998415121 0.616339822955937
12648761333.333334 -0.7815978388689501 0.6237826691045699 5.2338880708875724e-17 -7.59689245472703e-17 5.2338880708875724e-17 -7.59689245472703e-17 -0.7815982434349588 0.62378216218422
12649378666.666666 -0.775645444011702 0.6311688721599974 5.15990255190812e-17 -7.645164574936256e-17 5.15990255190812e-17 -7.645164574936256e-17 -0.7756458533481968 0.6311683691247378
12649996000.0 -0.7696232511493288 0.6384982782202093 5.0854728126361804e-17 -7.692716880335695e-17 5.0854728126361804e-17 -7.692716880335695e-17 -0.7696236652190099 0.6384977791149244
12650613333.333334 -0.7635318022009325 0.6457702277340057 5.0106058493968867e-17 -7.739545292856963e-17 5.0106058493968867e-17 -7.739545292856963e-17 -0.7635322209660799 0.6457697326032236
12651230666.666666 -0.7573716453178572 0.6529840663204245 4.935308695857432e-17 -7.785645802367384e-17 4.935308695857432e-17 -7.785645802367384e-17 -0.7573720687403301 0.65298357520831
12651848000.0 -0.7511433348340986 0.6601391448279251 4.8595884223648954e-17 -7.83101446701292e-17 4.8595884223648954e-17 -7.83101446701292e-17 -0.7511437628753422 0.6601386577782775
12652465333.333334 -0.7448474312167008 0.667234819392481 4.783452135285396e-17 -7.875647413551845e-17 4.783452135285396e-17 -7.875647413551845e-17 -0.7448478638377483 0.6672343364487299
12653082666.666666 -0.7384845010152687 0.6742704514955868 4.706906976340212e-17 -7.919540837682092e-17 4.706906976340212e-17 -7.919540837682092e-17 -0.7384849381767453 0.6742699727007889
12653700000.0 -0.7320551168107384 0.6812454080219915 4.629960121934885e-17 -7.962691004364536e-17 4.629960121934885e-17 -7.962691004364536e-17 -0.7320555584728632 0.6812449334188241
12654317333.333334 -0.7255598571642309 0.6881590613162453 4.552618782489459e-17 -8.005094248137417e-17 4.552618782489459e-17 -8.005094248137417e-17 -0.7255603032868225 0.6881585909470052
12654934666.666666 -0.7189993065647234 0.6950107892394773 4.474890201765852e-17 -8.046746973424255e-17 4.474890201765852e-17 -8.046746973424255e-17 -0.7189997571072044 0.6950103231460775
12655552000.0 -0.7123740553764915 0.7017999752253387 4.396781656188367e-17 -8.087645654837594e-17 4.396781656188367e-17 -8.087645654837594e-17 -0.7123745102978892 0.7017995134493017
12656169333.333334 -0.705684699786079 0.7085260083353788 4.318300454165588e-17 -8.12778683747391e-17 4.318300454165588e-17 -8.12778683747391e-17 -0.7056851590450315 0.7085255509178356
12656786666.666666 -0.6989318417485737 0.7151882833141081 4.2394539354095685e-17 -8.167167137201893e-17 4.2394539354095685e-17 -8.167167137201893e-17 -0.6989323053033321 0.7151878302957927
12657404000.0 -0.6921160889334557 0.7217862006434388 4.160249470247867e-17 -8.205783240946675e-17 4.160249470247867e-17 -8.205783240946675e-17 -0.6921165567418894 0.7217857520646862
12658021333.333334 -0.6852380546699182 0.7283191665966371 4.080694458939957e-17 -8.243631906963749e-17 4.080694458939957e-17 -8.243631906963749e-17 -0.6852385266895176 0.7283187224973784
12658638666.666666 -0.6782983578916946 0.7347865932917299 4.000796330984187e-17 -8.280709965109847e-17 4.000796330984187e-17 -8.280709965109847e-17 -0.6782988340795747 0.7347861537114888
12659256000.0 -0.6712976230812779 0.7411878987444822 3.9205625444269913e-17 -8.317014317104737e-17 3.9205625444269913e-17 -8.317014317104737e-17 -0.6712981033941844 0.7411874637223733
12659873333.333334 -0.6642364802138551 0.7475225069206564 3.840000585169805e-17 -8.352541936786485e-17 3.840000585169805e-17 -8.352541936786485e-17 -0.6642369646081658 0.7475220764953796
12660490666.666666 -0.657115564700551 0.753789847787903 3.7591179662694116e-17 -8.387289870361915e-17 3.7591179662694116e-17 -8.387289870361915e-17 -0.6571160531322804 0.7537894219977403
12661108000.0 -0.6499355173311651 0.7599893573671304 3.6779222272403233e-17 -8.421255236648347e-17 3.6779222272403233e-17 -8.421255236648347e-17 -0.6499360097559697 0.7599889362499442
12661725333.333334 -0.6426969842167243 0.7661204777830724 3.596420933355063e-17 -8.454435227308694e-17 3.596420933355063e-17 -8.454435227308694e-17 -0.642697480589904 0.7661200613762987
12662342666.666666 -0.6354006167311442 0.7721826573146507 3.514621674937545e-17 -8.486827107081821e-17 3.514621674937545e-17 -8.486827107081821e-17 -0.6354011170076506 0.7721822456553019
12662960000.0 -0.6280470714526412 0.7781753504446122 3.432532066661635e-17 -8.518428214003031e-17 3.432532066661635e-17 -8.518428214003031e-17 -0.6280475755870762 0.7781749435692661
12663577333.333334 -0.6206370101047517 0.7840980179085202 3.350159746840549e-17 -8.549235959620836e-17 3.350159746840549e-17 -8.549235959620836e-17 -0.6206375180513756 0.7840976158533215
12664194666.666666 -0.6131710994967 0.7899501267433544 3.2675123767191533e-17 -8.579247829204816e-17 3.2675123767191533e-17 -8.579247829204816e-17 -0.6131716112094362 0.7899497295440125
12664812000.0 -0.6056500114634431 0.7957311503354416 3.1845976397644975e-17 -8.60846138194678e-17 3.1845976397644975e-17 -8.60846138194678e-17 -0.6056505268958782 0.7957307580272235
12665429333.333334 -0.5980744228050947 0.8014405684679229 3.101423240949685e-17 -8.63687425115689e-17 3.101423240949685e-17 -8.63687425115689e-17 -0.598074941910486 0.8014401810856524
12666046666.666666 -0.5904450152262748 0.8070778673673809 3.017996906043381e-17 -8.664484144450169e-17 3.017996906043381e-17 -8.664484144450169e-17 -0.5904455379575537 0.8070774849454354
12666664000.0 -0.5827624752744457 0.812642539750311 2.934326380889856e-17 -8.69128884392896e-17 2.934326380889856e-17 -8.69128884392896e-17 -0.5827630015842228 0.812642162322619
12667281333.333334 -0.5750274942783845 0.8181340848685852 2.850419430695345e-17 -8.717286206355792e-17 2.850419430695345e-17 -8.717286206355792e-17 -0.5750280241189518 0.8181337124686215
12667898666.666666 -0.567240768285879 0.8235520085545787 2.766283839305501e-17 -8.742474163321797e-17 2.766283839305501e-17 -8.742474163321797e-17 -0.5672413016092158 0.8235516412153625
12668516000.0 -0.5594029980009994 0.8288958232657034 2.681927408486372e-17 -8.766850721406574e-17 2.681927408486372e-17 -8.766850721406574e-17 -0.5594035347587768 0.8288954610197965
12669133333.333334 -0.5515148887213026 0.8341650481281054 2.5973579572040246e-17 -8.790413962331161e-17 2.5973579572040246e-17 -8.790413962331161e-17 -0.5515154288648866 0.8341646910076059
12669750666.666666 -0.543577150274034 0.839359208980157 2.512583320898391e-17 -8.813162043105446e-17 2.512583320898391e-17 -8.813162043105446e-17 -0.5435776937544915 0.8393588570167013
12670368000.0 -0.5355904969524893 0.8444778384149705 2.4276113507603653e-17 -8.835093196167195e-17 2.4276113507603653e-17 -8.835093196167195e-17 -0.5355910437205907 0.8444774916397255
12670985333.333334 -0.5275556474517374 0.849520475822457 2.342449913007262e-17 -8.856205729514382e-17 2.342449913007262e-17 -8.856205729514382e-17 -0.5275561974579634 0.8495201342661216
