! Parameters = {f0=12700.012000; bw=77.238000; Q=6100.000000; N=10; m_0_1=1.340235; m_1_1=1.338783; m_1_2=1.175047; m_2_2=1.338134; m_2_3=0.812010; m_2_8=0.004075; m_2_9=0.040779; m_3_3=1.336197; m_3_4=0.700539; m_3_7=0.004675; m_3_8=-0.092413; m_3_9=0.004075; m_4_4=1.333272; m_4_5=0.536874; m_4_6=0.008192; m_4_7=-0.112962; m_4_8=0.004675; m_5_5=1.333654; m_5_6=0.944229; m_5_7=0.008192; m_6_6=1.333653; m_6_7=0.537216; m_7_7=1.333286; m_7_8=0.700657; m_8_8=1.336195; m_8_9=0.812323; m_9_9=1.338129; m_9_10=1.176125; m_10_10=1.338773; m_10_11=1.341030}
!
! Created with skrf (http://scikit-rf.org).
# Hz S RI R 50.0 
!freq ReS11 ImS11 ReS21 ImS21 ReS12 ImS12 ReS22 ImS22
12607400000.0 -0.6785863666620481 0.7345206212082843 6.733369581503113e-17 -1.3665000439157176e-16 6.733369581503113e-17 -1.3665000439157176e-16 -0.6785868852194089 0.7345201421390869
12608017333.333334 -0.6692783171191525 0.7430117995253909 6.558166786882032e-17 -1.3746638995600673e-16 6.558166786882032e-17 -1.3746638995600673e-16 -0.6692788416454469 0.7430113270506263
12608634666.666666 -0.6598640264082319 0.7513850322252364 6.381976859627868e-17 -1.382603265671767e-16 6.381976859627868e-17 -1.382603265671767e-16 -0.6598645568196169 0.7513845664192568
12609252000.0 -0.6503449889529668 0.7596389901417445 6.204828545885942e-17 -1.3903169522249248e-16 6.204828545885942e-17 -1.3903169522249248e-16 -0.6503455251646725 0.7596385310778347
12609869333.333334 -0.6407227158043068 0.767772363042691 6.026750734790151e-17 -1.3978038059807862e-16 6.026750734790151e-17 -1.3978038059807862e-16 -0.6407232577306512 0.7677719107930592
12610486666.666666 -0.6309987344011271 0.7757838598372486 5.84777245375813e-17 -1.405062710658921e-16 5.84777245375813e-17 -1.405062710658921e-16 -0.6309992819555299 0.7757834144730146
12611104000.0 -0.6211745883271537 0.7836722087814489 5.667922863765073e-17 -1.412092587102404e-16 5.667922863765073e-17 -1.412092587102404e-16 -0.62117514142215 0.7836717703726327
12611721333.333334 -0.6112518370664608 0.791436157679621 5.4872312546020926e-17 -1.4188923934368295e-16 5.4872312546020926e-17 -1.4188923934368295e-16 -0.6112523956137133 0.7914357262951303
12612338666.666666 -0.6012320557555628 0.7990744740834503 5.305727040108339e-17 -1.4254611252235287e-16 5.305727040108339e-17 -1.4254611252235287e-16 -0.6012326196658798 0.7990740497910738
12612956000.0 -0.591116834933468 0.8065859454875488 5.123439753388296e-17 -1.4317978156065794e-16 5.123439753388296e-17 -1.4317978156065794e-16 -0.5911174041168131 0.8065855283539398
12613573333.333334 -0.5809077802895124 0.8139693795216846 4.940399042019852e-17 -1.4379015354534124e-16 4.940399042019852e-17 -1.4379015354534124e-16 -0.5809083546550217 0.8139689696123551
12614190666.666666 -0.5706065124078816 0.8212236041405033 4.756634663230431e-17 -1.4437713934898659e-16 4.756634663230431e-17 -1.4437713934898659e-16 -0.5706070918638784 0.821223201519813
12614808000.0 -0.5602146665109106 0.8283474678091758 4.572176479069535e-17 -1.449406536428642e-16 4.572176479069535e-17 -1.449406536428642e-16 -0.560215250964918 0.8283470725403198
12615425333.333334 -0.5497338921990892 0.8353398396864858 4.3870544515614197e-17 -1.4548061490917823e-16 4.3870544515614197e-17 -1.4548061490917823e-16 -0.5497344815578469 0.8353394518314871
12616042666.666666 -0.5391658531895821 0.8421996098040859 4.201298637844437e-17 -1.4599694545269346e-16 4.201298637844437e-17 -1.4599694545269346e-16 -0.5391664473590594 0.8421992294237832
12616660000.0 -0.5285122270517496 0.8489256892429423 4.01493918529694e-17 -1.464895714117425e-16 4.01493918529694e-17 -1.464895714117425e-16 -0.5285128259371626 0.8489253163969834
12617277333.333334 -0.5177747049411856 0.8555170103059743 3.828006326649733e-17 -1.4695842276861307e-16 3.828006326649733e-17 -1.4695842276861307e-16 -0.5177753084470107 0.8555166450528049
12617894666.666666 -0.5069549913311215 0.8619725266876355 3.640530375091761e-17 -1.4740343335930144e-16 3.640530375091761e-17 -1.4740343335930144e-16 -0.5069555993611107 0.86197216908449
12618512000.0 -0.49605480374171024 0.868291213640089 3.4525417193513335e-17 -1.4782454088267449e-16 3.4525417193513335e-17 -1.4782454088267449e-16 -0.4960554161989067 0.8682908637429819
12619129333.333334 -0.4850758724676786 0.8744720681356981 3.2640708187880757e-17 -1.4822168690895478e-16 3.2640708187880757e-17 -1.4822168690895478e-16 -0.4850764892544332 0.8744717259994162
12619746666.666666 -0.4740199403035188 0.880514109026342 3.075148198455337e-17 -1.4859481688762987e-16 3.075148198455337e-17 -1.4859481688762987e-16 -0.4740205613215039 0.8805137747044338
12620364000.0 -0.4628887622666835 0.8864163771992383 2.885804444162282e-17 -1.4894388015471096e-16 2.885804444162282e-17 -1.4894388015471096e-16 -0.46288938741690977 0.8864160507440071
12620981333.333334 -0.451684105319295 0.8921779357290299 2.696070197535804e-17 -1.492688299393506e-16 2.696070197535804e-17 -1.492688299393506e-16 -0.4516847345021267 0.892177617191525
12621598666.666666 -0.4404077480875086 0.8977978700265964 2.5059761510593135e-17 -1.4956962336986312e-16 2.5059761510593135e-17 -1.4956962336986312e-16 -0.44040838120268017 0.8977975594566061
12622216000.0 -0.4290614805790219 0.9032752879843119 2.3155530431179656e-17 -1.498462214790901e-16 2.3155530431179656e-17 -1.498462214790901e-16 -0.4290621175256529 0.9032749854303544
12622833333.333334 -0.41764710389923165 0.9086093201175023 2.1248316530325144e-17 -1.5009858920914653e-16 2.1248316530325144e-17 -1.5009858920914653e-16 -0.41764774457584297 0.9086090256268178
12623450666.666666 -0.4061664299651239 0.9137991197025691 1.933842796093634e-17 -1.5032669541552866e-16 1.933842796093634e-17 -1.5032669541552866e-16 -0.40616707426965554 0.9137988333211154
12624068000.0 -0.39462128121775564 0.9188438629113551 1.742617318584721e-17 -1.5053051287060169e-16 1.742617318584721e-17 -1.5053051287060169e-16 -0.3946219290475808 0.9188435846837969
12624685333.333334 -0.38301349033274956 0.9237427489420035 1.5511860928050435e-17 -1.5071001826644864e-16 1.5511860928050435e-17 -1.5071001826644864e-16 -0.38301414158469205 0.9237424789117068
12625302666.666666 -0.3713448999297409 0.9284950001459213 1.3595800120992392e-17 -1.5086519221708128e-16 1.3595800120992392e-17 -1.5086519221708128e-16 -0.37134555450009177 0.9284947383549479
12625920000.0 -0.35961736227946284 0.9330998621514022 1.167829985869089e-17 -1.509960192600341e-16 1.167829985869089e-17 -1.509960192600341e-16 -0.3596180200639961 0.9330996086405005
12626537333.333334 -0.34783273901008327 0.9375566039832196 9.759669345966492e-18 -1.511024878573152e-16 9.759669345966492e-18 -1.511024878573152e-16 -0.3478333999040731 0.9375563587918205
12627154666.666666 -0.33599290081153443 0.9418645181787323 7.840217848675598e-18 -1.5118459039572627e-16 7.840217848675598e-18 -1.5118459039572627e-16 -0.33599356470977165 0.9418642813449417
12627772000.0 -0.3240997271383974 0.9460229209002389 5.9202546438242735e-18 -1.512423231865587e-16 5.9202546438242735e-18 -1.512423231865587e-16 -0.32410039393520684 0.9460226924608348
12628389333.333334 -0.3121551059119341 0.9500311520434014 4.000088969914626e-18 -1.5127568646464689e-16 4.000088969914626e-18 -1.5127568646464689e-16 -0.31215577550119006 0.9500309320338227
12629006666.666666 -0.30016093321996745 0.9538885753421743 2.0800299771018894e-18 -1.5128468438679982e-16 2.0800299771018894e-18 -1.5128468438679982e-16 -0.3001616054951115 0.9538883637965194
12629624000.0 -0.28811911301632825 0.9575945784696615 1.6038667752279732e-19 -1.5126932502959847e-16 1.6038667752279732e-19 -1.5126932502959847e-16 -0.28811978787038633 0.9575943754206824
12630241333.333334 -0.2760315568181353 0.9611485731354757 -1.7585321043860467e-18 -1.5122962038656298e-16 -1.7585321043860467e-18 -1.5122962038656298e-16 -0.27603223414373435 0.9611483786145727
12630858666.666666 -0.2639001834030131 0.9645499951789228 -3.676417781511566e-18 -1.5116558636469266e-16 -3.676417781511566e-18 -1.5116558636469266e-16 -0.26390086309239835 0.9645498092161396
12631476000.0 -0.2517269185037425 0.967798304658783 -5.592962053630002e-18 -1.5107724278037498e-16 -5.592962053630002e-18 -1.5107724278037498e-16 -0.2517276004487943 0.9677981272828005
12632093333.333334 -0.2395136945031702 0.9708929859388448 -7.507856956915796e-18 -1.5096461335466948e-16 -7.507856956915796e-18 -1.5096461335466948e-16 -0.23951437859542155 0.9708928171769801
12632710666.666666 -0.22726245012724522 0.9738335477698257 -9.420794913334058e-18 -1.5082772570796573e-16 -9.420794913334058e-18 -1.5082772570796573e-16 -0.22726313625789876 0.9738333876480243
12633328000.0 -0.21497513013709837 0.9766195233673869 -1.1331468780037456e-17 -1.5066661135401174e-16 -1.1331468780037456e-17 -1.5066661135401174e-16 -0.21497581819704412 0.9766193719102214
12633945333.333334 -0.20265368502071912 0.9792504704861408 -1.3239571898588002e-17 -1.504813056933233e-16 -1.3239571898588002e-17 -1.504813056933233e-16 -0.20265437490055113 0.9792503277168051
12634562666.666666 -0.19030007068289134 0.9817259714899526 -1.5144798144124543e-17 -1.502718480059677e-16 -1.5144798144124543e-17 -1.502718480059677e-16 -0.19030076227292597 0.9817258374302612
12635180000.0 -0.17791624813515827 0.9840456334181426 -1.7046841974416617e-17 -1.5003828144372674e-16 -1.7046841974416617e-17 -1.5003828144372674e-16 -0.17791694132545083 0.9840455080885236
12635797333.333334 -0.1655041831840296 0.9862090880479615 -1.894539847881385e-17 -1.4978065302163836e-16 -1.894539847881385e-17 -1.4978065302163836e-16 -0.16550487786439202 0.9862089714674558
12636414666.666666 -0.15306584611960064 0.9882159919529209 -2.0840163427032202e-17 -1.4949901360892657e-16 -2.0840163427032202e-17 -1.4949901360892657e-16 -0.15306654217961937 0.9882158841391788
12637032000.0 -0.1406032114020048 0.9900660265574451 -2.273083331789659e-17 -1.4919341791930224e-16 -2.273083331789659e-17 -1.4919341791930224e-16 -0.14060390873105802 0.9900659275267244
12637649333.333334 -0.1281182573486607 0.9917588981873298 -2.4617105427862132e-17 -1.488639245006609e-16 -2.4617105427862132e-17 -1.488639245006609e-16 -0.12811895583593583 0.9917588079544915
12638266666.666666 -0.11561296581972866 0.9932943381164376 -2.6498677859433964e-17 -1.4851059572416271e-16 -2.6498677859433964e-17 -1.4851059572416271e-16 -0.11561366535424014 0.9932942566949443
12638884000.0 -0.10308932190396054 0.9946721026092895 -2.83752495894265e-17 -1.481334977727009e-16 -2.83752495894265e-17 -1.481334977727009e-16 -0.1030900223745677 0.994672030011207
12639501333.333334 -0.09054931360308023 0.9958919729598266 -3.024652051707179e-17 -1.477327006287617e-16 -3.024652051707179e-17 -1.477327006287617e-16 -0.09055001489850426 0.9958919091958149
12640118666.666666 -0.07799493151694188 0.9969537555260388 -3.211219151190179e-17 -1.4730827806168875e-16 -3.211219151190179e-17 -1.4730827806168875e-16 -0.07799563352578415 0.9969537006053572
12640736000.0 -0.06542816852646804 0.9978572817608117 -3.397196446164013e-17 -1.468603076143032e-16 -3.397196446164013e-17 -1.468603076143032e-16 -0.06542887113722756 0.9978572356913151
12641353333.333334 -0.05285101947854582 0.9986024082385757 -3.5825542319576765e-17 -1.4638887058899706e-16 -3.5825542319576765e-17 -1.4638887058899706e-16 -0.052851722579636856 0.9986023710267115
12641970666.666666 -0.040265480868287906 0.9991890166781513 -3.767262915212869e-17 -1.4589405203314102e-16 -3.767262915212869e-17 -1.4589405203314102e-16 -0.04026618434805782 0.999188988328961
12642588000.0 -0.027673550522846768 0.9996170139614791 -3.951293018594407e-17 -1.4537594072395533e-16 -3.951293018594407e-17 -1.4537594072395533e-16 -0.027674254269593784 0.9996169944785983
12643205333.333334 -0.015077227283825701 0.9998863321484284 -4.134615185489339e-17 -1.4483462915276557e-16 -4.134615185489339e-17 -1.4483462915276557e-16 -0.015077931185816507 0.9998863215340834
12643822666.666666 -0.0024785106901530516 0.999996928487565 -4.317200184687213e-17 -1.4427021350865847e-16 -4.317200184687213e-17 -1.4427021350865847e-16 -0.0024792146356406248 0.9999969267425752
12644440000.0 0.010120599339210497 0.999948785422944 -4.4990189150309625e-17 -1.4368279366157085e-16 -4.4990189150309625e-17 -1.4368279366157085e-16 0.010119895461969177 0.9999487925467202
12645057333.333334 0.022718102822909387 0.9997419105968964 -4.6800424100499936e-17 -1.4307247314477953e-16 -4.6800424100499936e-17 -1.4307247314477953e-16 0.022717399125635605 0.9997419265874424
12645674666.666666 0.03531200003455641 0.9993763368488195 -4.860241842568968e-17 -1.4243935913681022e-16 -4.860241842568968e-17 -1.4243935913681022e-16 0.03531129662893197 0.9993763617027313
12646292000.0 0.04790029182045298 0.9988521222099496 -5.039588529298008e-17 -1.4178356244274722e-16 -5.039588529298008e-17 -1.4178356244274722e-16 0.04789958881810252 0.9988521559224174
12646909333.333334 0.06048097991630997 0.9981693498941787 -5.2180539353818055e-17 -1.4110519747502298e-16 -5.2180539353818055e-17 -1.4110519747502298e-16 0.060480277428783175 0.9981693924589863
12647526666.666666 0.0730520672651901 0.9973281282848117 -5.395609678941656e-17 -1.4040438223357014e-16 -5.395609678941656e-17 -1.4040438223357014e-16 0.07305136540394414 0.9973281796943391
12648144000.0 0.08561155833412312 0.996328590917379 -5.572227535582187e-17 -1.3968123828543447e-16 -5.572227535582187e-17 -1.3968123828543447e-16 0.08561085721050461 0.9963286511626006
12648761333.333334 0.09815745943081919 0.9951708964584379 -5.747879442868618e-17 -1.3893589074383141e-16 -5.747879442868618e-17 -1.3893589074383141e-16 0.09815675915604732 0.995170965528932
12649378666.666666 0.11068777902026253 0.9938552286803978 -5.922537504779484e-17 -1.381684682466298e-16 -5.922537504779484e-17 -1.381684682466298e-16 0.11068707970541036 0.9938553065643371
12649996000.0 0.12320052804101535 0.9923817964323103 -6.096173996134695e-17 -1.373791029342585e-16 -6.096173996134695e-17 -1.373791029342585e-16 0.12319982979699298 0.9923818831164726
12650613333.333334 0.13569372022062276 0.9907508336067616 -6.268761366988088e-17 -1.3656793042708446e-16 -6.268761366988088e-17 -1.3656793042708446e-16 0.13569302315815948 0.9907509290765284
12651230666.666666 0.14816537239108307 0.9889625991027249 -6.440272246989368e-17 -1.3573508980224518e-16 -6.440272246989368e-17 -1.3573508980224518e-16 0.1481646766207098 0.9889627033420849
12651848000.0 0.16061350480382458 0.98701737678444 -6.610679449726257e-17 -1.3488072356988277e-16 -6.610679449726257e-17 -1.3488072356988277e-16 0.16061281043585646 0.9870174897759918
12652465333.333334 0.17303614144363244 0.9849154754363967 -6.779955977020652e-17 -1.3400497764890358e-16 -6.779955977020652e-17 -1.3400497764890358e-16 0.17303544858815123 0.9849155971613517
12653082666.666666 0.18543131034249097 0.9826572287143017 -6.948075023199855e-17 -1.3310800134216767e-16 -6.948075023199855e-17 -1.3310800134216767e-16 0.18543061910932745 0.9826573591524853
12653700000.0 0.19779704389278024 0.980242995092075 -7.115009979342664e-17 -1.3218994731110281e-16 -7.115009979342664e-17 -1.3218994731110281e-16 0.1977963543914971 0.9802431342219329
12654317333.333334 0.21013137915927887 0.977673157805012 -7.28073443747399e-17 -1.3125097154988267e-16 -7.28073443747399e-17 -1.3125097154988267e-16 0.21013069149915312 0.9776733056036114
12654934666.666666 0.22243235819092835 0.9749481247889175 -7.445222194744407e-17 -1.3029123335897996e-16 -7.445222194744407e-17 -1.3029123335897996e-16 0.2224316724809343 0.9749482812319531
12655552000.0 0.2346980283318039 0.9720683286153132 -7.608447257562942e-17 -1.2931089531826062e-16 -7.608447257562942e-17 -1.2931089531826062e-16 0.23469734468059536 0.9720684936771085
12656169333.333334 0.24692644253069043 0.9690342264228559 -7.770383845699224e-17 -1.28310123259539e-16 -7.770383845699224e-17 -1.28310123259539e-16 0.24692576104658406 0.9690344000763697
12656786666.666666 0.25911565965060046 0.9658462998446701 -7.931006396349531e-17 -1.2728908623861786e-16 -7.931006396349531e-17 -1.2728908623861786e-16 0.25911498044155834 0.9658464820615001
12657404000.0 0.2712637447765225 0.962505054931984 -8.090289568162728e-17 -1.2624795650684365e-16 -8.090289568162728e-17 -1.2624795650684365e-16 0.27126306795013544 0.9625052456823728
12658021333.333334 0.28336876952279183 0.9590110220737526 -8.248208245236261e-17 -1.2518690948211482e-16 -8.248208245236261e-17 -1.2518690948211482e-16 0.2833680951862612 0.9590112213265886
12658638666.666666 0.2954288123390905 0.9553647559124842 -8.404737541066994e-17 -1.241061237194352e-16 -8.404737541066994e-17 -1.241061237194352e-16 0.29542814059921224 0.9553649636353095
12659256000.0 0.30744195881563824 0.951566835256152 -8.55985280246728e-17 -1.2300578088095272e-16 -8.55985280246728e-17 -1.2300578088095272e-16 0.30744128977878626 0.9515670514151703
12659873333.333334 0.31940630198703035 0.9476178629863279 -8.713529613441235e-17 -1.218860657055141e-16 -8.713529613441235e-17 -1.218860657055141e-16 0.3194056357591386 0.9476180875464045
12660490666.666666 0.3313199426345183 0.9435184659626251 -8.865743799021313e-17 -1.207471659777364e-16 -8.865743799021313e-17 -1.207471659777364e-16 0.33131927932106453 0.9435186988872957
12661108000.0 0.3431809895884597 0.9392692949228623 -9.016471429065263e-17 -1.1958927249659485e-16 -9.016471429065263e-17 -1.1958927249659485e-16 0.3431803292944492 0.9392695361743391
12661725333.333334 0.3549875600273423 0.9348710243801758 -9.165688822008902e-17 -1.1841257904356494e-16 -9.165688822008902e-17 -1.1841257904356494e-16 0.3549869028572905 0.9348712739193528
12662342666.666666 0.3667377797776789 0.9303243525155857 -9.313372548584103e-17 -1.1721728235024396e-16 -9.313372548584103e-17 -1.1721728235024396e-16 0.36673712583559537 0.9303246103020449
12662960000.0 0.37842978361082125 0.9256300010674204 -9.459499435488046e-17 -1.1600358206556329e-16 -9.459499435488046e-17 -1.1600358206556329e-16 0.37842913300019276 0.9256302670594387
12663577333.333334 0.3900617155395217 0.9207887152165637 -9.604046569013183e-17 -1.1477168072251759e-16 -9.604046569013183e-17 -1.1477168072251759e-16 0.39006106836329674 0.9207889893711205
12664194666.666666 0.401631729112185 0.9158012634683145 -9.746991298633367e-17 -1.135217837044481e-16 -9.746991298633367e-17 -1.135217837044481e-16 0.4016310854727562 0.9158015457410964
12664812000.0 0.41313798770613136 0.9106684375303306 -9.888311240546232e-17 -1.1225409921088067e-16 -9.888311240546232e-17 -1.1225409921088067e-16 0.4131373477053201 0.9106687278757403
12665429333.333334 0.4245786648192968 0.9053910521868814 -1.0027984281171924e-16 -1.1096883822291854e-16 -1.0027984281171924e-16 -1.1096883822291854e-16 0.42457802855833743 0.9053913505580455
12666046666.666666 0.43595194435980933 0.899969945169674 -1.0165988580603161e-16 -1.0966621446823447e-16 -1.0165988580603161e-16 -1.0966621446823447e-16 0.4359513119393325 0.8999702515184492
12666664000.0 0.4472560209347393 0.8944059770246553 -1.0302302576020007e-16 -1.0834644438554354e-16 -1.0302302576020007e-16 -1.0834644438554354e-16 0.44725539245475604 0.8944062913016364
12667281333.333334 0.4584891001360726 0.8887000309757056 -1.0436904985043099e-16 -1.0700974708879779e-16 -1.0436904985043099e-16 -1.0700974708879779e-16 0.45848847569595846 0.8887003531302338
12667898666.666666 0.46964939882621737 0.882853012784109 -1.0569774809055341e-16 -1.0565634433082456e-16 -1.0569774809055341e-16 -1.0565634433082456e-16 0.469648778524698 0.8828533427642808
12668516000.0 0.4807351454207034 0.8768658506049493 -1.0700891336470407e-16 -1.0428646046661252e-16 -1.0700891336470407e-16 -1.0428646046661252e-16 0.480734529355837 0.8768661883576236
12669133333.333334 0.4917445801693518 0.870739494839802 -1.0830234145948464e-16 -1.029003224162481e-16 -1.0830234145948464e-16 -1.029003224162481e-16 0.49174396843851526 0.8707398403106098
12669750666.666666 0.5026759554357216 0.8644749179858191 -1.0957783109575291e-16 -1.0149815962733879e-16 -1.0957783109575291e-16 -1.0149815962733879e-16 0.5026753481355942 0.8644752711191712
