! Parameters = {f0=12700.012000; bw=77.238000; Q=6100.000000; N=10; m_0_1=1.154249; m_1_1=-1.451007; m_1_2=0.989061; m_2_2=-1.451656; m_2_3=0.626024; m_2_8=-0.005224; m_2_9=0.031480; m_3_3=-1.453593; m_3_4=0.514553; m_3_7=-0.004624; m_3_8=-0.101712; m_3_9=-0.005224; m_4_4=-1.456518; m_4_5=0.350888; m_4_6=-0.001107; m_4_7=-0.122261; m_4_8=-0.004624; m_5_5=-1.456136; m_5_6=0.758243; m_5_7=-0.001107; m_6_6=-1.456137; m_6_7=0.351230; m_7_7=-1.456504; m_7_8=0.514671; m_8_8=-1.453595; m_8_9=0.626337; m_9_9=-1.451661; m_9_10=0.990139; m_10_10=-1.451017; m_10_11=1.155044}
!
! Created with skrf (http://scikit-rf.org).
# Hz S RI R 50.0 
!freq ReS11 ImS11 ReS21 ImS21 ReS12 ImS12 ReS22 ImS22
12607400000.0 -0.009491269606651013 0.9999549568861125 -1.7027359707306353e-17 -5.95466079098214e-17 -1.7027359707306353e-17 -5.95466079098214e-17 -0.009491877900337104 0.9999549511121885
12608017333.333334 -0.002390359333150562 0.9999971430869758 -1.745162121230512e-17 -5.941100744020639e-17 -1.745162121230512e-17 -5.941100744020639e-17 -0.0023909676227080443 0.9999971416327555
12608634666.666666 0.00471067147137141 0.999988904725519 -1.7874814084834196e-17 -5.927238790056629e-17 -1.7874814084834196e-17 -5.927238790056629e-17 0.004710063216613446 0.9999889075906538
12609252000.0 0.011811464739550527 0.9999302422172062 -1.8296916868041495e-17 -5.91307576391628e-17 -1.8296916868041495e-17 -5.91307576391628e-17 0.011810856550258243 0.9999302494011287
12609869333.333334 0.01891166241600064 0.9998211585201207 -1.871790816980554e-17 -5.89861251565591e-17 -1.871790816980554e-17 -5.89861251565591e-17 0.018911054322833895 0.999821170022046
12610486666.666666 0.026010906475283455 0.9996616591348233 -1.913776666381688e-17 -5.8838499105121e-17 -1.913776666381688e-17 -5.8838499105121e-17 0.02601029850889424 0.9996616749537476
12611104000.0 0.0331088389401607 0.9994517521040666 -1.955647109066542e-17 -5.868788828850614e-17 -1.955647109066542e-17 -5.868788828850614e-17 0.03310823113119162 0.9994517722387696
12611721333.333334 0.040205101899417756 0.9991914480123972 -1.9974000258890756e-17 -5.853430166115765e-17 -1.9974000258890756e-17 -5.853430166115765e-17 0.040204494278500515 0.9991914724614417
12612338666.666666 0.04729933752608174 0.9988807599856192 -2.039033304606848e-17 -5.837774832777619e-17 -2.039033304606848e-17 -5.837774832777619e-17 0.04729873012383551 0.9988807887473495
12612956000.0 0.05439118809549304 0.9985197036901245 -2.0805448399867396e-17 -5.821823754279294e-17 -2.0805448399867396e-17 -5.821823754279294e-17 0.054390580942523 0.9985197367626686
12613573333.333334 0.06148029600311655 0.9981082973321204 -2.1219325339104735e-17 -5.805577870983512e-17 -2.1219325339104735e-17 -5.805577870983512e-17 0.06147968913001224 0.9981083347133871
12614190666.666666 0.06856630378274382 0.9976465616566955 -2.1631942954811815e-17 -5.789038138117789e-17 -2.1631942954811815e-17 -5.789038138117789e-17 0.06856569722007785 0.9976466033443802
12614808000.0 0.07564885412454693 0.9971345199467806 -2.204328041127919e-17 -5.772205525719528e-17 -2.204328041127919e-17 -5.772205525719528e-17 0.07564824790287313 0.9971345659383593
12615425333.333334 0.0827275898930387 0.9965721980219717 -2.2453316947107517e-17 -5.75508101857999e-17 -2.2453316947107517e-17 -5.75508101857999e-17 0.08272698404289064 0.9965722483147025
12616042666.666666 0.08980215414499605 0.9959596242372342 -2.2862031876244244e-17 -5.737665616187888e-17 -2.2862031876244244e-17 -5.737665616187888e-17 0.0898015486968858 0.9959596788281616
12616660000.0 0.09687219014762916 0.9952968294814651 -2.3269404589032523e-17 -5.719960332671657e-17 -2.3269404589032523e-17 -5.719960332671657e-17 0.09687158513204536 0.9952968883674155
12617277333.333334 0.10393734139648411 0.9945838471759358 -2.3675414553240792e-17 -5.701966196741483e-17 -2.3675414553240792e-17 -5.701966196741483e-17 0.10393673684389068 0.9945839103535197
12617894666.666666 0.11099725163333513 0.9938207132726208 -2.4080041315088365e-17 -5.68368425163071e-17 -2.4080041315088365e-17 -5.68368425163071e-17 0.11099664757416962 0.9938207807382322
12618512000.0 0.1180515648643464 0.993007466252361 -2.4483264500282294e-17 -5.665115555035741e-17 -2.4483264500282294e-17 -5.665115555035741e-17 0.11805096132901857 0.9930075380021788
12619129333.333334 0.12509992537779707 0.9921441471229488 -2.4885063815026033e-17 -5.64626117905635e-17 -2.4885063815026033e-17 -5.64626117905635e-17 0.12509932239668728 0.9921442231529365
12619746666.666666 0.13214197776218747 0.991230799417044 -2.5285419047045585e-17 -5.627122210134201e-17 -2.5285419047045585e-17 -5.627122210134201e-17 0.1321413753656451 0.9912308797229483
12620364000.0 0.13917736692418833 0.990267469189968 -2.568431006660328e-17 -5.607699748991053e-17 -2.568431006660328e-17 -5.607699748991053e-17 0.13917676514253033 0.9902675537673213
12620981333.333334 0.14620573810632112 0.9892542050174167 -2.6081716827492512e-17 -5.587994910566909e-17 -2.6081716827492512e-17 -5.587994910566909e-17 0.14620513696983053 0.9892542938615366
12621598666.666666 0.15322673690501554 0.9881910579929855 -2.6477619368049995e-17 -5.568008823956407e-17 -2.6477619368049995e-17 -5.568008823956407e-17 0.1532261364439399 0.9881911510989749
12622216000.0 0.16024000928850865 0.9870780817255919 -2.6871997812155385e-17 -5.5477426323448896e-17 -2.6871997812155385e-17 -5.5477426323448896e-17 0.16023940953305837 0.9870781790883388
12622833333.333334 0.16724520161463957 0.9859153323367748 -2.7264832370221273e-17 -5.527197492943989e-17 -2.7264832370221273e-17 -5.527197492943989e-17 0.16724460259498683 0.9859154339509545
12623450666.666666 0.17424196064859906 0.9847028684578849 -2.765610334017683e-17 -5.506374576926599e-17 -2.765610334017683e-17 -5.506374576926599e-17 0.1742413623948757 0.9847029743179574
12624068000.0 0.18122993358090836 0.9834407512270957 -2.8045791108460623e-17 -5.485275069360443e-17 -2.8045791108460623e-17 -5.485275069360443e-17 0.1812293361232047 0.9834408613273077
12624685333.333334 0.18820876804512565 0.9821290442863354 -2.843387615099429e-17 -5.463900169141647e-17 -2.843387615099429e-17 -5.463900169141647e-17 0.18820817141348897 0.9821291586207207
12625302666.666666 0.19517811213550273 0.9807678137781006 -2.882033903415007e-17 -5.442251088927766e-17 -2.882033903415007e-17 -5.442251088927766e-17 0.19517751635993588 0.9807679323404805
12625920000.0 0.2021376144250366 0.9793571283420618 -2.9205160415735934e-17 -5.420329055068816e-17 -2.9205160415735934e-17 -5.420329055068816e-17 0.202137019535496 0.9793572511260438
12626537333.333334 0.20908692398285475 0.9778970591116645 -2.9588321045939055e-17 -5.398135307539673e-17 -2.9588321045939055e-17 -5.398135307539673e-17 0.2090863300092495 0.9778971861106451
12627154666.666666 0.21602569039196823 0.9763876797105387 -2.996980176829474e-17 -5.3756710998701195e-17 -2.996980176829474e-17 -5.3756710998701195e-17 0.21602509736415798 0.976387810917701
12627772000.0 0.22295356376727252 0.9748290662487074 -3.034958352064222e-17 -5.352937699074572e-17 -3.034958352064222e-17 -5.352937699074572e-17 0.22295297171506706 0.9748292016570261
12628389333.333334 0.22987019477272128 0.9732212973188606 -3.0727647336060634e-17 -5.329936385582122e-17 -3.0727647336060634e-17 -5.329936385582122e-17 0.2298696037258773 0.9732214369210955
12629006666.666666 0.23677523463927141 0.9715644539923088 -3.1103974343827726e-17 -5.306668453164128e-17 -3.1103974343827726e-17 -5.306668453164128e-17 0.2367746446274928 0.9715645977810117
12629624000.0 0.24366833518233283 0.9698586198149317 -3.147854577034201e-17 -5.283135208863068e-17 -3.147854577034201e-17 -5.283135208863068e-17 0.24366774623526813 0.9698587677824433
12630241333.333334 0.2505491488193809 0.9681038808029532 -3.185134294006362e-17 -5.259337972919323e-17 -3.185134294006362e-17 -5.259337972919323e-17 0.2505485609666217 0.968104032941403
12630858666.666666 0.25741732858737126 0.9663003254386264 -3.2222347276433065e-17 -5.235278078698254e-17 -3.2222347276433065e-17 -5.235278078698254e-17 0.2574167418584518 0.9663004817399363
12631476000.0 0.26427252816043056 0.9644480446657291 -3.259154030280235e-17 -5.210956872615543e-17 -3.259154030280235e-17 -5.210956872615543e-17 0.26427194258482506 0.9644482051216109
12632093333.333334 0.2711144018671255 0.9625471318850239 -3.2958903643340105e-17 -5.1863757140632166e-17 -3.2958903643340105e-17 -5.1863757140632166e-17 0.271113817474247 0.9625472964869805
12632710666.666666 0.2779426047079484 0.9605976829495353 -3.332441902394424e-17 -5.1615359753341596e-17 -3.332441902394424e-17 -5.1615359753341596e-17 0.277942021527148 0.9605978516888621
12633328000.0 0.2847567923728792 0.9585997961596721 -3.368806827315626e-17 -5.13643904154551e-17 -3.368806827315626e-17 -5.13643904154551e-17 0.2847562104334433 0.9585999690274556
12633945333.333334 0.2915566212585263 0.9565535722583274 -3.404983332304074e-17 -5.1110863105633463e-17 -3.404983332304074e-17 -5.1110863105633463e-17 0.2915560405896766 0.9565537492454487
12634562666.666666 0.2983417484854825 0.9544591144257989 -3.440969621009432e-17 -5.085479192924457e-17 -3.440969621009432e-17 -5.085479192924457e-17 0.2983411691163733 0.9544592955229312
12635180000.0 0.3051118319157488 0.9523165282745393 -3.4767639076125294e-17 -5.059619111758984e-17 -3.4767639076125294e-17 -5.059619111758984e-17 0.3051112538754662 0.9523167134721491
12635797333.333334 0.3118665301699059 0.9501259218438567 -3.512364416913781e-17 -5.033507502711812e-17 -3.512364416913781e-17 -5.033507502711812e-17 0.3118659534874661 0.9501261111322056
12636414666.666666 0.31860550264424675 0.9478874055944952 -3.547769384420166e-17 -5.007145813863914e-17 -3.547769384420166e-17 -5.007145813863914e-17 0.31860492734859436 0.9478875989636382
12637032000.0 0.3253284095281401 0.9456010924029987 -3.5829770564331665e-17 -4.980535505651984e-17 -3.5829770564331665e-17 -4.980535505651984e-17 0.325327835648148 0.9456012898427888
12637649333.333334 0.33203491182095163 0.9432670975560995 -3.617985690134014e-17 -4.9536780507889864e-17 -3.617985690134014e-17 -4.9536780507889864e-17 0.3320343393854173 0.9432672990561818
12638266666.666666 0.3387246713493232 0.9408855387448295 -3.652793553670439e-17 -4.926574934182575e-17 -3.652793553670439e-17 -4.926574934182575e-17 0.338724100386969 0.9408857442946476
12638884000.0 0.34539735078412026 0.938456536058632 -3.687398926241276e-17 -4.899227652854023e-17 -3.687398926241276e-17 -4.899227652854023e-17 0.3453967813235914 0.9384567456474259
12639501333.333334 0.35205261365749335 0.9359802119792823 -3.721800098181309e-17 -4.871637715855965e-17 -3.721800098181309e-17 -4.871637715855965e-17 0.3520520457273568 0.9359804255960896
12640118666.666666 0.358690124379713 0.933456691374764 -3.75599537104455e-17 -4.843806644190283e-17 -3.75599537104455e-17 -4.843806644190283e-17 0.3586895580084552 0.9334569090084196
12640736000.0 0.3653095482564088 0.9308861014928491 -3.7899830576892085e-17 -4.8157359707235645e-17 -3.7899830576892085e-17 -4.8157359707235645e-17 0.3653089834724353 0.9308863231319869
12641353333.333334 0.37191055150496943 0.9282685719548651 -3.8237614823579817e-17 -4.787427240105249e-17 -3.8237614823579817e-17 -4.787427240105249e-17 0.37190998833660305 0.9282687975879197
12641970666.666666 0.3784928012718513 0.9256042347489779 -3.8573289807624826e-17 -4.7588820086814e-17 -3.8573289807624826e-17 -4.7588820086814e-17 0.3784922397473305 0.9256044643641814
12642588000.0 0.38505596564901806 0.9228932242236673 -3.890683900163614e-17 -4.7301018444105885e-17 -3.890683900163614e-17 -4.7301018444105885e-17 0.38505540579649544 0.9228934578090533
12643205333.333334 0.39159971369086155 0.9201356770808803 -3.923824599452047e-17 -4.7010883267787213e-17 -3.923824599452047e-17 -4.7010883267787213e-17 0.3915991555384027 0.9201359146242826
12643822666.666666 0.39812371543091496 0.917331732369124 -3.956749449229763e-17 -4.6718430467118214e-17 -3.956749449229763e-17 -4.6718430467118214e-17 0.3981231590064973 0.9173319738581786
12644440000.0 0.4046276418982834 0.9144815314765461 -3.989456831888462e-17 -4.642367606490406e-17 -3.989456831888462e-17 -4.642367606490406e-17 0.4046270872297941 0.914481776898691
12645057333.333334 0.41111116513441365 0.911585218123725 -4.021945141688769e-17 -4.6126636196620475e-17 -4.021945141688769e-17 -4.6126636196620475e-17 0.41111061224964907 0.9115854674662018
12645674666.666666 0.4175739582095288 0.9086429383564701 -4.054212784838675e-17 -4.5827327109535346e-17 -4.054212784838675e-17 -4.5827327109535346e-17 0.41757340713619256 0.9086431916063239
12646292000.0 0.4240156952393203 0.9056548405383644 -4.086258179571576e-17 -4.552576516182206e-17 -4.086258179571576e-17 -4.552576516182206e-17 0.4240151460050214 0.9056550976824432
12646909333.333334 0.4304360514010426 0.9026210753434319 -4.118079756222383e-17 -4.522196682167962e-17 -4.118079756222383e-17 -4.522196682167962e-17 0.4304355040332952 0.90262133636839
12647526666.666666 0.4368347029501789 0.8995417957484153 -4.149675957304641e-17 -4.491594866643189e-17 -4.149675957304641e-17 -4.491594866643189e-17 0.43683415747640025 0.899542060640712
12648144000.0 0.44321132723663564 0.8964171570251181 -4.1810452375863486e-17 -4.460772738162752e-17 -4.1810452375863486e-17 -4.460772738162752e-17 0.44321078368414485 0.8964174257710196
12648761333.333334 0.449565602721063 0.8932473167325519 -4.212186064163962e-17 -4.42973197601452e-17 -4.212186064163962e-17 -4.42973197601452e-17 0.44956506111707945 0.8932475893181306
12649378666.666666 0.45589720899096686 0.8900324347090403 -4.243096916537544e-17 -4.3984742701277445e-17 -4.243096916537544e-17 -4.3984742701277445e-17 0.45589666936260975 0.8900327111201782
12649996000.0 0.46220582677704447 0.8867726730640741 -4.2737762866845677e-17 -4.367001320981473e-17 -4.2737762866845677e-17 -4.367001320981473e-17 0.46220528915133 0.8867729532864603
12650613333.333334 0.4684911379691049 0.8834681961702237 -4.3042226791326755e-17 -4.33531483951283e-17 -4.3042226791326755e-17 -4.33531483951283e-17 0.46849060237294554 0.8834684801893558
12651230666.666666 0.47475282563215987 0.880119170654824 -4.334434611031564e-17 -4.30341654702507e-17 -4.334434611031564e-17 -4.30341654702507e-17 0.47475229209236364 0.8801194584560109
12651848000.0 0.48099057402255785 0.8767257653914969 -4.3644106122259666e-17 -4.271308175093236e-17 -4.3644106122259666e-17 -4.271308175093236e-17 0.48099004256582634 0.876726056959858
12652465333.333334 0.48720406860370136 0.8732881514917361 -4.394149225325058e-17 -4.238991465472326e-17 -4.394149225325058e-17 -4.238991465472326e-17 0.48720353925662896 0.8732884468122026
12653082666.666666 0.49339299606193787 0.8698065022962752 -4.423649005773512e-17 -4.2064681700026394e-17 -4.423649005773512e-17 -4.2064681700026394e-17 0.4933924688510085 0.8698068013535888
12653700000.0 0.49955704432250103 0.8662809933662532 -4.45290852192177e-17 -4.173740050514533e-17 -4.45290852192177e-17 -4.173740050514533e-17 0.4995565192740901 0.8662812961449711
12654317333.333334 0.5056959025650544 0.8627118024744825 -4.481926355093441e-17 -4.1408088787352104e-17 -4.481926355093441e-17 -4.1408088787352104e-17 0.5056953797054248 0.8627121089589745
12654934666.666666 0.5118092612395345 0.8590991095963822 -4.5107010996548066e-17 -4.10767643619192e-17 -4.5107010996548066e-17 -4.10767643619192e-17 0.5118087405948367 0.8590994197708335
12655552000.0 0.5178968120816867 0.855443096900946 -4.5392313630818604e-17 -4.07434451411662e-17 -4.5392313630818604e-17 -4.07434451411662e-17 0.5178962936779561 0.8554434107493558
12656169333.333334 0.5239582481285353 0.8517439487415985 -4.567515766026791e-17 -4.0408149133500724e-17 -4.567515766026791e-17 -4.0408149133500724e-17 0.5239577319916927 0.8517442662477844
12656786666.666666 0.52999326373401 0.8480018516468152 -4.595552942384751e-17 -4.00708944424427e-17 -4.595552942384751e-17 -4.00708944424427e-17 0.5299927498898588 0.8480021727944105
12657404000.0 0.5360015545842823 0.8442169943107565 -4.623341539358927e-17 -3.973169926565616e-17 -4.623341539358927e-17 -3.973169926565616e-17 0.5360010430585079 0.8442173190832125
12658021333.333334 0.5419828177130643 0.8403895675837856 -4.650880217524992e-17 -3.9390581893975153e-17 -4.650880217524992e-17 -3.9390581893975153e-17 0.541982308531233 0.8403898959643733
12658638666.666666 0.5479367515169109 0.8365197644628314 -4.6781676508951955e-17 -3.904756071042138e-17 -4.6781676508951955e-17 -3.904756071042138e-17 0.5479362447044679 0.836520096434641
12659256000.0 0.5538630557705678 0.8326077800815604 -4.7052025269822533e-17 -3.8702654189210433e-17 -4.7052025269822533e-17 -3.8702654189210433e-17 0.5538625513528368 0.8326081156275031
12659873333.333334 0.5597614316419234 0.8286538117006642 -4.7319835468610066e-17 -3.835588089477285e-17 -4.7319835468610066e-17 -3.835588089477285e-17 0.5597609296441044 0.8286541508034722
12660490666.666666 0.5656315817070982 0.8246580586978959 -4.758509425230351e-17 -3.800725948075868e-17 -4.758509425230351e-17 -3.800725948075868e-17 0.5656310821542668 0.8246584013401232
12661108000.0 0.5714732099655858 0.8206207225579213 -4.784778890474917e-17 -3.7656808689030783e-17 -4.784778890474917e-17 -3.7656808689030783e-17 0.5714727128826927 0.820621068721947
12661725333.333334 0.5772860218549908 0.816542006862289 -4.8107906847246014e-17 -3.7304547348673513e-17 -4.8107906847246014e-17 -3.7304547348673513e-17 0.5772855272668591 0.8165423565303148
12662342666.666666 0.5830697242660448 0.8124221172790499 -4.8365435639149064e-17 -3.6950494374976444e-17 -4.8365435639149064e-17 -3.6950494374976444e-17 0.5830692321973688 0.8124224704331027
12662960000.0 0.5888240255573155 0.8082612615524349 -4.862036297845362e-17 -3.659466876842895e-17 -4.862036297845362e-17 -3.659466876842895e-17 0.5888235360326614 0.8082616181743684
12663577333.333334 0.5945486355698459 0.8040596494924304 -4.8872676702379224e-17 -3.623708961370313e-17 -4.8872676702379224e-17 -3.623708961370313e-17 0.5945481486136482 0.8040600095639244
12664194666.666666 0.6002432656419219 0.799817492964099 -4.912236478793902e-17 -3.5877776078640445e-17 -4.912236478793902e-17 -3.5877776078640445e-17 0.6002427812784836 0.7998178564666617
12664812000.0 0.6059076286235365 0.7955350058769619 -4.9369415352512703e-17 -3.5516747413221013e-17 -4.9369415352512703e-17 -3.5516747413221013e-17 0.6059071468770275 0.79553537279193
12665429333.333334 0.611541438890915 0.7912124041741797 -4.9613816654402305e-17 -3.5154022948541323e-17 -4.9613816654402305e-17 -3.5154022948541323e-17 0.6115409597853706 0.7912127744827194
12666046666.666666 0.6171444123608255 0.7868499058217305 -4.9855557093379936e-17 -3.478962209578982e-17 -4.9855557093379936e-17 -3.478962209578982e-17 0.6171439359201465 0.7868502795048401
12666664000.0 0.6227162665050657 0.7824477307973028 -5.009462521124235e-17 -3.4423564345197253e-17 -5.009462521124235e-17 -3.4423564345197253e-17 0.6227157927530147 0.7824481078358101
12667281333.333334 0.6282567203645241 0.7780061010793348 -5.0331009692335045e-17 -3.405586926501784e-17 -5.0331009692335045e-17 -3.405586926501784e-17 0.628256249324727 0.7780064814539028
12667898666.666666 0.6337654945635086 0.7735252406357067 -5.0564699364086794e-17 -3.368655650047934e-17 -5.0564699364086794e-17 -3.368655650047934e-17 0.6337650262594515 0.7735256243268298
12668516000.0 0.6392423113237629 0.7690053754124929 -5.07956831975367e-17 -3.3315645772729673e-17 -5.07956831975367e-17 -3.3315645772729673e-17 0.6392418457787928 0.7690057624005021
12669133333.333334 0.6446868944784117 0.764446733322628 -5.102395030783564e-17 -3.294315687780754e-17 -5.102395030783564e-17 -3.294315687780754e-17 0.644686431715733 0.7644471235876886
12669750666.666666 0.6500989694860144 0.759849544234303 -5.124948995476342e-17 -3.256910968557311e-17 -5.124948995476342e-17 -3.256910968557311e-17 0.6500985095286893 0.7598499377564176
12670368000.0 0.6554782634443443 0.7552140399594295 -5.147229154321983e-17 -3.21935241386646e-17 -5.147229154321983e-17 -3.21935241386646e-17 0.6554778063152916 0.7552144367184384
