! Parameters = {f0=12700.012000; bw=77.238000; Q=6100.000000; N=10; m_0_1=1.202297; m_1_1=-0.730286; m_1_2=1.037109; m_2_2=-0.730935; m_2_3=0.674072; m_2_8=-0.002821; m_2_9=0.033883; m_3_3=-0.732872; m_3_4=0.562601; m_3_7=-0.002221; m_3_8=-0.099309; m_3_9=-0.002821; m_4_4=-0.735797; m_4_5=0.398936; m_4_6=0.001296; m_4_7=-0.119858; m_4_8=-0.002221; m_5_5=-0.735415; m_5_6=0.806291; m_5_7=0.001296; m_6_6=-0.735416; m_6_7=0.399278; m_7_7=-0.735783; m_7_8=0.562719; m_8_8=-0.732874; m_8_9=0.674385; m_9_9=-0.730940; m_9_10=1.038187; m_10_10=-0.730296; m_10_11=1.203092}
!
! Created with skrf (http://scikit-rf.org).
# Hz S RI R 50.0 
!freq ReS11 ImS11 ReS21 ImS21 ReS12 ImS12 ReS22 ImS22
12607400000.0 -0.6770701022658646 -0.7359185258012829 6.820854561637835e-17 4.0794785638082877e-17 6.820854561637835e-17 4.0794785638082877e-17 -0.6770696360176334 -0.7359189547652593
12608017333.333334 -0.683316556464022 -0.7301222388490797 6.854383487465423e-17 4.0198118995698634e-17 6.854383487465423e-17 4.0198118995698634e-17 -0.6833160939107337 -0.730122671749357
12608634666.666666 -0.6895133915382415 -0.7242729339753582 6.887391036795723e-17 3.959870541684634e-17 6.887391036795723e-17 3.959870541684634e-17 -0.6895129327131209 -0.7242733707801171
12609252000.0 -0.695660157504564 -0.7183710359282094 6.919874967021897e-17 3.899659041179721e-17 6.919874967021897e-17 3.899659041179721e-17 -0.6956597024405616 -0.7183714766053505
12609869333.333334 -0.701756408014825 -0.7124169732747623 6.951833075221266e-17 3.8391819673197143e-17 6.951833075221266e-17 3.8391819673197143e-17 -0.7017559567446161 -0.7124174177919083
12610486666.666666 -0.7078017003889683 -0.7064111783701669 6.983263198302495e-17 3.778443907261994e-17 6.983263198302495e-17 3.778443907261994e-17 -0.7078012529449489 -0.7064116266946651
12611104000.0 -0.71379559564741 -0.7003540873259761 7.014163213151383e-17 3.717449465707651e-17 7.014163213151383e-17 3.717449465707651e-17 -0.7137951520616951 -0.7003545394249001
12611721333.333334 -0.7197376585426155 -0.6942461399787796 7.044531036771071e-17 3.656203264556254e-17 7.044531036771071e-17 3.656203264556254e-17 -0.7197372188470365 -0.6942465958189318
12612338666.666666 -0.7256274575910038 -0.6880877798579617 7.074364626421686e-17 3.594709942554665e-17 7.074364626421686e-17 3.594709942554665e-17 -0.7256270218171067 -0.6880882394058765
12612956000.0 -0.7314645651040599 -0.6818794541537156 7.10366197975591e-17 3.5329741549467416e-17 7.10366197975591e-17 3.5329741549467416e-17 -0.7314641332831038 -0.6818799173756623
12613573333.333334 -0.7372485572194954 -0.6756216136844758 7.132421134950647e-17 3.4710005731238e-17 7.132421134950647e-17 3.4710005731238e-17 -0.7372481293824472 -0.6756220805464582
12614190666.666666 -0.7429790139320002 -0.669314712864192 7.160640170837468e-17 3.408793884270139e-17 7.160640170837468e-17 3.408793884270139e-17 -0.7429785901095362 -0.6693151833319545
12614808000.0 -0.7486555191237467 -0.66295920966934 7.18831720702857e-17 3.346358791010608e-17 7.18831720702857e-17 3.346358791010608e-17 -0.748655099346249 -0.6629596837083689
12615425333.333334 -0.7542776605946049 -0.6565555656056622 7.215450404040109e-17 3.283700011056123e-17 7.215450404040109e-17 3.283700011056123e-17 -0.7542772448921585 -0.6565560431811873
12616042666.666666 -0.7598450300920754 -0.6501042456746573 7.242037963412865e-17 3.220822276847414e-17 7.242037963412865e-17 3.220822276847414e-17 -0.759844618494465 -0.6501047267516541
12616660000.0 -0.765357223340931 -0.6436057183398106 7.268078127828871e-17 3.1577303351998496e-17 7.268078127828871e-17 3.1577303351998496e-17 -0.765356815877642 -0.6436062028830047
12617277333.333334 -0.7708138400725936 -0.637060455492557 7.293569181225948e-17 3.094428946945082e-17 7.293569181225948e-17 3.094428946945082e-17 -0.7708134367728086 -0.6370609434664264
12617894666.666666 -0.7762144840541123 -0.6304689324181257 7.318509448908219e-17 3.03092288657408e-17 7.318509448908219e-17 3.03092288657408e-17 -0.7762140849467075 -0.6304694237869017
12618512000.0 -0.7815587631171286 -0.6238316277607822 7.342897297654873e-17 2.9672169418757203e-17 7.342897297654873e-17 2.9672169418757203e-17 -0.7815583682306737 -0.6238321224884535
12619129333.333334 -0.7868462891861061 -0.6171490234893814 7.366731135823826e-17 2.9033159135798014e-17 7.366731135823826e-17 2.9033159135798014e-17 -0.7868458985488618 -0.6171495215396967
12619746666.666666 -0.7920766783066898 -0.6104216048621502 7.39000941345416e-17 2.8392246149941733e-17 7.39000941345416e-17 2.8392246149941733e-17 -0.7920762919466047 -0.6104221061986201
12620364000.0 -0.7972495506735826 -0.6036498603914465 7.412730622364644e-17 2.7749478716431894e-17 7.412730622364644e-17 2.7749478716431894e-17 -0.7972491686182924 -0.6036503649773464
12620981333.333334 -0.8023645306579713 -0.5968342818084895 7.43489329624844e-17 2.710490520907303e-17 7.43489329624844e-17 2.710490520907303e-17 -0.8023641529347968 -0.596834789606863
12621598666.666666 -0.807421246834975 -0.5899753640274279 7.456496010766112e-17 2.6458574116579022e-17 7.456496010766112e-17 2.6458574116579022e-17 -0.8074208734709191 -0.5899758750010883
12622216000.0 -0.8124193320105312 -0.5830736051095141 7.477537383634371e-17 2.5810534038946136e-17 7.477537383634371e-17 2.5810534038946136e-17 -0.8124189630322778 -0.583074119221048
12622833333.333334 -0.8173584232480898 -0.57612950622689 7.498016074712141e-17 2.5160833683804317e-17 7.498016074712141e-17 2.5160833683804317e-17 -0.8173580586820021 -0.57613002343866
12623450666.666666 -0.8222381618949062 -0.5691435716262895 7.517930786083134e-17 2.450952186277495e-17 7.517930786083134e-17 2.450952186277495e-17 -0.8222378017670247 -0.5691440919004374
12624068000.0 -0.8270581936081657 -0.5621163085923061 7.537280262135811e-17 2.3856647487802877e-17 7.537280262135811e-17 2.3856647487802877e-17 -0.8270578379442057 -0.5621168318907542
12624685333.333334 -0.831818168380728 -0.5550482274105311 7.556063289639846e-17 2.320225956749314e-17 7.556063289639846e-17 2.320225956749314e-17 -0.8318178172060783 -0.5550487536949861
12625302666.666666 -0.8365177405663855 -0.5479398413307356 7.574278697819082e-17 2.2546407203455107e-17 7.574278697819082e-17 2.2546407203455107e-17 -0.8365173939061059 -0.547940370562691
12625920000.0 -0.8411565689051972 -0.5407916665292457 7.591925358422165e-17 2.1889139586608438e-17 7.591925358422165e-17 2.1889139586608438e-17 -0.8411562267840179 -0.5407921986699847
12626537333.333334 -0.8457343165480513 -0.5336042220717916 7.609002185788967e-17 2.1230505993525388e-17 7.609002185788967e-17 2.1230505993525388e-17 -0.845733978990371 -0.5336047570823905
12627154666.666666 -0.8502506510812226 -0.526378029875677 7.625508136914634e-17 2.057055578273541e-17 7.625508136914634e-17 2.057055578273541e-17 -0.8502503181111045 -0.5263785677170068
12627772000.0 -0.8547052445505803 -0.5191136146717547 7.641442211510503e-17 1.9909338391023016e-17 7.641442211510503e-17 1.9909338391023016e-17 -0.8547049161917537 -0.5191141553044851
12628389333.333334 -0.8590977734852699 -0.5118115039665424 7.656803452060752e-17 1.924690332976481e-17 7.656803452060752e-17 1.924690332976481e-17 -0.8590974497611268 -0.5118120473511446
12629006666.666666 -0.863427918921263 -0.5044722280038215 7.671590943877418e-17 1.858330018119927e-17 7.671590943877418e-17 1.858330018119927e-17 -0.8634275998548562 -0.5044727741005702
12629624000.0 -0.8676953664245595 -0.4970963197260589 7.685803815150829e-17 1.791857859474939e-17 7.685803815150829e-17 1.791857859474939e-17 -0.8676950520386012 -0.49709686849503576
12630241333.333334 -0.871899806113949 -0.48968431473582935 7.699441236997736e-17 1.725278828330472e-17 7.699441236997736e-17 1.725278828330472e-17 -0.871899496430811 -0.4896848661369269
12630858666.666666 -0.8760409326835044 -0.48223675125695126 7.712502423505676e-17 1.6585979019526462e-17 7.712502423505676e-17 1.6585979019526462e-17 -0.8760406277252117 -0.4822373052498732
12631476000.0 -0.8801184454248803 -0.4747541700951496 7.724986631774873e-17 1.5918200632112113e-17 7.724986631774873e-17 1.5918200632112113e-17 -0.8801181452131155 -0.4747547266394166
12632093333.333334 -0.8841320482489803 -0.4672371145991136 7.736893161955844e-17 1.5249503002112538e-17 7.736893161955844e-17 1.5249503002112538e-17 -0.884131752805078 -0.46723767365406477
12632710666.666666 -0.8880814497075343 -0.45968613062089003 7.748221357284929e-17 1.4579936059191542e-17 7.748221357284929e-17 1.4579936059191542e-17 -0.8880811590524815 -0.4596866921456861
12633328000.0 -0.8919663630143311 -0.4521017664761207 7.758970604115792e-17 1.3909549777920647e-17 7.758970604115792e-17 1.3909549777920647e-17 -0.8919660771687644 -0.45210233042974696
12633945333.333334 -0.8957865060659208 -0.444484572904452 7.769140331948291e-17 1.3238394174047924e-17 7.769140331948291e-17 1.3238394174047924e-17 -0.8957862250501255 -0.44448513924572136
12634562666.666666 -0.8995416014621676 -0.4368351030294172 7.778730013453598e-17 1.2566519300789318e-17 7.778730013453598e-17 1.2566519300789318e-17 -0.8995413252960771 -0.43683567171697363
12635180000.0 -0.9032313765263812 -0.4291539123182978 7.787739164496578e-17 1.1893975245096721e-17 7.787739164496578e-17 1.1893975245096721e-17 -0.9032311052295741 -0.4291544833106185
12635797333.333334 -0.9068555633251273 -0.4214415585417606 7.796167344154747e-17 1.1220812123933737e-17 7.796167344154747e-17 1.1220812123933737e-17 -0.9068552969168275 -0.42144213179715995
12636414666.666666 -0.9104138986876373 -0.41369860173345957 7.804014154733953e-17 1.0547080080559596e-17 7.804014154733953e-17 1.0547080080559596e-17 -0.9104136371867105 -0.413699177210091
12637032000.0 -0.9139061242249877 -0.40592560414921314 7.811279241781088e-17 9.872829280790377e-18 7.811279241781088e-17 9.872829280790377e-18 -0.9139058676499433 -0.40592618180507367
12637649333.333334 -0.9173319863488191 -0.3981231302262803 7.817962294093372e-17 9.198109909282238e-18 7.817962294093372e-17 9.198109909282238e-18 -0.9173317347178066 -0.3981237100192128
12638266666.666666 -0.9206912362897601 -0.3902917465423475 7.824063043724499e-17 8.52297216580354e-18 7.824063043724499e-17 8.52297216580354e-18 -0.9206909896205665 -0.3902923284300429
12638884000.0 -0.9239836301154901 -0.3824320217743856 7.829581265987606e-17 7.847466261509615e-18 7.829581265987606e-17 7.847466261509615e-18 -0.923983388425542 -0.38243260571438764
12639501333.333334 -0.9272089287484668 -0.37454452665733085 7.834516779455032e-17 7.171642415215861e-18 7.834516779455032e-17 7.171642415215861e-18 -0.9272086920548274 -0.37454511260703816
12640118666.666666 -0.9303668979832198 -0.366629833942797 7.838869445954742e-17 6.495550849687325e-18 7.838869445954742e-17 6.495550849687325e-18 -0.9303666663025885 -0.366630421859467
12640736000.0 -0.9334573085035314 -0.3586885183570656 7.842639170563934e-17 5.819241787880443e-18 7.842639170563934e-17 5.819241787880443e-18 -0.9334570818522394 -0.3586891081978158
12641353333.333334 -0.9364799358988268 -0.3507211565599817 7.845825901598778e-17 5.1427654492776004e-18 7.845825901598778e-17 5.1427654492776004e-18 -0.9364797142928425 -0.3507217482817956
12641970666.666666 -0.9394345606807021 -0.3427283271025294 7.848429630601728e-17 4.46617204611192e-18 7.848429630601728e-17 4.46617204611192e-18 -0.9394343441356222 -0.34272892066225696
12642588000.0 -0.9423209682987477 -0.33471061038508104 7.850450392325027e-17 3.78951177968548e-18 7.850450392325027e-17 3.78951177968548e-18 -0.942320756829802 -0.33471120573944363
12643205333.333334 -0.9451389491561436 -0.3266685886152273 7.851888264711326e-17 3.1128348366429483e-18 7.851888264711326e-17 3.1128348366429483e-18 -0.9451387427781909 -0.32666918572081954
12643822666.666666 -0.9478882986249161 -0.3186028457653913 7.852743368871055e-17 2.4361913852522154e-18 7.852743368871055e-17 2.4361913852522154e-18 -0.9478880973524454 -0.3186034445786859
12644440000.0 -0.9505688170607496 -0.3105139675305586 7.85301586905653e-17 1.7596315717056936e-18 7.85301586905653e-17 1.7596315717056936e-18 -0.9505686209078779 -0.3105145680079082
12645057333.333334 -0.9531803098174894 -0.3024025412857482 7.852705972632998e-17 1.0832055164113182e-18 7.852705972632998e-17 1.0832055164113182e-18 -0.9531801187979574 -0.3024031433833881
12645674666.666666 -0.9557225872613017 -0.29426915604324927 7.851813930046377e-17 4.0696331028911204e-19 7.851813930046377e-17 4.0696331028911204e-19 -0.9557224013884804 -0.2942697597173024
12646292000.0 -0.9581954647844626 -0.2861144024098255 7.850340034787904e-17 -2.690449889442146e-19 7.850340034787904e-17 -2.690449889442146e-19 -0.9581952840713447 -0.2861150076163039
12646909333.333334 -0.9605987628186778 -0.27793887254407024 7.848284623355584e-17 -9.447693604421375e-19 7.848284623355584e-17 -9.447693604421375e-19 -0.9605985872778824 -0.27793947923887957
12647526666.666666 -0.9629323068482059 -0.2697431601131643 7.845648075212441e-17 -1.6201598239423476e-18 7.845648075212441e-17 -1.6201598239423476e-18 -0.9629321364919734 -0.26974376825210605
12648144000.0 -0.9651959274225146 -0.2615278602497921 7.842430812741602e-17 -2.2951664434517688e-18 7.842430812741602e-17 -2.2951664434517688e-18 -0.9651957622627095 -0.2615284697885674
12648761333.333334 -0.9673894601685585 -0.2532935695090359 7.838633301198306e-17 -2.9697393309201866e-18 7.838633301198306e-17 -2.9697393309201866e-18 -0.9673893002166654 -0.2532941804032484
12649378666.666666 -0.9695127458027123 -0.24504088582505668 7.834256048658664e-17 -3.643828649917807e-18 7.834256048658664e-17 -3.643828649917807e-18 -0.9695125910698374 -0.24504149803021621
12649996000.0 -0.9715656301423787 -0.23677040846753908 7.829299605965264e-17 -4.317384619318694e-18 7.829299605965264e-17 -4.317384619318694e-18 -0.9715654806392482 -0.23677102193906446
12650613333.333334 -0.9735479641171584 -0.22848273799825616 7.823764566669685e-17 -4.9903575169586035e-18 7.823764566669685e-17 -4.9903575169586035e-18 -0.9735478198541171 -0.22848335269147857
12651230666.666666 -0.9754596037796482 -0.2201784762275708 7.817651566971882e-17 -5.6626976832959855e-18 7.817651566971882e-17 -5.6626976832959855e-18 -0.9754594647666599 -0.22017909209773717
12651848000.0 -0.9773004103159629 -0.21185822617045874 7.810961285656282e-17 -6.33435552507573e-18 7.810961285656282e-17 -6.33435552507573e-18 -0.9773002765626095 -0.21185884317273498
12652465333.333334 -0.9790702500557535 -0.20352259200296938 7.803694444024999e-17 -7.005281518966647e-18 7.803694444024999e-17 -7.005281518966647e-18 -0.9790701215712335 -0.20352321009244342
12653082666.666666 -0.9807689944819173 -0.1951721790183539 7.795851805827791e-17 -7.675426215201207e-18 7.795851805827791e-17 -7.675426215201207e-18 -0.9807688712750454 -0.19517279815003905
12653700000.0 -0.9823965202399868 -0.18680759358283344 7.787434177188707e-17 -8.344740241232789e-18 7.787434177188707e-17 -8.344740241232789e-18 -0.9823964023191946 -0.186808213711672
12654317333.333334 -0.9839527091470085 -0.17842944309195796 7.778442406530129e-17 -9.013174305332613e-18 7.778442406530129e-17 -9.013174305332613e-18 -0.9839525965203426 -0.17843006417282403
12654934666.666666 -0.985437448200181 -0.1700383359262212 7.768877384493168e-17 -9.680679200232446e-18 7.768877384493168e-17 -9.680679200232446e-18 -0.9854373408753035 -0.17003895791392434
12655552000.0 -0.9868506295850585 -0.1616348814068827 7.758740043855175e-17 -1.0347205806737414e-17 7.758740043855175e-17 -1.0347205806737414e-17 -0.9868505275692444 -0.1616355042561708
12656169333.333334 -0.9881921506833333 -0.15321968975197373 7.748031359444449e-17 -1.1012705097311127e-17 7.748031359444449e-17 -1.1012705097311127e-17 -0.9881920539834725 -0.1532203134175367
12656786666.666666 -0.9894619140803402 -0.1447933720317065 7.736752348051327e-17 -1.1677128139694479e-17 7.736752348051327e-17 -1.1677128139694479e-17 -0.9894618227029356 -0.1447939964681794
12657404000.0 -0.9906598275721032 -0.136356540124241 7.724904068336587e-17 -1.2340426100482883e-17 7.724904068336587e-17 -1.2340426100482883e-17 -0.9906597415232704 -0.1363571652862072
12658021333.333334 -0.9917858041720392 -0.1279098066711972 7.712487620736622e-17 -1.3002550248710238e-17 7.712487620736622e-17 -1.3002550248710238e-17 -0.9917857234575072 -0.12791043251319203
12658638666.666666 -0.9928397621172603 -0.11945378503330926 7.69950414736582e-17 -1.3663451959408603e-17 7.69950414736582e-17 -1.3663451959408603e-17 -0.9928396867423687 -0.11945441150982294
12659256000.0 -0.9938216248745416 -0.11098908924560395 7.685954831915241e-17 -1.432308271719133e-17 7.685954831915241e-17 -1.432308271719133e-17 -0.9938215548442426 -0.11098971631108509
12659873333.333334 -0.9947313211458484 -0.10251633397306616 7.671840899549123e-17 -1.4981394119783077e-17 7.671840899549123e-17 -1.4981394119783077e-17 -0.9947312564647061 -0.10251696158192514
12660490666.666666 -0.9955687848735184 -0.09403613446600556 7.657163616797787e-17 -1.5638337881570646e-17 7.657163616797787e-17 -1.5638337881570646e-17 -0.9955687255457071 -0.09403676257261766
12661108000.0 -0.9963339552450836 -0.08554910651509703 7.641924291447427e-17 -1.629386583714364e-17 7.641924291447427e-17 -1.629386583714364e-17 -0.996333901274389 -0.08554973507380588
12661725333.333334 -0.9970267766976456 -0.07705586640708924 7.626124272427613e-17 -1.6947929944794528e-17 7.626124272427613e-17 -1.6947929944794528e-17 -0.9970267280874648 -0.07705649537221015
12662342666.666666 -0.99764719892195 -0.06855703087962853 7.60976494969483e-17 -1.7600482290051617e-17 7.60976494969483e-17 -1.7600482290051617e-17 -0.99764715567529 -0.06855766020545172
12662960000.0 -0.9981951768660129 -0.06005321707678579 7.592847754113714e-17 -1.8251475089168566e-17 7.592847754113714e-17 -1.8251475089168566e-17 -0.9981951389854911 -0.060053846717579754
12663577333.333334 -0.9986706707384041 -0.051545042504100975 7.575374157335041e-17 -1.890086069261597e-17 7.575374157335041e-17 -1.890086069261597e-17 -0.9986706382262471 -0.05154567241411574
12664194666.666666 -0.9990736460111307 -0.043033124983770876 7.557345671670778e-17 -1.9548591588559434e-17 7.557345671670778e-17 -1.9548591588559434e-17 -0.9990736188691761 -0.04303375511724144
12664812000.0 -0.9994040734221504 -0.03451808260978624 7.538763849966187e-17 -2.0194620406326085e-17 7.538763849966187e-17 -2.0194620406326085e-17 -0.9994040516518454 -0.034518712920935814
12665429333.333334 -0.9996619289774928 -0.02600053370302019 7.519630285468883e-17 -2.0838899919861415e-17 7.519630285468883e-17 -2.0838899919861415e-17 -0.9996619125798941 -0.026001164146063554
12666046666.666666 -0.9998471939529981 -0.017481096766470836 7.499946611695362e-17 -2.1481383051161304e-17 7.499946611695362e-17 -2.1481383051161304e-17 -0.9998471829287735 -0.017481727295617686
12666664000.0 -0.9999598548956883 -0.008960390440036175 7.479714502293564e-17 -2.2122022873725746e-17 7.479714502293564e-17 -2.2122022873725746e-17 -0.9999598492451134 -0.008961021009494374
12667281333.333334 -0.9999999036247293 -0.00043903345598913466 7.458935670904111e-17 -2.2760772615946864e-17 7.458935670904111e-17 -2.2760772615946864e-17 -0.9999999033476913 -0.00043966401996810755
12667898666.666666 -0.9999673372320373 0.00808235540623581 7.437611871017133e-17 -2.339758566453523e-17 7.437611871017133e-17 -2.339758566453523e-17 -0.9999673423280322 0.008081724893521781
12668516000.0 -0.9998621580824816 0.016603157364975436 7.41574489582682e-17 -2.4032415567909442e-17 7.41574489582682e-17 -2.4032415567909442e-17 -0.9998621685506158 0.016602526949303885
12669133333.333334 -0.9996843738137184 0.025122753681014902 7.39333657808347e-17 -2.4665216039564418e-17 7.39333657808347e-17 -2.4665216039564418e-17 -0.9996843896527087 0.025122123408151866
12669750666.666666 -0.9994339973356334 0.03364052570280177 7.370388789941967e-17 -2.5295940961444748e-17 7.370388789941967e-17 -2.5295940961444748e-17 -0.9994340185438051 0.033639895618498415
12670368000.0 -0.9991110468294023 0.04215585491125572 7.346903442807728e-17 -2.5924544387296048e-17 7.346903442807728e-17 -2.5924544387296048e-17 -0.9991110734046931 0.04215522506124513
