! Parameters = {f0=12700.012000; bw=77.238000; Q=6100.000000; N=10; m_0_1=1.333428; m_1_1=1.236681; m_1_2=1.168240; m_2_2=1.236032; m_2_3=0.805203; m_2_8=0.003735; m_2_9=0.040439; m_3_3=1.234095; m_3_4=0.693732; m_3_7=0.004335; m_3_8=-0.092753; m_3_9=0.003735; m_4_4=1.231170; m_4_5=0.530067; m_4_6=0.007852; m_4_7=-0.113302; m_4_8=0.004335; m_5_5=1.231552; m_5_6=0.937422; m_5_7=0.007852; m_6_6=1.231551; m_6_7=0.530409; m_7_7=1.231184; m_7_8=0.693850; m_8_8=1.234093; m_8_9=0.805516; m_9_9=1.236027; m_9_10=1.169318; m_10_10=1.236671; m_10_11=1.334223}
!
! Created with skrf (http://scikit-rf.org).
# Hz S RI R 50.0 
!freq ReS11 ImS11 ReS21 ImS21 ReS12 ImS12 ReS22 ImS22
12607400000.0 0.9894059851266657 0.14517505500373273 -1.4632622058170188e-16 2.0966773233196763e-17 -1.4632622058170188e-16 2.0966773233196763e-17 0.9894058831542599 0.14517574997066243
12608017333.333334 0.9911297870842422 0.1328974986752975 -1.4602441628598423e-16 2.2787766905184864e-17 -1.4602441628598423e-16 2.2787766905184864e-17 0.9911296937402626 0.1328981948189625
12608634666.666666 0.9927012425982795 0.12059951469071818 -1.4569996276051935e-16 2.4604494612925318e-17 -1.4569996276051935e-16 2.4604494612925318e-17 0.9927011578962294 0.12060021190400452
12609252000.0 0.9941201101206344 0.10828299337173777 -1.4535291945476597e-16 2.6416674806441148e-17 -1.4535291945476597e-16 2.6416674806441148e-17 0.9941200340726858 0.10828369154737728
12609869333.333334 0.9953861715574585 0.09594982788932702 -1.449833493161221e-16 2.822402675486995e-17 -1.449833493161221e-16 2.822402675486995e-17 0.9953861041744535 0.09595052691991435
12610486666.666666 0.9964992323026886 0.08360191397305339 -1.4459131877875423e-16 3.002627058984352e-17 -1.4459131877875423e-16 3.002627058984352e-17 0.9964991735941361 0.08360261375106218
12611104000.0 0.9974591212680083 0.07124114961915083 -1.4417689775186258e-16 3.182312734884793e-17 -1.4417689775186258e-16 3.182312734884793e-17 0.9974590712420828 0.07124185003695038
12611721333.333334 0.9982656909090931 0.058869434799373545 -1.4374015960744276e-16 3.3614319018261147e-17 -1.4374015960744276e-16 3.3614319018261147e-17 0.9982656495726331 0.058870135749245336
12612338666.666666 0.9989188172483212 0.04648867116858351 -1.4328118116748307e-16 3.5399568576365315e-17 -1.4328118116748307e-16 3.5399568576365315e-17 0.998918784606831 0.046489372542737877
12612956000.0 0.9994183998938335 0.03410076177236192 -1.4280004269063693e-16 3.717860003614648e-17 -1.4280004269063693e-16 3.717860003614648e-17 0.9994183759514784 0.034101463462954444
12613573333.333334 0.9997643620549391 0.021707610754918002 -1.4229682785838604e-16 3.895113848783936e-17 -1.4229682785838604e-16 3.895113848783936e-17 0.9997643468145476 0.0217083126540662
12614190666.666666 0.9999566505539406 0.009311123066034243 -1.4177162376063805e-16 4.0716910141425215e-17 -1.4177162376063805e-16 4.0716910141425215e-17 0.9999566440170038 0.00931182506583417
12614808000.0 0.9999952358343016 -0.0030867958316864717 -1.4122452088083415e-16 4.247564236881347e-17 -1.4122452088083415e-16 4.247564236881347e-17 0.9999952380009725 -0.0030860938391436953
12615425333.333334 0.9998801119651871 -0.015484240255538836 -1.4065561308050721e-16 4.4227063745914155e-17 -1.4065561308050721e-16 4.4227063745914155e-17 0.9998801228342817 -0.015483538378150415
12616042666.666666 0.9996112966423796 -0.02787930459586473 -1.4006499758333947e-16 4.5970904094442274e-17 -1.4006499758333947e-16 4.5970904094442274e-17 0.9996113162113743 -0.027878602941499585
12616660000.0 0.9991888311855518 -0.04027008360876519 -1.3945277495869001e-16 4.7706894523551477e-17 -1.3945277495869001e-16 4.7706894523551477e-17 0.9991888594505898 -0.04026938228524748
12617277333.333334 0.9986127805319268 -0.05265467270906914 -1.3881904910460585e-16 4.9434767471254994e-17 -1.3881904910460585e-16 4.9434767471254994e-17 0.9986128174878122 -0.05265397182416159
12617894666.666666 0.997883233226289 -0.06503116826303004 -1.3816392723034217e-16 5.115425674555951e-17 -1.3816392723034217e-16 5.115425674555951e-17 0.9978832788664901 -0.06503046792441733
12618512000.0 0.9970003014073646 -0.07739766788107479 -1.374875198383302e-16 5.2865097565491995e-17 -1.374875198383302e-16 5.2865097565491995e-17 0.9970003557240184 -0.07739696819634725
12619129333.333334 0.9959641207906139 -0.08975227070990838 -1.3678994070569742e-16 5.4567026601733563e-17 -1.3678994070569742e-16 5.4567026601733563e-17 0.9959641837745222 -0.08975157178654525
12619746666.666666 0.9947748506473396 -0.1020930777250338 -1.3607130686523358e-16 5.625978201714411e-17 -1.3607130686523358e-16 5.625978201714411e-17 0.994774922287973 -0.10209237967038665
12620364000.0 0.9934326737802045 -0.11441819202259337 -1.3533173858587106e-16 5.794310350699921e-17 -1.3533173858587106e-16 5.794310350699921e-17 0.9934327540657069 -0.11441749494387005
12620981333.333334 0.9919377964951723 -0.12672571911063157 -1.345713593527004e-16 5.961673233889946e-17 -1.345713593527004e-16 5.961673233889946e-17 0.9919378854123573 -0.12672502311487924
12621598666.666666 0.9902904485697545 -0.1390137672006642 -1.3379029584643648e-16 6.128041139255016e-17 -1.3379029584643648e-16 6.128041139255016e-17 0.9902905461041105 -0.13901307239475305
12622216000.0 0.9884908832177105 -0.151280447498267 -1.329886779224458e-16 6.293388519915482e-17 -1.329886779224458e-16 6.293388519915482e-17 0.9884909893534037 -0.151279753988874
12622833333.333334 0.986539377050108 -0.1635238744935713 -1.321666385892484e-16 6.457689998062397e-17 -1.321666385892484e-16 6.457689998062397e-17 0.986539491769985 -0.16352318238716387
12623450666.666666 0.9844362300328452 -0.17574216625080466 -1.3132431398657435e-16 6.620920368842592e-17 -1.3132431398657435e-16 6.620920368842592e-17 0.9844363533184317 -0.1757414756536236
12624068000.0 0.9821817654405067 -0.18793344469778694 -1.304618433629059e-16 6.783054604222378e-17 -1.304618433629059e-16 6.783054604222378e-17 0.982181897272017 -0.18793275571583135
12624685333.333334 0.979776329806653 -0.2000958359147208 -1.295793690525504e-16 6.944067856820672e-17 -1.295793690525504e-16 6.944067856820672e-17 0.9797764701629893 -0.20009514865373096
12625302666.666666 0.9772202928706447 -0.21222747042175671 -1.2867703645228316e-16 7.103935463704736e-17 -1.2867703645228316e-16 7.103935463704736e-17 0.9772204417293999 -0.21222678498719796
12625920000.0 0.9745140475206805 -0.2243264834669915 -1.2775499399744278e-16 7.262632950170388e-17 -1.2775499399744278e-16 7.262632950170388e-17 0.9745142048581437 -0.2243257999640382
12626537333.333334 0.9716580097335301 -0.2363910153125149 -1.2681339313765078e-16 7.420136033475317e-17 -1.2681339313765078e-16 7.420136033475317e-17 0.9716581755246886 -0.23639033384603414
12627154666.666666 0.9686526185105417 -0.24841921152052038 -1.2585238831201028e-16 7.576420626551946e-17 -1.2585238831201028e-16 7.576420626551946e-17 0.968652792729087 -0.24841853219505614
12627772000.0 0.9654983358101022 -0.26040922323859844 -1.2487213692384662e-16 7.731462841688283e-17 -1.2487213692384662e-16 7.731462841688283e-17 0.9654985184284324 -0.26040854615835535
12628389333.333334 0.9621956464767707 -0.2723592074833443 -1.2387279931506187e-16 7.885238994165579e-17 -1.2387279931506187e-16 7.885238994165579e-17 0.9621958374659966 -0.2723585327521718
12629006666.666666 0.9587450581665937 -0.28426732742427585 -1.2285453873994438e-16 8.037725605878552e-17 -1.2285453873994438e-16 8.037725605878552e-17 0.9587452574965412 -0.2842666551456521
12629624000.0 0.9551471012692111 -0.29613175266565106 -1.2181752133862865e-16 8.188899408907175e-17 -1.2181752133862865e-16 8.188899408907175e-17 0.9551473089084269 -0.29613108294266693
12630241333.333334 0.9514023288262191 -0.3079506595281996 -1.2076191611004063e-16 8.338737349065863e-17 -1.2076191611004063e-16 8.338737349065863e-17 0.951402544741977 -0.3079499924635436
12630858666.666666 0.9475113164462761 -0.3197222313290891 -1.1968789488447392e-16 8.487216589408308e-17 -1.1968789488447392e-16 8.487216589408308e-17 0.9475115406045804 -0.31972156702503085
12631476000.0 0.9434746622164998 -0.3314446586615447 -1.1859563229565556e-16 8.634314513708311e-17 -1.1859563229565556e-16 8.634314513708311e-17 0.9434748945820917 -0.3314439972199194
12632093333.333334 0.9392929866106257 -0.3431161396727027 -1.1748530575248115e-16 8.780008729891646e-17 -1.1748530575248115e-16 8.780008729891646e-17 0.9392932271469869 -0.34311548119489566
12632710666.666666 0.9349669323936356 -0.3547348803405743 -1.163570954102585e-16 8.92427707344155e-17 -1.163570954102585e-16 8.92427707344155e-17 0.9349671810629977 -0.35473422492750567
12633328000.0 0.930497164522882 -0.36629909475001865 -1.1521118414153406e-16 9.06709761076684e-17 -1.1521118414153406e-16 9.06709761076684e-17 0.9304974212862289 -0.3662984425021275
12633945333.333334 0.9258843700459335 -0.37780700536709405 -1.140477575065702e-16 9.208448642524945e-17 -1.140477575065702e-16 9.208448642524945e-17 0.9258846348630094 -0.3778063563843232
12634562666.666666 0.921129257994992 -0.38925684331223104 -1.128670037233405e-16 9.34830870691663e-17 -1.128670037233405e-16 9.34830870691663e-17 0.9211295308243065 -0.3892561976940115
12635180000.0 0.9162325592778314 -0.4006468486323101 -1.1166911363717663e-16 9.486656582935563e-17 -1.1166911363717663e-16 9.486656582935563e-17 0.9162328400766682 -0.40064620647754645
12635797333.333334 0.9111950265655181 -0.41197527057102773 -1.1045428068998647e-16 9.623471293582962e-17 -1.1045428068998647e-16 9.623471293582962e-17 0.9111953152899381 -0.4119746319780821
12636414666.666666 0.9060174341767273 -0.423240367837978 -1.0922270088909305e-16 9.758732109041377e-17 -1.0922270088909305e-16 9.758732109041377e-17 0.9060177307815789 -0.4232397329046557
12637032000.0 0.90070057795862 -0.43444040887654045 -1.0797457277568534e-16 9.892418549808686e-17 -1.0797457277568534e-16 9.892418549808686e-17 0.9007008823975446 -0.43443977770007475
12637649333.333334 0.8952452751646294 -0.4455736721297779 -1.0671009739287312e-16 1.0024510389793417e-16 -1.0671009739287312e-16 1.0024510389793417e-16 0.8952455873900691 -0.4455730448068153
12638266666.666666 0.8896523643287954 -0.4566384463051609 -1.0542947825339201e-16 1.0154987659366298e-16 -1.0542947825339201e-16 1.0154987659366298e-16 0.8896526842920002 -0.4566378229317463
12638884000.0 0.8839227051368342 -0.46763303063768635 -1.0413292130691181e-16 1.0283830648373435e-16 -1.0413292130691181e-16 1.0283830648373435e-16 0.8839230327878693 -0.4676324113092479
12639501333.333334 0.8780571782940595 -0.47855573515117394 -1.0282063490697336e-16 1.0411019909108084e-16 -1.0282063490697336e-16 1.0411019909108084e-16 0.8780575135818126 -0.47855511996250855
12640118666.666666 0.872056685390052 -0.48940488091795903 -1.0149282977761472e-16 1.0536536259235403e-16 -1.0149282977761472e-16 1.0536536259235403e-16 0.8720570282622434 -0.4894042699632186
12640736000.0 0.8659221487598174 -0.5001788003174339 -1.0014971897953027e-16 1.0660360784685444e-16 -1.0014971897953027e-16 1.0660360784685444e-16 0.8659224991630053 -0.5001781936901096
12641353333.333334 0.8596545113424392 -0.5108758372916055 -9.879151787604483e-17 1.0782474842487442e-16 -9.879151787604483e-17 1.0782474842487442e-16 0.8596548692220309 -0.5108752350845154
12641970666.666666 0.853254736535738 -0.5214943476003684 -9.741844409857491e-17 1.0902860063576359e-16 -9.741844409857491e-17 1.0902860063576359e-16 0.8532551018359973 -0.5214937499056417
12642588000.0 0.8467238080484286 -0.5320326990738211 -9.603071751184532e-17 1.1021498355546925e-16 -9.603071751184532e-17 1.1021498355546925e-16 0.8467241807124821 -0.5320321059828838
12643205333.333334 0.8400627297488531 -0.5424892718632428 -9.462856017876735e-17 1.1138371905363756e-16 -9.462856017876735e-17 1.1138371905363756e-16 0.8400631097187036 -0.5424886834668055
12643822666.666666 0.8332725255105924 -0.5528624586902294 -9.321219632493608e-17 1.1253463182031572e-16 -9.321219632493608e-17 1.1253463182031572e-16 0.8332729127271234 -0.552861875078271
12644440000.0 0.8263542390551842 -0.5631506650935729 -9.178185230286352e-17 1.1366754939215208e-16 -9.178185230286352e-17 1.1366754939215208e-16 0.826354633458173 -0.5631500863553293
12645057333.333334 0.8193089337917167 -0.5733523096743284 -9.033775655587294e-17 1.1478230217816247e-16 -9.033775655587294e-17 1.1478230217816247e-16 0.8193093353198405 -0.5733517358982771
12645674666.666666 0.8121376926533391 -0.5834658243389373 -8.888013958167151e-17 1.158787234850459e-16 -8.888013958167151e-17 1.158787234850459e-16 0.8121381012441871 -0.5834652556127851
12646292000.0 0.8048416179306424 -0.5934896545404922 -8.740923389559028e-17 1.1695664954205897e-16 -8.740923389559028e-17 1.1695664954205897e-16 0.8048420335207229 -0.5934890909511599
12646909333.333334 0.7974218311025322 -0.6034222595172406 -8.592527399361972e-17 1.1801591952535163e-16 -8.592527399361972e-17 1.1801591952535163e-16 0.797422253627285 -0.6034217011508519
12647526666.666666 0.789879472663639 -0.6132621125297217 -8.442849631504578e-17 1.1905637558191557e-16 -8.442849631504578e-17 1.1905637558191557e-16 0.7898799020574454 -0.61326155947159
12648144000.0 0.782215701948974 -0.6230077010954834 -8.291913920483317e-17 1.2007786285303117e-16 -8.291913920483317e-17 1.2007786285303117e-16 0.7822161381451642 -0.6230071534300966
12648761333.333334 0.7744316969558973 -0.6326575272213367 -8.139744287576704e-17 1.2108022949721015e-16 -8.139744287576704e-17 1.2108022949721015e-16 0.7744321398867621 -0.6326569850323452
12649378666.666666 0.7665286541629993 -0.6422101076336834 -7.986364937027572e-17 1.2206332671269224e-16 -7.986364937027572e-17 1.2206332671269224e-16 0.7665291037598028 -0.6422095710038894
12649996000.0 0.75850778834605 -0.6516639740066883 -7.831800252196406e-17 1.230270087594679e-16 -7.831800252196406e-17 1.230270087594679e-16 0.7585082445390375 -0.6516634430180304
12650613333.333334 0.750370332391433 -0.6610176731877729 -7.67607479169421e-17 1.2397113298077748e-16 -7.67607479169421e-17 1.2397113298077748e-16 0.7503707951098424 -0.6610171479213144
12651230666.666666 0.742117537106661 -0.6702697674209617 -7.519213285486884e-17 1.2489555982414097e-16 -7.519213285486884e-17 1.2489555982414097e-16 0.7421180062787355 -0.6702692479568797
12651848000.0 0.7337506710278721 -0.6794188345681585 -7.361240630969684e-17 1.2580015286192205e-16 -7.361240630969684e-17 1.2580015286192205e-16 0.7337511465808684 -0.6794183209857291
12652465333.333334 0.7252710202251408 -0.688463468327399 -7.202181889025349e-17 1.2668477881134823e-16 -7.202181889025349e-17 1.2668477881134823e-16 0.7252715020853429 -0.688462960704987
12653082666.666666 0.7166798881046488 -0.6974022784491853 -7.04206228005549e-17 1.2754930755405166e-16 -7.04206228005549e-17 1.2754930755405166e-16 0.716680376197379 -0.6974017768642331
12653700000.0 0.7079785952082784 -0.7062338909502434 -6.88090717998138e-17 1.283936121551482e-16 -6.88090717998138e-17 1.283936121551482e-16 0.7079790894579072 -0.706233395479256
12654317333.333334 0.6991684790108467 -0.7149569483244894 -6.718742116235863e-17 1.2921756888173723e-16 -6.718742116235863e-17 1.2921756888173723e-16 0.6991689793408061 -0.7149564590430258
12654934666.666666 0.6902508937142877 -0.7235701097519392 -6.55559276372087e-17 1.3002105722096326e-16 -6.55559276372087e-17 1.3002105722096326e-16 0.6902514000470831 -0.7235696267345997
12655552000.0 0.6812272100395336 -0.732072051304761 -6.391484940747108e-17 1.3080395989754706e-16 -6.391484940747108e-17 1.3080395989754706e-16 0.6812277222967542 -0.7320715746251746
12656169333.333334 0.6720988150160457 -0.7404614661505586 -6.226444604960056e-17 1.3156616289077175e-16 -6.226444604960056e-17 1.3156616289077175e-16 0.672099333118379 -0.7404609958813745
12656786666.666666 0.6628671117683519 -0.7487370647535031 -6.060497849233222e-17 1.323075554510168e-16 -6.060497849233222e-17 1.323075554510168e-16 0.6628676356355941 -0.7487366009663773
12657404000.0 0.6535335193005135 -0.756897575072409 -5.893670897553467e-17 1.3302803011572022e-16 -5.893670897553467e-17 1.3302803011572022e-16 0.6535340488515833 -0.7568971178379952
12658021333.333334 0.6440994722778844 -0.7649417427563725 -5.725990100878873e-17 1.3372748272486215e-16 -5.725990100878873e-17 1.3372748272486215e-16 0.6441000074308341 -0.7649412921443097
12658638666.666666 0.6345664208068488 -0.7728683313373587 -5.557481932986794e-17 1.3440581243589153e-16 -5.557481932986794e-17 1.3440581243589153e-16 0.634566961478877 -0.7728678874162601
12659256000.0 0.6249358302115299 -0.7806761224205812 -5.388172986294816e-17 1.350629217381697e-16 -5.388172986294816e-17 1.350629217381697e-16 0.624936376318996 -0.7806756852580264
12659873333.333334 0.615209180808908 -0.7883639158714966 -5.218089967672154e-17 1.3569871646685915e-16 -5.218089967672154e-17 1.3569871646685915e-16 0.6152097322673444 -0.7883634855340202
12660490666.666666 0.6053879676812175 -0.7959305300003331 -5.0472596942348684e-17 1.3631310581628676e-16 -5.0472596942348684e-17 1.3631310581628676e-16 0.6053885244053426 -0.7959301065534141
12661108000.0 0.5954737004458466 -0.8033748017439544 -4.875709089117775e-17 1.3690600235280617e-16 -4.875709089117775e-17 1.3690600235280617e-16 0.5954742623495761 -0.803374385252004
12661725333.333334 0.5854679030237618 -0.810695586844264 -4.70346517724316e-17 1.3747732202708825e-16 -4.70346517724316e-17 1.3747732202708825e-16 0.5854684700202256 -0.8106951773706217
12662342666.666666 0.5753721134048433 -0.8178917600244242 -4.530555081063566e-17 1.380269841859198e-16 -4.530555081063566e-17 1.380269841859198e-16 0.5753726854063959 -0.8178913576313421
12662960000.0 0.5651878834117489 -0.8249622151616126 -4.3570060162996425e-17 1.385549115834394e-16 -4.3570060162996425e-17 1.385549115834394e-16 0.5651884603299838 -0.8249618199102486
12663577333.333334 0.5549167784612936 -0.8319058654571123 -4.1828452876604324e-17 1.3906103039185302e-16 -4.1828452876604324e-17 1.3906103039185302e-16 0.5549173602070584 -0.831905477407522
12664194666.666666 0.5445603773237605 -0.8387216436034137 -4.008100284556166e-17 1.3954527021159846e-16 -4.008100284556166e-17 1.3954527021159846e-16 0.5445609638071688 -0.8387212628145391
12664812000.0 0.53412027188039 -0.8454085019481556 -3.832798476791662e-17 1.4000756408099576e-16 -3.832798476791662e-17 1.4000756408099576e-16 0.5341208630108367 -0.845408128477818
12665429333.333334 0.5235980668784821 -0.8519654126553051 -3.6569674102559496e-17 1.404478484853358e-16 -3.6569674102559496e-17 1.404478484853358e-16 0.5235986625646553 -0.851965046560193
12666046666.666666 0.5129953796850139 -0.8583913678629552 -3.4806347026017766e-17 1.408660633654302e-16 -3.4806347026017766e-17 1.408660633654302e-16 0.5129959798349116 -0.8583910091986208
12666664000.0 0.5023138400377012 -0.8646853798384628 -3.3038280389076014e-17 1.4126215212563887e-16 -3.3038280389076014e-17 1.4126215212563887e-16 0.5023144445586435 -0.8646850286593082
12667281333.333334 0.49155508979475443 -0.8708464811301005 -3.1265751673427835e-17 1.4163606164132536e-16 -3.1265751673427835e-17 1.4163606164132536e-16 0.49155569859339965 -0.8708461374893744
12667898666.666666 0.4807207826824394 -0.8768737247158166 -2.9489038948126126e-17 1.4198774226579748e-16 -2.9489038948126126e-17 1.4198774226579748e-16 0.4807213956647967 -0.8768733886656027
12668516000.0 0.46981258404068327 -0.8827661841489077 -2.7708420826038788e-17 1.4231714783668318e-16 -2.7708420826038788e-17 1.4231714783668318e-16 0.4698132011121281 -0.8827658557401178
12669133333.333334 0.45883217056749187 -0.8885229537002016 -2.5924176420237173e-17 1.426242356817632e-16 -2.5924176420237173e-17 1.426242356817632e-16 0.4588327916327805 -0.8885226329825688
12669750666.666666 0.44778123006090437 -0.8941431484974602 -2.4136585300250624e-17 1.4290896662427116e-16 -2.4136585300250624e-17 1.4290896662427116e-16 0.4477818550241882 -0.8941428355195294
12670368000.0 0.43666146115958104 -0.8996259046613689 -2.2345927448339618e-17 1.4317130498763234e-16 -2.2345927448339618e-17 1.4317130498763234e-16 0.4366620899244224 -0.8996255994704926
