! Parameters = {f0=12700.012000; bw=77.238000; Q=6100.000000; N=10; m_0_1=1.249544; m_1_1=-0.021578; m_1_2=1.084356; m_2_2=-0.022227; m_2_3=0.721319; m_2_8=-0.000459; m_2_9=0.036245; m_3_3=-0.024164; m_3_4=0.609848; m_3_7=0.000141; m_3_8=-0.096947; m_3_9=-0.000459; m_4_4=-0.027089; m_4_5=0.446183; m_4_6=0.003658; m_4_7=-0.117496; m_4_8=0.000141; m_5_5=-0.026707; m_5_6=0.853538; m_5_7=0.003658; m_6_6=-0.026708; m_6_7=0.446525; m_7_7=-0.027075; m_7_8=0.609966; m_8_8=-0.024166; m_8_9=0.721632; m_9_9=-0.022232; m_9_10=1.085434; m_10_10=-0.021588; m_10_11=1.250339}
!
! Created with skrf (http://scikit-rf.org).
# Hz S RI R 50.0 
!freq ReS11 ImS11 ReS21 ImS21 ReS12 ImS12 ReS22 ImS22
12607400000.0 0.8485530904164993 0.5291102463045274 -9.671097836473553e-17 -2.6717932258836247e-17 -9.671097836473553e-17 -2.6717932258836247e-17 0.8485527420653739 0.5291108049673184
12608017333.333334 0.8537591051993377 0.5206682151707127 -9.695450449639346e-17 -2.574378919947296e-17 -9.695450449639346e-17 -2.574378919947296e-17 0.8537587624229854 0.5206687772334735
12608634666.666666 0.8588811352882786 0.5121749656569976 -9.718822557927094e-17 -2.4767449491259048e-17 -9.718822557927094e-17 -2.4767449491259048e-17 0.8588807981198714 0.5121755310641076
12609252000.0 0.86391867682683 0.5036313332484478 -9.741212205161955e-17 -2.378901175303199e-17 -9.741212205161955e-17 -2.378901175303199e-17 0.8639183452989841 0.503631901943963
12609869333.333334 0.8688712342697058 0.495038158386267 -9.762617534288106e-17 -2.280857477502425e-17 -9.762617534288106e-17 -2.280857477502425e-17 0.8688709084144806 0.4950387303139255
12610486666.666666 0.8737383204314506 0.4863962863853467 -9.783036787515202e-17 -2.1826237508933296e-17 -9.783036787515202e-17 -2.1826237508933296e-17 0.8737380002803438 0.48639686148857403
12611104000.0 0.8785194565346005 0.4777065673506909 -9.802468306456142e-17 -2.0842099057920885e-17 -9.802468306456142e-17 -2.0842099057920885e-17 0.8785191421185443 0.4777071455726052
12611721333.333334 0.8832141722565265 0.4689698560942351 -9.820910532253314e-17 -1.9856258666673633e-17 -9.820910532253314e-17 -1.9856258666673633e-17 0.8832138636058882 0.46897043737765426
12612338666.666666 0.8878220057758609 0.460187012050489 -9.838362005696315e-17 -1.88688157113837e-17 -9.838362005696315e-17 -1.88688157113837e-17 0.8878217029204364 0.46018759633793493
12612956000.0 0.8923425038179286 0.45135889919196254 -9.854821367328677e-17 -1.7879869689761777e-17 -9.854821367328677e-17 -1.7879869689761777e-17 0.8923422067869407 0.4513594864256671
12613573333.333334 0.8967752216991716 0.44248638594450745 -9.870287357544843e-17 -1.6889520211039504e-17 -9.870287357544843e-17 -1.6889520211039504e-17 0.8967749305212686 0.4424869760664191
12614190666.666666 0.9011197233711001 0.4335703451014855 -9.884758816677323e-17 -1.589786698593895e-17 -9.884758816677323e-17 -1.589786698593895e-17 0.901119438074351 0.4335709380532736
12614808000.0 0.9053755814630706 0.4246116537381381 -9.898234685073538e-17 -1.490500981666431e-17 -9.898234685073538e-17 -1.490500981666431e-17 0.9053753020749624 0.4246122494611993
12615425333.333334 0.9095423773243495 0.4156111931252571 -9.910714003162768e-17 -1.391104858687124e-17 -9.910714003162768e-17 -1.391104858687124e-17 0.9095421038717871 0.415611791560722
12616042666.666666 0.9136197010653117 0.40656984864246937 -9.922195911512836e-17 -1.2916083251648955e-17 -9.922195911512836e-17 -1.2916083251648955e-17 0.9136194335746116 0.4065704497312065
12616660000.0 0.9176071515977102 0.3974885096912429 -9.932679650877236e-17 -1.1920213827471025e-17 -9.932679650877236e-17 -1.1920213827471025e-17 0.9176068900946018 0.3974891133738665
12617277333.333334 0.9215043366742194 0.3883680696072177 -9.942164562231719e-17 -1.0923540382169122e-17 -9.942164562231719e-17 -1.0923540382169122e-17 0.9215040811838389 0.388368675824092
12617894666.666666 0.92531087292691 0.3792094255725584 -9.950650086800962e-17 -9.926163024908593e-18 -9.950650086800962e-17 -9.926163024908593e-18 0.9253106234738007 0.37921003426380456
12618512000.0 0.9290263859051 0.37001347852738675 -9.958135766075522e-17 -8.928181896121256e-18 -9.958135766075522e-17 -8.928181896121256e-18 0.9290261425132093 0.37001408963288857
12619129333.333334 0.932650510112047 0.3607811330814967 -9.964621241818194e-17 -7.929697157507025e-18 -9.964621241818194e-17 -7.929697157507025e-18 0.9326502728047223 0.3607817465409058
12619746666.666666 0.9361828890409646 0.3515132974252079 -9.970106256060757e-17 -6.930808981983458e-18 -9.970106256060757e-17 -6.930808981983458e-18 0.9361826578409544 0.35151391317795094
12620364000.0 0.9396231752101571 0.3422108832398703 -9.974590651090642e-17 -5.931617543638143e-18 -9.974590651090642e-17 -5.931617543638143e-18 0.9396229501396055 0.3422115012251537
12620981333.333334 0.9429710301970664 0.33287480560852406 -9.978074369427315e-17 -4.932223007738746e-18 -9.978074369427315e-17 -4.932223007738746e-18 0.9429708112775137 0.33287542576534124
12621598666.666666 0.9462261246716751 0.32350598292559174 -9.980557453788932e-17 -3.9327255206797866e-18 -9.980557453788932e-17 -3.9327255206797866e-18 0.9462259119240531 0.3235066051927279
12622216000.0 0.9493881384288605 0.31410533680664043 -9.982040047048811e-17 -2.9332251999806337e-18 -9.982040047048811e-17 -2.9332251999806337e-18 0.9493879318734927 0.3141059611226794
12622833333.333334 0.9524567604198764 0.3046737919977762 -9.982522392181945e-17 -1.9338221242675972e-18 -9.982522392181945e-17 -1.9338221242675972e-18 0.9524565600764751 0.3046744183011065
12623450666.666666 0.9554316887829712 0.29521227628462393 -9.982004832201532e-17 -9.346163232950542e-19 -9.982004832201532e-17 -9.346163232950542e-19 0.9554314946706358 0.29521290451344434
12624068000.0 0.9583126308730906 0.2857217204010323 -9.980487810085519e-17 6.429223207855791e-20 -9.980487810085519e-17 6.429223207855791e-20 0.9583124430103055 0.28572235049335826
12624685333.333334 0.9610993032906847 0.2762030579374345 -9.977971868693114e-17 1.0628036398651942e-18 -9.977971868693114e-17 1.0628036398651942e-18 0.9610991216953183 0.2762036898311045
12625302666.666666 0.9637914319094798 0.2666572252493942 -9.974457650671472e-17 2.060818076893864e-18 -9.974457650671472e-17 2.060818076893864e-18 0.9637912565987805 0.26665785888207494
12625920000.0 0.9663887519036032 0.2570851613649198 -9.969945898352162e-17 3.0582358088163805e-18 -9.969945898352162e-17 3.0582358088163805e-18 0.9663885828942027 0.25708579667411413
12626537333.333334 0.9688910077735021 0.24748780789258676 -9.964437453638116e-17 4.05495720000396e-18 -9.964437453638116e-17 4.05495720000396e-18 0.9688908450814089 0.24748844481563795
12627154666.666666 0.9712979533711278 0.23786610892871798 -9.957933257880277e-17 5.0508827235150815e-18 -9.957933257880277e-17 5.0508827235150815e-18 0.971297797011727 0.23786674740281682
12627772000.0 0.9736093519241962 0.22822101096431976 -9.950434351744402e-17 6.0459129710201794e-18 -9.950434351744402e-17 6.0459129710201794e-18 0.9736092019122496 0.22822165092651084
12628389333.333334 0.9758249760593599 0.21855346279247231 -9.941941875068338e-17 7.039948662668233e-18 -9.941941875068338e-17 7.039948662668233e-18 0.9758248324090015 0.21855410417965943
12629006666.666666 0.9779446078247097 0.20886441541441494 -9.932457066708807e-17 8.032890657015738e-18 -9.932457066708807e-17 8.032890657015738e-18 0.9779444705494489 0.20886505816336853
12629624000.0 0.9799680387111219 0.199154821946412 -9.921981264378951e-17 9.024639960867365e-18 -9.921981264378951e-17 9.024639960867365e-18 0.9799679078238387 0.1991554659937746
12630241333.333334 0.9818950696728108 0.18942563752579958 -9.910515904475705e-17 1.0015097739131778e-17 -9.910515904475705e-17 1.0015097739131778e-17 0.9818949451857557 0.1894262828080921
12630858666.666666 0.9837255111468813 0.17967781921716763 -9.898062521897512e-17 1.1004165324652213e-17 -9.898062521897512e-17 1.1004165324652213e-17 0.9837253930716733 0.17967846567079557
12631476000.0 0.985459183072013 0.16991232591801755 -9.884622749851882e-17 1.1991744228035958e-17 -9.884622749851882e-17 1.1991744228035958e-17 0.9854590714196403 0.1699129734792777
12632093333.333334 0.9870959149061376 0.16013011826463075 -9.87019831965394e-17 1.2977736147408924e-17 -9.87019831965394e-17 1.2977736147408924e-17 0.9870958096869554 0.16013076686971706
12632710666.666666 0.9886355456432269 0.15033215853751478 -9.854791060514526e-17 1.3962042978200925e-17 -9.854791060514526e-17 1.3962042978200925e-17 0.9886354468669559 0.15033280812252467
12633328000.0 0.9900779238291557 0.14051941056657458 -9.83840289931879e-17 1.4944566822890594e-17 -9.83840289931879e-17 1.4944566822890594e-17 0.9900778315048828 0.14052006106751547
12633945333.333334 0.9914229075765658 0.13069283963652453 -9.821035860395297e-17 1.5925210000714545e-17 -9.821035860395297e-17 1.5925210000714545e-17 0.9914228217127415 0.13069349098931987
12634562666.666666 0.992670364578827 0.12085341239190524 -9.802692065275248e-17 1.69038750573622e-17 -9.802692065275248e-17 1.69038750573622e-17 0.9926702851832664 0.12085406453240112
12635180000.0 0.9938201721230765 0.1110020967418537 -9.78337373244217e-17 1.7880464774641467e-17 -9.78337373244217e-17 1.7880464774641467e-17 0.9938200992029572 0.11100274960582485
12635797333.333334 0.9948722171022731 0.10113986176497354 -9.763083177071899e-17 1.8854882180119713e-17 -9.763083177071899e-17 1.8854882180119713e-17 0.9948721506641348 0.10114051528812984
12636414666.666666 0.9958263960263185 0.09126767761406297 -9.741822810763256e-17 1.9827030556725307e-17 -9.741822810763256e-17 1.9827030556725307e-17 0.9958263360760633 0.0912683317320558
12637032000.0 0.996682615032247 0.08138651542062422 -9.719595141258852e-17 2.079681345233369e-17 -9.719595141258852e-17 2.079681345233369e-17 0.996682561575139 0.0813871700690528
12637649333.333334 0.9974407898934631 0.0714973471992761 -9.696402772156432e-17 2.1764134689323276e-17 -9.696402772156432e-17 2.1764134689323276e-17 0.9974407429341259 0.07149800231369359
12638266666.666666 0.9981008460280165 0.06160114575222115 -9.672248402610967e-17 2.2728898374086137e-17 -9.672248402610967e-17 2.2728898374086137e-17 0.9981008055704342 0.06160180126814128
12638884000.0 0.998662718505944 0.051698884573522556 -9.647134827027122e-17 2.369100890651783e-17 -9.647134827027122e-17 2.369100890651783e-17 0.9986626845534609 0.05169954042642581
12639501333.333334 0.9991263520556578 0.04179153775328416 -9.621064934742178e-17 2.465037098947659e-17 -9.621064934742178e-17 2.465037098947659e-17 0.9991263246109777 0.04179219387862418
12640118666.666666 0.9994917010693689 0.03188007988211268 -9.594041709700513e-17 2.560688963817606e-17 -9.594041709700513e-17 2.560688963817606e-17 0.9994916801345564 0.03188073621532269
12640736000.0 0.999758729607603 0.021965485954622166 -9.566068230116328e-17 2.6560470189630084e-17 -9.566068230116328e-17 2.6560470189630084e-17 0.9997587151840812 0.021966142431121195
12641353333.333334 0.9999274114027024 0.01204873127431845 -9.53714766813083e-17 2.7511018311925575e-17 -9.53714766813083e-17 2.7511018311925575e-17 0.9999274034912549 0.012049387829517763
12641970666.666666 0.9999977298614348 0.0021307913570331807 -9.507283289456363e-17 2.845844001359457e-17 -9.507283289456363e-17 2.845844001359457e-17 0.9999977284622034 0.0021314479263425915
12642588000.0 0.9999696780666122 -0.007787358164782496 -9.476478453013764e-17 2.9402641652861705e-17 -9.476478453013764e-17 2.9402641652861705e-17 0.9999696831790986 -0.007786701645948248
12643205333.333334 0.9998432587777765 -0.017704741637946057 -9.444736610559707e-17 3.0343529946882836e-17 -9.444736610559707e-17 3.0343529946882836e-17 0.9998432704008424 -0.01770408523416097
12643822666.666666 0.9996184844309266 -0.027620383484803283 -9.412061306304474e-17 3.1281011980954857e-17 -9.412061306304474e-17 3.1281011980954857e-17 0.9996185025627924 -0.027619727260623724
12644440000.0 0.9992953771372945 -0.037533308298940506 -9.37845617652193e-17 3.2214995217647566e-17 -9.37845617652193e-17 3.2214995217647566e-17 0.9992954017755404 -0.037532652318898845
12645057333.333334 0.9988739686811702 -0.047442540941221016 -9.343924949149035e-17 3.314538750593728e-17 -9.343924949149035e-17 3.314538750593728e-17 0.9988739998227384 -0.04744188526981937
12645674666.666666 0.9983543005167838 -0.05734710663559655 -9.30847144337722e-17 3.4072097090268366e-17 -9.30847144337722e-17 3.4072097090268366e-17 0.9983543381579755 -0.05734645133730032
12646292000.0 0.9977364237642057 -0.06724603106536539 -9.272099569233739e-17 3.499503261960381e-17 -9.272099569233739e-17 3.499503261960381e-17 0.9977364679006837 -0.067245376204597
12646909333.333334 0.9970203992043443 -0.0771383404685338 -9.234813327156029e-17 3.5914103156378836e-17 -9.234813327156029e-17 3.5914103156378836e-17 0.9970204498311341 -0.07713768610966644
12647526666.666666 0.9962062972729521 -0.087023061733918 -9.196616807555419e-17 3.682921818545727e-17 -9.196616807555419e-17 3.682921818545727e-17 0.9962063543844386 -0.087022407941269
12648144000.0 0.9952941980536906 -0.09689922249684041 -9.157514190372034e-17 3.774028762303904e-17 -9.157514190372034e-17 3.774028762303904e-17 0.9952942616436234 -0.0968985693346653
12648761333.333334 0.9942841912702631 -0.106765851234697 -9.117509744622339e-17 3.8647221825487464e-17 -9.117509744622339e-17 3.8647221825487464e-17 0.9942842613317551 -0.106765198767183
12649378666.666666 0.9931763762776034 -0.11662197736241366 -9.07660782793699e-17 3.9549931598132486e-17 -9.07660782793699e-17 3.9549931598132486e-17 0.9931764528031314 -0.11662132565367338
12649996000.0 0.991970862052066 -0.1264666313282337 -9.034812886089376e-17 4.0448328204038127e-17 -9.034812886089376e-17 4.0448328204038127e-17 0.9919709450334716 -0.12646598044229884
12650613333.333334 0.9906677671807291 -0.13629884470889542 -8.99212945251706e-17 4.134232337268755e-17 -8.99212945251706e-17 4.134232337268755e-17 0.9906678566092189 -0.13629819470971044
12651230666.666666 0.9892672198497349 -0.14611765030483992 -8.948562147833588e-17 4.223182930864114e-17 -8.948562147833588e-17 4.223182930864114e-17 0.9892673157158837 -0.14611700125625599
12651848000.0 0.9877693578316595 -0.1559220822355243 -8.904115679331228e-17 4.3116758700153503e-17 -8.904115679331228e-17 4.3116758700153503e-17 0.9877694601254092 -0.15592143420129276
12652465333.333334 0.9861743284719711 -0.16571117603435107 -8.858794840476982e-17 4.399702472770348e-17 -8.858794840476982e-17 4.399702472770348e-17 0.9861744371826322 -0.1657105290781172
12653082666.666666 0.9844822886745526 -0.17548396874343095 -8.81260451039919e-17 4.487254107249184e-17 -8.81260451039919e-17 4.487254107249184e-17 0.9844824037908051 -0.17548332292872787
12653700000.0 0.9826934048862174 -0.18523949900861808 -8.765549653364312e-17 4.574322192491283e-17 -8.765549653364312e-17 4.574322192491283e-17 0.9826935263961133 -0.18523885439886043
12654317333.333334 0.9808078530803958 -0.19497680717371446 -8.717635318249193e-17 4.660898199289935e-17 -8.717635318249193e-17 4.660898199289935e-17 0.9808079809713587 -0.19497616383219213
12654934666.666666 0.9788258187397992 -0.20469493537504027 -8.668866638000606e-17 4.7469736510297575e-17 -8.668866638000606e-17 4.7469736510297575e-17 0.9788259529986265 -0.2046942933649122
12655552000.0 0.9767474968381391 -0.21439292763582635 -8.619248829089182e-17 4.832540124513586e-17 -8.619248829089182e-17 4.832540124513586e-17 0.9767476374510029 -0.21439228702011442
12656169333.333334 0.9745730918210165 -0.22406982995989133 -8.568787190955819e-17 4.917589250782742e-17 -8.568787190955819e-17 4.917589250782742e-17 0.9745732387734659 -0.22406919080147428
12656786666.666666 0.9723028175857542 -0.2337246904257941 -8.517487105447516e-17 5.0021127159359715e-17 -8.517487105447516e-17 5.0021127159359715e-17 0.9723029708627157 -0.233724052787401
12657404000.0 0.9699368974603727 -0.24335655928036237 -8.465354036247092e-17 5.0861022619391075e-17 -8.465354036247092e-17 5.0861022619391075e-17 0.9699370570461513 -0.2433559232245664
12658021333.333334 0.9674755641816369 -0.25296448903206514 -8.41239352829469e-17 5.169549687429335e-17 -8.41239352829469e-17 5.169549687429335e-17 0.9674757300599203 -0.2529638546212782
12658638666.666666 0.9649190598721572 -0.2625475345442465 -8.358611207200956e-17 5.252446848514204e-17 -8.358611207200956e-17 5.252446848514204e-17 0.9649192320260148 -0.26254690184071233
12659256000.0 0.9622676360165278 -0.27210475312826377 -8.304012778651628e-17 5.334785659565761e-17 -8.304012778651628e-17 5.334785659565761e-17 0.9622678144284128 -0.27210412219405217
12659873333.333334 0.9595215534366343 -0.2816352046360268 -8.248604027806342e-17 5.416558094005164e-17 -8.248604027806342e-17 5.416558094005164e-17 0.9595217380883884 -0.2816345755330278
12660490666.666666 0.9566810822660381 -0.29113795155237393 -8.192390818688711e-17 5.4977561850830957e-17 -8.192390818688711e-17 5.4977561850830957e-17 0.9566812731388873 -0.2911373243422905
12661108000.0 0.9537465019232652 -0.3006120590877299 -8.135379093566825e-17 5.578372026656321e-17 -8.135379093566825e-17 5.578372026656321e-17 0.9537466989978288 -0.30061143383207384
12661725333.333334 0.9507181010844752 -0.31005659526957363 -8.077574872330874e-17 5.658397773951228e-17 -8.077574872330874e-17 5.658397773951228e-17 0.9507183043407624 -0.31005597202965773
12662342666.666666 0.9475961776549581 -0.31947063103444095 -8.018984251857618e-17 5.737825644328995e-17 -8.018984251857618e-17 5.737825644328995e-17 0.9475963870723729 -0.31947000987137414
12662960000.0 0.9443810387398646 -0.32885324031920915 -7.959613405371566e-17 5.816647918038227e-17 -7.959613405371566e-17 5.816647918038227e-17 0.9443812542972078 -0.32885262129389053
12663577333.333334 0.9410730006140271 -0.3382035001521153 -7.899468581797008e-17 5.894856938963577e-17 -7.899468581797008e-17 5.894856938963577e-17 0.9410732222894951 -0.33820288332522663
12664194666.666666 0.9376723886907853 -0.34752049074370694 -7.83855610510287e-17 5.97244511536743e-17 -7.83855610510287e-17 5.97244511536743e-17 0.9376726164619773 -0.34751987617570895
12664812000.0 0.9341795374900197 -0.35680329557721885 -7.776882373641177e-17 6.049404920623782e-17 -7.776882373641177e-17 6.049404920623782e-17 0.9341797713339356 -0.3568026833283433
12665429333.333334 0.9305947906052183 -0.3660510014987812 -7.714453859476426e-17 6.125728893947722e-17 -7.714453859476426e-17 6.125728893947722e-17 0.9305950304982649 -0.3660503916290266
12666046666.666666 0.9269185006697243 -0.37526269880714325 -7.651277107710644e-17 6.201409641114542e-17 -7.651277107710644e-17 6.201409641114542e-17 0.9269187465877146 -0.375262091376268
12666664000.0 0.9231510293219715 -0.3844374813433458 -7.587358735797677e-17 6.276439835176472e-17 -7.587358735797677e-17 6.276439835176472e-17 0.9231512812401281 -0.38443687641086244
12667281333.333334 0.919292747169994 -0.3935744465796483 -7.522705432854952e-17 6.350812217166979e-17 -7.522705432854952e-17 6.350812217166979e-17 0.9192930050629519 -0.3935738442048178
12667898666.666666 0.9153440337549071 -0.40267269570847036 -7.457323958964992e-17 6.424519596802141e-17 -7.457323958964992e-17 6.424519596802141e-17 0.9153442975967161 -0.40267209595029646
12668516000.0 0.9113052775135574 -0.4117313337308326 -7.391221144470002e-17 6.497554853174771e-17 -7.391221144470002e-17 6.497554853174771e-17 0.9113055472776844 -0.41173073664805576
12669133333.333334 0.9071768757404005 -0.4207494695441885 -7.324403889263244e-17 6.569910935437396e-17 -7.324403889263244e-17 6.569910935437396e-17 0.9071771513997342 -0.420748875195281
12669750666.666666 0.9029592345483598 -0.4297262160302429 -7.256879162069276e-17 6.64158086348294e-17 -7.256879162069276e-17 6.64158086348294e-17 0.9029595160752089 -0.42972562447340135
12670368000.0 0.8986527688288414 -0.43866069014226466 -7.188653999720355e-17 6.712557728614956e-17 -7.188653999720355e-17 6.712557728614956e-17 0.8986530561949418 -0.43866010143540596
