! Parameters = {f0=12700.012000; bw=77.238000; Q=6100.000000; N=10; m_0_1=1.300796; m_1_1=0.747191; m_1_2=1.135608; m_2_2=0.746542; m_2_3=0.772571; m_2_8=0.002103; m_2_9=0.038807; m_3_3=0.744605; m_3_4=0.661100; m_3_7=0.002703; m_3_8=-0.094385; m_3_9=0.002103; m_4_4=0.741680; m_4_5=0.497435; m_4_6=0.006220; m_4_7=-0.114934; m_4_8=0.002703; m_5_5=0.742062; m_5_6=0.904790; m_5_7=0.006220; m_6_6=0.742061; m_6_7=0.497777; m_7_7=0.741694; m_7_8=0.661218; m_8_8=0.744603; m_8_9=0.772884; m_9_9=0.746537; m_9_10=1.136686; m_10_10=0.747181; m_10_11=1.301591}
!
! Created with skrf (http://scikit-rf.org).
# Hz S RI R 50.0 
!freq ReS11 ImS11 ReS21 ImS21 ReS12 ImS12 ReS22 ImS22
12607400000.0 0.5312602971461688 0.8472086500242896 -9.571020029163757e-17 -8.440260340964431e-17 -9.571020029163757e-17 -8.440260340964431e-17 0.5312597165716701 0.8472090140856642
12608017333.333334 0.5409117974843287 0.8410793228596738 -9.665738520110228e-17 -8.327793835895038e-17 -9.665738520110228e-17 -8.327793835895038e-17 0.5409112211383452 0.8410796935168738
12608634666.666666 0.5504925897704332 0.8348400497147086 -9.759136710197632e-17 -8.214265783700375e-17 -9.759136710197632e-17 -8.214265783700375e-17 0.5504920177278874 0.8348404269186381
12609252000.0 0.560001421602309 0.8284916461879431 -9.851202718817063e-17 -8.099691669735631e-17 -9.851202718817063e-17 -8.099691669735631e-17 0.5600008539375535 0.828492029888656
12609869333.333334 0.5694370499844869 0.8220349421434464 -9.941924846819074e-17 -7.984087112126272e-17 -9.941924846819074e-17 -7.984087112126272e-17 0.5694364867712943 0.8220353322901512
12610486666.666666 0.5787982414905454 0.8154707816024236 -1.0031291577994975e-16 -7.867467859643861e-17 -1.0031291577994975e-16 -7.867467859643861e-17 0.5787976828020999 0.8154711781434916
12611104000.0 0.5880837724246933 0.8088000226326386 -1.0119291580535572e-16 -7.749849789562118e-17 -1.0119291580535572e-16 -7.749849789562118e-17 0.5880832183335802 0.808800425515611
12611721333.333334 0.5972924289812669 0.8020235372365785 -1.0205913708459664e-16 -7.631248905503713e-17 -1.0205913708459664e-16 -7.631248905503713e-17 0.5972918795594636 0.8020239464081721
12612338666.666666 0.6064230074037247 0.7951422112372332 -1.0291147003022376e-16 -7.511681335264536e-17 -1.0291147003022376e-16 -7.511681335264536e-17 0.606422462722591 0.795142626643348
12612956000.0 0.6154743141419763 0.7881569441623152 -1.0374980694096843e-16 -7.391163328623648e-17 -1.0374980694096843e-16 -7.391163328623648e-17 0.6154737742722455 0.7881573657480418
12613573333.333334 0.6244451660081994 0.7810686491268273 -1.0457404201526466e-16 -7.269711255143634e-17 -1.0457404201526466e-16 -7.269711255143634e-17 0.624444631019969 0.781069076836454
12614190666.666666 0.6333343903317347 0.7738782527135297 -1.0538407136457495e-16 -7.147341601947296e-17 -1.0538407136457495e-16 -7.147341601947296e-17 0.6333338602944566 0.7738786864905488
12614808000.0 0.6421408251122389 0.7665866948519185 -1.0617979302641484e-16 -7.024070971485565e-17 -1.0617979302641484e-16 -7.024070971485565e-17 0.6421403000947126 0.7665871346390364
12615425333.333334 0.650863319171696 0.7591949286952714 -1.0696110697712968e-16 -6.899916079289184e-17 -1.0696110697712968e-16 -6.899916079289184e-17 0.650862799242057 0.7591953744344135
12616042666.666666 0.6595007323047647 0.7517039204961578 -1.077279151444169e-16 -6.774893751705067e-17 -1.077279151444169e-16 -6.774893751705067e-17 0.659500217530477 0.7517043721284774
12616660000.0 0.6680519354279159 0.7441146494800591 -1.0848012141956509e-16 -6.649020923621894e-17 -1.0848012141956509e-16 -6.649020923621894e-17 0.6680514258757628 0.7441151069459451
12617277333.333334 0.676515810727023 0.7364281077173619 -1.0921763166944824e-16 -6.522314636178772e-17 -1.0921763166944824e-16 -6.522314636178772e-17 0.6765153064630998 0.7364285709564465
12617894666.666666 0.6848912518033813 0.7286452999937711 -1.0994035374823388e-16 -6.394792034464198e-17 -1.0994035374823388e-16 -6.394792034464198e-17 0.684890752893084 0.7286457689449377
12618512000.0 0.6931771638185644 0.7207672436787536 -1.1064819750885281e-16 -6.266470365196729e-17 -1.1064819750885281e-16 -6.266470365196729e-17 0.6931766703265838 0.7207677182801447
12619129333.333334 0.7013724636372284 0.7127949685928341 -1.1134107481415268e-16 -6.137366974401274e-17 -1.1134107481415268e-16 -6.137366974401274e-17 0.7013719756275414 0.7127954487818611
12619746666.666666 0.7094760799689945 0.7047295168727112 -1.1201889954783286e-16 -6.007499305064001e-17 -1.1201889954783286e-16 -6.007499305064001e-17 0.7094755975048535 0.7047300025860592
12620364000.0 0.7174869535083546 0.696571942835136 -1.1268158762506926e-16 -5.876884894781519e-17 -1.1268158762506926e-16 -5.876884894781519e-17 0.7174864766522819 0.6965724340087754
12620981333.333334 0.7254040370730521 0.6883233128392016 -1.133290570028713e-16 -5.745541373398292e-17 -1.133290570028713e-16 -5.745541373398292e-17 0.7254035658868313 0.6883238094083953
12621598666.666666 0.7332262957411472 0.6799847051467622 -1.1396122769018407e-16 -5.613486460628107e-17 -1.1396122769018407e-16 -5.613486460628107e-17 0.7332258302858146 0.6799852070460749
12622216000.0 0.7409527069862037 0.6715572097815885 -1.1457802175769125e-16 -5.480737963669441e-17 -1.1457802175769125e-16 -5.480737963669441e-17 0.7409522473220388 0.6715577169448921
12622833333.333334 0.7485822608109872 0.66304192838683 -1.1517936334735876e-16 -5.347313774806227e-17 -1.1517936334735876e-16 -5.347313774806227e-17 0.7485818069975088 0.6630424407473176
12623450666.666666 0.7561139598794233 0.6544399740811014 -1.1576517868167625e-16 -5.213231869003536e-17 -1.1576517868167625e-16 -5.213231869003536e-17 0.756113511975379 0.6544404915712919
12624068000.0 0.7635468196470425 0.6457524713128875 -1.1633539607264706e-16 -5.078510301486977e-17 -1.1633539607264706e-16 -5.078510301486977e-17 0.7635463777104016 0.645752993864636
12624685333.333334 0.7708798684897705 0.6369805557134454 -1.1688994593048338e-16 -4.943167205315326e-17 -1.1688994593048338e-16 -4.943167205315326e-17 0.7708794325777159 0.6369810832579521
12625302666.666666 0.7781121478306448 0.6281253739487017 -1.174287607720056e-16 -4.8072207889474885e-17 -1.174287607720056e-16 -4.8072207889474885e-17 0.7781117179995677 0.6281259064165217
12625920000.0 0.7852427122654684 0.6191880835689483 -1.179517752287991e-16 -4.6706893337903695e-17 -1.179517752287991e-16 -4.6706893337903695e-17 0.7852422885709583 0.6191886208899986
12626537333.333334 0.7922706296861197 0.6101698528578533 -1.1845892605503594e-16 -4.533591191750729e-17 -1.1845892605503594e-16 -4.533591191750729e-17 0.7922702121829608 0.6101703949614251
12627154666.666666 0.7991949814025112 0.6010718606796153 -1.1895015213504517e-16 -4.3959447827706494e-17 -1.1895015213504517e-16 -4.3959447827706494e-17 0.7991945701446705 0.6010724074943801
12627772000.0 0.8060148622627777 0.5918952963247224 -1.1942539449060835e-16 -4.257768592351495e-17 -1.1942539449060835e-16 -4.257768592351495e-17 0.806014457303402 0.5918958477787436
12628389333.333334 0.8127293807713436 0.5826413593548294 -1.1988459628792047e-16 -4.1190811690833475e-17 -1.1988459628792047e-16 -4.1190811690833475e-17 0.812728982162751 0.5826419153755709
12629006666.666666 0.8193376592057814 0.5733112594455178 -1.2032770284431636e-16 -3.979901122152465e-17 -1.2032770284431636e-16 -3.979901122152465e-17 0.8193372669994545 0.5733118199598534
12629624000.0 0.8258388337312601 0.5639062162285551 -1.2075466163467704e-16 -3.8402471188508654e-17 -1.2075466163467704e-16 -3.8402471188508654e-17 0.8258384479778405 0.5639067811627791
12630241333.333334 0.832232054513636 0.5544274591322372 -1.2116542229755568e-16 -3.7001378820764116e-17 -1.2116542229755568e-16 -3.7001378820764116e-17 0.8322316752629145 0.5544280284120718
12630858666.666666 0.8385164858304083 0.5448762272208596 -1.2155993664101363e-16 -3.55959218782724e-17 -1.2155993664101363e-16 -3.55959218782724e-17 0.8385161131313242 0.5448768007714688
12631476000.0 0.8446913061802241 0.5352537690323745 -1.2193815864817682e-16 -3.4186288626859217e-17 -1.2193815864817682e-16 -3.4186288626859217e-17 0.8446909400808534 0.5352543467783691
12632093333.333334 0.8507557083898997 0.5255613424157222 -1.2230004448247947e-16 -3.277266781305892e-17 -1.2230004448247947e-16 -3.277266781305892e-17 0.8507553489374517 0.5255619242811732
12632710666.666666 0.8567088997201727 0.5158002143660531 -1.2264555249263447e-16 -3.1355248638862427e-17 -1.2264555249263447e-16 -3.1355248638862427e-17 0.8567085469609836 0.5158008002745003
12633328000.0 0.8625501019693848 0.5059716608590051 -1.2297464321731332e-16 -2.993422073640025e-17 -1.2297464321731332e-16 -2.993422073640025e-17 0.8625497559489104 0.5059722507334667
12633945333.333334 0.8682785515749964 0.4960769666842461 -1.2328727938951445e-16 -2.8509774142662465e-17 -1.2328727938951445e-16 -2.8509774142662465e-17 0.8682782123378082 0.49607756044723017
12634562666.666666 0.8738934997135372 0.48611742527730945 -1.235834259406582e-16 -2.7082099274090717e-17 -1.235834259406582e-16 -2.7082099274090717e-17 0.8738931673033158 0.4861180228508233
12635180000.0 0.8793942123984638 0.47609433855056543 -1.2386305000438e-16 -2.5651386901168576e-17 -1.2386305000438e-16 -2.5651386901168576e-17 0.8793938868579922 0.4760949398561254
12635797333.333334 0.8847799705761156 0.46600901672300754 -1.2412612092003178e-16 -2.4217828122964032e-17 -1.2412612092003178e-16 -2.4217828122964032e-17 0.8847796519472749 0.46600962168164994
12636414666.666666 0.8900500702196447 0.4558627781491071 -1.243726102358851e-16 -2.278161434165966e-17 -1.243726102358851e-16 -2.278161434165966e-17 0.890049758543409 0.4558633866813987
12637032000.0 0.8952038224211805 0.445656949146227 -1.2460249171205076e-16 -2.13429372369996e-17 -1.2460249171205076e-16 -2.13429372369996e-17 0.8952035177376119 0.44565756117227573
12637649333.333334 0.9002405534817518 0.43539286382149733 -1.2481574132308925e-16 -1.990198874078012e-17 -1.2481574132308925e-16 -1.990198874078012e-17 0.9002402558299923 0.43539347926096106
12638266666.666666 0.9051596049994153 0.42507186389729285 -1.25012337260338e-16 -1.8458961011264027e-17 -1.25012337260338e-16 -1.8458961011264027e-17 0.9051593144176854 0.42507248266939185
12638884000.0 0.9099603339553111 0.4146952985358697 -1.2519225993393793e-16 -1.7014046407595957e-17 -1.2519225993393793e-16 -1.7014046407595957e-17 0.9099600504809042 0.41469592055939686
12639501333.333334 0.9146421127977314 0.4042645241629769 -1.253554919745667e-16 -1.556743746419399e-17 -1.253554919745667e-16 -1.556743746419399e-17 0.9146418364670063 0.40426514935630714
12640118666.666666 0.9192043295240698 0.39378090429072493 -1.2550201823487395e-16 -1.411932686515666e-17 -1.2550201823487395e-16 -1.411932686515666e-17 0.9192040603724494 0.3937815325718276
12640736000.0 0.9236463877610539 0.3832458093388279 -1.2563182579063027e-16 -1.266990741856357e-17 -1.2563182579063027e-16 -1.266990741856357e-17 0.9236461258230185 0.38324644062527624
12641353333.333334 0.9279677068423604 0.372660616456243 -1.2574490394156348e-16 -1.121937203094821e-17 -1.2574490394156348e-16 -1.121937203094821e-17 0.9279674521514454 0.3726612506652261
12641970666.666666 0.9321677218848047 0.36202670934049835 -1.2584124421191828e-16 -9.76791368157125e-18 -1.2584124421191828e-16 -9.76791368157125e-18 0.9321674744735933 0.3620273463888307
12642588000.0 0.936245883862056 0.3513454780571019 -1.2592084035070858e-16 -8.31572539682279e-18 -1.2592084035070858e-16 -8.31572539682279e-18 0.936245643762178 0.3513461178612356
12643205333.333334 0.940201659676421 0.34061831885780725 -1.2598368833167855e-16 -6.863000224589143e-18 -1.2598368833167855e-16 -6.863000224589143e-18 0.9402014269185466 0.34061896133384184
12643822666.666666 0.9440345322285597 0.32984663399801545 -1.2602978635296924e-16 -5.409931208598021e-18 -1.2602978635296924e-16 -5.409931208598021e-18 0.944034306842396 0.32984727906170946
12644440000.0 0.9477440004850661 0.3190318315534966 -1.2605913483648684e-16 -3.956711362842388e-18 -1.2605913483648684e-16 -3.956711362842388e-18 0.9477437824993553 0.319032479120279
12645057333.333334 0.951329579543922 0.3081753252364631 -1.2607173642697986e-16 -2.5035336459609554e-18 -1.2607173642697986e-16 -2.5035336459609554e-18 0.9513293689864347 0.3081759752214434
12645674666.666666 0.9547908006979209 0.29727853421066047 -1.2606759599082003e-16 -1.0505909356574849e-18 -1.2606759599082003e-16 -1.0505909356574849e-18 0.9547905975954547 0.29727918652864066
12646292000.0 0.9581272114959859 0.2863428829056913 -1.260467206144885e-16 4.019239968878426e-19 -1.260467206144885e-16 4.019239968878426e-19 0.9581270158743614 0.28634353747117675
12646909333.333334 0.9613383758022036 0.2753698008311661 -1.2600911960276935e-16 1.853818512507677e-18 -1.2600911960276935e-16 1.853818512507677e-18 0.961338187686262 0.27537045755837686
12647526666.666666 0.9644238738529247 0.26436072238956737 -1.259548044766481e-16 3.3049001296096083e-18 -1.259548044766481e-16 3.3049001296096083e-18 0.9644236932665213 0.264361381192449
12648144000.0 0.9673833023116101 0.2533170866887964 -1.2588378897091766e-16 4.7549765496321465e-18 -1.2588378897091766e-16 4.7549765496321465e-18 0.9673831292776157 0.2533177474810318
12648761333.333334 0.9702162743215604 0.24224033735405426 -1.2579608903149178e-16 6.203855682491571e-18 -1.2579608903149178e-16 6.203855682491571e-18 0.9702161088618558 0.24224100004907465
12649378666.666666 0.9729224195564398 0.23113192233929525 -1.2569172281242616e-16 7.65134567198761e-18 -1.2569172281242616e-16 7.65134567198761e-18 0.9729222616919139 0.23113258685029167
12649996000.0 0.9755013842687528 0.21999329373770357 -1.2557071067264661e-16 9.097254921186045e-18 -1.2557071067264661e-16 9.097254921186045e-18 0.9755012340192981 0.2199939599776378
12650613333.333334 0.9779528313360514 0.20882590759198386 -1.2543307517238616e-16 1.0541392117749792e-17 -1.2543307517238616e-16 1.0541392117749792e-17 0.9779526887205664 0.20882657547360078
12651230666.666666 0.9802764403049884 0.19763122370414024 -1.2527884106933623e-16 1.1983566259161806e-17 -1.2527884106933623e-16 1.1983566259161806e-17 0.9802763053413686 0.19763189313997825
12651848000.0 0.98247190743326 0.186410705444372 -1.251080353144962e-16 1.3423586678035942e-17 -1.251080353144962e-16 1.3423586678035942e-17 0.9824717801384004 0.18641137634677488
12652465333.333334 0.9845389457292574 0.17516581956003108 -1.2492068704774744e-16 1.486126306721679e-17 -1.2492068704774744e-16 1.486126306721679e-17 0.98453882611905 0.1751664918411598
12653082666.666666 0.9864772849895889 0.16389803598391942 -1.247168275931316e-16 1.6296405504907462e-17 -1.247168275931316e-16 1.6296405504907462e-17 0.9864771730789172 0.16389870955576286
12653700000.0 0.9882866718344576 0.15260882764174488 -1.2449649045383483e-16 1.7728824479768086e-17 -1.2449649045383483e-16 1.7728824479768086e-17 0.9882865676371994 0.15260950241613214
12654317333.333334 0.9899668697406955 0.141299670260142 -1.2425971130690184e-16 1.9158330915833357e-17 -1.2425971130690184e-16 1.9158330915833357e-17 0.9899667732697185 0.14130034614875353
12654934666.666666 0.9915176590727466 0.1299720421733722 -1.2400652799764585e-16 2.058473619748278e-17 -1.2400652799764585e-16 2.058473619748278e-17 0.9915175703399073 0.12997271908775135
12655552000.0 0.9929388371113663 0.11862742413010277 -1.2373698053378046e-16 2.2007852194287018e-17 -1.2373698053378046e-16 2.2007852194287018e-17 0.9929387561275081 0.11862810198166748
12656169333.333334 0.9942302180800915 0.1072672991000975 -1.2345111107927284e-16 2.3427491285752157e-17 -1.2345111107927284e-16 2.3427491285752157e-17 0.9942301448550445 0.10726797780015188
12656786666.666666 0.9953916331695574 0.09589315208010887 -1.231489639479016e-16 2.4843466386049952e-17 -1.231489639479016e-16 2.4843466386049952e-17 0.9953915677121352 0.09589383153985459
12657404000.0 0.9964229305595554 0.08450646989978677 -1.2283058559653769e-16 2.6255590968632164e-17 -1.2283058559653769e-16 2.6255590968632164e-17 0.9964228728775582 0.0845071500303352
12658021333.333334 0.9973239754388741 0.07310874102743371 -1.224960246181467e-16 2.7663679090750803e-17 -1.224960246181467e-16 2.7663679090750803e-17 0.9973239255390826 0.07310942173981695
12658638666.666666 0.9980946500229149 0.06170145537546005 -1.2214533173450819e-16 2.9067545417901876e-17 -1.2214533173450819e-16 2.9067545417901876e-17 0.9980946079110938 0.06170213658064296
12659256000.0 0.9987348535691146 0.050286104105367775 -1.2177855978864685e-16 3.046700524821349e-17 -1.2177855978864685e-16 3.046700524821349e-17 0.9987348192500071 0.05028678571425933
12659873333.333334 0.9992445023900852 0.03886417943308032 -1.2139576373700035e-16 3.186187453667806e-17 -1.2139576373700035e-16 3.186187453667806e-17 0.9992444758674188 0.03886486135654557
12660490666.666666 0.9996235298645683 0.027437174433909122 -1.2099700064130382e-16 3.325196991931597e-17 -1.2099700064130382e-16 3.325196991931597e-17 0.9996235111410489 0.027437856582780605
12661108000.0 0.9998718864461487 0.01600658284695215 -1.2058232966018276e-16 3.463710873729056e-17 -1.2058232966018276e-16 3.463710873729056e-17 0.9998718755234638 0.01600726513204168
12661725333.333334 0.9999895396697142 0.004573898880542542 -1.201518120405041e-16 3.601710906080363e-17 -1.201518120405041e-16 3.601710906080363e-17 0.9999895365485307 0.004574581212652799
12662342666.666666 0.9999764741557169 -0.006859382983784774 -1.1970551110842037e-16 3.7391789713005026e-17 -1.1970551110842037e-16 3.7391789713005026e-17 0.9999764788356817 -0.006858700693848547
12662960000.0 0.9998326916121711 -0.018291768186197245 -1.192434922601604e-16 3.8760970293720794e-17 -1.192434922601604e-16 3.8760970293720794e-17 0.9998327040919127 -0.018291086027615606
12663577333.333334 0.9995582108344391 -0.02972176228410425 -1.1876582295254467e-16 4.012447120308985e-17 -1.1876582295254467e-16 4.012447120308985e-17 0.9995582311115649 -0.02972108034603186
12664194666.666666 0.9991530677027655 -0.04114787114748223 -1.1827257269322537e-16 4.148211366509847e-17 -1.1827257269322537e-16 4.148211366509847e-17 0.9991530957738661 -0.041147189519036294
12664812000.0 0.9986173151775969 -0.05256860115415937 -1.177638130306702e-16 4.2833719750962837e-17 -1.177638130306702e-16 4.2833719750962837e-17 0.9986173510382427 -0.0525679199244079
12665429333.333334 0.9979510232926433 -0.0639824593852321 -1.1723961754386585e-16 4.4179112402426913e-17 -1.1723961754386585e-16 4.4179112402426913e-17 0.9979510669373882 -0.06398177864318234
12666046666.666666 0.997154279145752 -0.0753879538197657 -1.167000618317702e-16 4.551811545489888e-17 -1.167000618317702e-16 4.551811545489888e-17 0.9971543305681324 -0.07538727365435248
12666664000.0 0.9962271868874801 -0.08678359353054076 -1.1614522350247822e-16 4.685055366051666e-17 -1.1614522350247822e-16 4.685055366051666e-17 0.9962272460800152 -0.08678291403061475
12667281333.333334 0.9951698677075215 -0.098167888878238 -1.1557518216216038e-16 4.817625271099666e-17 -1.1557518216216038e-16 4.817625271099666e-17 0.9951699346617177 -0.0981672101325544
12667898666.666666 0.9939824598188424 -0.10953935170658993 -1.149900194037007e-16 4.949503926044458e-17 -1.149900194037007e-16 4.949503926044458e-17 0.9939825345251906 -0.10953867380379655
12668516000.0 0.9926651184396064 -0.12089649553688352 -1.1438981879510246e-16 5.0806740947963594e-17 -1.1438981879510246e-16 5.0806740947963594e-17 0.992665200887586 -0.12089581856550938
12669133333.333334 0.9912180157729148 -0.1322378357620188 -1.1377466586763697e-16 5.2111186420127105e-17 -1.1377466586763697e-16 5.2111186420127105e-17 0.9912181059509951 -0.13223715981046272
12669750666.666666 0.9896413409842704 -0.1435618898408315 -1.1314464810371486e-16 5.340820535335404e-17 -1.1314464810371486e-16 5.340820535335404e-17 0.989641438879911 -0.14356121499735028
12670368000.0 0.9879353001768445 -0.15486717749189027 -1.1249985492452224e-16 5.469762847609664e-17 -1.1249985492452224e-16 5.469762847609664e-17 0.9879354057764963 -0.15486650384458714
