! Parameters = {f0=12700.012000; bw=77.238000; Q=6100.000000; N=10; m_0_1=1.168864; m_1_1=-1.231788; m_1_2=1.003676; m_2_2=-1.232437; m_2_3=0.640639; m_2_8=-0.004493; m_2_9=0.032211; m_3_3=-1.234374; m_3_4=0.529168; m_3_7=-0.003893; m_3_8=-0.100981; m_3_9=-0.004493; m_4_4=-1.237299; m_4_5=0.365503; m_4_6=-0.000376; m_4_7=-0.121530; m_4_8=-0.003893; m_5_5=-1.236917; m_5_6=0.772858; m_5_7=-0.000376; m_6_6=-1.236918; m_6_7=0.365845; m_7_7=-1.237285; m_7_8=0.529286; m_8_8=-1.234376; m_8_9=0.640952; m_9_9=-1.232442; m_9_10=1.004754; m_10_10=-1.231798; m_10_11=1.169659}
!
! Created with skrf (http://scikit-rf.org).
# Hz S RI R 50.0 
!freq ReS11 ImS11 ReS21 ImS21 ReS12 ImS12 ReS22 ImS22
12607400000.0 0.5687958686167679 -0.822478729113615 -2.0858673952479446e-17 6.357439060829432e-17 -2.0858673952479446e-17 6.357439060829432e-17 0.5687963752622223 -0.8224783787361263
12608017333.333334 0.5625839764266746 -0.8267401462780203 -2.036953168088216e-17 6.371903902061489e-17 -2.036953168088216e-17 6.371903902061489e-17 0.5625844856722152 -0.826739799744018
12608634666.666666 0.5563401591274844 -0.8309546481859628 -1.9879397366191407e-17 6.385992814032841e-17 -1.9879397366191407e-17 6.385992814032841e-17 0.5563406709439599 -0.8309543055147344
12609252000.0 0.5500647710389015 -0.8351219956759439 -1.938829986872355e-17 6.399705125596914e-17 -1.938829986872355e-17 6.399705125596914e-17 0.5500652853970177 -0.8351216568865565
12609869333.333334 0.5437581682720924 -0.8392419522624153 -1.889626809342456e-17 6.41304018773927e-17 -1.889626809342456e-17 6.41304018773927e-17 0.5437586851424129 -0.8392416173737123
12610486666.666666 0.5374207087097356 -0.8433142841490213 -1.840333098817834e-17 6.42599737360653e-17 -1.840333098817834e-17 6.42599737360653e-17 0.5374212280626851 -0.8433139531796244
12611104000.0 0.5310527519853587 -0.847338760242105 -1.7909517542083765e-17 6.438576078534797e-17 -1.7909517542083765e-17 6.438576078534797e-17 0.5310532737912236 -0.8473384332104108
12611721333.333334 0.5246546594633115 -0.8513151521635728 -1.741485678379232e-17 6.450775720075046e-17 -1.741485678379232e-17 6.450775720075046e-17 0.5246551836922421 -0.8513148290877534
12612338666.666666 0.5182267942179234 -0.8552432342640691 -1.691937777978183e-17 6.462595738018942e-17 -1.691937777978183e-17 6.462595738018942e-17 0.5182273208399348 -0.855242915162069
12612956000.0 0.5117695210130433 -0.859122783635687 -1.6423109632657914e-17 6.474035594422536e-17 -1.6423109632657914e-17 6.474035594422536e-17 0.5117700499980188 -0.8591224685252252
12613573333.333334 0.5052832062814634 -0.862953580124548 -1.592608147945966e-17 6.485094773628567e-17 -1.592608147945966e-17 6.485094773628567e-17 0.5052837375991547 -0.8629532690231145
12614190666.666666 0.4987682181039308 -0.8667354063434128 -1.5428322489949085e-17 6.495772782287766e-17 -1.5428322489949085e-17 6.495772782287766e-17 0.49876875172395974 -0.8667350992682676
12614808000.0 0.49222492618828206 -0.8704680476839987 -1.4929861864899567e-17 6.506069149378934e-17 -1.4929861864899567e-17 6.506069149378934e-17 0.4922254620801435 -0.8704677446521728
12615425333.333334 0.485653701848587 -0.8741512923290885 -1.44307288343995e-17 6.515983426227246e-17 -1.44307288343995e-17 6.515983426227246e-17 0.48565423998164964 -0.8741509933573819
12616042666.666666 0.4790549179840048 -0.8777849312645948 -1.393095265613671e-17 6.52551518652174e-17 -1.393095265613671e-17 6.52551518652174e-17 0.4790554583275132 -0.8777846363695749
12616660000.0 0.4724289490575478 -0.8813687582914618 -1.343056261369282e-17 6.53466402633122e-17 -1.343056261369282e-17 6.53466402633122e-17 0.47242949158062375 -0.881368467489463
12617277333.333334 0.4657761710749538 -0.8849025700372922 -1.2929588014823933e-17 6.543429564119142e-17 -1.2929588014823933e-17 6.543429564119142e-17 0.46577671574659973 -0.8849022833444168
12617894666.666666 0.45909696156337976 -0.8883861659678874 -1.2428058189770234e-17 6.551811440756565e-17 -1.2428058189770234e-17 6.551811440756565e-17 0.4590975083524773 -0.8883858833999995
12618512000.0 0.45239169954974623 -0.8918193483987341 -1.1926002489518484e-17 6.559809319534752e-17 -1.1926002489518484e-17 6.559809319534752e-17 0.4523922484250612 -0.8918190699714649
12619129333.333334 0.4456607655394831 -0.8952019225060969 -1.1423450284110536e-17 6.567422886175542e-17 -1.1423450284110536e-17 6.567422886175542e-17 0.4456613164696657 -0.8952016482348407
12619746666.666666 0.4389045414948363 -0.8985336963381271 -1.092043096092349e-17 6.574651848840981e-17 -1.092043096092349e-17 6.574651848840981e-17 0.4389050944484233 -0.8985334262380403
12620364000.0 0.43212341081311534 -0.9018144808257903 -1.0416973922951223e-17 6.581495938141511e-17 -1.0416973922951223e-17 6.581495938141511e-17 0.43212396575853135 -0.9018142149117913
12620981333.333334 0.4253177583050893 -0.9050440897935216 -9.913108587102719e-18 6.587954907142703e-17 -9.913108587102719e-18 6.587954907142703e-17 0.4253183152106494 -0.9050438280802898
12621598666.666666 0.4184879701730484 -0.9082223399698406 -9.408864382481415e-18 6.594028531370886e-17 -9.408864382481415e-18 6.594028531370886e-17 0.4184885290069595 -0.9082220824718159
12622216000.0 0.41163443398891314 -0.9113490509977386 -8.904270748673866e-18 6.59971660881736e-17 -8.904270748673866e-18 6.59971660881736e-17 0.4116349947192758 -0.9113487977291203
12622833333.333334 0.40475753867224074 -0.9144240454449132 -8.39935713403672e-18 6.605018959941353e-17 -8.39935713403672e-18 6.605018959941353e-17 0.40475810126705114 -0.9144237964196593
12623450666.666666 0.3978576744681554 -0.917447148813839 -7.894152993983691e-18 6.609935427671631e-17 -7.894152993983691e-18 6.609935427671631e-17 0.3978582388953071 -0.9174469040456652
12624068000.0 0.3909352329252287 -0.9204181895516562 -7.388687789274815e-18 6.614465877406811e-17 -7.388687789274815e-18 6.614465877406811e-17 0.39093579915251403 -0.9204179490540348
12624685333.333334 0.38399060687312936 -0.9233369990599618 -6.882990984296553e-18 6.618610197014451e-17 -6.882990984296553e-18 6.618610197014451e-17 0.38399117486824236 -0.9233367628461234
12625302666.666666 0.3770241904006463 -0.9262034117042476 -6.37709204536314e-18 6.622368296828664e-17 -6.37709204536314e-18 6.622368296828664e-17 0.37702476013118297 -0.9262031797871751
12625920000.0 0.3700363788328252 -0.9290172648235017 -5.871020438988279e-18 6.625740109646637e-17 -5.871020438988279e-18 6.625740109646637e-17 0.3700369502662871 -0.9290170372159362
12626537333.333334 0.3630275687090617 -0.9317783987392265 -5.364805630195276e-18 6.628725590723627e-17 -5.364805630195276e-18 6.628725590723627e-17 0.36302814181285653 -0.9317781754536618
12627154666.666666 0.3559981577603632 -0.9344866567645994 -4.85847708079015e-18 6.63132471776688e-17 -4.85847708079015e-18 6.63132471776688e-17 0.3559987325018068 -0.9344864378132823
12627772000.0 0.34894854488653715 -0.9371418852134502 -4.352064247652584e-18 6.633537490928131e-17 -4.352064247652584e-18 6.633537490928131e-17 0.3489491212328561 -0.9371416706083815
12628389333.333334 0.3418791301340877 -0.9397439334087827 -3.845596581048607e-18 6.635363932794698e-17 -3.845596581048607e-18 6.635363932794698e-17 0.34187970805242074 -0.9397437231617155
12629006666.666666 0.3347903146730083 -0.9422926536915164 -3.3391035228896008e-18 6.636804088379583e-17 -3.3391035228896008e-18 6.636804088379583e-17 0.33479089413040775 -0.9422924478139542
12629624000.0 0.3276825007743621 -0.9447879014287338 -2.832614505058488e-18 6.637858025109921e-17 -2.832614505058488e-18 6.637858025109921e-17 0.3276830817377967 -0.9447876999319323
12630241333.333334 0.3205560917871882 -0.9472295350219894 -2.326158947688123e-18 6.638525832814375e-17 -2.326158947688123e-18 6.638525832814375e-17 0.3205566742235442 -0.9472293379169544
12630858666.666666 0.31341149211593333 -0.9496174159152281 -1.819766257463676e-18 6.638807623709164e-17 -1.819766257463676e-18 6.638807623709164e-17 0.3134120759920165 -0.9496172232127139
12631476000.0 0.30624910719712706 -0.9519514086027783 -1.3134658259113472e-18 6.63870353238277e-17 -1.3134658259113472e-18 6.63870353238277e-17 0.306249692479665 -0.9519512203132897
12632093333.333334 0.29906934347664355 -0.9542313806369503 -8.072870277169616e-19 6.63821371577937e-17 -8.072870277169616e-19 6.63821371577937e-17 0.2990699301322872 -0.9542311967707408
12632710666.666666 0.29187260838663787 -0.9564572026355554 -3.0125921901033027e-19 6.637338353181038e-17 -3.0125921901033027e-19 6.637338353181038e-17 0.2918731963819633 -0.9564570232026252
12633328000.0 0.28465931032218 -0.9586287482893213 2.045882643297721e-19 6.636077646188515e-17 2.045882643297721e-19 6.636077646188515e-17 0.2846598996236912 -0.95862857329942
12633945333.333334 0.27742985861838015 -0.9607458943689718 7.102261083612368e-19 6.634431818700856e-17 7.102261083612368e-19 6.634431818700856e-17 0.27743044919250937 -0.9607457238315937
12634562666.666666 0.270184663526913 -0.9628085207322891 1.2156250227774211e-18 6.632401116893682e-17 1.2156250227774211e-18 6.632401116893682e-17 0.27018525534002436 -0.9628083546566768
12635180000.0 0.26292413619292954 -0.964816510330878 1.7207557426038986e-18 6.629985809196163e-17 1.7207557426038986e-18 6.629985809196163e-17 0.2629247292113194 -0.9648163487260182
12635797333.333334 0.25564868863158774 -0.966769749216845 2.225589029878001e-18 6.627186186266766e-17 2.225589029878001e-18 6.627186186266766e-17 0.255649282821488 -0.9667695920914715
12636414666.666666 0.24835873370483755 -0.9686681265492221 2.7300956753336863e-18 6.624002560967704e-17 2.7300956753336863e-18 6.624002560967704e-17 0.24835932903241686 -0.9686679739118139
12637032000.0 0.24105468509771757 -0.9705115346003318 3.234246500102897e-18 6.620435268338022e-17 3.234246500102897e-18 6.620435268338022e-17 0.24105528152908293 -0.9705113864591107
12637649333.333334 0.2337369572951529 -0.9722998687618215 3.738012357378732e-18 6.616484665565571e-17 3.738012357378732e-18 6.616484665565571e-17 0.23373755479635233 -0.9722997251247546
12638266666.666666 0.22640596555832573 -0.9740330275506339 4.24136413410244e-18 6.612151131957552e-17 4.24136413410244e-18 6.612151131957552e-17 0.2264065640953498 -0.9740328884254318
12638884000.0 0.2190621259010268 -0.9757109126147842 4.744272752645936e-18 6.607435068909852e-17 4.744272752645936e-18 6.607435068909852e-17 0.21906272543981048 -0.9757107780089002
12639501333.333334 0.2117058550661857 -0.9773334287389062 5.246709172476535e-18 6.602336899875141e-17 5.246709172476535e-18 6.602336899875141e-17 0.21170645557261086 -0.9773332986595378
12640118666.666666 0.20433757050227888 -0.9789004838496494 5.748644391824578e-18 6.596857070329735e-17 5.748644391824578e-18 6.596857070329735e-17 0.20433817194217532 -0.9789003583037349
12640736000.0 0.19695769033925004 -0.9804119890209829 6.250049449378081e-18 6.590996047738865e-17 6.250049449378081e-18 6.590996047738865e-17 0.19695829267839826 -0.9804118680152039
12641353333.333334 0.1895666333653392 -0.9818678584791244 6.750895425910735e-18 6.584754321521322e-17 6.750895425910735e-18 6.584754321521322e-17 0.18956723656947197 -0.981867742019904
12641970666.666666 0.18216481900290057 -0.9832680096074986 7.251153445972329e-18 6.578132403012191e-17 7.251153445972329e-18 6.578132403012191e-17 0.18216542303770475 -0.9832678977010005
12642588000.0 0.17475266728479563 -0.9846123629513801 7.750794679534791e-18 6.571130825424707e-17 7.750794679534791e-18 6.571130825424707e-17 0.17475327211591452 -0.9846122556035102
12643205333.333334 0.16733059883044665 -0.9859008422224291 8.249790343655597e-18 6.563750143810727e-17 8.249790343655597e-18 6.563750143810727e-17 0.16733120442348154 -0.985900739438833
12643822666.666666 0.15989903482202272 -0.9871333743030055 8.748111704126428e-18 6.555990935019954e-17 8.748111704126428e-18 6.555990935019954e-17 0.159899641142535 -0.9871332760890694
12644440000.0 0.1524583969805669 -0.9883098892503136 9.245730077118542e-18 6.547853797658017e-17 9.245730077118542e-18 6.547853797658017e-17 0.15245900399408038 -0.9883097956111655
12645057333.333334 0.1450091075420936 -0.9894303203003718 9.74261683083566e-18 6.539339352043126e-17 9.74261683083566e-18 6.539339352043126e-17 0.1450097152140959 -0.9894302312408779
12645674666.666666 0.13755158923351518 -0.9904946038718161 1.023874338714461e-17 6.530448240161749e-17 1.023874338714461e-17 6.530448240161749e-17 0.13755219752945982 -0.9904945193965825
12646292000.0 0.1300862652486245 -0.9915026795695088 1.0734081223231889e-17 6.521181125622559e-17 1.0734081223231889e-17 6.521181125622559e-17 0.1300868741339332 -0.9915025996828818
12646909333.333334 0.12261355922433392 -0.992454490187935 1.1228601873219345e-17 6.511538693609793e-17 1.1228601873219345e-17 6.511538693609793e-17 0.12261416866439806 -0.9924544148939984
12647526666.666666 0.11513389521640942 -0.9933499817144761 1.1722276929801806e-17 6.501521650834917e-17 1.1722276929801806e-17 6.501521650834917e-17 0.11513450517659266 -0.9933499110170556
12648144000.0 0.10764769767532202 -0.9941891033324871 1.2215078045878818e-17 6.491130725487078e-17 1.2215078045878818e-17 6.491130725487078e-17 0.10764830812096163 -0.9941890372351452
12648761333.333334 0.10015539142244333 -0.994971807424144 1.2706976936165675e-17 6.480366667182672e-17 1.2706976936165675e-17 6.480366667182672e-17 0.1001560023188526 -0.9949717459301833
12649378666.666666 0.09265740162585397 -0.9956980495731605 1.3197945378818665e-17 6.469230246913318e-17 1.3197945378818665e-17 6.469230246913318e-17 0.09265801293832372 -0.9956979926856198
12649996000.0 0.08515415377598964 -0.9963677885673271 1.3687955217046701e-17 6.457722256992763e-17 1.3687955217046701e-17 6.457722256992763e-17 0.08515476546979066 -0.9963677362889849
12650613333.333334 0.0776460736617506 -0.9969809864008266 1.4176978360720518e-17 6.445843511002581e-17 1.4176978360720518e-17 6.445843511002581e-17 0.0776466857021354 -0.9969809387341994
12651230666.666666 0.07013358734633933 -0.9975376082763922 1.4664986787975527e-17 6.433594843736702e-17 1.4664986787975527e-17 6.433594843736702e-17 0.07013419969854415 -0.9975375652237346
12651848000.0 0.06261712114285606 -0.9980376226073001 1.5151952546819037e-17 6.420977111144445e-17 1.5151952546819037e-17 6.420977111144445e-17 0.06261773377210282 -0.9980375841706053
12652465333.333334 0.05509710159024807 -0.9984810010191509 1.56378477567148e-17 6.407991190272867e-17 1.56378477567148e-17 6.407991190272867e-17 0.055097714461746376 -0.9984809672001483
12653082666.666666 0.04757395542927513 -0.9988677183514661 1.6122644610179085e-17 6.39463797920749e-17 1.6122644610179085e-17 6.39463797920749e-17 0.04757456850822427 -0.9988676891516252
12653700000.0 0.04004810957792439 -0.9991977526591446 1.6606315374373604e-17 6.380918397011727e-17 1.6606315374373604e-17 6.380918397011727e-17 0.040048722829515236 -0.9991977280796708
12654317333.333334 0.032519991107495934 -0.9994710852136846 1.7088832392666403e-17 6.366833383665887e-17 1.7088832392666403e-17 6.366833383665887e-17 0.03252060449691298 -0.9994710652555217
12654934666.666666 0.02499002721825416 -0.9996877005042535 1.7570168086231183e-17 6.352383900003821e-17 1.7570168086231183e-17 6.352383900003821e-17 0.024990640710677487 -0.9996876851680835
12655552000.0 0.01745864521507182 -0.999847586238576 1.805029495560702e-17 6.337570927649275e-17 1.805029495560702e-17 6.337570927649275e-17 0.01745925877567904 -0.9998475755248175
12656169333.333334 0.009926272483493955 -0.999950733343616 1.8529185582252957e-17 6.322395468951106e-17 1.8529185582252957e-17 6.322395468951106e-17 0.009926886077462223 -0.9999507272524265
12656786666.666666 0.0023933364650872927 -0.9999971359661067 1.9006812630131596e-17 6.306858546916355e-17 1.9006812630131596e-17 6.306858546916355e-17 0.002393950057595266 -0.999997134497381
12657404000.0 -0.00513973536650341 -0.9999867914728744 1.9483148847243893e-17 6.290961205143343e-17 1.9483148847243893e-17 6.290961205143343e-17 -0.005139121810273598 -0.9999867946262446
12658021333.333334 -0.012672515529955394 -0.9999197004509884 1.99581670671874e-17 6.274704507752782e-17 1.99581670671874e-17 6.274704507752782e-17 -0.01267190204481615 -0.9999197082258245
12658638666.666666 -0.020204576560469454 -0.999795866707731 2.0431840210696448e-17 6.258089539318168e-17 2.0431840210696448e-17 6.258089539318168e-17 -0.020203963181225765 -0.9997958791031414
12659256000.0 -0.027735491034141118 -0.9996152972703783 2.090414128718705e-17 6.241117404794516e-17 2.090414128718705e-17 6.241117404794516e-17 -0.02773487779558854 -0.9996153142852081
12659873333.333334 -0.035264831592073595 -0.999378002385801 2.1375043396280373e-17 6.223789229446614e-17 2.1375043396280373e-17 6.223789229446614e-17 -0.03526421852899633 -0.9993780240186344
12660490666.666666 -0.042792170964600994 -0.9990839955198904 2.184451972932567e-17 6.206106158775893e-17 2.184451972932567e-17 6.206106158775893e-17 -0.042791558111769906 -0.9990840217690498
12661108000.0 -0.05031708199579023 -0.9987332933567803 2.2312543570945357e-17 6.188069358445155e-17 2.2312543570945357e-17 6.188069358445155e-17 -0.05031646938796084 -0.9987333242203258
12661725333.333334 -0.057839137667397 -0.9983259157979137 2.2779088300514345e-17 6.169680014204302e-17 2.2779088300514345e-17 6.169680014204302e-17 -0.057838525339307535 -0.9983259512736437
12662342666.666666 -0.0653579111232399 -0.9978618859609065 2.3244127393693048e-17 6.15093933181277e-17 2.3244127393693048e-17 6.15093933181277e-17 -0.06535729910960937 -0.9978619260463587
12662960000.0 -0.07287297569336663 -0.9973412301782401 2.3707634423926018e-17 6.131848536961858e-17 2.3707634423926018e-17 6.131848536961858e-17 -0.07287236402889273 -0.9973412748706895
12663577333.333334 -0.08038390491837967 -0.9967639779957569 2.4169583063929243e-17 6.112408875196127e-17 2.4169583063929243e-17 6.112408875196127e-17 -0.08038329363773691 -0.9967640272922178
12664194666.666666 -0.08789027257346649 -0.9961301621709954 2.462994708718664e-17 6.09262161183307e-17 2.462994708718664e-17 6.09262161183307e-17 -0.08788966171130436 -0.9961302160682226
12664812000.0 -0.09539165269270047 -0.9954398186713281 2.5088700369429914e-17 6.07248803188212e-17 2.5088700369429914e-17 6.07248803188212e-17 -0.09539104228364126 -0.9954398771658148
12665429333.333334 -0.10288761959318454 -0.9946929866719176 2.5545816890123698e-17 6.05200943996198e-17 2.5545816890123698e-17 6.05200943996198e-17 -0.10288700967182136 -0.9946930497598956
12666046666.666666 -0.11037774789917935 -0.9938897085534977 2.6001270733916798e-17 6.031187160218051e-17 2.6001270733916798e-17 6.031187160218051e-17 -0.11037713850007438 -0.9938897762309395
12666664000.0 -0.11786161256638365 -0.993030029899954 2.645503609212957e-17 6.010022536236913e-17 2.645503609212957e-17 6.010022536236913e-17 -0.11786100372406597 -0.9930301021625714
12667281333.333334 -0.12533878890574332 -0.99211399949577 2.690708726419177e-17 5.988516930961576e-17 2.690708726419177e-17 5.988516930961576e-17 -0.1253381806547072 -0.992114076339016
12667898666.666666 -0.13280885260791908 -0.9911416693232205 2.7357398659099203e-17 5.96667172660452e-17 2.7357398659099203e-17 5.96667172660452e-17 -0.13280824498262161 -0.9911417507422876
12668516000.0 -0.14027137976719423 -0.9901130945594343 2.7805944796861506e-17 5.944488324559654e-17 2.7805944796861506e-17 5.944488324559654e-17 -0.14027077280205402 -0.9901131805492572
12669133333.333334 -0.1477259469053909 -0.9890283335732897 2.825270030992815e-17 5.921968145314036e-17 2.825270030992815e-17 5.921968145314036e-17 -0.14772534063478543 -0.9890284241285425
12669750666.666666 -0.15517213099612517 -0.9878874479220663 2.86976399446237e-17 5.899112628357572e-17 2.86976399446237e-17 5.899112628357572e-17 -0.15517152545438936 -0.9878875430371664
12670368000.0 -0.1626095094888137 -0.9866905023479551 2.914073856256791e-17 5.875923232092179e-17 2.914073856256791e-17 5.875923232092179e-17 -0.16260890471023762 -0.9866906020170602
