! Parameters = {f0=12700.012000; bw=77.238000; Q=6100.000000; N=10; m_0_1=1.225320; m_1_1=-0.384941; m_1_2=1.060132; m_2_2=-0.385590; m_2_3=0.697095; m_2_8=-0.001670; m_2_9=0.035034; m_3_3=-0.387527; m_3_4=0.585624; m_3_7=-0.001070; m_3_8=-0.098158; m_3_9=-0.001670; m_4_4=-0.390452; m_4_5=0.421959; m_4_6=0.002447; m_4_7=-0.118707; m_4_8=-0.001070; m_5_5=-0.390070; m_5_6=0.829314; m_5_7=0.002447; m_6_6=-0.390071; m_6_7=0.422301; m_7_7=-0.390438; m_7_8=0.585742; m_8_8=-0.387529; m_8_9=0.697408; m_9_9=-0.385595; m_9_10=1.061210; m_10_10=-0.384951; m_10_11=1.226115}
!
! Created with skrf (http://scikit-rf.org).
# Hz S RI R 50.0 
!freq ReS11 ImS11 ReS21 ImS21 ReS12 ImS12 ReS22 ImS22
12607400000.0 -0.8699652145798821 0.4931130959737482 6.188455833165916e-17 -6.418886525798653e-17 6.188455833165916e-17 -6.418886525798653e-17 -0.8699655329584742 0.4931125342800703
12608017333.333334 -0.8653907700256468 0.5010976104056513 6.12735280764572e-17 -6.474835920790541e-17 6.12735280764572e-17 -6.474835920790541e-17 -0.8653910935436042 0.5010970516928243
12608634666.666666 -0.8607430459011515 0.5090396928851857 6.065744739580804e-17 -6.530204430517579e-17 6.065744739580804e-17 -6.530204430517579e-17 -0.860743374530577 0.5090391372002261
12609252000.0 -0.8560224357664996 0.5169386708926166 6.003637144227411e-17 -6.584987503602594e-17 6.003637144227411e-17 -6.584987503602594e-17 -0.8560227694790665 0.5169381182822798
12609869333.333334 -0.8512293393536222 0.5247938755582352 5.941035577786364e-17 -6.639180640969555e-17 5.941035577786364e-17 -6.639180640969555e-17 -0.8512296781205763 0.5247933260690119
12610486666.666666 -0.846364162532502 0.5326046417188754 5.877945636908646e-17 -6.692779396210379e-17 5.877945636908646e-17 -6.692779396210379e-17 -0.8463645063246639 0.5326040953969877
12611104000.0 -0.841427317276645 0.5403703079745079 5.814372958194612e-17 -6.745779375949752e-17 5.814372958194612e-17 -6.745779375949752e-17 -0.8414276660644116 0.5403697648659043
12611721333.333334 -0.836419221628399 0.5480902167439028 5.750323217694754e-17 -6.798176240201072e-17 5.750323217694754e-17 -6.798176240201072e-17 -0.8364195753817493 0.5480896768942564
12612338666.666666 -0.8313402996634122 0.555763714320559 5.685802130402635e-17 -6.849965702721604e-17 5.685802130402635e-17 -6.849965702721604e-17 -0.8313406583519052 0.5557631777752614
12612956000.0 -0.8261909814547123 0.5633901509280531 5.620815449746562e-17 -6.90114353136118e-17 5.620815449746562e-17 -6.90114353136118e-17 -0.8261913450474939 0.5633896177322124
12613573333.333334 -0.8209717030364381 0.5709688807748509 5.555368967079997e-17 -6.951705548404765e-17 5.555368967079997e-17 -6.951705548404765e-17 -0.8209720715022416 0.570968350973287
12614190666.666666 -0.815682906366755 0.5784992621092266 5.489468511165046e-17 -7.001647630913086e-17 5.489468511165046e-17 -7.001647630913086e-17 -0.8156832796739031 0.5784987357464674
12614808000.0 -0.8103250392905104 0.5859806572734875 5.423119947655973e-17 -7.050965711056137e-17 5.423119947655973e-17 -7.050965711056137e-17 -0.8103254174069205 0.5859801343937657
12615425333.333334 -0.8048985555012972 0.5934124327579944 5.356329178578504e-17 -7.099655776442679e-17 5.356329178578504e-17 -7.099655776442679e-17 -0.8048989383944817 0.5934119134052431
12616042666.666666 -0.7994039145030334 0.600793959254803 5.289102141806397e-17 -7.147713870444693e-17 5.289102141806397e-17 -7.147713870444693e-17 -0.7994043021401047 0.6007934434726534
12616660000.0 -0.7938415815710551 0.6081246117109563 5.2214448105351554e-17 -7.195136092516927e-17 5.2214448105351554e-17 -7.195136092516927e-17 -0.7938419739187251 0.6081240995427315
12617277333.333334 -0.7882120277126968 0.6154037693814314 5.153363192752642e-17 -7.241918598511551e-17 5.153363192752642e-17 -7.241918598511551e-17 -0.7882124247372835 0.6154032608701453
12617894666.666666 -0.7825157296275158 0.6226308158815715 5.084863330708213e-17 -7.28805760098706e-17 5.084863330708213e-17 -7.28805760098706e-17 -0.7825161312949436 0.6226303110699238
12618512000.0 -0.7767531696666617 0.6298051392396145 5.0159513003759e-17 -7.333549369514206e-17 5.0159513003759e-17 -7.333549369514206e-17 -0.7767535759424656 0.6298046381699873
12619129333.333334 -0.7709248357923821 0.6369261319480658 4.946633210919154e-17 -7.37839023097414e-17 4.946633210919154e-17 -7.37839023097414e-17 -0.7709252466417101 0.6369256346625205
12619746666.666666 -0.7650312215364593 0.643993191015455 4.87691520414993e-17 -7.422576569853411e-17 4.87691520414993e-17 -7.422576569853411e-17 -0.765031636924076 0.6439926975557289
12620364000.0 -0.759072825958433 0.651005718017372 4.806803453985213e-17 -7.46610482853389e-17 4.806803453985213e-17 -7.46610482853389e-17 -0.7590732458487217 0.6510052284248733
12620981333.333334 -0.753050153603505 0.6579631191469428 4.736304165903932e-17 -7.508971507575691e-17 4.736304165903932e-17 -7.508971507575691e-17 -0.753050577960471 0.6579626334627489
12621598666.666666 -0.7469637144596319 0.6648648052653299 4.665423576397127e-17 -7.551173165997656e-17 4.665423576397127e-17 -7.551173165997656e-17 -0.7469641432469076 0.664864323530184
12622216000.0 -0.7408140239144355 0.6717101919515129 4.5941679524188247e-17 -7.592706421550662e-17 4.5941679524188247e-17 -7.592706421550662e-17 -0.7408144570952794 0.6717097142058184
12622833333.333334 -0.734601602711518 0.6784986995518156 4.522543590833038e-17 -7.633567950986698e-17 4.522543590833038e-17 -7.633567950986698e-17 -0.7346020402488215 0.678498225835635
12623450666.666666 -0.7283269769064477 0.6852297532289086 4.450556817859686e-17 -7.673754490321992e-17 4.450556817859686e-17 -7.673754490321992e-17 -0.7283274187627364 0.6852292835819589
12624068000.0 -0.7219906778221158 0.6919027830105893 4.378213988516237e-17 -7.713262835096042e-17 4.378213988516237e-17 -7.713262835096042e-17 -0.7219911239595537 0.6919023174722394
12624685333.333334 -0.7155932420037239 0.6985172238380649 4.3055214860579487e-17 -7.752089840624883e-17 4.3055214860579487e-17 -7.752089840624883e-17 -0.7155936923841164 0.6985167624473321
12625302666.666666 -0.709135211173548 0.7050725156135962 4.2324857214183445e-17 -7.790232422247815e-17 4.2324857214183445e-17 -7.790232422247815e-17 -0.7091356657583445 0.7050720584091424
12625920000.0 -0.7026171321847698 0.7115681032482316 4.1591131326419527e-17 -7.82768755557181e-17 4.1591131326419527e-17 -7.82768755557181e-17 -0.702617590935068 0.7115676502683612
12626537333.333334 -0.6960395569754494 0.7180034367085274 4.0854101843214195e-17 -7.86445227670725e-17 4.0854101843214195e-17 -7.86445227670725e-17 -0.6960400198519976 0.7180029879911823
12627154666.666666 -0.6894030425216681 0.7243779710632449 4.011383367028047e-17 -7.900523682500629e-17 4.011383367028047e-17 -7.900523682500629e-17 -0.6894035094848695 0.7243775266460034
12627772000.0 -0.6827081507902417 0.7306911665296111 3.937039196740336e-17 -7.935898930761954e-17 3.937039196740336e-17 -7.935898930761954e-17 -0.682708621800157 0.7306907264496832
12628389333.333334 -0.6759554486914231 0.7369424885187542 3.862384214275051e-17 -7.970575240484538e-17 3.862384214275051e-17 -7.970575240484538e-17 -0.6759559237077735 0.7369420528129781
12629006666.666666 -0.6691455080305838 0.7431314076812588 3.787424984709818e-17 -8.00454989206264e-17 3.787424984709818e-17 -8.00454989206264e-17 -0.6691459870127566 0.7431309763861005
12629624000.0 -0.6622789054600269 0.7492573999517824 3.71216809680998e-17 -8.037820227500785e-17 3.71216809680998e-17 -8.037820227500785e-17 -0.6622793883670779 0.7492569731033306
12630241333.333334 -0.655356222430031 0.7553199465935455 3.63662016244862e-17 -8.07038365062004e-17 3.63662016244862e-17 -8.07038365062004e-17 -0.6553567092206862 0.7553195242275076
12630858666.666666 -0.6483780451397403 0.7613185342421429 3.5607878160298574e-17 -8.10223762725659e-17 3.5607878160298574e-17 -8.10223762725659e-17 -0.648378535772402 0.7613181163938446
12631476000.0 -0.6413449644872926 0.7672526549492221 3.48467771390421e-17 -8.133379685457622e-17 3.48467771390421e-17 -8.133379685457622e-17 -0.6413454589200408 0.7672522416536022
12632093333.333334 -0.6342575760200603 0.7731218062252508 3.408296533788996e-17 -8.16380741566888e-17 3.408296533788996e-17 -8.16380741566888e-17 -0.6342580742106588 0.7731213975168602
12632710666.666666 -0.6271164798840948 0.7789254910821825 3.3316509741824874e-17 -8.193518470918749e-17 3.3316509741824874e-17 -8.193518470918749e-17 -0.6271169817899921 0.778925086995179
12633328000.0 -0.6199222807731949 0.7846632180756256 3.254747753776718e-17 -8.222510566996719e-17 3.254747753776718e-17 -8.222510566996719e-17 -0.6199227863515298 0.7846628186437739
12633945333.333334 -0.6126755878779017 0.7903345013463003 3.177593610872054e-17 -8.250781482625083e-17 3.177593610872054e-17 -8.250781482625083e-17 -0.6126760970855056 0.7903341066029662
12634562666.666666 -0.6053770148338014 0.795938860661265 3.1001953027870186e-17 -8.278329059626408e-17 3.1001953027870186e-17 -8.278329059626408e-17 -0.6053775276272034 0.795938470639415
12635180000.0 -0.5980271796695885 0.8014758214545685 3.022559605268142e-17 -8.305151203085011e-17 3.022559605268142e-17 -8.305151203085011e-17 -0.5980276960050176 0.8014754361867658
12635797333.333334 -0.5906267047547074 0.8069449148674482 2.944693311897944e-17 -8.331245881503021e-17 2.944693311897944e-17 -8.331245881503021e-17 -0.5906272245880978 0.8069445343858507
12636414666.666666 -0.583176216746744 0.8123456777879672 2.8666032335028137e-17 -8.356611126950524e-17 2.8666032335028137e-17 -8.356611126950524e-17 -0.5831767400337374 0.8123453021243237
12637032000.0 -0.5756763465382245 0.8176776528903302 2.788296197557265e-17 -8.381245035211011e-17 2.788296197557265e-17 -8.381245035211011e-17 -0.5756768732341748 0.8176772820759792
12637649333.333334 -0.568127729203283 0.8229403886735408 2.7097790475893474e-17 -8.405145765920394e-17 2.7097790475893474e-17 -8.405145765920394e-17 -0.5681282592632597 0.8229400227394064
12638266666.666666 -0.5605310039438631 0.8281334394996509 2.6310586425837363e-17 -8.428311542700949e-17 2.6310586425837363e-17 -8.428311542700949e-17 -0.5605315373226555 0.8281330784762417
12638884000.0 -0.5528868140355903 0.8332563656314972 2.5521418563839384e-17 -8.450740653289532e-17 2.5521418563839384e-17 -8.450740653289532e-17 -0.5528873506877106 0.8332560095489027
12639501333.333334 -0.5451958067732783 0.8383087332699518 2.473035577093227e-17 -8.472431449660324e-17 2.473035577093227e-17 -8.472431449660324e-17 -0.5451963466529665 0.83830838215784
12640118666.666666 -0.5374586334162589 0.8432901145905627 2.3937467064762707e-17 -8.493382348141529e-17 2.3937467064762707e-17 -8.493382348141529e-17 -0.5374591764774858 0.843289768478178
12640736000.0 -0.5296759491328533 0.8482000877800275 2.3142821593544723e-17 -8.513591829527857e-17 2.3142821593544723e-17 -8.513591829527857e-17 -0.5296764953293257 0.8481997466961891
12641353333.333334 -0.5218484129454695 0.8530382370715462 2.234648863010388e-17 -8.533058439184854e-17 2.234648863010388e-17 -8.533058439184854e-17 -0.5218489622306315 0.8530379010446424
12641970666.666666 -0.5139766876742898 0.8578041527803424 2.1548537565791472e-17 -8.551780787150717e-17 2.1548537565791472e-17 -8.551780787150717e-17 -0.5139772400013305 0.8578038218383334
12642588000.0 -0.5060614398813905 0.8624974313382098 2.0749037904490468e-17 -8.569757548229936e-17 2.0749037904490468e-17 -8.569757548229936e-17 -0.5060619952032448 0.8624971055086201
12643205333.333334 -0.4981033398142703 0.867117675327695 1.994805925656323e-17 -8.586987462082667e-17 1.994805925656323e-17 -8.586987462082667e-17 -0.49810389808362426 0.8671173546376145
12643822666.666666 -0.4901030613489989 0.8716644935158108 1.9145671332797072e-17 -8.603469333308277e-17 1.9145671332797072e-17 -8.603469333308277e-17 -0.49010362251829437 0.8716641779918927
12644440000.0 -0.4820612819332778 0.8761375008870935 1.834194393836303e-17 -8.6192020315228e-17 1.834194393836303e-17 -8.6192020315228e-17 -0.48206184595471463 0.8761371905555486
12645057333.333334 -0.47397868252904907 0.8805363186762168 1.7536946966754423e-17 -8.634184491431175e-17 1.7536946966754423e-17 -8.634184491431175e-17 -0.4739792493545909 0.8805360135628153
12645674666.666666 -0.46585594755486115 0.8848605744000575 1.6730750393722447e-17 -8.64841571289373e-17 1.6730750393722447e-17 -8.64841571289373e-17 -0.46585651713623916 0.8848602745301256
12646292000.0 -0.45769376482763546 0.8891099018893798 1.5923424271189737e-17 -8.661894760987296e-17 1.5923424271189737e-17 -8.661894760987296e-17 -0.45769433711635193 0.8891096072877965
12646909333.333334 -0.44949282550490116 0.8932839413195885 1.5115038721209162e-17 -8.674620766059851e-17 1.5115038721209162e-17 -8.674620766059851e-17 -0.4494934004522338 0.8932836520107845
12647526666.666666 -0.4412538240259171 0.8973823392413856 1.4305663929862132e-17 -8.686592923780486e-17 1.4305663929862132e-17 -8.686592923780486e-17 -0.44125440158292367 0.8973820552493417
12648144000.0 -0.43297745805291904 0.9014047486106723 1.3495370141180935e-17 -8.697810495183232e-17 1.3495370141180935e-17 -8.697810495183232e-17 -0.4329780381704403 0.9014044699589155
12648761333.333334 -0.4246644284121418 0.9053508288178821 1.2684227651075802e-17 -8.708272806705114e-17 1.2684227651075802e-17 -8.708272806705114e-17 -0.42466501104080717 0.9053505555294855
12649378666.666666 -0.41631543903447843 0.9092202457168266 1.1872306801250157e-17 -8.717979250218801e-17 1.1872306801250157e-17 -8.717979250218801e-17 -0.41631602412470914 0.9092199778144069
12649996000.0 -0.40793119689574264 0.9130126716530519 1.1059677973101673e-17 -8.726929283059615e-17 1.1059677973101673e-17 -8.726929283059615e-17 -0.4079317843977569 0.9130124091587682
12650613333.333334 -0.39951241195688075 0.916727785491545 1.0246411581642279e-17 -8.735122428046723e-17 1.0246411581642279e-17 -8.735122428046723e-17 -0.3995130018206971 0.9167275284270961
12651230666.666666 -0.3910597971039581 0.9203652726438823 9.432578069420071e-18 -8.742558273498636e-17 9.432578069420071e-18 -8.742558273498636e-17 -0.3910603892793998 0.9203650210305045
12651848000.0 -0.38257406808753197 0.9239248250949817 8.618247900406435e-18 -8.749236473243405e-17 8.618247900406435e-18 -8.749236473243405e-17 -0.3825746625242317 0.9239245789534485
12652465333.333334 -0.3740559434622788 0.9274061414290831 7.803491553933431e-18 -8.755156746622664e-17 7.803491553933431e-18 -8.755156746622664e-17 -0.37405654010968264 0.9274059007797018
12653082666.666666 -0.36550614452614905 0.930808926855274 6.988379518597453e-18 -8.760318878490397e-17 6.988379518597453e-18 -8.760318878490397e-17 -0.3655067433335205 0.9308086917178849
12653700000.0 -0.3569253952590245 0.9341328932325561 6.172982286164344e-18 -8.764722719205944e-17 6.172982286164344e-18 -8.764722719205944e-17 -0.3569259961754497 0.9341326636265317
12654317333.333334 -0.34831442226178433 0.9373777590941005 5.357370345511604e-18 -8.768368184621231e-17 5.357370345511604e-18 -8.768368184621231e-17 -0.3483150252361754 0.9373775350383426
12654934666.666666 -0.33967395469451217 0.9405432496711823 4.5416141765258136e-18 -8.771255256062577e-17 4.5416141765258136e-18 -8.771255256062577e-17 -0.33967455967561244 0.9405430311841216
12655552000.0 -0.33100472421475274 0.9436290969164493 3.725784244025644e-18 -8.773383980306738e-17 3.725784244025644e-18 -8.773383980306738e-17 -0.33100533115114 0.9436288840160418
12656169333.333334 -0.32230746491579537 0.9466350395265277 2.9099509917110036e-18 -8.774754469551261e-17 2.9099509917110036e-18 -8.774754469551261e-17 -0.32230807375588766 0.9466348322302566
12656786666.666666 -0.313582913264247 0.9495608229642504 2.0941848360689696e-18 -8.775366901379355e-17 2.0941848360689696e-18 -8.775366901379355e-17 -0.31358352395630545 0.9495606212891211
12657404000.0 -0.3048318080378023 0.9524061994801598 1.2785561603218515e-18 -8.775221518719024e-17 1.2785561603218515e-18 -8.775221518719024e-17 -0.3048324205299366 0.9524060034427003
12658021333.333334 -0.29605489026263115 0.9551709281335035 4.631353083630342e-19 -8.774318629796584e-17 4.631353083630342e-19 -8.774318629796584e-17 -0.2960555045028036 0.9551707377497632
12658638666.666666 -0.28725290315076707 0.9578547748125983 -3.52007421283961e-19 -8.772658608084652e-17 -3.52007421283961e-19 -8.772658608084652e-17 -0.287253519086797 0.9578545900981463
12659256000.0 -0.2784265920369006 0.9604575122547351 -1.1668017815375579e-18 -8.770241892244419e-17 -1.1668017815375579e-18 -8.770241892244419e-17 -0.278427209616469 0.9604573332246588
12659873333.333334 -0.26957670431551123 0.9629789200653482 -1.9811775827760177e-18 -8.767068986062386e-17 -1.9811775827760177e-18 -8.767068986062386e-17 -0.26957732348616503 0.9629787467342529
12660490666.666666 -0.2607039893775799 0.9654187847366822 -2.7950646988704844e-18 -8.763140458381541e-17 -2.7950646988704844e-18 -8.763140458381541e-17 -0.2607046100867362 0.9654186171186879
12661108000.0 -0.2518091985468577 0.9677768996659442 -3.608393073235086e-18 -8.758456943026788e-17 -3.608393073235086e-18 -8.758456943026788e-17 -0.2518098207418085 0.9677767377746866
12661725333.333334 -0.24289308501662973 0.9700530651726954 -4.421092724808933e-18 -8.75301913872509e-17 -4.421092724808933e-18 -8.75301913872509e-17 -0.24289370864454674 0.9700529090213248
12662342666.666666 -0.2339564037856342 0.9722470885158416 -5.233093754091484e-18 -8.746827809019719e-17 -5.233093754091484e-18 -8.746827809019719e-17 -0.2339570287935726 0.9722469381170197
12662960000.0 -0.2249999115942676 0.9743587839099154 -6.0443263491287076e-18 -8.739883782179152e-17 -6.0443263491287076e-18 -8.739883782179152e-17 -0.22500053792917096 0.9743586392758162
12663577333.333334 -0.2160243668604782 0.9763879725408173 -6.854720791501828e-18 -8.732187951100421e-17 -6.854720791501828e-18 -8.732187951100421e-17 -0.21602499446918286 0.9763878336831252
12664194666.666666 -0.2070305296155444 0.978334482580955 -7.664207462315555e-18 -8.723741273206763e-17 -7.664207462315555e-18 -8.723741273206763e-17 -0.2070311584447842 0.9783343495108651
12664812000.0 -0.1980191614397175 0.9801981492037969 -8.472716848150615e-18 -8.714544770339992e-17 -8.472716848150615e-18 -8.714544770339992e-17 -0.19801979143612805 0.9801980219320119
12665429333.333334 -0.18899102539770396 0.9819788145978311 -9.280179547032093e-18 -8.704599528647088e-17 -9.280179547032093e-18 -8.704599528647088e-17 -0.1889916565078272 0.9819786931345628
12666046666.666666 -0.17994688597419073 0.9836763279799051 -1.0086526274358693e-17 -8.693906698461629e-17 -1.0086526274358693e-17 -8.693906698461629e-17 -0.17994751814447943 0.9836762123348711
12666664000.0 -0.1708875090088023 0.9852905456080481 -1.0891687868861443e-17 -8.682467494179118e-17 -1.0891687868861443e-17 -8.682467494179118e-17 -0.17088814218562504 0.9852904357904747
12667281333.333334 -0.16181366163164296 0.9868213307935728 -1.169559529848784e-17 -8.670283194127748e-17 -1.169559529848784e-17 -8.670283194127748e-17 -0.16181429576128795 0.9868212268121901
12667898666.666666 -0.15272611219805765 0.9882685539127016 -1.2498179666331723e-17 -8.657355140432837e-17 -1.2498179666331723e-17 -8.657355140432837e-17 -0.1527267472267379 0.988268455775746
12668516000.0 -0.14362563022356922 0.9896320924175408 -1.329937221652442e-17 -8.643684738876121e-17 -1.329937221652442e-17 -8.643684738876121e-17 -0.1436262660974266 0.9896320001327509
12669133333.333334 -0.1345129863189693 0.990911830846413 -1.4099104340089486e-17 -8.629273458750055e-17 -1.4099104340089486e-17 -8.629273458750055e-17 -0.1345136229840796 0.9909117444210328
12669750666.666666 -0.12538895212478463 0.9921076608336846 -1.489730758082907e-17 -8.614122832705881e-17 -1.489730758082907e-17 -8.614122832705881e-17 -0.12538958952716184 0.9921075802744618
12670368000.0 -0.11625430024604776 0.9932194811189213 -1.569391364116036e-17 -8.598234456596831e-17 -1.569391364116036e-17 -8.598234456596831e-17 -0.11625493833164859 0.9932194064321045
