! Parameters = {f0=12700.012000; bw=77.238000; Q=6100.000000; N=10; m_0_1=1.162658; m_1_1=-1.324881; m_1_2=0.997470; m_2_2=-1.325530; m_2_3=0.634433; m_2_8=-0.004803; m_2_9=0.031901; m_3_3=-1.327467; m_3_4=0.522962; m_3_7=-0.004203; m_3_8=-0.101291; m_3_9=-0.004803; m_4_4=-1.330392; m_4_5=0.359297; m_4_6=-0.000686; m_4_7=-0.121840; m_4_8=-0.004203; m_5_5=-1.330010; m_5_6=0.766652; m_5_7=-0.000686; m_6_6=-1.330011; m_6_7=0.359639; m_7_7=-1.330378; m_7_8=0.523080; m_8_8=-1.327469; m_8_9=0.634746; m_9_9=-1.325535; m_9_10=0.998548; m_10_10=-1.324891; m_10_11=1.163453}
!
! Created with skrf (http://scikit-rf.org).
# Hz S RI R 50.0 
!freq ReS11 ImS11 ReS21 ImS21 ReS12 ImS12 ReS22 ImS22
12607400000.0 -0.9366171595332641 0.35035452968056996 5.1711479704900686e-17 -3.898254738674316e-17 5.1711479704900686e-17 -3.898254738674316e-17 -0.936617374208701 0.35035395577936623
12608017333.333334 -0.9340169117454387 0.3572287902358459 5.14100150479665e-17 -3.935840038439793e-17 5.14100150479665e-17 -3.935840038439793e-17 -0.9340171306222788 0.3572282179559407
12608634666.666666 -0.9313662114034129 0.3640837544520571 5.110582313296328e-17 -3.9731927815263945e-17 5.110582313296328e-17 -3.9731927815263945e-17 -0.9313664344694216 0.3640831838242025
12609252000.0 -0.9286652016894491 0.37091905204632825 5.0798921858362447e-17 -4.01031099242519e-17 5.0798921858362447e-17 -4.01031099242519e-17 -0.9286654289321683 0.3709184831011848
12609869333.333334 -0.9259140285033384 0.3777343137981649 5.0489329265467414e-17 -4.047192709373231e-17 5.0489329265467414e-17 -4.047192709373231e-17 -0.9259142599100845 0.3777337465662987
12610486666.666666 -0.9231128404545823 0.38452917156923916 5.017706353737306e-17 -4.0838359844550664e-17 5.017706353737306e-17 -4.0838359844550664e-17 -0.9231130760124471 0.3845286060811205
12611104000.0 -0.9202617888542564 0.391303258323537 4.986214299788728e-17 -4.1202388837071445e-17 4.986214299788728e-17 -4.1202388837071445e-17 -0.9202620285501109 0.39130269460953987
12611721333.333334 -0.9173610277069464 0.3980562081469236 4.954458611048162e-17 -4.156399487217008e-17 4.954458611048162e-17 -4.156399487217008e-17 -0.9173612715274385 0.3980556462373228
12612338666.666666 -0.9144107137023877 0.40478765626701296 4.922441147719928e-17 -4.1923158892259315e-17 4.922441147719928e-17 -4.1923158892259315e-17 -0.914410961633944 0.4047870961919828
12612956000.0 -0.9114110062069648 0.41149723907294966 4.8901637837579094e-17 -4.227986198227857e-17 4.8901637837579094e-17 -4.227986198227857e-17 -0.9114112582357903 0.41149668086256247
12613573333.333334 -0.9083620672551707 0.41818459413489373 4.8576284067572205e-17 -4.263408537067752e-17 4.8576284067572205e-17 -4.263408537067752e-17 -0.9083623233672512 0.418184037819118
12614190666.666666 -0.9052640615408101 0.4248493602237018 4.824836917843486e-17 -4.298581043040839e-17 4.824836917843486e-17 -4.298581043040839e-17 -0.9052643217219127 0.4248488058324012
12614808000.0 -0.9021171564081156 0.4314911773304147 4.791791231562583e-17 -4.3335018679898124e-17 4.791791231562583e-17 -4.3335018679898124e-17 -0.9021174206437884 0.4314906248933457
12615425333.333334 -0.8989215218427059 0.4381096866857025 4.758493275770121e-17 -4.368169178400618e-17 4.758493275770121e-17 -4.368169178400618e-17 -0.89892179011828 0.4381091362325135
12616042666.666666 -0.8956773304624193 0.4447045307792201 4.7249449915191707e-17 -4.402581155498654e-17 4.7249449915191707e-17 -4.402581155498654e-17 -0.8956776027630071 0.44470398233944847
12616660000.0 -0.8923847575079336 0.45127535337901825 4.691148332948015e-17 -4.436735995343275e-17 4.691148332948015e-17 -4.436735995343275e-17 -0.8923850338184344 0.4512748069820909
12617277333.333334 -0.88904398083337 0.4578217995506616 4.6571052671663516e-17 -4.4706319089223927e-17 4.6571052671663516e-17 -4.4706319089223927e-17 -0.8890442611384659 0.4578212552258914
12617894666.666666 -0.8856551808966946 0.46434351567637366 4.6228177741428744e-17 -4.5042671222441046e-17 4.6228177741428744e-17 -4.5042671222441046e-17 -0.8856554651808547 0.4643429734529593
12618512000.0 -0.8822185407498568 0.4708401494743677 4.5882878465889414e-17 -4.5376398764306946e-17 4.5882878465889414e-17 -4.5376398764306946e-17 -0.8822188289973362 0.47083960938139113
12619129333.333334 -0.8787342460290297 0.47731135001762176 4.553517489844858e-17 -4.570748427808561e-17 4.553517489844858e-17 -4.570748427808561e-17 -0.8787345382238709 0.47731081208404696
12619746666.666666 -0.8752024849445319 0.48375676775293625 4.5185087217635396e-17 -4.603591047999188e-17 4.5185087217635396e-17 -4.603591047999188e-17 -0.8752027810705665 0.4837562320076083
12620364000.0 -0.8716234482706058 0.4901760545199154 4.483263572593506e-17 -4.636166024009203e-17 4.483263572593506e-17 -4.636166024009203e-17 -0.8716237483114535 0.49017552099155765
12620981333.333334 -0.8679973293352622 0.4965688635694994 4.447784084863248e-17 -4.668471658317691e-17 4.447784084863248e-17 -4.668471658317691e-17 -0.8679976332743339 0.4965683322867131
12621598666.666666 -0.8643243240096471 0.5029348495830432 4.412072313261636e-17 -4.7005062689657606e-17 4.412072313261636e-17 -4.7005062689657606e-17 -0.8643246318301441 0.5029343205743054
12622216000.0 -0.8606046306976108 0.5092736686906965 4.376130324521016e-17 -4.732268189642048e-17 4.376130324521016e-17 -4.732268189642048e-17 -0.8606049423825266 0.5092731419843584
12622833333.333334 -0.856838450324908 0.5155849784901254 4.3399601972975604e-17 -4.763755769769354e-17 4.3399601972975604e-17 -4.763755769769354e-17 -0.8568387658570293 0.5155844541144113
12623450666.666666 -0.853025986328431 0.5218684380648629 4.3035640220518185e-17 -4.7949673745896295e-17 4.3035640220518185e-17 -4.7949673745896295e-17 -0.8530263056903388 0.5218679160478692
12624068000.0 -0.8491674446450909 0.5281237080029436 4.266943900928648e-17 -4.825901385248032e-17 4.266943900928648e-17 -4.825901385248032e-17 -0.84916776781916 0.5281231883726353
12624685333.333334 -0.8452630337007631 0.5343504504151139 4.2301019476357335e-17 -4.856556198876825e-17 4.2301019476357335e-17 -4.856556198876825e-17 -0.8452633606691644 0.5343499331993248
12625302666.666666 -0.8413129643991214 0.5405483289529397 4.193040287323718e-17 -4.886930228676414e-17 4.193040287323718e-17 -4.886930228676414e-17 -0.841313295143823 0.5405478141793706
12625920000.0 -0.8373174501100333 0.5467170088273126 4.155761056462279e-17 -4.917021903998457e-17 4.155761056462279e-17 -4.917021903998457e-17 -0.8373177846128014 0.5467164965235298
12626537333.333334 -0.8332767066582655 0.5528561568261745 4.1182664027189833e-17 -4.946829670425216e-17 4.1182664027189833e-17 -4.946829670425216e-17 -0.8332770449006641 0.5528556470196081
12627154666.666666 -0.8291909523116682 0.5589654413327545 4.0805584848361586e-17 -4.976351989849136e-17 4.0805584848361586e-17 -4.976351989849136e-17 -0.8291912942750623 0.558964934050697
12627772000.0 -0.8250604077693874 0.5650445323434821 4.0426394725059357e-17 -5.0055873405525585e-17 4.0426394725059357e-17 -5.0055873405525585e-17 -0.825060753434942 0.5650440276130869
12628389333.333334 -0.8208852961500993 0.571093101485576 4.004511546247565e-17 -5.0345342172841696e-17 4.004511546247565e-17 -5.0345342172841696e-17 -0.8208856454987817 0.5710925993338566
12629006666.666666 -0.8166658429797556 0.577110822035091 3.9661768972813537e-17 -5.06319113133682e-17 3.9661768972813537e-17 -5.06319113133682e-17 -0.8166661959923348 0.5771103224889176
12629624000.0 -0.8124022761795032 0.5830973689343946 3.927637727404296e-17 -5.0915566106225417e-17 3.927637727404296e-17 -5.0915566106225417e-17 -0.812402632836555 0.5830968720204959
12630241333.333334 -0.8080948260533867 0.5890524188097348 3.8888962488636777e-17 -5.1196291997479315e-17 3.8888962488636777e-17 -5.1196291997479315e-17 -0.8080951863352889 0.5890519245546931
12630858666.666666 -0.80374372527593 0.5949756499886556 3.849954684230937e-17 -5.147407460087846e-17 3.849954684230937e-17 -5.147407460087846e-17 -0.803744089162868 0.5949751584189076
12631476000.0 -0.7993492088794248 0.6008667425175827 3.810815266273998e-17 -5.174889969858899e-17 3.810815266273998e-17 -5.174889969858899e-17 -0.7993495763513915 0.6008662536594178
12632093333.333334 -0.7949115142413821 0.6067253781788976 3.771480237831341e-17 -5.202075324190455e-17 3.771480237831341e-17 -5.202075324190455e-17 -0.7949118852781782 0.6067248920584561
12632710666.666666 -0.7904308810717126 0.6125512405081298 3.731951851682713e-17 -5.2289621351966277e-17 3.731951851682713e-17 -5.2289621351966277e-17 -0.7904312556529489 0.6125507571514016
12633328000.0 -0.7859075513996243 0.6183440148112541 3.6922323704208287e-17 -5.255549032046258e-17 3.6922323704208287e-17 -5.255549032046258e-17 -0.785907929504721 0.6183435342440768
12633945333.333334 -0.7813417695607173 0.6241033881814609 3.6523240663231955e-17 -5.28183466103152e-17 3.6523240663231955e-17 -5.28183466103152e-17 -0.7813421511689075 0.6241029104295195
12634562666.666666 -0.7767337821837224 0.6298290495161534 3.6122292212222385e-17 -5.3078176856363863e-17 3.6122292212222385e-17 -5.3078176856363863e-17 -0.7767341672740514 0.6298285746049781
12635180000.0 -0.7720838381771216 0.6355206895338152 3.5719501263749656e-17 -5.3334967866041187e-17 3.5719501263749656e-17 -5.3334967866041187e-17 -0.7720842267284485 0.6355202174887801
12635797333.333334 -0.7673921887157922 0.6411780007906068 3.531489082333334e-17 -5.3588706620029134e-17 3.531489082333334e-17 -5.3588706620029134e-17 -0.7673925807067908 0.6411775316369283
12636414666.666666 -0.7626590872274571 0.64680067769695 3.4908483988134414e-17 -5.3839380272911525e-17 3.4908483988134414e-17 -5.3839380272911525e-17 -0.7626594826366198 0.6468002114596876
12637032000.0 -0.7578847893788372 0.6523884165342365 3.4500303945636365e-17 -5.408697615382013e-17 3.4500303945636365e-17 -5.408697615382013e-17 -0.7578851881844709 0.6523879532382875
12637649333.333334 -0.7530695530620158 0.6579409154710085 3.4090373972327704e-17 -5.4331481767066933e-17 3.4090373972327704e-17 -5.4331481767066933e-17 -0.753069955242248 0.6579404551411104
12638266666.666666 -0.7482136383804213 0.663457874579377 3.367871743238803e-17 -5.457288479276157e-17 3.367871743238803e-17 -5.457288479276157e-17 -0.7482140439131991 0.6634574172401045
12638884000.0 -0.7433173076347956 0.668938995851199 3.326535777635572e-17 -5.481117308742779e-17 3.326535777635572e-17 -5.481117308742779e-17 -0.7433177164978869 0.6689385415269629
12639501333.333334 -0.738380825309024 0.6743839832141756 3.285031853979929e-17 -5.504633468460484e-17 3.285031853979929e-17 -5.504633468460484e-17 -0.7383812374800184 0.6743835319292202
12640118666.666666 -0.7334044580558865 0.6797925425478011 3.243362334198612e-17 -5.527835779543831e-17 3.243362334198612e-17 -5.527835779543831e-17 -0.7334048735121981 0.679792094326206
12640736000.0 -0.7283884746824638 0.685164381699463 3.201529588452776e-17 -5.550723080927112e-17 3.201529588452776e-17 -5.550723080927112e-17 -0.7283888934013308 0.6851639365651386
12641353333.333334 -0.7233331461360004 0.6904992104998015 3.159535995007085e-17 -5.573294229419728e-17 3.159535995007085e-17 -5.573294229419728e-17 -0.7233335680944878 0.6904987684764903
12641970666.666666 -0.7182387454889045 0.6957967407787833 3.117383940091243e-17 -5.595548099764555e-17 3.117383940091243e-17 -5.595548099764555e-17 -0.7182391706639044 0.6957963018900569
12642588000.0 -0.7131055479241122 0.7010566863811408 3.0750758177674806e-17 -5.617483584691711e-17 3.0750758177674806e-17 -5.617483584691711e-17 -0.7131059762923445 0.7010562506503991
12643205333.333334 -0.7079338307203196 0.7062787631817257 3.0326140297943424e-17 -5.6390995949732e-17 3.0326140297943424e-17 -5.6390995949732e-17 -0.7079342622583343 0.7062783306321956
12643822666.666666 -0.7027238732368482 0.71146268910102 2.990000985490404e-17 -5.660395059476334e-17 2.990000985490404e-17 -5.660395059476334e-17 -0.7027243079210276 0.7114622597557554
12644440000.0 -0.6974759568986969 0.7166081841202349 2.947239101599082e-17 -5.681368925215391e-17 2.947239101599082e-17 -5.681368925215391e-17 -0.6974763947052535 0.7166077580021124
12645057333.333334 -0.6921903651812348 0.7217149702965305 2.904330802151301e-17 -5.702020157403154e-17 2.904330802151301e-17 -5.702020157403154e-17 -0.6921908060862166 0.7217145474282523
12645674666.666666 -0.6868673835950155 0.7267827717779166 2.861278518329603e-17 -5.722347739500513e-17 2.861278518329603e-17 -5.722347739500513e-17 -0.6868678275743044 0.7267823521820054
12646292000.0 -0.6815072996701266 0.731811314818366 2.818084688329299e-17 -5.742350673266358e-17 2.818084688329299e-17 -5.742350673266358e-17 -0.6815077466994414 0.7318108985171667
12646909333.333334 -0.6761104029409677 0.7368003277923091 2.7747517572225693e-17 -5.762027978804827e-17 2.7747517572225693e-17 -5.762027978804827e-17 -0.676110852995865 0.7367999148079863
12647526666.666666 -0.6706769849303237 0.74174954120958 2.7312821768199343e-17 -5.781378694612629e-17 2.7312821768199343e-17 -5.781378694612629e-17 -0.6706774379861985 0.7417491315641167
12648144000.0 -0.6652073391337576 0.7466586877298343 2.6876784055315574e-17 -5.800401877625241e-17 2.6876784055315574e-17 -5.800401877625241e-17 -0.6652077951658452 0.7466582814450309
12648761333.333334 -0.6597017610037609 0.7515275021769926 2.64394290822976e-17 -5.819096603261414e-17 2.64394290822976e-17 -5.819096603261414e-17 -0.6597022199871386 0.7515270992744659
12649378666.666666 -0.6541605479338145 0.7563557215535451 2.600078156109534e-17 -5.837461965467352e-17 2.600078156109534e-17 -5.837461965467352e-17 -0.6541610098434031 0.756355322054728
12649996000.0 -0.6485839992422414 0.7611430850548355 2.5560866265496224e-17 -5.85549707675952e-17 2.5560866265496224e-17 -5.85549707675952e-17 -0.6485844640528053 0.761142688980974
12650613333.333334 -0.6429724161560135 0.7658893340831633 2.51197080297312e-17 -5.873201068266426e-17 2.51197080297312e-17 -5.873201068266426e-17 -0.6429728838421628 0.7658889414553162
12651230666.666666 -0.6373261017946972 0.7705942122615685 2.4677331747079956e-17 -5.890573089769367e-17 2.4677331747079956e-17 -5.890573089769367e-17 -0.6373265723308902 0.7705938231006075
12651848000.0 -0.6316453611537783 0.7752574654479416 2.4233762368464583e-17 -5.907612309742385e-17 2.4233762368464583e-17 -5.907612309742385e-17 -0.6316458345143205 0.7752570797745476
12652465333.333334 -0.6259305010884229 0.7798788417485424 2.3789024901057815e-17 -5.924317915390563e-17 2.3789024901057815e-17 -5.924317915390563e-17 -0.6259309772474714 0.779878459583208
12653082666.666666 -0.6201818302968194 0.784458091531689 2.3343144406873415e-17 -5.940689112687854e-17 2.3343144406873415e-17 -5.940689112687854e-17 -0.6201823092283814 0.7844577128947137
12653700000.0 -0.6143996593034105 0.788994967441305 2.28961460013522e-17 -5.956725126413892e-17 2.28961460013522e-17 -5.956725126413892e-17 -0.6144001409813459 0.7889945923527958
12654317333.333334 -0.6085843004423441 0.7934892244101082 2.2448054851969618e-17 -5.972425200188874e-17 2.2448054851969618e-17 -5.972425200188874e-17 -0.608584784840368 0.7934888528899792
12654934666.666666 -0.6027360678404027 0.7979406196730066 2.1998896176808735e-17 -5.987788596508629e-17 2.1998896176808735e-17 -5.987788596508629e-17 -0.6027365549320852 0.7979402517409768
12655552000.0 -0.5968552774000542 0.8023489127801919 2.1548695243147778e-17 -6.002814596777917e-17 2.1548695243147778e-17 -6.002814596777917e-17 -0.5968557671588228 0.8023485484557853
12656169333.333334 -0.5909422467825031 0.8067138656100435 2.109747736605251e-17 -6.017502501342492e-17 2.109747736605251e-17 -6.017502501342492e-17 -0.5909427391816434 0.806713504912586
12656786666.666666 -0.5849972953904395 0.8110352423820582 2.0645267906951122e-17 -6.031851629520636e-17 2.0645267906951122e-17 -6.031851629520636e-17 -0.5849977904030971 0.8110348853306784
12657404000.0 -0.5790207443508325 0.8153128096695526 2.019209227221732e-17 -6.045861319633266e-17 2.019209227221732e-17 -6.045861319633266e-17 -0.5790212419500153 0.8153124562831813
12658021333.333334 -0.573012916497469 0.8195463364123575 1.9737975911739577e-17 -6.0595309290334e-17 1.9737975911739577e-17 -6.0595309290334e-17 -0.5730134166560472 0.8195459867097249
12658638666.666666 -0.5669741363537686 0.8237355939291141 1.928294431751589e-17 -6.072859834133618e-17 1.928294431751589e-17 -6.072859834133618e-17 -0.5669746390444769 0.8237352479287497
12659256000.0 -0.5609047301149307 0.8278803559298592 1.8827023022203818e-17 -6.085847430433885e-17 1.8827023022203818e-17 -6.085847430433885e-17 -0.560905235310369 0.8278800136500898
12659873333.333334 -0.5548050256305672 0.8319803985280653 1.8370237597711976e-17 -6.098493132546938e-17 1.8370237597711976e-17 -6.098493132546938e-17 -0.5548055333032043 0.8319800599870169
12660490666.666666 -0.5486753523869056 0.8360355002528058 1.7912613653763997e-17 -6.110796374223424e-17 1.7912613653763997e-17 -6.110796374223424e-17 -0.5486758625090774 0.8360351654683988
12661108000.0 -0.5425160414888894 0.840045442060773 1.7454176836460717e-17 -6.122756608375874e-17 1.7454176836460717e-17 -6.122756608375874e-17 -0.5425165540328041 0.8400451110507249
12661725333.333334 -0.536327425642536 0.8440100073479595 1.6994952826865627e-17 -6.134373307101056e-17 1.6994952826865627e-17 -6.134373307101056e-17 -0.536327940580273 0.8440096801297817
12662342666.666666 -0.530109839136725 0.847928981961513 1.6534967339555602e-17 -6.145645961702078e-17 1.6534967339555602e-17 -6.145645961702078e-17 -0.5301103564402364 0.8479286585525097
12662960000.0 -0.5238636178252837 0.8518021542112101 1.6074246121187816e-17 -6.156574082708974e-17 1.6074246121187816e-17 -6.156574082708974e-17 -0.523864137466397 0.8518018346284779
12663577333.333334 -0.5175890991087251 0.8556293148809665 1.5612814949072463e-17 -6.167157199898033e-17 1.5612814949072463e-17 -6.167157199898033e-17 -0.5175896210591446 0.8556289991413947
12664194666.666666 -0.5112866219161677 0.8594102572400485 1.5150699629728635e-17 -6.177394862310475e-17 1.5150699629728635e-17 -6.177394862310475e-17 -0.5112871461474756 0.8594099453603168
12664812000.0 -0.5049565266869325 0.8631447770543028 1.4687925997449603e-17 -6.187286638269786e-17 1.4687925997449603e-17 -6.187286638269786e-17 -0.5049570531705905 0.8631444690508808
12665429333.333334 -0.4985991553521751 0.8668326725971689 1.422451991285485e-17 -6.196832115398272e-17 1.422451991285485e-17 -6.196832115398272e-17 -0.49859968405952565 0.8668323684863147
12666046666.666666 -0.49221485131644205 0.8704737446605646 1.3760507261469364e-17 -6.206030900631888e-17 1.3760507261469364e-17 -6.206030900631888e-17 -0.4922153822187112 0.8704734444583255
12666664000.0 -0.4858039594389978 0.8740677965657162 1.3295913952258016e-17 -6.214882620234956e-17 1.3295913952258016e-17 -6.214882620234956e-17 -0.4858044925072949 0.8740675002879258
12667281333.333334 -0.4793668260154425 0.8776146341736412 1.2830765916203424e-17 -6.223386919812926e-17 1.2830765916203424e-17 -6.223386919812926e-17 -0.47936736122076345 0.8776143418359204
12667898666.666666 -0.4729037987587854 0.8811140658957632 1.236508910485658e-17 -6.231543464324542e-17 1.236508910485658e-17 -6.231543464324542e-17 -0.47290433607201315 0.8811137775135182
12668516000.0 -0.4664152267806855 0.8845659027042443 1.1898909488886874e-17 -6.239351938092957e-17 1.1898909488886874e-17 -6.239351938092957e-17 -0.4664157661725922 0.8845656182926666
12669133333.333334 -0.45990146057271847 0.8879699581421284 1.1432253056658283e-17 -6.246812044815271e-17 1.1432253056658283e-17 -6.246812044815271e-17 -0.4599020020139666 0.8879696777161925
12669750666.666666 -0.45336285198734544 0.891326048333467 1.0965145812760791e-17 -6.253923507571837e-17 1.0965145812760791e-17 -6.253923507571837e-17 -0.4533633954484896 0.8913257719079314
12670368000.0 -0.4467997542189305 0.8946339919932382 1.0497613776583963e-17 -6.26068606883365e-17 1.0497613776583963e-17 -6.26068606883365e-17 -0.44680029967041934 0.894633719582644
