! Parameters = {f0=12700.012000; bw=77.238000; Q=6100.000000; N=10; m_0_1=1.328223; m_1_1=1.158603; m_1_2=1.163035; m_2_2=1.157954; m_2_3=0.799998; m_2_8=0.003475; m_2_9=0.040179; m_3_3=1.156017; m_3_4=0.688527; m_3_7=0.004075; m_3_8=-0.093013; m_3_9=0.003475; m_4_4=1.153092; m_4_5=0.524862; m_4_6=0.007592; m_4_7=-0.113562; m_4_8=0.004075; m_5_5=1.153474; m_5_6=0.932217; m_5_7=0.007592; m_6_6=1.153473; m_6_7=0.525204; m_7_7=1.153106; m_7_8=0.688645; m_8_8=1.156015; m_8_9=0.800311; m_9_9=1.157949; m_9_10=1.164113; m_10_10=1.158593; m_10_11=1.329018}
!
! Created with skrf (http://scikit-rf.org).
# Hz S RI R 50.0 
!freq ReS11 ImS11 ReS21 ImS21 ReS12 ImS12 ReS22 ImS22
12607400000.0 -0.9889566116026776 -0.14820533177709166 1.4303971159661208e-16 -2.004886446072034e-17 1.4303971159661208e-16 -2.004886446072034e-17 -0.9889565079066907 -0.14820602372647
12608017333.333334 -0.9906970876237323 -0.1360855634285385 1.4275362309330154e-16 -2.1807114035098003e-17 1.4275362309330154e-16 -2.1807114035098003e-17 -0.9906969924123195 -0.1360862565617559
12608634666.666666 -0.9922890402772411 -0.1239453934016045 1.424459342623765e-16 -2.3561358369922002e-17 1.424459342623765e-16 -2.3561358369922002e-17 -0.9922889535638455 -0.12394608761463713
12609252000.0 -0.9937322309008805 -0.11178664172684538 1.4211670035428986e-16 -2.531133225243855e-17 1.4211670035428986e-16 -2.531133225243855e-17 -0.9937321526976691 -0.11178733691551752
12609869333.333334 -0.9950264431344525 -0.09961113122039753 1.417659798739677e-16 -2.7056771223102584e-17 1.417659798739677e-16 -2.7056771223102584e-17 -0.995026373452316 -0.09961182728039747
12610486666.666666 -0.9961714829522755 -0.08742068721115741 1.413938345706445e-16 -2.879741161547107e-17 1.413938345706445e-16 -2.879741161547107e-17 -0.9961714218008259 -0.08742138403805297
12611104000.0 -0.997167178692347 -0.07521713726639664 1.4100032942719497e-16 -3.0532990596024175e-17 1.4100032942719497e-16 -3.0532990596024175e-17 -0.9971671260799161 -0.07521783475565096
12611721333.333334 -0.9980133810819991 -0.06300231091859722 1.4058553264900069e-16 -3.226324620374411e-17 1.4058553264900069e-16 -3.226324620374411e-17 -0.9980133370156383 -0.06300300896558435
12612338666.666666 -0.9987099632603313 -0.05077803939060549 1.4014951565230946e-16 -3.3987917389641895e-17 1.4014951565230946e-16 -3.3987917389641895e-17 -0.9987099277458108 -0.050778737890626154
12612956000.0 -0.9992568207972203 -0.038546155321098265 1.3969235305211983e-16 -3.570674405608987e-17 1.3969235305211983e-16 -3.570674405608987e-17 -0.9992567938390267 -0.03854685416939547
12613573333.333334 -0.9996538717089491 -0.02630849249034809 1.3921412264959386e-16 -3.74194670959586e-17 1.3921412264959386e-16 -3.74194670959586e-17 -0.999653853310286 -0.026309191582122898
12614190666.666666 -0.999901056470528 -0.014066885544738958 1.3871490541897122e-16 -3.912582843166336e-17 1.3871490541897122e-16 -3.912582843166336e-17 -0.9999010466333158 -0.014067584775166212
12614808000.0 -0.9999983380246044 -0.0018231697220034923 1.381947854940206e-16 -4.0825571053979157e-17 1.381947854940206e-16 -4.0825571053979157e-17 -0.9999983367494811 -0.0018238689862474997
12615425333.333334 -0.9999457017870227 0.010420819423940632 1.3765385015401055e-16 -4.251843906070198e-17 1.3765385015401055e-16 -4.251843906070198e-17 -0.9999457090733399 0.010420120230710374
12616042666.666666 -0.9997431556490046 0.022663246298287 1.3709218980920867e-16 -4.420417769512277e-17 1.3709218980920867e-16 -4.420417769512277e-17 -0.9997431714948339 0.022662547280880102
12616660000.0 -0.9993907299759751 0.034902275540358775 1.3650989798591048e-16 -4.5882533384312156e-17 1.3650989798591048e-16 -4.5882533384312156e-17 -0.9993907543781029 0.03490157680354822
12617277333.333334 -0.9988884776029993 0.04713607229893271 1.3590707131099853e-16 -4.7553253777213954e-17 1.3590707131099853e-16 -4.7553253777213954e-17 -0.9988885105569303 0.04713537394743917
12617894666.666666 -0.998236473826879 0.059362802507004264 1.3528380949604694e-16 -4.921608778251135e-17 1.3528380949604694e-16 -4.921608778251135e-17 -0.9982365153268368 0.05936210464548041
12618512000.0 -0.9974348163948347 0.07158063315737181 1.346402153209315e-16 -5.08707856063711e-17 1.346402153209315e-16 -5.08707856063711e-17 -0.9974348664337614 0.0715799358903866
12619129333.333334 -0.996483625489889 0.08378773257664267 1.3397639461703645e-16 -5.2517098789822123e-17 1.3397639461703645e-16 -5.2517098789822123e-17 -0.9964836840594482 0.08378703600866577
12619746666.666666 -0.9953830437128223 0.09598227070040181 1.332924562499434e-16 -5.4154780246081824e-17 1.332924562499434e-16 -5.4154780246081824e-17 -0.9953831108033999 0.09598157493578788
12620364000.0 -0.9941332360607846 0.10816241934757083 1.3258851210169261e-16 -5.578358429758172e-17 1.3258851210169261e-16 -5.578358429758172e-17 -0.9941333116614889 0.10816172449054377
12620981333.333334 -0.9927343899026077 0.12032635249397583 1.3186467705261473e-16 -5.74032667127161e-17 1.3186467705261473e-16 -5.74032667127161e-17 -0.9927344740012733 0.12032565864861346
12621598666.666666 -0.9911867149506665 0.13247224654663944 1.3112106896266914e-16 -5.901358474246172e-17 1.3112106896266914e-16 -5.901358474246172e-17 -0.9911868075338547 0.1324715538168576
12622216000.0 -0.9894904432294512 0.14459828061699984 1.303578086523689e-16 -6.06142971566829e-17 1.303578086523689e-16 -6.06142971566829e-17 -0.9894905442824526 0.144597589106537
12622833333.333334 -0.987645829040788 0.1567026367938382 1.295750198832481e-16 -6.220516428022485e-17 1.295750198832481e-16 -6.220516428022485e-17 -0.9876459385476265 0.15670194660624007
12623450666.666666 -0.9856531489257405 0.1687835004157051 1.2877282933791085e-16 -6.378594802871233e-17 1.2877282933791085e-16 -6.378594802871233e-17 -0.9856532668691731 0.1687828116543089
12624068000.0 -0.9835127016231094 0.1808390603432239 1.2795136659960118e-16 -6.535641194418085e-17 1.2795136659960118e-16 -6.535641194418085e-17 -0.9835128279846292 0.18083837311114265
12624685333.333334 -0.9812248080246276 0.19286750923066695 1.2711076413138244e-16 -6.691632123035802e-17 1.2711076413138244e-16 -6.691632123035802e-17 -0.9812249427844681 0.19286682363077454
12625302666.666666 -0.9787898111269603 0.20486704379635184 1.262511572548822e-16 -6.846544278769457e-17 1.262511572548822e-16 -6.846544278769457e-17 -0.9787899542641005 0.2048663599312678
12625920000.0 -0.9762080759801264 0.2168358650938233 1.253726841285722e-16 -7.000354524819087e-17 1.253726841285722e-16 -7.000354524819087e-17 -0.9762082274722879 0.21683518306589641
12626537333.333334 -0.9734799896329257 0.22877217878073852 1.2447548572568148e-16 -7.153039900984715e-17 1.2447548572568148e-16 -7.153039900984715e-17 -0.9734801494565819 0.2287714986920326
12627154666.666666 -0.9706059610748224 0.24067419538834586 1.2355970581165064e-16 -7.304577627090289e-17 1.2355970581165064e-16 -7.304577627090289e-17 -0.9706061292051991 0.24067351734062378
12627772000.0 -0.9675864211746166 0.2525401305897847 1.2262549092116876e-16 -7.454945106378836e-17 1.2262549092116876e-16 -7.454945106378836e-17 -0.9675865975856974 0.2525394546844937
12628389333.333334 -0.9644218226159446 0.264368205467202 1.216729903348418e-16 -7.604119928871495e-17 1.216729903348418e-16 -7.604119928871495e-17 -0.9644220072804734 0.2643675318054578
12629006666.666666 -0.9611126398292791 0.2761566467789668 1.207023560553899e-16 -7.752079874706859e-17 1.207023560553899e-16 -7.752079874706859e-17 -0.9611128327187671 0.2761559754615394
12629624000.0 -0.9576593689209283 0.28790368722504456 1.1971374278349708e-16 -7.898802917441164e-17 1.1971374278349708e-16 -7.898802917441164e-17 -0.9576595700056556 0.2879030183523427
12630241333.333334 -0.9540625275985785 0.29960756571224906 1.187073078932223e-16 -8.044267227323613e-17 1.187073078932223e-16 -8.044267227323613e-17 -0.9540627368475988 0.2996068993843049
12630858666.666666 -0.950322655093775 0.31126652761793483 1.1768321140704148e-16 -8.188451174536442e-17 1.1768321140704148e-16 -8.188451174536442e-17 -0.950322872474921 0.31126586393438904
12631476000.0 -0.9464403120808969 0.32287882505364285 1.166416159704565e-16 -8.331333332409018e-17 1.166416159704565e-16 -8.331333332409018e-17 -0.9464405375607883 0.322878164113731
12632093333.333334 -0.9424160805933389 0.3344427171264119 1.1558268682627236e-16 -8.472892480591823e-17 1.1558268682627236e-16 -8.472892480591823e-17 -0.94241631413738 0.334442059028947
12632710666.666666 -0.9382505639360987 0.34595647020022663 1.1450659178844441e-16 -8.613107608204126e-17 1.1450659178844441e-16 -8.613107608204126e-17 -0.9382508055084923 0.34595581504358736
12633328000.0 -0.933944386595333 0.3574183581559223 1.1341350121554669e-16 -8.751957916948205e-17 1.1341350121554669e-16 -8.751957916948205e-17 -0.9339446361590792 0.35741770603803596
12633945333.333334 -0.9294981941448186 0.36882666264971864 1.123035879838984e-16 -8.889422824185521e-17 1.123035879838984e-16 -8.889422824185521e-17 -0.9294984516617251 0.36882601366804796
12634562666.666666 -0.9249126531490812 0.3801796733710708 1.111770274602835e-16 -9.0254819659834e-17 1.111770274602835e-16 -9.0254819659834e-17 -0.9249129185797665 0.3801790276225988
12635180000.0 -0.9201884510635404 0.39147568829889157 1.100339974743176e-16 -9.160115200125397e-17 1.100339974743176e-16 -9.160115200125397e-17 -0.9201887243674396 0.3914750458801067
12635797333.333334 -0.9153262961313755 0.40271301395687 1.0887467829044563e-16 -9.293302609087343e-17 1.0887467829044563e-16 -9.293302609087343e-17 -0.9153265772667485 0.40271237496375234
12636414666.666666 -0.9103269172774561 0.41388996566712183 1.0769925257959389e-16 -9.425024502976587e-17 1.0769925257959389e-16 -9.425024502976587e-17 -0.9103272062013936 0.41388933019512925
12637032000.0 -0.9051910639989253 0.4250048678030656 1.0650790539044058e-16 -9.555261422438531e-17 1.0650790539044058e-16 -9.555261422438531e-17 -0.9051913606673535 0.42500423594711795
12637649333.333334 -0.8999195062529244 0.43605605404041914 1.0530082412036279e-16 -9.683994141523899e-17 1.0530082412036279e-16 -9.683994141523899e-17 -0.8999198106206123 0.43605542589488494
12638266666.666666 -0.8945130343411412 0.447041867607065 1.0407819848602447e-16 -9.811203670520988e-17 1.0407819848602447e-16 -9.811203670520988e-17 -0.8945133463617091 0.4470412432657478
12638884000.0 -0.88897245879133 0.4579606615314301 1.0284022049362884e-16 -9.936871258750248e-17 1.0284022049362884e-16 -9.936871258750248e-17 -0.8889727784172551 0.4579600410875536
12639501333.333334 -0.8832986102357855 0.4688107988894215 1.0158708440881441e-16 -1.0060978397323488e-16 1.0158708440881441e-16 -1.0060978397323488e-16 -0.8832989374184099 0.46881018243561645
12640118666.666666 -0.8774923392869095 0.4795906530496559 1.0031898672628506e-16 -1.018350682185863e-16 1.0031898672628506e-16 -1.018350682185863e-16 -0.8774926739764467 0.47959004067794553
12640736000.0 -0.8715545164094043 0.4902986079178454 9.903612613897453e-17 -1.0304438515169892e-16 9.903612613897453e-17 -1.0304438515169892e-16 -0.871554858554948 0.4902979997196323
12641353333.333334 -0.8654860317902385 0.5009330581782312 9.773870350709295e-17 -1.0423755709899617e-16 9.773870350709295e-17 -1.0423755709899617e-16 -0.8654863813397685 0.5009324542442828
12641970666.666666 -0.8592877952047655 0.5114924095350211 9.642692182665029e-17 -1.0541440891130675e-16 9.642692182665029e-17 -1.0541440891130675e-16 -0.8592881521051585 0.5114918099554575
12642588000.0 -0.8529607358805406 0.521975078951031 9.510098619779156e-17 -1.0657476798947795e-16 9.510098619779156e-17 -1.0657476798947795e-16 -0.8529611000775758 0.5219744838153108
12643205333.333334 -0.8465058023580003 0.5323794948850367 9.376110379280329e-17 -1.0771846430961024e-16 9.376110379280329e-17 -1.0771846430961024e-16 -0.8465061737963678 0.5323789042819427
12643822666.666666 -0.8399239623481384 0.5427040975275682 9.240748382378224e-17 -1.0884533044792387e-16 9.240748382378224e-17 -1.0884533044792387e-16 -0.8399243409714483 0.5427035115451956
12644440000.0 -0.8332162025875763 0.5529473390345117 9.104033751004841e-17 -1.099552016051824e-16 9.104033751004841e-17 -1.099552016051824e-16 -0.8332165883383684 0.5529467577602549
12645057333.333334 -0.8263835286906266 0.5631076837591873 8.965987804524177e-17 -1.1104791563072938e-16 8.965987804524177e-17 -1.1104791563072938e-16 -0.8263839215103764 0.5631071072797257
12645674666.666666 -0.8194269649984516 0.5731836084826878 8.826632056415348e-17 -1.1212331304609483e-16 8.826632056415348e-17 -1.1212331304609483e-16 -0.819427364827581 0.5731830368839737
12646292000.0 -0.8123475544254464 0.5831736026423048 8.685988210920444e-17 -1.1318123706824148e-16 8.685988210920444e-17 -1.1318123706824148e-16 -0.8123479612033327 0.5831730360095506
12646909333.333334 -0.805146358303082 0.5930761685577104 8.544078159677551e-17 -1.1422153363229227e-16 8.544078159677551e-17 -1.1422153363229227e-16 -0.8051467719680665 0.5930756069753758
12647526666.666666 -0.7978244562206472 0.6028898216556963 8.400923978314365e-17 -1.1524405141393046e-16 8.400923978314365e-17 -1.1524405141393046e-16 -0.797824876710045 0.6028892652074754
12648144000.0 -0.7903829458633442 0.612613090692804 8.256547923020608e-17 -1.162486418513313e-16 8.256547923020608e-17 -1.162486418513313e-16 -0.7903833731134536 0.6126125394616138
12648761333.333334 -0.7828229428478793 0.6222445179756865 8.110972427095086e-17 -1.1723515916666222e-16 8.110972427095086e-17 -1.1723515916666222e-16 -0.7828233767939907 0.6222439720436527
12649378666.666666 -0.7751455805552142 0.6317826595796443 7.964220097465791e-17 -1.1820346038715981e-16 7.964220097465791e-17 -1.1820346038715981e-16 -0.775146021131621 0.6317821190280908
12649996000.0 -0.7673520099604778 0.64122608556532 7.816313711183331e-17 -1.1915340536578406e-16 7.816313711183331e-17 -1.1915340536578406e-16 -0.7673524571004863 0.6412255504747567
12650613333.333334 -0.7594433994605346 0.6505733801929149 7.6672762118925e-17 -1.2008485680141615e-16 7.6672762118925e-17 -1.2008485680141615e-16 -0.7594438530964728 0.6505728506430245
12651230666.666666 -0.751420934698879 0.6598231421343701 7.517130706280321e-17 -1.209976802586148e-16 7.517130706280321e-17 -1.209976802586148e-16 -0.7514213947621078 0.6598226182039966
12651848000.0 -0.7432858183876979 0.6689739846836642 7.365900460495825e-17 -1.2189174418695831e-16 7.365900460495825e-17 -1.2189174418695831e-16 -0.7432862848086225 0.6689734664508029
12652465333.333334 -0.7350392701277335 0.678024535964516 7.21360889655357e-17 -1.227669199399006e-16 7.21360889655357e-17 -1.227669199399006e-16 -0.7350397428358122 0.6780240235062996
12653082666.666666 -0.7266825262254631 0.6869734391360319 7.06027958871176e-17 -1.2362308179319792e-16 7.06027958871176e-17 -1.2362308179319792e-16 -0.7266830051492181 0.6869729325287198
12653700000.0 -0.718216839507463 0.6958193525964335 6.905936259825097e-17 -1.2446010696290318e-16 6.905936259825097e-17 -1.2446010696290318e-16 -0.7182173245744922 0.6958188519154008
12654317333.333334 -0.7096434791330538 0.7045609501836897 6.75060277768495e-17 -1.2527787562285938e-16 6.75060277768495e-17 -1.2527787562285938e-16 -0.7096439702700413 0.704560455503416
12654934666.666666 -0.7009637304036633 0.7131969213747276 6.594303151330756e-17 -1.2607627092178128e-16 6.594303151330756e-17 -1.2607627092178128e-16 -0.7009642275363903 0.713196432768785
12655552000.0 -0.6921788945701269 0.7217259714818951 6.437061527342789e-17 -1.268551789998699e-16 6.437061527342789e-17 -1.268551789998699e-16 -0.6921793976234832 0.721725489022939
12656169333.333334 -0.6832902886379753 0.7301468218467024 6.278902186124103e-17 -1.2761448900492136e-16 6.278902186124103e-17 -1.2761448900492136e-16 -0.6832907975359702 0.7301463456064589
12656786666.666666 -0.6742992451695844 0.7384582100319136 6.119849538149551e-17 -1.283540931080447e-16 6.119849538149551e-17 -1.283540931080447e-16 -0.674299759835358 0.7384577400811685
12657404000.0 -0.6652071120846024 0.7466588900106074 5.959928120207273e-17 -1.290738865188577e-16 5.959928120207273e-17 -1.290738865188577e-16 -0.6652076324404385 0.7466584264191989
12658021333.333334 -0.6560152524578121 0.754747632353041 5.799162591617799e-17 -1.2977376750024e-16 5.799162591617799e-17 -1.2977376750024e-16 -0.6560157784251497 0.7547471751898466
12658638666.666666 -0.6467250443148886 0.762723224410869 5.637577730439274e-17 -1.3045363738260016e-16 5.637577730439274e-17 -1.3045363738260016e-16 -0.646725575814332 0.7627227737437956
12659256000.0 -0.6373378804256148 0.7705844704991105 5.4751984296487086e-17 -1.3111340057770308e-16 5.4751984296487086e-17 -1.3111340057770308e-16 -0.6373384173769459 0.7705840263950828
12659873333.333334 -0.6278551680951608 0.7783301920753211 5.312049693317627e-17 -1.3175296459197918e-16 5.312049693317627e-17 -1.3175296459197918e-16 -0.6278557104173548 0.778329754600277
12660490666.666666 -0.6182783289533537 0.7859592279160903 5.148156632767563e-17 -1.3237224003937955e-16 5.148156632767563e-17 -1.3237224003937955e-16 -0.6182788765645865 0.7859587971349652
12661108000.0 -0.6086087987409916 0.7934704342915715 4.9835444627031624e-17 -1.3297114065378214e-16 4.9835444627031624e-17 -1.3297114065378214e-16 -0.6086093515586545 0.7934700102682912
12661725333.333334 -0.5988480270952469 0.8008626851364338 4.8182384973472657e-17 -1.3354958330085575e-16 4.8182384973472657e-17 -1.3354958330085575e-16 -0.598848585035959 0.8008622679339049
12662342666.666666 -0.5889974773318475 0.8081348722190675 4.652264146547313e-17 -1.3410748798950168e-16 4.652264146547313e-17 -1.3410748798950168e-16 -0.5889980403114682 0.8081344618991685
12662960000.0 -0.5790586262259231 0.8152859053075522 4.4856469118770254e-17 -1.346447778827815e-16 4.4856469118770254e-17 -1.346447778827815e-16 -0.5790591941595646 0.8152855019311235
12663577333.333334 -0.5690329637905666 0.8223147123331384 4.3184123827230127e-17 -1.351613793083707e-16 4.3184123827230127e-17 -1.351613793083707e-16 -0.5690335365926065 0.8223143159599735
12664194666.666666 -0.5589219930534524 0.829220239550968 4.150586232359927e-17 -1.3565722176852577e-16 4.150586232359927e-17 -1.3565722176852577e-16 -0.5589225706375469 0.829219850239805
12664812000.0 -0.5487272298315065 0.8360014516980522 3.9821942140144366e-17 -1.361322379495658e-16 3.9821942140144366e-17 -1.361322379495658e-16 -0.5487278121106033 0.836001069506564
12665429333.333334 -0.538450202503633 0.8426573321484867 3.813262156918125e-17 -1.3658636373086552e-16 3.813262156918125e-17 -1.3658636373086552e-16 -0.538450789389985 0.8426569571332749
12666046666.666666 -0.5280924517817288 0.8491868830657777 3.6438159623527613e-17 -1.370195381933549e-16 3.6438159623527613e-17 -1.370195381933549e-16 -0.5280930431869066 0.8491865152823618
12666664000.0 -0.5176555304793167 0.8555891255526726 3.473881599679915e-17 -1.3743170362754437e-16 3.473881599679915e-17 -1.3743170362754437e-16 -0.5176561263142214 0.8555887650554816
12667281333.333334 -0.5071410032793274 0.8618630997975523 3.303485102371492e-17 -1.378228055410336e-16 3.303485102371492e-17 -1.378228055410336e-16 -0.507141603454206 0.8618627466399197
12667898666.666666 -0.49655044649907265 0.8680078652186171 3.132652564022749e-17 -1.38192792665553e-16 3.132652564022749e-17 -1.38192792665553e-16 -0.4965510509235286 0.8680075194527684
12668516000.0 -0.4858854478539157 0.8740225006048803 2.961410134361572e-17 -1.385416169635009e-16 2.961410134361572e-17 -1.385416169635009e-16 -0.48588605643692606 0.8740221622819309
12669133333.333334 -0.47514760621969426 0.8799061042540294 2.78978401525436e-17 -1.3886923363398074e-16 2.78978401525436e-17 -1.3886923363398074e-16 -0.4751482188696202 0.8799057734239709
12669750666.666666 -0.46433853139252385 0.8856577941078846 2.6178004566980468e-17 -1.3917560111835955e-16 2.6178004566980468e-17 -1.3917560111835955e-16 -0.4643391480171263 0.885657470819582
12670368000.0 -0.4534598438476816 0.8912767078845071 2.4454857528118777e-17 -1.3946068110531956e-16 2.4454857528118777e-17 -1.3946068110531956e-16 -0.45346046435413506 0.8912763921856911
