! Parameters = {f0=12700.012000; bw=77.238000; Q=6100.000000; N=10; m_0_1=1.326021; m_1_1=1.125570; m_1_2=1.160833; m_2_2=1.124921; m_2_3=0.797796; m_2_8=0.003365; m_2_9=0.040069; m_3_3=1.122984; m_3_4=0.686325; m_3_7=0.003965; m_3_8=-0.093123; m_3_9=0.003365; m_4_4=1.120059; m_4_5=0.522660; m_4_6=0.007482; m_4_7=-0.113672; m_4_8=0.003965; m_5_5=1.120441; m_5_6=0.930015; m_5_7=0.007482; m_6_6=1.120440; m_6_7=0.523002; m_7_7=1.120073; m_7_8=0.686443; m_8_8=1.122982; m_8_9=0.798109; m_9_9=1.124916; m_9_10=1.161911; m_10_10=1.125560; m_10_11=1.326816}
!
! Created with skrf (http://scikit-rf.org).
# Hz S RI R 50.0 
!freq ReS11 ImS11 ReS21 ImS21 ReS12 ImS12 ReS22 ImS22
12607400000.0 -0.09148350016756772 -0.9958065922642302 5.300062470105201e-17 1.3284266593328797e-16 5.300062470105201e-17 1.3284266593328797e-16 -0.0914828045764158 -0.9958066561670698
12608017333.333334 -0.10360441963788079 -0.9946185822873536 5.461558211547106e-17 1.321566053195714e-16 5.461558211547106e-17 1.321566053195714e-16 -0.10360372491058674 -0.9946186546533594
12608634666.666666 -0.11570997166323886 -0.9932830424695172 5.622168778706766e-17 1.314509243730657e-16 5.622168778706766e-17 1.314509243730657e-16 -0.11570927790276053 -0.9932831232871266
12609252000.0 -0.12779836065059283 -0.9918001709088526 5.781870350109865e-17 1.30725736964669e-16 5.781870350109865e-17 1.30725736964669e-16 -0.12779766795973468 -0.9918002601652516
12609869333.333334 -0.13986779355279685 -0.990170187556907 5.940639250376429e-17 1.299811598555693e-16 5.940639250376429e-17 1.299811598555693e-16 -0.13986710203419472 -0.990170285238031
12610486666.666666 -0.15191648013420114 -0.9883933341860629 6.098451953720485e-17 1.2921731267856892e-16 6.098451953720485e-17 1.2921731267856892e-16 -0.15191578989030685 -0.9883934402765993
12611104000.0 -0.16394263323670086 -0.9864698743536088 6.255285087437293e-17 1.2843431791893246e-16 6.255285087437293e-17 1.2843431791893246e-16 -0.163941944369767 -0.986469988836998
12611721333.333334 -0.17594446904434322 -0.9844000933627103 6.411115435353317e-17 1.2763230089487289e-16 6.411115435353317e-17 1.2763230089487289e-16 -0.17594378165640842 -0.9844002162211515
12612338666.666666 -0.1879202073481151 -0.9821842982200696 6.565919941260094e-17 1.2681138973757749e-16 6.565919941260094e-17 1.2681138973757749e-16 -0.18791952154098843 -0.9821844294345197
12612956000.0 -0.19986807181019267 -0.9798228175903456 6.719675712322314e-17 1.2597171537082e-16 6.719675712322314e-17 1.2597171537082e-16 -0.19986738768543919 -0.9798229571405265
12613573333.333334 -0.21178629022694836 -0.9773160017474979 6.872360022453491e-17 1.2511341149019387e-16 6.872360022453491e-17 1.2511341149019387e-16 -0.21178560788587303 -0.9773161496118942
12614190666.666666 -0.22367309479229142 -0.9746642225227343 7.023950315672081e-17 1.2423661454190104e-16 7.023950315672081e-17 1.2423661454190104e-16 -0.22367241433592525 -0.9746643786786019
12614808000.0 -0.2355267223596613 -0.9718678732494062 7.174424209428875e-17 1.2334146370114504e-16 7.174424209428875e-17 1.2334146370114504e-16 -0.23552604388874546 -0.9718680376727716
12615425333.333334 -0.24734541470349508 -0.9689273687046744 7.32375949790382e-17 1.2242810085013885e-16 7.32375949790382e-17 1.2242810085013885e-16 -0.24734473831846684 -0.9689275413703422
12616042666.666666 -0.259127418780217 -0.965843145047947 7.471934155279933e-17 1.2149667055568746e-16 7.471934155279933e-17 1.2149667055568746e-16 -0.25912674458119445 -0.9658433259295012
12616660000.0 -0.2708709869880423 -0.9626156597562356 7.618926338985304e-17 1.205473200463948e-16 7.618926338985304e-17 1.205473200463948e-16 -0.27087031507480874 -0.9626158488260422
12617277333.333334 -0.28257437742644215 -0.9592453915562305 7.764714392906641e-17 1.1958019918947722e-16 7.764714392906641e-17 1.1958019918947722e-16 -0.2825737078984332 -0.9592455887854471
12617894666.666666 -0.29423585415416303 -0.9557328403534002 7.909276850574615e-17 1.185954604671842e-16 7.909276850574615e-17 1.185954604671842e-16 -0.29423518711044994 -0.9557330457119741
12618512000.0 -0.30585368744723124 -0.9520785271576812 8.052592438321648e-17 1.1759325895281696e-16 8.052592438321648e-17 1.1759325895281696e-16 -0.3058530229865075 -0.9520787406143586
12619129333.333334 -0.31742615405492214 -0.9482829940063827 8.194640078401162e-17 1.165737522864244e-16 8.194640078401162e-17 1.165737522864244e-16 -0.31742549227548833 -0.948283215528711
12619746666.666666 -0.32895153745582845 -0.9443468038836448 8.335398892087533e-17 1.1553710065004567e-16 8.335398892087533e-17 1.1553710065004567e-16 -0.3289508784555781 -0.944347033437979
12620364000.0 -0.3404281281123854 -0.940270540636952 8.474848202736437e-17 1.1448346674263543e-16 8.474848202736437e-17 1.1448346674263543e-16 -0.34042747198879003 -0.9402707781884589
12620981333.333334 -0.35185422372412073 -0.936054808890646 8.6129675388161e-17 1.1341301575460645e-16 8.6129675388161e-17 1.1341301575460645e-16 -0.35185357057421596 -0.9360550544033097
12621598666.666666 -0.3632281294806119 -0.9317002339560851 8.749736636907379e-17 1.1232591534199912e-16 8.749736636907379e-17 1.1232591534199912e-16 -0.3632274794009824 -0.9317004873927122
12622216000.0 -0.3745481583125231 -0.927207461739014 8.885135444671366e-17 1.1122233560028958e-16 8.885135444671366e-17 1.1122233560028958e-16 -0.374547511399289 -0.9272077230612393
12622833333.333334 -0.3858126311421128 -0.9225771586436595 9.019144123783144e-17 1.1010244903784977e-16 9.019144123783144e-17 1.1010244903784977e-16 -0.385811987490915 -0.9225774278119524
12623450666.666666 -0.3970198771319706 -0.9178100114740101 9.151743052830308e-17 1.0896643054906912e-16 9.151743052830308e-17 1.0896643054906912e-16 -0.39701923683795715 -0.9178102884476804
12624068000.0 -0.4081682339331663 -0.9129067273318167 9.282912830183405e-17 1.0781445738708304e-16 9.282912830183405e-17 1.0781445738708304e-16 -0.4081675970909776 -0.9129070120690197
12624685333.333334 -0.41925604793176685 -0.9078680335117245 9.412634276828016e-17 1.0664670913618874e-16 9.412634276828016e-17 1.0664670913618874e-16 -0.41925541463552213 -0.9078683259694681
12625302666.666666 -0.43028167449377763 -0.9026946773935469 9.540888439159032e-17 1.0546336768395263e-16 9.540888439159032e-17 1.0546336768395263e-16 -0.43028104483706175 -0.9026949775277
12625920000.0 -0.44124347820965826 -0.8973874263311534 9.6676565917505e-17 1.0426461719288749e-16 9.6676565917505e-17 1.0426461719288749e-16 -0.4412428522855066 -0.897387734096449
12626537333.333334 -0.45213983313633116 -0.891947067538909 9.792920240077072e-17 1.0305064407191448e-16 9.792920240077072e-17 1.0305064407191448e-16 -0.4521392110372162 -0.8919473828889528
12627154666.666666 -0.4629691230387153 -0.8863744079747401 9.916661123208775e-17 1.0182163694741796e-16 9.916661123208775e-17 1.0182163694741796e-16 -0.4629685048565333 -0.8863747308620179
12627772000.0 -0.4737297416294061 -0.8806702742204622 1.0038861216469034e-16 1.005777866339786e-16 1.0038861216469034e-16 1.005777866339786e-16 -0.4737291274554633 -0.8806706045963459
12628389333.333334 -0.4844200928067576 -0.8748355123592668 1.0159502734049041e-16 9.931928610486044e-17 1.0159502734049041e-16 9.931928610486044e-17 -0.48441948273175695 -0.8748358501740228
12629006666.666666 -0.4950385908919283 -0.8688709878500614 1.0278568131594849e-16 9.804633046208753e-17 1.0278568131594849e-16 9.804633046208753e-17 -0.4950379850059564 -0.8688713330528581
12629624000.0 -0.5055836608637351 -0.8627775853992918 1.0396040108748093e-16 9.675911690630445e-17 1.0396040108748093e-16 9.675911690630445e-17 -0.5055830592562474 -0.8627779379382055
12630241333.333334 -0.5160537385925918 -0.8565562088295298 1.0511901611656853e-16 9.545784470625123e-17 1.0511901611656853e-16 9.545784470625123e-17 -0.5160531413524015 -0.8565565686515553
12630858666.666666 -0.5264472710721746 -0.8502077809456167 1.0626135835441043e-16 9.41427151680193e-17 1.0626135835441043e-16 9.41427151680193e-17 -0.5264466782874374 -0.8502081479966723
12631476000.0 -0.5367627166502339 -0.8437332433975026 1.0738726226628251e-16 9.28139316039134e-17 1.0738726226628251e-16 9.28139316039134e-17 -0.5367621284084374 -0.8437336176224416
12632093333.333334 -0.5469985452567597 -0.8371335565408883 1.0849656485540155e-16 9.147169930114514e-17 1.0849656485540155e-16 9.147169930114514e-17 -0.5469979616447083 -0.8371339378835039
12632710666.666666 -0.5571532386312477 -0.8304096992945834 1.0958910568648913e-16 9.011622549013908e-17 1.0958910568648913e-16 9.011622549013908e-17 -0.5571526597350506 -0.8304100876976188
12633328000.0 -0.5672252905479434 -0.8235626689952685 1.1066472690891041e-16 8.87477193125908e-17 1.1066472690891041e-16 8.87477193125908e-17 -0.5672247164530023 -0.8235630644004257
12633945333.333334 -0.5772132070389755 -0.8165934812497526 1.117232732793799e-16 8.736639178929464e-17 1.117232732793799e-16 8.736639178929464e-17 -0.5772126378299713 -0.8165938835977006
12634562666.666666 -0.5871155066162352 -0.8095031697841395 1.1276459218432564e-16 8.597245578762964e-17 1.1276459218432564e-16 8.597245578762964e-17 -0.5871149423771166 -0.8095035790145237
12635180000.0 -0.5969307204909142 -0.8022927862906449 1.1378853366180973e-16 8.45661259888268e-17 1.1378853366180973e-16 8.45661259888268e-17 -0.5969301613048833 -0.8022932023420949
12635797333.333334 -0.6066573927915717 -0.7949634002714474 1.147949504230475e-16 8.314761885497058e-17 1.147949504230475e-16 8.314761885497058e-17 -0.6066568387410741 -0.7949638230815881
12636414666.666666 -0.6162940807798089 -0.7875160988802571 1.1578369787352833e-16 8.17171525957294e-17 1.1578369787352833e-16 8.17171525957294e-17 -0.6162935319465203 -0.7875165283857168
12637032000.0 -0.6258393550645858 -0.779951986760821 1.1675463413371045e-16 8.027494713485212e-17 1.1675463413371045e-16 8.027494713485212e-17 -0.6258388115293999 -0.7799524228972409
12637649333.333334 -0.6352917998139678 -0.7722721858832794 1.1770762005931347e-16 7.882122407640017e-17 1.1770762005931347e-16 7.882122407640017e-17 -0.6352912616569844 -0.7722726285853234
12638266666.666666 -0.6446500129653134 -0.7644778353776066 1.186425192611668e-16 7.735620667077685e-17 1.186425192611668e-16 7.735620667077685e-17 -0.6446494802658271 -0.7644782845789717
12638884000.0 -0.6539126064331706 -0.7565700913646972 1.195591981246666e-16 7.588011978047519e-17 1.195591981246666e-16 7.588011978047519e-17 -0.653912079269659 -0.7565705469981231
12639501333.333334 -0.663078206315149 -0.7485501267849022 1.2045752582878833e-16 7.439318984562684e-17 1.2045752582878833e-16 7.439318984562684e-17 -0.663077684765261 -0.7485505887821806
12640118666.666666 -0.6721454530956031 -0.7404191312241424 1.2133737436465724e-16 7.289564484935183e-17 1.2133737436465724e-16 7.289564484935183e-17 -0.6721449372361471 -0.7404195995161282
12640736000.0 -0.6811130018477731 -0.7321783107370253 1.2219861855375485e-16 7.138771428277891e-17 1.2219861855375485e-16 7.138771428277891e-17 -0.6811124917547053 -0.7321787852536455
12641353333.333334 -0.689979522432512 -0.7238288876686336 1.2304113606557935e-16 6.986962911004314e-17 1.2304113606557935e-16 6.986962911004314e-17 -0.6899790181809274 -0.7238293683389004
12641970666.666666 -0.6987436996961777 -0.715372100472689 1.238648074349937e-16 6.834162173286771e-17 1.238648074349937e-16 6.834162173286771e-17 -0.6987432013602966 -0.7153725872247078
12642588000.0 -0.7074042336655335 -0.7068092035280019 1.246695160790521e-16 6.680392595508545e-17 1.246695160790521e-16 6.680392595508545e-17 -0.7074037413186921 -0.7068096962889836
12643205333.333334 -0.7159598397404513 -0.6981414669525335 1.2545514831340923e-16 6.525677694692545e-17 1.2545514831340923e-16 6.525677694692545e-17 -0.7159593534550903 -0.6981419656488049
12643822666.666666 -0.724409248884676 -0.6893701764147822 1.2622159336830986e-16 6.37004112090654e-17 1.2622159336830986e-16 6.37004112090654e-17 -0.7244087687323296 -0.6893706809717965
12644440000.0 -0.732751207813895 -0.6804966329432401 1.269687434040995e-16 6.213506653656182e-17 1.269687434040995e-16 6.213506653656182e-17 -0.7327507338651809 -0.6804971432855886
12645057333.333334 -0.7409844791816013 -0.6715221527334598 1.276964935263021e-16 6.056098198257479e-17 1.276964935263021e-16 6.056098198257479e-17 -0.7409840115062107 -0.6715226687848839
12645674666.666666 -0.749107841762763 -0.6624480669526812 1.2840474180025396e-16 5.897839782190716e-17 1.2840474180025396e-16 5.897839782190716e-17 -0.7491073804294492 -0.6624485886360819
12646292000.0 -0.7571200906349432 -0.6532757215424001 1.2909338926529785e-16 5.73875555143478e-17 1.2909338926529785e-16 5.73875555143478e-17 -0.757119635711513 -0.6532762487798518
12646909333.333334 -0.7650200373569298 -0.6440064770188341 1.297623399484846e-16 5.578869766793933e-17 1.297623399484846e-16 5.578869766793933e-17 -0.7650195889102317 -0.6440070097315939
12647526666.666666 -0.7728065101450533 -0.6346417082710778 1.3041150087785594e-16 5.418206800200649e-17 1.3041150087785594e-16 5.418206800200649e-17 -0.7728060682409692 -0.634642246379599
12648144000.0 -0.7804783540471047 -0.6251828043570381 1.3104078209526743e-16 5.25679113100392e-17 1.3104078209526743e-16 5.25679113100392e-17 -0.7804779187505396 -0.6251833477809813
12648761333.333334 -0.7880344311135173 -0.6156311682975477 1.3165009666873406e-16 5.0946473422472786e-17 1.3165009666873406e-16 5.0946473422472786e-17 -0.7880340024883897 -0.615631716955793
12649378666.666666 -0.7954736205661078 -0.6059882168683292 1.3223936070432294e-16 4.93180011693123e-17 1.3223936070432294e-16 4.93180011693123e-17 -0.7954731986753406 -0.605988770678988
12649996000.0 -0.8027948189645281 -0.5962553803895764 1.3280849335760575e-16 4.7682742342564846e-17 1.3280849335760575e-16 4.7682742342564846e-17 -0.80279440387004 -0.5962559392700051
12650613333.333334 -0.8099969403697476 -0.586434102514048 1.3335741684461437e-16 4.604094565862775e-17 1.3335741684461437e-16 4.604094565862775e-17 -0.8099965321324415 -0.5864346663808575
12651230666.666666 -0.8170789165051757 -0.5765258400128624 1.3388605645235343e-16 4.439286072050045e-17 1.3388605645235343e-16 4.439286072050045e-17 -0.8170785151849337 -0.5765264087819338
12651848000.0 -0.8240396969152393 -0.5665320625592596 1.3439434054884947e-16 4.273873797986172e-17 1.3439434054884947e-16 4.273873797986172e-17 -0.8240393025709102 -0.5665326361457538
12652465333.333334 -0.8308782491210075 -0.5564542525108584 1.3488220059270976e-16 4.1078828699106727e-17 1.3488220059270976e-16 4.1078828699106727e-17 -0.8308778618103995 -0.5564548308292303
12653082666.666666 -0.8375935587733754 -0.5462939046897384 1.353495711422359e-16 3.941338491320855e-17 1.353495711422359e-16 3.941338491320855e-17 -0.8375931785532496 -0.5462944876537501
12653700000.0 -0.8441846298037101 -0.5360525261604325 1.3579638986406577e-16 3.774265939147376e-17 1.3579638986406577e-16 3.774265939147376e-17 -0.8441842567297692 -0.5360531136831653
12654317333.333334 -0.8506504845713428 -0.525731636006765 1.3622259754132006e-16 3.606690559929543e-17 1.3622259754132006e-16 3.606690559929543e-17 -0.8506501186982232 -0.5257322280006315
12654934666.666666 -0.8569901640086889 -0.5153327651063616 1.3662813808131227e-16 3.438637765968893e-17 1.3662813808131227e-16 3.438637765968893e-17 -0.8569898053899563 -0.5153333614831218
12655552000.0 -0.8632027277636136 -0.5048574559034121 1.3701295852276385e-16 3.270133031481691e-17 1.3701295852276385e-16 3.270133031481691e-17 -0.8632023764517498 -0.5048580565741824
12656169333.333334 -0.8692872543386545 -0.4943072621802894 1.3737700904253997e-16 3.101201888746756e-17 1.3737700904253997e-16 3.101201888746756e-17 -0.869286910385054 -0.49430786705555924
12656786666.666666 -0.8752428412279578 -0.4836837488266694 1.3772024296193203e-16 2.931869924237123e-17 1.3772024296193203e-16 2.931869924237123e-17 -0.8752425046829189 -0.4836843578163134
12657404000.0 -0.8810686050510296 -0.4729884916076093 1.380426167524504e-16 2.7621627747508834e-17 1.380426167524504e-16 2.7621627747508834e-17 -0.8810682759637464 -0.47298910462090044
12658021333.333334 -0.8867636816837635 -0.4622230769298157 1.3834409004114348e-16 2.592106123534782e-17 1.3834409004114348e-16 2.592106123534782e-17 -0.8867633601023183 -0.46222369387543827
12658638666.666666 -0.8923272263865784 -0.45138910160641343 1.3862462561543497e-16 2.421725696405518e-17 1.3862462561543497e-16 2.421725696405518e-17 -0.8923269123579374 -0.4513897223924789
12659256000.0 -0.8977584139298755 -0.4404881726197924 1.388841894275007e-16 2.2510472578566897e-17 1.388841894275007e-16 2.2510472578566897e-17 -0.8977581074998784 -0.44048879715385014
12659873333.333334 -0.9030564387162933 -0.4295219068835198 1.3912275059814777e-16 2.0800966071724682e-17 1.3912275059814777e-16 2.0800966071724682e-17 -0.9030561399296498 -0.42952253507257343
12660490666.666666 -0.9082205149001716 -0.41849193100258925 1.393402814202234e-16 1.9088995745340295e-17 1.393402814202234e-16 1.9088995745340295e-17 -0.9082202238004528 -0.4184925627531087
12661108000.0 -0.9132498765043205 -0.4073998810317114 1.395367573615552e-16 1.7374820171149213e-17 1.395367573615552e-16 1.7374820171149213e-17 -0.9132495931339527 -0.4074005162496475
12661725333.333334 -0.9181437775333694 -0.3962474022332067 1.3971215706739175e-16 1.5658698151893453e-17 1.3971215706739175e-16 1.5658698151893453e-17 -0.9181435019336283 -0.39624804082400533
12662342666.666666 -0.9229014920846341 -0.3850361488325035 1.3986646236238636e-16 1.3940888682222364e-17 1.3986646236238636e-16 1.3940888682222364e-17 -0.92290122429564 -0.38503679070111974
12662960000.0 -0.9275223144556944 -0.373767783772976 1.399996582520848e-16 1.2221650909706598e-17 1.399996582520848e-16 1.2221650909706598e-17 -0.9275220545164043 -0.37376842882388783
12663577333.333334 -0.9320055592490474 -0.36244397846933596 1.4011173292394446e-16 1.0501244095761057e-17 1.4011173292394446e-16 1.0501244095761057e-17 -0.9320053071972506 -0.36244462660655863
12664194666.666666 -0.936350561473848 -0.35106641255953147 1.4020267774786996e-16 8.779927576609555e-18 1.4020267774786996e-16 8.779927576609555e-18 -0.9363503173461607 -0.35106706368663204
12664812000.0 -0.9405566766444622 -0.33963677365582073 1.4027248727626904e-16 7.057960724253494e-18 1.4027248727626904e-16 7.057960724253494e-18 -0.94055644047632 -0.3396374276759317
12665429333.333334 -0.9446232808761488 -0.3281567570942114 1.4032115924363414e-16 5.3356029074065865e-18 1.4032115924363414e-16 5.3356029074065865e-18 -0.9446230527018064 -0.32815741391004655
12666046666.666666 -0.9485497709774812 -0.3166280656833447 1.403486945656402e-16 3.613113452528955e-18 1.403486945656402e-16 3.613113452528955e-18 -0.9485495508300014 -0.3166287251972117
12666664000.0 -0.9523355645399807 -0.30505240945143636 1.4035509733776908e-16 1.8907516047591923e-18 1.4035509733776908e-16 1.8907516047591923e-18 -0.9523353524512328 -0.30505307156525246
12667281333.333334 -0.9559801000243443 -0.29343150539308754 1.403403748334521e-16 1.6877648901346097e-19 1.403403748334521e-16 1.6877648901346097e-19 -0.9559798960250019 -0.29343217000839467
12667898666.666666 -0.9594828368438135 -0.28176707721442207 1.4030453750173853e-16 -1.5525529289778824e-18 1.4030453750173853e-16 -1.5525529289778824e-18 -0.9594826409633447 -0.2817677442323998
12668516000.0 -0.9628432554444007 -0.27006085507721717 1.4024759896448453e-16 -3.2729778815945213e-18 1.4024759896448453e-16 -3.2729778815945213e-18 -0.9628430677110678 -0.27006152439869874
12669133333.333334 -0.9660608573818261 -0.25831457534273816 1.4016957601306937e-16 -4.9922398381097686e-18 1.4016957601306937e-16 -4.9922398381097686e-18 -0.9660606778226806 -0.25831524686822505
12669750666.666666 -0.9691351653955897 -0.246529980313695 1.40070488604632e-16 -6.710080543558926e-18 1.40070488604632e-16 -6.710080543558926e-18 -0.969134994036467 -0.2465306539433711
12670368000.0 -0.9720657234796697 -0.234708817976138 1.3995035985783587e-16 -8.426242057455362e-18 1.3995035985783587e-16 -8.426242057455362e-18 -0.9720655603451862 -0.2347094936098848
