! Parameters = {f0=12700.012000; bw=77.238000; Q=6100.000000; N=10; m_0_1=1.287783; m_1_1=0.551996; m_1_2=1.122595; m_2_2=0.551347; m_2_3=0.759558; m_2_8=0.001453; m_2_9=0.038157; m_3_3=0.549410; m_3_4=0.648087; m_3_7=0.002053; m_3_8=-0.095035; m_3_9=0.001453; m_4_4=0.546485; m_4_5=0.484422; m_4_6=0.005570; m_4_7=-0.115584; m_4_8=0.002053; m_5_5=0.546867; m_5_6=0.891777; m_5_7=0.005570; m_6_6=0.546866; m_6_7=0.484764; m_7_7=0.546499; m_7_8=0.648205; m_8_8=0.549408; m_8_9=0.759871; m_9_9=0.551342; m_9_10=1.123673; m_10_10=0.551986; m_10_11=1.288578}
!
! Created with skrf (http://scikit-rf.org).
# Hz S RI R 50.0 
!freq ReS11 ImS11 ReS21 ImS21 ReS12 ImS12 ReS22 ImS22
12607400000.0 -0.8512526078227558 0.5247561316218955 8.01820789098642e-17 -8.953253013124692e-17 8.01820789098642e-17 -8.953253013124692e-17 -0.8512529638421268 0.5247555540914387
12608017333.333334 -0.8454029205779264 0.5341291060016583 7.916446723762993e-17 -9.040226786304154e-17 7.916446723762993e-17 -9.040226786304154e-17 -0.84540328293863 0.5341285324679873
12608634666.666666 -0.8394500337407121 0.5434368784436093 7.813743421607796e-17 -9.126045119182683e-17 7.813743421607796e-17 -9.126045119182683e-17 -0.8394504023978956 0.5434363089763415
12609252000.0 -0.8333946739889361 0.552678312734175 7.710111091182507e-17 -9.21069782067544e-17 7.710111091182507e-17 -9.21069782067544e-17 -0.8333950488969811 0.5526777474024237
12609869333.333334 -0.8272375805094672 0.5618522807577285 7.605562949220187e-17 -9.294174848233023e-17 7.605562949220187e-17 -9.294174848233023e-17 -0.827237961622 0.5618517196300971
12610486666.666666 -0.8209795049079834 0.570957662634333 7.500112320845677e-17 -9.376466309026822e-17 7.500112320845677e-17 -9.376466309026822e-17 -0.8209798921778755 0.570957105778904
12611104000.0 -0.814621211117085 0.5799933468566282 7.393772637876454e-17 -9.45756246112051e-17 7.393772637876454e-17 -9.45756246112051e-17 -0.8146216044964607 0.5799927943409561
12611721333.333334 -0.8081634753033158 0.5889582304251177 7.28655743712032e-17 -9.537453714615047e-17 7.28655743712032e-17 -9.537453714615047e-17 -0.8081638747435594 0.5889576823162209
12612338666.666666 -0.8016070857721589 0.5978512189831888 7.178480358652995e-17 -9.616130632780504e-17 7.178480358652995e-17 -9.616130632780504e-17 -0.80160749122392 0.5978506753475417
12612956000.0 -0.7949528428718511 0.6066712269506289 7.069555144086149e-17 -9.693583933166213e-17 7.069555144086149e-17 -9.693583933166213e-17 -0.7949532542850484 0.6066706878541517
12613573333.333334 -0.7882015588958854 0.6154171776558695 6.95979563482753e-17 -9.769804488688744e-17 6.95979563482753e-17 -9.769804488688744e-17 -0.7882019762197167 0.6154166431639234
12614190666.666666 -0.7813540579835849 0.6240880034677837 6.849215770321311e-17 -9.844783328705869e-17 6.849215770321311e-17 -9.844783328705869e-17 -0.7813544811665308 0.6240874736451616
12614808000.0 -0.77441117601965 0.6326826459258086 6.737829586283622e-17 -9.918511640065963e-17 6.737829586283622e-17 -9.918511640065963e-17 -0.7744116050094814 0.6326821208367264
12615425333.333334 -0.7673737605320698 0.6412000558692192 6.625651212925223e-17 -9.990980768138701e-17 6.625651212925223e-17 -9.990980768138701e-17 -0.7673741952758528 0.6411995355773087
12616042666.666666 -0.7602426705887326 0.6496391935651139 6.512694873160834e-17 -1.0062182217827183e-16 6.512694873160834e-17 -1.0062182217827183e-16 -0.7602431110328376 0.6496386781334157
12616660000.0 -0.753018776692454 0.6579990288354687 6.398974880810305e-17 -1.0132107654558231e-16 6.398974880810305e-17 -1.0132107654558231e-16 -0.7530192227825597 0.6579985183264232
12617277333.333334 -0.7457029606747443 0.6662785411828455 6.284505638788853e-17 -1.0200748905252534e-16 6.284505638788853e-17 -1.0200748905252534e-16 -0.7457034123558461 0.6662780356582867
12617894666.666666 -0.7382961155883151 0.6744767199147983 6.169301637286208e-17 -1.0268097959275047e-16 6.169301637286208e-17 -1.0268097959275047e-16 -0.7382965728047317 0.6744762194359459
12618512000.0 -0.7307991455977225 0.6825925642676298 6.053377451933457e-17 -1.0334146969365924e-16 6.053377451933457e-17 -1.0334146969365924e-16 -0.7307996082931018 0.6825920688950813
12619129333.333334 -0.7232129658694134 0.6906250835280938 5.936747741967496e-17 -1.0398888252546689e-16 5.936747741967496e-17 -1.0398888252546689e-16 -0.7232134339867401 0.6906245933218175
12619746666.666666 -0.7155385024596836 0.698573297154689 5.819427248376026e-17 -1.046231429101124e-16 5.819427248376026e-17 -1.046231429101124e-16 -0.7155389759412865 0.6985728121740168
12620364000.0 -0.7077766922017078 0.7064362348972685 5.701430792039057e-17 -1.0524417732992595e-16 5.701430792039057e-17 -1.0524417732992595e-16 -0.7077771709892663 0.7064357552008887
12620981333.333334 -0.6999284825913173 0.7142129369153389 5.582773271862173e-17 -1.0585191393608358e-16 5.582773271862173e-17 -1.0585191393608358e-16 -0.6999289666258695 0.7142124625612896
12621598666.666666 -0.6919948316712234 0.721902453895354 5.463469662896945e-17 -1.0644628255687195e-16 5.463469662896945e-17 -1.0644628255687195e-16 -0.6919953208931712 0.7219019849410139
12622216000.0 -0.6839767079140406 0.7295038471666135 5.343535014454148e-17 -1.0702721470573429e-16 5.343535014454148e-17 -1.0702721470573429e-16 -0.6839772022631597 0.7295033836686978
12622833333.333334 -0.6758750901040866 0.7370161888158298 5.222984448209081e-17 -1.0759464358910046e-16 5.222984448209081e-17 -1.0759464358910046e-16 -0.6758755895195331 0.7370157308303823
12623450666.666666 -0.6676909672180477 0.7444385618002657 5.1018331563005487e-17 -1.0814850411399624e-16 5.1018331563005487e-17 -1.0814850411399624e-16 -0.6676914716383634 0.7444381093826505
12624068000.0 -0.6594253383040197 0.7517700600598886 4.9800963994163e-17 -1.0868873289546471e-16 4.9800963994163e-17 -1.0868873289546471e-16 -0.659425847667144 0.751769613264787
12624685333.333334 -0.6510792123595966 0.7590097886279371 4.857789504875011e-17 -1.092152682637525e-16 4.857789504875011e-17 -1.092152682637525e-16 -0.6510797266028705 0.7590093475093375
12625302666.666666 -0.6426536082089782 0.7661568637399272 4.7349278647026635e-17 -1.0972805027127284e-16 4.7349278647026635e-17 -1.0972805027127284e-16 -0.6426541272691524 0.7661564283511189
12625920000.0 -0.6341495543781462 0.773210412941922 4.61152693369382e-17 -1.1022702069938585e-16 4.61152693369382e-17 -1.1022702069938585e-16 -0.634150078191391 0.773209983335492
12626537333.333334 -0.6255680889696819 0.7801695751967248 4.487602227476553e-17 -1.1071212306491731e-16 4.487602227476553e-17 -1.1071212306491731e-16 -0.6255686174715932 0.7801691514245475
12627154666.666666 -0.6169102595359798 0.7870335009890426 4.363169320561185e-17 -1.1118330262649923e-16 4.363169320561185e-17 -1.1118330262649923e-16 -0.6169107926615863 0.7870330831022745
12627772000.0 -0.6081771229511012 0.7938013524293972 4.238243844385238e-17 -1.1164050639067821e-16 4.238243844385238e-17 -1.1164050639067821e-16 -0.6081776606348755 0.7938009404784737
12628389333.333334 -0.5993697452821419 0.8004723033561114 4.112841485358507e-17 -1.1208368311778263e-16 4.112841485358507e-17 -1.1208368311778263e-16 -0.5993702874580056 0.8004718973907369
12629006666.666666 -0.5904892016588276 0.8070455394363703 3.986977982889998e-17 -1.1251278332761463e-16 3.986977982889998e-17 -1.1251278332761463e-16 -0.5904897482601595 0.8070451395055126
12629624000.0 -0.5815365761423774 0.813520258265533 3.8606691274201727e-17 -1.1292775930488055e-16 3.8606691274201727e-17 -1.1292775930488055e-16 -0.5815371271020258 0.8135198644174224
12630241333.333334 -0.5725129615931126 0.8198956694651475 3.733930758442265e-17 -1.1332856510442048e-16 3.733930758442265e-17 -1.1332856510442048e-16 -0.5725135168433969 0.8198952817472633
12630858666.666666 -0.5634194595372487 0.8261709947792731 3.6067787625192303e-17 -1.1371515655621336e-16 3.6067787625192303e-17 -1.1371515655621336e-16 -0.5634200190099729 0.8261706132383436
12631476000.0 -0.5542571800320402 0.832345468169768 3.479229071293025e-17 -1.1408749127016681e-16 3.479229071293025e-17 -1.1408749127016681e-16 -0.5542577436584991 0.832345092851762
12632093333.333334 -0.545027241530645 0.8384183359095362 3.3512976594968734e-17 -1.1444552864066154e-16 3.3512976594968734e-17 -1.1444552864066154e-16 -0.5450278092416336 0.8384179668596592
12632710666.666666 -0.5357307707455266 0.8443888566745914 3.223000542953891e-17 -1.1478922985090031e-16 3.223000542953891e-17 -1.1478922985090031e-16 -0.5357313424713476 0.844388493937279
12633328000.0 -0.5263689025106515 0.8502563016347193 3.094353776574938e-17 -1.1511855787702177e-16 3.094353776574938e-17 -1.1511855787702177e-16 -0.526369478181125 0.8502559452536331
12633945333.333334 -0.5169427796432684 0.8560199545422472 2.965373452355043e-17 -1.1543347749198387e-16 2.965373452355043e-17 -1.1543347749198387e-16 -0.5169433591877388 0.8560196045602669
12634562666.666666 -0.5074535528042331 0.8616791118195798 2.836075697363409e-17 -1.1573395526923047e-16 2.836075697363409e-17 -1.1573395526923047e-16 -0.5074541361515797 0.8616787682788014
12635180000.0 -0.49790238035767137 0.8672330826450203 2.70647667172852e-17 -1.1601995958613617e-16 2.70647667172852e-17 -1.1601995958613617e-16 -0.4979029674363159 0.8672327455867485
12635797333.333334 -0.4882904282293749 0.872681189037207 2.5765925666222427e-17 -1.162914606272201e-16 2.5765925666222427e-17 -1.162914606272201e-16 -0.48829101896729094 0.8726808585019519
12636414666.666666 -0.47861886976477447 0.8780227659377112 2.446439602242533e-17 -1.165484303871316e-16 2.446439602242533e-17 -1.165484303871316e-16 -0.4786194640894957 0.8780224419651826
12637032000.0 -0.4688888855853855 0.8832571612924041 2.3160340257870467e-17 -1.1679084267342386e-16 2.3160340257870467e-17 -1.1679084267342386e-16 -0.4688894834240147 0.8832568439215059
12637649333.333334 -0.4591016634448835 0.888383736130936 2.185392109430799e-17 -1.1701867310908717e-16 2.185392109430799e-17 -1.1701867310908717e-16 -0.45910226472410226 0.8883834253997643
12638266666.666666 -0.44925839808404217 0.8934018646447855 2.0545301482978887e-17 -1.172318991348639e-16 2.0545301482978887e-17 -1.172318991348639e-16 -0.4492590027301189 0.8934015605906213
12638884000.0 -0.43936029108498825 0.8983109342635964 1.923464458433497e-17 -1.1743050001133332e-16 1.923464458433497e-17 -1.1743050001133332e-16 -0.43936089902378744 0.8983106369229015
12639501333.333334 -0.4294085507243193 0.9031103457300552 1.792211374770407e-17 -1.1761445682077542e-16 1.792211374770407e-17 -1.1761445682077542e-16 -0.4294091618813113 0.9031100551384693
12640118666.666666 -0.4194043918259937 0.9077995131728643 1.6607872490996735e-17 -1.177837524688005e-16 1.6607872490996735e-17 -1.177837524688005e-16 -0.41940500612626264 0.9077992293651992
12640736000.0 -0.40934903561231245 0.9123778641785928 1.529208448030593e-17 -1.1793837168576348e-16 1.529208448030593e-17 -1.1793837168576348e-16 -0.4093496529805666 0.912377587188829
12641353333.333334 -0.3992437095558241 0.9168448398610998 1.3974913509650853e-17 -1.1807830102793321e-16 1.3974913509650853e-17 -1.1807830102793321e-16 -0.3992443299164046 0.9168445697223827
12641970666.666666 -0.3890896472286324 0.9211998949301493 1.2656523480524744e-17 -1.1820352887845723e-16 1.2656523480524744e-17 -1.1820352887845723e-16 -0.38909027050552225 0.9211996316747846
12642588000.0 -0.37888808815230474 0.925442497757754 1.1337078381591809e-17 -1.1831404544808138e-16 1.1337078381591809e-17 -1.1831404544808138e-16 -0.3788887142691387 0.925442241417204
12643205333.333334 -0.36864027764635415 0.9295721304431619 1.0016742268293975e-17 -1.1840984277565291e-16 1.0016742268293975e-17 -1.1840984277565291e-16 -0.36864090652642734 0.929571881048041
12643822666.666666 -0.35834746667619266 0.9335882888760849 8.695679242484182e-18 -1.184909147283933e-16 8.695679242484182e-18 -1.184909147283933e-16 -0.35834809824247077 0.9335880464561576
12644440000.0 -0.34801091170063597 0.9374904827981516 7.374053432071927e-18 -1.1855725700194325e-16 7.374053432071927e-18 -1.1855725700194325e-16 -0.34801154587576466 0.9374902473823289
12645057333.333334 -0.33763187451831644 0.941278235862844 6.052028970673683e-18 -1.1860886712018273e-16 6.052028970673683e-18 -1.1860886712018273e-16 -0.33763251122462945 0.9412780074791771
12645674666.666666 -0.3272116221138628 0.9449510856935582 4.729769977240089e-18 -1.186457444348249e-16 4.729769977240089e-18 -1.186457444348249e-16 -0.32721226127339353 0.944950864369239
12646292000.0 -0.3167514265028662 0.9485085839401876 3.4074405356996907e-18 -1.1866789012478298e-16 3.4074405356996907e-18 -1.1866789012478298e-16 -0.31675206803735556 0.9485083697015426
12646909333.333334 -0.30625256457705624 0.951950296333688 2.0852046746824245e-18 -1.1867530719530868e-16 2.0852046746824245e-18 -1.1867530719530868e-16 -0.30625320840796333 0.951950089206177
12647526666.666666 -0.29571631794810865 0.9552758027392045 7.632263471499501e-19 -1.1866800047690848e-16 7.632263471499501e-19 -1.1866800047690848e-16 -0.2957169639966199 0.9552756027474172
12648144000.0 -0.285143972791331 0.9584846972073133 -5.583305898858626e-19 -1.1864597662403142e-16 -5.583305898858626e-19 -1.1864597662403142e-16 -0.2851446209783697 0.958484504374965
12648761333.333334 -0.2745368196886027 0.9615765880235893 -1.8793023956347446e-18 -1.1860924411353122e-16 -1.8793023956347446e-18 -1.1860924411353122e-16 -0.27453746993483835 0.9615764023735179
12649378666.666666 -0.26389615347091316 0.9645510977563995 -3.1995254657708e-18 -1.185578132429056e-16 -3.1995254657708e-18 -1.185578132429056e-16 -0.26389680569677254 0.964550919310567
12649996000.0 -0.2532232730602473 0.9674078633029993 -4.5188363527009945e-18 -1.1849169612830683e-16 -4.5188363527009945e-18 -1.1849169612830683e-16 -0.2532239271859227 0.9674076920824839
12650613333.333334 -0.24251948131094 0.9701465359338726 -5.8370717857490006e-18 -1.1841090670233037e-16 -5.8370717857490006e-18 -1.1841090670233037e-16 -0.2425201372563998 0.970146371958869
12651230666.666666 -0.23178608485082763 0.9727667813352521 -7.154068691305948e-18 -1.1831546071158002e-16 -7.154068691305948e-18 -1.1831546071158002e-16 -0.231786742535826 0.9727666246250695
12651848000.0 -0.22102439392155324 0.9752682796499791 -8.469664213026188e-18 -1.1820537571400397e-16 -8.469664213026188e-18 -1.1820537571400397e-16 -0.22102505326563993 0.9752681302230382
12652465333.333334 -0.2102357222187067 0.977650725516531 -9.78369573189411e-18 -1.1808067107601354e-16 -9.78369573189411e-18 -1.1808067107601354e-16 -0.2102363831412364 0.9776505833903596
12653082666.666666 -0.1994213867315697 0.9799138281062665 -1.1096000886284019e-17 -1.179413679693775e-16 -1.1096000886284019e-17 -1.179413679693775e-16 -0.19942204915171274 0.9799136932975024
12653700000.0 -0.18858270758201676 0.9820573111590057 -1.2406417592043946e-17 -1.1778748936788748e-16 -1.2406417592043946e-17 -1.1778748936788748e-16 -0.1885833714187682 0.9820571836833896
12654317333.333334 -0.1777210078638657 0.9840809130166437 -1.3714784062423285e-17 -1.176190600438122e-16 -1.3714784062423285e-17 -1.176190600438122e-16 -0.17772167303605596 0.9840807928890214
12654934666.666666 -0.1668376134809216 0.9859843866551898 -1.502093882805294e-17 -1.1743610656412082e-16 -1.502093882805294e-17 -1.1743610656412082e-16 -0.1668382799072256 0.9859842738895068
12655552000.0 -0.15593385298520268 0.9877674997148914 -1.6324720756844662e-17 -1.1723865728648698e-16 -1.6324720756844662e-17 -1.1723865728648698e-16 -0.15593452058415064 0.9877673943241958
12656169333.333334 -0.14501105741510023 0.9894300345285536 -1.762596907379444e-17 -1.1702674235508114e-16 -1.762596907379444e-17 -1.1702674235508114e-16 -0.14501172610508659 0.9894299365249887
12656786666.666666 -0.1340705601324468 0.9909717881481751 -1.892452338083032e-17 -1.1680039369612824e-16 -1.892452338083032e-17 -1.1680039369612824e-16 -0.13407122983174144 0.9909716975429845
12657404000.0 -0.12311369665997625 0.9923925723696925 -2.022022367652586e-17 -1.165596450132577e-16 -2.022022367652586e-17 -1.165596450132577e-16 -0.12311436728673336 0.9923924891732139
12658021333.333334 -0.11214180451832188 0.9936922137559472 -2.1512910375780074e-17 -1.1630453178263182e-16 -2.1512910375780074e-17 -1.1630453178263182e-16 -0.11214247599059061 0.9936921379776132
12658638666.666666 -0.1011562230627159 0.9948705536578649 -2.280242432944487e-17 -1.1603509124785605e-16 -2.280242432944487e-17 -1.1603509124785605e-16 -0.10115689529845018 0.9948704853062021
12659256000.0 -0.09015829331929417 0.9959274482338416 -2.408860684391016e-17 -1.1575136241466611e-16 -2.408860684391016e-17 -1.1575136241466611e-16 -0.09015896623636281 0.9959273873164699
12659873333.333334 -0.07914935782173463 0.9968627684672685 -2.5371299700562658e-17 -1.1545338604541325e-16 -2.5371299700562658e-17 -1.1545338604541325e-16 -0.07915003133793111 0.9968627149908981
12660490666.666666 -0.06813076044720216 0.9976764001822963 -2.6650345175237314e-17 -1.151412046533211e-16 -2.6650345175237314e-17 -1.151412046533211e-16 -0.06813143448025501 0.9976763541527296
12661108000.0 -0.057103846252101575 0.9983682440577903 -2.792558605760288e-17 -1.148148624965259e-16 -2.792558605760288e-17 -1.148148624965259e-16 -0.05710452071968417 0.9983682054799197
12661725333.333334 -0.046069961308366186 0.9989382156394184 -2.9196865670397986e-17 -1.144744055719219e-16 -2.9196865670397986e-17 -1.144744055719219e-16 -0.04607063612810689 0.9989381845172259
12662342666.666666 -0.03503045253865883 0.9993862453499933 -3.0464027888704575e-17 -1.1411988160876715e-16 -3.0464027888704575e-17 -1.1411988160876715e-16 -0.03503112762815106 0.9993862216865509
12662960000.0 -0.02398666755217781 0.999712278497949 -3.1726917159060535e-17 -1.1375134006209706e-16 -3.1726917159060535e-17 -1.1375134006209706e-16 -0.023987342828990173 0.999712262295419
12663577333.333334 -0.012939954480209312 0.999916275284021 -3.2985378518533026e-17 -1.1336883210591718e-16 -3.2985378518533026e-17 -1.1336883210591718e-16 -0.01294062986189548 0.9999162665436531
12664194666.666666 -0.0018916618113883586 0.9999982108061054 -3.4239257613688693e-17 -1.1297241062619172e-16 -3.4239257613688693e-17 -1.1297241062619172e-16 -0.0018923372154972886 0.9999982095282383
12664812000.0 0.009156861772827856 0.9999580750622966 -3.5488400719513033e-17 -1.1256213021361344e-16 -3.5488400719513033e-17 -1.1256213021361344e-16 0.009156186428741908 0.9999580812463598
12665429333.333334 0.02020426756273869 0.9997958729521107 -3.6732654758218734e-17 -1.1213804715617215e-16 -3.6732654758218734e-17 -1.1213804715617215e-16 0.020203592361106124 0.9997958865966224
12666046666.666666 0.03124920698506753 0.9995116242758881 -3.797186731794744e-17 -1.1170021943152248e-16 -3.797186731794744e-17 -1.1170021943152248e-16 0.031248532008293292 0.9995116453784549
12666664000.0 0.042290331767811315 0.9991053637323685 -3.9205886671461075e-17 -1.112487066991185e-16 -3.9205886671461075e-17 -1.112487066991185e-16 0.04228965709826491 0.999105392289688
12667281333.333334 0.053326294104343294 0.9985771409144704 -4.043456179463017e-17 -1.1078357029218094e-16 -4.043456179463017e-17 -1.1078357029218094e-16 0.05332561982434864 0.9985771769223293
12667898666.666666 0.06435574681839612 0.9979270203032217 -4.165774238491939e-17 -1.1030487320942789e-16 -4.165774238491939e-17 -1.1030487320942789e-16 0.06435507301022164 0.9979270637564998
12668516000.0 0.07537734352842843 0.99715508125989 -4.287527887974472e-17 -1.0981268010661311e-16 -4.287527887974472e-17 -1.0981268010661311e-16 0.07537667027427687 0.9971551321525567
12669133333.333334 0.08638973881163914 0.996261418016314 -4.408702247468835e-17 -1.0930705728787969e-16 -4.408702247468835e-17 -1.0930705728787969e-16 0.08638906619363768 0.9962614763414326
12669750666.666666 0.09739158836865928 0.9952461396633752 -4.529282514170263e-17 -1.0878807269687696e-16 -4.529282514170263e-17 -1.0878807269687696e-16 0.0973909164688494 0.995246205413102
