! Parameters = {f0=12700.012000; bw=77.238000; Q=6100.000000; N=10; m_0_1=1.277773; m_1_1=0.401846; m_1_2=1.112585; m_2_2=0.401197; m_2_3=0.749548; m_2_8=0.000952; m_2_9=0.037656; m_3_3=0.399260; m_3_4=0.638077; m_3_7=0.001552; m_3_8=-0.095536; m_3_9=0.000952; m_4_4=0.396335; m_4_5=0.474412; m_4_6=0.005069; m_4_7=-0.116085; m_4_8=0.001552; m_5_5=0.396717; m_5_6=0.881767; m_5_7=0.005069; m_6_6=0.396716; m_6_7=0.474754; m_7_7=0.396349; m_7_8=0.638195; m_8_8=0.399258; m_8_9=0.749861; m_9_9=0.401192; m_9_10=1.113663; m_10_10=0.401836; m_10_11=1.278568}
!
! Created with skrf (http://scikit-rf.org).
# Hz S RI R 50.0 
!freq ReS11 ImS11 ReS21 ImS21 ReS12 ImS12 ReS22 ImS22
12607400000.0 -0.7051241741621866 0.7090838448391807 5.4451852299853516e-17 -1.0096811941741483e-16 5.4451852299853516e-17 -1.0096811941741483e-16 -0.7051246515118852 0.7090833701547823
12608017333.333334 -0.6974589702091979 0.7166247169017738 5.334358796941665e-17 -1.0153262284369058e-16 5.334358796941665e-17 -1.0153262284369058e-16 -0.6974594526117358 0.7166242474005186
12608634666.666666 -0.6897131259800392 0.7240827327389227 5.22294875853029e-17 -1.0208497096674474e-16 5.22294875853029e-17 -1.0208497096674474e-16 -0.6897136133791488 0.7240822684745839
12609252000.0 -0.6818875370500752 0.7314570300541272 5.1109684364092113e-17 -1.0262510363390256e-16 5.1109684364092113e-17 -1.0262510363390256e-16 -0.6818880293889181 0.7314565710798688
12609869333.333334 -0.6739831082147415 0.7387467562304538 4.9984312140289356e-17 -1.0315296215139577e-16 4.9984312140289356e-17 -1.0315296215139577e-16 -0.6739836054359122 0.7387463025988218
12610486666.666666 -0.6660007533850542 0.745951068428997 4.885350535037728e-17 -1.0366848929067828e-16 4.885350535037728e-17 -1.0366848929067828e-16 -0.6660012554305885 0.7459506201919144
12611104000.0 -0.6579413954816287 0.7530691336866154 4.771739901674185e-17 -1.0417162929459637e-16 4.771739901674185e-17 -1.0417162929459637e-16 -0.6579419022930105 0.7530686908953764
12611721333.333334 -0.6498059663283939 0.7601001290118587 4.65761287316394e-17 -1.0466232788333601e-16 4.65761287316394e-17 -1.0466232788333601e-16 -0.6498064778465621 0.7600996917171238
12612338666.666666 -0.6415954065445603 0.7670432414803895 4.5429830641002184e-17 -1.0514053226024047e-16 4.5429830641002184e-17 -1.0514053226024047e-16 -0.6415959227099152 0.7670428097321779
12612956000.0 -0.6333106654358804 0.7738976683289488 4.427864142822938e-17 -1.0560619111743026e-16 4.427864142822938e-17 -1.0560619111743026e-16 -0.6333111861882914 0.7738972421766346
12613573333.333334 -0.6249527008850916 0.7806626170480118 4.312269829794881e-17 -1.0605925464123599e-16 4.312269829794881e-17 -1.0605925464123599e-16 -0.6249532261639028 0.7806621965403161
12614190666.666666 -0.6165224792409649 0.7873373054735788 4.1962138959651574e-17 -1.0649967451748313e-16 4.1962138959651574e-17 -1.0649967451748313e-16 -0.6165230089850035 0.7873368906585658
12614808000.0 -0.6080209752065987 0.7939209618775913 4.079710161134867e-17 -1.06927403936567e-16 4.079710161134867e-17 -1.06927403936567e-16 -0.6080215093541812 0.793920552802662
12615425333.333334 -0.5994491717268328 0.8004128250570677 3.9627724923129066e-17 -1.0734239759837019e-16 3.9627724923129066e-17 -1.0734239759837019e-16 -0.5994497102157739 0.8004124217689564
12616042666.666666 -0.5908080598745148 0.8068121444221912 3.845414802068927e-17 -1.077446117169904e-16 3.845414802068927e-17 -1.077446117169904e-16 -0.5908086026421319 0.8068117469669568
12616660000.0 -0.5820986387359303 0.8131181800830671 3.727651046879794e-17 -1.0813400402529716e-16 3.727651046879794e-17 -1.0813400402529716e-16 -0.5820991857190536 0.8131177885060912
12617277333.333334 -0.5733219152952684 0.8193302029352922 3.609495225474269e-17 -1.0851053377929685e-16 3.609495225474269e-17 -1.0851053377929685e-16 -0.573322466430246 0.8193298172812711
12617894666.666666 -0.5644789043183321 0.8254474947441526 3.4909613771721826e-17 -1.0887416176232322e-16 3.4909613771721826e-17 -1.0887416176232322e-16 -0.5644794595410384 0.8254471150570937
12618512000.0 -0.5555706282348613 0.8314693482279091 3.3720635802160433e-17 -1.0922485028905623e-16 3.3720635802160433e-17 -1.0922485028905623e-16 -0.5555711874807046 0.8314689745511261
12619129333.333334 -0.5465981170207866 0.8373950671392522 3.252815950106216e-17 -1.0956256320933725e-16 3.252815950106216e-17 -1.0956256320933725e-16 -0.5465986802247166 0.8373946995153594
12619746666.666666 -0.5375624080788173 0.8432239663460265 3.1332326379251805e-17 -1.0988726591182333e-16 3.1332326379251805e-17 -1.0988726591182333e-16 -0.5375629751753321 0.8432236048169349
12620364000.0 -0.5284645461185161 0.8489553719104277 3.0133278286598524e-17 -1.1019892532745518e-16 3.0133278286598524e-17 -1.1019892532745518e-16 -0.5284651170416705 0.8489550165173385
12620981333.333334 -0.5193055830357267 0.854588621166784 2.8931157395265055e-17 -1.1049750993272557e-16 2.8931157395265055e-17 -1.1049750993272557e-16 -0.5193061577191397 0.8545882719501863
12621598666.666666 -0.5100865777907387 0.8601230627983152 2.7726106182834757e-17 -1.1078298975278982e-16 2.7726106182834757e-17 -1.1078298975278982e-16 -0.5100871561676001 0.8601227197979782
12622216000.0 -0.5008085962858712 0.865558056912416 2.6518267415472384e-17 -1.1105533636437692e-16 2.6518267415472384e-17 -1.1105533636437692e-16 -0.5008091782889512 0.8655577201673881
12622833333.333334 -0.4914727112423316 0.8708929751145851 2.5307784131035216e-17 -1.113145228985223e-16 2.5307784131035216e-17 -1.113145228985223e-16 -0.4914732968039881 0.8708926446631874
12623450666.666666 -0.48208000207619 0.876127200581082 2.409479962216226e-17 -1.115605240431166e-16 2.409479962216226e-17 -1.115605240431166e-16 -0.48208059112837476 0.8761268764609029
12624068000.0 -0.4726315547734749 0.8812601281302976 2.2879457419343198e-17 -1.1179331604526967e-16 2.2879457419343198e-17 -1.1179331604526967e-16 -0.4726321472477445 0.8812598103781926
12624685333.333334 -0.4631284617645896 0.8862911642927436 2.1661901273946958e-17 -1.1201287671349423e-16 2.1661901273946958e-17 -1.1201287671349423e-16 -0.4631290575921102 0.8862908529448251
12625302666.666666 -0.4535718217982771 0.8912197273795133 2.0442275141285172e-17 -1.1221918541969528e-16 2.0442275141285172e-17 -1.1221918541969528e-16 -0.4535724209098345 0.8912194224711517
12625920000.0 -0.44396273981410705 0.8960452475497948 1.922072316355945e-17 -1.1241222310099314e-16 1.922072316355945e-17 -1.1241222310099314e-16 -0.44396334214011457 0.8960449491156129
12626537333.333334 -0.4343023268152264 0.9007671668764919 1.7997389652917683e-17 -1.125919722613392e-16 1.7997389652917683e-17 -1.125919722613392e-16 -0.43430293228573175 0.9007668749503592
12627154666.666666 -0.42459169973965366 0.9053849394108634 1.6772419074401512e-17 -1.1275841697296486e-16 1.6772419074401512e-17 -1.1275841697296486e-16 -0.42459230828434874 0.9053846540258954
12627772000.0 -0.41483198133100885 0.9098980312457057 1.5545956028898077e-17 -1.1291154287764116e-16 1.5545956028898077e-17 -1.1291154287764116e-16 -0.414832592879236 0.9098977524342564
12628389333.333334 -0.4050243000090604 0.9143059205769104 1.431814523614368e-17 -1.130513371877459e-16 1.431814523614368e-17 -1.130513371877459e-16 -0.40502491448982264 0.9143056483705728
12629006666.666666 -0.3951697897388992 0.9186080977639686 1.3089131517630106e-17 -1.1317778868715744e-16 1.3089131517630106e-17 -1.1317778868715744e-16 -0.3951704070808664 0.9186078321935667
12629624000.0 -0.3852695899000059 0.9228040653888038 1.1859059779573224e-17 -1.1329088773195553e-16 1.1859059779573224e-17 -1.1329088773195553e-16 -0.3852702100315251 0.9228038064843935
12630241333.333334 -0.37532484515451947 0.9268933383132915 1.0628074995855713e-17 -1.1339062625093893e-16 1.0628074995855713e-17 -1.1339062625093893e-16 -0.3753254680036218 0.9268930861041543
12630858666.666666 -0.3653367053149435 0.9308754437353288 9.396322190975085e-18 -1.1347699774595918e-16 9.396322190975085e-18 -1.1347699774595918e-16 -0.3653373308093528 0.9308751982499689
12631476000.0 -0.3553063252109397 0.9347499212436019 8.163946422953599e-18 -1.1354999729207105e-16 8.163946422953599e-18 -1.1354999729207105e-16 -0.35530695327808165 0.9347496825097446
12632093333.333334 -0.34523486455615143 0.9385163228706879 6.931092766325171e-18 -1.1360962153749292e-16 6.931092766325171e-18 -1.1360962153749292e-16 -0.3452354951231608 0.9385160909152744
12632710666.666666 -0.3351234878139854 0.9421742131449001 5.6979062950689485e-18 -1.1365586870338755e-16 5.6979062950689485e-18 -1.1365586870338755e-16 -0.335124120807715 0.9421739879940845
12633328000.0 -0.3249733640627349 0.9457231691407225 4.4645320655365936e-18 -1.1368873858345693e-16 4.4645320655365936e-18 -1.1368873858345693e-16 -0.3249739994097644 0.9457229508198707
12633945333.333334 -0.31478566686081166 0.9491627805275635 3.231115099465908e-18 -1.137082325433495e-16 3.231115099465908e-18 -1.137082325433495e-16 -0.31478630448745615 0.9491625690612501
12634562666.666666 -0.30456157411081924 0.9524926496172877 1.9978003669276198e-18 -1.1371435351988692e-16 1.9978003669276198e-18 -1.1371435351988692e-16 -0.304562213943137 0.952492445029291
12635180000.0 -0.2943022679234167 0.955712391410175 7.647327693236645e-19 -1.137071060201047e-16 7.647327693236645e-19 -1.137071060201047e-16 -0.294302909887218 0.9557121937234756
12635797333.333334 -0.284008934480615 0.9588216336394416 -4.679428776256815e-19 -1.1368649612010887e-16 -4.679428776256815e-19 -1.1368649612010887e-16 -0.28400957850147157 0.9588214428762211
12636414666.666666 -0.2736827638987407 0.9618200168142522 -1.7000818608294688e-18 -1.1365253146374908e-16 -1.7000818608294688e-18 -1.1365253146374908e-16 -0.27368340990199336 0.9618198329958891
12637032000.0 -0.2633249500906977 0.9647071942613229 -2.9315395868196994e-18 -1.1360522126110786e-16 -2.9315395868196994e-18 -1.1360522126110786e-16 -0.2633255980014653 0.9647070174083905
12637649333.333334 -0.2529366906279265 0.9674828321650027 -4.162171598675789e-18 -1.135445762868065e-16 -4.162171598675789e-18 -1.135445762868065e-16 -0.2529373403711151 0.9674826622972675
12638266666.666666 -0.2425191866020782 0.9701466096058313 -5.39183359294576e-18 -1.1347060887812798e-16 -5.39183359294576e-18 -1.1347060887812798e-16 -0.24251983810238897 0.9701464467422503
12638884000.0 -0.23207364248603385 0.9726982185976729 -6.620381436536354e-18 -1.1338333293295713e-16 -6.620381436536354e-18 -1.1338333293295713e-16 -0.2320742956679724 0.9726980627563914
12639501333.333334 -0.22160126599464425 0.9751373641233289 -7.847671183595851e-18 -1.1328276390753718e-16 -7.847671183595851e-18 -1.1328276390753718e-16 -0.22160192078252888 0.9751372153216776
12640118666.666666 -0.21110326794528614 0.9774637641685971 -9.073559092313573e-18 -1.131689188140477e-16 -9.073559092313573e-18 -1.131689188140477e-16 -0.21110392426325725 0.9774636224230934
12640736000.0 -0.20058086211731402 0.9796771497550085 -1.0297901641791772e-17 -1.1304181621799269e-16 -1.0297901641791772e-17 -1.1304181621799269e-16 -0.20058151988934222 0.9796770150813501
12641353333.333334 -0.19003526511255472 0.9817772649707383 -1.1520555548740427e-17 -1.129014762354206e-16 -1.1520555548740427e-17 -1.129014762354206e-16 -0.1900359242624501 0.981777137383805
12641970666.666666 -0.17946769621395006 0.983763867000349 -1.2741377784282008e-17 -1.127479205299482e-16 -1.2741377784282008e-17 -1.127479205299482e-16 -0.17946835666537067 0.9837637465141993
12642588000.0 -0.16887937724488802 0.9856367261527955 -1.3960225590636463e-17 -1.1258117230961375e-16 -1.3960225590636463e-17 -1.1258117230961375e-16 -0.16888003892134917 0.9856366127806666
12643205333.333334 -0.15827153242790903 0.9873956258879941 -1.5176956497770974e-17 -1.1240125632354844e-16 -1.5176956497770974e-17 -1.1240125632354844e-16 -0.15827219525279165 0.9873955196422984
12643822666.666666 -0.14764538824307602 0.9890403628418676 -1.6391428340051056e-17 -1.1220819885846375e-16 -1.6391428340051056e-17 -1.1220819885846375e-16 -0.1476460521396359 0.9890402637341931
12644440000.0 -0.13700217328619715 0.9905707468498555 -1.760349927280468e-17 -1.1200202773496548e-16 -1.760349927280468e-17 -1.1200202773496548e-16 -0.13700283817757364 0.9905706548909635
12645057333.333334 -0.12634311812691576 0.9919866009688791 -1.8813027788864527e-17 -1.1178277230368583e-16 -1.8813027788864527e-17 -1.1178277230368583e-16 -0.12634378393614054 0.9919865161687027
12645674666.666666 -0.11566945516631992 0.9932877614978196 -2.0019872735057887e-17 -1.1155046344123844e-16 -2.0019872735057887e-17 -1.1155046344123844e-16 -0.11567012181632626 0.9932876838654643
12646292000.0 -0.10498241849428219 0.9944740779964621 -2.122389332868634e-17 -1.1130513354598826e-16 -2.122389332868634e-17 -1.1130513354598826e-16 -0.10498308590791368 0.994474007540204
12646909333.333334 -0.09428324374714131 0.9955454133028486 -2.2424949173860772e-17 -1.110468165336628e-16 -2.2424949173860772e-17 -1.110468165336628e-16 -0.0942839118471607 0.9955453500301326
12647526666.666666 -0.08357316796455513 0.9965016435491668 -2.3622900277888655e-17 -1.1077554783276607e-16 -2.3622900277888655e-17 -1.1077554783276607e-16 -0.08357383667365344 0.9965015874666072
12648144000.0 -0.07285342944653067 0.9973426581760665 -2.4817607067554132e-17 -1.1049136437982776e-16 -2.4817607067554132e-17 -1.1049136437982776e-16 -0.07285409868733597 0.997342609289445
12648761333.333334 -0.06212526761025129 0.9980683599454385 -2.6008930405351758e-17 -1.1019430461447516e-16 -2.6008930405351758e-17 -1.1019430461447516e-16 -0.062125937305337796 0.9980683182597051
12649378666.666666 -0.051389922846945615 0.9986786649516491 -2.7196731605644005e-17 -1.0988440847433439e-16 -2.7196731605644005e-17 -1.0988440847433439e-16 -0.05139059291884251 0.9986786304709196
12649996000.0 -0.04064863637821808 0.9991735026312568 -2.838087245080629e-17 -1.0956171738974708e-16 -2.838087245080629e-17 -1.0956171738974708e-16 -0.04064930674941866 0.999173475358816
12650613333.333334 -0.029902650112652213 0.999552815771164 -2.95612152072701e-17 -1.092262742783232e-16 -2.95612152072701e-17 -1.092262742783232e-16 -0.029903320705622637 0.9995527957094609
12651230666.666666 -0.019153206502334666 0.9998165605152285 -3.07376226415001e-17 -1.0887812353932297e-16 -3.07376226415001e-17 -1.0887812353932297e-16 -0.01915387723952303 0.9998165476658786
12651848000.0 -0.008401548398947056 0.999964706369341 -3.190995803596485e-17 -1.0851731104784986e-16 -3.190995803596485e-17 -1.0851731104784986e-16 -0.008402219202792384 0.9999647007331264
12652465333.333334 0.0023510810897905575 0.9999972362049465 -3.307808520495115e-17 -1.0814388414889809e-16 -3.307808520495115e-17 -1.0814388414889809e-16 0.0023504102968493978 0.9999972377818145
12653082666.666666 0.013103438743677436 0.9999141462610246 -3.424186851036857e-17 -1.0775789165121383e-16 -3.424186851036857e-17 -1.0775789165121383e-16 0.013102768039192738 0.9999141550500891
12653700000.0 0.023854281374171244 0.9997154461445247 -3.54011728774985e-17 -1.0735938382098058e-16 -3.54011728774985e-17 -1.0735938382098058e-16 0.0238536108356775 0.9997154621440656
12654317333.333334 0.0346023659676993 0.9994011588292561 -3.65558638106006e-17 -1.0694841237535887e-16 -3.65558638106006e-17 -1.0694841237535887e-16 0.03460169567270429 0.9994011820367213
12654934666.666666 0.045346449829660275 0.998971320653235 -3.770580740851539e-17 -1.0652503047583525e-16 -3.770580740851539e-17 -1.0652503047583525e-16 0.04534577985563603 0.9989713510652379
12655552000.0 0.056085290728104434 0.9984259813144724 -3.8850870380175424e-17 -1.0608929272140818e-16 -3.8850870380175424e-17 -1.0608929272140818e-16 0.05608462115247831 0.9984260189267933
12656169333.333334 0.06681764703707668 0.9977652038652437 -3.9990920059981555e-17 -1.0564125514162947e-16 -3.9990920059981555e-17 -1.0564125514162947e-16 0.06681697793722245 0.9977652486728323
12656786666.666666 0.07754227788057108 0.9969890647047814 -4.112582442318713e-17 -1.0518097518944792e-16 -4.112582442318713e-17 -1.0518097518944792e-16 0.07754160933379997 0.9969891167017557
12657404000.0 0.08825794327568866 0.9960976535704561 -4.2255452101137617e-17 -1.0470851173391192e-16 -4.2255452101137617e-17 -1.0470851173391192e-16 0.08825727535924036 0.9960977127501026
12658021333.333334 0.09896340427617462 0.9950910735273905 -4.33796723964663e-17 -1.0422392505269403e-16 -4.33796723964663e-17 -1.0422392505269403e-16 0.0989627370672084 0.9950911398821662
12658638666.666666 0.10965742311549556 0.9939694409565579 -4.449835529815461e-17 -1.0372727682447316e-16 -4.449835529815461e-17 -1.0372727682447316e-16 0.10965675669108156 0.9939695144780929
12659256000.0 0.1203387633502049 0.9927328855413049 -4.561137149657977e-17 -1.032186301211241e-16 -4.561137149657977e-17 -1.032186301211241e-16 0.1203380977873149 0.9927329662203997
12659873333.333334 0.131006190002759 0.9913815502523661 -4.671859239840364e-17 -1.0269804939977694e-16 -4.671859239840364e-17 -1.0269804939977694e-16 0.13100552537825752 0.9913816380789938
12660490666.666666 0.14165846970413568 0.9899155913313543 -4.7819890141398197e-17 -1.0216560049470596e-16 -4.7819890141398197e-17 -1.0216560049470596e-16 0.1416578060947716 0.9899156862946656
12661108000.0 0.15229437083683237 0.9883351782726533 -4.891513760922265e-17 -1.016213506090386e-16 -4.891513760922265e-17 -1.016213506090386e-16 0.15229370831922937 0.9883352803609716
12661725333.333334 0.16291266367684193 0.9866404938038674 -5.000420844600868e-17 -1.010653683063538e-16 -5.000420844600868e-17 -1.010653683063538e-16 0.16291200232749029 0.9866406030046961
12662342666.666666 0.1735121205361444 0.984831733864661 -5.108697707095211e-17 -1.0049772350207579e-16 -5.108697707095211e-17 -1.0049772350207579e-16 0.17351146043139168 0.984831850164681
12662960000.0 0.18409151590451045 0.9829091075841156 -5.216331869274688e-17 -9.991848745474105e-17 -5.216331869274688e-17 -9.991848745474105e-17 0.1840908571205531 0.9829092309691889
12663577333.333334 0.19464962659119658 0.9808728372565585 -5.3233109323941156e-17 -9.932773275710169e-17 -5.3233109323941156e-17 -9.932773275710169e-17 0.19464896920407068 0.9808729677117295
12664194666.666666 0.20518523186648066 0.978723158315834 -5.429622579518745e-17 -9.8725533327078e-17 -5.429622579518745e-17 -9.8725533327078e-17 0.2051845759520536 0.9787232958253309
12664812000.0 0.21569711360263696 0.9764603193081192 -5.5352545769405346e-17 -9.811196439855165e-17 -5.5352545769405346e-17 -9.811196439855165e-17 0.21569645923659822 0.976460463855356
12665429333.333334 0.22618405641491407 0.9740845818631556 -5.640194775581552e-17 -9.74871025120213e-17 -5.640194775581552e-17 -9.74871025120213e-17 0.22618340367276696 0.9740847334307344
12666046666.666666 0.23664484780189216 0.9715962206640381 -5.744431112388038e-17 -9.685102550510295e-17 -5.744431112388038e-17 -9.685102550510295e-17 0.23664419675894496 0.9715963792337521
12666664000.0 0.24707827828597723 0.9689955234153872 -5.847951611716819e-17 -9.620381250286292e-17 -5.847951611716819e-17 -9.620381250286292e-17 0.24707762901733424 0.9689956889682203
12667281333.333334 0.2574831415528258 0.96628279081018 -5.950744386704097e-17 -9.55455439080453e-17 -5.950744386704097e-17 -9.55455439080453e-17 0.2574824941333788 0.9662829633263111
12667898666.666666 0.2678582345912061 0.9634583364948931 -6.052797640631142e-17 -9.487630139110406e-17 -6.052797640631142e-17 -9.487630139110406e-17 0.26785758909562585 0.9634585159536979
12668516000.0 0.27820235783192304 0.9605224870332715 -6.154099668273434e-17 -9.419616788012379e-17 -6.154099668273434e-17 -9.419616788012379e-17 0.2782017143346511 0.9605226734133268
12669133333.333334 0.28851431528637833 0.9574755818686213 -6.254638857238873e-17 -9.350522755059618e-17 -6.254638857238873e-17 -9.350522755059618e-17 0.2885136738616173 0.9574757751477032
12669750666.666666 0.2987929146850955 0.9543179732844854 -6.354403689298234e-17 -9.280356581502812e-17 -6.354403689298234e-17 -9.280356581502812e-17 0.29879227540680137 0.9543181734395763
