! Parameters = {f0=12700.012000; bw=77.238000; Q=6100.000000; N=10; m_0_1=1.192087; m_1_1=-0.883439; m_1_2=1.026899; m_2_2=-0.884088; m_2_3=0.663862; m_2_8=-0.003332; m_2_9=0.033372; m_3_3=-0.886025; m_3_4=0.552391; m_3_7=-0.002732; m_3_8=-0.099820; m_3_9=-0.003332; m_4_4=-0.888950; m_4_5=0.388726; m_4_6=0.000785; m_4_7=-0.120369; m_4_8=-0.002732; m_5_5=-0.888568; m_5_6=0.796081; m_5_7=0.000785; m_6_6=-0.888569; m_6_7=0.389068; m_7_7=-0.888936; m_7_8=0.552509; m_8_8=-0.886027; m_8_9=0.664175; m_9_9=-0.884093; m_9_10=1.027977; m_10_10=-0.883449; m_10_11=1.192882}
!
! Created with skrf (http://scikit-rf.org).
# Hz S RI R 50.0 
!freq ReS11 ImS11 ReS21 ImS21 ReS12 ImS12 ReS22 ImS22
12607400000.0 -0.756924882134878 -0.6535018919673793 6.876945622027331e-17 3.1057027295298753e-17 6.876945622027331e-17 3.1057027295298753e-17 -0.7569244716069591 -0.6535023674650082
12608017333.333334 -0.7622707999180299 -0.6472582387209698 6.901159168079422e-17 3.0478632023329995e-17 6.901159168079422e-17 3.0478632023329995e-17 -0.7622703933322637 -0.6472587175534374
12608634666.666666 -0.76756521712732 -0.6409708553874617 6.924886752422424e-17 2.989835896440299e-17 6.924886752422424e-17 2.989835896440299e-17 -0.76756481451079 -0.6409713375220932
12609252000.0 -0.7728077760611324 -0.6346401667553757 6.948126927647374e-17 2.9316248906825423e-17 6.948126927647374e-17 2.9316248906825423e-17 -0.7728073774406498 -0.6346406521592752
12609869333.333334 -0.7779981225215732 -0.6282666005389368 6.97087828054592e-17 2.873234274968668e-17 6.97087828054592e-17 2.873234274968668e-17 -0.7779977279236765 -0.6282670891789903
12610486666.666666 -0.783135905838187 -0.6218505873494429 6.993139432194292e-17 2.8146681499997144e-17 6.993139432194292e-17 2.8146681499997144e-17 -0.7831355152891415 -0.6218510791923222
12611104000.0 -0.7882207788919886 -0.6153925606657522 7.014909038035262e-17 2.755930626980884e-17 7.014909038035262e-17 2.755930626980884e-17 -0.7882203924177824 -0.6153930556779151
12611721333.333334 -0.7932523981385408 -0.6088929568054618 7.036185787957e-17 2.697025827335029e-17 7.036185787957e-17 2.697025827335029e-17 -0.7932520157648851 -0.6088934549531558
12612338666.666666 -0.7982304236313981 -0.6023522148951418 7.056968406370213e-17 2.6379578824137304e-17 7.056968406370213e-17 2.6379578824137304e-17 -0.798230045383724 -0.6023527161444056
12612956000.0 -0.8031545190451204 -0.5957707768405953 7.077255652282774e-17 2.5787309332077862e-17 7.077255652282774e-17 2.5787309332077862e-17 -0.8031541449485772 -0.5957712811572611
12613573333.333334 -0.8080243516977224 -0.589149087297366 7.097046319371444e-17 2.5193491300590025e-17 7.097046319371444e-17 2.5193491300590025e-17 -0.8080239817771784 -0.5891495946470633
12614190666.666666 -0.8128395925734606 -0.582487593640289 7.116339236051647e-17 2.45981663236959e-17 7.116339236051647e-17 2.45981663236959e-17 -0.8128392268534975 -0.5824881039884444
12614808000.0 -0.8175999163448546 -0.5757867459335365 7.135133265544944e-17 2.4001376083110818e-17 7.135133265544944e-17 2.4001376083110818e-17 -0.817599554849769 -0.575787259245378
12615425333.333334 -0.822305001394737 -0.5690469969001203 7.153427305943329e-17 2.3403162345347723e-17 7.153427305943329e-17 2.3403162345347723e-17 -0.8223046441485377 -0.5690475131406794
12616042666.666666 -0.8269545298380307 -0.5622688018912353 7.171220290272143e-17 2.280356695878645e-17 7.171220290272143e-17 2.280356695878645e-17 -0.8269541768644368 -0.5622693210253488
12616660000.0 -0.8315481875431127 -0.5554526188556574 7.188511186549514e-17 2.22026318507689e-17 7.188511186549514e-17 2.22026318507689e-17 -0.8315478388655521 -0.5554531408479698
12617277333.333334 -0.8360856641531801 -0.5485989083085935 7.20529899784414e-17 2.160039902466773e-17 7.20529899784414e-17 2.160039902466773e-17 -0.8360853197947887 -0.5485994331235597
12617894666.666666 -0.8405666531070297 -0.5417081333008497 7.22158276233021e-17 2.099691055696295e-17 7.22158276233021e-17 2.099691055696295e-17 -0.8405663130906494 -0.541708660902738
12618512000.0 -0.8449908516599911 -0.534780759387217 7.237361553340225e-17 2.0392208594302418e-17 7.237361553340225e-17 2.0392208594302418e-17 -0.8449905160081674 -0.53478128974011
12619129333.333334 -0.849357960904205 -0.5278172545952765 7.252634479414864e-17 1.9786335350579293e-17 7.252634479414864e-17 1.9786335350579293e-17 -0.8493576296391884 -0.527817787663076
12619746666.666666 -0.8536676857888866 -0.520818089393687 7.267400684350817e-17 1.9179333103987258e-17 7.267400684350817e-17 1.9179333103987258e-17 -0.8536673589326269 -0.5208186251401133
12620364000.0 -0.8579197351402987 -0.5137837366603226 7.281659347246249e-17 1.8571244194072668e-17 7.281659347246249e-17 1.8571244194072668e-17 -0.8579194127144465 -0.5137842750489195
12620981333.333334 -0.8621138216813372 -0.5067146716504715 7.295409682543292e-17 1.7962111018802084e-17 7.295409682543292e-17 1.7962111018802084e-17 -0.8621135037072412 -0.5067152126446071
12621598666.666666 -0.8662496620509831 -0.4996113719646525 7.308650940068537e-17 1.7351976031608326e-17 7.308650940068537e-17 1.7351976031608326e-17 -0.8662493485496907 -0.4996119155275237
12622216000.0 -0.8703269768234937 -0.49247431751627657 7.321382405071131e-17 1.6740881738433947e-17 7.321382405071131e-17 1.6740881738433947e-17 -0.8703266678157466 -0.4924748636109095
12622833333.333334 -0.8743454905271909 -0.4853039904993675 7.33360339825787e-17 1.612887069479071e-17 7.33360339825787e-17 1.612887069479071e-17 -0.8743451860334258 -0.4853045390886208
12623450666.666666 -0.8783049316631318 -0.47810087535588647 7.345313275826449e-17 1.551598550279633e-17 7.345313275826449e-17 1.551598550279633e-17 -0.8783046317034786 -0.47810142640245445
12624068000.0 -0.8822050327234251 -0.47086545874305236 7.35651142949584e-17 1.4902268808221325e-17 7.35651142949584e-17 1.4902268808221325e-17 -0.8822047373177042 -0.47086601220946606
12624685333.333334 -0.8860455302093537 -0.4635982295003602 7.367197286534535e-17 1.4287763297521685e-17 7.367197286534535e-17 1.4287763297521685e-17 -0.8860452393770784 -0.46359878534899224
12625302666.666666 -0.8898261646490906 -0.45629967861673293 7.377370309785897e-17 1.3672511694892877e-17 7.377370309785897e-17 1.3672511694892877e-17 -0.8898258784094605 -0.45630023680979714
12625920000.0 -0.893546680615341 -0.4489702991971187 7.387029997691566e-17 1.30565567592909e-17 7.387029997691566e-17 1.30565567592909e-17 -0.893546398987245 -0.4489708596966751
12626537333.333334 -0.8972068267424611 -0.44161058642945694 7.396175884311934e-17 1.2439941281481565e-17 7.396175884311934e-17 1.2439941281481565e-17 -0.8972065497444748 -0.4416111491974133
12627154666.666666 -0.9008063557435548 -0.4342210375509923 7.404807539344285e-17 1.1822708081080303e-17 7.404807539344285e-17 1.1822708081080303e-17 -0.9008060833939396 -0.4342216025491073
12627772000.0 -0.9043450244271705 -0.4268021518147079 7.412924568139012e-17 1.1204900003557482e-17 7.412924568139012e-17 1.1204900003557482e-17 -0.904344756743871 -0.4268027190045926
12628389333.333334 -0.9078225937136519 -0.4193544304557449 7.4205266117122e-17 1.0586559917316772e-17 7.4205266117122e-17 1.0586559917316772e-17 -0.9078223307142963 -0.4193549997988665
12629006666.666666 -0.911238828651393 -0.41187837665733534 7.427613346757027e-17 9.967730710690971e-18 7.427613346757027e-17 9.967730710690971e-18 -0.9112385703532913 -0.411878948115019
12629624000.0 -0.9145934984326141 -0.4043744955170109 7.43418448565185e-17 9.348455288992367e-18 7.43418448565185e-17 9.348455288992367e-18 -0.9145932448527565 -0.40437506905044296
12630241333.333334 -0.9178863764090609 -0.3968432940122449 7.440239776466058e-17 8.728776571548361e-18 7.440239776466058e-17 8.728776571548361e-18 -0.9178861275641178 -0.3968438695824752
12630858666.666666 -0.9211172401071804 -0.3892852809665119 7.445779002963596e-17 8.108737488730986e-18 7.445779002963596e-17 8.108737488730986e-18 -0.9211169960135008 -0.3892858585344566
12631476000.0 -0.9242858712433107 -0.3817009670145456 7.450801984603946e-17 7.488380978984606e-18 7.450801984603946e-17 7.488380978984606e-18 -0.9242856319169205 -0.38170154654098953
12632093333.333334 -0.9273920557383143 -0.3740908645680999 7.455308576540528e-17 6.8677499858712396e-18 7.455308576540528e-17 6.8677499858712396e-18 -0.9273918211949165 -0.37409144601369976
12632710666.666666 -0.9304355837320352 -0.3664554877813575 7.459298669616722e-17 6.246887455108165e-18 7.459298669616722e-17 6.246887455108165e-18 -0.930435353987007 -0.3664560711066437
12633328000.0 -0.9334162495976129 -0.3587953525158484 7.462772190359583e-17 5.625836331587492e-18 7.462772190359583e-17 5.625836331587492e-18 -0.9334160246660075 -0.35879593768122875
12633945333.333334 -0.9363338519552089 -0.35111097630602045 7.465729100970858e-17 5.004639556426623e-18 7.465729100970858e-17 5.004639556426623e-18 -0.9363336318517511 -0.3511115632717818
12634562666.666666 -0.9391881936856925 -0.3434028783240616 7.468169399315618e-17 4.383340064011654e-18 7.468169399315618e-17 4.383340064011654e-18 -0.9391879784247813 -0.3434034670503736
12635180000.0 -0.9419790819439842 -0.33567157934477165 7.47009311890857e-17 3.7619807790232784e-18 7.47009311890857e-17 3.7619807790232784e-18 -0.9419788715396883 -0.33567216979168857
12635797333.333334 -0.9447063281720174 -0.32791760171053547 7.471500328897688e-17 3.140604613494257e-18 7.471500328897688e-17 3.140604613494257e-18 -0.9447061226380767 -0.3279181938379991
12636414666.666666 -0.9473697481115231 -0.32014146929592713 7.472391134045604e-17 2.5192544638455595e-18 7.472391134045604e-17 2.5192544638455595e-18 -0.9473695474613473 -0.32014206306376986
12637032000.0 -0.9499691618164653 -0.3123437074723417 7.472765674708406e-17 1.8979732079353363e-18 7.472765674708406e-17 1.8979732079353363e-18 -0.9499689660631332 -0.31234430284028913
12637649333.333334 -0.9525043936651938 -0.3045248430725283 7.47262412681209e-17 1.276803702110355e-18 7.47262412681209e-17 1.276803702110355e-18 -0.9525042028214513 -0.30452544000020176
12638266666.666666 -0.9549752723723386 -0.2966854043548866 7.471966701826479e-17 6.557887782494193e-19 7.471966701826479e-17 6.557887782494193e-19 -0.9549750864506007 -0.2966860028018064
12638884000.0 -0.9573816310003292 -0.2888259209679677 7.470793646736763e-17 3.497124083301991e-20 7.470793646736763e-17 3.497124083301991e-20 -0.9573814500126742 -0.2888265208935546
12639501333.333334 -0.9597233069707422 -0.2809469239144439 7.469105244012566e-17 -5.856061360179692e-19 7.469105244012566e-17 -5.856061360179692e-19 -0.9597231309289154 -0.28094752527802336
12640118666.666666 -0.9620001420751818 -0.2730489455155884 7.46690181157465e-17 -1.2059006114536354e-18 7.46690181157465e-17 -1.2059006114536354e-18 -0.9619999709905939 -0.27304954827639255
12640736000.0 -0.9642119824861235 -0.2651325193747919 7.464183702759006e-17 -1.8258694808708556e-18 7.464183702759006e-17 -1.8258694808708556e-18 -0.9642118163698479 -0.26513312349196255
12641353333.333334 -0.9663586787671369 -0.2571981803420845 7.460951306278796e-17 -2.4454700788005883e-18 7.460951306278796e-17 -2.4454700788005883e-18 -0.9663585176299104 -0.2571987857746756
12641970666.666666 -0.9684400858830935 -0.2492464644776179 7.457205046183606e-17 -3.0646597818655886e-18 7.457205046183606e-17 -3.0646597818655886e-18 -0.9684399297353169 -0.24924707118459877
12642588000.0 -0.9704560632099489 -0.24127790901550214 7.452945381816402e-17 -3.6833960117001234e-18 7.452945381816402e-17 -3.6833960117001234e-18 -0.9704559120616839 -0.24127851695576008
12643205333.333334 -0.972406474544201 -0.23329305232767455 7.44817280776812e-17 -4.301636237854857e-18 7.44817280776812e-17 -4.301636237854857e-18 -0.9724063284051702 -0.2332936614600172
12643822666.666666 -0.9742911881121409 -0.2252924338873328 7.442887853829631e-17 -4.919337980737527e-18 7.442887853829631e-17 -4.919337980737527e-18 -0.9742910469917282 -0.22529304417049165
12644440000.0 -0.9761100765787396 -0.2172765942325421 7.437091084941626e-17 -5.536458814496067e-18 7.437091084941626e-17 -5.536458814496067e-18 -0.976109940485989 -0.21727720562517483
12645057333.333334 -0.9778630170562154 -0.20924607492988184 7.430783101141766e-17 -6.152956369943413e-18 7.430783101141766e-17 -6.152956369943413e-18 -0.97786288599983 -0.20924668739057514
12645674666.666666 -0.9795498911123871 -0.20120141853763462 7.423964537509721e-17 -6.768788337443474e-18 7.423964537509721e-17 -6.768788337443474e-18 -0.9795497651007292 -0.2012020320249071
12646292000.0 -0.9811705847786728 -0.19314316856912936 7.41663606410945e-17 -7.383912469827712e-18 7.41663606410945e-17 -7.383912469827712e-18 -0.9811704638197627 -0.1931437830414343
12646909333.333334 -0.9827249885577324 -0.1850718694562988 7.408798385929555e-17 -7.998286585264138e-18 7.408798385929555e-17 -7.998286585264138e-18 -0.9827248726592498 -0.18507248487202738
12647526666.666666 -0.9842129974309423 -0.1769880665125351 7.400452242820907e-17 -8.611868570148039e-18 7.400452242820907e-17 -8.611868570148039e-18 -0.9842128866002214 -0.1769886828300181
12648144000.0 -0.9856345108654442 -0.16889230589604096 7.39159840943184e-17 -9.224616381995317e-18 7.39159840943184e-17 -9.224616381995317e-18 -0.9856344051094788 -0.16889292307355283
12648761333.333334 -0.9869894328209399 -0.1607851345729595 7.382237695141411e-17 -9.836488052289791e-18 7.382237695141411e-17 -9.836488052289791e-18 -0.9869893321463792 -0.1607857525687206
12649378666.666666 -0.9882776717561926 -0.1526671002803358 7.372370943989811e-17 -1.0447441689366385e-17 7.372370943989811e-17 -1.0447441689366385e-17 -0.9882775761693411 -0.1526677190525151
12649996000.0 -0.9894991406351993 -0.14453875148916626 7.361999034606655e-17 -1.105743548126685e-17 7.361999034606655e-17 -1.105743548126685e-17 -0.9894990501420197 -0.14453937099588468
12650613333.333334 -0.9906537569331008 -0.13640063736720337 7.35112288013683e-17 -1.166642769859301e-17 7.35112288013683e-17 -1.166642769859301e-17 -0.990653671539208 -0.13640125756653596
12651230666.666666 -0.9917414426416994 -0.12825330774216057 7.33974342816414e-17 -1.2274376697351312e-17 7.33974342816414e-17 -1.2274376697351312e-17 -0.9917413623523662 -0.12825392859214002
12651848000.0 -0.9927621242747956 -0.12009731306420082 7.327861660632285e-17 -1.2881240921798416e-17 7.327861660632285e-17 -1.2881240921798416e-17 -0.992762049094947 -0.12009793452281961
12652465333.333334 -0.9937157328731153 -0.11193320436891409 7.315478593763794e-17 -1.3486978907271518e-17 7.315478593763794e-17 -1.3486978907271518e-17 -0.9937156628073317 -0.1119338263941279
12653082666.666666 -0.9946022040089555 -0.10376153324028714 7.302595277976815e-17 -1.4091549282998687e-17 7.302595277976815e-17 -1.4091549282998687e-17 -0.9946021390614711 -0.10376215579001741
12653700000.0 -0.9954214777905892 -0.09558285177292847 7.289212797798758e-17 -1.4694910774943185e-17 7.289212797798758e-17 -1.4694910774943185e-17 -0.9954214179652932 -0.09558347480506539
12654317333.333334 -0.9961734988662527 -0.08739771253536147 7.275332271778634e-17 -1.5297022208590252e-17 7.275332271778634e-17 -1.5297022208590252e-17 -0.9961734441666866 -0.08739833600776668
12654934666.666666 -0.9968582164279212 -0.0792066685323241 7.260954852396499e-17 -1.5897842511754955e-17 7.260954852396499e-17 -1.5897842511754955e-17 -0.9968581668572803 -0.07920729240283363
12655552000.0 -0.9974755842147452 -0.07101027316732154 7.246081725970304e-17 -1.6497330717392064e-17 7.246081725970304e-17 -1.6497330717392064e-17 -0.9974755397758781 -0.07101089739374863
12656169333.333334 -0.9980255605161422 -0.06280908020569051 7.230714112561662e-17 -1.7095445966346203e-17 7.230714112561662e-17 -1.7095445966346203e-17 -0.9980255212115503 -0.0628097047458285
12656786666.666666 -0.9985081081746525 -0.054603643736675644 7.214853265877671e-17 -1.7692147510165495e-17 7.214853265877671e-17 -1.7692147510165495e-17 -0.9985080740064902 -0.054604268548300756
12657404000.0 -0.9989231945884246 -0.0463945181363342 7.198500473171844e-17 -1.82873947138447e-17 7.198500473171844e-17 -1.82873947138447e-17 -0.9989231655584985 -0.04639514317720842
12658021333.333334 -0.9992707917134281 -0.038182258029939575 7.181657055141982e-17 -1.888114705859448e-17 7.181657055141982e-17 -1.888114705859448e-17 -0.9992707678231991 -0.03818288325781362
12658638666.666666 -0.9995508760653463 -0.029967418254566478 7.16432436582615e-17 -1.9473364144587254e-17 7.16432436582615e-17 -1.9473364144587254e-17 -0.9995508573159269 -0.029968043627182493
12659256000.0 -0.9997634287211664 -0.021750553821519795 7.146503792496047e-17 -2.0064005693703782e-17 7.146503792496047e-17 -2.0064005693703782e-17 -0.9997634151133213 -0.021751179296614256
12659873333.333334 -0.9999084353204525 -0.01353221987886514 7.128196755548404e-17 -2.0653031552262317e-17 7.128196755548404e-17 -2.0653031552262317e-17 -0.9999084268546002 -0.013532845414171747
12660490666.666666 -0.999985886066317 -0.005312971674120985 7.109404708394503e-17 -2.1240401693725936e-17 7.109404708394503e-17 -2.1240401693725936e-17 -0.9999858827425266 -0.005313597227373477
12661108000.0 -0.9999957757260833 0.002906635483624486 7.090129137346231e-17 -2.1826076221440412e-17 7.090129137346231e-17 -2.1826076221440412e-17 -0.9999957775440799 0.0029060099546894457
12661725333.333334 -0.9999381036316429 0.01112604626091854 7.070371561501394e-17 -2.2410015371313756e-17 7.070371561501394e-17 -2.2410015371313756e-17 -0.9999381105908008 0.011125420798558534
12662342666.666666 -0.9998128736794948 0.019344705337577095 7.05013353262588e-17 -2.299217951451562e-17 7.05013353262588e-17 -2.299217951451562e-17 -0.9998128857788422 0.019344079984041064
12662960000.0 -0.9996200943304832 0.027562057444288454 7.029416635033686e-17 -2.3572529160164497e-17 7.029416635033686e-17 -2.3572529160164497e-17 -0.9996201115687026 0.027561432241813916
12663577333.333334 -0.9993597786092299 0.03577754739995801 7.00822248546535e-17 -2.4151024957984047e-17 7.00822248546535e-17 -2.4151024957984047e-17 -0.9993598009846554 0.03577692239076813
12664194666.666666 -0.9990319441032532 0.043990620149302696 6.986552732963277e-17 -2.4727627700979007e-17 6.986552732963277e-17 -2.4727627700979007e-17 -0.9990319716138716 0.04398999537560344
12664812000.0 -0.9986366129617722 0.052200720800436674 6.964409058745828e-17 -2.5302298328069987e-17 6.964409058745828e-17 -2.5302298328069987e-17 -0.9986366456052245 0.052200096304414016
12665429333.333334 -0.9981738118942222 0.06040729466219079 6.941793176078516e-17 -2.5874997926739196e-17 6.941793176078516e-17 -2.5874997926739196e-17 -0.9981738496678022 0.060406670486007806
12666046666.666666 -0.997643572168442 0.06860978728167363 6.91870683014349e-17 -2.644568773565303e-17 6.91870683014349e-17 -2.644568773565303e-17 -0.9976436150690984 0.06860916346746775
12666664000.0 -0.9970459296085595 0.07680764448184516 6.895151797906357e-17 -2.701432914728486e-17 6.895151797906357e-17 -2.701432914728486e-17 -0.9970459776328936 0.07680702107172517
12667281333.333334 -0.996380924592587 0.0850003123986459 6.871129887981691e-17 -2.758088371050676e-17 6.871129887981691e-17 -2.758088371050676e-17 -0.9963809777368553 0.0849996894346892
12667898666.666666 -0.9956486020496705 0.09318723751878585 6.846642940495752e-17 -2.814531313318498e-17 6.846642940495752e-17 -2.814531313318498e-17 -0.9956486603097834 0.09318661504303567
12668516000.0 -0.9948490114570638 0.1013678667169707 6.821692826946617e-17 -2.8707579284775094e-17 6.821692826946617e-17 -2.8707579284775094e-17 -0.9948490748285861 0.10136724477143305
12669133333.333334 -0.9939822068368023 0.10954164729310235 6.796281450064143e-17 -2.9267644198858494e-17 6.796281450064143e-17 -2.9267644198858494e-17 -0.9939822753149551 0.10954102591974345
12669750666.666666 -0.9930482467520206 0.11770802700998848 6.770410743665461e-17 -2.982547007572266e-17 6.770410743665461e-17 -2.982547007572266e-17 -0.9930483203316797 0.11770740625073177
12670368000.0 -0.9920471943030237 0.12586645413034142 6.74408267250954e-17 -3.03810192849019e-17 6.74408267250954e-17 -3.03810192849019e-17 -0.9920472729787209 0.1258658340270648
