! Parameters = {f0=12700.012000; bw=77.238000; Q=6100.000000; N=10; m_0_1=1.339234; m_1_1=1.323768; m_1_2=1.174046; m_2_2=1.323119; m_2_3=0.811009; m_2_8=0.004025; m_2_9=0.040729; m_3_3=1.321182; m_3_4=0.699538; m_3_7=0.004625; m_3_8=-0.092463; m_3_9=0.004025; m_4_4=1.318257; m_4_5=0.535873; m_4_6=0.008142; m_4_7=-0.113012; m_4_8=0.004625; m_5_5=1.318639; m_5_6=0.943228; m_5_7=0.008142; m_6_6=1.318638; m_6_7=0.536215; m_7_7=1.318271; m_7_8=0.699656; m_8_8=1.321180; m_8_9=0.811322; m_9_9=1.323114; m_9_10=1.175124; m_10_10=1.323758; m_10_11=1.340029}
!
! Created with skrf (http://scikit-rf.org).
# Hz S RI R 50.0 
!freq ReS11 ImS11 ReS21 ImS21 ReS12 ImS12 ReS22 ImS22
12607400000.0 -0.9758497587802911 0.2184427803527768 1.324979652974505e-16 -7.380585806694589e-17 1.324979652974505e-16 -7.380585806694589e-17 -0.9758499128817146 0.21844209193411915
12608017333.333334 -0.9730269825892559 0.23069133306878453 1.3152735480982614e-16 -7.546233187779657e-17 1.3152735480982614e-16 -7.546233187779657e-17 -0.9730271453235216 0.2306906466750693
12608634666.666666 -0.9700504728946772 0.2429034376797027 1.3053604974998483e-16 -7.710606578884201e-17 1.3053604974998483e-16 -7.710606578884201e-17 -0.9700506442352315 0.2429027534191735
12609252000.0 -0.9669206999706348 0.2550771647327586 1.2952421703860392e-16 -7.873680144465491e-17 1.2952421703860392e-16 -7.873680144465491e-17 -0.9669208798895643 0.25507648271331085
12609869333.333334 -0.9636381583060297 0.26721059083870213 1.284920268193415e-16 -8.035428267320671e-17 1.284920268193415e-16 -8.035428267320671e-17 -0.9636383467740708 0.2672099111678671
12610486666.666666 -0.960203366526539 0.279301798975419 1.2743965243035758e-16 -8.195825552598537e-17 1.2743965243035758e-16 -8.195825552598537e-17 -0.9602035635130793 0.27930112176034627
12611104000.0 -0.9566168673125218 0.2913488787913588 1.2636727037526327e-16 -8.354846831785877e-17 1.2636727037526327e-16 -8.354846831785877e-17 -0.9566170727856056 0.29134820413879936
12611721333.333334 -0.9528792273134279 0.3033499269068124 1.2527506029364745e-16 -8.512467166644378e-17 1.2527506029364745e-16 -8.512467166644378e-17 -0.9528794412397629 0.303349254923102
12612338666.666666 -0.9489910370581985 0.3153030472149116 1.2416320493104312e-16 -8.668661853119933e-17 1.2416320493104312e-16 -8.668661853119933e-17 -0.948991259403159 0.31530237800595384
12612956000.0 -0.9449529108619763 0.32720635118114905 1.2303189010845418e-16 -8.823406425205677e-17 1.2303189010845418e-16 -8.823406425205677e-17 -0.9449531415896112 0.3272056848523992
12613573333.333334 -0.9407654867290498 0.3390579581417585 1.2188130469140398e-16 -8.976676658765539e-17 1.2188130469140398e-16 -8.976676658765539e-17 -0.940765725802086 0.33905729479820584
12614190666.666666 -0.9364294262520487 0.35085599560084874 1.207116405584573e-16 -9.128448575324477e-17 1.207116405584573e-16 -9.128448575324477e-17 -0.9364296736319 0.35085533534700153
12614808000.0 -0.9319454145074193 0.362598599526251 1.1952309256934788e-16 -9.278698445807461e-17 1.1952309256934788e-16 -9.278698445807461e-17 -0.9319456701541895 0.36259794246611854
12615425333.333334 -0.9273141599471821 0.3742839146440251 1.1831585853255932e-16 -9.427402794248118e-17 1.1831585853255932e-16 -9.427402794248118e-17 -0.9273144238196734 0.374283260881102
12616042666.666666 -0.9225363942870023 0.38591009473158444 1.1709013917252962e-16 -9.57453840144442e-17 1.1709013917252962e-16 -9.57453840144442e-17 -0.9225366663427212 0.3859094443688344
12616660000.0 -0.9176128723905811 0.3974753029093903 1.1584613809632225e-16 -9.720082308582016e-17 1.1584613809632225e-16 -9.720082308582016e-17 -0.9176131525857455 0.3974746560492297
12617277333.333334 -0.9125443721503896 0.40897771193116866 1.1458406175990156e-16 -9.864011820807641e-17 1.1458406175990156e-16 -9.864011820807641e-17 -0.9125446604399364 0.40897706867545075
12617894666.666666 -0.9073316943647945 0.4204155044725568 1.13304119433967e-16 -1.0006304510759032e-16 1.13304119433967e-16 -1.0006304510759032e-16 -0.9073319907023855 0.42041486492255514
12618512000.0 -0.9019756626114099 0.43178687341848704 1.1200652316929213e-16 -1.0146938222056984e-16 1.1200652316929213e-16 -1.0146938222056984e-16 -0.9019759669494394 0.4317862376748796
12619129333.333334 -0.8964771231172175 0.443090022148187 1.1069148776171254e-16 -1.0285891072743697e-16 1.1069148776171254e-16 -1.0285891072743697e-16 -0.8964774354068222 0.4430893903110415
12619746666.666666 -0.8908369446246573 0.45432316481950424 1.0935923071663638e-16 -1.0423141458681613e-16 1.0935923071663638e-16 -1.0423141458681613e-16 -0.8908372648157208 0.45432253698826025
12620364000.0 -0.8850560182543534 0.4654845266510517 1.0800997221310408e-16 -1.0558668056909422e-16 1.0800997221310408e-16 -1.0558668056909422e-16 -0.8850563462955178 0.4654839029245073
12620981333.333334 -0.8791352573645642 0.4765723442021641 1.0664393506754714e-16 -1.0692449828939993e-16 1.0664393506754714e-16 -1.0692449828939993e-16 -0.8791355932032346 0.47657172467845854
12621598666.666666 -0.8730755974066383 0.48758486565196607 1.0526134469702573e-16 -1.0824466024023198e-16 1.0526134469702573e-16 -1.0824466024023198e-16 -0.8730759409889942 0.48758425042856546
12622216000.0 -0.8668779957772418 0.4985203510760994 1.0386242908209981e-16 -1.0954696182357686e-16 1.0386242908209981e-16 -1.0954696182357686e-16 -0.8668783470482437 0.4985197402497803
12622833333.333334 -0.8605434316671993 0.5093770727214212 1.0244741872931542e-16 -1.1083120138253457e-16 1.0244741872931542e-16 -1.1083120138253457e-16 -0.8605437905706 0.5093764663882572
12623450666.666666 -0.8540729059067987 0.5201533152789867 1.010165466333403e-16 -1.1209718023242788e-16 1.010165466333403e-16 -1.1209718023242788e-16 -0.8540732723851484 0.5201527135343305
12624068000.0 -0.8474674408075439 0.5308473761552529 9.957004823859639e-17 -1.1334470269153412e-16 9.957004823859639e-17 -1.1334470269153412e-16 -0.8474678148022039 0.5308467790937245
12624685333.333334 -0.8407280800006017 0.5414575657411264 9.8108161400633e-17 -1.1457357611121141e-16 9.8108161400633e-17 -1.1457357611121141e-16 -0.8407284614517505 0.5414569734565962
12625302666.666666 -0.8338558882722167 0.5519822076784323 9.663112634710673e-17 -1.1578361090555438e-16 9.663112634710673e-17 -1.1578361090555438e-16 -0.833856277118861 0.5519816202640068
12625920000.0 -0.8268519513950549 0.562419639125444 9.513918563830351e-17 -1.169746205806231e-16 9.513918563830351e-17 -1.169746205806231e-16 -0.8268523475750377 0.5624190566734505
12626537333.333334 -0.8197173759569578 0.5727682110191216 9.363258412745399e-17 -1.1814642176303935e-16 9.363258412745399e-17 -1.1814642176303935e-16 -0.8197177794069711 0.5727676336210948
12627154666.666666 -0.8124532891861206 0.5830262883356631 9.211156892060586e-17 -1.192988342281499e-16 9.211156892060586e-17 -1.192988342281499e-16 -0.8124536998417139 0.5830257160823312
12627772000.0 -0.8050608387726639 0.5931922503492946 9.057638933608187e-17 -1.204316809277249e-16 9.057638933608187e-17 -1.204316809277249e-16 -0.8050612565682547 0.5931916833305635
12628389333.333334 -0.7975411926878004 0.6032644908876418 8.90272968637965e-17 -1.215447880169857e-16 8.90272968637965e-17 -1.215447880169857e-16 -0.7975416175566843 0.6032639291925814
12629006666.666666 -0.7898955389988003 0.6132414185861877 8.746454512404308e-17 -1.2263798488125933e-16 8.746454512404308e-17 -1.2263798488125933e-16 -0.7898959708731619 0.6132408623030187
12629624000.0 -0.7821250856816514 0.6231214571391961 8.588838982606536e-17 -1.2371110416202293e-16 8.588838982606536e-17 -1.2371110416202293e-16 -0.7821255244925751 0.6231209063552748
12630241333.333334 -0.774231060430037 0.6329030455489891 8.429908872629745e-17 -1.2476398178242755e-16 8.429908872629745e-17 -1.2476398178242755e-16 -0.7742315061075183 0.6329025003507953
12630858666.666666 -0.7662147104614 0.6425846383725318 8.269690158627144e-17 -1.2579645697230127e-16 8.269690158627144e-17 -1.2579645697230127e-16 -0.7662151629343568 0.6425840988456539
12631476000.0 -0.7580773023198898 0.6521647059656043 8.108209013016942e-17 -1.268083722926447e-16 8.108209013016942e-17 -1.268083722926447e-16 -0.7580777615161727 0.6521641721947267
12632093333.333334 -0.7498201216762139 0.6616417347245203 7.945491800224994e-17 -1.2779957365947168e-16 7.945491800224994e-17 -1.2779957365947168e-16 -0.7498205875226189 0.6616412067934097
12632710666.666666 -0.7414444731246989 0.6710142273250568 7.781565072378363e-17 -1.2876991036723478e-16 7.781565072378363e-17 -1.2876991036723478e-16 -0.7414449455469779 0.6710137053165484
12633328000.0 -0.7329516799767937 0.6802807029594484 7.616455564977438e-17 -1.2971923511165062e-16 7.616455564977438e-17 -1.2971923511165062e-16 -0.7329521588996676 0.6802801869554348
12633945333.333334 -0.7243430840523688 0.6894396975699242 7.450190192550808e-17 -1.3064740401191233e-16 7.450190192550808e-17 -1.3064740401191233e-16 -0.7243435693995387 0.6894391876513405
12634562666.666666 -0.7156200454675276 0.6984897640802319 7.282796044266264e-17 -1.3155427663244596e-16 7.282796044266264e-17 -1.3155427663244596e-16 -0.7156205371616875 0.6984892603270448
12635180000.0 -0.7067839424197533 0.7074294726242291 7.114300379526533e-17 -1.3243971600404001e-16 7.114300379526533e-17 -1.3243971600404001e-16 -0.7067844403826014 0.7074289751154227
12635797333.333334 -0.6978361709701576 0.7162574107717923 6.944730623538051e-17 -1.3330358864442168e-16 6.944730623538051e-17 -1.3330358864442168e-16 -0.69783667512241 0.7162569195853569
12636414666.666666 -0.6887781448229137 0.7249721837519765 6.774114362851983e-17 -1.341457645782839e-16 6.774114362851983e-17 -1.341457645782839e-16 -0.6887786550843153 0.7249716989648952
12637032000.0 -0.6796112951018929 0.7335724146733785 6.602479340880198e-17 -1.349661173567436e-16 6.602479340880198e-17 -1.349661173567436e-16 -0.6796118113912327 0.7335719363616171
12637649333.333334 -0.6703370701245602 0.7420567447416847 6.42985345339565e-17 -1.357645240761918e-16 6.42985345339565e-17 -1.357645240761918e-16 -0.6703375923596814 0.7420562729801767
12638266666.666666 -0.6609569351731401 0.7504238334743459 6.256264743999351e-17 -1.3654086539662054e-16 6.256264743999351e-17 -1.3654086539662054e-16 -0.6609574632709565 0.7504233683369855
12638884000.0 -0.651472372263117 0.7586723589123768 6.081741399573079e-17 -1.372950255593342e-16 6.081741399573079e-17 -1.372950255593342e-16 -0.6514729061396226 0.7586719004720021
12639501333.333334 -0.6418848799090779 0.7668010178292107 5.906311745710214e-17 -1.380268924040849e-16 5.906311745710214e-17 -1.380268924040849e-16 -0.6418854194793622 0.766800566157595
12640118666.666666 -0.6321959728879997 0.77480852593657 5.730004242123831e-17 -1.3873635738563632e-16 5.730004242123831e-17 -1.3873635738563632e-16 -0.6321965180662616 0.7748080811044109
12640736000.0 -0.6224071819997035 0.7826936180875579 5.552847478029507e-17 -1.3942331558976301e-16 5.552847478029507e-17 -1.3942331558976301e-16 -0.6224077326992647 0.782693180164466
12641353333.333334 -0.6125200538254361 0.7904550484761862 5.3748701675289795e-17 -1.400876657485823e-16 5.3748701675289795e-17 -1.400876657485823e-16 -0.6125206099587531 0.7904546175306725
12641970666.666666 -0.6025361504830741 0.7980915908345636 5.19610114494869e-17 -1.4072931025540412e-16 5.19610114494869e-17 -1.4072931025540412e-16 -0.6025367119617545 0.7980911669340307
12642588000.0 -0.5924570493805397 0.8056020386264606 5.016569360180696e-17 -1.4134815517890972e-16 5.016569360180696e-17 -1.4134815517890972e-16 -0.5924576161153553 0.8056016218371924
12643205333.333334 -0.5822843429665807 0.8129852052379434 4.836303874002204e-17 -1.419441102767568e-16 4.836303874002204e-17 -1.419441102767568e-16 -0.5822849148674816 0.812984795625093
12643822666.666666 -0.5720196384789861 0.8202399241649817 4.655333853372683e-17 -1.425170890086099e-16 4.655333853372683e-17 -1.425170890086099e-16 -0.5720202154551142 0.8202395217925613
12644440000.0 -0.5616645576909238 0.8273650491975493 4.473688566723069e-17 -1.4306700854854758e-16 4.473688566723069e-17 -1.4306700854854758e-16 -0.5616651396506291 0.8273646541284226
12645057333.333334 -0.5512207366544825 0.8343594546008897 4.291397379229782e-17 -1.4359378979687366e-16 4.291397379229782e-17 -1.4359378979687366e-16 -0.551221323505336 0.8343590668967593
12645674666.666666 -0.5406898254424618 0.8412220352931826 4.108489748071835e-17 -1.4409735739133759e-16 4.108489748071835e-17 -1.4409735739133759e-16 -0.5406904170912709 0.8412216550145819
12646292000.0 -0.5300734878871489 0.847951707020487 3.9249952176742106e-17 -1.4457763971775267e-16 3.9249952176742106e-17 -1.4457763971775267e-16 -0.5300740842399722 0.8479513342267702
12646909333.333334 -0.5193734013181064 0.8545474065276109 3.7409434149473324e-17 -1.4503456891998723e-16 3.7409434149473324e-17 -1.4503456891998723e-16 -0.5193740022802689 0.8545470412769447
12647526666.666666 -0.5085912562966877 0.8610080917264142 3.5563640445037097e-17 -1.4546808090938246e-16 3.5563640445037097e-17 -1.4546808090938246e-16 -0.5085918617727948 0.8610077340757671
12648144000.0 -0.4977287563489791 0.8673327418604141 3.371286883873001e-17 -1.4587811537353746e-16 3.371286883873001e-17 -1.4587811537353746e-16 -0.49772936624293257 0.8673323918655483
12648761333.333334 -0.48678761769689566 0.8735203576659138 3.18574177870238e-17 -1.4626461578450005e-16 3.18574177870238e-17 -1.4626461578450005e-16 -0.48678823191190895 0.8735200153813775
12649378666.666666 -0.47576956898683237 0.8795699615300013 2.999758637951964e-17 -1.4662752940633807e-16 2.999758637951964e-17 -1.4662752940633807e-16 -0.4757701874254458 0.879569627009119
12649996000.0 -0.4646763510165956 0.8854805976449774 2.8133674290778644e-17 -1.469668073021104e-16 2.8133674290778644e-17 -1.469668073021104e-16 -0.46467697358069127 0.8854802709398409
12650613333.333334 -0.45350971646031324 0.8912513321593921 2.6265981732068643e-17 -1.472824043402268e-16 2.6265981732068643e-17 -1.472824043402268e-16 -0.45351034305113136 0.8912510133208543
12651230666.666666 -0.4422714295917758 0.8968812533254625 2.4394809403127797e-17 -1.4757427920018137e-16 2.4394809403127797e-17 -1.4757427920018137e-16 -0.44227206010992987 0.8968809424031282
12651848000.0 -0.43096326600518153 0.9023694716433804 2.252045844375126e-17 -1.478423943776928e-16 2.252045844375126e-17 -1.478423943776928e-16 -0.4309639003506745 0.9023691686855989
12652465333.333334 -0.4195870123351089 0.907715120001591 2.0643230385410376e-17 -1.4808671618921909e-16 2.0643230385410376e-17 -1.4808671618921909e-16 -0.41958765040734897 0.9077148250554492
12653082666.666666 -0.40814446597398424 0.9129173538139238 1.8763427102828016e-17 -1.4830721477585824e-16 1.8763427102828016e-17 -1.4830721477585824e-16 -0.4081451076718003 0.9129170669252376
12653700000.0 -0.3966374347881518 0.9179753511530038 1.6881350765433527e-17 -1.4850386410664576e-16 1.6881350765433527e-17 -1.4850386410664576e-16 -0.39663808000981016 0.9179750723663124
12654317333.333334 -0.38506773683224027 0.9228883128801134 1.4997303788915983e-17 -1.4867664198122258e-16 1.4997303788915983e-17 -1.4867664198122258e-16 -0.3850683854754604 0.9228880422386715
12654934666.666666 -0.37343720006197234 0.9276554627714321 1.3111588786630293e-17 -1.4882553003190364e-16 1.3111588786630293e-17 -1.4882553003190364e-16 -0.37343785202394275 0.9276552003172024
12655552000.0 -0.3617476620450922 0.9322760476407809 1.1224508521074959e-17 -1.4895051372512045e-16 1.1224508521074959e-17 -1.4895051372512045e-16 -0.36174831722248757 0.9322757934144296
12656169333.333334 -0.3500009696715662 0.9367493374584089 9.336365855356597e-18 -1.490515823622531e-16 9.336365855356597e-18 -1.490515823622531e-16 -0.3500016279605633 0.9367490914992984
12656786666.666666 -0.3381989788612571 0.9410746254665506 7.447463704623393e-18 -1.4912872907984885e-16 7.447463704623393e-18 -1.4912872907984885e-16 -0.3381996401575508 0.9410743878127323
12657404000.0 -0.32634355427095924 0.945251228290978 5.558104987509091e-18 -1.4918195084922697e-16 5.558104987509091e-18 -1.4918195084922697e-16 -0.3263442184697799 0.9452509989791887
12658021333.333334 -0.3144365689997415 0.949278486048997 3.668592577629264e-18 -1.4921124847546552e-16 3.668592577629264e-18 -1.4921124847546552e-16 -0.31443723599587087 0.9492782651146513
12658638666.666666 -0.30247990429305943 0.9531557624536857 1.7792292551122768e-18 -1.4921662659577795e-16 1.7792292551122768e-18 -1.4921662659577795e-16 -0.3024805739808478 0.9531555499308714
12659256000.0 -0.2904754492453118 0.956882444914494 -1.0968234191227193e-19 -1.491980936772759e-16 -1.0968234191227193e-19 -1.491980936772759e-16 -0.2904761215186945 0.956882240835967
12659873333.333334 -0.2784251005016427 0.9604579446339416 -1.9978397657155476e-18 -1.4915566201411935e-16 -1.9978397657155476e-18 -1.4915566201411935e-16 -0.27842577525415696 0.9604577490311206
12660490666.666666 -0.2663307619583378 0.9638816967006364 -3.8849408072712984e-18 -1.4908934772405545e-16 -3.8849408072712984e-18 -1.4908934772405545e-16 -0.2663314390831394 0.9638815096035972
12661108000.0 -0.2541943444614705 0.9671531601786811 -5.770683544712484e-18 -1.4899917074434342e-16 -5.770683544712484e-18 -1.4899917074434342e-16 -0.25419502385135095 0.9671529816161537
12661725333.333334 -0.2420177655057643 0.970271818192924 -7.65476639143489e-18 -1.4888515482707523e-16 -7.65476639143489e-18 -1.4888515482707523e-16 -0.24201844705316797 0.9702716481922876
12662342666.666666 -0.22980294893103514 0.9732371780107896 -9.536888144340134e-18 -1.487473275338817e-16 -9.536888144340134e-18 -1.487473275338817e-16 -0.22980363252807573 0.9732370165980672
12662960000.0 -0.2175518246185637 0.9760487711200395 -1.1416748031939089e-17 -1.4858572023003196e-16 -1.1416748031939089e-17 -1.4858572023003196e-16 -0.21755251015704158 0.976048618319895
12663577333.333334 -0.20526632818590676 0.9787061533028606 -1.3294045762342052e-17 -1.4840036807792688e-16 -1.3294045762342052e-17 -1.4840036807792688e-16 -0.20526701555732607 0.978706009138594
12664194666.666666 -0.19294840068141147 0.9812089047059708 -1.516848157114503e-17 -1.4819131002998925e-16 -1.516848157114503e-17 -1.4819131002998925e-16 -0.1929490897769979 0.9812087691995184
12664812000.0 -0.18059998827731863 0.9835566299070113 -1.7039756269297235e-17 -1.4795858882094182e-16 -1.7039756269297235e-17 -1.4795858882094182e-16 -0.18060067898803553 0.9835565030789364
12665429333.333334 -0.16822304196227525 0.9857489579770112 -1.8907571290739663e-17 -1.4770225095949325e-16 -1.8907571290739663e-17 -1.4770225095949325e-16 -0.16822373417884162 0.9857488398465055
12666046666.666666 -0.1558195172333686 0.9877855425389487 -2.0771628740001486e-17 -1.4742234671941734e-16 -2.0771628740001486e-17 -1.4742234671941734e-16 -0.15582021084627615 0.9877854331238274
12666664000.0 -0.14339137378660677 0.9896660618225702 -2.2631631439711763e-17 -1.4711893013002302e-16 -2.2631631439711763e-17 -1.4711893013002302e-16 -0.14339206868613733 0.9896659611392701
12667281333.333334 -0.13094057520785646 0.9913902187151339 -2.4487282977818946e-17 -1.4679205896605213e-16 -2.4487282977818946e-17 -1.4679205896605213e-16 -0.1309412712840993 0.9913901267787112
12667898666.666666 -0.11846908866232624 0.9929577408084002 -2.6338287754828228e-17 -1.4644179473695627e-16 -2.6338287754828228e-17 -1.4644179473695627e-16 -0.11846978580519554 0.9929576576325281
12668516000.0 -0.1059788845838201 0.9943683804416624 -2.818435103084854e-17 -1.4606820267558664e-16 -2.818435103084854e-17 -1.4606820267558664e-16 -0.10597958268307191 0.9943683060386266
12669133333.333334 -0.09347193636341779 0.9956219147408711 -3.002517897240851e-17 -1.456713517263044e-16 -3.002517897240851e-17 -1.456713517263044e-16 -0.09347263530866813 0.9956218491215719
12669750666.666666 -0.08095022003768973 0.9967181456538531 -3.186047869922562e-17 -1.4525131453248085e-16 -3.186047869922562e-17 -1.4525131453248085e-16 -0.08095091971843162 0.9967180888278014
