! Parameters = {f0=12700.012000; bw=77.238000; Q=6100.000000; N=10; m_0_1=1.192688; m_1_1=-0.874430; m_1_2=1.027500; m_2_2=-0.875079; m_2_3=0.664463; m_2_8=-0.003302; m_2_9=0.033402; m_3_3=-0.877016; m_3_4=0.552992; m_3_7=-0.002702; m_3_8=-0.099790; m_3_9=-0.003302; m_4_4=-0.879941; m_4_5=0.389327; m_4_6=0.000815; m_4_7=-0.120339; m_4_8=-0.002702; m_5_5=-0.879559; m_5_6=0.796682; m_5_7=0.000815; m_6_6=-0.879560; m_6_7=0.389669; m_7_7=-0.879927; m_7_8=0.553110; m_8_8=-0.877018; m_8_9=0.664776; m_9_9=-0.875084; m_9_10=1.028578; m_10_10=-0.874440; m_10_11=1.193483}
!
! Created with skrf (http://scikit-rf.org).
# Hz S RI R 50.0 
!freq ReS11 ImS11 ReS21 ImS21 ReS12 ImS12 ReS22 ImS22
12607400000.0 -0.9395930921882686 -0.34229347220175066 7.554667888005376e-17 4.6404343762721025e-18 7.554667888005376e-17 4.6404343762721025e-18 -0.9395928770524552 -0.34229406274741897
12608017333.333334 -0.942380788045319 -0.3345421502933924 7.556789216298758e-17 4.010487455011046e-18 7.556789216298758e-17 4.010487455011046e-18 -0.9423805777916021 -0.3345427425621578
12608634666.666666 -0.945104539369922 -0.3267681282839756 7.558385738052344e-17 3.3805091974366467e-18 7.558385738052344e-17 3.3805091974366467e-18 -0.945104334012089 -0.32676872223548326
12609252000.0 -0.9477641613440534 -0.31897193367386895 7.559457548174939e-17 2.750543285434992e-18 7.559457548174939e-17 2.750543285434992e-18 -0.9477639608955595 -0.3189725292676542
12609869333.333334 -0.9503594735011509 -0.3111540954679196 7.56000477790078e-17 2.1206333829166646e-18 7.56000477790078e-17 2.1206333829166646e-18 -0.9503592779751161 -0.3111546926634101
12610486666.666666 -0.9528902997383168 -0.3033151441396639 7.56002759476609e-17 1.4908231328180323e-18 7.56002759476609e-17 1.4908231328180323e-18 -0.9528901091475247 -0.3033157428961823
12611104000.0 -0.9553564683283321 -0.2954556115951443 7.559526202583344e-17 8.61156154060061e-19 7.559526202583344e-17 8.61156154060061e-19 -0.955356282685232 -0.2954562118719117
12611721333.333334 -0.9577578119312399 -0.2875760311370339 7.558500841412891e-17 2.316760385658501e-19 7.558500841412891e-17 2.316760385658501e-19 -0.9577576312479428 -0.287576632893172
12612338666.666666 -0.9600941676057503 -0.27967693742828664 7.556951787532144e-17 -3.9757365177251955e-19 7.556951787532144e-17 -3.9757365177251955e-19 -0.9600939918940308 -0.279677540622821
12612956000.0 -0.9623653768203121 -0.27175886645580344 7.554879353402228e-17 -1.026549388091631e-18 7.554879353402228e-17 -1.026549388091631e-18 -0.9623652060916051 -0.2717594710476659
12613573333.333334 -0.9645712854637659 -0.26382235549441774 7.552283887632223e-17 -1.6552076775530782e-18 7.552283887632223e-17 -1.6552076775530782e-18 -0.9645711197291676 -0.26382296144244927
12614190666.666666 -0.9667117438559286 -0.25586794307000255 7.5491657749408e-17 -2.2835050663554608e-18 7.5491657749408e-17 -2.2835050663554608e-18 -0.9667115831261959 -0.2558685503329564
12614808000.0 -0.968786606757679 -0.247896168923175 7.545525436115443e-17 -2.91139814272103e-18 7.545525436115443e-17 -2.91139814272103e-18 -0.968786451043227 -0.24789677745971908
12615425333.333334 -0.9707957333808266 -0.23990757397261783 7.541363327969179e-17 -3.5388435398911286e-18 7.541363327969179e-17 -3.5388435398911286e-18 -0.9707955826917308 -0.23990818374133788
12616042666.666666 -0.9727389873976756 -0.23190270027834853 7.536679943294847e-17 -4.165797939104481e-18 7.536679943294847e-17 -4.165797939104481e-18 -0.9727388417436675 -0.23190331123775032
12616660000.0 -0.9746162369502429 -0.22388209100504805 7.531475810816816e-17 -4.792218072592421e-18 7.531475810816816e-17 -4.792218072592421e-18 -0.9746160963407128 -0.22388270311356098
12617277333.333334 -0.9764273546592567 -0.21584629038501205 7.52575149514032e-17 -5.418060726550129e-18 7.52575149514032e-17 -5.418060726550129e-18 -0.9764272191032513 -0.21584690360099157
12617894666.666666 -0.9781722176327392 -0.20779584368147128 7.519507596698361e-17 -6.043282744100853e-18 7.519507596698361e-17 -6.043282744100853e-18 -0.9781720871389618 -0.2077964579632017
12618512000.0 -0.9798507074744245 -0.19973129715123206 7.512744751695853e-17 -6.667841028289183e-18 7.512744751695853e-17 -6.667841028289183e-18 -0.979850582051234 -0.1997319124569296
12619129333.333334 -0.9814627102916893 -0.19165319800811167 7.505463632051931e-17 -7.291692545005013e-18 7.505463632051931e-17 -7.291692545005013e-18 -0.9814625899470988 -0.19165381429592687
12619746666.666666 -0.9830081167033689 -0.1835620943853613 7.497664945339062e-17 -7.914794325974486e-18 7.497664945339062e-17 -7.914794325974486e-18 -0.9830080014450477 -0.1835627116133826
12620364000.0 -0.9844868218471589 -0.17545853529858507 7.489349434720152e-17 -8.53710347170256e-18 7.489349434720152e-17 -8.53710347170256e-18 -0.9844867116824295 -0.17545915342484084
12620981333.333334 -0.9858987253866863 -0.16734307060870948 7.480517878883335e-17 -9.158577154401212e-18 7.480517878883335e-17 -9.158577154401212e-18 -0.9858986203225251 -0.16734368959117144
12621598666.666666 -0.9872437315183764 -0.15921625098436637 7.47117109197384e-17 -9.779172620951907e-18 7.47117109197384e-17 -9.779172620951907e-18 -0.9872436315614124 -0.15921687078095212
12622216000.0 -0.9885217489779071 -0.15107862786477919 7.461309923523945e-17 -1.0398847195819216e-17 7.461309923523945e-17 -1.0398847195819216e-17 -0.9885216541344239 -0.15107924843335543
12622833333.333334 -0.9897326910464408 -0.14293075342212141 7.45093525838004e-17 -1.1017558283994033e-17 7.45093525838004e-17 -1.1017558283994033e-17 -0.9897326013223726 -0.14293137472050643
12623450666.666666 -0.9908764755564723 -0.1347731805242739 7.440048016627787e-17 -1.1635263373896183e-17 7.440048016627787e-17 -1.1635263373896183e-17 -0.9908763909574066 -0.13477380251024065
12624068000.0 -0.9919530248974339 -0.1266064626971136 7.428649153514356e-17 -1.2251920040299677e-17 7.428649153514356e-17 -1.2251920040299677e-17 -0.9919529454286093 -0.1266070853283925
12624685333.333334 -0.9929622660209483 -0.11843115408703891 7.41673965936844e-17 -1.286748594724025e-17 7.41673965936844e-17 -1.286748594724025e-17 -0.9929621916872554 -0.11843177732132079
12625302666.666666 -0.9939041304457726 -0.11024780942348132 7.404320559518289e-17 -1.3481918850894615e-17 7.404320559518289e-17 -1.3481918850894615e-17 -0.9939040612517528 -0.11024843321842016
12625920000.0 -0.9947785542624832 -0.10205698398095442 7.391392914206512e-17 -1.4095176602494203e-17 7.391392914206512e-17 -1.4095176602494203e-17 -0.994778490212328 -0.10205760829417024
12626537333.333334 -0.9955854781377642 -0.09385923354174258 7.377957818503335e-17 -1.470721715119132e-17 7.377957818503335e-17 -1.470721715119132e-17 -0.9955854192353173 -0.09385985833082457
12627154666.666666 -0.996324847318466 -0.08565511435799215 7.364016402217004e-17 -1.531799854693835e-17 7.364016402217004e-17 -1.531799854693835e-17 -0.9963247935672193 -0.08565573958050117
12627772000.0 -0.9969966116353143 -0.07744518311390969 7.349569829801595e-17 -1.5927478943369278e-17 7.349569829801595e-17 -1.5927478943369278e-17 -0.9969965630384123 -0.07744580872738151
12628389333.333334 -0.9976007255063035 -0.06922999688821585 7.334619300263421e-17 -1.6535616600631194e-17 7.334619300263421e-17 -1.6535616600631194e-17 -0.9976006820665386 -0.06923062285016372
12629006666.666666 -0.9981371479398078 -0.06101011311603303 7.319166047063884e-17 -1.7142369888257272e-17 7.319166047063884e-17 -1.7142369888257272e-17 -0.9981371096596242 -0.06101073938395085
12629624000.0 -0.9986058425373465 -0.052786089551316424 7.303211338020824e-17 -1.7747697287997838e-17 7.303211338020824e-17 -1.7747697287997838e-17 -0.9986058094188375 -0.05278671608268144
12630241333.333334 -0.9990067774960603 -0.04455848422895139 7.286756475207128e-17 -1.8351557396657035e-17 7.286756475207128e-17 -1.8351557396657035e-17 -0.9990067495409665 -0.04455911098122702
12630858666.666666 -0.9993399256108644 -0.036327855426888205 7.269802794847397e-17 -1.895390892890596e-17 7.269802794847397e-17 -1.895390892890596e-17 -0.9993399028205787 -0.036328482357527184
12631476000.0 -0.9996052642763078 -0.028094761628062046 7.252351667211417e-17 -1.9554710720119542e-17 7.252351667211417e-17 -1.9554710720119542e-17 -0.9996052466518714 -0.028095388694509112
12632093333.333334 -0.9998027754880906 -0.01985976148283815 7.23440449650656e-17 -2.0153921729156522e-17 7.23440449650656e-17 -2.0153921729156522e-17 -0.999802763030195 -0.019860388642532992
12632710666.666666 -0.999932445844296 -0.011623413770906303 7.215962720767158e-17 -2.075150104115873e-17 7.215962720767158e-17 -2.075150104115873e-17 -0.9999324385532804 -0.01162404098128644
12633328000.0 -0.999994266546295 -0.0033862773633368017 7.197027811740984e-17 -2.134740787035888e-17 7.197027811740984e-17 -2.134740787035888e-17 -0.9999942644221508 -0.003386904581840483
12633945333.333334 -0.9999882333993493 0.004851088815256052 7.177601274774859e-17 -2.1941601562829075e-17 7.177601274774859e-17 -2.1941601562829075e-17 -0.9999882364417141 0.004850461631186979
12634562666.666666 -0.9999143468128868 0.01308812582466779 7.157684648696892e-17 -2.2534041599258138e-17 7.157684648696892e-17 -2.2534041599258138e-17 -0.9999143550210496 0.013087498717584977
12635180000.0 -0.9997726118004823 0.021324274747030234 7.137279505696764e-17 -2.312468759770621e-17 7.137279505696764e-17 -2.312468759770621e-17 -0.9997726251733815 0.021323647759475952
12635797333.333334 -0.9995630379795098 0.02955897672479324 7.116387451203958e-17 -2.371349931634259e-17 7.116387451203958e-17 -2.371349931634259e-17 -0.9995630565157334 0.029558349899297502
12636414666.666666 -0.9992856395705008 0.03779167299841832 7.09501012376342e-17 -2.4300436656183143e-17 7.09501012376342e-17 -2.4300436656183143e-17 -0.9992856632682863 0.03779104637749597
12637032000.0 -0.9989404353961663 0.04602180494463369 7.073149194908938e-17 -2.488545966381643e-17 7.073149194908938e-17 -2.488545966381643e-17 -0.9989404642534014 0.04602117857078155
12637649333.333334 -0.9985274488801285 0.054248814114112066 7.050806369034675e-17 -2.5468528534108967e-17 7.050806369034675e-17 -2.5468528534108967e-17 -0.9985274828943503 0.054248188029805994
12638266666.666666 -0.9980467080453254 0.062472142269448805 7.027983383264137e-17 -2.6049603612906797e-17 7.027983383264137e-17 -2.6049603612906797e-17 -0.998046747213723 0.062471516517140946
12638884000.0 -0.9974982455121181 0.07069123142292738 7.004682007316994e-17 -2.6628645399725954e-17 7.004682007316994e-17 -2.6628645399725954e-17 -0.9974982898315312 0.07069060604504324
12639501333.333334 -0.9968820984960669 0.07890552387457983 6.980904043373926e-17 -2.7205614550422938e-17 6.980904043373926e-17 -2.7205614550422938e-17 -0.9968821479629837 0.07890489891351517
12640118666.666666 -0.9961983088054222 0.08711446224974535 6.956651325939148e-17 -2.7780471879859636e-17 6.956651325939148e-17 -2.7780471879859636e-17 -0.9961983634159834 0.08711383774786366
12640736000.0 -0.9954469228382493 0.09531748953737222 6.931925721699631e-17 -2.835317836457933e-17 6.931925721699631e-17 -2.835317836457933e-17 -0.9954469825882469 0.09531686553700161
12641353333.333334 -0.9946279915793362 0.10351404912716179 6.906729129385145e-17 -2.892369514540217e-17 6.906729129385145e-17 -2.892369514540217e-17 -0.9946280564642158 0.10351342567059246
12641970666.666666 -0.9937415705966975 0.11170358484781905 6.881063479622343e-17 -2.949198353009614e-17 6.881063479622343e-17 -2.949198353009614e-17 -0.9937416406115539 0.11170296197729991
12642588000.0 -0.9927877200378038 0.11988554100467681 6.854930734789715e-17 -3.0058004995965183e-17 6.854930734789715e-17 -3.0058004995965183e-17 -0.9927877951773856 0.11988491876241293
12643205333.333334 -0.9917665046255164 0.1280593624173178 6.828332888868662e-17 -3.062172119246553e-17 6.828332888868662e-17 -3.062172119246553e-17 -0.9917665848842246 0.12805874084546756
12643822666.666666 -0.9906779936536728 0.13622449445741527 6.801271967292954e-17 -3.118309394379527e-17 6.801271967292954e-17 -3.118309394379527e-17 -0.9906780790255617 0.13622387359808735
12644440000.0 -0.9895222609824161 0.14438038308611273 6.773750026796512e-17 -3.1742085251463317e-17 6.773750026796512e-17 -3.1742085251463317e-17 -0.989522351461194 0.1443797629813635
12645057333.333334 -0.9882993850331596 0.15252647489181562 6.745769155258572e-17 -3.229865729685462e-17 6.745769155258572e-17 -3.229865729685462e-17 -0.988299480612189 0.1525258555836461
12645674666.666666 -0.9870094487832822 0.16066221712762993 6.717331471546812e-17 -3.2852772443782e-17 6.717331471546812e-17 -3.2852772443782e-17 -0.9870095494555798 0.16066159865798293
12646292000.0 -0.9856525397604623 0.1687870577490932 6.688439125358137e-17 -3.3404393241027994e-17 6.688439125358137e-17 -3.3404393241027994e-17 -0.9856526455186996 0.16878644015985056
12646909333.333334 -0.9842287500367931 0.17690044545126757 6.659094297058383e-17 -3.395348242485401e-17 6.659094297058383e-17 -3.395348242485401e-17 -0.9842288608732982 0.17689982878424734
12647526666.666666 -0.9827381762224915 0.18500182970645773 6.629299197518715e-17 -3.450000292152019e-17 6.629299197518715e-17 -3.450000292152019e-17 -0.9827382921292472 0.18500121400341119
12648144000.0 -0.9811809194593598 0.1930906608014253 6.599056067950506e-17 -3.5043917849779584e-17 6.599056067950506e-17 -3.5043917849779584e-17 -0.9811810404280077 0.19309004610403446
12648761333.333334 -0.9795570854139163 0.2011663898747459 6.56836717973854e-17 -3.558519052335258e-17 6.56836717973854e-17 -3.558519052335258e-17 -0.9795572114357546 0.20116577622462045
12649378666.666666 -0.9778667842702481 0.2092284689539402 6.53723483427227e-17 -3.612378445338503e-17 6.53723483427227e-17 -3.612378445338503e-17 -0.9778669153362318 0.20922785639261446
12649996000.0 -0.9761101307224905 0.21727635099285042 6.505661362773527e-17 -3.665966335091955e-17 6.505661362773527e-17 -3.665966335091955e-17 -0.9761102668232349 0.217275739561781
12650613333.333334 -0.9742872439670898 0.22530948990856559 6.473649126124086e-17 -3.719279112931861e-17 6.473649126124086e-17 -3.719279112931861e-17 -0.974287385092869 0.22530887964912846
12651230666.666666 -0.9723982476947031 0.2333273406185316 6.441200514690847e-17 -3.7723131906680256e-17 6.441200514690847e-17 -3.7723131906680256e-17 -0.9723983938354511 0.233326731572019
12651848000.0 -0.9704432700817656 0.2413293590777028 6.408317948147532e-17 -3.8250650008264124e-17 6.408317948147532e-17 -3.8250650008264124e-17 -0.9704434212270767 0.24132875128532066
12652465333.333334 -0.9684224437818442 0.2493150023152363 6.375003875296994e-17 -3.877530996885845e-17 6.375003875296994e-17 -3.877530996885845e-17 -0.968422599920975 0.24931439581810153
12653082666.666666 -0.9663359059166331 0.2572837284713633 6.34126077388959e-17 -3.929707653516645e-17 6.34126077388959e-17 -3.929707653516645e-17 -0.9663360670385014 0.2572831233105008
12653700000.0 -0.964183798066605 0.2652349968343214 6.307091150439486e-17 -3.981591466817649e-17 6.307091150439486e-17 -3.981591466817649e-17 -0.9641839641597928 0.2652343930506615
12654317333.333334 -0.9619662662614639 0.273168267876824 6.272497540041283e-17 -4.03317895454829e-17 6.272497540041283e-17 -4.03317895454829e-17 -0.9619664373142166 0.27316766551119975
12654934666.666666 -0.9596834609701917 0.2810830032928355 6.237482506181961e-17 -4.084466656363352e-17 6.237482506181961e-17 -4.084466656363352e-17 -0.9596836369704195 0.2810824023859795
12655552000.0 -0.9573355370908193 0.2889786660341495 6.202048640552631e-17 -4.135451134043431e-17 6.202048640552631e-17 -4.135451134043431e-17 -0.957335718026098 0.28897806662669184
12656169333.333334 -0.9549226539400245 0.29685472034647864 6.166198562858378e-17 -4.186128971724018e-17 6.166198562858378e-17 -4.186128971724018e-17 -0.9549228397975944 0.2968541224789427
12656786666.666666 -0.9524449752421853 0.3047106318062397 6.129934920625077e-17 -4.236496776124439e-17 6.129934920625077e-17 -4.236496776124439e-17 -0.9524451660089571 0.3047100355190416
12657404000.0 -0.9499026691183531 0.3125458673565755 6.093260389005595e-17 -4.2865511767734504e-17 6.093260389005595e-17 -4.2865511767734504e-17 -0.9499028647809029 0.3125452726900194
12658021333.333334 -0.9472959080748109 0.3203598953436035 6.056177670583456e-17 -4.3362888262342016e-17 6.056177670583456e-17 -4.3362888262342016e-17 -0.9472961086193861 0.3203593023378802
12658638666.666666 -0.9446248689914106 0.3281521855523846 6.018689495175369e-17 -4.385706400326466e-17 6.018689495175369e-17 -4.385706400326466e-17 -0.9446250744039272 0.3281515942475679
12659256000.0 -0.9418897331095115 0.3359222092430611 5.980798619630729e-17 -4.4348005983488893e-17 5.980798619630729e-17 -4.4348005983488893e-17 -0.941889943375558 0.3359216196791059
12659873333.333334 -0.9390906860197133 0.3436694391866537 5.942507827630464e-17 -4.483568143298002e-17 5.942507827630464e-17 -4.483568143298002e-17 -0.9390909011245493 0.34366885140339254
12660490666.666666 -0.9362279176493006 0.35139334970072944 5.903819929484212e-17 -4.532005782085341e-17 5.903819929484212e-17 -4.532005782085341e-17 -0.9362281375778592 0.3513927637378704
12661108000.0 -0.9333016222492371 0.35909341668539135 5.864737761923818e-17 -4.580110285755328e-17 5.864737761923818e-17 -4.580110285755328e-17 -0.9333018469861247 0.3590928325825146
12661725333.333334 -0.9303119983811633 0.36676911765836107 5.825264187898297e-17 -4.627878449697224e-17 5.825264187898297e-17 -4.627878449697224e-17 -0.9303122279106623 0.3667685354549172
12662342666.666666 -0.9272592489037548 0.37441993179088445 5.78540209636371e-17 -4.6753070938596594e-17 5.78540209636371e-17 -4.6753070938596594e-17 -0.9272594832098251 0.3744193515261917
12662960000.0 -0.9241435809590476 0.38204533994283285 5.74515440207404e-17 -4.722393062959866e-17 5.74515440207404e-17 -4.722393062959866e-17 -0.9241438200253246 0.38204476165607326
12663577333.333334 -0.9209652059583604 0.3896448246979809 5.704524045368277e-17 -4.7691332266937916e-17 5.704524045368277e-17 -4.7691332266937916e-17 -0.9209654497681599 0.3896442484281992
12664194666.666666 -0.9177243395679419 0.39721787039914325 5.663513991957247e-17 -4.8155244799425473e-17 5.663513991957247e-17 -4.8155244799425473e-17 -0.9177245881042583 0.3972172961852432
12664812000.0 -0.914421201694378 0.40476396318305813 5.622127232708119e-17 -4.8615637429778885e-17 5.622127232708119e-17 -4.8615637429778885e-17 -0.9144214549398861 0.4047633910637997
12665429333.333334 -0.9110560164695926 0.4122825910154381 5.580366783427108e-17 -4.907247961665994e-17 5.580366783427108e-17 -4.907247961665994e-17 -0.9110562744066518 0.41228202102943673
12666046666.666666 -0.907629012235745 0.4197732437254811 5.5382356846420753e-17 -4.9525741076676644e-17 5.5382356846420753e-17 -4.9525741076676644e-17 -0.9076292748463959 0.4197726759112022
12666664000.0 -0.9041404215295913 0.427235413040796 5.495737001379828e-17 -4.9975391786407233e-17 5.495737001379828e-17 -4.9975391786407233e-17 -0.9041406887955596 0.42723484743655477
12667281333.333334 -0.9005904810668617 0.43466859262155694 5.452873822946784e-17 -5.042140198435094e-17 5.452873822946784e-17 -5.042140198435094e-17 -0.9005907529695601 0.4346680292655149
12667898666.666666 -0.8969794317261295 0.44207227809501604 5.4096492627039e-17 -5.086374217290478e-17 5.4096492627039e-17 -5.086374217290478e-17 -0.8969797082466563 0.44207171702517783
12668516000.0 -0.893307518532387 0.4494459670898785 5.366066457841426e-17 -5.1302383120305605e-17 5.366066457841426e-17 -5.1302383120305605e-17 -0.8933077996515306 0.44944540834409075
12669133333.333334 -0.8895749906405855 0.4567891592700603 5.322128569154191e-17 -5.173729586253213e-17 5.322128569154191e-17 -5.173729586253213e-17 -0.8895752763388237 0.45678860288600803
12669750666.666666 -0.8857821013185768 0.4641013563689436 5.27783878081106e-17 -5.2168451705231334e-17 5.27783878081106e-17 -5.2168451705231334e-17 -0.8857823915760776 0.4641008023841474
