! Parameters = {f0=12700.012000; bw=77.238000; Q=6100.000000; N=10; m_0_1=1.227322; m_1_1=-0.354911; m_1_2=1.062134; m_2_2=-0.355560; m_2_3=0.699097; m_2_8=-0.001570; m_2_9=0.035134; m_3_3=-0.357497; m_3_4=0.587626; m_3_7=-0.000970; m_3_8=-0.098058; m_3_9=-0.001570; m_4_4=-0.360422; m_4_5=0.423961; m_4_6=0.002547; m_4_7=-0.118607; m_4_8=-0.000970; m_5_5=-0.360040; m_5_6=0.831316; m_5_7=0.002547; m_6_6=-0.360041; m_6_7=0.424303; m_7_7=-0.360408; m_7_8=0.587744; m_8_8=-0.357499; m_8_9=0.699410; m_9_9=-0.355565; m_9_10=1.063212; m_10_10=-0.354921; m_10_11=1.228117}
!
! Created with skrf (http://scikit-rf.org).
# Hz S RI R 50.0 
!freq ReS11 ImS11 ReS21 ImS21 ReS12 ImS12 ReS22 ImS22
12607400000.0 0.15373930974016628 0.9881114434315859 -3.854655237501275e-17 -8.137893270857836e-17 -3.854655237501275e-17 -8.137893270857836e-17 0.15373867072652753 0.9881115428548919
12608017333.333334 0.16288376511409872 0.9866452650583648 -3.92980489042826e-17 -8.099910477575551e-17 -3.92980489042826e-17 -8.099910477575551e-17 0.16288312707988226 0.9866453703902499
12608634666.666666 0.1720142498240999 0.9850944613879876 -4.004581516080712e-17 -8.061234361363622e-17 -4.004581516080712e-17 -8.061234361363622e-17 0.17201361282393177 0.9850945726188389
12609252000.0 0.181129980741695 0.9834591654341065 -4.0789787240578384e-17 -8.02186857460786e-17 -4.0789787240578384e-17 -8.02186857460786e-17 0.18112934483010737 0.983459282553808
12609869333.333334 0.19023017600396622 0.9817395174573224 -4.152990159620224e-17 -7.98181682853735e-17 -4.152990159620224e-17 -7.98181682853735e-17 0.19022954123539237 0.9817396404552515
12610486666.666666 0.19931405508030556 0.9799356649532052 -4.226609504231799e-17 -7.941082892876794e-17 -4.226609504231799e-17 -7.941082892876794e-17 0.19931342150907563 0.9799357938182379
12611104000.0 0.20838083883975306 0.9780477626395739 -4.299830476098631e-17 -7.899670595493706e-17 -4.299830476098631e-17 -7.899670595493706e-17 0.20838020652008896 0.9780478973600832
12611721333.333334 0.2174297496175161 0.9760759724432829 -4.3726468307009494e-17 -7.85758382204254e-17 -4.3726468307009494e-17 -7.85758382204254e-17 0.21742911860352704 0.9760761130071406
12612338666.666666 0.22646001128178198 0.9740204634863124 -4.445052361327087e-17 -7.814826515600968e-17 -4.445052361327087e-17 -7.814826515600968e-17 0.22645938162746018 0.9740206098808912
12612956000.0 0.23547084930037082 0.9718814120712457 -4.517040899599618e-17 -7.771402676303555e-17 -4.517040899599618e-17 -7.771402676303555e-17 0.2354702210595862 0.9718815642834182
12613573333.333334 0.24446149080700053 0.9696590016661806 -4.5886063159980236e-17 -7.727316360970734e-17 -4.5886063159980236e-17 -7.727316360970734e-17 0.2444608640334971 0.969659159682324
12614190666.666666 0.25343116466768834 0.9673534228889743 -4.6597425203818895e-17 -7.682571682730435e-17 -4.6597425203818895e-17 -7.682571682730435e-17 0.2534305394150785 0.9673535866949671
12614808000.0 0.2623791015468351 0.9649648734909019 -4.730443462505207e-17 -7.637172810638084e-17 -4.730443462505207e-17 -7.637172810638084e-17 0.2623784778685955 0.9649650430721277
12615425333.333334 0.2713045339733216 0.9624935583396669 -4.8007031325302635e-17 -7.59112396928991e-17 -4.8007031325302635e-17 -7.59112396928991e-17 0.2713039119227895 0.9624937336810178
12616042666.666666 0.28020669640617224 0.9599396894018783 -4.870515561537615e-17 -7.544429438431703e-17 -4.870515561537615e-17 -7.544429438431703e-17 0.2802060760365391 0.9599398704877513
12616660000.0 0.28908482530029583 0.9573034857248418 -4.939874822030057e-17 -7.497093552564182e-17 -4.939874822030057e-17 -7.497093552564182e-17 0.289084206664604 0.9573036725391433
12617277333.333334 0.29793815917208644 0.9545851734177443 -5.008775028436276e-17 -7.449120700541613e-17 -5.008775028436276e-17 -7.449120700541613e-17 0.2979375423232245 0.9545853659438909
12617894666.666666 0.3067659386644356 0.9517849856323456 -5.077210337606146e-17 -7.400515325168761e-17 -5.077210337606146e-17 -7.400515325168761e-17 0.30676532365513365 0.9517851838532663
12618512000.0 0.3155674066122442 0.9489031625428687 -5.145174949307605e-17 -7.351281922789528e-17 -5.145174949307605e-17 -7.351281922789528e-17 0.31556679349506983 0.9489033664410066
12619129333.333334 0.3243418081070668 0.9459399513254921 -5.212663106714391e-17 -7.301425042874808e-17 -5.212663106714391e-17 -7.301425042874808e-17 0.32434119693441965 0.9459401608828033
12619746666.666666 0.33308839056196843 0.9428956061371129 -5.279669096892842e-17 -7.250949287603498e-17 -5.279669096892842e-17 -7.250949287603498e-17 0.33308778138607614 0.9428958213350704
12620364000.0 0.3418064037761552 0.939770388093521 -5.346187251284542e-17 -7.199859311439364e-17 -5.346187251284542e-17 -7.199859311439364e-17 0.3418057966490698 0.9397706089131171
12620981333.333334 0.3504950999991592 0.9365645652470601 -5.412211946183008e-17 -7.148159820704788e-17 -5.412211946183008e-17 -7.148159820704788e-17 0.35049449497275104 0.9365647916688049
12621598666.666666 0.3591537339950799 0.9332784125635967 -5.4777376032083255e-17 -7.095855573148648e-17 -5.4777376032083255e-17 -7.095855573148648e-17 0.35915313112103453 0.9332786445675227
12622216000.0 0.36778156310645116 0.9299122118989575 -5.542758689776427e-17 -7.042951377510785e-17 -5.542758689776427e-17 -7.042951377510785e-17 0.36778096243626446 0.9299124494646205
12622833333.333334 0.3763778473180708 0.9264662519747011 -5.607269719565584e-17 -6.98945209308111e-17 -5.607269719565584e-17 -6.98945209308111e-17 0.37637724890304486 0.9264664950811828
12623450666.666666 0.38494184932020925 0.9229408283534611 -5.671265252975679e-17 -6.935362629256811e-17 -5.671265252975679e-17 -6.935362629256811e-17 0.38494125321144723 0.9229410769793683
12624068000.0 0.3934728345720598 0.9193362434135096 -5.734739897586832e-17 -6.880687945092563e-17 -5.734739897586832e-17 -6.880687945092563e-17 0.39347224082046245 0.9193364975369789
12624685333.333334 0.40197007136484464 0.915652806322777 -5.797688308612824e-17 -6.825433048847055e-17 -5.797688308612824e-17 -6.825433048847055e-17 0.4019694800211054 0.9156530659214753
12625302666.666666 0.4104328308841562 0.9118908330125126 -5.86010518934623e-17 -6.769602997529025e-17 -5.86010518934623e-17 -6.769602997529025e-17 0.41043224199875683 0.9118910980636391
12625920000.0 0.41886038727296265 0.9080506461499703 -5.921985291606796e-17 -6.713202896432445e-17 -5.921985291606796e-17 -6.713202896432445e-17 0.41885980089617003 0.9080509166302608
12626537333.333334 0.42725201769345167 0.9041325751109238 -5.983323416177033e-17 -6.656237898675117e-17 -5.983323416177033e-17 -6.656237898675117e-17 0.42725143387531145 0.9041328509966476
12627154666.666666 0.4356070023892855 0.9001369559512914 -6.04411441323906e-17 -6.598713204728195e-17 -6.04411441323906e-17 -6.598713204728195e-17 0.4356064211796196 0.9001372372182588
12627772000.0 0.4439246247473351 0.8960641313783146 -6.104353182806924e-17 -6.540634061941688e-17 -6.104353182806924e-17 -6.540634061941688e-17 0.44392404619573705 0.8960644180018762
12628389333.333334 0.452204171358864 0.8919144507213007 -6.164034675149006e-17 -6.482005764071128e-17 -6.164034675149006e-17 -6.482005764071128e-17 0.45220359551469397 0.8919147426763496
12629006666.666666 0.4604449320811754 0.8876882699014313 -6.223153891212922e-17 -6.422833650793723e-17 -6.223153891212922e-17 -6.422833650793723e-17 0.4604443589935574 0.8876885671624074
12629624000.0 0.46864620009809166 0.8833859514014567 -6.281705883041021e-17 -6.363123107225247e-17 -6.281705883041021e-17 -6.363123107225247e-17 0.46864562981590696 0.8833862539423442
12630241333.333334 0.47680727198080247 0.8790078642344797 -6.339685754182726e-17 -6.302879563431728e-17 -6.339685754182726e-17 -6.302879563431728e-17 0.4768067045526888 0.8790081720288161
12630858666.666666 0.4849274477481286 0.8745543839123566 -6.397088660101723e-17 -6.242108493938007e-17 -6.397088660101723e-17 -6.242108493938007e-17 0.4849268832224733 0.87455469693323
12631476000.0 0.4930060309266803 0.8700258924134137 -6.453909808581417e-17 -6.18081541722943e-17 -6.453909808581417e-17 -6.18081541722943e-17 0.4930054693516168 0.8700262106334659
12632093333.333334 0.5010423286103468 0.8654227781498232 -6.510144460119844e-17 -6.119005895255958e-17 -6.510144460119844e-17 -6.119005895255958e-17 0.5010417700337509 0.865423101541253
12632710666.666666 0.5090356515199504 0.8607454359341644 -6.565787928324784e-17 -6.056685532927566e-17 -6.565787928324784e-17 -6.056685532927566e-17 0.5090350959894369 0.8607457644687314
12633328000.0 0.5169853140623436 0.8559942669455768 -6.620835580303826e-17 -5.993859977606201e-17 -6.620835580303826e-17 -5.993859977606201e-17 0.51698476162526 0.8559946005946003
12633945333.333334 0.5248906343890618 0.851169678695432 -6.675282837045499e-17 -5.930534918598731e-17 -6.675282837045499e-17 -5.930534918598731e-17 0.5248900850924861 0.8511700174297953
12634562666.666666 0.5327509344550033 0.8462720849922658 -6.72912517380057e-17 -5.866716086641034e-17 -6.72912517380057e-17 -5.866716086641034e-17 0.5327503883457406 0.846272428782421
12635180000.0 0.5405655400764171 0.8413019059063916 -6.782358120454765e-17 -5.802409253382539e-17 -6.782358120454765e-17 -5.802409253382539e-17 0.5405649972009938 0.8413022547223591
12635797333.333334 0.5483337809888229 0.8362595677338094 -6.834977261898719e-17 -5.737620230865216e-17 -6.834977261898719e-17 -5.737620230865216e-17 0.5483332413934832 0.8362599215451807
12636414666.666666 0.5560549909044761 0.8311455029596555 -6.88697823839206e-17 -5.672354871000136e-17 -6.88697823839206e-17 -5.672354871000136e-17 0.556054454635179 0.8311458617355978
12637032000.0 0.5637285075695173 0.8259601502211109 -6.938356745922701e-17 -5.606619065040561e-17 -6.938356745922701e-17 -5.606619065040561e-17 0.5637279746719318 0.825960513930368
12637649333.333334 0.57135367282075 0.8207039542697931 -6.989108536560967e-17 -5.5404187430520215e-17 -6.989108536560967e-17 -5.5404187430520215e-17 0.5713531433402513 0.820704322880689
12638266666.666666 0.5789298326421852 0.8153773659335465 -7.039229418809503e-17 -5.4737598733782355e-17 -7.039229418809503e-17 -5.4737598733782355e-17 0.5789293066238508 0.8153777394139868
12638884000.0 0.5864563372209952 0.8099808420778668 -7.088715257946448e-17 -5.4066484621058006e-17 -7.088715257946448e-17 -5.4066484621058006e-17 0.5864558147096021 0.8099812203953448
12639501333.333334 0.5939325410033456 0.8045148455666592 -7.137561976365234e-17 -5.339090552523931e-17 -7.137561976365234e-17 -5.339090552523931e-17 0.5939320220433651 0.8045152286882549
12640118666.666666 0.6013578027496929 0.7989798452225803 -7.18576555390803e-17 -5.27109222458244e-17 -7.18576555390803e-17 -5.27109222458244e-17 0.6013572873852874 0.7989802331149655
12640736000.0 0.6087314855900117 0.7933763157866597 -7.233322028196069e-17 -5.20265959434415e-17 -7.233322028196069e-17 -5.20265959434415e-17 0.6087309738650314 0.7933767084161006
12641353333.333334 0.6160529570779449 0.7877047378779413 -7.280227494950191e-17 -5.1337988134407053e-17 -7.280227494950191e-17 -5.1337988134407053e-17 0.616052449035923 0.7877051352103003
12641970666.666666 0.6233215892455906 0.781965597951846 -7.326478108312803e-17 -5.064516068516215e-17 -7.326478108312803e-17 -5.064516068516215e-17 0.6233210849297403 0.781965999952586
12642588000.0 0.6305367586570023 0.7761593882587243 -7.37207008115861e-17 -4.9948175806765446e-17 -7.37207008115861e-17 -4.9948175806765446e-17 0.6305362581102131 0.7761597948929113
12643205333.333334 0.6376978464617546 0.770286606801571 -7.41699968540389e-17 -4.9247096049304046e-17 -7.41699968540389e-17 -4.9247096049304046e-17 0.6376973497265882 0.7702870180338761
12643822666.666666 0.6448042384481713 0.7643477572931773 -7.46126325230869e-17 -4.854198429630176e-17 -7.46126325230869e-17 -4.854198429630176e-17 0.6448037455668598 0.7643481730878828
12644440000.0 0.6518553250957707 0.7583433491131332 -7.504857172773988e-17 -4.783290375909887e-17 -7.504857172773988e-17 -4.783290375909887e-17 0.6518548361102099 0.7583437694341316
12645057333.333334 0.6588505016276289 0.7522738972640608 -7.547777897634266e-17 -4.711991797119242e-17 -7.547777897634266e-17 -4.711991797119242e-17 0.6588500165793767 0.7522743220748606
12645674666.666666 0.6657891680623184 0.7461399223273888 -7.590021937943427e-17 -4.640309078257196e-17 -7.590021937943427e-17 -4.640309078257196e-17 0.6657886869925921 0.7461403515911175
12646292000.0 0.6726707292653901 0.7399419504186827 -7.63158586525742e-17 -4.5682486353995385e-17 -7.63158586525742e-17 -4.5682486353995385e-17 0.6726702522150604 0.7399423840980887
12646909333.333334 0.679494595000204 0.7336805131427059 -7.672466311908891e-17 -4.49581691512832e-17 -7.672466311908891e-17 -4.49581691512832e-17 0.6794941220097933 0.7336809512001627
12647526666.666666 0.6862601799788318 0.7273561475475802 -7.712659971278197e-17 -4.423020393955786e-17 -7.712659971278197e-17 -4.423020393955786e-17 0.6862597110885106 0.7273565899450898
12648144000.0 0.6929669039121069 0.7209693960788525 -7.752163598058758e-17 -4.349865577746375e-17 -7.752163598058758e-17 -4.349865577746375e-17 0.6929664391616899 0.7209698427780483
12648761333.333334 0.6996141915593778 0.7145208065329903 -7.790974008516528e-17 -4.276359001137008e-17 -7.790974008516528e-17 -4.276359001137008e-17 0.6996137309883209 0.7145212574951407
12649378666.666666 0.7062014727779081 0.7080109320103393 -7.829088080743412e-17 -4.202507226956218e-17 -7.829088080743412e-17 -4.202507226956218e-17 0.7062010164253056 0.708011387196351
12649996000.0 0.7127281825717598 0.7014403308677031 -7.866502754906892e-17 -4.128316845637951e-17 -7.866502754906892e-17 -4.128316845637951e-17 0.712727730476339 0.7014407902381234
12650613333.333334 0.7191937611402696 0.6948095666704294 -7.90321503349312e-17 -4.0537944746349235e-17 -7.90321503349312e-17 -4.0537944746349235e-17 0.7191933133403898 0.6948100301854515
12651230666.666666 0.7255976539259466 0.6881192081441979 -7.939221981543209e-17 -3.978946757832337e-17 -7.939221981543209e-17 -3.978946757832337e-17 0.7255972104595954 0.6881196757636637
12651848000.0 0.7319393116623151 0.6813698291259547 -7.974520726887347e-17 -3.9037803649530086e-17 -7.974520726887347e-17 -3.9037803649530086e-17 0.7319388725671032 0.6813703008093567
12652465333.333334 0.7382181904207253 0.674562008514996 -8.0091084603694e-17 -3.8283019909681055e-17 -8.0091084603694e-17 -3.8283019909681055e-17 0.7382177557338868 0.6745624842214839
12653082666.666666 0.7444337516570732 0.6676963302232625 -8.042982436068172e-17 -3.7525183555016653e-17 -8.042982436068172e-17 -3.7525183555016653e-17 0.7444333214154587 0.6676968099116432
12653700000.0 0.7505854622582347 0.6607733831249771 -8.076139971513975e-17 -3.676436202230846e-17 -8.076139971513975e-17 -3.676436202230846e-17 0.7505850364983114 0.6607738667537214
12654317333.333334 0.7566727945874153 0.6537937610065638 -8.108578447896174e-17 -3.600062298291897e-17 -8.108578447896174e-17 -3.600062298291897e-17 0.7566723733452613 0.6537942485338075
12654934666.666666 0.7626952265296487 0.6467580625154399 -8.140295310268522e-17 -3.523403433676743e-17 -8.140295310268522e-17 -3.523403433676743e-17 0.7626948098409514 0.646758553898989
12655552000.0 0.7686522415366335 0.6396668911086026 -8.171288067747717e-17 -3.446466420630061e-17 -8.171288067747717e-17 -3.446466420630061e-17 0.7686518294366879 0.6396673863059376
12656169333.333334 0.7745433286707653 0.6325208550011999 -8.201554293704627e-17 -3.369258093048876e-17 -8.201554293704627e-17 -3.369258093048876e-17 0.7745429211944664 0.6325213539694758
12656786666.666666 0.7803679826491914 0.6253205671140738 -8.231091625952463e-17 -3.2917853058739584e-17 -8.231091625952463e-17 -3.2917853058739584e-17 0.7803675798310379 0.6253210698101297
12657404000.0 0.7861257038871223 0.6180666450212413 -8.259897766927868e-17 -3.2140549344831324e-17 -8.259897766927868e-17 -3.2140549344831324e-17 0.7861253057612068 0.6180671514015977
12658021333.333334 0.7918159985405984 0.6107597108970036 -8.287970483866046e-17 -3.1360738740834825e-17 -8.287970483866046e-17 -3.1360738740834825e-17 0.7918156051406094 0.6107602209178712
12658638666.666666 0.7974383785488225 0.6034003914626355 -8.315307608970443e-17 -3.0578490391016333e-17 -8.315307608970443e-17 -3.0578490391016333e-17 0.7974379899080398 0.6034009050799164
12659256000.0 0.802992361676242 0.5959893179323331 -8.341907039577903e-17 -2.979387362569017e-17 -8.341907039577903e-17 -2.979387362569017e-17 0.8029919778275336 0.5959898351016254
12659873333.333334 0.8084774715536528 0.5885271259594155 -8.367766738315614e-17 -2.9006957955126195e-17 -8.367766738315614e-17 -2.9006957955126195e-17 0.8084770925294724 0.5885276466360165
12660490666.666666 0.8138932377191102 0.5810144555817353 -8.392884733254375e-17 -2.821781306338731e-17 -8.392884733254375e-17 -2.821781306338731e-17 0.8138928635514955 0.5810149797206468
12661108000.0 0.8192391956585006 0.5734519511664862 -8.41725911805554e-17 -2.7426508802165584e-17 -8.41725911805554e-17 -2.7426508802165584e-17 0.8192388263790683 0.5734524787224164
12661725333.333334 0.8245148868450456 0.5658402613553923 -8.440888052111172e-17 -2.6633115184639946e-17 -8.440888052111172e-17 -2.6633115184639946e-17 0.8245145224849909 0.5658407922827615
12662342666.666666 0.8297198587788669 0.5581800390087536 -8.463769760680304e-17 -2.5837702379262184e-17 -8.463769760680304e-17 -2.5837702379262184e-17 0.8297194993689609 0.5581805732616977
12662960000.0 0.8348536650257614 0.5504719411494934 -8.48590253501747e-17 -2.5040340703591716e-17 -8.48590253501747e-17 -2.5040340703591716e-17 0.8348533105963458 0.5504724786818664
12663577333.333334 0.8399158652554102 0.5427166289069218 -8.507284732496587e-17 -2.4241100618083822e-17 -8.507284732496587e-17 -2.4241100618083822e-17 0.8399155158363977 0.542717169672302
12664194666.666666 0.8449060252791976 0.5349147674599617 -8.527914776728895e-17 -2.3440052719870145e-17 -8.527914776728895e-17 -2.3440052719870145e-17 0.8449056809000687 0.5349153114116545
12664812000.0 0.849823717087497 0.5270670259800235 -8.547791157674443e-17 -2.2637267736551352e-17 -8.547791157674443e-17 -2.2637267736551352e-17 0.8498233777772964 0.5270675730710654
12665429333.333334 0.8546685188863024 0.5191740775737277 -8.56691243174843e-17 -2.1832816519956747e-17 -8.56691243174843e-17 -2.1832816519956747e-17 0.8546681846736373 0.5191746277568903
12666046666.666666 0.8594400151333811 0.5112365992252237 -8.585277221921328e-17 -2.102677003991001e-17 -8.585277221921328e-17 -2.102677003991001e-17 0.8594396860464184 0.5112371524530182
12666664000.0 0.8641377965741166 0.5032552717377816 -8.602884217813476e-17 -2.0219199377969764e-17 -8.602884217813476e-17 -2.0219199377969764e-17 0.8641374726405818 0.5032558279624628
12667281333.333334 0.8687614602763226 0.4952307796758885 -8.61973217578303e-17 -1.941017572120229e-17 -8.61973217578303e-17 -1.941017572120229e-17 0.8687611415234963 0.4952313388494591
12667898666.666666 0.8733106096649909 0.4871638113062156 -8.635819919009305e-17 -1.8599770355888472e-17 -8.635819919009305e-17 -1.8599770355888472e-17 0.8733102961197067 0.4871643733804298
12668516000.0 0.877784854556345 0.47905505853850844 -8.65114633756915e-17 -1.7788054661273534e-17 -8.65114633756915e-17 -1.7788054661273534e-17 0.8777845462449856 0.4790556234648756
12669133333.333334 0.882183811191095 0.470905216866612 -8.665710388507815e-17 -1.6975100103296468e-17 -8.665710388507815e-17 -1.6975100103296468e-17 0.8821835081395947 0.47090578459640325
12669750666.666666 0.8865071022675415 0.46271498530849975 -8.679511095904127e-17 -1.6160978228304512e-17 -8.679511095904127e-17 -1.6160978228304512e-17 0.8865068045013779 0.46271555579274887
12670368000.0 0.8907543569739095 0.45448506634633556 -8.692547550929574e-17 -1.5345760656772776e-17 -8.692547550929574e-17 -1.5345760656772776e-17 0.8907540645181075 0.4544856395358465
12670985333.333334 0.8949252110200479 0.4462161658664551 -8.704818911901589e-17 -1.4529519077017554e-17 -8.704818911901589e-17 -1.4529519077017554e-17 0.8949249238991719 0.44621674171180303
