! Parameters = {f0=12700.012000; bw=77.238000; Q=6100.000000; N=10; m_0_1=1.339034; m_1_1=1.320765; m_1_2=1.173846; m_2_2=1.320116; m_2_3=0.810809; m_2_8=0.004015; m_2_9=0.040719; m_3_3=1.318179; m_3_4=0.699338; m_3_7=0.004615; m_3_8=-0.092473; m_3_9=0.004015; m_4_4=1.315254; m_4_5=0.535673; m_4_6=0.008132; m_4_7=-0.113022; m_4_8=0.004615; m_5_5=1.315636; m_5_6=0.943028; m_5_7=0.008132; m_6_6=1.315635; m_6_7=0.536015; m_7_7=1.315268; m_7_8=0.699456; m_8_8=1.318177; m_8_9=0.811122; m_9_9=1.320111; m_9_10=1.174924; m_10_10=1.320755; m_10_11=1.339829}
!
! Created with skrf (http://scikit-rf.org).
# Hz S RI R 50.0 
!freq ReS11 ImS11 ReS21 ImS21 ReS12 ImS12 ReS22 ImS22
12607400000.0 -0.9950767668686402 0.09910715432327831 1.4031093961332721e-16 -5.72297305483583e-17 1.4031093961332721e-16 -5.72297305483583e-17 -0.995076836773668 0.09910645244540953
12608017333.333334 -0.9937531050303423 0.11160092402107549 1.395483029198432e-16 -5.898882933677603e-17 1.395483029198432e-16 -5.898882933677603e-17 -0.9937531837440032 0.11160022311116234
12608634666.666666 -0.9922725828801178 0.12407707791620458 1.3876362592798091e-16 -6.0737796424357e-17 1.3876362592798091e-16 -6.0737796424357e-17 -0.9922726703891253 0.12407637808478295
12609252000.0 -0.9906354341131087 0.13653364669317647 1.3795704286379792e-16 -6.247635583688834e-17 1.3795704286379792e-16 -6.247635583688834e-17 -0.9906355304027891 0.13653294805060115
12609869333.333334 -0.988841917147389 0.14896866412799992 1.37128691406668e-16 -6.420423337390877e-17 1.37128691406668e-16 -6.420423337390877e-17 -0.9888420222016846 0.1489679667844274
12610486666.666666 -0.9868923150832181 0.16138016739826225 1.3627871266592595e-16 -6.592115665182953e-17 1.3627871266592595e-16 -6.592115665182953e-17 -0.9868924288846895 0.16137947146363313
12611104000.0 -0.9847869356582574 0.17376619739357113 1.3540725115691399e-16 -6.762685514687281e-17 1.3540725115691399e-16 -6.762685514687281e-17 -0.9847870581880876 0.17376550297759313
12611721333.333334 -0.982526111199125 0.18612479902400816 1.3451445477654968e-16 -6.932106023757946e-17 1.3451445477654968e-16 -6.932106023757946e-17 -0.9825262424371181 0.186124106236138
12612338666.666666 -0.9801101985688416 0.19845402152929265 1.3360047477832383e-16 -7.100350524707315e-17 1.3360047477832383e-16 -7.100350524707315e-17 -0.9801103384934308 0.19845333047871966
12612956000.0 -0.9775395791104974 0.2107519187867012 1.326654657467699e-16 -7.267392548499588e-17 1.326654657467699e-16 -7.267392548499588e-17 -0.9775397276987466 0.21075122958232978
12613573333.333334 -0.9748146585871572 0.2230165496177543 1.3170958557145212e-16 -7.433205828903406e-17 1.3170958557145212e-16 -7.433205828903406e-17 -0.9748148158147666 0.22301586236818705
12614190666.666666 -0.9719358671177047 0.23524597809518247 1.3073299542037262e-16 -7.597764306621683e-17 1.3073299542037262e-16 -7.597764306621683e-17 -0.9719360329590123 0.23524529290870258
12614808000.0 -0.9689036591090029 0.24743827384822592 1.2973585971293122e-16 -7.761042133374688e-17 1.2973585971293122e-16 -7.761042133374688e-17 -0.9689038335369892 0.24743759083278036
12615425333.333334 -0.9657185131841547 0.2595915123673921 1.287183460923125e-16 -7.92301367595899e-17 1.287183460923125e-16 -7.92301367595899e-17 -0.9657186961704479 0.2595908316305746
12616042666.666666 -0.9623809321069579 0.2717037753082332 1.2768062539741003e-16 -8.083653520262944e-17 1.2768062539741003e-16 -8.083653520262944e-17 -0.9623811236218391 0.27170309695726763
12616660000.0 -0.9588914427025438 0.2837731507941498 1.266228716342511e-16 -8.242936475245582e-17 1.266228716342511e-16 -8.242936475245582e-17 -0.9588916427149489 0.2837724749358723
12617277333.333334 -0.9552505957742176 0.29579773371817225 1.2554526194688113e-16 -8.400837576885582e-17 1.2554526194688113e-16 -8.400837576885582e-17 -0.9552508042517469 0.29579706045901605
12617894666.666666 -0.9514589660165382 0.30777562604362324 1.244479765878255e-16 -8.55733209208144e-17 1.244479765878255e-16 -8.55733209208144e-17 -0.9514591829254572 0.30777495548960004
12618512000.0 -0.9475171519245141 0.31970493710398407 1.2333119888799054e-16 -8.712395522524699e-17 1.2333119888799054e-16 -8.712395522524699e-17 -0.9475173772297607 0.3197042693606685
12619129333.333334 -0.9434257756993069 0.3315837839007896 1.2219511522615625e-16 -8.866003608523409e-17 1.2219511522615625e-16 -8.866003608523409e-17 -0.9434260093644992 0.33158311907330273
12619746666.666666 -0.9391854831498675 0.34341029140134044 1.2103991499794438e-16 -9.018132332792995e-17 1.2103991499794438e-16 -9.018132332792995e-17 -0.9391857251373057 0.34340962959433236
12620364000.0 -0.9347969435909852 0.3551825928346663 1.1986579058431475e-16 -9.16875792420677e-17 1.1986579058431475e-16 -9.16875792420677e-17 -0.9347971938616605 0.3551819341523003
12620981333.333334 -0.9302608497378154 0.3668988299857087 1.1867293731964872e-16 -9.317856861498793e-17 1.1867293731964872e-16 -9.317856861498793e-17 -0.9302611082514148 0.3668981745316446
12621598666.666666 -0.9255779175963429 0.37855715348916774 1.174615534592936e-16 -9.465405876935467e-17 1.174615534592936e-16 -9.465405876935467e-17 -0.9255781843112574 0.378556501366546
12622216000.0 -0.9207488863504627 0.3901557231211513 1.1623184014673726e-16 -9.611381959934341e-17 1.1623184014673726e-16 -9.611381959934341e-17 -0.9207491612237912 0.39015507443257585
12622833333.333334 -0.9157745182452534 0.401692708089751 1.1498400138024795e-16 -9.755762360651097e-17 1.1498400138024795e-16 -9.755762360651097e-17 -0.9157748012328144 0.40169206293727483
12623450666.666666 -0.9106555984667614 0.4131662873238215 1.1371824397915164e-16 -9.89852459351343e-17 1.1371824397915164e-16 -9.89852459351343e-17 -0.9106558895230931 0.41316564580892806
12624068000.0 -0.9053929350179379 0.42457464976068643 1.1243477754962185e-16 -1.003964644071721e-16 1.1243477754962185e-16 -1.003964644071721e-16 -0.9053932340963126 0.42457401198427636
12624685333.333334 -0.8999873585911029 0.43591599463200953 1.111338144500025e-16 -1.017910595568223e-16 1.111338144500025e-16 -1.017910595568223e-16 -0.8999876656435299 0.43591536069438314
12625302666.666666 -0.8944397224369393 0.44718853174778045 1.09815569755853e-16 -1.0316881466446659e-16 1.09815569755853e-16 -1.0316881466446659e-16 -0.8944400374141742 0.44718790174862205
12625920000.0 -0.8887509022297156 0.45839048177909547 1.0848026122434047e-16 -1.0452951579041492e-16 1.0848026122434047e-16 -1.0452951579041492e-16 -0.8887512250812679 0.4583898558174582
12626537333.333334 -0.8829217959290621 0.4695200765390181 1.0712810925844497e-16 -1.0587295180794742e-16 1.0712810925844497e-16 -1.0587295180794742e-16 -0.882922126603203 0.469519454713308
12627154666.666666 -0.8769533236383621 0.4805755592614284 1.0575933687063854e-16 -1.071989144360191e-16 1.0575933687063854e-16 -1.071989144360191e-16 -0.8769536620821351 0.48057494166938985
12627772000.0 -0.8708464274592271 0.49155518487887545 1.0437416964610484e-16 -1.0850719827154927e-16 1.0437416964610484e-16 -1.0850719827154927e-16 -0.8708467736184524 0.49155457161757427
12628389333.333334 -0.8646020713431912 0.502457220297279 1.0297283570573795e-16 -1.0979760082106287e-16 1.0297283570573795e-16 -1.0979760082106287e-16 -0.8646024251624769 0.5024566114630878
12629006666.666666 -0.8582212409391434 0.5132799446702382 1.0155556566856639e-16 -1.1106992253203398e-16 1.0155556566856639e-16 -1.1106992253203398e-16 -0.8582216023618943 0.5132793403588217
12629624000.0 -0.8517049434380526 0.5240216496701153 1.0012259261392876e-16 -1.1232396682361663e-16 1.0012259261392876e-16 -1.1232396682361663e-16 -0.8517053124064798 0.5240210499764159
12630241333.333334 -0.8450542074138171 0.5346806397579862 9.86741520431632e-17 -1.1355954011698632e-16 9.86741520431632e-17 -1.1355954011698632e-16 -0.845054583868946 0.5346800447762073
12630858666.666666 -0.8382700826610887 0.5452552324509847 9.721048184102655e-17 -1.1477645186509855e-16 9.721048184102655e-17 -1.1477645186509855e-16 -0.8382704665427674 0.5452546422745763
12631476000.0 -0.8313536400292247 0.5557437585884012 9.573182223664295e-17 -1.159745145820393e-16 9.573182223664295e-17 -1.159745145820393e-16 -0.8313540312761367 0.5557431733100469
12632093333.333334 -0.8243059712536965 0.5661445625944882 9.423841576419224e-17 -1.1715354387179302e-16 9.423841576419224e-17 -1.1715354387179302e-16 -0.8243063698033682 0.566143982306089
12632710666.666666 -0.817128188783418 0.5764560027403094 9.273050722317824e-17 -1.1831335845655886e-16 9.273050722317824e-17 -1.1831335845655886e-16 -0.8171285945722291 0.5764554275329692
12633328000.0 -0.8098214256053048 0.5866764514026416 9.120834363835577e-17 -1.1945378020455046e-16 9.120834363835577e-17 -1.1945378020455046e-16 -0.8098218385684993 0.5866758813666543
12633945333.333334 -0.8023868350654076 0.5968042953209386 8.967217421934543e-17 -1.2057463415726146e-16 8.967217421934543e-17 -1.2057463415726146e-16 -0.8023872551371027 0.5968037305457726
12634562666.666666 -0.7948255906868595 0.606837935851978 8.812225031992082e-17 -1.216757485562072e-16 8.812225031992082e-17 -1.216757485562072e-16 -0.7948260178000566 0.6068373764262622
12635180000.0 -0.7871388859846377 0.6167757892221994 8.655882539690035e-17 -1.227569548691953e-16 8.655882539690035e-17 -1.227569548691953e-16 -0.7871393200712348 0.6167752352337109
12635797333.333334 -0.7793279342771763 0.6266162867777012 8.4982154968815e-17 -1.2381808781599863e-16 8.4982154968815e-17 -1.2381808781599863e-16 -0.7793283752679754 0.6266157383133487
12636414666.666666 -0.7713939684948419 0.6363578752318414 8.339249657419335e-17 -1.2485898539354856e-16 8.339249657419335e-17 -1.2485898539354856e-16 -0.7713944163195635 0.6363573323776545
12637032000.0 -0.7633382409853257 0.645999016910423 8.179010972953896e-17 -1.2587948890059296e-16 8.179010972953896e-17 -1.2587948890059296e-16 -0.7633386955726189 0.6459984797515377
12637649333.333334 -0.7551620233159629 0.6555381899944088 8.01752558870785e-17 -1.268794429617684e-16 8.01752558870785e-17 -1.268794429617684e-16 -0.7551624845934152 0.6555376586150524
12638266666.666666 -0.746866606073019 0.6649738887601335 7.854819839211017e-17 -1.2785869555120202e-16 7.854819839211017e-17 -1.2785869555120202e-16 -0.7468670739671694 0.664973363243614
12638884000.0 -0.7384532986579775 0.6743046238169786 7.69092024401807e-17 -1.288170980154943e-16 7.69092024401807e-17 -1.288170980154943e-16 -0.7384537730943281 0.6743041042456701
12639501333.333334 -0.7299234290808152 0.6835289223425074 7.525853503386704e-17 -1.2975450509622497e-16 7.525853503386704e-17 -1.2975450509622497e-16 -0.7299239099838427 0.6835284087978378
12640118666.666666 -0.7212783437506151 0.6926453283146967 7.359646493940997e-17 -1.3067077495183281e-16 7.359646493940997e-17 -1.3067077495183281e-16 -0.7212788310437831 0.6926448208771349
12640736000.0 -0.7125194072624164 0.701652402742426 7.192326264292011e-17 -1.3156576917903308e-16 7.192326264292011e-17 -1.3156576917903308e-16 -0.7125199008681871 0.7016519014914687
12641353333.333334 -0.7036480021827569 0.7105487238916275 7.023920030654908e-17 -1.3243935283355263e-16 7.023920030654908e-17 -1.3243935283355263e-16 -0.7036485020226037 0.7105482289057872
12641970666.666666 -0.6946655288306557 0.7193328875105249 6.854455172418558e-17 -1.3329139445042613e-16 6.854455172418558e-17 -1.3329139445042613e-16 -0.6946660348250763 0.7193323988673181
12642588000.0 -0.6855734050568121 0.72800350705104 6.68395922770196e-17 -1.3412176606366612e-16 6.68395922770196e-17 -1.3412176606366612e-16 -0.6855739171253393 0.7280030248269737
12643205333.333334 -0.6763730660199614 0.7365592138874932 6.512459888890847e-17 -1.349303432253472e-16 6.512459888890847e-17 -1.349303432253472e-16 -0.6763735840811785 0.7365587381580547
12643822666.666666 -0.6670659639601847 0.7449986575328001 6.339984998136873e-17 -1.3571700502419189e-16 6.339984998136873e-17 -1.3571700502419189e-16 -0.6670664879317363 0.7449981883724438
12644440000.0 -0.6576535679697145 0.7533205058515989 6.166562542853688e-17 -1.3648163410348963e-16 6.166562542853688e-17 -1.3648163410348963e-16 -0.657654097768321 0.753320043333735
12645057333.333334 -0.6481373637610023 0.7615234452705589 5.992220651175501e-17 -1.372241166785189e-16 5.992220651175501e-17 -1.372241166785189e-16 -0.6481378993024721 0.7615229894675428
12645674666.666666 -0.6385188534324208 0.7696061809855426 5.816987587403284e-17 -1.3794434255334961e-16 5.816987587403284e-17 -1.3794434255334961e-16 -0.6385193946316637 0.769605731968661
12646292000.0 -0.6287995552306838 0.7775674371663847 5.64089174742552e-17 -1.3864220513708841e-16 5.64089174742552e-17 -1.3864220513708841e-16 -0.6288001020017254 0.7775669950058476
12646909333.333334 -0.6189810033118086 0.7854059571577697 5.463961654128393e-17 -1.3931760145950677e-16 5.463961654128393e-17 -1.3931760145950677e-16 -0.6189815555678037 0.7854055219226983
12647526666.666666 -0.609064747498518 0.7931205036779542 5.286225952776328e-17 -1.3997043218612623e-16 5.286225952776328e-17 -1.3997043218612623e-16 -0.6090653051517643 0.7931200754363698
12648144000.0 -0.5990523530356463 0.8007098590140252 5.107713406382707e-17 -1.406006016326859e-16 5.107713406382707e-17 -1.406006016326859e-16 -0.5990529159975976 0.8007094378328383
12648761333.333334 -0.5889454003432502 0.8081728252139727 4.9284528910627593e-17 -1.4120801777902313e-16 4.9284528910627593e-17 -1.4120801777902313e-16 -0.588945968524531 0.8081724111589723
12649378666.666666 -0.5787454847671483 0.815508224275785 4.748473391367008e-17 -1.4179259228237547e-16 4.748473391367008e-17 -1.4179259228237547e-16 -0.5787460580775684 0.8155078174116297
12649996000.0 -0.5684542163268744 0.8227148983335628 4.5678039955983144e-17 -1.4235424049008959e-16 4.5678039955983144e-17 -1.4235424049008959e-16 -0.5684547946754428 0.8227144987237703
12650613333.333334 -0.5580732194617216 0.8297917098401464 4.3864738911214126e-17 -1.4289288145171071e-16 4.3864738911214126e-17 -1.4289288145171071e-16 -0.5580738027566611 0.8297913175470826
12651230666.666666 -0.5476041327742872 0.8367375417467086 4.204512359651241e-17 -1.4340843793050167e-16 4.204512359651241e-17 -1.4340843793050167e-16 -0.5476047209230488 0.8367371568315789
12651848000.0 -0.5370486087718243 0.8435512976790768 4.02194877252868e-17 -1.4390083641435585e-16 4.02194877252868e-17 -1.4390083641435585e-16 -0.5370492016811012 0.8435509202019149
12652465333.333334 -0.5264083136053971 0.8502319021107871 3.838812585987148e-17 -1.443700071261033e-16 3.838812585987148e-17 -1.443700071261033e-16 -0.5264089111811413 0.8502315321304488
12653082666.666666 -0.5156849268068902 0.856778300532861 3.6551333364082796e-17 -1.4481588403321332e-16 3.6551333364082796e-17 -1.4481588403321332e-16 -0.515685528954326 0.8567779381070119
12653700000.0 -0.5048801410238963 0.8631894596202484 3.4709406355583624e-17 -1.4523840485691368e-16 3.4709406355583624e-17 -1.4523840485691368e-16 -0.5048807476475352 0.8631891048053557
12654317333.333334 -0.4939956617525393 0.8694643673949358 3.2862641658269974e-17 -1.456375110806769e-16 3.2862641658269974e-17 -1.456375110806769e-16 -0.49399627275619623 0.8694640202462612
12654934666.666666 -0.48303320706831804 0.8756020333856582 3.101133675443886e-17 -1.4601314795812974e-16 3.101133675443886e-17 -1.4601314795812974e-16 -0.4830338223551261 0.8756016939572479
12655552000.0 -0.47199450735466575 0.8816014887843778 2.9155789736952047e-17 -1.463652645203364e-16 2.9155789736952047e-17 -1.463652645203364e-16 -0.4719951268270904 0.8816011571290525
12656169333.333334 -0.4608813050303109 0.8874617865989287 2.729629926131307e-17 -1.466938135824785e-16 2.729629926131307e-17 -1.466938135824785e-16 -0.4608819285901674 0.8874614627682786
12656786666.666666 -0.4496953542737476 0.8931820018027756 2.543316449763934e-17 -1.4699875174993323e-16 2.543316449763934e-17 -1.4699875174993323e-16 -0.44969598182221565 0.893181685847151
12657404000.0 -0.4384384207465927 0.898761231480886 2.3566685082562234e-17 -1.472800394237427e-16 2.3566685082562234e-17 -1.472800394237427e-16 -0.4384390521842318 0.8987609234493884
12658021333.333334 -0.42711228131478113 0.9041985949723039 2.1697161071146512e-17 -1.4753764080546163e-16 2.1697161071146512e-17 -1.4753764080546163e-16 -0.42711291654154676 0.9041982949127803
12658638666.666666 -0.415718723768351 0.9094932340090375 1.9824892888686456e-17 -1.4777152390140847e-16 1.9824892888686456e-17 -1.4777152390140847e-16 -0.4157193626836106 0.9094929419680716
12659256000.0 -0.4042595465387345 0.9146443128517782 1.795018128246959e-17 -1.4798166052630262e-16 1.795018128246959e-17 -1.4798166052630262e-16 -0.40426018904128247 0.914644028874683
12659873333.333334 -0.3927365584153949 0.919651018421573 1.6073327273541537e-17 -1.4816802630628733e-16 1.6073327273541537e-17 -1.4816802630628733e-16 -0.3927372044034697 0.919650742552385
12660490666.666666 -0.3811515782600585 0.9245125604282897 1.4194632108454156e-17 -1.4833060068134084e-16 1.4194632108454156e-17 -1.4833060068134084e-16 -0.3811522276313586 0.9245122927097609
12661108000.0 -0.36950643471966665 0.9292281714953361 1.2314397210912327e-17 -1.4846936690708533e-16 1.2314397210912327e-17 -1.4846936690708533e-16 -0.3695070873713662 0.9292279119689285
12661725333.333334 -0.3578029659377294 0.9337971072807885 1.0432924133537647e-17 -1.4858431205597268e-16 1.0432924133537647e-17 -1.4858431205597268e-16 -0.3578036217664952 0.9337968559866672
12662342666.666666 -0.3460430192641822 0.9382186465948832 8.550514509495244e-18 -1.4867542701786978e-16 8.550514509495244e-18 -1.4867542701786978e-16 -0.3460436781661889 0.9382184035719084
12662960000.0 -0.3342284509637865 0.942492091513851 6.667470004261713e-18 -1.4874270650002306e-16 6.667470004261713e-18 -1.4874270650002306e-16 -0.33422911283473467 0.9424918567995758
12663577333.333334 -0.3223611259231273 0.9466167674900857 4.784092267271573e-18 -1.487861490264219e-16 4.784092267271573e-18 -1.487861490264219e-16 -0.3223617906582587 0.946616541120747
12664194666.666666 -0.3104429173562469 0.9505920234586172 2.9006828837202483e-18 -1.488057569365425e-16 2.9006828837202483e-18 -1.488057569365425e-16 -0.3104435848503613 0.950591805469131
12664812000.0 -0.2984757065089639 0.9544172319398786 1.0175433262609521e-18 -1.4880153638348955e-16 1.0175433262609521e-18 -1.4880153638348955e-16 -0.298476376656436 0.9544170223638357
12665429333.333334 -0.28646138236187235 0.9580917891387709 -8.6502509313481575e-19 -1.4877349733152222e-16 -8.6502509313481575e-19 -1.4877349733152222e-16 -0.28646205505666833 0.9580915880084301
12666046666.666666 -0.274401841332444 0.9616151150398842 -2.7467212713568353e-18 -1.4872165355297595e-16 -2.7467212713568353e-18 -1.4872165355297595e-16 -0.2744025164681387 0.9616149223861694
12666664000.0 -0.2622989869750879 0.964986653499233 -4.627244362283523e-18 -1.4864602262457236e-16 -4.627244362283523e-18 -1.4864602262457236e-16 -0.2622996644448806 0.9649864693517255
12667281333.333334 -0.2501547296814431 0.9682058723318143 -6.506293824764894e-18 -1.4854662592312566e-16 -6.506293824764894e-18 -1.4854662592312566e-16 -0.2501554093781756 0.9682056967187516
12667898666.666666 -0.23797098637828656 0.9712722633957751 -8.383569470656366e-18 -1.4842348862063955e-16 -8.383569470656366e-18 -1.4842348862063955e-16 -0.2379716681944591 0.9712720963440427
12668516000.0 -0.22574968022494865 0.9741853426726043 -1.025877151269275e-17 -1.4827663967879897e-16 -1.025877151269275e-17 -1.4827663967879897e-16 -0.22575036405273816 0.9741851842077364
12669133333.333334 -0.2134927403102487 0.9769446503434196 -1.2131600612288105e-17 -1.481061118428614e-16 -1.2131600612288105e-17 -1.481061118428614e-16 -0.21349342604152466 0.9769445004895917
12669750666.666666 -0.20120210134744204 0.9795497508616807 -1.4001757927278794e-17 -1.4791194163494119e-16 -1.4001757927278794e-17 -1.4791194163494119e-16 -0.20120278887378382 0.979549609641705
12670368000.0 -0.18887970336910861 0.9820002330218682 -1.586894515957686e-17 -1.4769416934669057e-16 -1.586894515957686e-17 -1.4769416934669057e-16 -0.18888039258182346 0.9820001004571955
