! Parameters = {f0=12700.012000; bw=77.238000; Q=6100.000000; N=10; m_0_1=1.350245; m_1_1=1.488933; m_1_2=1.185057; m_2_2=1.488284; m_2_3=0.822020; m_2_8=0.004576; m_2_9=0.041280; m_3_3=1.486347; m_3_4=0.710549; m_3_7=0.005176; m_3_8=-0.091912; m_3_9=0.004576; m_4_4=1.483422; m_4_5=0.546884; m_4_6=0.008693; m_4_7=-0.112461; m_4_8=0.005176; m_5_5=1.483804; m_5_6=0.954239; m_5_7=0.008693; m_6_6=1.483803; m_6_7=0.547226; m_7_7=1.483436; m_7_8=0.710667; m_8_8=1.486345; m_8_9=0.822333; m_9_9=1.488279; m_9_10=1.186135; m_10_10=1.488923; m_10_11=1.351040}
!
! Created with skrf (http://scikit-rf.org).
# Hz S RI R 50.0 
!freq ReS11 ImS11 ReS21 ImS21 ReS12 ImS12 ReS22 ImS22
12607400000.0 -0.8313910084977623 0.5556878539151934 1.017650975047974e-16 -1.2240184412378716e-16 1.017650975047974e-16 -1.2240184412378716e-16 -0.8313914037219375 0.5556872626010665
12608017333.333334 -0.8241563732126345 0.5663623155655724 1.0014769989274401e-16 -1.2368857545742033e-16 1.0014769989274401e-16 -1.2368857545742033e-16 -0.8241567760091381 0.5663617294256587
12608634666.666666 -0.8167846938455441 0.5769426001773845 9.851405315387778e-17 -1.2495395220223998e-16 9.851405315387778e-17 -1.2495395220223998e-16 -0.81678510414666 0.5769420193086388
12609252000.0 -0.8092771961894664 0.5874269484178577 9.686443901095053e-17 -1.2619776943288293e-16 9.686443901095053e-17 -1.2619776943288293e-16 -0.8092776139262369 0.5874263729163484
12609869333.333334 -0.8016351286217923 0.5978136169069108 9.519914176750131e-17 -1.274198259377889e-16 9.519914176750131e-17 -1.274198259377889e-16 -0.8016355537240298 0.5978130468678048
12610486666.666666 -0.7938597618968469 0.608100878506916 9.351844825894322e-17 -1.2861992425164895e-16 9.351844825894322e-17 -1.2861992425164895e-16 -0.7938601942931459 0.6081003140244617
12611104000.0 -0.7859523889343439 0.6182870226102107 9.182264780319859e-17 -1.297978706872412e-16 9.182264780319859e-17 -1.297978706872412e-16 -0.7859528285520936 0.6182864637777247
12611721333.333334 -0.7779143246046704 0.6283703554231851 9.011203215104562e-17 -1.309534753665393e-16 9.011203215104562e-17 -1.309534753665393e-16 -0.7779147713700663 0.6283698023330349
12612338666.666666 -0.7697469055100026 0.6383492002482475 8.83868954359348e-17 -1.3208655225126611e-16 8.83868954359348e-17 -1.3208655225126611e-16 -0.7697473593480584 0.6383486529918361
12612956000.0 -0.7614514897621475 0.6482218977624921 8.664753412349627e-17 -1.3319691917273539e-16 8.664753412349627e-17 -1.3319691917273539e-16 -0.7614519505967096 0.6482213564302448
12613573333.333334 -0.7530294567568301 0.6579868062934958 8.489424696070521e-17 -1.3428439786101084e-16 8.489424696070521e-17 -1.3428439786101084e-16 -0.7530299245105869 0.657986270974843
12614190666.666666 -0.7444822069440951 0.6676423020925578 8.312733492461477e-17 -1.3534881397344193e-16 8.312733492461477e-17 -1.3534881397344193e-16 -0.7444826815385946 0.6676417728759222
12614808000.0 -0.7358111615955469 0.6771867796045734 8.13471011707705e-17 -1.3638999712250108e-16 8.13471011707705e-17 -1.3638999712250108e-16 -0.7358116429512054 0.6771862565773534
12615425333.333334 -0.7270177625681281 0.6866186517348862 7.9553850981279e-17 -1.3740778090294499e-16 7.9553850981279e-17 -1.3740778090294499e-16 -0.7270182506042463 0.6866181349834434
12616042666.666666 -0.7181034720641365 0.6959363501134522 7.77478917124992e-17 -1.384020029183168e-16 7.77478917124992e-17 -1.384020029183168e-16 -0.7181039666989114 0.6959358397230951
12616660000.0 -0.7090697723881906 0.7051383253555012 7.592953274248181e-17 -1.3937250480671547e-16 7.592953274248181e-17 -1.3937250480671547e-16 -0.7090702735387316 0.7051378214104738
12617277333.333334 -0.6999181657008329 0.7142230473191009 7.409908541801216e-17 -1.4031913226592326e-16 7.409908541801216e-17 -1.4031913226592326e-16 -0.6999186732831731 0.7142225499025663
12617894666.666666 -0.6906501737687051 0.7231890053596349 7.225686300138001e-17 -1.412417350778148e-16 7.225686300138001e-17 -1.412417350778148e-16 -0.6906506876978165 0.7231885145536631
12618512000.0 -0.6812673377112153 0.7320347085812764 7.040318061683965e-17 -1.4214016713207308e-16 7.040318061683965e-17 -1.4214016713207308e-16 -0.6812678579010231 0.7320342244668296
12619129333.333334 -0.6717712177447631 0.7407586860844221 6.853835519677789e-17 -1.4301428644920515e-16 6.853835519677789e-17 -1.4301428644920515e-16 -0.6717717441081597 0.7407582087413427
12619746666.666666 -0.662163392923061 0.7493594872105251 6.666270542760595e-17 -1.4386395520284783e-16 6.666270542760595e-17 -1.4386395520284783e-16 -0.6621639253719208 0.749359016717521
12620364000.0 -0.652445460874304 0.757835681783536 6.477655169533615e-17 -1.4468903974138397e-16 6.477655169533615e-17 -1.4468903974138397e-16 -0.652445999319499 0.7578352182181699
12620981333.333334 -0.6426190375360187 0.7661858603472672 6.28802160309757e-17 -1.4548941060880975e-16 6.28802160309757e-17 -1.4548941060880975e-16 -0.6426195818874313 0.7661854037859402
12621598666.666666 -0.632685756886061 0.774408634400025 6.097402205558263e-17 -1.4626494256492397e-16 6.097402205558263e-17 -1.4626494256492397e-16 -0.6326863070526018 0.7744081849179685
12622216000.0 -0.6226472706708708 0.7825026366255365 5.905829492511601e-17 -1.4701551460478018e-16 5.905829492511601e-17 -1.4701551460478018e-16 -0.6226478265604903 0.7825021942967944
12622833333.333334 -0.6125052481308912 0.7904665211202279 5.713336127504128e-17 -1.4774100997742206e-16 5.713336127504128e-17 -1.4774100997742206e-16 -0.6125058096505998 0.7904660860176507
12623450666.666666 -0.6022613757231429 0.7982989636169325 5.5199549164707786e-17 -1.484413162038939e-16 5.5199549164707786e-17 -1.484413162038939e-16 -0.6022619427790225 0.7982985358121601
12624068000.0 -0.5919173568405199 0.8059986617052993 5.325718802151645e-17 -1.4911632509452113e-16 5.325718802151645e-17 -1.4911632509452113e-16 -0.5919179293377415 0.8059982412687522
12624685333.333334 -0.5814749115286784 0.8135643350482595 5.1306608584828226e-17 -1.4976593276548023e-16 5.1306608584828226e-17 -1.4976593276548023e-16 -0.5814754893715172 0.8135639220491255
12625302666.666666 -0.5709357762001577 0.8209947255948268 4.9348142849809113e-17 -1.503900396545886e-16 4.9348142849809113e-17 -1.503900396545886e-16 -0.57093635929201 0.8209943201010506
12625920000.0 -0.560301703345321 0.8282885977895226 4.738212401087267e-17 -1.5098855053643267e-16 4.738212401087267e-17 -1.5098855053643267e-16 -0.5603022915887191 0.8282881998677942
12626537333.333334 -0.5495744612412671 0.8354447387776 4.5408886405147485e-17 -1.5156137453669108e-16 4.5408886405147485e-17 -1.5156137453669108e-16 -0.5495750545378972 0.8354443484933443
12627154666.666666 -0.5387558336577059 0.8424619586067917 4.342876545568896e-17 -1.5210842514574852e-16 4.342876545568896e-17 -1.5210842514574852e-16 -0.5387564319084228 0.8424615760241569
12627772000.0 -0.5278476195600076 0.849339090425393 4.144209761445216e-17 -1.5262962023158937e-16 4.144209761445216e-17 -1.5262962023158937e-16 -0.5278482226648525 0.8493387156072408
12628389333.333334 -0.5168516328106874 0.8560749906758918 3.944922030528694e-17 -1.5312488205190097e-16 3.944922030528694e-17 -1.5312488205190097e-16 -0.5168522406689035 0.8560746236837857
12629006666.666666 -0.5057697018672583 0.8626685392854578 3.7450471866617686e-17 -1.5359413726547833e-16 3.7450471866617686e-17 -1.5359413726547833e-16 -0.5057703143773095 0.8626681801796556
12629624000.0 -0.4946036694783841 0.8691186398520734 3.5446191494130914e-17 -1.5403731694284776e-16 3.5446191494130914e-17 -1.5403731694284776e-16 -0.4946042865379696 0.8691182886915146
12630241333.333334 -0.4833553923775536 0.875424219826789 3.34367191832361e-17 -1.5445435657616894e-16 3.34367191832361e-17 -1.5445435657616894e-16 -0.4833560138836267 0.8754238766690868
12630858666.666666 -0.47202674097429176 0.8815842306921051 3.142239567151052e-17 -1.548451960883656e-16 3.142239567151052e-17 -1.548451960883656e-16 -0.4720273668230761 0.8815838955935358
12631476000.0 -0.4606195990427875 0.8875976481365095 2.9403562380900936e-17 -1.552097798415361e-16 2.9403562380900936e-17 -1.552097798415361e-16 -0.4606202291297956 0.8875973211520052
12632093333.333334 -0.44913586340925304 0.8934634722244812 2.738056135999965e-17 -1.555480566445776e-16 2.738056135999965e-17 -1.555480566445776e-16 -0.44913649762930224 0.8934631534076182
12632710666.666666 -0.43757744363616197 0.8991807275629536 2.535373522615861e-17 -1.5585997976007642e-16 2.535373522615861e-17 -1.5585997976007642e-16 -0.437578081883393 0.8991804169659458
12633328000.0 -0.42594626170466804 0.9047484634635307 2.3323427107450347e-17 -1.5614550691045612e-16 2.3323427107450347e-17 -1.5614550691045612e-16 -0.4259469038725621 0.9047481611372192
12633945333.333334 -0.41424425169510953 0.9101657541005155 2.128998058474278e-17 -1.56404600283344e-16 2.128998058474278e-17 -1.56404600283344e-16 -0.4142448976765064 0.9101654600943622
12634562666.666666 -0.4024733594655589 0.9154316986647932 1.9253739633542937e-17 -1.5663722653620966e-16 1.9253739633542937e-17 -1.5663722653620966e-16 -0.40247400915267506 0.9154314130268711
12635180000.0 -0.39063554232794817 0.9205454215137626 1.721504856593901e-17 -1.568433568002287e-16 1.721504856593901e-17 -1.568433568002287e-16 -0.39063619561239415 0.9205451442907494
12635797333.333334 -0.3787327687227528 0.9255060723168701 1.5174251972410687e-17 -1.5702296668340454e-16 1.5174251972410687e-17 -1.5702296668340454e-16 -0.37873342549555167 0.9255058035540388
12636414666.666666 -0.36676701789182947 0.9303128261969394 1.313169466365969e-17 -1.5717603627292866e-16 1.313169466365969e-17 -1.5717603627292866e-16 -0.3667676780434346 0.9303125659381518
12637032000.0 -0.35474027954893184 0.9349648838674892 1.1087721612417008e-17 -1.5730255013678577e-16 1.1087721612417008e-17 -1.5730255013678577e-16 -0.3547409429692463 0.9349646321551903
12637649333.333334 -0.34265455354927526 0.939461471765473 9.042677895245668e-18 -1.5740249732460412e-16 9.042677895245668e-18 -1.5740249732460412e-16 -0.34265522012766897 0.9394612286406817
12638266666.666666 -0.33051184955662194 0.9438018421800536 6.99690863434867e-18 -1.5747587136775024e-16 6.99690863434867e-18 -1.5747587136775024e-16 -0.33051251918195046 0.9438016076823572
12638884000.0 -0.3183141867092633 0.9479852733768714 4.950758939400906e-18 -1.5752267027866714e-16 4.950758939400906e-18 -1.5752267027866714e-16 -0.3183148592698864 0.9479850475444185
12639501333.333334 -0.30606359328437893 0.9520110697180241 2.904573849352286e-18 -1.575428965494615e-16 2.904573849352286e-18 -1.575428965494615e-16 -0.30606426866817904 0.9520108525875182
12640118666.666666 -0.2937621063607124 0.9558785617777602 8.58698274417588e-19 -1.5753655714973017e-16 8.58698274417588e-19 -1.5753655714973017e-16 -0.2937627844551141 0.955878353384456
12640736000.0 -0.28141177147945884 0.9595871064539134 -1.18652306217575e-18 -1.575036635236397e-16 -1.18652306217575e-18 -1.575036635236397e-16 -0.2814124521714466 0.9595869068316087
12641353333.333334 -0.26901464230477323 0.9631360870746334 -3.2307456819737725e-18 -1.5744423158624955e-16 -3.2307456819737725e-18 -1.5744423158624955e-16 -0.2690153254809107 0.9631358962556639
12641970666.666666 -0.25657278028190106 0.966524913501052 -5.273625409474922e-18 -1.5735828171908312e-16 -5.273625409474922e-18 -1.5735828171908312e-16 -0.25657346582834983 0.9665247315162866
12642588000.0 -0.24408825429433598 0.9697530222254244 -7.314818429868145e-18 -1.572458387649497e-16 -7.314818429868145e-18 -1.572458387649497e-16 -0.24408894209687482 0.9697528491042605
12643205333.333334 -0.23156314031996197 0.9728198764647847 -9.353981346875703e-18 -1.5710693202201632e-16 -9.353981346875703e-18 -1.5710693202201632e-16 -0.23156383026400537 0.9728197122351421
12643822666.666666 -0.21899952108579637 0.9757249662502203 -1.1390771240484817e-17 -1.569415952371282e-16 -1.1390771240484817e-17 -1.569415952371282e-16 -0.2190002130564143 0.9757248109385388
12644440000.0 -0.20639948572161004 0.9784678085116827 -1.3424845724496193e-17 -1.5674986659838783e-16 -1.3424845724496193e-17 -1.5674986659838783e-16 -0.20640017960354667 0.9784676621429168
12645057333.333334 -0.1937651294127056 0.9810479471582817 -1.5455863004058436e-17 -1.5653178872698375e-16 -1.5455863004058436e-17 -1.5653178872698375e-16 -0.19376582509039825 0.9810478097558951
12645674666.666666 -0.18109855305140946 0.9834649531541461 -1.7483481932982097e-17 -1.5628740866828037e-16 -1.7483481932982097e-17 -1.5628740866828037e-16 -0.18109925040900854 0.983464824740111
12646292000.0 -0.16840186288756054 0.985718424589802 -1.9507362071064604e-17 -1.560167778821551e-16 -1.9507362071064604e-17 -1.560167778821551e-16 -0.1684025618089481 0.9857183051845924
12646909333.333334 -0.15567717017866417 0.987807986748925 -2.152716374109591e-17 -1.557199522326116e-16 -2.152716374109591e-17 -1.557199522326116e-16 -0.1556778705474739 0.9878078763715167
12647526666.666666 -0.14292659083843332 0.9897332921707267 -2.3542548085837915e-17 -1.5539699197664376e-16 -2.3542548085837915e-17 -1.5539699197664376e-16 -0.14292729253806943 0.9897331908385912
12648144000.0 -0.13015224508516862 0.9914940207076851 -2.555317712483419e-17 -1.5504796175236107e-16 -2.555317712483419e-17 -1.5504796175236107e-16 -0.13015294799882546 0.9914939284367891
12648761333.333334 -0.11735625708908819 0.9930898795788028 -2.755871381097927e-17 -1.546729305663931e-16 -2.755871381097927e-17 -1.546729305663931e-16 -0.11735696109976963 0.9930897963836044
12649378666.666666 -0.1045407546193372 0.9945206034182611 -2.9558822086944174e-17 -1.5427197178055814e-16 -2.9558822086944174e-17 -1.5427197178055814e-16 -0.1045414596098761 0.9945205293117073
12649996000.0 -0.09170786868977882 0.9957859543195923 -3.1553166941500616e-17 -1.5384516309778524e-16 -3.1553166941500616e-17 -1.5384516309778524e-16 -0.0917085745428566 0.9957858893131188
12650613333.333334 -0.07885973320503589 0.9968857218751976 -3.35414144654891e-17 -1.533925865473407e-16 -3.35414144654891e-17 -1.533925865473407e-16 -0.078860439803202 0.9968856659787255
12651230666.666666 -0.06599848460554397 0.9978197232113498 -3.552323190765866e-17 -1.5291432846931734e-16 -3.552323190765866e-17 -1.5291432846931734e-16 -0.0659991918312355 0.9978196764332852
12651848000.0 -0.05312626151189832 0.9985878030186291 -3.749828773036782e-17 -1.524104794983846e-16 -3.749828773036782e-17 -1.524104794983846e-16 -0.05312696924745933 0.9985877653658597
12652465333.333334 -0.040245204369915355 0.9991898335776971 -3.946625166489396e-17 -1.5188113454685888e-16 -3.946625166489396e-17 -1.5188113454685888e-16 -0.040245912497616734 0.9991898050555942
12653082666.666666 -0.027357455094371107 0.9996257147805687 -4.1426794766629195e-17 -1.513263927870325e-16 -4.1426794766629195e-17 -1.513263927870325e-16 -0.02735816349642995 0.9996256953929828
12653700000.0 -0.01446515671249343 0.9998953741472582 -4.337958947003095e-17 -1.50746357632789e-16 -4.337958947003095e-17 -1.50746357632789e-16 -0.01446586527109276 0.9998953638965232
12654317333.333334 -0.0015704530082926937 0.9999987668378151 -4.532430964319018e-17 -1.5014113672054804e-16 -4.532430964319018e-17 -1.5014113672054804e-16 -0.001571161605600971 0.9999987657247438
12654934666.666666 0.011324511834256295 0.9999358756597938 -4.72606306423511e-17 -1.4951084188944524e-16 -4.72606306423511e-17 -1.4951084188944524e-16 0.011323803316065544 0.9999358836836792
12655552000.0 0.024217593588099 0.9997067110711046 -4.918822936594425e-17 -1.4885558916087162e-16 -4.918822936594425e-17 -1.4885558916087162e-16 0.0242168852668276 0.999706728229722
12656169333.333334 0.037106648338969844 0.9993113111782786 -5.110678430847676e-17 -1.4817549871728026e-16 -5.110678430847676e-17 -1.4817549871728026e-16 0.037105940332375416 0.9993113374678846
12656786666.666666 0.049989532842289026 0.9987497417301352 -5.301597561407988e-17 -1.4747069488031063e-16 -5.301597561407988e-17 -1.4747069488031063e-16 0.049988825268065355 0.9987497771454675
12657404000.0 0.0628641048796067 0.9980220961068395 -5.491548512975889e-17 -1.467413060882278e-16 -5.491548512975889e-17 -1.467413060882278e-16 0.06286339785536416 0.9980221406411185
12658021333.333334 0.0757282236147057 0.9971284953043729 -5.680499645838489e-17 -1.459874648726565e-16 -5.680499645838489e-17 -1.459874648726565e-16 0.07572751725795189 0.997128548949306
12658638666.666666 0.0885797499494192 0.9960690879144378 -5.868419501123709e-17 -1.4520930783468592e-16 -5.868419501123709e-17 -1.4520930783468592e-16 0.08857904437753909 0.9960691506602157
12659256000.0 0.10141654687966827 0.9948440500997164 -6.055276806042741e-17 -1.4440697562021752e-16 -6.055276806042741e-17 -1.4440697562021752e-16 0.10141584220990497 0.9948441219350183
12659873333.333334 0.1142364798506413 0.9934535855645878 -6.241040479078377e-17 -1.4358061289472188e-16 -6.241040479078377e-17 -1.4358061289472188e-16 0.11423577620007663 0.9934536664765841
12660490666.666666 0.12703741711156788 0.9918979255212828 -6.425679635151558e-17 -1.4273036831728035e-16 -6.425679635151558e-17 -1.4273036831728035e-16 0.1270367145971025 0.9918980154956336
12661108000.0 0.13981723007058933 0.9901773286513842 -6.609163590752651e-17 -1.4185639451396027e-16 -6.609163590752651e-17 -1.4185639451396027e-16 0.13981652880892378 0.9901774276722457
12661725333.333334 0.15257379364825902 0.9882920810628716 -6.791461869025491e-17 -1.4095884805058514e-16 -6.791461869025491e-17 -1.4095884805058514e-16 0.15257309375587416 0.9882921891128973
12662342666.666666 0.16530498663130352 0.9862424962424945 -6.972544204830792e-17 -1.4003788940477744e-16 -6.972544204830792e-17 -1.4003788940477744e-16 0.16530428822444126 0.9862426133028388
12662960000.0 0.17800869202517727 0.984028915003664 -7.15238054975894e-17 -1.3909368293741212e-16 -7.15238054975894e-17 -1.3909368293741212e-16 0.1780079952198209 0.9840290410539835
12663577333.333334 0.19068279740591704 0.9816517054298115 -7.330941077113213e-17 -1.3812639686338547e-16 -7.330941077113213e-17 -1.3812639686338547e-16 0.1906821023177725 0.9816518404482707
12664194666.666666 0.2033251952717408 0.9791112628131242 -7.508196186844872e-17 -1.3713620322178933e-16 -7.508196186844872e-17 -1.3713620322178933e-16 0.2033245020162173 0.9791114067763992
12664812000.0 0.21593378339332336 0.9764080095888439 -7.684116510456156e-17 -1.3612327784541276e-16 -7.684116510456156e-17 -1.3612327784541276e-16 0.21593309208551387 0.9764081624721247
12665429333.333334 0.22850646516325207 0.9735423952650432 -7.858672915858301e-17 -1.3508780032963593e-16 -7.858672915858301e-17 -1.3508780032963593e-16 0.22850577591791466 0.97354255704204
12666046666.666666 0.24104114994471673 0.9705148963478774 -8.031836512187935e-17 -1.3402995400070334e-16 -8.031836512187935e-17 -1.3402995400070334e-16 0.2410404628762553 0.9705150669908233
12666664000.0 0.2535357534195345 0.9673260162622485 -8.203578654585439e-17 -1.329499258833524e-16 -8.203578654585439e-17 -1.329499258833524e-16 0.25353506864197994 0.9673261957419061
12667281333.333334 0.26598819793407613 0.9639762852682554 -8.373870948918678e-17 -1.3184790666790143e-16 -8.373870948918678e-17 -1.3184790666790143e-16 0.2659875155610673 0.9639764735539209
12667898666.666666 0.2783964128450799 0.960466260372947 -8.542685256477014e-17 -1.3072409067664461e-16 -8.542685256477014e-17 -1.3072409067664461e-16 0.2783957329898447 0.9604664574324545
12668516000.0 0.290758334864293 0.956796525237601 -8.709993698612825e-17 -1.2957867582969357e-16 -8.709993698612825e-17 -1.2957867582969357e-16 0.2907576576396295 0.9567967310373287
12669133333.333334 0.30307190840090625 0.9529676900808522 -8.875768661334534e-17 -1.2841186361024704e-16 -8.875768661334534e-17 -1.2841186361024704e-16 0.3030712339191647 0.9529679045857299
12669750666.666666 0.31533508590375203 0.948980391577126 -9.039982799859836e-17 -1.272238590292286e-16 -9.039982799859836e-17 -1.272238590292286e-16 0.3153344142768152 0.9489806147506386
