! Parameters = {f0=12700.012000; bw=77.238000; Q=6100.000000; N=10; m_0_1=1.277172; m_1_1=0.392837; m_1_2=1.111984; m_2_2=0.392188; m_2_3=0.748947; m_2_8=0.000922; m_2_9=0.037626; m_3_3=0.390251; m_3_4=0.637476; m_3_7=0.001522; m_3_8=-0.095566; m_3_9=0.000922; m_4_4=0.387326; m_4_5=0.473811; m_4_6=0.005039; m_4_7=-0.116115; m_4_8=0.001522; m_5_5=0.387708; m_5_6=0.881166; m_5_7=0.005039; m_6_6=0.387707; m_6_7=0.474153; m_7_7=0.387340; m_7_8=0.637594; m_8_8=0.390249; m_8_9=0.749260; m_9_9=0.392183; m_9_10=1.113062; m_10_10=0.392827; m_10_11=1.277967}
!
! Created with skrf (http://scikit-rf.org).
# Hz S RI R 50.0 
!freq ReS11 ImS11 ReS21 ImS21 ReS12 ImS12 ReS22 ImS22
12607400000.0 -0.9108930754707519 0.41264246637889407 8.650019770092334e-17 -7.48565587442328e-17 8.650019770092334e-17 -7.48565587442328e-17 -0.9108933531282036 0.41264185345972726
12608017333.333334 -0.9064109688294876 0.42239691711163146 8.56681451681621e-17 -7.577356332082292e-17 8.56681451681621e-17 -7.577356332082292e-17 -0.9064112530365713 0.4223963072382306
12608634666.666666 -0.9018244086682045 0.43210269141729035 8.482638190407354e-17 -7.668133143816889e-17 8.482638190407354e-17 -7.668133143816889e-17 -0.9018246993915281 0.4321020846596341
12609252000.0 -0.8971339235356971 0.44175867081616943 8.397501031336797e-17 -7.757976038005179e-17 8.397501031336797e-17 -7.757976038005179e-17 -0.8971342207411221 0.4417580672438718
12609869333.333334 -0.8923400539569024 0.4513637425669157 8.311413388596001e-17 -7.846874856426409e-17 8.311413388596001e-17 -7.846874856426409e-17 -0.8923403576095476 0.4513631422492165
12610486666.666666 -0.8874433523707272 0.4609167997945265 8.224385718443448e-17 -7.934819555405155e-17 8.224385718443448e-17 -7.934819555405155e-17 -0.8874436624349683 0.46091620280028245
12611104000.0 -0.8824443830661586 0.47041674161833136 8.13642858313547e-17 -8.02180020694535e-17 8.13642858313547e-17 -8.02180020694535e-17 -0.8824446995056402 0.4704161480160115
12611721333.333334 -0.8773437221174795 0.4798624732784059 8.047552649652037e-17 -8.10780699984338e-17 8.047552649652037e-17 -8.10780699984338e-17 -0.8773440448951121 0.4798618831360802
12612338666.666666 -0.8721419573177177 0.4892529062620288 7.957768688403002e-17 -8.192830240794945e-17 7.957768688403002e-17 -8.192830240794945e-17 -0.8721422863956869 0.48925231964736254
12612956000.0 -0.8668396881109666 0.4985869584290216 7.867087571927287e-17 -8.276860355483e-17 7.867087571927287e-17 -8.276860355483e-17 -0.866840023450735 0.498586375409267
12613573333.333334 -0.8614375255233465 0.5078635541363794 7.775520273581638e-17 -8.359887889650553e-17 7.775520273581638e-17 -8.359887889650553e-17 -0.8614378670856587 0.5078629747783674
12614190666.666666 -0.8559360920925065 0.5170816243623728 7.683077866213581e-17 -8.441903510163191e-17 7.683077866213581e-17 -8.441903510163191e-17 -0.8559364398373941 0.5170810487325062
12614808000.0 -0.8503360217959258 0.5262401068296675 7.589771520828008e-17 -8.522898006052565e-17 7.589771520828008e-17 -8.522898006052565e-17 -0.8503363756827127 0.5262395349939131
12615425333.333334 -0.8446379599779025 0.5353379461276677 7.495612505238965e-17 -8.602862289548728e-17 7.495612505238965e-17 -8.602862289548728e-17 -0.8446383199652073 0.5353373781515481
12616042666.666666 -0.8388425632750909 0.5443740938342838 7.40061218271326e-17 -8.681787397095167e-17 7.40061218271326e-17 -8.681787397095167e-17 -0.8388429293208348 0.5443735297828712
12616660000.0 -0.8329504995408955 0.553347508636655 7.304782010602234e-17 -8.759664490350038e-17 7.304782010602234e-17 -8.759664490350038e-17 -0.8329508716023062 0.5533469485745633
12617277333.333334 -0.8269624477684631 0.5622571564512224 7.20813353896281e-17 -8.836484857172543e-17 7.20813353896281e-17 -8.836484857172543e-17 -0.826962825802076 0.5622566004425976
12617894666.666666 -0.8208790980125718 0.5711020105426777 7.110678409170964e-17 -8.912239912591877e-17 7.110678409170964e-17 -8.912239912591877e-17 -0.820879481974242 0.5711014586511944
12618512000.0 -0.8147011513098479 0.5798810516426884 7.012428352518491e-17 -8.98692119976617e-17 7.012428352518491e-17 -8.98692119976617e-17 -0.8147015411547499 0.5798805039315397
12619129333.333334 -0.8084293195982631 0.5885932680669316 6.913395188808696e-17 -9.060520390919068e-17 6.913395188808696e-17 -9.060520390919068e-17 -0.8084297152808992 0.5885927245988233
12619746666.666666 -0.8020643256349171 0.5972376558319374 6.813590824934834e-17 -9.133029288266547e-17 6.813590824934834e-17 -9.133029288266547e-17 -0.8020647271091194 0.5972371166690792
12620364000.0 -0.7956069029127243 0.6058132187708061 6.71302725345148e-17 -9.204439824926176e-17 6.71302725345148e-17 -9.204439824926176e-17 -0.795607310131664 0.6058126839749064
12620981333.333334 -0.7890577955761132 0.6143189686477106 6.611716551140112e-17 -9.274744065808072e-17 6.611716551140112e-17 -9.274744065808072e-17 -0.7890582084923028 0.6143184382799686
12621598666.666666 -0.7824177583349962 0.622753925272143 6.509670877557762e-17 -9.34393420849552e-17 6.509670877557762e-17 -9.34393420849552e-17 -0.7824181769002968 0.6227533993932409
12622216000.0 -0.7756875563779534 0.6311171166116653 6.406902473583153e-17 -9.412002584105076e-17 6.406902473583153e-17 -9.412002584105076e-17 -0.7756879805435801 0.6311165952817628
12622833333.333334 -0.7688679652839813 0.6394075789040138 6.30342365995065e-17 -9.478941658132825e-17 6.30342365995065e-17 -9.478941658132825e-17 -0.7688683950005085 0.6394070621827406
12623450666.666666 -0.7619597709332635 0.6476243567679889 6.19924683577714e-17 -9.544744031283642e-17 6.19924683577714e-17 -9.544744031283642e-17 -0.7619602061506309 0.6476238447144375
12624068000.0 -0.7549637694164053 0.6557665033137899 6.094384477079142e-17 -9.609402440284871e-17 6.094384477079142e-17 -9.609402440284871e-17 -0.7549642100839238 0.6557659959865093
12624685333.333334 -0.747880766942748 0.6638330802520684 5.988849135279895e-17 -9.672909758684874e-17 5.988849135279895e-17 -9.672909758684874e-17 -0.7478812130091049 0.6638325777090571
12625302666.666666 -0.7407115797476289 0.6718231580018609 5.882653435713952e-17 -9.735258997631623e-17 5.882653435713952e-17 -9.735258997631623e-17 -0.7407120311608951 0.6718226603005609
12625920000.0 -0.7334570339980212 0.6797358157980558 5.775810076115426e-17 -9.796443306639939e-17 5.775810076115426e-17 -9.796443306639939e-17 -0.7334574907056552 0.6797353229953444
12626537333.333334 -0.7261179656976653 0.6875701417971164 5.6683318251064e-17 -9.856455974337414e-17 5.6683318251064e-17 -9.856455974337414e-17 -0.7261184276465226 0.6875696539493026
12627154666.666666 -0.718695220590506 0.6953252331824195 5.560231520673481e-17 -9.915290429196285e-17 5.560231520673481e-17 -9.915290429196285e-17 -0.718695687726842 0.6953247503452346
12627772000.0 -0.7111896540631854 0.7030001962683295 5.4515220686339464e-17 -9.9729402402501e-17 5.4515220686339464e-17 -9.9729402402501e-17 -0.7111901263326633 0.7029997184969224
12628389333.333334 -0.7036021310467039 0.7105941466029392 5.342216441103077e-17 -1.0029399117789049e-16 5.342216441103077e-17 -1.0029399117789049e-16 -0.7036026083944016 0.7105936739518702
12629006666.666666 -0.6959335259165337 0.7181062090702212 5.2323276749446366e-17 -1.0084660914043653e-16 5.2323276749446366e-17 -1.0084660914043653e-16 -0.6959340082869482 0.7181057415934542
12629624000.0 -0.6881847223919533 0.7255355179907685 5.121868870222117e-17 -1.0138719623847543e-16 5.121868870222117e-17 -1.0138719623847543e-16 -0.6881852097290084 0.7255350557416667
12630241333.333334 -0.6803566134341688 0.7328812172215984 5.010853188637996e-17 -1.0191569385285905e-16 5.010853188637996e-17 -1.0191569385285905e-16 -0.6803571056812219 0.7328807602529167
12630858666.666666 -0.6724501011435146 0.7401424602547129 4.8992938519713305e-17 -1.0243204480324512e-16 4.8992938519713305e-17 -1.0243204480324512e-16 -0.6724505982433628 0.7401420086185936
12631476000.0 -0.6644660966552466 0.747318410314883 4.7872041405010525e-17 -1.029361933542539e-16 4.7872041405010525e-17 -1.029361933542539e-16 -0.6644665985501326 0.7473179640628472
12632093333.333334 -0.6564055200348982 0.7544082404557478 4.674597391432955e-17 -1.0342808522140647e-16 4.674597391432955e-17 -1.0342808522140647e-16 -0.6564060266665195 0.7544077996386936
12632710666.666666 -0.6482693001720061 0.7614111336553471 4.56148699731364e-17 -1.0390766757692422e-16 4.56148699731364e-17 -1.0390766757692422e-16 -0.6482698114815184 0.7614106983235388
12633328000.0 -0.6400583746730384 0.7683262829102826 4.447886404438826e-17 -1.0437488905535259e-16 4.447886404438826e-17 -1.0437488905535259e-16 -0.6400588906010654 0.7683258531133493
12633945333.333334 -0.6317736897534982 0.7751528913285903 4.333809111261652e-17 -1.0482969975898793e-16 4.333809111261652e-17 -1.0482969975898793e-16 -0.6317742102401365 0.7751524671155181
12634562666.666666 -0.6234162001288636 0.781890172221592 4.219268666788389e-17 -1.052720512631611e-16 4.219268666788389e-17 -1.052720512631611e-16 -0.6234167251136904 0.7818897536407184
12635180000.0 -0.6149868689044571 0.7885373491946434 4.104278668973564e-17 -1.0570189662132525e-16 4.104278668973564e-17 -1.0570189662132525e-16 -0.6149873983265373 0.7885369362936523
12635797333.333334 -0.6064866674645224 0.7950936562365465 3.988852763107646e-17 -1.0611919036997957e-16 3.988852763107646e-17 -1.0611919036997957e-16 -0.606487201262416 0.7950932490624633
12636414666.666666 -0.5979165753603327 0.8015583378077947 3.873004640203099e-17 -1.065238885334043e-16 3.873004640203099e-17 -1.065238885334043e-16 -0.5979171134721002 0.8015579364069785
12637032000.0 -0.5892775801972595 0.8079306489276693 3.756748035369692e-17 -1.0691594862824231e-16 3.756748035369692e-17 -1.0691594862824231e-16 -0.5892781225604721 0.8079302533458118
12637649333.333334 -0.5805706775209205 0.8142098552601297 3.6400967261913146e-17 -1.0729532966788166e-16 3.6400967261913146e-17 -1.0729532966788166e-16 -0.5805712240726645 0.8142094655422463
12638266666.666666 -0.5717968707025202 0.820395233198382 3.5230645310954365e-17 -1.0766199216667269e-16 3.5230645310954365e-17 -1.0766199216667269e-16 -0.5717974213794056 0.820394849388808
12638884000.0 -0.5629571708232001 0.8264860699482844 3.4056653077190226e-17 -1.0801589814396509e-16 3.4056653077190226e-17 -1.0801589814396509e-16 -0.5629577255613679 0.8264856920906704
12639501333.333334 -0.5540525965574772 0.8324816636105211 3.2879129512698765e-17 -1.0835701112796918e-16 3.2879129512698765e-17 -1.0835701112796918e-16 -0.554053155292606 0.8324812917478264
12640118666.666666 -0.5450841740560877 0.8383813232613279 3.1698213928879514e-17 -1.086852961594286e-16 3.1698213928879514e-17 -1.086852961594286e-16 -0.5450847367234033 0.8383809574358193
12640736000.0 -0.5360529368272167 0.8441843690324636 3.051404597993161e-17 -1.0900071979514202e-16 3.051404597993161e-17 -1.0900071979514202e-16 -0.5360535033614966 0.8441840092857057
12641353333.333334 -0.5269599256180607 0.8498901321891149 2.932676564645347e-17 -1.0930325011126332e-16 2.932676564645347e-17 -1.0930325011126332e-16 -0.5269604959536439 0.8498897785619688
12641970666.666666 -0.5178061882943455 0.8554979552073189 2.8136513218855317e-17 -1.0959285670646464e-16 2.8136513218855317e-17 -1.0959285670646464e-16 -0.5178067623651397 0.8554976077399367
12642588000.0 -0.5085927797199088 0.8610071918495219 2.6943429280838252e-17 -1.0986951070489429e-16 2.6943429280838252e-17 -1.0986951070489429e-16 -0.5085933574593969 0.8610068505813414
12643205333.333334 -0.4993207616349683 0.8664172072391549 2.5747654692826958e-17 -1.1013318475896014e-16 2.5747654692826958e-17 -1.1013318475896014e-16 -0.49932134297621816 0.8664168722088972
12643822666.666666 -0.4899912025337697 0.8717273779337968 2.454933057533558e-17 -1.1038385305194223e-16 2.454933057533558e-17 -1.1038385305194223e-16 -0.48999178740943927 0.8717270491794582
12644440000.0 -0.4806051775415245 0.8769370919969693 2.3348598292369333e-17 -1.1062149130041158e-16 2.3348598292369333e-17 -1.1062149130041158e-16 -0.4806057658838721 0.876936769555821
12645057333.333334 -0.47116376829059387 0.8820457490686239 2.2145599434766404e-17 -1.1084607675647713e-16 2.2145599434766404e-17 -1.1084607675647713e-16 -0.47116436003148426 0.8820454329772047
12645674666.666666 -0.461668062795691 0.8870527604344041 2.094047580354191e-17 -1.1105758820984792e-16 2.094047580354191e-17 -1.1105758820984792e-16 -0.46166865786660444 0.8870524507285186
12646292000.0 -0.45211915532842506 0.8919575490935285 1.973336939315987e-17 -1.1125600598972315e-16 1.973336939315987e-17 -1.1125600598972315e-16 -0.4521197536604646 0.8919572458082413
12646909333.333334 -0.4425181462914738 0.8967595498251356 1.8524422374884077e-17 -1.1144131196648539e-16 1.8524422374884077e-17 -1.1144131196648539e-16 -0.4425187478153737 0.8967592529947689
12647526666.666666 -0.4328661420916268 0.9014582092535033 1.731377708002612e-17 -1.1161348955322773e-16 1.731377708002612e-17 -1.1161348955322773e-16 -0.4328667467377602 0.9014579189116317
12648144000.0 -0.42316425501215493 0.906052985911878 1.610157598321914e-17 -1.1177252370709287e-16 1.610157598321914e-17 -1.1177252370709287e-16 -0.42316486271054177 0.9060527020913249
12648761333.333334 -0.41341360308483555 0.9105433503047707 1.488796168568776e-17 -1.1191840093043035e-16 1.488796168568776e-17 -1.1191840093043035e-16 -0.4134142137651508 0.9105430730376046
12649378666.666666 -0.4036153099610894 0.9149287849689922 1.3673076898512983e-17 -1.1205110927177278e-16 1.3673076898512983e-17 -1.1205110927177278e-16 -0.4036159235526717 0.9149285142865242
12649996000.0 -0.393770504782336 0.9192087845333543 1.24570644258429e-17 -1.121706383266358e-16 1.24570644258429e-17 -1.121706383266358e-16 -0.39377112121419533 0.9192085204661334
12650613333.333334 -0.3838803220500556 0.9233828557768274 1.1240067148156424e-17 -1.1227697923812975e-16 1.1240067148156424e-17 -1.1227697923812975e-16 -0.3838809412508812 0.9233825983546368
12651230666.666666 -0.3739459014949971 0.9274505176853993 1.0022228005511909e-17 -1.1237012469739209e-16 1.0022228005511909e-17 -1.1237012469739209e-16 -0.37394652339316703 0.9274502669372551
12651848000.0 -0.3639683879456836 0.9314113015075798 8.803689980750613e-18 -1.1245006894384215e-16 8.803689980750613e-18 -1.1245006894384215e-16 -0.3639690124692709 0.9314110574617238
12652465333.333334 -0.35394893119666143 0.9352647508083279 7.584596082778331e-18 -1.1251680776524746e-16 7.584596082778331e-18 -1.1251680776524746e-16 -0.3539495582734443 0.9352645134922292
12653082666.666666 -0.343888685876112 0.9390104215216274 6.3650893297899244e-18 -1.125703384976153e-16 6.3650893297899244e-18 -1.125703384976153e-16 -0.3438893154335815 0.9390101909619754
12653700000.0 -0.3337888113123659 0.9426478820018113 5.1453127324990995e-18 -1.1261066002490044e-16 5.1453127324990995e-18 -1.1261066002490044e-16 -0.3337894432777343 0.9426476582245154
12654317333.333334 -0.3236504714007842 0.9461767130731309 3.925409277436553e-18 -1.1263777277853014e-16 3.925409277436553e-18 -1.1263777277853014e-16 -0.3236511057009932 0.9461764961033156
12654934666.666666 -0.3134748344693378 0.9495965080781645 2.7055219101837825e-18 -1.1265167873675114e-16 2.7055219101837825e-18 -1.1265167873675114e-16 -0.31347547103106754 0.9495962979401682
12655552000.0 -0.30326307314394535 0.9529068729246915 1.4857935186470638e-18 -1.1265238142379413e-16 1.4857935186470638e-18 -1.1265238142379413e-16 -0.30326371189362183 0.952906669642061
12656169333.333334 -0.29301636421368943 0.9561074261309833 2.6636691638952563e-19 -1.126398859088572e-16 2.6636691638952563e-19 -1.126398859088572e-16 -0.29301700507749473 0.9561072297264767
12656786666.666666 -0.2827358884947758 0.9591977988699164 -9.526151741144123e-19 -1.1261419880491034e-16 -9.526151741144123e-19 -1.1261419880491034e-16 -0.282736531398655 0.9591976093654945
12657404000.0 -0.2724228306946996 0.9621776350113892 -2.1710101381273674e-18 -1.1257532826731825e-16 -2.1710101381273674e-18 -1.1257532826731825e-16 -0.2724234755643698 0.9621774524282158
12658021333.333334 -0.2620783792756124 0.9650465911633966 -3.388675485319823e-18 -1.1252328399228335e-16 -3.388675485319823e-18 -1.1252328399228335e-16 -0.26207902603657157 0.9650464155218359
12658638666.666666 -0.2517037263176124 0.967804336711534 -4.605468866378323e-18 -1.1245807721511078e-16 -4.605468866378323e-18 -1.1245807721511078e-16 -0.251704374895148 0.9678041680311492
12659256000.0 -0.24130006738093235 0.9704505538572176 -5.821248089670588e-18 -1.123797207082898e-16 -5.821248089670588e-18 -1.123797207082898e-16 -0.24130071770012987 0.9704503921567676
12659873333.333334 -0.23086860136852108 0.9729849376542086 -7.035871137792967e-18 -1.1228822877940047e-16 -7.035871137792967e-18 -1.1228822877940047e-16 -0.23086925335427266 0.9729847829516471
12660490666.666666 -0.2204105303878575 0.9754071960437682 -8.249196184135838e-18 -1.1218361726883984e-16 -8.249196184135838e-18 -1.1218361726883984e-16 -0.2204111839648698 0.9754070483562373
12661108000.0 -0.20992705961211564 0.9777170498883789 -9.461081609452021e-18 -1.1206590354736617e-16 -9.461081609452021e-18 -1.1206590354736617e-16 -0.2099277147049201 0.9777169092322139
12661725333.333334 -0.19941939714178214 0.9799142330038031 -1.0671386018302022e-17 -1.1193510651347266e-16 -1.0671386018302022e-17 -1.1193510651347266e-16 -0.19942005367474266 0.9799140993945264
12662342666.666666 -0.18888875386496481 0.9819984921898628 -1.187996825557825e-17 -1.1179124659057449e-16 -1.187996825557825e-17 -1.1179124659057449e-16 -0.18888941176228682 0.981998365642184
12662960000.0 -0.17833634331810103 0.9839695872595613 -1.3086687422911701e-17 -1.1163434572402439e-16 -1.3086687422911701e-17 -1.1163434572402439e-16 -0.17833700250384 0.9839694677873742
12663577333.333334 -0.16776338154602805 0.9858272910667798 -1.429140289507734e-17 -1.1146442737794922e-16 -1.429140289507734e-17 -1.1146442737794922e-16 -0.16776404194409844 0.9858271786831616
12664194666.666666 -0.15717108696195964 0.9875713895324322 -1.549397433635468e-17 -1.112815165319101e-16 -1.549397433635468e-17 -1.112815165319101e-16 -0.1571717484961436 0.9875712842496422
12664812000.0 -0.14656068020691032 0.9892016816691684 -1.6694261716851236e-17 -1.110856396773856e-16 -1.6694261716851236e-17 -1.110856396773856e-16 -0.1465613428008666 0.9892015834986467
12665429333.333334 -0.13593338400911362 0.9907179796045157 -1.7892125328771204e-17 -1.1087682481408182e-16 -1.7892125328771204e-17 -1.1087682481408182e-16 -0.13593404758638622 0.9907178885568814
12666046666.666666 -0.12529042304322985 0.9921201086025175 -1.9087425802652792e-17 -1.1065510144606565e-16 -1.9087425802652792e-17 -1.1065510144606565e-16 -0.12529108752725698 0.9921200246875678
12666664000.0 -0.11463302378887819 0.9934079070839136 -2.028002412357823e-17 -1.1042050057771841e-16 -2.028002412357823e-17 -1.1042050057771841e-16 -0.11463368910300097 0.9934078303106229
12667281333.333334 -0.10396241438980608 0.9945812266446945 -2.1469781647273396e-17 -1.1017305470952882e-16 -2.1469781647273396e-17 -1.1017305470952882e-16 -0.10396308045727748 0.9945811570212141
12667898666.666666 -0.09327982451190886 0.9956399320732627 -2.2656560116229765e-17 -1.0991279783369748e-16 -2.2656560116229765e-17 -1.0991279783369748e-16 -0.09328049125590253 0.9956398696069181
12668516000.0 -0.08258648520163696 0.9965839013659927 -2.3840221675746545e-17 -1.0963976542957417e-16 -2.3840221675746545e-17 -1.0963976542957417e-16 -0.0825871525452561 0.9965838460632851
12669133333.333334 -0.0718836287443302 0.9974130257412775 -2.502062888987586e-17 -1.0935399445893252e-16 -2.502062888987586e-17 -1.0935399445893252e-16 -0.07188429661061639 0.9974129776078815
12669750666.666666 -0.06117248852204124 0.9981272096520779 -2.6197644757403034e-17 -1.0905552336105304e-16 -2.6197644757403034e-17 -1.0905552336105304e-16 -0.06117315683398335 0.9981271686928416
12670368000.0 -0.05045429887134561 0.9987263707969382 -2.737113272769795e-17 -1.0874439204765041e-16 -2.737113272769795e-17 -1.0874439204765041e-16 -0.050454967551888615 0.9987263370158819
