! Parameters = {f0=12700.012000; bw=77.238000; Q=6100.000000; N=10; m_0_1=1.214910; m_1_1=-0.541097; m_1_2=1.049722; m_2_2=-0.541746; m_2_3=0.686685; m_2_8=-0.002191; m_2_9=0.034513; m_3_3=-0.543683; m_3_4=0.575214; m_3_7=-0.001591; m_3_8=-0.098679; m_3_9=-0.002191; m_4_4=-0.546608; m_4_5=0.411549; m_4_6=0.001926; m_4_7=-0.119228; m_4_8=-0.001591; m_5_5=-0.546226; m_5_6=0.818904; m_5_7=0.001926; m_6_6=-0.546227; m_6_7=0.411891; m_7_7=-0.546594; m_7_8=0.575332; m_8_8=-0.543685; m_8_9=0.686998; m_9_9=-0.541751; m_9_10=1.050800; m_10_10=-0.541107; m_10_11=1.215705}
!
! Created with skrf (http://scikit-rf.org).
# Hz S RI R 50.0 
!freq ReS11 ImS11 ReS21 ImS21 ReS12 ImS12 ReS22 ImS22
12607400000.0 -0.8729704590839972 0.4877730799936721 5.914188205952889e-17 -6.059652080592849e-17 5.914188205952889e-17 -6.059652080592849e-17 -0.8729707713480721 0.48777252113233077
12608017333.333334 -0.8685975673143065 0.49551817933907194 5.858368666394582e-17 -6.111336998875974e-17 5.858368666394582e-17 -6.111336998875974e-17 -0.8685978845211324 0.49551762330441085
12608634666.666666 -0.8641559618812197 0.5032240788604838 5.802098177093988e-17 -6.162508444941912e-17 5.802098177093988e-17 -6.162508444941912e-17 -0.8641562840052209 0.5032235256962119
12609252000.0 -0.8596459941546019 0.5108901689539399 5.745381455040536e-17 -6.213162490991598e-17 5.745381455040536e-17 -6.213162490991598e-17 -0.8596463211698148 0.5108896187035337
12609869333.333334 -0.855068020912397 0.5185158431646955 5.688223251372935e-17 -6.263295252502696e-17 5.688223251372935e-17 -6.263295252502696e-17 -0.8550683527924744 0.518515295871397
12610486666.666666 -0.8504224043124269 0.5261004982351849 5.630628350982992e-17 -6.312902888525648e-17 5.630628350982992e-17 -6.312902888525648e-17 -0.850422741030639 0.5260999539419984
12611104000.0 -0.8457095118636047 0.5336435341529614 5.572601572115549e-17 -6.361981601977108e-17 5.572601572115549e-17 -6.361981601977108e-17 -0.8457098533928413 0.533642992902649
12611721333.333334 -0.8409297163970092 0.5411443541979208 5.514147765968671e-17 -6.410527639927463e-17 5.514147765968671e-17 -6.410527639927463e-17 -0.8409300627097832 0.5411438160330007
12612338666.666666 -0.8360833960363349 0.5486023649896052 5.4552718162880396e-17 -6.458537293887467e-17 5.4552718162880396e-17 -6.458537293887467e-17 -0.836083747104783 0.5486018299523464
12612956000.0 -0.8311709341679138 0.5560169765342392 5.395978638959585e-17 -6.506006900090526e-17 5.395978638959585e-17 -6.506006900090526e-17 -0.8311712899637991 0.5560164446666598
12613573333.333334 -0.8261927194105423 0.5633876022711646 5.336273181603202e-17 -6.55293283976836e-17 5.336273181603202e-17 -6.55293283976836e-17 -0.8261930799052567 0.5633870736150274
12614190666.666666 -0.821149145584599 0.5707136591194585 5.276160423158729e-17 -6.599311539427404e-17 5.276160423158729e-17 -6.599311539427404e-17 -0.8211495107491661 0.5707131337162689
12614808000.0 -0.8160406116809045 0.5779945675240348 5.215645373473402e-17 -6.645139471118181e-17 5.215645373473402e-17 -6.645139471118181e-17 -0.8160409814859793 0.5779940454150351
12615425333.333334 -0.810867521829233 0.5852297515013719 5.154733072884812e-17 -6.690413152702777e-17 5.154733072884812e-17 -6.690413152702777e-17 -0.8108678962451098 0.5852292327275423
12616042666.666666 -0.8056302852662875 0.5924186386851776 5.0934285918035666e-17 -6.735129148116831e-17 5.0934285918035666e-17 -6.735129148116831e-17 -0.8056306642628963 0.5924181232872291
12616660000.0 -0.8003293163033505 0.5995606603716177 5.031737030292042e-17 -6.779284067629078e-17 5.031737030292042e-17 -6.779284067629078e-17 -0.8003296998502625 0.59956014838999
12617277333.333334 -0.7949650342934268 0.6066552515644204 4.969663517640672e-17 -6.822874568097134e-17 4.969663517640672e-17 -6.822874568097134e-17 -0.7949654223598559 0.6066547430392792
12617894666.666666 -0.7895378635982546 0.6137018510193217 4.907213211944975e-17 -6.865897353217353e-17 4.907213211944975e-17 -6.865897353217353e-17 -0.7895382561530617 0.6137013459905567
12618512000.0 -0.7840482335544822 0.6206999012888079 4.844391299675342e-17 -6.908349173774422e-17 4.844391299675342e-17 -6.908349173774422e-17 -0.7840486305661732 0.6206993997960257
12619129333.333334 -0.7784965784399723 0.627648848765848 4.781202995250794e-17 -6.950226827882776e-17 4.781202995250794e-17 -6.950226827882776e-17 -0.7784969798767074 0.6276483508483744
12619746666.666666 -0.7728833374392127 0.6345481437280099 4.7176535406047395e-17 -6.991527161228215e-17 4.7176535406047395e-17 -6.991527161228215e-17 -0.772883743268802 0.6345476494248817
12620364000.0 -0.7672089546086672 0.6413972403808064 4.653748204752618e-17 -7.032247067302853e-17 4.653748204752618e-17 -7.032247067302853e-17 -0.7672093647985788 0.6413967497307725
12620981333.333334 -0.7614738788417464 0.6481955969007688 4.58949228335757e-17 -7.072383487636172e-17 4.58949228335757e-17 -7.072383487636172e-17 -0.761474293359105 0.6481951099422842
12621598666.666666 -0.7556785638331462 0.6549426754784823 4.524891098290316e-17 -7.111933412024602e-17 4.524891098290316e-17 -7.111933412024602e-17 -0.7556789826447381 0.6549421922497067
12622216000.0 -0.749823468042976 0.6616379423611095 4.4599499971918867e-17 -7.150893878753947e-17 4.4599499971918867e-17 -7.150893878753947e-17 -0.7498238911152512 0.661637462899904
12622833333.333334 -0.743909054660564 0.6682808678945286 4.3946743530310477e-17 -7.189261974820056e-17 4.3946743530310477e-17 -7.189261974820056e-17 -0.7439094819596391 0.6682803922384525
12623450666.666666 -0.7379357915678161 0.6748709265652346 4.3290695636623004e-17 -7.227034836143962e-17 4.3290695636623004e-17 -7.227034836143962e-17 -0.7379362230594758 0.6748704547515424
12624068000.0 -0.7319041513021473 0.6814075970419776 4.263141051378954e-17 -7.264209647784838e-17 4.263141051378954e-17 -7.264209647784838e-17 -0.7319045869518482 0.6814071291076157
12624685333.333334 -0.7258146110189984 0.6878903622171041 4.1968942624672656e-17 -7.300783644147137e-17 4.1968942624672656e-17 -7.300783644147137e-17 -0.7258150507918721 0.6878898981987094
12625302666.666666 -0.7196676524544028 0.6943187092471349 4.130334666759087e-17 -7.336754109183669e-17 4.130334666759087e-17 -7.336754109183669e-17 -0.7196680963152575 0.6943182491810301
12625920000.0 -0.7134637618865052 0.7006921295937295 4.0634677571787966e-17 -7.372118376596787e-17 4.0634677571787966e-17 -7.372118376596787e-17 -0.7134642097998295 0.7006916735159215
12626537333.333334 -0.7072034300974058 0.7070101190635831 3.996299049293346e-17 -7.406873830032777e-17 3.996299049293346e-17 -7.406873830032777e-17 -0.7072038820273723 0.7070096670097609
12627154666.666666 -0.7008871523341419 0.7132721778485238 3.928834080858585e-17 -7.441017903273366e-17 3.928834080858585e-17 -7.441017903273366e-17 -0.7008876082446072 0.7132717298540526
12627772000.0 -0.6945154282695025 0.7194778105650432 3.86107841136206e-17 -7.474548080424058e-17 3.86107841136206e-17 -7.474548080424058e-17 -0.6945158881240125 0.7194773666649648
12628389333.333334 -0.6880887619627066 0.7256265262932912 3.793037621568483e-17 -7.507461896096183e-17 3.793037621568483e-17 -7.507461896096183e-17 -0.6880892257244995 0.7256260865223203
12629006666.666666 -0.681607661819262 0.7317178386161689 3.7247173130593824e-17 -7.539756935586889e-17 3.7247173130593824e-17 -7.539756935586889e-17 -0.6816081294512695 0.7317174030086894
12629624000.0 -0.675072640550887 0.7377512656576675 3.6561231077747115e-17 -7.57143083505336e-17 3.6561231077747115e-17 -7.57143083505336e-17 -0.6750731120157395 0.7377508342477319
12630241333.333334 -0.6684842151349556 0.7437263301209942 3.5872606475506265e-17 -7.602481281684005e-17 3.5872606475506265e-17 -7.602481281684005e-17 -0.6684846903949816 0.7437259029423172
12630858666.666666 -0.6618429067736349 0.7496425593262864 3.518135593657113e-17 -7.6329060138648e-17 3.518135593657113e-17 -7.6329060138648e-17 -0.6618433857908691 0.7496421364122473
12631476000.0 -0.6551492408524717 0.7554994852481823 3.448753626332714e-17 -7.662702821342151e-17 3.448753626332714e-17 -7.662702821342151e-17 -0.6551497235886542 0.7554990666318185
12632093333.333334 -0.6484037468990159 0.761296644552672 3.379120444321201e-17 -7.691869545380128e-17 3.379120444321201e-17 -7.691869545380128e-17 -0.6484042333155957 0.7612962302666776
12632710666.666666 -0.6416069585409299 0.7670335786337505 3.309241764402762e-17 -7.720404078915281e-17 3.309241764402762e-17 -7.720404078915281e-17 -0.6416074485990697 0.7670331687104744
12633328000.0 -0.6347594134635834 0.772709833649868 3.2391233209261014e-17 -7.748304366706242e-17 3.2391233209261014e-17 -7.748304366706242e-17 -0.634759907124162 0.7727094281213116
12633945333.333334 -0.6278616533677556 0.7783249605596292 3.1687708653402087e-17 -7.775568405478792e-17 3.1687708653402087e-17 -7.775568405478792e-17 -0.6278621505913691 0.7783245594574415
12634562666.666666 -0.6209142239265814 0.783878515157477 3.098190165723154e-17 -7.802194244067368e-17 3.098190165723154e-17 -7.802194244067368e-17 -0.6209147246735491 0.7838781185129547
12635180000.0 -0.6139176747425427 0.7893700581087106 3.027387006309735e-17 -7.828179983552338e-17 3.027387006309735e-17 -7.828179983552338e-17 -0.6139181789729087 0.7893696659527948
12635797333.333334 -0.6068725593038766 0.7947991549843288 2.9563671870197573e-17 -7.853523777392249e-17 2.9563671870197573e-17 -7.853523777392249e-17 -0.6068730669774132 0.7947987673476017
12636414666.666666 -0.5997794349409247 0.8001653762952912 2.885136522984392e-17 -7.878223831552257e-17 2.885136522984392e-17 -7.878223831552257e-17 -0.5997799460171366 0.8001649932079758
12637032000.0 -0.5926388627818191 0.8054682975266699 2.8137008440692035e-17 -7.902278404628975e-17 2.8137008440692035e-17 -7.902278404628975e-17 -0.5926393772199448 0.8054679190186258
12637649333.333334 -0.5854514077083165 0.8107074991710573 2.7420659944004655e-17 -7.925685807969575e-17 2.7420659944004655e-17 -7.925685807969575e-17 -0.5854519254673329 0.8107071252717787
12638266666.666666 -0.5782176383109988 0.8158825667618415 2.6702378318871403e-17 -7.948444405787753e-17 2.6702378318871403e-17 -7.948444405787753e-17 -0.5782181593496243 0.815882197500455
12638884000.0 -0.5709381268443385 0.8209930909059576 2.598222227743494e-17 -7.970552615274829e-17 2.598222227743494e-17 -7.970552615274829e-17 -0.5709386511210358 0.8209927263112208
12639501333.333334 -0.5636134491813117 0.826038667316358 2.5260250660092632e-17 -7.992008906707074e-17 2.5260250660092632e-17 -7.992008906707074e-17 -0.563613976654292 0.8260383074166564
12640118666.666666 -0.5562441847681224 0.831018896843801 2.4536522430728134e-17 -8.012811803547485e-17 2.4536522430728134e-17 -8.012811803547485e-17 -0.556244715395347 0.831018541667145
12640736000.0 -0.5488309165778916 0.8359333855087441 2.3811096671864476e-17 -8.032959882545392e-17 2.3811096671864476e-17 -8.032959882545392e-17 -0.5488314503170785 0.8359330350827701
12641353333.333334 -0.541374231065157 0.8407817445321051 2.3084032579900663e-17 -8.05245177382902e-17 2.3084032579900663e-17 -8.05245177382902e-17 -0.5413747678737799 0.8407813988840681
12641970666.666666 -0.5338747181188817 0.8455635903664039 2.235538946025865e-17 -8.071286160996079e-17 2.235538946025865e-17 -8.071286160996079e-17 -0.5338752579541768 0.8455632495231804
12642588000.0 -0.5263329710161728 0.8502785447258605 2.1625226722571614e-17 -8.089461781198697e-17 2.1625226722571614e-17 -8.089461781198697e-17 -0.526333513835141 0.8502782087139433
12643205333.333334 -0.5187495863752284 0.854926234616396 2.0893603875854056e-17 -8.106977425224242e-17 2.0893603875854056e-17 -8.106977425224242e-17 -0.5187501321346385 0.8549259034618933
12643822666.666666 -0.51112516410809 0.8595062923651687 2.0160580523645198e-17 -8.123831937572383e-17 2.0160580523645198e-17 -8.123831937572383e-17 -0.5111257127644823 0.8595059660938016
12644440000.0 -0.5034603073732079 0.8640183556496445 1.9426216359190483e-17 -8.140024216526686e-17 1.9426216359190483e-17 -8.140024216526686e-17 -0.5034608588828986 0.8640180342867466
12645057333.333334 -0.4957556225278503 0.8684620675261894 1.869057116058058e-17 -8.155553214222684e-17 1.869057116058058e-17 -8.155553214222684e-17 -0.49575617684693357 0.8684617510967025
12645674666.666666 -0.48801171908003765 0.8728370764583656 1.795370478590203e-17 -8.170417936711349e-17 1.795370478590203e-17 -8.170417936711349e-17 -0.48801227616438964 0.8728367649868392
12646292000.0 -0.4802292096401988 0.877143036344808 1.7215677168352658e-17 -8.184617444018639e-17 1.7215677168352658e-17 -8.184617444018639e-17 -0.4802297694454819 0.8771427298553973
12646909333.333334 -0.47240870987293415 0.8813796065464814 1.6476548311422994e-17 -8.198150850199384e-17 1.6476548311422994e-17 -8.198150850199384e-17 -0.4724092723545986 0.8813793050629437
12647526666.666666 -0.4645508384482084 0.8855464519136793 1.5736378283999165e-17 -8.211017323388195e-17 1.5736378283999165e-17 -8.211017323388195e-17 -0.46455140356149865 0.885546155459376
12648144000.0 -0.45665621699233716 0.8896432428125828 1.4995227215488212e-17 -8.223216085845563e-17 1.4995227215488212e-17 -8.223216085845563e-17 -0.4566567846922924 0.8896429514104726
12648761333.333334 -0.4487254700389573 0.8936696551512511 1.425315529096832e-17 -8.234746413998967e-17 1.425315529096832e-17 -8.234746413998967e-17 -0.44872604028041796 0.8936693688238935
12649378666.666666 -0.44075922497952463 0.8976253704053203 1.3510222746303865e-17 -8.245607638480298e-17 1.3510222746303865e-17 -8.245607638480298e-17 -0.44075979771713314 0.8976250891748689
12649996000.0 -0.4327581120137028 0.9015100756431811 1.2766489863260522e-17 -8.255799144158781e-17 1.2766489863260522e-17 -8.255799144158781e-17 -0.4327586872019095 0.9015097995313858
12650613333.333334 -0.42472276409948667 0.9053234635507527 1.2022016964623274e-17 -8.265320370169424e-17 1.2022016964623274e-17 -8.265320370169424e-17 -0.4247233416925519 0.9053231925789548
12651230666.666666 -0.4166538169032818 0.9090652324557169 1.1276864409338871e-17 -8.274170809936752e-17 1.1276864409338871e-17 -8.274170809936752e-17 -0.41665439685528016 0.9090649666448498
12651848000.0 -0.4085519087492579 0.9127350863515533 1.053109258760317e-17 -8.28235001119486e-17 1.053109258760317e-17 -8.28235001119486e-17 -0.40855249101408264 0.9127348257221412
12652465333.333334 -0.4004176805692391 0.916332734920777 9.784761915992619e-18 -8.289857576002506e-17 9.784761915992619e-18 -8.289857576002506e-17 -0.40041826510060413 0.9163324794929302
12653082666.666666 -0.39225177585189713 0.9198578935579526 9.03793283259551e-18 -8.296693160753863e-17 9.03793283259551e-18 -8.296693160753863e-17 -0.39225236260334206 0.9198576433513694
12653700000.0 -0.3840548405916378 0.9233102833923013 8.290665792096217e-18 -8.302856476185342e-17 8.290665792096217e-18 -8.302856476185342e-17 -0.3840554295165313 0.9233100384262654
12654317333.333334 -0.37582752323775787 0.9266896313096485 7.543021260930846e-18 -8.308347287377366e-17 7.543021260930846e-18 -8.308347287377366e-17 -0.37582811428930096 0.9266893916030263
12654934666.666666 -0.3675704746430426 0.9299956699740748 6.795059712372969e-18 -8.313165413752415e-17 6.795059712372969e-18 -8.313165413752415e-17 -0.36757106777427273 0.9299954355453152
12655552000.0 -0.35928434801217174 0.9332281378491052 6.046841621667907e-18 -8.31731072906818e-17 6.046841621667907e-18 -8.31731072906818e-17 -0.35928494317596626 0.9332279087162372
12656169333.333334 -0.3509697988503097 0.9363867792182952 5.298427461166553e-18 -8.320783161406575e-17 5.298427461166553e-18 -8.320783161406575e-17 -0.3509703959993903 0.9363865553989285
12656786666.666666 -0.3426274849110119 0.9394713442055553 4.549877695430413e-18 -8.323582693158365e-17 4.549877695430413e-18 -8.323582693158365e-17 -0.34262808399794725 0.9394711257168764
12657404000.0 -0.33425806614421594 0.9424815887949052 3.801252776360602e-18 -8.325709361003446e-17 3.801252776360602e-18 -8.325709361003446e-17 -0.3342586671214261 0.9424813756536766
12658021333.333334 -0.3258622046441399 0.9454172748497357 3.0526131383367623e-18 -8.32716325588659e-17 3.0526131383367623e-18 -8.32716325588659e-17 -0.32586280746390034 0.9454170670722969
12658638666.666666 -0.3174405645969337 0.9482781701316441 2.304019193354641e-18 -8.327944522988988e-17 2.304019193354641e-18 -8.327944522988988e-17 -0.317441169211379 0.9482779677339088
12659256000.0 -0.30899381222792094 0.9510640483188795 1.555531326131807e-18 -8.328053361695432e-17 1.555531326131807e-18 -8.328053361695432e-17 -0.30899441858904775 0.9510638513163326
12659873333.333334 -0.30052261574902744 0.9537746890241963 8.072098892837852e-19 -8.327490025557e-17 8.072098892837852e-19 -8.327490025557e-17 -0.30052322380869934 0.9537744974318959
12660490666.666666 -0.2920276453060834 0.9564098778122401 5.911519845967295e-20 -8.326254822249534e-17 5.911519845967295e-20 -8.326254822249534e-17 -0.2920282550160343 0.9564096916448145
12661108000.0 -0.28350957292543005 0.9589694062166322 -6.886924725268262e-19 -8.324348113527666e-17 -6.886924725268262e-19 -8.324348113527666e-17 -0.283510184237268 0.9589692254882788
12661725333.333334 -0.27496907246119023 0.9614530717563243 -1.436152896518499e-18 -8.32177031517462e-17 -1.436152896518499e-18 -8.32177031517462e-17 -0.2749696853264013 0.9614528964808102
12662342666.666666 -0.26640681954155276 0.9638606779517428 -2.1832058978655683e-18 -8.318521896947508e-17 -2.1832058978655683e-18 -8.318521896947508e-17 -0.2664074339115048 0.9638605081424003
12662960000.0 -0.2578234915156242 0.9661920343402401 -2.9297913572540437e-18 -8.314603382518478e-17 -2.9297913572540437e-18 -8.314603382518478e-17 -0.25782410734157096 0.96619187000997
12663577333.333334 -0.24921976739970797 0.9684469564912036 -3.675849216541821e-18 -8.310015349411395e-17 -3.675849216541821e-18 -8.310015349411395e-17 -0.2492203846327923 0.9684467976524697
12664194666.666666 -0.240596327823643 0.9706252660206297 -4.42131948356432e-18 -8.304758428934273e-17 -4.42131948356432e-18 -8.304758428934273e-17 -0.24059694641490165 0.9706251126854618
12664812000.0 -0.23195385497685014 0.9727267906052646 -5.1661422369565905e-18 -8.298833306107405e-17 -5.1661422369565905e-18 -8.298833306107405e-17 -0.23195447487721718 0.9727266427852559
12665429333.333334 -0.22329303255450247 0.9747513639962007 -5.91025763095599e-18 -8.292240719587156e-17 -5.91025763095599e-18 -8.292240719587156e-17 -0.22329365371481313 0.974751221702507
12666046666.666666 -0.2146145457034672 0.9766988260320244 -6.653605900196905e-18 -8.284981461585491e-17 -6.653605900196905e-18 -8.284981461585491e-17 -0.21461516807446165 0.9766986892753623
12666664000.0 -0.205919080967855 0.9785690226515418 -7.396127364511237e-18 -8.277056377785094e-17 -7.396127364511237e-18 -8.277056377785094e-17 -0.20591970450018288 0.9785688914421905
12667281333.333334 -0.1972073262349859 0.9803618059059052 -8.137762433684877e-18 -8.268466367250543e-17 -8.137762433684877e-18 -8.268466367250543e-17 -0.19720795087920945 0.9803616802537028
12667898666.666666 -0.18847997068086028 0.982077033970341 -8.878451612247392e-18 -8.259212382334798e-17 -8.878451612247392e-18 -8.259212382334798e-17 -0.18848059638745862 0.9820769138846855
12668516000.0 -0.17973770471552716 0.9837145711553907 -9.61813550424277e-18 -8.249295428581515e-17 -9.61813550424277e-18 -8.249295428581515e-17 -0.17973833143490045 0.9837144566452394
12669133333.333334 -0.1709812199287742 0.985274287917587 -1.035675481794571e-17 -8.238716564623602e-17 -1.035675481794571e-17 -8.238716564623602e-17 -0.17098184761124707 0.9852741789914543
12669750666.666666 -0.16221120903502553 0.9867560608697744 -1.1094250370633387e-17 -8.227476902076801e-17 -1.1094250370633387e-17 -8.227476902076801e-17 -0.1622118376308515 0.9867559575357338
12670368000.0 -0.1534283658188217 0.9881597727908201 -1.183056309331362e-17 -8.215577605429376e-17 -1.183056309331362e-17 -8.215577605429376e-17 -0.1534289952781866 0.9881596750564994
