! Parameters = {f0=12700.012000; bw=77.238000; Q=6100.000000; N=10; m_0_1=1.189885; m_1_1=-0.916472; m_1_2=1.024697; m_2_2=-0.917121; m_2_3=0.661660; m_2_8=-0.003442; m_2_9=0.033262; m_3_3=-0.919058; m_3_4=0.550189; m_3_7=-0.002842; m_3_8=-0.099930; m_3_9=-0.003442; m_4_4=-0.921983; m_4_5=0.386524; m_4_6=0.000675; m_4_7=-0.120479; m_4_8=-0.002842; m_5_5=-0.921601; m_5_6=0.793879; m_5_7=0.000675; m_6_6=-0.921602; m_6_7=0.386866; m_7_7=-0.921969; m_7_8=0.550307; m_8_8=-0.919060; m_8_9=0.661973; m_9_9=-0.917126; m_9_10=1.025775; m_10_10=-0.916482; m_10_11=1.190680}
!
! Created with skrf (http://scikit-rf.org).
# Hz S RI R 50.0 
!freq ReS11 ImS11 ReS21 ImS21 ReS12 ImS12 ReS22 ImS22
12607400000.0 0.4545233423873668 -0.8907348265476444 -1.3638550374674338e-17 7.33543342874684e-17 -1.3638550374674338e-17 7.33543342874684e-17 0.4545239009137104 -0.8907345415431178
12608017333.333334 0.4472447838537184 -0.8944115961432336 -1.3030864972642255e-17 7.344987688287515e-17 -1.3030864972642255e-17 7.344987688287515e-17 0.4472453446580807 -0.8944113157163873
12608634666.666666 0.4399364853110341 -0.898028890900521 -1.2422531944277811e-17 7.354038997689367e-17 -1.2422531944277811e-17 7.354038997689367e-17 0.4399370483559027 -0.8980286150695536
12609252000.0 0.43259893273231553 -0.9015864702837475 -1.1813592877440466e-17 7.362586938965295e-17 -1.1813592877440466e-17 7.362586938965295e-17 0.43259949798003255 -0.9015861990665496
12609869333.333334 0.4252326140358162 -0.9050840977280019 -1.1204089384862948e-17 7.370631128484457e-17 -1.1204089384862948e-17 7.370631128484457e-17 0.42523318144858113 -0.9050838311421558
12610486666.666666 0.4178380190527245 -0.9085215406548928 -1.0594063101326203e-17 7.378171216984743e-17 -1.0594063101326203e-17 7.378171216984743e-17 0.41783858859259626 -0.9085212787176705
12611104000.0 0.4104156394943092 -0.9118985704881445 -9.983555680800261e-18 7.385206889583316e-17 -9.983555680800261e-18 7.385206889583316e-17 0.4104162111232096 -0.9118983132165085
12611721333.333334 0.40296596891958425 -0.9152149626686322 -9.372608793637529e-18 7.39173786578417e-17 -9.372608793637529e-18 7.39173786578417e-17 0.4029665425992989 -0.9152147100792314
12612338666.666666 0.39548950270222893 -0.9184704966694295 -8.761264123715592e-18 7.397763899483975e-17 -8.761264123715592e-18 7.397763899483975e-17 0.395490078394412 -0.9184702487786018
12612956000.0 0.3879867379976489 -0.9216649560104733 -8.149563365601189e-18 7.403284778975275e-17 -8.149563365601189e-18 7.403284778975275e-17 0.387987315663824 -0.9216647128342417
12613573333.333334 0.3804581737101513 -0.9247981282728582 -7.537548221733621e-18 7.408300326947252e-17 -7.537548221733621e-18 7.408300326947252e-17 0.38045875331171397 -0.9247978898269291
12614190666.666666 0.3729043104595071 -0.9278698051130689 -6.925260399568648e-18 7.412810400484465e-17 -6.925260399568648e-18 7.412810400484465e-17 0.3729048919577291 -0.9278695714128355
12614808000.0 0.36532565054779526 -0.930879782276785 -6.3127416087547665e-18 7.416814891063007e-17 -6.3127416087547665e-18 7.416814891063007e-17 0.36532623390382546 -0.9308795533373223
12615425333.333334 0.3577226979259735 -0.9338278596124705 -5.700033558297827e-18 7.420313724544424e-17 -5.700033558297827e-18 7.420313724544424e-17 0.3577232831008408 -0.9338276354485346
12616042666.666666 0.35009595816036787 -0.9367138410846825 -5.087177953728896e-18 7.423306861167282e-17 -5.087177953728896e-18 7.423306861167282e-17 0.3500965451149843 -0.9367136217107113
12616660000.0 0.34244593839905463 -0.939537534787108 -4.474216494271344e-18 7.425794295536411e-17 -4.474216494271344e-18 7.425794295536411e-17 0.3424465270942179 -0.9395373202172196
12617277333.333334 0.3347731473381112 -0.9422987529553362 -3.86119087002006e-18 7.427776056609799e-17 -3.86119087002006e-18 7.427776056609799e-17 0.33477373773450675 -0.9422985432033273
12617894666.666666 0.32707809518789466 -0.9449973119793008 -3.2481427591012427e-18 7.429252207683236e-17 -3.2481427591012427e-18 7.429252207683236e-17 0.32707868724609934 -0.9449971070586481
12618512000.0 0.31936129363895693 -0.9476330324155533 -2.6351138248552314e-18 7.430222846372493e-17 -2.6351138248552314e-18 7.430222846372493e-17 0.3193618873194402 -0.9476328323394089
12619129333.333334 0.31162325582809747 -0.950205738999161 -2.0221457130109113e-18 7.430688104593323e-17 -2.0221457130109113e-18 7.430688104593323e-17 0.31162385109122515 -0.9502055437803547
12619746666.666666 0.30386449630435003 -0.9527152606553272 -1.4092800488645112e-18 7.430648148539048e-17 -1.4092800488645112e-18 7.430648148539048e-17 0.30386509311038673 -0.9527150703063645
12620364000.0 0.29608553099447177 -0.9551614305108681 -7.965584344587818e-19 7.430103178655853e-17 -7.965584344587818e-19 7.430103178655853e-17 0.2960861293035829 -0.9551612450439285
12620981333.333334 0.28828687716901213 -0.9575440859051795 -1.840224457754278e-19 7.429053429615786e-17 -1.840224457754278e-19 7.429053429615786e-17 0.2882874769412674 -0.9575439053321175
12621598666.666666 0.28046905340762035 -0.9598630684011543 4.2828637009072265e-19 7.427499170287407e-17 4.2828637009072265e-19 7.427499170287407e-17 0.28046965460299633 -0.9598628927334993
12622216000.0 0.2726325795646977 -0.962118223795675 1.0403264977333572e-18 7.42544070370417e-17 1.0403264977333572e-18 7.42544070370417e-17 0.27263318214307997 -0.962118053044627
12622833333.333334 0.2647779767347734 -0.964309402129879 1.6520564562457414e-18 7.42287836703045e-17 1.6520564562457414e-18 7.42287836703045e-17 0.2647785806559595 -0.9643092363063113
12623450666.666666 0.2569057672179643 -0.9664364576991055 2.26343480201568e-18 7.419812531525322e-17 2.26343480201568e-18 7.419812531525322e-17 0.25690637244166636 -0.9664362968135609
12624068000.0 0.24901647448510716 -0.9684992490626178 2.874420131535842e-18 7.416243602503996e-17 2.874420131535842e-18 7.416243602503996e-17 0.2490170809709547 -0.9684990931253113
12624685333.333334 0.24111062314292098 -0.9704976390530156 3.484971084201793e-18 7.412172019296892e-17 3.484971084201793e-18 7.412172019296892e-17 0.24111123085046388 -0.970497488073833
12625302666.666666 0.23318873889940012 -0.9724314947852905 4.0950463450829105e-18 7.40759825520669e-17 4.0950463450829105e-18 7.40759825520669e-17 0.23318934778811037 -0.9724313487737842
12625920000.0 0.22525134852844073 -0.974300687665756 4.704604647741679e-18 7.402522817462632e-17 4.704604647741679e-18 7.402522817462632e-17 0.2252519585577164 -0.9743005466311503
12626537333.333334 0.2172989798352011 -0.9761050934005141 5.3136047769876345e-18 7.396946247173059e-17 5.3136047769876345e-18 7.396946247173059e-17 0.217299590964368 -0.9761049573516997
12627154666.666666 0.2093321616208382 -0.977844592003757 5.922005571668787e-18 7.39086911927531e-17 5.922005571668787e-18 7.39086911927531e-17 0.20933277380915302 -0.9778444609492922
12627772000.0 0.20135142364717715 -0.979519067805778 6.529765927458232e-18 7.384292042483298e-17 6.529765927458232e-18 7.384292042483298e-17 0.20135203685383027 -0.9795189417538893
12628389333.333334 0.1933572966018744 -0.9811284094605869 7.13684479959392e-18 7.377215659233295e-17 7.13684479959392e-18 7.377215659233295e-17 0.19335791078599232 -0.9811282884191657
12629006666.666666 0.18535031206271055 -0.9826725099533928 7.743201205674048e-18 7.369640645626743e-17 7.743201205674048e-18 7.369640645626743e-17 0.18535092718335902 -0.9826723939299985
12629624000.0 0.17733100246254993 -0.9841512666076654 8.348794228392693e-18 7.36156771137145e-17 8.348794228392693e-18 7.36156771137145e-17 0.17733161847873624 -0.9841511556095218
12630241333.333334 0.16929990105376794 -0.9855645810919904 8.953583018305524e-18 7.352997599720104e-17 8.953583018305524e-18 7.352997599720104e-17 0.16930051792444373 -0.9855644751259859
12630858666.666666 0.1612575418729596 -0.9869123594265788 9.557526796564791e-18 7.343931087406854e-17 9.557526796564791e-18 7.343931087406854e-17 0.16125815955702408 -0.9869122584992682
12631476000.0 0.15320445970512092 -0.9881945119895724 1.0160584857683811e-17 7.334368984581118e-17 1.0160584857683811e-17 7.334368984581118e-17 0.15320507816142287 -0.9881944161071734
12632093333.333334 0.14514119004845114 -0.9894109535229362 1.07627165722455e-17 7.324312134739925e-17 1.07627165722455e-17 7.324312134739925e-17 0.14514180923579234 -0.9894108626913323
12632710666.666666 0.13706826907857714 -0.9905616031381637 1.136388138964419e-17 7.31376141465741e-17 1.136388138964419e-17 7.31376141465741e-17 0.13706888895571454 -0.9905615173629001
12633328000.0 0.1289862336127301 -0.9916463843216728 1.1964038840818904e-17 7.302717734312075e-17 1.1964038840818904e-17 7.302717734312075e-17 0.12898685413837907 -0.9916463036079599
12633945333.333334 0.12089562107441586 -0.9926652249398474 1.2563148540950984e-17 7.291182036812328e-17 1.2563148540950984e-17 7.291182036812328e-17 0.12089624220725227 -0.9926651492925553
12634562666.666666 0.11279696945736767 -0.9936180572438686 1.3161170192183993e-17 7.279155298319303e-17 1.3161170192183993e-17 7.279155298319303e-17 0.11279759115603144 -0.9936179866675332
12635180000.0 0.10469081728991365 -0.9945048178742099 1.3758063586324213e-17 7.266638527967704e-17 1.3758063586324213e-17 7.266638527967704e-17 0.10469143951301103 -0.9945047523730286
12635797333.333334 0.09657770359910978 -0.9953254478648519 1.435378860753813e-17 7.25363276778432e-17 1.435378860753813e-17 7.25363276778432e-17 0.0965783263052161 -0.9953253874426835
12636414666.666666 0.08845816787500982 -0.996079892647193 1.494830523503228e-17 7.240139092604597e-17 1.494830523503228e-17 7.240139092604597e-17 0.08845879102267239 -0.9960798373075586
12637032000.0 0.08033275003462176 -0.9967681020536933 1.55415735457462e-17 7.226158609986541e-17 1.55415735457462e-17 7.226158609986541e-17 0.08033337358236263 -0.9967680517997763
12637649333.333334 0.07220199038611871 -0.9973900303212025 1.613355371701716e-17 7.211692460122924e-17 1.613355371701716e-17 7.211692460122924e-17 0.07220261429243739 -0.997389985155848
12638266666.666666 0.06406642959288213 -0.9979456360940037 1.672420602924716e-17 7.196741815751015e-17 1.672420602924716e-17 7.196741815751015e-17 0.06406705381625832 -0.9979455960197177
12638884000.0 0.05592660863754996 -0.9984348824265649 1.731349086856007e-17 7.181307882060261e-17 1.731349086856007e-17 7.181307882060261e-17 0.05592723313644627 -0.9984348474455141
12639501333.333334 0.04778306878601481 -0.9988577367859939 1.7901368729452335e-17 7.165391896597664e-17 1.7901368729452335e-17 7.165391896597664e-17 0.04778369351887962 -0.9988577069000063
12640118666.666666 0.039636351551602424 -0.9992141710541962 1.8487800217421363e-17 7.148995129171485e-17 1.8487800217421363e-17 7.148995129171485e-17 0.0396369764768727 -0.9992141462647621
12640736000.0 0.03148699865860894 -0.999504161529765 1.9072746051629594e-17 7.132118881751449e-17 1.9072746051629594e-17 7.132118881751449e-17 0.03148762373471285 -0.9995041418380349
12641353333.333334 0.023335552006959782 -0.9997276889295282 1.9656167067479172e-17 7.114764488369163e-17 1.9656167067479172e-17 7.114764488369163e-17 0.023336177192319514 -0.9997276743363134
12641970666.666666 0.015182553635579094 -0.9998847383898549 2.0238024219268542e-17 7.096933315013791e-17 2.0238024219268542e-17 7.096933315013791e-17 0.015183178888613643 -0.999884728895627
12642588000.0 0.007028545686630283 -0.9999752994676301 2.081827858277727e-17 7.078626759527366e-17 2.081827858277727e-17 7.078626759527366e-17 0.007029170965758223 -0.9999752950725233
12643205333.333334 -0.0011259296305626148 -0.9999993661409551 2.1396891357864e-17 7.059846251497387e-17 2.1396891357864e-17 7.059846251497387e-17 -0.0011253043669203963 -0.9999993668447634
12643822666.666666 -0.00928033007568344 -0.9999569368095467 2.1973823871060747e-17 7.040593252147064e-17 2.1973823871060747e-17 7.040593252147064e-17 -0.00927970486910096 -0.9999569426117245
12644440000.0 -0.01743411341333863 -0.999848014294841 2.254903757813966e-17 7.02086925422404e-17 2.254903757813966e-17 7.02086925422404e-17 -0.017433488305382046 -0.9998480251945051
12645057333.333334 -0.02558673744914212 -0.9996726058398088 2.3122494066682138e-17 7.000675781886685e-17 2.3122494066682138e-17 7.000675781886685e-17 -0.025586112481366996 -0.9996726218357369
12645674666.666666 -0.03373766006576927 -0.9994307231084771 2.3694155058635813e-17 6.980014390588304e-17 2.3694155058635813e-17 6.980014390588304e-17 -0.03373703527971774 -0.9994307441991069
12646292000.0 -0.041886339259204125 -0.99912238218514 2.4263982412875262e-17 6.958886666958776e-17 2.4263982412875262e-17 6.958886666958776e-17 -0.04188571469640225 -0.9991224083685728
12646909333.333334 -0.05003223317441156 -0.9987476035733087 2.483193812771301e-17 6.937294228685577e-17 2.483193812771301e-17 6.937294228685577e-17 -0.05003160887636647 -0.998747634847306
12647526666.666666 -0.058174800141680715 -0.9983064121943332 2.539798434344549e-17 6.91523872439108e-17 2.539798434344549e-17 6.91523872439108e-17 -0.05817417614987787 -0.9983064485563181
12648144000.0 -0.06631349871250196 -0.9977988373857496 2.596208334486644e-17 6.892721833508567e-17 2.596208334486644e-17 6.892721833508567e-17 -0.06631287506840243 -0.9977988788328078
12648761333.333334 -0.07444778769562779 -0.9972249128993281 2.652419756376387e-17 6.869745266156441e-17 2.652419756376387e-17 6.869745266156441e-17 -0.0744471644406655 -0.9972249594282075
12649378666.666666 -0.08257712619294666 -0.9965846768988379 2.7084289581414052e-17 6.846310763010165e-17 2.7084289581414052e-17 6.846310763010165e-17 -0.0825765033685255 -0.9965847285059475
12649996000.0 -0.09070097363562035 -0.9958781719574921 2.7642322131073644e-17 6.822420095171679e-17 2.7642322131073644e-17 6.822420095171679e-17 -0.09070035128311175 -0.9958782286389061
12650613333.333334 -0.09881878981994498 -0.9951054450551295 2.819825810044546e-17 6.798075064037512e-17 2.819825810044546e-17 6.798075064037512e-17 -0.09881816798068478 -0.9951055068065832
12651230666.666666 -0.10693003494315889 -0.9942665475750959 2.8752060534130617e-17 6.773277501164949e-17 2.8752060534130617e-17 6.773277501164949e-17 -0.1069294136584449 -0.9942666143919887
12651848000.0 -0.11503416963962058 -0.9933615353008032 2.9303692636096043e-17 6.748029268135033e-17 2.9303692636096043e-17 6.748029268135033e-17 -0.11503354895070954 -0.9933616071781971
12652465333.333334 -0.1231306550164195 -0.9923904684120423 2.9853117772093854e-17 6.722332256415195e-17 2.9853117772093854e-17 6.722332256415195e-17 -0.12313003496452467 -0.9923905453446646
12653082666.666666 -0.13121895268921108 -0.9913534114809879 3.0400299472085987e-17 6.696188387219154e-17 3.0400299472085987e-17 6.696188387219154e-17 -0.1312183333154992 -0.9913534934632293
12653700000.0 -0.13929852481829832 -0.9902504334678636 3.094520143267558e-17 6.669599611363931e-17 3.094520143267558e-17 6.669599611363931e-17 -0.1392979061638872 -0.9902505204937806
12654317333.333334 -0.14736883414400237 -0.9890816077164128 3.1487787519480907e-17 6.642567909127088e-17 3.1487787519480907e-17 6.642567909127088e-17 -0.14736821624995775 -0.9890816997797259
12654934666.666666 -0.15542934402266909 -0.9878470119489804 3.202802176954206e-17 6.615095290099852e-17 3.202802176954206e-17 6.615095290099852e-17 -0.1554287269300024 -0.987847109043077
12655552000.0 -0.163479518462354 -0.9865467282613447 3.2565868393696085e-17 6.587183793039176e-17 3.2565868393696085e-17 6.587183793039176e-17 -0.1634789022120192 -0.9865468303792777
12656169333.333334 -0.17151882215821054 -0.985180843117296 3.310129177892287e-17 6.558835485718764e-17 3.310129177892287e-17 6.558835485718764e-17 -0.17151820679110166 -0.9851809502517856
12656786666.666666 -0.17954672052836673 -0.983749447342846 3.3634256490713425e-17 6.530052464776394e-17 3.3634256490713425e-17 6.530052464776394e-17 -0.1795461060853151 -0.9837495594862784
12657404000.0 -0.18756267974933236 -0.9822526361202072 3.416472727539716e-17 6.500836855560725e-17 3.416472727539716e-17 6.500836855560725e-17 -0.18756206627110386 -0.9822527532646372
12658021333.333334 -0.19556616679155178 -0.9806905089814548 3.469266906246913e-17 6.471190811975591e-17 3.469266906246913e-17 6.471190811975591e-17 -0.1955655543188442 -0.9806906311186058
12658638666.666666 -0.20355664945470953 -0.9790631698019377 3.5218046966890884e-17 6.441116516323071e-17 3.5218046966890884e-17 6.441116516323071e-17 -0.20355603802814984 -0.9790632969232013
12659256000.0 -0.21153359640339764 -0.9773707267933138 3.574082629140543e-17 6.41061617914322e-17 3.574082629140543e-17 6.41061617914322e-17 -0.2115329860635392 -0.9773708588897505
12659873333.333334 -0.21949647720219673 -0.9756132924964029 3.626097252880382e-17 6.379692039053846e-17 3.626097252880382e-17 6.379692039053846e-17 -0.2194958679895167 -0.9756134295587443
12660490666.666666 -0.2274447623509483 -0.9737909837737089 3.67784513641943e-17 6.348346362587535e-17 3.67784513641943e-17 6.348346362587535e-17 -0.22744415430584494 -0.9737911257923564
12661108000.0 -0.23537792332024135 -0.9719039218015824 3.729322867727554e-17 6.316581444025782e-17 3.729322867727554e-17 6.316581444025782e-17 -0.23537731648303176 -0.971904068766611
12661725333.333334 -0.2432954325861707 -0.969952232062257 3.780527054455287e-17 6.28439960523389e-17 3.780527054455287e-17 6.28439960523389e-17 -0.24329482699708707 -0.9699523839634108
12662342666.666666 -0.25119676366571814 -0.9679360443354277 3.831454324158455e-17 6.251803195491308e-17 3.831454324158455e-17 6.251803195491308e-17 -0.25119615936490625 -0.9679362011621256
12662960000.0 -0.25908139115165196 -0.9658554926896527 3.8821013245185576e-17 6.21879459132196e-17 3.8821013245185576e-17 6.21879459132196e-17 -0.25908078817916763 -0.9658556544309858
12663577333.333334 -0.2669487907473812 -0.9637107154734548 3.932464723562753e-17 6.185376196322142e-17 3.932464723562753e-17 6.185376196322142e-17 -0.26694818914318824 -0.9637108821181898
12664194666.666666 -0.2747984393019847 -0.9615018553060832 3.982541209882169e-17 6.151550440986706e-17 3.982541209882169e-17 6.151550440986706e-17 -0.27479783910595224 -0.9615020268426613
12664812000.0 -0.2826298148448889 -0.9592290590680568 4.032327492848779e-17 6.117319782533541e-17 4.032327492848779e-17 6.117319782533541e-17 -0.2826292160967883 -0.9592292354845952
12665429333.333334 -0.29044239662063126 -0.9568924778913828 4.0818203028309115e-17 6.082686704726153e-17 4.0818203028309115e-17 6.082686704726153e-17 -0.29044179936013365 -0.9568926591756747
12666046666.666666 -0.2982356651233516 -0.9544922671495452 4.131016391406261e-17 6.047653717695247e-17 4.131016391406261e-17 6.047653717695247e-17 -0.29823506939002553 -0.9544924532890623
12666664000.0 -0.3060091021316376 -0.9520285864470853 4.179912531576071e-17 6.012223357756664e-17 4.179912531576071e-17 6.012223357756664e-17 -0.30600850796494633 -0.9520287774289776
12667281333.333334 -0.31376219074260353 -0.949501599609105 4.2285055179735445e-17 5.976398187230613e-17 4.2285055179735445e-17 5.976398187230613e-17 -0.3137615981819019 -0.9495017954202012
12667898666.666666 -0.32149441540653356 -0.9469114746702871 4.276792167074793e-17 5.940180794256338e-17 4.276792167074793e-17 5.940180794256338e-17 -0.3214938244910663 -0.9469116752970967
12668516000.0 -0.32920526196116334 -0.944258383863722 4.3247693174064815e-17 5.90357379260626e-17 4.3247693174064815e-17 5.90357379260626e-17 -0.32920467273006143 -0.9442585892924349
12669133333.333334 -0.3368942176656276 -0.9415425036095355 4.372433829750424e-17 5.86657982149962e-17 4.372433829750424e-17 5.86657982149962e-17 -0.3368936301579065 -0.9415427138260238
12669750666.666666 -0.34456077123482387 -0.938764014503065 4.419782587349764e-17 5.829201545412085e-17 4.419782587349764e-17 5.829201545412085e-17 -0.34456018548938083 -0.938764229492885
12670368000.0 -0.35220441287330384 -0.9359231013028894 4.46681249611119e-17 5.791441653885447e-17 4.46681249611119e-17 5.791441653885447e-17 -0.352203828928915 -0.9359233210512804
