! Parameters = {f0=12700.012000; bw=77.238000; Q=6100.000000; N=10; m_0_1=1.259555; m_1_1=0.128573; m_1_2=1.094367; m_2_2=0.127924; m_2_3=0.731330; m_2_8=0.000041; m_2_9=0.036745; m_3_3=0.125987; m_3_4=0.619859; m_3_7=0.000641; m_3_8=-0.096447; m_3_9=0.000041; m_4_4=0.123062; m_4_5=0.456194; m_4_6=0.004158; m_4_7=-0.116996; m_4_8=0.000641; m_5_5=0.123444; m_5_6=0.863549; m_5_7=0.004158; m_6_6=0.123443; m_6_7=0.456536; m_7_7=0.123076; m_7_8=0.619977; m_8_8=0.125985; m_8_9=0.731643; m_9_9=0.127919; m_9_10=1.095445; m_10_10=0.128563; m_10_11=1.260350}
!
! Created with skrf (http://scikit-rf.org).
# Hz S RI R 50.0 
!freq ReS11 ImS11 ReS21 ImS21 ReS12 ImS12 ReS22 ImS22
12607400000.0 0.7014823887456859 0.7126867883435699 -9.21051618327486e-17 -5.095440191979552e-17 -9.21051618327486e-17 -5.095440191979552e-17 0.7014819157872106 0.7126872538661894
12608017333.333334 0.7087251613794849 0.705484688442952 -9.26070999013201e-17 -4.99929772940034e-17 -9.26070999013201e-17 -4.99929772940034e-17 0.7087246932234407 0.7054851587490456
12608634666.666666 0.7158939941340199 0.6982089867386886 -9.309901064156085e-17 -4.9026622152852326e-17 -9.309901064156085e-17 -4.9026622152852326e-17 0.7158935308287756 0.6982094617787237
12609252000.0 0.7229881390993546 0.6908604422902491 -9.358084577095559e-17 -4.805544099277716e-17 -9.358084577095559e-17 -4.805544099277716e-17 0.7229876806927684 0.6908609220142047
12609869333.333334 0.7300068561576596 0.6834398217565583 -9.405255809509575e-17 -4.7079538781408795e-17 -9.405255809509575e-17 -4.7079538781408795e-17 0.7300064026970745 0.6834403061139297
12610486666.666666 0.736949413060213 0.6759478993162379 -9.45141015122577e-17 -4.6099020946258054e-17 -9.45141015122577e-17 -4.6099020946258054e-17 0.7369489645924509 0.6759483882560418
12611104000.0 0.7438150855040643 0.6683854565865476 -9.496543101787239e-17 -4.511399336333631e-17 -9.496543101787239e-17 -4.511399336333631e-17 0.7438146420754222 0.6683859500573281
12611721333.333334 0.7506031572073915 0.6607532825420724 -9.5406502708857e-17 -4.4124562345776597e-17 -9.5406502708857e-17 -4.4124562345776597e-17 0.7506027188636352 0.6607537804919051
12612338666.666666 0.7573129199843002 0.6530521734323222 -9.583727378785774e-17 -4.313083463234746e-17 -9.583727378785774e-17 -4.313083463234746e-17 0.7573124867706619 0.6530526758088218
12612956000.0 0.7639436738187694 0.6452829326986019 -9.625770256735015e-17 -4.2132917375977765e-17 -9.625770256735015e-17 -4.2132917375977765e-17 0.7639432457799412 0.6452834394489256
12613573333.333334 0.7704947269375665 0.6374463708903142 -9.666774847362047e-17 -4.1130918132242394e-17 -9.666774847362047e-17 -4.1130918132242394e-17 0.7704943041176956 0.6374468819611677
12614190666.666666 0.776965395882494 0.6295433055803118 -9.706737205064974e-17 -4.012494484775741e-17 -9.706737205064974e-17 -4.012494484775741e-17 0.7769649783251799 0.6295438209179565
12614808000.0 0.783355005581659 0.6215745612796474 -9.745653496384954e-17 -3.9115105848604357e-17 -9.745653496384954e-17 -3.9115105848604357e-17 0.7833545933299466 0.6215750808299034
12615425333.333334 0.7896628894199696 0.6135409693514616 -9.783520000369494e-17 -3.8101509828677455e-17 -9.783520000369494e-17 -3.8101509828677455e-17 0.7896624825163476 0.6135414930597163
12616042666.666666 0.7958883893085782 0.6054433679243858 -9.820333108923517e-17 -3.7084265837999137e-17 -9.820333108923517e-17 -3.7084265837999137e-17 0.7958879877949723 0.6054438957355973
12616660000.0 0.8020308557536081 0.5972826018050099 -9.856089327147336e-17 -3.606348327102722e-17 -9.856089327147336e-17 -3.606348327102722e-17 0.8020304596713776 0.5972831336637134
12617277333.333334 0.8080896479238956 0.5890595223897681 -9.890785273663596e-17 -3.5039271854902524e-17 -9.890785273663596e-17 -3.5039271854902524e-17 0.8080892573138296 0.5890600582400829
12617894666.666666 0.8140641337178307 0.5807749875761389 -9.924417680931404e-17 -3.4011741637682436e-17 -9.924417680931404e-17 -3.4011741637682436e-17 0.814063748620144 0.5807755273617732
12618512000.0 0.8199536898293877 0.5724298616730261 -9.956983395548894e-17 -3.2981002976525136e-17 -9.956983395548894e-17 -3.2981002976525136e-17 0.8199533102837147 0.5724304053372825
12619129333.333334 0.825757701812967 0.5640250153108408 -9.988479378542133e-17 -3.194716652589128e-17 -9.988479378542133e-17 -3.194716652589128e-17 0.8257573278583603 0.5640255627966233
12619746666.666666 0.8314755641477187 0.5555613253503703 -1.0018902705643985e-16 -3.0910343225650547e-17 -1.0018902705643985e-16 -3.0910343225650547e-17 0.8314751958226427 0.5555618766001897
12620364000.0 0.8371066803006105 0.5470396747914343 -1.0048250567558844e-16 -2.9870644289216196e-17 -1.0048250567558844e-16 -2.9870644289216196e-17 0.83710631764294 0.5470402297474146
12620981333.333334 0.8426504627885739 0.5384609526809075 -1.0076520270215315e-16 -2.882818119165603e-17 -1.0076520270215315e-16 -2.882818119165603e-17 0.842650105835587 0.5384615112847911
12621598666.666666 0.8481063332399942 0.5298260540196563 -1.010370923500799e-16 -2.778306565772533e-17 -1.010370923500799e-16 -2.778306565772533e-17 0.848105982028372 0.5298266162128116
12622216000.0 0.8534737224548842 0.5211358796694298 -1.0129814999024946e-16 -2.6735409649946885e-17 -1.0129814999024946e-16 -2.6735409649946885e-17 0.8534733770207044 0.521136445392856
12622833333.333334 0.8587520704643578 0.5123913362587296 -1.0154835215264231e-16 -2.568532535662469e-17 -1.0154835215264231e-16 -2.568532535662469e-17 0.8587517308430919 0.5123919054530635
12623450666.666666 0.8639408265889594 0.5035933360883675 -1.0178767652837434e-16 -2.463292517985549e-17 -1.0178767652837434e-16 -2.463292517985549e-17 0.8639404928154698 0.5035939086938898
12624068000.0 0.8690394494962537 0.4947427970360715 -1.02016101971609e-16 -2.3578321723522423e-17 -1.02016101971609e-16 -2.3578321723522423e-17 0.8690391216047878 0.4947433729927124
12624685333.333334 0.8740474072572172 0.4858406424608414 -1.0223360850134787e-16 -2.2521627781257262e-17 -1.0223360850134787e-16 -2.2521627781257262e-17 0.8740470852814065 0.48584122170818766
12625302666.666666 0.8789641774016471 0.47688780110679524 -1.0244017730309158e-16 -2.1462956324419615e-17 -1.0244017730309158e-16 -2.1462956324419615e-17 0.8789638613745021 0.47688838358409624
12625920000.0 0.8837892469729104 0.4678852070058248 -1.0263579073038404e-16 -2.0402420490014847e-17 -1.0263579073038404e-16 -2.0402420490014847e-17 0.883788936926819 0.46788579265199925
12626537333.333334 0.8885221125811917 0.45883379938065116 -1.0282043230622247e-16 -1.9340133568658024e-17 -1.0282043230622247e-16 -1.9340133568658024e-17 0.888521808547914 0.4588343881342929
12627154666.666666 0.8931622804561319 0.4497345225466114 -1.0299408672435273e-16 -1.8276208992467483e-17 -1.0299408672435273e-16 -1.8276208992467483e-17 0.8931619824667979 0.4497351143459963
12627772000.0 0.8977092664984584 0.4405883258129134 -1.0315673985043523e-16 -1.721076032297453e-17 -1.0315673985043523e-16 -1.721076032297453e-17 0.8977089745835638 0.44058892059600513
12628389333.333334 0.9021625963302321 0.43139616338410125 -1.0330837872308137e-16 -1.6143901239056517e-17 -1.0330837872308137e-16 -1.6143901239056517e-17 0.9021623105196358 0.4313967610885584
12629006666.666666 0.9065218053445664 0.42215899426004866 -1.0344899155477776e-16 -1.5075745524776872e-17 -1.0344899155477776e-16 -1.5075745524776872e-17 0.906521525667489 0.42215959482323157
12629624000.0 0.9107864387539988 0.41287778213611104 -1.0357856773267066e-16 -1.4006407057321716e-17 -1.0357856773267066e-16 -1.4006407057321716e-17 0.9107861652390182 0.41287838549508826
12630241333.333334 0.9149560516379417 0.4035534953025885 -1.0369709781923669e-16 -1.293599979485484e-17 -1.0369709781923669e-16 -1.293599979485484e-17 0.9149557843129874 0.4035541013941416
12630858666.666666 0.919030208989057 0.3941871065437788 -1.0380457355282304e-16 -1.186463776440409e-17 -1.0380457355282304e-16 -1.186463776440409e-17 0.919029947881414 0.3941877153044124
12631476000.0 0.9230084857588128 0.38477959303613113 -1.039009878480661e-16 -1.0792435049721622e-17 -1.039009878480661e-16 -1.0792435049721622e-17 0.9230082308951115 0.38478020440207605
12632093333.333334 0.9268904669015983 0.3753319362467879 -1.0398633479618022e-16 -9.719505779187217e-18 -1.0398633479618022e-16 -9.719505779187217e-18 0.9268902183078178 0.37533255015401046
12632710666.666666 0.9306757474181521 0.3658451218309354 -1.040606096651276e-16 -8.645964113655422e-18 -1.040606096651276e-16 -8.645964113655422e-18 0.930675505119612 0.365845738215142
12633328000.0 0.9343639323978324 0.3563201395288879 -1.0412380889965935e-16 -7.571924234333515e-18 -1.0412380889965935e-16 -7.571924234333515e-18 0.9343636964191957 0.356320758325534
12633945333.333334 0.9379546370597738 0.3467579830629652 -1.0417593012123164e-16 -6.497500330676909e-18 -1.0417593012123164e-16 -6.497500330676909e-18 0.9379544074250408 0.3467586042072602
12634562666.666666 0.9414474867930139 0.3371596500338438 -1.0421697212780018e-16 -5.4228065882469814e-18 -1.0421697212780018e-16 -5.4228065882469814e-18 0.9414472635255217 0.3371602734607591
12635180000.0 0.9448421171956045 0.3275261418164289 -1.0424693489348574e-16 -4.3479571766213496e-18 -1.0424693489348574e-16 -4.3479571766213496e-18 0.9448419003180212 0.32752676746070314
12635797333.333334 0.9481381741126554 0.31785846345527247 -1.0426581956811887e-16 -3.2730662372603072e-18 -1.0426581956811887e-16 -3.2730662372603072e-18 0.9481379636469834 0.3178590912514205
12636414666.666666 0.9513353136732008 0.30815762355999043 -1.0427362847665748e-16 -2.1982478714402085e-18 -1.0427362847665748e-16 -2.1982478714402085e-18 0.9513351096407687 0.308158253442308
12637032000.0 0.9544332023261571 0.29842463419976517 -1.042703651184811e-16 -1.1236161281335743e-18 -1.042703651184811e-16 -1.1236161281335743e-18 0.954433004747623 0.2984252661023379
12637649333.333334 0.9574315168750762 0.2886605107979224 -1.0425603416656118e-16 -4.928499194694507e-20 -1.0425603416656118e-16 -4.928499194694507e-20 0.9574313257704207 0.2886611446546305
12638266666.666666 0.9603299445118993 0.2788662720258562 -1.04230641466506e-16 1.0246316289623587e-18 -1.04230641466506e-16 1.0246316289623587e-18 0.960329759900427 0.27886690777038325
12638884000.0 0.9631281828495453 0.26904293969691756 -1.0419419403548252e-16 2.0980199149240317e-18 -1.0419419403548252e-16 2.0980199149240317e-18 0.9631280047498806 0.26904357726275635
12639501333.333334 0.9658259399534908 0.2591915386597017 -1.0414670006101433e-16 3.1707661468081266e-18 -1.0414670006101433e-16 3.1707661468081266e-18 0.965825768383577 0.2591921779801614
12640118666.666666 0.9684229343722026 0.24931309669120896 -1.0408816889965587e-16 4.242756718042296e-18 -1.0408816889965587e-16 4.242756718042296e-18 0.9684227693493017 0.24931373769942275
12640736000.0 0.9709188951665754 0.23940864438934517 -1.040186110755411e-16 5.313878146650825e-18 -1.040186110755411e-16 5.313878146650825e-18 0.9709187367072631 0.2394092870182763
12641353333.333334 0.9733135619380482 0.22947921506597874 -1.0393803827881481e-16 6.384017087184133e-18 -1.0393803827881481e-16 6.384017087184133e-18 0.9733134100582136 0.22947985924842776
12641970666.666666 0.9756066848559367 0.21952584463847558 -1.0384646336393215e-16 7.453060342762104e-18 -1.0384646336393215e-16 7.453060342762104e-18 0.9756065395707837 0.2195264903070882
12642588000.0 0.977798024683393 0.20954957152206652 -1.0374390034784321e-16 8.520894876978769e-18 -1.0374390034784321e-16 8.520894876978769e-18 0.9777978860074329 0.2095502186093393
12643205333.333334 0.9798873528023889 0.19955143652140048 -1.0363036440805118e-16 9.587407825844442e-18 -1.0363036440805118e-16 9.587407825844442e-18 0.9798872207494433 0.19955208495968885
12643822666.666666 0.9818744512376069 0.18953248272176432 -1.0350587188054629e-16 1.0652486509713598e-17 -1.0350587188054629e-16 1.0652486509713598e-17 0.9818743258208058 0.18953313244328956
12644440000.0 0.9837591126791198 0.17949375538056672 -1.0337044025762413e-16 1.1716018445132708e-17 -1.0337044025762413e-16 1.1716018445132708e-17 0.9837589939108983 0.1794944063174225
12645057333.333334 0.9855411405040472 0.16943630181814887 -1.0322408818557498e-16 1.2777891356724367e-17 -1.0322408818557498e-16 1.2777891356724367e-17 0.9855410283961462 0.16943695390230895
12645674666.666666 0.9872203487970587 0.15936117130857608 -1.0306683546225766e-16 1.3837993188997726e-17 -1.0306683546225766e-16 1.3837993188997726e-17 0.9872202433605253 0.1593618244719014
12646292000.0 0.988796562369825 0.14926941496986082 -1.0289870303454453e-16 1.4896212118183705e-17 -1.0289870303454453e-16 1.4896212118183705e-17 0.988796463615006 0.14927006914410584
12646909333.333334 0.9902696167792007 0.13916208565483376 -1.0271971299565713e-16 1.595243656396498e-17 -1.0271971299565713e-16 1.595243656396498e-17 0.9902695247157459 0.13916274077165455
12647526666.666666 0.991639358344445 0.12904023784093788 -1.0252988858236815e-16 1.700655520126028e-17 -1.0252988858236815e-16 1.700655520126028e-17 0.9916392729813056 0.12904089383189865
12648144000.0 0.992905644163258 0.11890492752015981 -1.0232925417209284e-16 1.8058456971912722e-17 -1.0232925417209284e-16 1.8058456971912722e-17 0.9929055655086854 0.11890558431674039
12648761333.333334 0.99406834212665 0.10875721208914191 -1.0211783527985577e-16 1.9108031096380402e-17 -1.0211783527985577e-16 1.9108031096380402e-17 0.994068270188195 0.10875786962274474
12649378666.666666 0.9951273309327395 0.09859815023878216 -1.0189565855514304e-16 2.0155167085360732e-17 -1.0189565855514304e-16 2.0155167085360732e-17 0.9951272657172522 0.09859880844073957
12649996000.0 0.9960825000994349 0.08842880184355721 -1.0166275177862796e-16 2.1199754751423195e-17 -1.0166275177862796e-16 2.1199754751423195e-17 0.9960824416130613 0.0884294606451383
12650613333.333334 0.996933749975926 0.07825022785120131 -1.0141914385878111e-16 2.2241684220581957e-17 -1.0141914385878111e-16 2.2241684220581957e-17 0.9969336982241116 0.07825088718361956
12651230666.666666 0.9976809917530888 0.06806349017204921 -1.0116486482837002e-16 2.3280845943802353e-17 -1.0116486482837002e-16 2.3280845943802353e-17 0.9976809467405748 0.06806414996646928
12651848000.0 0.9983241474727733 0.05786965156788018 -1.0089994584082486e-16 2.4317130708534234e-17 -1.0089994584082486e-16 2.4317130708534234e-17 0.9983241092035983 0.05787031175542534
12652465333.333334 0.9988631500359062 0.0476697755414675 -1.0062441916649976e-16 2.5350429650150697e-17 -1.0062441916649976e-16 2.5350429650150697e-17 0.9988631185134044 0.04767043605322671
12653082666.666666 0.9992979432095037 0.03746492622551223 -1.0033831818881781e-16 2.6380634263345598e-17 -1.0033831818881781e-16 2.6380634263345598e-17 0.9992979184363049 0.03746558699254731
12653700000.0 0.9996284816325455 0.02725616827139706 -1.000416774002845e-16 2.7407636413542466e-17 -1.000416774002845e-16 2.7407636413542466e-17 0.999628463610576 0.027256829224749993
12654317333.333334 0.9998547308206961 0.017044566738397365 -9.973453239840421e-17 2.843132834819157e-17 -9.973453239840421e-17 2.843132834819157e-17 0.9998547195511776 0.0170452278090974
12654934666.666666 0.9999766671699092 0.006831186982452123 -9.941691988146884e-17 2.945160270806447e-17 -9.941691988146884e-17 2.945160270806447e-17 0.9999766626533568 0.006831848101522977
12655552000.0 0.9999942779588838 -0.003382905455067843 -9.908887764423173e-17 3.046835253849955e-17 -9.908887764423173e-17 3.046835253849955e-17 0.999994280195112 -0.003382244356600736
12656169333.333334 0.9999075613504004 -0.013596644958355077 -9.875044457347574e-17 3.1481471300575206e-17 -9.875044457347574e-17 3.1481471300575206e-17 0.9999075703385155 -0.013595983949457414
12656786666.666666 0.9997165263915032 -0.023808965948452773 -9.840166064345709e-17 3.2490852882262174e-17 -9.840166064345709e-17 3.2490852882262174e-17 0.99971654212991 -0.023808305098074193
12657404000.0 0.9994211930125645 -0.03401880299436765 -9.804256691124219e-17 3.3496391609509896e-17 -9.804256691124219e-17 3.3496391609509896e-17 0.9994212154989629 -0.03401814237143454
12658021333.333334 0.9990215920251969 -0.0442250909243663 -9.767320551192401e-17 3.449798225730132e-17 -9.767320551192401e-17 3.449798225730132e-17 0.9990216212565822 -0.04422443059777455
12658638666.666666 0.9985177651190504 -0.054426764936789884 -9.72936196537421e-17 3.549552006061141e-17 -9.72936196537421e-17 3.549552006061141e-17 0.9985178010917154 -0.05442610497539779
12659256000.0 0.9979097648574483 -0.06462276071154047 -9.690385361306615e-17 3.6488900725378966e-17 -9.690385361306615e-17 3.6488900725378966e-17 0.9979098075669821 -0.06462210118416147
12659873333.333334 0.9971976546719146 -0.07481201452080688 -9.650395272928823e-17 3.747802043937189e-17 -9.650395272928823e-17 3.747802043937189e-17 0.9971977041132055 -0.07481135549620252
12660490666.666666 0.9963815088555553 -0.08499346334015515 -9.609396339960397e-17 3.846277588299709e-17 -9.609396339960397e-17 3.846277588299709e-17 0.9963815650227894 -0.08499280488702778
12661108000.0 0.9954614125552965 -0.09516604495954485 -9.567393307366296e-17 3.9443064240105755e-17 -9.567393307366296e-17 3.9443064240105755e-17 0.9954614754419574 -0.0951653871465304
12661725333.333334 0.9944374617630237 -0.10532869809383572 -9.524391024813652e-17 4.041878320867588e-17 -9.524391024813652e-17 4.041878320867588e-17 0.9944375313618965 -0.10532804098949683
12662342666.666666 0.9933097633055376 -0.11548036249390586 -9.480394446115779e-17 4.138983101147912e-17 -9.480394446115779e-17 4.138983101147912e-17 0.9933098396087068 -0.11547970616672448
12662960000.0 0.992078434833435 -0.12561997905695432 -9.435408628666252e-17 4.235610640666943e-17 -9.435408628666252e-17 4.235610640666943e-17 0.9920785178322861 -0.12561932357532452
12663577333.333334 0.9907436048088237 -0.1357464899371079 -9.389438732861403e-17 4.3317508698326325e-17 -9.389438732861403e-17 4.3317508698326325e-17 0.9907436944940454 -0.135745835369329
12664194666.666666 0.9893054124919105 -0.14585883865586888 -9.342490021513395e-17 4.427393774690973e-17 -9.342490021513395e-17 4.427393774690973e-17 0.9893055088534949 -0.14585818507013826
12664812000.0 0.9877640079264941 -0.1559559702121664 -9.294567859251556e-17 4.5225293979675744e-17 -9.294567859251556e-17 4.5225293979675744e-17 0.9877641109537373 -0.1559553176765722
12665429333.333334 0.9861195519242887 -0.1660368311925626 -9.245677711912943e-17 4.617147840103049e-17 -9.245677711912943e-17 4.617147840103049e-17 0.986119661605794 -0.16603617977507706
12666046666.666666 0.9843722160481866 -0.17610036988095817 -9.195825145924473e-17 4.711239260277978e-17 -9.195825145924473e-17 4.711239260277978e-17 0.9843723323718622 -0.17609971964942991
12666664000.0 0.9825221825942786 -0.18614553636873446 -9.145015827671152e-17 4.8047938774377183e-17 -9.145015827671152e-17 4.8047938774377183e-17 0.9825223055473417 -0.18614488739088195
12667281333.333334 0.9805696445729366 -0.1961712826637289 -9.0932555228575e-17 4.897801971304043e-17 -9.0932555228575e-17 4.897801971304043e-17 0.9805697741419149 -0.19617063500713333
12667898666.666666 0.9785148056886174 -0.20617656279993485 -9.040550095856485e-17 4.9902538833837536e-17 -9.040550095856485e-17 4.9902538833837536e-17 0.9785149418593482 -0.20617591653203268
12668516000.0 0.976357880318584 -0.2161603329467066 -8.98690550904846e-17 5.082140017970134e-17 -8.98690550904846e-17 5.082140017970134e-17 0.9763580230762182 -0.21615968813478306
12669133333.333334 0.9740990934906281 -0.22612155151724303 -8.932327822151203e-17 5.1734508431350176e-17 -8.932327822151203e-17 5.1734508431350176e-17 0.9740992428196316 -0.22612090822842493
12669750666.666666 0.971738680859523 -0.236059179277617 -8.876823191538498e-17 5.264176891716287e-17 -8.876823191538498e-17 5.264176891716287e-17 0.9717388367436771 -0.2360585375788658
12670368000.0 0.9692768886824359 -0.245972179455167 -8.820397869549379e-17 5.354308762296799e-17 -8.820397869549379e-17 5.354308762296799e-17 0.9692770511048391 -0.2459715394132715
