! Parameters = {f0=12700.012000; bw=77.238000; Q=6100.000000; N=10; m_0_1=1.226521; m_1_1=-0.366923; m_1_2=1.061333; m_2_2=-0.367572; m_2_3=0.698296; m_2_8=-0.001610; m_2_9=0.035094; m_3_3=-0.369509; m_3_4=0.586825; m_3_7=-0.001010; m_3_8=-0.098098; m_3_9=-0.001610; m_4_4=-0.372434; m_4_5=0.423160; m_4_6=0.002507; m_4_7=-0.118647; m_4_8=-0.001010; m_5_5=-0.372052; m_5_6=0.830515; m_5_7=0.002507; m_6_6=-0.372053; m_6_7=0.423502; m_7_7=-0.372420; m_7_8=0.586943; m_8_8=-0.369511; m_8_9=0.698609; m_9_9=-0.367577; m_9_10=1.062411; m_10_10=-0.366933; m_10_11=1.227316}
!
! Created with skrf (http://scikit-rf.org).
# Hz S RI R 50.0 
!freq ReS11 ImS11 ReS21 ImS21 ReS12 ImS12 ReS22 ImS22
12607400000.0 -0.3235149239534019 0.9462230677695719 3.7151218742767666e-18 -8.961498812800701e-17 3.7151218742767666e-18 -8.961498812800701e-17 -0.3235155354797246 0.9462228586876889
12608017333.333334 -0.31476040645032843 0.9491711576586488 2.8786325602862008e-18 -8.962818131474627e-17 2.8786325602862008e-18 -8.962818131474627e-17 -0.314761019851911 0.949170954244608
12608634666.666666 -0.30597902955934886 0.9520382521042702 2.0422204481809434e-18 -8.963357249707609e-17 2.0422204481809434e-18 -8.963357249707609e-17 -0.3059796447836671 0.9520380543748741
12609252000.0 -0.29717154262005513 0.9548241064492725 1.205958251941226e-18 -8.9631164262006e-17 1.205958251941226e-18 -8.9631164262006e-17 -0.2971721596144341 0.9548239144208359
12609869333.333334 -0.2883386972000546 0.9575284829689461 3.699186440360607e-19 -8.962095987371156e-17 3.699186440360607e-19 -8.962095987371156e-17 -0.2883393159116738 0.9575282966572963
12610486666.666666 -0.2794812470309729 0.960151150891279 -4.658257508807178e-19 -8.960296327298577e-17 -4.658257508807178e-19 -8.960296327298577e-17 -0.2794818674068704 0.9601509703117548
12611104000.0 -0.2705999479438092 0.9626918864167513 -1.3012023622830565e-18 -8.957717907663055e-17 -1.3012023622830565e-18 -8.957717907663055e-17 -0.27060056993088605 0.9626917115841992
12611721333.333334 -0.26169555780492976 0.9651504727372836 -2.1361386800271915e-18 -8.954361257679205e-17 -2.1361386800271915e-18 -8.954361257679205e-17 -0.26169618134995515 0.9651503036660599
12612338666.666666 -0.2527688364509607 0.9675267000548684 -2.970562260657011e-18 -8.950226974023481e-17 -2.970562260657011e-18 -8.950226974023481e-17 -0.25276946150057567 0.9675265367588348
12612956000.0 -0.24382054562405672 0.9698203655994354 -3.804400733678227e-18 -8.945315720755899e-17 -3.804400733678227e-18 -8.945315720755899e-17 -0.24382117212477944 0.9698202080919609
12613573333.333334 -0.2348514489071208 0.9720312736461012 -4.637581807788173e-18 -8.939628229236068e-17 -4.637581807788173e-18 -8.939628229236068e-17 -0.2348520768053507 0.9720311219400586
12614190666.666666 -0.225862311658342 0.9741592355319467 -5.4700332771700025e-18 -8.933165298033084e-17 -5.4700332771700025e-18 -8.933165298033084e-17 -0.22586294090036454 0.9741590896397132
12614808000.0 -0.2168539009461335 0.9762040696720541 -6.3016830277134285e-18 -8.925927792829862e-17 -6.3016830277134285e-18 -8.925927792829862e-17 -0.21685453147812495 0.9762039296055097
12615425333.333334 -0.20782698548348397 0.9781656015750522 -7.13245904325305e-18 -8.917916646321632e-17 -7.13245904325305e-18 -8.917916646321632e-17 -0.20782761725151555 0.9781654673455782
12616042666.666666 -0.1987823355624706 0.9800436638579755 -7.962289411790582e-18 -8.909132858108569e-17 -7.962289411790582e-18 -8.909132858108569e-17 -0.1987829685125135 0.9800435354764546
12616660000.0 -0.18972072298850118 0.9818380962605582 -8.791102331708218e-18 -8.899577494582733e-17 -8.791102331708218e-18 -8.899577494582733e-17 -0.18972135706643076 0.9818379737373715
12617277333.333334 -0.1806429210143968 0.983548745658914 -9.618826117959716e-18 -8.889251688809217e-17 -9.618826117959716e-18 -8.889251688809217e-17 -0.18064355616599784 0.9835486290039439
12617894666.666666 -0.17154970427466074 0.9851754660785625 -1.0445389208259244e-17 -8.878156640401646e-17 -1.0445389208259244e-17 -8.878156640401646e-17 -0.17155034044563153 0.9851753553011887
12618512000.0 -0.16244184871890072 0.9867181187069696 -1.1270720169272013e-17 -8.866293615391495e-17 -1.1270720169272013e-17 -8.866293615391495e-17 -0.162442485854858 0.9867180138160699
12619129333.333334 -0.1533201315461188 0.9881765719053028 -1.2094747702741089e-17 -8.853663946092552e-17 -1.2094747702741089e-17 -8.853663946092552e-17 -0.15332076959260213 0.9881764729092509
12619746666.666666 -0.14418533113808277 0.9895507012197188 -1.291740065165785e-17 -8.840269030958753e-17 -1.291740065165785e-17 -8.840269030958753e-17 -0.14418597004055936 0.9895506081263851
12620364000.0 -0.13503822699287593 0.9908403893919834 -1.3738608006395139e-17 -8.826110334436708e-17 -1.3738608006395139e-17 -8.826110334436708e-17 -0.1350388666967454 0.9908403022087334
12620981333.333334 -0.1258795996587462 0.9920455263694256 -1.455829891079008e-17 -8.811189386813055e-17 -1.455829891079008e-17 -8.811189386813055e-17 -0.1258802401093451 0.9920454451031208
12621598666.666666 -0.1167102306670498 0.9931660093143947 -1.5376402668283947e-17 -8.795507784055058e-17 -1.5376402668283947e-17 -8.795507784055058e-17 -0.11671087180965632 0.9931659339713912
12622216000.0 -0.10753090246581404 0.9942017426129995 -1.6192848747983015e-17 -8.779067187646493e-17 -1.6192848747983015e-17 -8.779067187646493e-17 -0.1075315442456526 0.9942016731991457
12622833333.333334 -0.09834239835288398 0.9951526378832741 -1.700756679073274e-17 -8.761869324417462e-17 -1.700756679073274e-17 -8.761869324417462e-17 -0.09834304071513017 0.9951525744039141
12623450666.666666 -0.08914550240916691 0.9960186139827173 -1.7820486615157178e-17 -8.743915986368892e-17 -1.7820486615157178e-17 -8.743915986368892e-17 -0.08914614529895182 0.996018556442687
12624068000.0 -0.07994099943169573 0.9967995970152157 -1.8631538223705522e-17 -8.725209030490987e-17 -1.8631538223705522e-17 -8.725209030490987e-17 -0.07994164279411087 0.9967995454188443
12624685333.333334 -0.07072967486646221 0.99749552033737 -1.9440651808657696e-17 -8.70575037857645e-17 -1.9440651808657696e-17 -8.70575037857645e-17 -0.07073031864656405 0.9974954746884778
12625302666.666666 -0.06151231474178876 0.9981063245641439 -2.024775775810902e-17 -8.685542017028358e-17 -2.024775775810902e-17 -8.685542017028358e-17 -0.06151295888460354 0.9981062848660444
12625920000.0 -0.05228970560080123 0.9986319575739692 -2.1052786661972237e-17 -8.66458599666153e-17 -2.1052786661972237e-17 -8.66458599666153e-17 -0.052290350051329745 0.9986319238294686
12626537333.333334 -0.04306263443467966 0.9990723745131683 -2.185566931790064e-17 -8.642884432499828e-17 -2.185566931790064e-17 -8.642884432499828e-17 -0.04306327913790171 0.9990723467245636
12627154666.666666 -0.03383188861544549 0.9994275377997888 -2.2656336737237718e-17 -8.620439503566859e-17 -2.2656336737237718e-17 -8.620439503566859e-17 -0.03383253351632468 0.9994275159688683
12627772000.0 -0.02459825582843192 0.9996974171268203 -2.3454720150945365e-17 -8.59725345267101e-17 -2.3454720150945365e-17 -8.59725345267101e-17 -0.02459890087192043 0.9996974012548643
12628389333.333334 -0.015362524005579884 0.9998819894647643 -2.4250751015464895e-17 -8.573328586186513e-17 -2.4250751015464895e-17 -8.573328586186513e-17 -0.015363169136623094 0.9998819795525448
12629006666.666666 -0.006125481257747063 0.9999812390636126 -2.5044361018614145e-17 -8.54866727382724e-17 -2.5044361018614145e-17 -8.54866727382724e-17 -0.006126126421288258 0.9999812351113928
12629624000.0 0.003112084192259736 0.9999951574541828 -2.583548208542364e-17 -8.523271948416341e-17 -2.583548208542364e-17 -8.523271948416341e-17 0.0031114390512746613 0.9999951594617174
12630241333.333334 0.01234938407700266 0.9999237434488466 -2.662404638396655e-17 -8.497145105649889e-17 -2.662404638396655e-17 -8.497145105649889e-17 0.012348739013620496 0.9999237514153813
12630858666.666666 0.021585630151677856 0.9997670031416271 -2.74099863311485e-17 -8.470289303855722e-17 -2.74099863311485e-17 -8.470289303855722e-17 0.021584985220933422 0.9997670170659002
12631476000.0 0.03082003426157763 0.9995249499076805 -2.8193234598511965e-17 -8.442707163745689e-17 -2.8193234598511965e-17 -8.442707163745689e-17 0.03081938951848899 0.9995249697879207
12632093333.333334 0.040051808409004734 0.9991976044021547 -2.8973724117961014e-17 -8.414401368164401e-17 -2.8973724117961014e-17 -8.414401368164401e-17 0.04005116390856861 0.9991976302360835
12632710666.666666 0.04928016482071351 0.9987849945584282 -2.9751388087494803e-17 -8.385374661831541e-17 -2.9751388087494803e-17 -8.385374661831541e-17 0.049279520617900516 0.9987850263432595
12633328000.0 0.05850431601516108 0.9982871555857227 -3.052615997693713e-17 -8.355629851078153e-17 -3.052615997693713e-17 -8.355629851078153e-17 0.05850367216491113 0.9982871933181634
12633945333.333334 0.06772347486962033 0.997704129966104 -3.129797353358285e-17 -8.325169803579682e-17 -3.129797353358285e-17 -8.325169803579682e-17 0.06772283142683774 0.9977041736423518
12634562666.666666 0.07693685468737521 0.9970359674508488 -3.2066762787863264e-17 -8.293997448082179e-17 -3.2066762787863264e-17 -8.293997448082179e-17 0.07693621170692434 0.9970360170665968
12635180000.0 0.08614366926485244 0.9962827250562081 -3.2832462058968097e-17 -8.262115774123924e-17 -3.2832462058968097e-17 -8.262115774123924e-17 0.08614302680155272 0.9962827806066424
12635797333.333334 0.09534313295876662 0.9954444670585314 -3.3595005960447125e-17 -8.229527831751576e-17 -3.3595005960447125e-17 -8.229527831751576e-17 0.09534249106738797 0.9954445285383312
12636414666.666666 0.10453446075293489 0.9945212649888026 -3.4354329405760666e-17 -8.196236731232129e-17 -3.4354329405760666e-17 -8.196236731232129e-17 0.10453381948819333 0.9945213323921441
12637032000.0 0.11371686832560501 0.9935131976265109 -3.511036761384875e-17 -8.162245642757861e-17 -3.511036761384875e-17 -8.162245642757861e-17 0.11371622774215732 0.9935132709470618
12637649333.333334 0.12288957211615582 0.9924203509929369 -3.5863056114624464e-17 -8.127557796148052e-17 -3.5863056114624464e-17 -8.127557796148052e-17 0.12288893226859578 0.9924204302238647
12638266666.666666 0.1320517893920189 0.9912428183438213 -3.66123307544619e-17 -8.092176480544737e-17 -3.66123307544619e-17 -8.092176480544737e-17 0.1320511503348718 0.9912429034777871
12638884000.0 0.14120273831547023 0.9899807001613968 -3.735812770164947e-17 -8.056105044103567e-17 -3.735812770164947e-17 -8.056105044103567e-17 0.14120210010318868 0.9899807911905587
12639501333.333334 0.15034163801040312 0.9886341041458089 -3.810038345181791e-17 -8.019346893679497e-17 -3.810038345181791e-17 -8.019346893679497e-17 0.15034100069736245 0.9886342010618242
12640118666.666666 0.15946770862868168 0.9872031452059673 -3.8839034833310166e-17 -7.98190549450874e-17 -3.8839034833310166e-17 -7.98190549450874e-17 0.15946707226917514 0.9872032479999919
12640736000.0 0.16858017141730536 0.9856879454496476 -3.9574019012593083e-17 -7.943784369882279e-17 -3.9574019012593083e-17 -7.943784369882279e-17 0.16857953606553958 0.9856880541123361
12641353333.333334 0.17767824878407623 0.9840886341731929 -4.030527349952435e-17 -7.904987100820056e-17 -4.030527349952435e-17 -7.904987100820056e-17 0.1776776144941663 0.9840887486946991
12641970666.666666 0.18676116436456972 0.9824053478503803 -4.103273615270045e-17 -7.865517325734595e-17 -4.103273615270045e-17 -7.865517325734595e-17 0.18676053119053504 0.98240546822036
12642588000.0 0.1958281430881322 0.980638230120818 -4.175634518470002e-17 -7.825378740093422e-17 -4.175634518470002e-17 -7.825378740093422e-17 0.1958275110838917 0.9806383563284294
12643205333.333334 0.20487841124393621 0.9787874317777058 -4.247603916732153e-17 -7.784575096075294e-17 -4.247603916732153e-17 -7.784575096075294e-17 0.20487778046330374 0.9787875638116098
12643822666.666666 0.21391119654728202 0.9768531107549108 -4.3191757036783e-17 -7.74311020222183e-17 -4.3191757036783e-17 -7.74311020222183e-17 0.21391056704396183 0.9768532486032723
12644440000.0 0.22292572820524842 0.9748354321135416 -4.390343809889058e-17 -7.70098792308433e-17 -4.390343809889058e-17 -7.70098792308433e-17 0.22292510003283045 0.9748355757640308
12645057333.333334 0.231921236982522 0.9727345680278526 -4.461102203416381e-17 -7.658212178866276e-17 -4.461102203416381e-17 -7.658212178866276e-17 0.23192061019447718 0.9727347174676444
12645674666.666666 0.24089695526706648 0.9705506977705463 -4.5314448902935395e-17 -7.614786945060697e-17 -4.5314448902935395e-17 -7.614786945060697e-17 0.24089632991674262 0.9705508529863236
12646292000.0 0.24985211713570743 0.9682840076974529 -4.601365915042856e-17 -7.57071625208204e-17 -4.601365915042856e-17 -7.57071625208204e-17 0.24985149327632464 0.9682841686754088
12646909333.333334 0.25878595841929836 0.9659346912316807 -4.670859361175838e-17 -7.526004184895933e-17 -4.670859361175838e-17 -7.526004184895933e-17 0.258785336103944 0.9659348579575154
12647526666.666666 0.26769771676809373 0.9635029488470628 -4.739919351693581e-17 -7.480654882641963e-17 -4.739919351693581e-17 -7.480654882641963e-17 0.26769709604971853 0.9635031213059896
12648144000.0 0.27658663171680326 0.9609889880510546 -4.8085400495833066e-17 -7.434672538252015e-17 -4.8085400495833066e-17 -7.434672538252015e-17 0.27658601264821625 0.9609891662277975
12648761333.333334 0.2854519447494008 0.9583930233670438 -4.8767156583085007e-17 -7.38806139806585e-17 -4.8767156583085007e-17 -7.38806139806585e-17 0.28545132738326506 0.9583932072458407
12649378666.666666 0.29429289936374237 0.9557152763160791 -4.944440422297223e-17 -7.340825761440958e-17 -4.944440422297223e-17 -7.340825761440958e-17 0.29429228375257105 0.9557154658806841
12649996000.0 0.30310874113642183 0.9529559753978829 -5.011708627427522e-17 -7.292969980357423e-17 -5.011708627427522e-17 -7.292969980357423e-17 0.30310812733257275 0.9529561706315656
12650613333.333334 0.3118987177869552 0.9501153560714038 -5.078514601507578e-17 -7.244498459019295e-17 -5.078514601507578e-17 -7.244498459019295e-17 0.31189810584262706 0.9501155569569516
12651230666.666666 0.3206620792418948 0.9471936607347524 -5.144852714750792e-17 -7.19541565345251e-17 -5.144852714750792e-17 -7.19541565345251e-17 0.3206614692091226 0.9471938672544727
12651848000.0 0.32939807769913254 0.9441911387044217 -5.210717380251935e-17 -7.145726071094939e-17 -5.210717380251935e-17 -7.145726071094939e-17 0.32939746962978284 0.9441913508401424
12652465333.333334 0.33810596769136064 0.9411080461941261 -5.276103054453427e-17 -7.095434270386368e-17 -5.276103054453427e-17 -7.095434270386368e-17 0.3381053616371274 0.9411082639271975
12653082666.666666 0.3467850061498471 0.9379446462928867 -5.3410042376105666e-17 -7.044544860352194e-17 -5.3410042376105666e-17 -7.044544860352194e-17 0.34678440216224743 0.9379448696041836
12653700000.0 0.35543445246800304 0.93470120894252 -5.405415474254537e-17 -6.993062500181458e-17 -5.405415474254537e-17 -6.993062500181458e-17 0.35543385059837296 0.9347014378124437
12654317333.333334 0.36405356856423493 0.9313780109147324 -5.469331353646804e-17 -6.94099189880424e-17 -5.469331353646804e-17 -6.94099189880424e-17 0.3640529688637245 0.9313782453232113
12654934666.666666 0.37264161894521924 0.9279753357873918 -5.532746510233214e-17 -6.888337814461928e-17 -5.532746510233214e-17 -6.888337814461928e-17 0.3726410214647887 0.9279755757138847
12655552000.0 0.3811978707685582 0.9244934739203701 -5.595655624093993e-17 -6.835105054273412e-17 -5.595655624093993e-17 -6.835105054273412e-17 0.3811972755589728 0.9244937193438649
12656169333.333334 0.3897215939052356 0.9209327224307968 -5.658053421385879e-17 -6.781298473800136e-17 -5.658053421385879e-17 -6.781298473800136e-17 0.38972100101706225 0.9209329733298158
12656786666.666666 0.39821206100207984 0.9172933851676426 -5.719934674784752e-17 -6.726922976603354e-17 -5.719934674784752e-17 -6.726922976603354e-17 0.39821147048568223 0.9172936415202423
12657404000.0 0.40666854754372483 0.9135757726858321 -5.781294203920932e-17 -6.67198351379989e-17 -5.781294203920932e-17 -6.67198351379989e-17 0.4066679594492597 0.9135760344696066
12658021333.333334 0.4150903319145126 0.9097802022197096 -5.842126875811604e-17 -6.616485083612852e-17 -5.842126875811604e-17 -6.616485083612852e-17 0.41508974629192547 0.9097804694117924
12658638666.666666 0.4234766954598407 0.9059069976560781 -5.90242760528781e-17 -6.560432730919421e-17 -5.90242760528781e-17 -6.560432730919421e-17 0.4234761123588603 0.9059072702331414
12659256000.0 0.431826922547897 0.9019564895063672 -5.96219135541897e-17 -6.503831546793044e-17 -5.96219135541897e-17 -6.503831546793044e-17 0.43182634201803277 0.9019567674446273
12659873333.333334 0.4401403006303924 0.8979290148785842 -6.02141313793139e-17 -6.44668666804334e-17 -6.02141313793139e-17 -6.44668666804334e-17 0.4401397227209292 0.8979292981538021
12660490666.666666 0.4484161203033915 0.8938249174485406 -6.080088013622218e-17 -6.389003276752405e-17 -6.080088013622218e-17 -6.389003276752405e-17 0.44841554506338643 0.8938252060360251
12661108000.0 0.45665367536812845 0.8896445474303863 -6.138211092771649e-17 -6.33078659980472e-17 -6.138211092771649e-17 -6.33078659980472e-17 0.4566531028464052 0.8896448413049931
12661725333.333334 0.46485226289080994 0.8853882615469498 -6.195777535546198e-17 -6.272041908417733e-17 -6.195777535546198e-17 -6.272041908417733e-17 0.4648516931359562 0.8853885606830886
12662342666.666666 0.47301118326303154 0.8810564229990853 -6.252782552402139e-17 -6.212774517664225e-17 -6.252782552402139e-17 -6.212774517664225e-17 0.4730106163233938 0.8810567273707176
12662960000.0 0.4811297402612483 0.876649401434793 -6.309221404480658e-17 -6.152989785994726e-17 -6.309221404480658e-17 -6.152989785994726e-17 0.4811291761849282 0.8766497110154368
12663577333.333334 0.48920724110623515 0.8721675729176488 -6.365089404001276e-17 -6.092693114753521e-17 -6.365089404001276e-17 -6.092693114753521e-17 0.48920667994108574 0.8721678876803806
12664194666.666666 0.49724299652223125 0.867611319894704 -6.420381914648782e-17 -6.031889947693092e-17 -6.420381914648782e-17 -6.031889947693092e-17 0.49724243831585124 0.8676116398121587
12664812000.0 0.5052363207956545 0.8629810311638996 -6.475094351956346e-17 -5.970585770484129e-17 -6.475094351956346e-17 -5.970585770484129e-17 0.5052357655953874 0.8629813562082781
12665429333.333334 0.5131865318337931 0.858277101840798 -6.529222183684046e-17 -5.908786110222126e-17 -6.529222183684046e-17 -5.908786110222126e-17 0.5131859796867201 0.8582774319838649
12666046666.666666 0.5210929512227864 0.8534999333249906 -6.58276093019184e-17 -5.84649653493149e-17 -6.58276093019184e-17 -5.84649653493149e-17 0.5210924021757237 0.8535002685380775
12666664000.0 0.5289549042858092 0.8486499332656707 -6.63570616480962e-17 -5.783722653064195e-17 -6.63570616480962e-17 -5.783722653064195e-17 0.5289543583853039 0.8486502735196803
12667281333.333334 0.5367717201403273 0.84372751552704 -6.688053514200098e-17 -5.720470112997986e-17 -6.688053514200098e-17 -5.720470112997986e-17 0.5367711774326536 0.8437278607924471
12667898666.666666 0.5445427317554932 0.838733100152904 -6.739798658719182e-17 -5.65674460252864e-17 -6.739798658719182e-17 -5.65674460252864e-17 0.5445421922866488 0.8387334503997599
12668516000.0 0.5522672760092087 0.8336671133307382 -6.790937332770687e-17 -5.592551848359927e-17 -6.790937332770687e-17 -5.592551848359927e-17 0.5522667398249096 0.8336674685286705
12669133333.333334 0.5599446937443983 0.8285299873555145 -6.841465325154701e-17 -5.5278976155923395e-17 -6.841465325154701e-17 -5.5278976155923395e-17 0.5599441608900766 0.8285303474737327
12669750666.666666 0.5675743298255218 0.8233221605926486 -6.891378479414182e-17 -5.4627877072048203e-17 -6.891378479414182e-17 -5.4627877072048203e-17 0.5675738003463207 0.8233225255999443
12670368000.0 0.5751555331943814 0.8180440774406497 -6.940672694173707e-17 -5.397227963537065e-17 -6.940672694173707e-17 -5.397227963537065e-17 0.575155007135152 0.8180444473054017
