! Parameters = {f0=12700.012000; bw=77.238000; Q=6100.000000; N=10; m_0_1=1.262357; m_1_1=0.170615; m_1_2=1.097169; m_2_2=0.169966; m_2_3=0.734132; m_2_8=0.000182; m_2_9=0.036886; m_3_3=0.168029; m_3_4=0.622661; m_3_7=0.000782; m_3_8=-0.096306; m_3_9=0.000182; m_4_4=0.165104; m_4_5=0.458996; m_4_6=0.004299; m_4_7=-0.116855; m_4_8=0.000782; m_5_5=0.165486; m_5_6=0.866351; m_5_7=0.004299; m_6_6=0.165485; m_6_7=0.459338; m_7_7=0.165118; m_7_8=0.622779; m_8_8=0.168027; m_8_9=0.734445; m_9_9=0.169961; m_9_10=1.098247; m_10_10=0.170605; m_10_11=1.263152}
!
! Created with skrf (http://scikit-rf.org).
# Hz S RI R 50.0 
!freq ReS11 ImS11 ReS21 ImS21 ReS12 ImS12 ReS22 ImS22
12607400000.0 0.6216448091258859 -0.7832992603639215 -3.984766087795226e-17 9.895124666938381e-17 -3.984766087795226e-17 9.895124666938381e-17 0.621645330097151 -0.7832988469085277
12608017333.333334 0.6135463552770863 -0.7896587047111108 -3.8810250681202525e-17 9.934029044123894e-17 -3.8810250681202525e-17 9.934029044123894e-17 0.6135468804522969 -0.7896582966619676
12608634666.666666 0.6053828486520261 -0.7959344235285872 -3.7769060317489205e-17 9.971846607813134e-17 -3.7769060317489205e-17 9.971846607813134e-17 0.6053833779750903 -0.7959340209284276
12609252000.0 0.5971551548067998 -0.8021257514177507 -3.672420355989466e-17 1.0008573705010198e-16 -3.672420355989466e-17 1.0008573705010198e-16 0.5971556882211924 -0.8021253543087267
12609869333.333334 0.5888641461031584 -0.8082320319277279 -3.5675794532283236e-17 1.0044206801736404e-16 -3.5675794532283236e-17 1.0044206801736404e-16 0.5888646835519236 -0.8082316403514027
12610486666.666666 0.5805107016160325 -0.8142526176249527 -3.462394769689126e-17 1.0078742483363562e-16 -3.462394769689126e-17 1.0078742483363562e-16 0.5805112430417942 -0.8142522316223009
12611104000.0 0.5720957070401022 -0.8201868701619841 -3.35687778418113e-17 1.0112177454936857e-16 -3.35687778418113e-17 1.0112177454936857e-16 0.5720962523850679 -0.820186489773385
12611721333.333334 0.5636200545962085 -0.8260341603449539 -3.251040006853217e-17 1.0144508541481807e-16 -3.251040006853217e-17 1.0144508541481807e-16 0.5636206038021757 -0.8260337856101874
12612338666.666666 0.5550846429365237 -0.8317938682004441 -3.1448929779378e-17 1.0175732688300504e-16 -3.1448929779378e-17 1.0175732688300504e-16 0.5550851959448865 -0.8317934991586869
12612956000.0 0.5464903770492676 -0.837465383041219 -3.038448266495163e-17 1.0205846961253731e-16 -3.038448266495163e-17 1.0205846961253731e-16 0.5464909338010226 -0.8374650197310408
12613573333.333334 0.5378381681629896 -0.8430481035308159 -2.931717469156337e-17 1.0234848547029696e-16 -2.931717469156337e-17 1.0234848547029696e-16 0.5378387285987423 -0.8430477459901747
12614190666.666666 0.5291289336496232 -0.848541437747526 -2.8247122088609004e-17 1.0262734753400375e-16 -2.8247122088609004e-17 1.0262734753400375e-16 0.5291294977095942 -0.8485410860137641
12614808000.0 0.5203635969274792 -0.853944803246979 -2.7174441335938625e-17 1.0289503009464244e-16 -2.7174441335938625e-17 1.0289503009464244e-16 0.520364164551511 -0.8539444573568201
12615425333.333334 0.5115430873632199 -0.8592576271239789 -2.6099249151200775e-17 1.0315150865875991e-16 -2.6099249151200775e-17 1.0315150865875991e-16 0.5115436584907828 -0.8592572871135229
12616042666.666666 0.5026683401733442 -0.8644793460732307 -2.5021662477165864e-17 1.0339675995063012e-16 -2.5021662477165864e-17 1.0339675995063012e-16 0.5026689147435432 -0.8644790119779512
12616660000.0 0.4937402963250289 -0.8696094064490671 -2.3941798469033017e-17 1.0363076191428565e-16 -2.3941798469033017e-17 1.0363076191428565e-16 0.4937408742766097 -0.8696090783038061
12617277333.333334 0.4847599024363353 -0.8746472643241615 -2.285977448170162e-17 1.0385349371542218e-16 -2.285977448170162e-17 1.0385349371542218e-16 0.48476048370769165 -0.8746469421631285
12617894666.666666 0.4757281106759668 -0.8795923855471349 -2.177570805707325e-17 1.0406493574315887e-16 -2.177570805707325e-17 1.0406493574315887e-16 0.4757286952051459 -0.8795920694039002
12618512000.0 0.4666458786620635 -0.8844442457993247 -2.0689716911261784e-17 1.0426506961168347e-16 -2.0689716911261784e-17 1.0426506961168347e-16 0.46664646638677304 -0.884443935706817
12619129333.333334 0.45751416936091593 -0.8892023306502386 -1.960191892187842e-17 1.0445387816174597e-16 -1.960191892187842e-17 1.0445387816174597e-16 0.45751476021853177 -0.8892020266407432
12619746666.666666 0.4483339509847677 -0.893866135612158 -1.8512432115230247e-17 1.0463134546203466e-16 -1.8512432115230247e-17 1.0463134546203466e-16 0.4483345449123393 -0.8938658377173119
12620364000.0 0.43910619688905445 -0.898435166193675 -1.7421374653540275e-17 1.0479745681041202e-16 -1.7421374653540275e-17 1.0479745681041202e-16 0.4391067938233116 -0.8984348744444629
12620981333.333334 0.4298318854694553 -0.9029089379519938 -1.632886482216995e-17 1.049521987350168e-16 -1.632886482216995e-17 1.049521987350168e-16 0.4298324853468159 -0.902908652378747
12621598666.666666 0.42051200005790373 -0.9072869765444267 -1.5235021016806417e-17 1.0509555899523678e-16 -1.5235021016806417e-17 1.0509555899523678e-16 0.42051260281447916 -0.9072866971768173
12622216000.0 0.4111475288184524 -0.9115688177786174 -1.4139961730657872e-17 1.0522752658254636e-16 -1.4139961730657872e-17 1.0522752658254636e-16 0.4111481343900554 -0.911568544645658
12622833333.333334 0.4017394646424496 -0.9157540076617868 -1.304380554163741e-17 1.0534809172121144e-16 -1.304380554163741e-17 1.0534809172121144e-16 0.4017400729646009 -0.9157537407918261
12623450666.666666 0.3922888050433966 -0.9198421024488107 -1.1946671099557816e-17 1.0545724586886012e-16 -1.1946671099557816e-17 1.0545724586886012e-16 0.39228941605133183 -0.919841841869531
12624068000.0 0.3827965520509499 -0.923832668689374 -1.0848677113299553e-17 1.0555498171692254e-16 -1.0848677113299553e-17 1.0555498171692254e-16 0.38279716567962524 -0.9238324144277856
12624685333.333334 0.37326371210480475 -0.9277252832738617 -9.749942337974356e-18 1.0564129319093698e-16 -9.749942337974356e-18 1.0564129319093698e-16 0.373264328288906 -0.9277250353563051
12625302666.666666 0.36369129594814764 -0.9315195334781672 -8.65058556215205e-18 1.0571617545071841e-16 -8.65058556215205e-18 1.0571617545071841e-16 0.3636919146220956 -0.9315192919303069
12625920000.0 0.3540803185201184 -0.9352150170075961 -7.550725594983481e-18 1.0577962489040168e-16 -7.550725594983481e-18 1.0577962489040168e-16 0.3540809396180761 -0.9352147818544181
12626537333.333334 0.3444317988485679 -0.9388113420393712 -6.450481253428539e-18 1.0583163913834443e-16 -6.450481253428539e-18 1.0583163913834443e-16 0.3444324223044484 -0.9388111133051826
12627154666.666666 0.33474675994185765 -0.9423081272642483 -5.349971349425187e-18 1.0587221705690163e-16 -5.349971349425187e-18 1.0587221705690163e-16 0.33474738568932993 -0.9423079049726713
12627772000.0 0.32502622868022907 -0.9457050019269932 -4.249314677063984e-18 1.05901358742066e-16 -4.249314677063984e-18 1.05901358742066e-16 0.3250268566527259 -0.9457047861009662
12628389333.333334 0.3152712357073289 -0.949001605865554 -3.1486299998327996e-18 1.0591906552297359e-16 -3.1486299998327996e-18 1.0591906552297359e-16 0.3152718658380539 -0.9490013965273278
12629006666.666666 0.3054828153204227 -0.9521975895494249 -2.0480360377674584e-18 1.0592533996128004e-16 -2.0480360377674584e-18 1.0592533996128004e-16 0.30548344754235685 -0.9521973867205593
12629624000.0 0.2956620053611875 -0.9552926141165481 -9.476514547204537e-19 1.059201858504011e-16 -9.476514547204537e-19 1.059201858504011e-16 0.29566263960709654 -0.9552924178179109
12630241333.333334 0.2858098471054027 -0.9582863514093337 1.5240515444056261e-19 1.059036082146226e-16 1.5240515444056261e-19 1.059036082146226e-16 0.28581048330784486 -0.9582861616610989
12630858666.666666 0.2759273851527367 -0.9611784840093949 1.252015276570697e-18 1.0587561330807789e-16 1.252015276570697e-18 1.0587561330807789e-16 0.2759280232440692 -0.9611783008310406
12631476000.0 0.26601566731569104 -0.9639687052712939 2.3510604930261042e-18 1.0583620861359175e-16 2.3510604930261042e-18 1.0583620861359175e-16 0.2660163072280769 -0.9639685286815973
12632093333.333334 0.2560757445088561 -0.9666567193549427 3.449422492354877e-18 1.0578540284139425e-16 3.449422492354877e-18 1.0578540284139425e-16 0.25607638617427286 -0.9666565493719841
12632710666.666666 0.24610867063735264 -0.969242241257025 4.5469830830256015e-18 1.0572320592770195e-16 4.5469830830256015e-18 1.0572320592770195e-16 0.24610931398759772 -0.9692420778981793
12633328000.0 0.2361155024848381 -0.9717249968412662 5.643624206149967e-18 1.0564962903316567e-16 5.643624206149967e-18 1.0564962903316567e-16 0.23611614745153742 -0.9717248401232057
12633945333.333334 0.22609729960187241 -0.9741047228673965 6.7392279481140296e-18 1.055646845411909e-16 6.7392279481140296e-18 1.055646845411909e-16 0.22609794611648731 -0.9741045728060886
12634562666.666666 0.21605512419332873 -0.9763811670191267 7.833676553260961e-18 1.054683860561234e-16 7.833676553260961e-18 1.054683860561234e-16 0.21605577218716282 -0.97638102362983
12635180000.0 0.20599004100582546 -0.978554087930884 8.92685243651878e-18 1.053607484013056e-16 8.92685243651878e-18 1.053607484013056e-16 0.20599069041003248 -0.9785539512281497
12635797333.333334 0.19590311721480616 -0.9806232552134122 1.001863819601379e-17 1.0524178761700202e-16 1.001863819601379e-17 1.0524178761700202e-16 0.1959037679603969 -0.9806231252110799
12636414666.666666 0.1857954223115006 -0.9825884494781719 1.1108916625641311e-17 1.0511152095819532e-16 1.1108916625641311e-17 1.0511152095819532e-16 0.1857960743293505 -0.9825883261893704
12637032000.0 0.17566802798936287 -0.9844494623606418 1.2197570727655354e-17 1.0496996689224877e-16 1.2197570727655354e-17 1.0496996689224877e-16 0.17566868121021917 -0.984449345797786
12637649333.333334 0.16552200803058092 -0.986206096542376 1.3284483725171038e-17 1.0481714509644412e-16 1.3284483725171038e-17 1.0481714509644412e-16 0.16552266238507032 -0.9862059867171686
12638266666.666666 0.15535843819208756 -0.9878581657719604 1.4369539074683198e-17 1.0465307645538616e-16 1.4369539074683198e-17 1.0465307645538616e-16 0.15535909361072295 -0.9878580626953859
12638884000.0 0.14517839609166713 -0.9894054948847197 1.5452620478536984e-17 1.0447778305827925e-16 1.5452620478536984e-17 1.0447778305827925e-16 0.14517905250485555 -0.9894053985670476
12639501333.333334 0.1349829610935594 -0.9908479198213221 1.653361189737312e-17 1.0429128819607536e-16 1.653361189737312e-17 1.0429128819607536e-16 0.13498361843160928 -0.9908478302721038
12640118666.666666 0.12477321419421372 -0.9921852876451415 1.7612397562516633e-17 1.0409361635849645e-16 1.7612397562516633e-17 1.0409361635849645e-16 0.1247738723873422 -0.9921852048732096
12640736000.0 0.11455023790722302 -0.9934174565585333 1.868886198841151e-17 1.038847932309155e-16 1.868886198841151e-17 1.038847932309155e-16 0.1145508968855635 -0.9934173805720026
12641353333.333334 0.10431511614922412 -0.9945442959177835 1.976288998487225e-17 1.0366484569113645e-16 1.976288998487225e-17 1.0366484569113645e-16 0.10431577584283357 -0.9945442267240476
12641970666.666666 0.09406893412438078 -0.9955656862470341 2.083436666946113e-17 1.0343380180601692e-16 2.083436666946113e-17 1.0343380180601692e-16 0.09406959446324704 -0.9955656238527657
12642588000.0 0.08381277820963233 -0.9964815192509134 2.1903177479721307e-17 1.0319169082798397e-16 2.1903177479721307e-17 1.0319169082798397e-16 0.08381343912368172 -0.9964814636620632
12643205333.333334 0.0735477358393666 -0.9972916978260316 2.2969208185402973e-17 1.0293854319141703e-16 2.2969208185402973e-17 1.0293854319141703e-16 0.07354839725847126 -0.9972916490478281
12643822666.666666 0.06327489539017857 -0.997996136071272 2.4032344900672597e-17 1.0267439050890055e-16 2.4032344900672597e-17 1.0267439050890055e-16 0.06327555724416403 -0.997996094108222
12644440000.0 0.0529953460655008 -0.9985947592968958 2.5092474096224235e-17 1.0239926556736179e-16 2.5092474096224235e-17 1.0239926556736179e-16 0.05299600828415334 -0.9985947241527829
12645057333.333334 0.04271017778011824 -0.9990875040324636 2.614948261139503e-17 1.0211320232407516e-16 2.614948261139503e-17 1.0211320232407516e-16 0.042710840293192304 -0.9990874757103483
12645674666.666666 0.03242048104460721 -0.9994743180335666 2.720325766621836e-17 1.0181623590254461e-16 2.720325766621836e-17 1.0181623590254461e-16 0.03242114378183289 -0.9994742965357859
12646292000.0 0.022127346849512442 -0.9997551602873714 2.82536868734543e-17 1.0150840258825547e-16 2.82536868734543e-17 1.0150840258825547e-16 0.022128009740602923 -0.9997551456155385
12646909333.333334 0.011831866550041358 -0.9999300010169554 2.9300658250515605e-17 1.0118973982431964e-16 2.9300658250515605e-17 1.0118973982431964e-16 0.011832529524700368 -0.9999299931719589
12647526666.666666 0.001535131750094797 -0.9999988216844742 3.034406023140866e-17 1.0086028620697912e-16 3.034406023140866e-17 1.0086028620697912e-16 0.0015357947380240742 -0.9999988206664794
12648144000.0 -0.00876176581355831 -0.9999616149931231 3.1383781678607594e-17 1.005200814809921e-16 3.1383781678607594e-17 1.005200814809921e-16 -0.008761102882651573 -0.9999616208015717
12648761333.333334 -0.019057734386750833 -0.9998183848879109 3.241971189484018e-17 1.0016916653490797e-16 3.241971189484018e-17 1.0016916653490797e-16 -0.01905707158314653 -0.9998183975215205
12649378666.666666 -0.02935168231378708 -0.9995691465552434 3.345174063486219e-17 9.980758339620971e-17 3.345174063486219e-17 9.980758339620971e-17 -0.02935101970774476 -0.9995691660120086
12649996000.0 -0.03964251815330196 -0.9992139264213105 3.447975811717784e-17 9.943537522633366e-17 3.447975811717784e-17 9.943537522633366e-17 -0.03964185581505335 -0.9992139526985022
12650613333.333334 -0.049929150793898494 -0.9987527621492857 3.5503655035686076e-17 9.90525863155768e-17 3.5503655035686076e-17 9.90525863155768e-17 -0.04992848879364011 -0.9987527952434527
12651230666.666666 -0.06021048956972208 -0.9981857026353369 3.65233225712655e-17 9.865926207788611e-17 3.65233225712655e-17 9.865926207788611e-17 -0.060209827977607745 -0.9981857425423055
12651848000.0 -0.0704854443763566 -0.9975128080034334 3.753865240335562e-17 9.825544904550925e-17 3.753865240335562e-17 9.825544904550925e-17 -0.07048478326248998 -0.9975128547183072
12652465333.333334 -0.08075292578626327 -0.9967341495989719 3.854953672139826e-17 9.784119486355675e-17 3.854953672139826e-17 9.784119486355675e-17 -0.08075226522069051 -0.9967342031161338
12653082666.666666 -0.09101184516412006 -0.995849809981229 3.955586823627343e-17 9.741654828442743e-17 3.955586823627343e-17 9.741654828442743e-17 -0.09101118521682233 -0.995849870294341
12653700000.0 -0.1012611147826435 -0.9948598829145754 4.0557540191687474e-17 9.698155916210957e-17 4.0557540191687474e-17 9.698155916210957e-17 -0.10126045552352973 -0.9948599500165809
12654317333.333334 -0.11149964793749331 -0.9937644733585732 4.155444637543636e-17 9.653627844639243e-17 4.155444637543636e-17 9.653627844639243e-17 -0.1114989894363924 -0.9937645472416945
12654934666.666666 -0.12172635906277526 -0.9925636974568168 4.2546481130668864e-17 9.608075817693485e-17 4.2546481130668864e-17 9.608075817693485e-17 -0.12172570138942915 -0.9925637781125596
12655552000.0 -0.13194016384614146 -0.9912576825246204 4.353353936707191e-17 9.561505147722465e-17 4.353353936707191e-17 9.561505147722465e-17 -0.13193950707019733 -0.9912577699437719
12656169333.333334 -0.1421399793435027 -0.9898465670355466 4.451551657193871e-17 9.513921254844674e-17 4.451551657193871e-17 9.513921254844674e-17 -0.142139323534506 -0.9898466612081793
12656786666.666666 -0.15232472409410464 -0.9883305006066957 4.549230882124913e-17 9.465329666320177e-17 4.549230882124913e-17 9.465329666320177e-17 -0.15232406932149148 -0.9883306015221667
12657404000.0 -0.16249331823516408 -0.986709643982845 4.6463812790628066e-17 9.415736015913653e-17 4.6463812790628066e-17 9.415736015913653e-17 -0.1624926645682538 -0.9867097516297968
12658021333.333334 -0.1726446836162509 -0.9849841690194174 4.742992576625636e-17 9.365146043245182e-17 4.742992576625636e-17 9.365146043245182e-17 -0.17264403112423884 -0.9849842833857804
12658638666.666666 -0.18277774391357426 -0.98315425866427 4.839054565569066e-17 9.313565593130988e-17 4.839054565569066e-17 9.313565593130988e-17 -0.1827770926655249 -0.9831543797372644
12659256000.0 -0.19289142474435536 -0.9812201069382547 4.934557099866478e-17 9.261000614910319e-17 4.934557099866478e-17 9.261000614910319e-17 -0.19289077480919378 -0.9812202347043885
12659873333.333334 -0.20298465378048783 -0.9791819189146842 5.0294900977741926e-17 9.207457161765301e-17 5.0294900977741926e-17 9.207457161765301e-17 -0.20298400522699375 -0.9791820533597593
12660490666.666666 -0.21305636086223576 -0.9770399106975969 5.1238435428944454e-17 9.152941390027379e-17 5.1238435428944454e-17 9.152941390027379e-17 -0.2130557137590357 -0.9770400518067079
12661108000.0 -0.22310547811197817 -0.9747943093987843 5.2176074852320643e-17 9.09745955847193e-17 5.2176074852320643e-17 9.09745955847193e-17 -0.22310483252753793 -0.9747944571563205
12661725333.333334 -0.2331309400470159 -0.9724453531137993 5.310772042237725e-17 9.041018027605686e-17 5.310772042237725e-17 9.041018027605686e-17 -0.23313029604963395 -0.9724455075034473
12662342666.666666 -0.24313168369295884 -0.9699932908966199 5.403327399849906e-17 8.983623258939613e-17 5.403327399849906e-17 8.983623258939613e-17 -0.2431310413507583 -0.9699934519013633
12662960000.0 -0.2531066486961252 -0.9674383827333108 5.495263813524738e-17 8.925281814253836e-17 5.495263813524738e-17 8.925281814253836e-17 -0.2531060080770473 -0.967438550335435
12663577333.333334 -0.2630547774361068 -0.9647808995144277 5.586571609260741e-17 8.866000354850313e-17 5.586571609260741e-17 8.866000354850313e-17 -0.26305413860790355 -0.9647810736955201
12664194666.666666 -0.27297501513787814 -0.9620211230063005 5.677241184612757e-17 8.805785640796777e-17 5.677241184612757e-17 8.805785640796777e-17 -0.27297437816810494 -0.9620213037472521
12664812000.0 -0.2828663099836314 -0.9591593458211577 5.767263009700336e-17 8.744644530158792e-17 5.767263009700336e-17 8.744644530158792e-17 -0.28286567493964027 -0.9591595331021677
12665429333.333334 -0.2927276132243258 -0.9561958713860964 5.856627628206863e-17 8.68258397822215e-17 5.856627628206863e-17 8.68258397822215e-17 -0.2927269801732579 -0.9561960651866709
12666046666.666666 -0.3025578792907203 -0.9531310139109576 5.94532565836893e-17 8.619611036706122e-17 5.94532565836893e-17 8.619611036706122e-17 -0.3025572482994986 -0.9531312142099129
12666664000.0 -0.31235606590463927 -0.9499650983548834 6.033347793962373e-17 8.55573285296302e-17 6.033347793962373e-17 8.55573285296302e-17 -0.3123554370399624 -0.9499653051303509
12667281333.333334 -0.3221211341889418 -0.946698460392039 6.120684805271292e-17 8.490956669173779e-17 6.120684805271292e-17 8.490956669173779e-17 -0.32212050751727594 -0.946698673621464
12667898666.666666 -0.33185204877804914 -0.9433314463758949 6.207327540056717e-17 8.42528982152781e-17 6.207327540056717e-17 8.42528982152781e-17 -0.331851424365622 -0.9433316660360421
12668516000.0 -0.3415477779276948 -0.939864413302515 6.293266924512823e-17 8.35873973939551e-17 6.293266924512823e-17 8.35873973939551e-17 -0.34154715584048767 -0.939864639369468
12669133333.333334 -0.3512072936240761 -0.936297728772787 6.378493964212556e-17 8.291313944492658e-17 6.378493964212556e-17 8.291313944492658e-17 -0.3512066739278174 -0.9362979612219534
12669750666.666666 -0.3608295716931198 -0.9326317709533529 6.462999745048705e-17 8.223020050031623e-17 6.462999745048705e-17 8.223020050031623e-17 -0.36082895445327823 -0.9326320097594659
12670368000.0 -0.3704135919089654 -0.9288669285365502 6.546775434162739e-17 8.153865759865647e-17 6.546775434162739e-17 8.153865759865647e-17 -0.3704129771907432 -0.9288671736736726
