! Parameters = {f0=12700.012000; bw=77.238000; Q=6100.000000; N=10; m_0_1=1.235530; m_1_1=-0.231788; m_1_2=1.070342; m_2_2=-0.232437; m_2_3=0.707305; m_2_8=-0.001160; m_2_9=0.035544; m_3_3=-0.234374; m_3_4=0.595834; m_3_7=-0.000560; m_3_8=-0.097648; m_3_9=-0.001160; m_4_4=-0.237299; m_4_5=0.432169; m_4_6=0.002957; m_4_7=-0.118197; m_4_8=-0.000560; m_5_5=-0.236917; m_5_6=0.839524; m_5_7=0.002957; m_6_6=-0.236918; m_6_7=0.432511; m_7_7=-0.237285; m_7_8=0.595952; m_8_8=-0.234376; m_8_9=0.707618; m_9_9=-0.232442; m_9_10=1.071420; m_10_10=-0.231798; m_10_11=1.236325}
!
! Created with skrf (http://scikit-rf.org).
# Hz S RI R 50.0 
!freq ReS11 ImS11 ReS21 ImS21 ReS12 ImS12 ReS22 ImS22
12607400000.0 -0.9207320941758405 0.3901953494781851 7.23683427213946e-17 -5.958876770991304e-17 7.23683427213946e-17 -5.958876770991304e-17 -0.9207323481976429 0.39019475007012455
12608017333.333334 -0.9169821750725058 0.3989281772438868 7.177934852304965e-17 -6.026841219943733e-17 7.177934852304965e-17 -6.026841219943733e-17 -0.9169824347667705 0.3989275803062986
12608634666.666666 -0.9131494303125723 0.4076249721492261 7.118397925534779e-17 -6.094224409458888e-17 7.118397925534779e-17 -6.094224409458888e-17 -0.9131496956552896 0.4076243777357841
12609252000.0 -0.9092342060855987 0.41628494866344184 7.058229219475631e-17 -6.16102036731371e-17 7.058229219475631e-17 -6.16102036731371e-17 -0.9092344770522488 0.4162843568275857
12609869333.333334 -0.9052368560310164 0.4249073245813882 6.997434517647716e-17 -6.22722317764465e-17 6.997434517647716e-17 -6.22722317764465e-17 -0.9052371325965757 0.4249067353763204
12610486666.666666 -0.9011577412062909 0.4334913210939844 6.936019658892458e-17 -6.292826981467878e-17 6.936019658892458e-17 -6.292826981467878e-17 -0.9011580233452314 0.433490734572664
12611104000.0 -0.8969972300541004 0.44203616285899533 6.873990536811504e-17 -6.357825977198409e-17 6.873990536811504e-17 -6.357825977198409e-17 -0.8969975177403937 0.4420355790741339
12611721333.333334 -0.8927556983692632 0.45054107807062665 6.811353099206507e-17 -6.422214421157696e-17 6.811353099206507e-17 -6.422214421157696e-17 -0.8927559915763823 0.45054049707468374
12612338666.666666 -0.8884335292647118 0.4590052985294196 6.748113347507975e-17 -6.485986628082328e-17 6.748113347507975e-17 -6.485986628082328e-17 -0.8884338279656344 0.45900472037459766
12612956000.0 -0.8840311131368088 0.46742805971178747 6.68427733620283e-17 -6.549136971623423e-17 6.68427733620283e-17 -6.549136971623423e-17 -0.8840314173040187 0.46742748445002735
12613573333.333334 -0.8795488476302417 0.47580860083876875 6.61985117225904e-17 -6.611659884838752e-17 6.61985117225904e-17 -6.611659884838752e-17 -0.8795491572357308 0.47580802852174436
12614190666.666666 -0.8749871376020111 0.48414616494491836 6.554841014540421e-17 -6.673549860684504e-17 6.554841014540421e-17 -6.673549860684504e-17 -0.8749874526172837 0.4841455956240331
12614808000.0 -0.8703463950848532 0.49243999894670754 6.489253073221572e-17 -6.734801452496639e-17 6.489253073221572e-17 -6.734801452496639e-17 -0.8703467154809278 0.49243943267308915
12615425333.333334 -0.8656270392500472 0.5006893537104935 6.423093609196066e-17 -6.795409274468729e-17 6.423093609196066e-17 -6.795409274468729e-17 -0.8656273649974584 0.5006887905349888
12616042666.666666 -0.8608294963695946 0.5088934841201092 6.356368933481506e-17 -6.855368002122724e-17 6.356368933481506e-17 -6.855368002122724e-17 -0.8608298274383982 0.5088929240932818
12616660000.0 -0.8559541997776374 0.5170516491443172 6.28908540661838e-17 -6.914672372775785e-17 6.28908540661838e-17 -6.914672372775785e-17 -0.8559545361374101 0.51705109231644
12617277333.333334 -0.8510015898313391 0.5251631119036887 6.221249438066011e-17 -6.973317185999692e-17 6.221249438066011e-17 -6.973317185999692e-17 -0.8510019314511839 0.5251625583247417
12617894666.666666 -0.845972113871233 0.5332271397369708 6.152867485595552e-17 -7.031297304073381e-17 6.152867485595552e-17 -7.031297304073381e-17 -0.8459724607197794 0.5332265894566344
12618512000.0 -0.84086622618056 0.5412430042676727 6.083946054673732e-17 -7.088607652433884e-17 6.083946054673732e-17 -7.088607652433884e-17 -0.8408665782259699 0.541242457335326
12619129333.333334 -0.8356843879444938 0.5492099814694471 6.014491697849317e-17 -7.145243220115396e-17 6.014491697849317e-17 -7.145243220115396e-17 -0.835684745154461 0.5492094379341609
12619746666.666666 -0.8304270672083768 0.5571273517316554 5.94451101413059e-17 -7.201199060186421e-17 5.94451101413059e-17 -7.201199060186421e-17 -0.8304274295501334 0.5571268116421894
12620364000.0 -0.8250947388353528 0.564994399924508 5.874010648359054e-17 -7.256470290180737e-17 5.874010648359054e-17 -7.256470290180737e-17 -0.8250951062756701 0.5649938633293058
12620981333.333334 -0.8196878844636607 0.572810415463373 5.802997290583017e-17 -7.311052092519e-17 5.802997290583017e-17 -7.311052092519e-17 -0.8196882569688526 0.5728098824105577
12621598666.666666 -0.8142069924630237 0.5805746923731262 5.731477675422143e-17 -7.364939714928453e-17 5.731477675422143e-17 -7.364939714928453e-17 -0.8142073699989509 0.5805741629104973
12622216000.0 -0.8086525578905202 0.5882865293519405 5.65945858143248e-17 -7.418128470852946e-17 5.65945858143248e-17 -7.418128470852946e-17 -0.8086529404225908 0.588286003526967
12622833333.333334 -0.8030250824458811 0.5959452298346047 5.586946830464177e-17 -7.47061373985956e-17 5.586946830464177e-17 -7.47061373985956e-17 -0.8030254699390559 0.5959447076944229
12623450666.666666 -0.7973250744262935 0.6035501020552804 5.513949287018598e-17 -7.522390968036553e-17 5.513949287018598e-17 -7.522390968036553e-17 -0.7973254668450899 0.6035495836466901
12624068000.0 -0.7915530486803071 0.6111004591102396 5.4404728575998854e-17 -7.5734556683865e-17 5.4404728575998854e-17 -7.5734556683865e-17 -0.7915534459887994 0.6110999444796981
12624685333.333334 -0.7857095265613573 0.6185956190198582 5.366524490061816e-17 -7.623803421213838e-17 5.366524490061816e-17 -7.623803421213838e-17 -0.7857099287231829 0.6185951082134771
12625302666.666666 -0.7797950358809055 0.6260349047899256 5.292111172955452e-17 -7.673429874503087e-17 5.292111172955452e-17 -7.673429874503087e-17 -0.7797954428592666 0.6260343978534672
12625920000.0 -0.7738101108603949 0.633417644473263 5.217239934867827e-17 -7.722330744294373e-17 5.217239934867827e-17 -7.722330744294373e-17 -0.7738105226180625 0.6334171414521352
12626537333.333334 -0.7677552920832976 0.6407431712300369 5.141917843761647e-17 -7.770501815049669e-17 5.141917843761647e-17 -7.770501815049669e-17 -0.767755708582614 0.6407426721692892
12627154666.666666 -0.7616311264462355 0.6480108233880602 5.066152006309409e-17 -7.817938940014066e-17 5.066152006309409e-17 -7.817938940014066e-17 -0.7616315476491196 0.6480103283323809
12627772000.0 -0.7554381671093651 0.6552199445028187 4.989949567222837e-17 -7.864638041571318e-17 4.989949567222837e-17 -7.864638041571318e-17 -0.7554385929773132 0.6552194534965292
12628389333.333334 -0.7491769734467205 0.6623698834163925 4.9133177085849415e-17 -7.910595111589331e-17 4.9133177085849415e-17 -7.910595111589331e-17 -0.7491774039408128 0.6623693965034444
12629006666.666666 -0.7428481109954721 0.6694599943165325 4.8362636491701445e-17 -7.955806211764548e-17 4.8362636491701445e-17 -7.955806211764548e-17 -0.7428485460763743 0.6694595115405038
12629624000.0 -0.7364521514049354 0.6764896367948854 4.758794643769165e-17 -8.000267473954904e-17 4.758794643769165e-17 -8.000267473954904e-17 -0.736452591032902 0.6764891581989754
12630241333.333334 -0.7299896723848783 0.6834581759048993 4.680917982507023e-17 -8.04397510050857e-17 4.680917982507023e-17 -8.04397510050857e-17 -0.7299901165197581 0.6834577015319262
12630858666.666666 -0.7234612576535175 0.6903649822189888 4.602640990158766e-17 -8.086925364585687e-17 4.602640990158766e-17 -8.086925364585687e-17 -0.7234617062547556 0.690364512111385
12631476000.0 -0.7168674968844627 0.6972094318857417 4.5239710254603797e-17 -8.129114610474445e-17 4.5239710254603797e-17 -8.129114610474445e-17 -0.7168679499111053 0.6972089660855505
12632093333.333334 -0.7102089856537659 0.7039909066859329 4.444915480422422e-17 -8.170539253897432e-17 4.444915480422422e-17 -8.170539253897432e-17 -0.7102094430644632 0.7039904452348044
12632710666.666666 -0.7034863253860725 0.710708794088433 4.3654817796344134e-17 -8.211195782314947e-17 4.3654817796344134e-17 -8.211195782314947e-17 -0.7034867871390822 0.7107083370276196
12633328000.0 -0.6967001233000737 0.7173624873057521 4.285677379568978e-17 -8.251080755220054e-17 4.285677379568978e-17 -8.251080755220054e-17 -0.6967005893532667 0.7173620346761073
12633945333.333334 -0.6898509923539031 0.7239513853486078 4.205509767885242e-17 -8.290190804426008e-17 4.205509767885242e-17 -8.290190804426008e-17 -0.689851462664765 0.7239509371905791
12634562666.666666 -0.682939551189732 0.7304748930802496 4.1249864627277796e-17 -8.328522634347898e-17 4.1249864627277796e-17 -8.328522634347898e-17 -0.6829400257153679 0.7304744494338773
12635180000.0 -0.6759664240777867 0.7369324212703112 4.04411501202205e-17 -8.366073022277959e-17 4.04411501202205e-17 -8.366073022277959e-17 -0.6759669027749265 0.7369319821752255
12635797333.333334 -0.6689322408600056 0.7433233866479956 3.9629029927690413e-17 -8.402838818653235e-17 3.9629029927690413e-17 -8.402838818653235e-17 -0.6689327236850054 0.7433229521434102
12636414666.666666 -0.6618376368932924 0.7496472119546201 3.881358010338707e-17 -8.43881694731586e-17 3.881358010338707e-17 -8.43881694731586e-17 -0.6618381238021408 0.749646782079331
12637032000.0 -0.6546832529918806 0.7559033259959913 3.799487697756555e-17 -8.474004405768688e-17 3.799487697756555e-17 -8.474004405768688e-17 -0.6546837439402007 0.7559029007883723
12637649333.333334 -0.6474697353695946 0.7620911636938595 3.717299714992464e-17 -8.508398265421784e-17 3.717299714992464e-17 -8.508398265421784e-17 -0.6474702303126489 0.7620907431918587
12638266666.666666 -0.6401977355815268 0.7682101661369235 3.634801748246162e-17 -8.541995671832722e-17 3.634801748246162e-17 -8.541995671832722e-17 -0.6401982344742221 0.7682097503780608
12638884000.0 -0.6328679104650582 0.7742597806314269 3.552001509228625e-17 -8.574793844940802e-17 3.552001509228625e-17 -8.574793844940802e-17 -0.6328684132619489 0.7742593696527907
12639501333.333334 -0.6254809220805707 0.7802394607510397 3.468906734443311e-17 -8.606790079293388e-17 3.468906734443311e-17 -8.606790079293388e-17 -0.625481428735863 0.7802390545892824
12640118666.666666 -0.6180374376518474 0.7861486663860543 3.3855251844671677e-17 -8.637981744264762e-17 3.3855251844671677e-17 -8.637981744264762e-17 -0.6180379481194038 0.7861482650773904
12640736000.0 -0.6105381295053186 0.791986863792563 3.301864643222054e-17 -8.668366284270898e-17 3.301864643222054e-17 -8.668366284270898e-17 -0.6105386437386611 0.7919864673727641
12641353333.333334 -0.6029836750099338 0.797753525640187 3.2179329172566345e-17 -8.697941218972578e-17 3.2179329172566345e-17 -8.697941218972578e-17 -0.6029841929622489 0.7977531341445798
12641970666.666666 -0.5953747565155783 0.8034481310600269 3.1337378350138713e-17 -8.726704143476226e-17 3.1337378350138713e-17 -8.726704143476226e-17 -0.5953752781397214 0.80344774452349
12642588000.0 -0.5877120612915299 0.8090701656916383 3.049287246105949e-17 -8.754652728524341e-17 3.049287246105949e-17 -8.754652728524341e-17 -0.5877125865400299 0.8090697841486002
12643205333.333334 -0.5799962814644263 0.8146191217294567 2.9645890205823405e-17 -8.781784720680838e-17 2.9645890205823405e-17 -8.781784720680838e-17 -0.5799968102894888 0.8146187452138902
12643822666.666666 -0.5722281139557279 0.820094497968682 2.8796510481977337e-17 -8.808097942508686e-17 2.8796510481977337e-17 -8.808097942508686e-17 -0.57222864630924 0.8200941265141025
12644440000.0 -0.5644082604187433 0.8254957998505636 2.794481237680714e-17 -8.83359029273987e-17 2.794481237680714e-17 -8.83359029273987e-17 -0.5644087962522785 0.8254954334900272
12645057333.333334 -0.556537427175302 0.8308225395070415 2.7090875159972394e-17 -8.858259746439485e-17 2.7090875159972394e-17 -8.858259746439485e-17 -0.5565379664401241 0.83082217827314
12645674666.666666 -0.5486163251520266 0.836074235804764 2.623477827615451e-17 -8.882104355161811e-17 2.623477827615451e-17 -8.882104355161811e-17 -0.5486168677990945 0.8360738797296234
12646292000.0 -0.5406456698158127 0.8412504143887517 2.53766013376591e-17 -8.905122247100321e-17 2.53766013376591e-17 -8.905122247100321e-17 -0.5406462157957841 0.841250063504029
12646909333.333334 -0.532626181109581 0.8463506077249886 2.4516424117071452e-17 -8.927311627228659e-17 2.4516424117071452e-17 -8.927311627228659e-17 -0.5326267303728184 0.8463502620618697
12647526666.666666 -0.5245585833870879 0.8513743551427686 2.3654326539816746e-17 -8.948670777436925e-17 2.3654326539816746e-17 -8.948670777436925e-17 -0.524559135883661 0.8513740147319631
12648144000.0 -0.5164436053473747 0.8563212028763737 2.2790388676759467e-17 -8.969198056659317e-17 2.2790388676759467e-17 -8.969198056659317e-17 -0.5164441610270663 0.8563208677481147
12648761333.333334 -0.5082819799691156 0.8611907041059547 2.1924690736800338e-17 -8.988891900994541e-17 2.1924690736800338e-17 -8.988891900994541e-17 -0.5082825387814263 0.8611903742899952
12649378666.666666 -0.5000744444444905 0.8659824189978507 2.1057313059430255e-17 -9.007750823819933e-17 2.1057313059430255e-17 -9.007750823819933e-17 -0.5000750063386425 0.8659820945234611
12649996000.0 -0.49182174011232654 0.8706959147444748 2.0188336107285185e-17 -9.025773415898093e-17 2.0188336107285185e-17 -9.025773415898093e-17 -0.49182230503726937 0.8706955956404406
12650613333.333334 -0.4835246123912846 0.8753307656033188 1.9317840458713214e-17 -9.042958345475934e-17 1.9317840458713214e-17 -9.042958345475934e-17 -0.4835251802956984 0.8753304518979372
12651230666.666666 -0.47518381071270444 0.8798865529353127 1.8445906800313435e-17 -9.059304358377067e-17 1.8445906800313435e-17 -9.059304358377067e-17 -0.4751843815450054 0.8798862446563903
12651848000.0 -0.46680008845251486 0.8843628652428579 1.757261591945732e-17 -9.074810278087153e-17 1.757261591945732e-17 -9.074810278087153e-17 -0.4668006621608598 0.8843625624177089
12652465333.333334 -0.4583742028634842 0.8887592982068313 1.6698048696837313e-17 -9.089475005831419e-17 1.6698048696837313e-17 -9.089475005831419e-17 -0.45837477939577503 0.8887590008622743
12653082666.666666 -0.449906915006898 0.893075454723065 1.5822286099002074e-17 -9.103297520645221e-17 1.5822286099002074e-17 -9.103297520645221e-17 -0.44990749431078725 0.8930751628854218
12653700000.0 -0.441398989683415 0.8973109449384279 1.4945409170834957e-17 -9.116276879438271e-17 1.4945409170834957e-17 -9.116276879438271e-17 -0.44139957170630945 0.8973106586335197
12654317333.333334 -0.43285119536441485 0.9014653862858141 1.4067499028113714e-17 -9.12841221705026e-17 1.4067499028113714e-17 -9.12841221705026e-17 -0.43285178005348074 0.9014651055389592
12654934666.666666 -0.4242643041224105 0.9055384035187909 1.3188636850004337e-17 -9.13970274630032e-17 1.3188636850004337e-17 -9.13970274630032e-17 -0.42426489142457935 0.9055381283548054
12655552000.0 -0.41563909156115847 0.9095296287455672 1.2308903871554534e-17 -9.150147758029168e-17 1.2308903871554534e-17 -9.150147758029168e-17 -0.4156396814231298 0.9095293591887581
12656169333.333334 -0.40697633674590783 0.913438701462071 1.1428381376231885e-17 -9.159746621133486e-17 1.1428381376231885e-17 -9.159746621133486e-17 -0.4069769291141561 0.9134384375362385
12656786666.666666 -0.3982768221328565 0.9172652685846052 1.0547150688410983e-17 -9.168498782593739e-17 1.0547150688410983e-17 -9.168498782593739e-17 -0.398277416953634 0.9172650103130363
12657404000.0 -0.38954133349844544 0.9210089844817415 9.665293165875349e-18 -9.176403767494606e-17 9.665293165875349e-18 -9.176403767494606e-17 -0.3895419307177893 0.9210087318872121
12658021333.333334 -0.38077065986841274 0.9246695110055312 8.782890192324407e-18 -9.183461179038112e-17 8.782890192324407e-18 -9.183461179038112e-17 -0.3807712594321485 0.9246692641103027
12658638666.666666 -0.37196559344673485 0.9282465175219626 7.90002316989932e-18 -9.1896706985495e-17 7.90002316989932e-18 -9.1896706985495e-17 -0.37196619530048153 0.928246276347779
12659256000.0 -0.36312692954365194 0.9317396809409988 7.016773511647343e-18 -9.195032085476401e-17 7.016773511647343e-18 -9.195032085476401e-17 -0.36312753363282635 0.9317394455090834
12659873333.333334 -0.35425546650414436 0.9351486857456225 6.133222634063835e-18 -9.199545177380176e-17 6.133222634063835e-18 -9.199545177380176e-17 -0.3542560727739676 0.9351484560766805
12660490666.666666 -0.34535200563590696 0.938473224020318 5.249451949597763e-18 -9.203209889920492e-17 5.249451949597763e-18 -9.203209889920492e-17 -0.3453526140314081 0.9384730001345306
12661108000.0 -0.3364173511365452 0.9417129954790394 4.365542859149943e-18 -9.206026216832649e-17 4.365542859149943e-18 -9.206026216832649e-17 -0.3364179616025667 0.9417127773960635
12661725333.333334 -0.3274523100213878 0.9448677074921609 3.481576744611941e-18 -9.207994229897631e-17 3.481576744611941e-18 -9.207994229897631e-17 -0.32745292250259067 0.944867495231128
12662342666.666666 -0.31845769205038266 0.947937075112994 2.5976349613677545e-18 -9.209114078905149e-17 2.5976349613677545e-18 -9.209114078905149e-17 -0.3184583064912514 0.9479368686925084
12662960000.0 -0.3094343096549277 0.9509208211035302 1.7137988308427068e-18 -9.209385991609307e-17 1.7137988308427068e-18 -9.209385991609307e-17 -0.309434925999775 0.9509206205416662
12663577333.333334 -0.3003829778645423 0.9538186759594629 8.30149633019169e-19 -9.208810273677413e-17 8.30149633019169e-19 -9.208810273677413e-17 -0.3003835960575145 0.9538184812737638
12664194666.666666 -0.29130451423333226 0.9566303779345061 -5.32314010122682e-20 -9.207387308631351e-17 -5.32314010122682e-20 -9.207387308631351e-17 -0.29130513421841375 0.9566301891419825
12664812000.0 -0.28219973876598164 0.9593556730640869 -9.362630965098777e-19 -9.205117557782006e-17 -9.362630965098777e-19 -9.205117557782006e-17 -0.282200360487001 0.9593554901812158
12665429333.333334 -0.27306947384374036 0.961994315188264 -1.8188643425167215e-18 -9.202001560156469e-17 -1.8188643425167215e-18 -9.202001560156469e-17 -0.27307009724437487 0.9619941382309882
12666046666.666666 -0.2639145441503637 0.9645460659739076 -2.700954099298293e-18 -9.198039932418246e-17 -2.700954099298293e-18 -9.198039932418246e-17 -0.26391516917414365 0.9645458949576307
12666664000.0 -0.25473577659715574 0.9670106949363482 -3.582451405788968e-18 -9.193233368780075e-17 -3.582451405788968e-18 -9.193233368780075e-17 -0.2547364031874715 0.9670105298759385
12667281333.333334 -0.24553400024874728 0.9693879794600725 -4.463275386963023e-18 -9.187582640910126e-17 -4.463275386963023e-18 -9.187582640910126e-17 -0.24553462834885267 0.9693878203698583
12667898666.666666 -0.23631004624801855 0.9716777048188833 -5.3433452612810736e-18 -9.181088597830598e-17 -5.3433452612810736e-18 -9.181088597830598e-17 -0.23631067580103637 0.971677551712651
12668516000.0 -0.22706474774086108 0.9738796641953326 -6.222580348075345e-18 -9.17375216580948e-17 -6.222580348075345e-18 -9.17375216580948e-17 -0.22706537868978857 0.9738795170863269
12669133333.333334 -0.21779893980125542 0.9759936586993194 -7.100900074899393e-18 -9.165574348245492e-17 -7.100900074899393e-18 -9.165574348245492e-17 -0.21779957208896947 0.9759935176002434
12669750666.666666 -0.2085134593556515 0.9780194973861069 -7.978223984937975e-18 -9.156556225545443e-17 -7.978223984937975e-18 -9.156556225545443e-17 -0.2085140929249135 0.9780193623091186
12670368000.0 -0.19920914510731752 0.9799569972735774 -8.854471744340836e-18 -9.146698954994961e-17 -8.854471744340836e-18 -9.146698954994961e-17 -0.19920977990077884 0.9799568682302902
