! Parameters = {f0=12700.012000; bw=77.238000; Q=6100.000000; N=10; m_0_1=1.238333; m_1_1=-0.189746; m_1_2=1.073145; m_2_2=-0.190395; m_2_3=0.710108; m_2_8=-0.001020; m_2_9=0.035684; m_3_3=-0.192332; m_3_4=0.598637; m_3_7=-0.000420; m_3_8=-0.097508; m_3_9=-0.001020; m_4_4=-0.195257; m_4_5=0.434972; m_4_6=0.003097; m_4_7=-0.118057; m_4_8=-0.000420; m_5_5=-0.194875; m_5_6=0.842327; m_5_7=0.003097; m_6_6=-0.194876; m_6_7=0.435314; m_7_7=-0.195243; m_7_8=0.598755; m_8_8=-0.192334; m_8_9=0.710421; m_9_9=-0.190400; m_9_10=1.074223; m_10_10=-0.189756; m_10_11=1.239128}
!
! Created with skrf (http://scikit-rf.org).
# Hz S RI R 50.0 
!freq ReS11 ImS11 ReS21 ImS21 ReS12 ImS12 ReS22 ImS22
12607400000.0 0.4997619687987235 0.8661627875533876 -6.89192415994334e-17 -6.543402817648453e-17 -6.89192415994334e-17 -6.543402817648453e-17 0.49976140364110944 0.8661631136399773
12608017333.333334 0.5080426029386387 0.8613319415876589 -6.953549082101845e-17 -6.475146490087028e-17 -6.953549082101845e-17 -6.475146490087028e-17 0.5080420409605915 0.8613322730609998
12608634666.666666 0.5162765449259299 0.8564219340717381 -7.014498845156844e-17 -6.40631066106264e-17 -7.014498845156844e-17 -6.40631066106264e-17 0.5162759861787857 0.8564222709008414
12609252000.0 0.5244630380122217 0.8514332162646837 -7.074768008309656e-17 -6.33690200096127e-17 -7.074768008309656e-17 -6.33690200096127e-17 0.5244624825470133 0.851433558418069
12609869333.333334 0.5326013298099255 0.8463662466595243 -7.134351196587612e-17 -6.266927231165299e-17 -7.134351196587612e-17 -6.266927231165299e-17 0.5326007776773802 0.8463665941052269
12610486666.666666 0.5406906723613457 0.8412214909411597 -7.193243101319828e-17 -6.196393123406288e-17 -7.193243101319828e-17 -6.196393123406288e-17 0.5406901236118787 0.8412218436467301
12611104000.0 0.5487303222077553 0.8359994219433441 -7.251438480611052e-17 -6.125306499107924e-17 -7.251438480611052e-17 -6.125306499107924e-17 0.548729776891466 0.8359997798758526
12611721333.333334 0.5567195404572209 0.8307005196055512 -7.308932159802225e-17 -6.053674228732873e-17 -7.308932159802225e-17 -6.053674228732873e-17 0.5567189986238888 0.830700882731592
12612338666.666666 0.5646575928529434 0.8253252709285908 -7.3657190319314e-17 -5.981503231116977e-17 -7.3657190319314e-17 -5.981503231116977e-17 0.564657054552023 0.8253256392142839
12612956000.0 0.5725437498405472 0.8198741699299705 -7.421794058183686e-17 -5.90880047280458e-17 -7.421794058183686e-17 -5.90880047280458e-17 0.5725432151211626 0.8198745433409639
12613573333.333334 0.5803772866351083 0.8143477175985104 -7.477152268335922e-17 -5.835572967378269e-17 -7.477152268335922e-17 -5.835572967378269e-17 0.5803767555460507 0.8143480960999859
12614190666.666666 0.5881574832878144 0.8087464218482686 -7.53178876119515e-17 -5.761827774783744e-17 -7.53178876119515e-17 -5.761827774783744e-17 0.5881569558775368 0.8087468054049437
12614808000.0 0.5958836247522014 0.8030707974718108 -7.58569870503072e-17 -5.687572000650492e-17 -7.58569870503072e-17 -5.687572000650492e-17 0.5958831010688134 0.803071186047941
12615425333.333334 0.6035550009497096 0.7973213660930136 -7.638877337998014e-17 -5.612812795610507e-17 -7.638877337998014e-17 -5.612812795610507e-17 0.6035544810409734 0.7973217596523964
12616042666.666666 0.6111709068351245 0.7914986561189883 -7.691319968557941e-17 -5.53755735460991e-17 -7.691319968557941e-17 -5.53755735460991e-17 0.6111703907484514 0.7914990546249676
12616660000.0 0.6187306424611971 0.7856032026916558 -7.743021975887111e-17 -5.461812916220113e-17 -7.743021975887111e-17 -5.461812916220113e-17 0.6187301302436421 0.7856036061071245
12617277333.333334 0.6262335130431727 0.7796355476384071 -7.793978810283936e-17 -5.385586761941493e-17 -7.793978810283936e-17 -5.385586761941493e-17 0.6262330047414305 0.77963595592581
12617894666.666666 0.6336788290223567 0.7735962394225342 -7.84418599356448e-17 -5.3088862155081384e-17 -7.84418599356448e-17 -5.3088862155081384e-17 0.6336783246827583 0.7735966525438727
12618512000.0 0.6410659061299117 0.7674858330924869 -7.893639119456365e-17 -5.231718642181836e-17 -7.893639119456365e-17 -5.231718642181836e-17 0.6410654057984181 0.7674862510093207
12619129333.333334 0.6483940654492569 0.7613048902312511 -7.942333853979612e-17 -5.15409144805159e-17 -7.942333853979612e-17 -5.15409144805159e-17 0.6483935691714579 0.7613053129047046
12619746666.666666 0.6556626334788648 0.7550539789044168 -7.990265935826539e-17 -5.076012079320637e-17 -7.990265935826539e-17 -5.076012079320637e-17 0.6556621412999726 0.7550544062951804
12620364000.0 0.6628709421939817 0.7487336736081097 -8.037431176730846e-17 -4.9974880215958146e-17 -8.037431176730846e-17 -4.9974880215958146e-17 0.6628704541588266 0.7487341056764434
12620981333.333334 0.6700183291080012 0.7423445552162112 -8.083825461830804e-17 -4.918526799171986e-17 -8.083825461830804e-17 -4.918526799171986e-17 0.670017845261029 0.7423449919219499
12621598666.666666 0.677104137333397 0.7358872109269389 -8.129444750025823e-17 -4.839135974312405e-17 -8.129444750025823e-17 -4.839135974312405e-17 0.6771036577186645 0.735887652229495
12622216000.0 0.6841277156421555 0.7293622342088181 -8.174285074325976e-17 -4.7593231465258205e-17 -8.174285074325976e-17 -4.7593231465258205e-17 0.684127240303326 0.7293626800671857
12622833333.333334 0.691088418525502 0.7227702247462562 -8.218342542194041e-17 -4.6790959518410664e-17 -8.218342542194041e-17 -4.6790959518410664e-17 0.6910879475058415 0.7227706751190145
12623450666.666666 0.6979856062533101 0.7161117883843492 -8.261613335879651e-17 -4.598462062079919e-17 -8.261613335879651e-17 -4.598462062079919e-17 0.6979851395956839 0.7161122432296672
12624068000.0 0.7048186449328382 0.7093875370732632 -8.304093712748868e-17 -4.517429184122478e-17 -8.304093712748868e-17 -4.517429184122478e-17 0.7048181826797054 0.7093879963489015
12624685333.333334 0.7115869065671654 0.7025980888118079 -8.345780005604003e-17 -4.436005059173941e-17 -8.345780005604003e-17 -4.436005059173941e-17 0.7115864487605775 0.7025985524751258
12625302666.666666 0.718289769112548 0.6957440675910038 -8.386668622997072e-17 -4.3541974620273776e-17 -8.386668622997072e-17 -4.3541974620273776e-17 0.7182893157941431 0.6957445355989608
12625920000.0 0.7249266165360501 0.6888261033362679 -8.426756049536981e-17 -4.272014200321404e-17 -8.426756049536981e-17 -4.272014200321404e-17 0.7249261677470502 0.6888265756454286
12626537333.333334 0.7314968388717225 0.6818448318499675 -8.466038846188065e-17 -4.189463113798286e-17 -8.466038846188065e-17 -4.189463113798286e-17 0.7314963946529286 0.6818453084165049
12627154666.666666 0.7379998322769383 0.6748008947526988 -8.5045136505617e-17 -4.1065520735582824e-17 -8.5045136505617e-17 -4.1065520735582824e-17 0.7379993926687287 0.6748013755324003
12627772000.0 0.744434999087852 0.6676949394243618 -8.542177177202614e-17 -4.023288981307539e-17 -8.542177177202614e-17 -4.023288981307539e-17 0.744434564130176 0.6676954243726303
12628389333.333334 0.75080174787421 0.6605276189447828 -8.579026217863662e-17 -3.9396817686121084e-17 -8.579026217863662e-17 -3.9396817686121084e-17 0.7508013176065857 0.6605281080166433
12629006666.666666 0.7570994934938412 0.653299592033549 -8.615057641778406e-17 -3.855738396138534e-17 -8.615057641778406e-17 -3.855738396138534e-17 0.7570990679553532 0.6533000851836527
12629624000.0 0.7633276571463792 0.6460115229895306 -8.650268395921668e-17 -3.7714668529022586e-17 -8.650268395921668e-17 -3.7714668529022586e-17 0.7633272363756723 0.646012020172157
12630241333.333334 0.7694856664264182 0.638664081629869 -8.6846555052663e-17 -3.686875155505594e-17 -8.6846555052663e-17 -3.686875155505594e-17 0.7694852504616959 0.638664582798932
12630858666.666666 0.7755729553761608 0.6312579432283769 -8.718216073029583e-17 -3.6019713473802935e-17 -8.718216073029583e-17 -3.6019713473802935e-17 0.7755725442551809 0.631258448337429
12631476000.0 0.7815889645374845 0.6237937884534094 -8.750947280915615e-17 -3.516763498019752e-17 -8.750947280915615e-17 -3.516763498019752e-17 0.7815885582975561 0.6237942974556445
12632093333.333334 0.7875331410032684 0.6162723033054132 -8.782846389346235e-17 -3.431259702218999e-17 -8.782846389346235e-17 -3.431259702218999e-17 0.7875327396812487 0.6162728161536732
12632710666.666666 0.7934049384681786 0.6086941790539306 -8.813910737687955e-17 -3.345468079303908e-17 -8.813910737687955e-17 -3.345468079303908e-17 0.793404542100469 0.6086946957007081
12633328000.0 0.7992038172791006 0.6010601121737721 -8.844137744469742e-17 -3.259396772362648e-17 -8.844137744469742e-17 -3.259396772362648e-17 0.7992034259016435 0.6010606325712151
12633945333.333334 0.80492924448444 0.5933708042813876 -8.87352490759344e-17 -3.1730539474749725e-17 -8.87352490759344e-17 -3.1730539474749725e-17 0.8049288581327165 0.5933713283813048
12634562666.666666 0.8105806938833332 0.5856269620700946 -8.902069804537032e-17 -3.0864477929386487e-17 -8.902069804537032e-17 -3.0864477929386487e-17 0.8105803125923572 0.5856274898239576
12635180000.0 0.8161576460738478 0.5778292972453271 -8.92977009254984e-17 -2.999586518495625e-17 -8.92977009254984e-17 -2.999586518495625e-17 0.8161572698781668 0.5778298286042782
12635797333.333334 0.8216595885008774 0.569978526459026 -8.956623508841265e-17 -2.912478354553461e-17 -8.956623508841265e-17 -2.912478354553461e-17 0.8216592174345662 0.56997906137388
12636414666.666666 0.8270860155030437 0.5620753712440465 -8.982627870760241e-17 -2.8251315514102064e-17 -8.982627870760241e-17 -2.8251315514102064e-17 0.8270856495997027 0.5620759096652963
12637032000.0 0.832436428359404 0.5541205579475227 -9.007781075969284e-17 -2.7375543784710948e-17 -9.007781075969284e-17 -2.7375543784710948e-17 0.8324360676521555 0.5541210998253441
12637649333.333334 0.8377103353350867 0.54611481766439 -9.032081102608846e-17 -2.6497551234703977e-17 -9.032081102608846e-17 -2.6497551234703977e-17 0.8377099798565737 0.5461153629486464
12638266666.666666 0.842907251726635 0.5380588861699845 -9.055526009455764e-17 -2.5617420916864976e-17 -9.055526009455764e-17 -2.5617420916864976e-17 0.8429069015090149 0.5380594348102304
12638884000.0 0.8480266999064227 0.5299535038526072 -9.078113936072765e-17 -2.473523605159979e-17 -9.078113936072765e-17 -2.473523605159979e-17 0.8480263549813672 0.529954055798094
12639501333.333334 0.853068209366692 0.5217994156452646 -9.09984310295164e-17 -2.385108001906095e-17 -9.09984310295164e-17 -2.385108001906095e-17 0.8530678697653826 0.5217999708449441
12640118666.666666 0.8580313167625848 0.513597370957541 -9.120711811647166e-17 -2.296503635131975e-17 -9.120711811647166e-17 -2.296503635131975e-17 0.8580309825157124 0.5135979293600726
12640736000.0 0.8629155659550843 0.5053481236061446 -9.140718444905903e-17 -2.2077188724428788e-17 -9.140718444905903e-17 -2.2077188724428788e-17 0.8629152370928423 0.5053486851598965
12641353333.333334 0.8677205080524618 0.4970524317464005 -9.15986146678379e-17 -2.1187620950619492e-17 -9.15986146678379e-17 -2.1187620950619492e-17 0.8677201846045491 0.49705299639945855
12641970666.666666 0.8724457014519647 0.48871105780187063 -9.178139422759904e-17 -2.029641697033146e-17 -9.178139422759904e-17 -2.029641697033146e-17 0.8724453834475762 0.4887116255020386
12642588000.0 0.8770907118801311 0.4803247683947169 -9.195550939839596e-17 -1.940366084435503e-17 -9.195550939839596e-17 -1.940366084435503e-17 0.877090399347961 0.4803253390895252
12643205333.333334 0.8816551124328393 0.4718943342750272 -9.212094726651723e-17 -1.85094367458956e-17 -9.212094726651723e-17 -1.85094367458956e-17 0.8816548054010753 0.4718949079117355
12643822666.666666 0.8861384836144817 0.463420530250075 -9.227769573537285e-17 -1.761382895266417e-17 -9.227769573537285e-17 -1.761382895266417e-17 0.8861381821108029 0.4634211067756778
12644440000.0 0.8905404133765601 0.4549041351130357 -9.242574352630902e-17 -1.671692183894307e-17 -9.242574352630902e-17 -1.671692183894307e-17 0.8905401174281359 0.45490471447426767
12645057333.333334 0.8948604971554645 0.44634593157158725 -9.256508017934044e-17 -1.5818799867671943e-17 -9.256508017934044e-17 -1.5818799867671943e-17 0.8948602067889503 0.44634651371492723
12645674666.666666 0.899098337909761 0.4377467061757741 -9.269569605381328e-17 -1.491954758248917e-17 -9.269569605381328e-17 -1.491954758248917e-17 0.8990980531512963 0.4377472910474503
12646292000.0 0.9032535461566756 0.42910724924571486 -9.281758232898633e-17 -1.401924959979233e-17 -9.281758232898633e-17 -1.401924959979233e-17 0.9032532670318838 0.4291078367917109
12646909333.333334 0.9073257400077711 0.4204283547992254 -9.293073100453416e-17 -1.3117990600805705e-17 -9.293073100453416e-17 -1.3117990600805705e-17 0.9073254665417542 0.4204289449652837
12647526666.666666 0.911314545204192 0.4117108204785362 -9.303513490097654e-17 -1.2215855323626305e-17 -9.303513490097654e-17 -1.2215855323626305e-17 0.9113142774215284 0.41171141321016363
12648144000.0 0.9152195951510191 0.4029554474770591 -9.313078766003151e-17 -1.1312928555257047e-17 -9.313078766003151e-17 -1.1312928555257047e-17 0.9152193330757644 0.40295604271953245
12648761333.333334 0.9190405309508954 0.3941630404659091 -9.321768374488695e-17 -1.040929512367284e-17 -9.321768374488695e-17 -1.040929512367284e-17 0.9190402746065769 0.39416363816427935
12649378666.666666 0.9227770014370326 0.385334407519899 -9.329581844039748e-17 -9.50503988987545e-18 -9.329581844039748e-17 -9.50503988987545e-18 0.92277675084665 0.38533500761899725
12649996000.0 0.9264286632055805 0.3764703600430646 -9.336518785320848e-17 -8.600247739908593e-18 -9.336518785320848e-17 -8.600247739908593e-18 0.9264284183916011 0.3764709624875063
12650613333.333334 0.9299951806470684 0.36757171269435074 -9.34257889117959e-17 -7.695003576934705e-18 -9.34257889117959e-17 -7.695003576934705e-18 0.9299949416314284 0.36757231742854196
12651230666.666666 0.9334762259773036 0.3586392833126384 -9.347761936643467e-17 -6.789392313273534e-18 -9.347761936643467e-17 -6.789392313273534e-18 0.9334759927814016 0.3586398902807792
12651848000.0 0.936871479267508 0.34967389284152334 -9.352067778908815e-17 -5.883498862448181e-18 -9.352067778908815e-17 -5.883498862448181e-18 0.9368712519122072 0.3496745019876145
12652465333.333334 0.9401806284737145 0.3406763652538948 -9.355496357322084e-17 -4.977408131242152e-18 -9.355496357322084e-17 -4.977408131242152e-18 0.9401804069793398 0.3406769765217424
12653082666.666666 0.943403369465368 0.33164752747642073 -9.35804769335337e-17 -4.071205011778772e-18 -9.35804769335337e-17 -4.071205011778772e-18 0.9434031538517038 0.3316481408096416
12653700000.0 0.9465394060534515 0.32258820931306786 -9.359721890562536e-17 -3.1649743735358746e-18 -9.359721890562536e-17 -3.1649743735358746e-18 0.9465391963397384 0.322588824655094
12654317333.333334 0.9495884500174957 0.3134992433694254 -9.360519134557295e-17 -2.2588010554721574e-18 -9.360519134557295e-17 -2.2588010554721574e-18 0.9495882462224314 0.3134998606635101
12654934666.666666 0.9525502211322394 0.30438146497570234 -9.360439692943952e-17 -1.3527698580530292e-18 -9.360439692943952e-17 -1.3527698580530292e-18 0.9525500232739748 0.30438208416492457
12655552000.0 0.9554244471933063 0.29523571211016875 -9.359483915270279e-17 -4.469655353523553e-19 -9.359483915270279e-17 -4.469655353523553e-19 0.9554242552894457 0.2952363331374393
12656169333.333334 0.9582108640422168 0.286062825322169 -9.357652232960895e-17 4.585272128569965e-19 -9.357652232960895e-17 4.585272128569965e-19 0.958210678109816 0.2860634481302353
12656786666.666666 0.9609092155906833 0.27686364765481614 -9.354945159244909e-17 1.3636237490124368e-18 -9.354945159244909e-17 1.3636237490124368e-18 0.9609090356462475 0.27686427218626763
12657404000.0 0.9635192538441713 0.26763902456742966 -9.351363289075996e-17 2.2682395056646757e-18 -9.351363289075996e-17 2.2682395056646757e-18 0.9635190799036523 0.2676396507647024
12658021333.333334 0.9660407389246376 0.2583898038579946 -9.346907299044824e-17 3.172289993347171e-18 -9.346907299044824e-17 3.172289993347171e-18 0.9660405710034367 0.25839043166337816
12658638666.666666 0.9684734390926097 0.24911683558516484 -9.341577947283963e-17 4.075690808459167e-18 -9.341577947283963e-17 4.075690808459167e-18 0.9684732772055711 0.2491174649408059
12659256000.0 0.9708171307684921 0.23982097199008057 -9.33537607336502e-17 4.978357641134905e-18 -9.33537607336502e-17 4.978357641134905e-18 0.9708169749299045 0.23982160283798906
12659873333.333334 0.9730715985531047 0.23050306741806925 -9.328302598188363e-17 5.88020628309041e-18 -9.328302598188363e-17 5.88020628309041e-18 0.9730714487767012 0.23050369970012405
12660490666.666666 0.9752366352474339 0.22116397824034936 -9.32035852386534e-17 6.78115263545511e-18 -9.32035852386534e-17 6.78115263545511e-18 0.9752364915463869 0.22116461189830267
12661108000.0 0.9773120418717857 0.21180456277482457 -9.311544933592597e-17 7.68111271661655e-18 -9.311544933592597e-17 7.68111271661655e-18 0.9773119042587098 0.21180519775030832
12661725333.333334 0.9792976276839372 0.20242568120781024 -9.301862991519351e-17 8.58000267001415e-18 -9.301862991519351e-17 8.58000267001415e-18 0.9792974961708856 0.20242631744234071
12662342666.666666 0.9811932101967835 0.19302819551444925 -9.291313942606745e-17 9.477738771944555e-18 -9.291313942606745e-17 9.477738771944555e-18 0.9811930847952473 0.19302883294943274
12662960000.0 0.9829986151950302 0.18361296937985278 -9.279899112479791e-17 1.037423743935158e-17 -9.279899112479791e-17 1.037423743935158e-17 0.9829984959159382 0.18361360795659104
12663577333.333334 0.984713676751258 0.17418086811947184 -9.267619907272079e-17 1.1269415237573546e-17 -9.267619907272079e-17 1.1269415237573546e-17 0.9847135636049754 0.17418150777916744
12664194666.666666 0.9863382372411289 0.16473275859979317 -9.254477813462558e-17 1.2163188888113269e-17 -9.254477813462558e-17 1.2163188888113269e-17 0.986338130237455 0.1647333992835546
12664812000.0 0.9878721473579107 0.15526950915844437 -9.240474397705364e-17 1.305547527634823e-17 -9.240474397705364e-17 1.305547527634823e-17 0.9878720465060822 0.15527015080729234
12665429333.333334 0.9893152661261708 0.14579198952458602 -9.225611306651686e-17 1.3946191459267205e-17 -9.225611306651686e-17 1.3946191459267205e-17 0.9893151714348557 0.14579263207945783
12666046666.666666 0.9906674609147439 0.1363010707388933 -9.209890266764978e-17 1.4835254673129998e-17 -9.209890266764978e-17 1.4835254673129998e-17 0.990667372392043 0.13630171414064873
12666664000.0 0.9919286074489311 0.12679762507341766 -9.19331308412751e-17 1.5722582341191274e-17 -9.19331308412751e-17 1.5722582341191274e-17 0.9919285251023793 0.1267982692628447
12667281333.333334 0.9930985898219012 0.11728252595158918 -9.175881644241284e-17 1.6608092081296632e-17 -9.175881644241284e-17 1.6608092081296632e-17 0.993098513658464 0.11728317086940906
12667898666.666666 0.9941773005053526 0.10775664786788745 -9.157597911819893e-17 1.7491701713562103e-17 -9.157597911819893e-17 1.7491701713562103e-17 0.9941772305314271 0.10775729345476032
12668516000.0 0.9951646403594174 0.09822086630724405 -9.138463930574083e-17 1.8373329267963678e-17 -9.138463930574083e-17 1.8373329267963678e-17 0.9951645765808311 0.09822151250377427
12669133333.333334 0.9960605186417224 0.08867605766506066 -9.118481822989862e-17 1.9252892991922717e-17 -9.118481822989862e-17 1.9252892991922717e-17 0.9960604610637326 0.08867670441180238
12669750666.666666 0.9968648530157824 0.0791230991661545 -9.097653790099078e-17 2.013031135787579e-17 -9.097653790099078e-17 2.013031135787579e-17 0.9968648016430767 0.0791237464036171
12670368000.0 0.9975775695585322 0.06956286878447512 -9.075982111242591e-17 2.100550307082554e-17 -9.075982111242591e-17 2.100550307082554e-17 0.997577524395227 0.06956351645312872
12670985333.333334 0.9981986027671361 0.05999624516227237 -9.053469143827188e-17 2.187838707582834e-17 -9.053469143827188e-17 2.187838707582834e-17 0.9981985638167766 0.05999689320255322
