! Parameters = {f0=12700.012000; bw=77.238000; Q=6100.000000; N=10; m_0_1=1.322017; m_1_1=1.065510; m_1_2=1.156829; m_2_2=1.064861; m_2_3=0.793792; m_2_8=0.003165; m_2_9=0.039869; m_3_3=1.062924; m_3_4=0.682321; m_3_7=0.003765; m_3_8=-0.093323; m_3_9=0.003165; m_4_4=1.059999; m_4_5=0.518656; m_4_6=0.007282; m_4_7=-0.113872; m_4_8=0.003765; m_5_5=1.060381; m_5_6=0.926011; m_5_7=0.007282; m_6_6=1.060380; m_6_7=0.518998; m_7_7=1.060013; m_7_8=0.682439; m_8_8=1.062922; m_8_9=0.794105; m_9_9=1.064856; m_9_10=1.157907; m_10_10=1.065500; m_10_11=1.322812}
!
! Created with skrf (http://scikit-rf.org).
# Hz S RI R 50.0 
!freq ReS11 ImS11 ReS21 ImS21 ReS12 ImS12 ReS22 ImS22
12607400000.0 0.7272027685244331 0.6864227075572377 -1.2534406648270417e-16 -6.344191712910202e-17 -1.2534406648270417e-16 -6.344191712910202e-17 0.7272022904866882 0.6864232139946342
12608017333.333334 0.7354284219256646 0.6776024175161522 -1.2608088564162143e-16 -6.190229473388502e-17 -1.2608088564162143e-16 -6.190229473388502e-17 0.7354279500536345 0.6776029296569769
12608634666.666666 0.7435471007229041 0.6686835641814239 -1.2679880601713342e-16 -6.035413805486164e-17 -1.2679880601713342e-16 -6.035413805486164e-17 0.7435466350846183 0.6686840819506252
12609252000.0 0.751557623982216 0.6596674448796261 -1.2749772905397793e-16 -5.879767892108849e-17 -1.2749772905397793e-16 -5.879767892108849e-17 0.7515571646447929 0.6596679682013433
12609869333.333334 0.7594588265018725 0.6505553710855116 -1.2817755903887173e-16 -5.72331502960213e-17 -1.2817755903887173e-16 -5.72331502960213e-17 0.7594583735315066 0.650555899883083
12610486666.666666 0.7672495589817444 0.6413486682313507 -1.2883820311351073e-16 -5.566078624271952e-17 -1.2883820311351073e-16 -5.566078624271952e-17 0.7672491124436979 0.6413492024273257
12611104000.0 0.7749286881906837 0.6320486755138995 -1.2947957128718711e-16 -5.408082188880346e-17 -1.2947957128718711e-16 -5.408082188880346e-17 0.7749282481492769 0.6320492150300498
12611721333.333334 0.7824950971311027 0.6226567456999035 -1.3010157644889993e-16 -5.249349339144716e-17 -1.3010157644889993e-16 -5.249349339144716e-17 0.7824946636497041 0.622657290457235
12612338666.666666 0.789947685201636 0.6131742449291115 -1.3070413437911263e-16 -5.089903790205763e-17 -1.3070413437911263e-16 -5.089903790205763e-17 0.7899472583426539 0.6131747948478748
12612956000.0 0.7972853683572271 0.6036025525155517 -1.312871637610459e-16 -4.9297693530893634e-17 -1.312871637610459e-16 -4.9297693530893634e-17 0.797284948182101 0.6036031075152554
12613573333.333334 0.8045070792666591 0.5939430607471043 -1.3185058619151487e-16 -4.7689699311624964e-17 -1.3185058619151487e-16 -4.7689699311624964e-17 0.8045066658358503 0.5939436207465252
12614190666.666666 0.8116117674679796 0.5841971746827539 -1.323943261913845e-16 -4.607529516562725e-17 -1.323943261913845e-16 -4.607529516562725e-17 0.8116113608409619 0.5841977395999499
12614808000.0 0.8185983995212115 0.5743663119483238 -1.3291831121554803e-16 -4.445472186627172e-17 -1.3291831121554803e-16 -4.445472186627172e-17 0.8185979997564646 0.5743668817006459
12615425333.333334 0.8254659591586987 0.5644519025302496 -1.334224716624857e-16 -4.2828221003058795e-17 -1.334224716624857e-16 -4.2828221003058795e-17 0.8254655663136969 0.5644524770343528
12616042666.666666 0.8322134474329244 0.5544553885675713 -1.3390674088338169e-16 -4.119603494565231e-17 -1.3390674088338169e-16 -4.119603494565231e-17 0.8322130615641306 0.5544559677394277
12616660000.0 0.8388398828618208 0.5443782241421633 -1.343710551908016e-16 -3.955840680781682e-17 -1.343710551908016e-16 -3.955840680781682e-17 0.8388395040246781 0.5443788078970753
12617277333.333334 0.8453443015715654 0.5342218750671781 -1.3481535386693733e-16 -3.791558041123248e-17 -1.3481535386693733e-16 -3.791558041123248e-17 0.845343929820488 0.5342224633197886
12617894666.666666 0.8517257574366293 0.5239878186740684 -1.3523957917138603e-16 -3.626780024930369e-17 -1.3523957917138603e-16 -3.626780024930369e-17 0.8517253928249964 0.5239884113383755
12618512000.0 0.8579833222177381 0.51367754359717 -1.3564367634853245e-16 -3.4615311450722005e-17 -1.3564367634853245e-16 -3.4615311450722005e-17 0.8579829647978839 0.5136781405865374
12619129333.333334 0.8641160856964651 0.5032925495578384 -1.3602759363443028e-16 -3.295835974316065e-17 -1.3602759363443028e-16 -3.295835974316065e-17 0.8641157355196736 0.5032931507850099
12619746666.666666 0.8701231558079359 0.4928343471458216 -1.3639128226328924e-16 -3.1297191416706405e-17 -1.3639128226328924e-16 -3.1297191416706405e-17 0.8701228129244326 0.4928349525229334
12620364000.0 0.8760036587705767 0.4823044575995243 -1.367346964734966e-16 -2.963205328729972e-17 -1.367346964734966e-16 -2.963205328729972e-17 0.8760033232295217 0.48230506703811743
12620981333.333334 0.8817567392129654 0.4717044125851786 -1.3705779351317856e-16 -2.7963192660181554e-17 -1.3705779351317856e-16 -2.7963192660181554e-17 0.8817564110624444 0.47170502599621134
12621598666.666666 0.8873815602985269 0.4610357539735509 -1.373605336453476e-16 -2.6290857293134747e-17 -1.373605336453476e-16 -2.6290857293134747e-17 0.8873812395855486 0.46103637126741376
12622216000.0 0.8928773038471273 0.45030003361591564 -1.3764288015257832e-16 -2.4615295359789693e-17 -1.3764288015257832e-16 -2.4615295359789693e-17 0.8928769906176112 0.45030065470244157
12622833333.333334 0.8982431704541172 0.4394988131182446 -1.3790479934124539e-16 -2.2936755412832216e-17 -1.3790479934124539e-16 -2.2936755412832216e-17 0.8982428647528918 0.43949943790672513
12623450666.666666 0.9034783796065678 0.42863366361416333 -1.3814626054531055e-16 -2.1255486347197554e-17 -1.3814626054531055e-16 -2.1255486347197554e-17 0.9034780814773622 0.4286342920133597
12624068000.0 0.9085821697968662 0.4177061655362868 -1.383672361296659e-16 -1.9571737363192773e-17 -1.383672361296659e-16 -1.9571737363192773e-17 0.9085818792823029 0.41770679745444417
12624685333.333334 0.91355379863349 0.4067179083863047 -1.3856770149302593e-16 -1.7885757929604216e-17 -1.3856770149302593e-16 -1.7885757929604216e-17 0.9135535157750798 0.4067185437311651
12625302666.666666 0.9183925429488785 0.3956704905040323 -1.3874763507036604e-16 -1.619779774682716e-17 -1.3874763507036604e-16 -1.619779774682716e-17 0.9183922677870158 0.39567112918284897
12625920000.0 0.9230976989048003 0.38456551883453083 -1.3890701833492606e-16 -1.4508106709853488e-17 -1.3890701833492606e-16 -1.4508106709853488e-17 0.9230974314787553 0.3845661607540808
12626537333.333334 0.927668582094569 0.37340460869472464 -1.39045835799745e-16 -1.2816934871418604e-17 -1.39045835799745e-16 -1.2816934871418604e-17 0.927668322442483 0.3734052537613228
12627154666.666666 0.9321045276426708 0.362189383538286 -1.3916407501876491e-16 -1.1124532404981807e-17 -1.3916407501876491e-16 -1.1124532404981807e-17 0.9321042758015499 0.3621900316577981
12627772000.0 0.9364048903015312 0.3509214747193271 -1.3926172658747729e-16 -9.431149567762292e-18 -1.3926172658747729e-16 -9.431149567762292e-18 0.9364046463072435 0.3509221257971851
12628389333.333334 0.9405690445452323 0.3396025212554782 -1.3933878414311834e-16 -7.737036663832845e-18 -1.3933878414311834e-16 -7.737036663832845e-18 0.9405688084325005 0.33960317519669253
12629006666.666666 0.9445963846606531 0.3282341695890791 -1.3939524436442204e-16 -6.042444007110124e-18 -1.3939524436442204e-16 -6.042444007110124e-18 0.9445961564630491 0.3282348262982527
12629624000.0 0.9484863248354631 0.3168180733479813 -1.3943110697091859e-16 -4.347621884460948e-18 -1.3943110697091859e-16 -4.347621884460948e-18 0.9484861045854043 0.3168187327293238
12630241333.333334 0.9522382992433917 0.30535589310485284 -1.3944637472178815e-16 -2.652820518759666e-18 -1.3944637472178815e-16 -2.652820518759666e-18 0.9522380869721383 0.3053565550621955
12630858666.666666 0.9558517621264843 0.29384929613579697 -1.3944105341426544e-16 -9.58290032016953e-19 -1.3944105341426544e-16 -9.58290032016953e-19 0.9558515578641316 0.293849960572605
12631476000.0 0.9593261878745875 0.2822999561775056 -1.3941515188159632e-16 7.3571959152949125e-19 -1.3941515188159632e-16 7.3571959152949125e-19 0.959325991650062 0.2823006229968928
12632093333.333334 0.9626610711016559 0.2707095531842594 -1.3936868199054823e-16 2.4289585421943496e-18 -1.3936868199054823e-16 2.4289585421943496e-18 0.9626608829427148 0.2707102222890033
12632710666.666666 0.9658559267193765 0.2590797730832411 -1.3930165863847391e-16 4.121177221659304e-18 -1.3930165863847391e-16 4.121177221659304e-18 0.9658557466525988 0.25908044437579564
12633328000.0 0.9689102900077232 0.24741230752927115 -1.3921409974992712e-16 5.81212627973804e-18 -1.3921409974992712e-16 5.81212627973804e-18 0.9689101180585096 0.24741298091178196
12633945333.333334 0.9718237166824996 0.23570885365896188 -1.391060262728369e-16 7.501556651034912e-18 -1.391060262728369e-16 7.501556651034912e-18 0.9718235528750673 0.2357095290332801
12634562666.666666 0.9745957829599992 0.22397111384371673 -1.389774621742338e-16 9.189219591602642e-18 -1.389774621742338e-16 9.189219591602642e-18 0.9745956273173785 0.22397179111141324
12635180000.0 0.9772260856186432 0.21220079544213252 -1.3882843443553454e-16 1.0874866715514547e-17 -1.3882843443553454e-16 1.0874866715514547e-17 0.977225938162675 0.21220147450451257
12635797333.333334 0.9797142420576362 0.2003996105516212 -1.3865897304738196e-16 1.2558250031377545e-17 -1.3865897304738196e-16 1.2558250031377545e-17 0.979714102808968 0.20040029130973858
12636414666.666666 0.9820598903525964 0.18856927575948124 -1.3846911100404618e-16 1.4239121978753007e-17 -1.3846911100404618e-16 1.4239121978753007e-17 0.9820597593306817 0.18856995811415306
12637032000.0 0.9842626893082387 0.1767115118930384 -1.3825888429738001e-16 1.591723546453914e-17 -1.3825888429738001e-16 1.591723546453914e-17 0.9842625665313297 0.17671219574485875
12637649333.333334 0.9863223185079746 0.16482804376944643 -1.380283319103393e-16 1.759234389923093e-17 -1.380283319103393e-16 1.759234389923093e-17 0.9863222039931255 0.16482872901880177
12638266666.666666 0.9882384783605326 0.15292059994477 -1.377774958100614e-16 1.926420123311116e-17 -1.377774958100614e-16 1.926420123311116e-17 0.9882383721235917 0.1529212864918529
12638884000.0 0.9900108901435309 0.14099091246255052 -1.3750642094050755e-16 2.0932561992343858e-17 -1.3750642094050755e-16 2.0932561992343858e-17 0.9900107921991427 0.1409916002073749
12639501333.333334 0.9916392960440271 0.12904071660183694 -1.3721515521466786e-16 2.2597181314972497e-17 -1.3721515521466786e-16 2.2597181314972497e-17 0.9916392064056274 0.12904140544425197
12640118666.666666 0.9931234591959959 0.11707175062494292 -1.3690374950633677e-16 2.4257814986782803e-17 -1.3690374950633677e-16 2.4257814986782803e-17 0.9931233778758112 0.11707244046464804
12640736000.0 0.9944631637148397 0.10508575552415031 -1.3657225764143535e-16 2.591421947716477e-17 -1.3657225764143535e-16 2.591421947716477e-17 0.9944630907238867 0.10508644626070981
12641353333.333334 0.9956582147287103 0.09308447476914308 -1.3622073638894073e-16 2.7566151974646185e-17 -1.3622073638894073e-16 2.7566151974646185e-17 0.9956581500767915 0.09308516630200042
12641970666.666666 0.9967084384069224 0.08106965405281161 -1.3584924545133774e-16 2.921337042255855e-17 -1.3584924545133774e-16 2.921337042255855e-17 0.9967083821026286 0.08107034628130448
12642588000.0 0.9976136819852105 0.06904304103760868 -1.354578474546754e-16 3.085563355439927e-17 -1.354578474546754e-16 3.085563355439927e-17 0.9976136340359146 0.06904373386098317
12643205333.333334 0.9983738137879474 0.05700638510130779 -1.3504660793818338e-16 3.2492700929129286e-17 -1.3504660793818338e-16 3.2492700929129286e-17 0.9983737741998088 0.05700707841873345
12643822666.666666 0.9989887232473108 0.04496143708242762 -1.346155953434603e-16 3.412433296634281e-17 -1.346155953434603e-16 3.412433296634281e-17 0.9989886920252711 0.04496213079301197
12644440000.0 0.999458320919355 0.03290994902569869 -1.341648810032466e-16 3.575029098126182e-17 -1.341648810032466e-16 3.575029098126182e-17 0.9994582980671382 0.03291064302850187
12645057333.333334 0.9997825384970221 0.020853673927155987 -1.3369453912976997e-16 3.7370337219607876e-17 -1.3369453912976997e-16 3.7370337219607876e-17 0.9997825240171362 0.02085436812120556
12645674666.666666 0.999961328820083 0.008794365479292554 -1.3320464680267105e-16 3.8984234892319016e-17 -1.3320464680267105e-16 3.8984234892319016e-17 0.9999613227138162 0.008795059763598075
12646292000.0 0.999994665881999 -0.0032662221845424465 -1.3269528395650286e-16 4.0591748210137305e-17 -1.3269528395650286e-16 4.0591748210137305e-17 0.9999946681494223 -0.0032655279109746835
12646909333.333334 0.9998825448336967 -0.015326334744530677 -1.3216653336783692e-16 4.219264241795974e-17 -1.3216653336783692e-16 4.219264241795974e-17 0.9998825554736618 -0.015325640582682942
12647526666.666666 0.9996249819842791 -0.02738421795013438 -1.3161848064192862e-16 4.378668382911005e-17 -1.3161848064192862e-16 4.378668382911005e-17 0.9996250009944222 -0.02738352400096286
12648144000.0 0.9992220147986489 -0.03943811787521087 -1.3105121419898278e-16 4.53736398593978e-17 -1.3105121419898278e-16 4.53736398593978e-17 0.9992220421753882 -0.03943742423963096
12648761333.333334 0.9986737018920618 -0.05148628117290927 -1.304648252600134e-16 4.695327906099054e-17 -1.304648252600134e-16 4.695327906099054e-17 0.9986737376305984 -0.05148558795178089
12649378666.666666 0.997980123021607 -0.06352695533071068 -1.2985940783229162e-16 4.8525371156120256e-17 -1.2985940783229162e-16 4.8525371156120256e-17 0.9979801671159261 -0.06352626262482358
12649996000.0 0.9971413790745892 -0.0755583889256303 -1.2923505869438016e-16 5.00896870706222e-17 -1.2923505869438016e-16 5.00896870706222e-17 0.9971414315174635 -0.07555769683568964
12650613333.333334 0.9961575920538674 -0.08757883187877914 -1.2859187738077649e-16 5.164599896725356e-17 -1.2859187738077649e-16 5.164599896725356e-17 0.996157652836853 -0.08757814050539044
12651230666.666666 0.9950289050601104 -0.09958653570984319 -1.279299661661569e-16 5.319408027881329e-17 -1.279299661661569e-16 5.319408027881329e-17 0.9950289741735531 -0.09958584515349808
12651848000.0 0.9937554822709627 -0.11157975379169893 -1.272494300492015e-16 5.473370574111241e-17 -1.272494300492015e-16 5.473370574111241e-17 0.9937555597039972 -0.11157906415276038
12652465333.333334 0.9923375089171822 -0.12355674160422078 -1.2655037673605244e-16 5.626465142567024e-17 -1.2655037673605244e-16 5.626465142567024e-17 0.992337594657733 -0.12355605298290838
12653082666.666666 0.9907751912557 -0.13551575698803725 -1.2583291662336603e-16 5.778669477223378e-17 -1.2583291662336603e-16 5.778669477223378e-17 0.9907752852904868 -0.13551506948441305
12653700000.0 0.9890687565395884 -0.14745506039822606 -1.2509716278095717e-16 5.92996146211178e-17 -1.2509716278095717e-16 5.92996146211178e-17 0.9890688588541222 -0.14745437411217943
12654317333.333334 0.9872184529850445 -0.1593729151569507 -1.2434323093409656e-16 6.08031912452404e-17 -1.2434323093409656e-16 6.08031912452404e-17 0.9872185635636388 -0.15937223018818475
12654934666.666666 0.9852245497352649 -0.17126758770635925 -1.2357123944538281e-16 6.229720638202011e-17 -1.2357123944538281e-16 6.229720638202011e-17 0.9852246685610274 -0.17126690415437512
12655552000.0 0.9830873368212732 -0.18313734786074293 -1.2278130929624824e-16 6.378144326500829e-17 -1.2278130929624824e-16 6.378144326500829e-17 0.9830874638761171 -0.18313666582482635
12656169333.333334 0.9808071251197912 -0.1949804690579566 -1.2197356406810364e-16 6.52556866552581e-17 -1.2197356406810364e-16 6.52556866552581e-17 0.9808072603844332 -0.19497978863716312
12656786666.666666 0.9783842463079626 -0.20679522861084215 -1.2114812992307078e-16 6.671972287252126e-17 -1.2114812992307078e-16 6.671972287252126e-17 0.9783843897619277 -0.20679454990398266
12657404000.0 0.9758190528151349 -0.21857990795766824 -1.2030513558437025e-16 6.817333982615108e-17 -1.2030513558437025e-16 6.817333982615108e-17 0.9758192044367588 -0.2185792310632947
12658021333.333334 0.9731119177715843 -0.23033279291216685 -1.1944471231632558e-16 6.961632704578285e-17 -1.1944471231632558e-16 6.961632704578285e-17 0.9731120775380167 -0.23033211792855796
12658638666.666666 0.9702632349542715 -0.24205217391273762 -1.18566993904014e-16 7.104847571173958e-17 -1.18566993904014e-16 7.104847571173958e-17 0.9702634028414795 -0.24205150093788466
12659256000.0 0.9672734187294992 -0.25373634627139635 -1.1767211663252345e-16 7.246957868523283e-17 -1.1767211663252345e-16 7.246957868523283e-17 0.9672735947122713 -0.2537356754029887
12659873333.333334 0.9641429039926951 -0.2653836104214868 -1.1676021926588674e-16 7.387943053823994e-17 -1.1676021926588674e-16 7.387943053823994e-17 0.9641430880446453 -0.26538294175689814
12660490666.666666 0.9608721461051603 -0.27699227216489997 -1.1583144302564123e-16 7.527782758314791e-17 -1.1583144302564123e-16 7.527782758314791e-17 0.960872338198731 -0.2769916058011739
12661108000.0 0.9574616208277538 -0.28856064291878325 -1.1488593156901133e-16 7.666456790216086e-17 -1.1488593156901133e-16 7.666456790216086e-17 0.9574618209342209 -0.2885599789526193
12661725333.333334 0.9539118242517962 -0.3000870399607769 -1.1392383096679283e-16 7.803945137635713e-17 -1.1392383096679283e-16 7.803945137635713e-17 0.9539120323412722 -0.3000863784885163
12662342666.666666 0.9502232727268156 -0.3115697866741089 -1.1294528968083496e-16 7.940227971455086e-17 -1.1294528968083496e-16 7.940227971455086e-17 0.950223488768256 -0.3115691277917211
12662960000.0 0.9463965027855143 -0.3230072127912287 -1.1195045854121383e-16 8.075285648182046e-17 -1.1195045854121383e-16 8.075285648182046e-17 0.9463967267467197 -0.32300655659429656
12663577333.333334 0.942432071065664 -0.3343976546369522 -1.1093949072305213e-16 8.209098712777215e-17 -1.1093949072305213e-16 8.209098712777215e-17 0.9424323029132864 -0.33439700122065896
12664194666.666666 0.9383305542291719 -0.34573945537034956 -1.0991254172300377e-16 8.34164790145105e-17 -1.0991254172300377e-16 8.34164790145105e-17 0.9383307939287204 -0.34573880482946484
12664812000.0 0.9340925488781948 -0.35703096522577515 -1.0886976933540554e-16 8.472914144431646e-17 -1.0886976933540554e-16 8.472914144431646e-17 0.934092796394039 -0.3570303176546409
12665429333.333334 0.9297186714683433 -0.36827054175286617 -1.0781133362809671e-16 8.602878568703119e-17 -1.0781133362809671e-16 8.602878568703119e-17 0.9297189267637205 -0.3682698972453835
12666046666.666666 0.9252095582190689 -0.3794565500553203 -1.0673739691792715e-16 8.731522500712078e-17 -1.0673739691792715e-16 8.731522500712078e-17 0.925209821256088 -0.37945590870493573
12666664000.0 0.9205658650210023 -0.39058736302899616 -1.0564812374590349e-16 8.858827469048439e-17 -1.0564812374590349e-16 8.858827469048439e-17 0.9205661357606486 -0.390586724928687
12667281333.333334 0.9157882673406964 -0.40166136159821997 -1.0454368085207966e-16 8.98477520708787e-17 -1.0454368085207966e-16 8.98477520708787e-17 0.9157885457428403 -0.40166072684048265
12667898666.666666 0.9108774601222698 -0.4126769349515598 -1.0342423715007237e-16 9.10934765561019e-17 -1.0342423715007237e-16 9.10934765561019e-17 0.9108777461456699 -0.412676303628395
12668516000.0 0.9058341576863137 -0.423632480776129 -1.0228996370129011e-16 9.232526965383084e-17 -1.0228996370129011e-16 9.232526965383084e-17 0.9058344512886252 -0.42363185297902933
12669133333.333334 0.9006590936260965 -0.4345264054904251 -1.0114103368888045e-16 9.354295499711321e-17 -1.0114103368888045e-16 9.354295499711321e-17 0.9006593947638758 -0.43452578131036107
12669750666.666666 0.8953530207007369 -0.4453571244763885 -9.997762239132349e-17 9.474635836959073e-17 -9.997762239132349e-17 9.474635836959073e-17 0.8953533293294483 -0.4453565040037956
12670368000.0 0.8899167107257542 -0.4561230623097954 -9.879990715576099e-17 9.593530773035757e-17 -9.879990715576099e-17 9.593530773035757e-17 0.8899170267997779 -0.4561224456345616
