! Parameters = {f0=12700.012000; bw=77.238000; Q=6100.000000; N=10; m_0_1=1.273969; m_1_1=0.344789; m_1_2=1.108781; m_2_2=0.344140; m_2_3=0.745744; m_2_8=0.000762; m_2_9=0.037466; m_3_3=0.342203; m_3_4=0.634273; m_3_7=0.001362; m_3_8=-0.095726; m_3_9=0.000762; m_4_4=0.339278; m_4_5=0.470608; m_4_6=0.004879; m_4_7=-0.116275; m_4_8=0.001362; m_5_5=0.339660; m_5_6=0.877963; m_5_7=0.004879; m_6_6=0.339659; m_6_7=0.470950; m_7_7=0.339292; m_7_8=0.634391; m_8_8=0.342201; m_8_9=0.746057; m_9_9=0.344135; m_9_10=1.109859; m_10_10=0.344779; m_10_11=1.274764}
!
! Created with skrf (http://scikit-rf.org).
# Hz S RI R 50.0 
!freq ReS11 ImS11 ReS21 ImS21 ReS12 ImS12 ReS22 ImS22
12607400000.0 -0.06093858961957493 -0.9981415171682824 3.853296235633382e-17 1.0589494036511471e-16 3.853296235633382e-17 1.0589494036511471e-16 -0.06093791967162626 -0.998141558069754
12608017333.333334 -0.07155544510748771 -0.9974366236885893 3.965909833065159e-17 1.0545477952413886e-16 3.965909833065159e-17 1.0545477952413886e-16 -0.07155477566543592 -0.9974366717136938
12608634666.666666 -0.08216419947920187 -0.9966188059251966 4.0780227908225944e-17 1.0500265153546807e-16 4.0780227908225944e-17 1.0500265153546807e-16 -0.08216353061878426 -0.9966188610677996
12609252000.0 -0.09276365166998148 -0.9956881564670097 4.189622401136651e-17 1.0453861312417121e-16 4.189622401136651e-17 1.0453861312417121e-16 -0.09276298346686211 -0.995688218720172
12609869333.333334 -0.103352601668262 -0.9946447806771146 4.3006960202900066e-17 1.0406272236372297e-16 4.3006960202900066e-17 1.0406272236372297e-16 -0.103351934198023 -0.9946448500330911
12610486666.666666 -0.1139298506512825 -0.9934887966808678 4.411231070044366e-17 1.0357503866880394e-16 4.411231070044366e-17 1.0357503866880394e-16 -0.11392918398941586 -0.9934888731311129
12611104000.0 -0.12449420112129128 -0.9922203353524831 4.5212150390670816e-17 1.0307562278791828e-16 4.5212150390670816e-17 1.0307562278791828e-16 -0.12449353534318984 -0.9922204188876462
12611721333.333334 -0.1350444570406384 -0.9908395403002558 4.630635484339182e-17 1.0256453679590437e-16 4.630635484339182e-17 1.0256453679590437e-16 -0.1350437922215877 -0.9908396309101868
12612338666.666666 -0.14557942396738327 -0.9893465678502894 4.739480032563816e-17 1.0204184408625787e-16 4.739480032563816e-17 1.0204184408625787e-16 -0.14557876018255297 -0.9893466655240383
12612956000.0 -0.1560979091906912 -0.9877415870287722 4.8477363815614363e-17 1.015076093633265e-16 4.8477363815614363e-17 1.015076093633265e-16 -0.15609724651512633 -0.9877416917545894
12613573333.333334 -0.16659872186549957 -0.9860247795428901 4.9553923016565603e-17 1.0096189863435649e-16 4.9553923016565603e-17 1.0096189863435649e-16 -0.16659806037411237 -0.9860248913082293
12614190666.666666 -0.1770806731476764 -0.9841963397602068 5.062435637058253e-17 1.0040477920137952e-16 5.062435637058253e-17 1.0040477920137952e-16 -0.17708001291523787 -0.9841964585517269
12614808000.0 -0.18754257632836216 -0.9822564746866997 5.168854307228945e-17 9.983631965296607e-17 5.168854307228945e-17 9.983631965296607e-17 -0.18754191742949328 -0.9822566004902649
12615425333.333334 -0.1979832469685184 -0.9802054039432886 5.2746363082440895e-17 9.925658985583446e-17 5.2746363082440895e-17 9.925658985583446e-17 -0.1979825894776818 -0.9802055367439698
12616042666.666666 -0.20840150303293892 -0.9780433597409844 5.379769714145054e-17 9.866566094630344e-17 5.379769714145054e-17 9.866566094630344e-17 -0.20840084702443093 -0.9780434995230642
12616660000.0 -0.2187961650239912 -0.9757705868546237 5.484242678279913e-17 9.806360532161453e-17 5.484242678279913e-17 9.806360532161453e-17 -0.21879551057193244 -0.9757707336015922
12617277333.333334 -0.22916605611534535 -0.9733873425951052 5.588043434634897e-17 9.745049663111144e-17 5.588043434634897e-17 9.745049663111144e-17 -0.22916540329367358 -0.973387496289669
12617894666.666666 -0.23951000228498764 -0.9708938967803169 5.691160299156936e-17 9.682640976727534e-17 5.691160299156936e-17 9.682640976727534e-17 -0.2395093511674484 -0.9708940574043959
12618512000.0 -0.24982683244835718 -0.9682905317045315 5.79358167106808e-17 9.619142085660744e-17 5.79358167106808e-17 9.619142085660744e-17 -0.2498261831084961 -0.9682906992392639
12619129333.333334 -0.26011537859070893 -0.9655775421065027 5.895296034163056e-17 9.554560725041561e-17 5.895296034163056e-17 9.554560725041561e-17 -0.2601147311018634 -0.9655777165322466
12619746666.666666 -0.2703744758995163 -0.9627552351360565 5.996291958105575e-17 9.488904751540856e-17 5.996291958105575e-17 9.488904751540856e-17 -0.2703738303348068 -0.9627554164323913
12620364000.0 -0.28060296289639797 -0.9598239303192985 6.096558099708757e-17 9.422182142418656e-17 6.096558099708757e-17 9.422182142418656e-17 -0.28060231932871965 -0.9598241184650265
12620981333.333334 -0.2907996815682581 -0.9567839595225358 6.196083204204322e-17 9.35440099456038e-17 6.196083204204322e-17 9.35440099456038e-17 -0.2907990400702736 -0.9567841544956888
12621598666.666666 -0.3009634774988296 -0.9536356669145895 6.294856106504538e-17 9.285569523497348e-17 6.294856106504538e-17 9.285569523497348e-17 -0.3009628381429596 -0.9536358686924257
12622216000.0 -0.31109319999914975 -0.9503794089278824 6.392865732452051e-17 9.215696062414927e-17 6.392865732452051e-17 9.215696062414927e-17 -0.31109256285756554 -0.9503796174868936
12622833333.333334 -0.3211877022378099 -0.9470155542181022 6.490101100058194e-17 9.144789061147863e-17 6.490101100058194e-17 9.144789061147863e-17 -0.32118706738242475 -0.9470157695340137
12623450666.666666 -0.33124584137087304 -0.9435444836224338 6.586551320728685e-17 9.072857085163694e-17 6.586551320728685e-17 9.072857085163694e-17 -0.3312452088733351 -0.9435447056702099
12624068000.0 -0.34126647867118176 -0.9399665901164758 6.682205600482814e-17 8.99990881453003e-17 6.682205600482814e-17 8.99990881453003e-17 -0.34126584860286463 -0.93996681887032
12624685333.333334 -0.35124847965749095 -0.9362822787696692 6.777053241157506e-17 8.92595304287142e-17 6.777053241157506e-17 8.92595304287142e-17 -0.3512478520894864 -0.9362825142030285
12625302666.666666 -0.3611907142225339 -0.932491966699574 6.871083641598551e-17 8.850998676315037e-17 6.871083641598551e-17 8.850998676315037e-17 -0.3611900892256439 -0.9324922087851424
12625920000.0 -0.37109205676141993 -0.9285960830244773 6.964286298846389e-17 8.775054732418702e-17 6.964286298846389e-17 8.775054732418702e-17 -0.37109143440614833 -0.9285963317341983
12626537333.333334 -0.3809513862985911 -0.9245950688149945 7.056650809301698e-17 8.698130339093406e-17 7.056650809301698e-17 8.698130339093406e-17 -0.3809507666551359 -0.9245953241200643
12627154666.666666 -0.39076758661505173 -0.9204893770440109 7.148166869886546e-17 8.620234733507489e-17 7.148166869886546e-17 8.620234733507489e-17 -0.39076696975329667 -0.9204896389148814
12627772000.0 -0.40053954637481676 -0.9162794725353609 7.238824279191209e-17 8.541377260980453e-17 7.238824279191209e-17 8.541377260980453e-17 -0.40053893236432436 -0.9162797409417442
12628389333.333334 -0.41026615925028764 -0.9119658319113938 7.328612938604097e-17 8.461567373868933e-17 7.328612938604097e-17 8.461567373868933e-17 -0.41026554816029065 -0.9119661068222652
12629006666.666666 -0.41994632404805243 -0.9075489435387776 7.41752285343852e-17 8.380814630432893e-17 7.41752285343852e-17 8.380814630432893e-17 -0.4199457159474461 -0.9075492249223786
12629624000.0 -0.4295789448331657 -0.9030293074733775 7.505544134038455e-17 8.299128693697619e-17 7.505544134038455e-17 8.299128693697619e-17 -0.4295783397905002 -0.9030295952972199
12630241333.333334 -0.43916293105343157 -0.898407435403549 7.592666996877232e-17 8.216519330299214e-17 7.592666996877232e-17 8.216519330299214e-17 -0.43916232913690456 -0.8984077296344198
12630858666.666666 -0.4486971976626148 -0.8936838505923331 7.678881765639425e-17 8.132996409322557e-17 7.678881765639425e-17 8.132996409322557e-17 -0.4486965989400626 -0.8936841511962957
12631476000.0 -0.45818066524374207 -0.8888590878179881 7.764178872296193e-17 8.048569901121989e-17 7.764178872296193e-17 8.048569901121989e-17 -0.4581800697826335 -0.8888593947603889
12632093333.333334 -0.46761226013077284 -0.8839336933137087 7.848548858160138e-17 7.963249876138066e-17 7.848548858160138e-17 7.963249876138066e-17 -0.46761166799820075 -0.8839340065591796
12632710666.666666 -0.47699091453048675 -0.878908224705625 7.931982374931594e-17 7.877046503699123e-17 7.931982374931594e-17 7.877046503699123e-17 -0.4769903257931604 -0.8789085442180876
12633328000.0 -0.48631556664339387 -0.873783250949649 8.014470185733527e-17 7.789970050810034e-17 8.014470185733527e-17 7.789970050810034e-17 -0.486314981367632 -0.8737835766923197
12633945333.333334 -0.49558516078377257 -0.8685593522671581 8.096003166127847e-17 7.70203088093569e-17 8.096003166127847e-17 7.70203088093569e-17 -0.49558457903549524 -0.8685596842025507
12634562666.666666 -0.5047986474992124 -0.863237120079291 8.176572305122871e-17 7.613239452769282e-17 8.176572305122871e-17 7.613239452769282e-17 -0.5047980693439343 -0.8632374581692226
12635180000.0 -0.513954983689554 -0.857817156939924 8.256168706164685e-17 7.523606318992881e-17 8.256168706164685e-17 7.523606318992881e-17 -0.5139544091923757 -0.8578175011455174
12635797333.333334 -0.5230531327249281 -0.8523000764674739 8.334783588117544e-17 7.433142125024902e-17 8.334783588117544e-17 7.433142125024902e-17 -0.523052561950531 -0.8523004267491652
12636414666.666666 -0.5320920645629525 -0.8466865032755378 8.412408286227642e-17 7.341857607760678e-17 8.412408286227642e-17 7.341857607760678e-17 -0.5320914975755896 -0.8466868595930784
12637032000.0 -0.5410707558656367 -0.8409770729019979 8.489034253075177e-17 7.249763594300582e-17 8.489034253075177e-17 7.249763594300582e-17 -0.5410701927291258 -0.8409774352144596
12637649333.333334 -0.5499881901150666 -0.8351724317371688 8.564653059512408e-17 7.156871000668597e-17 8.564653059512408e-17 7.156871000668597e-17 -0.5499876308927838 -0.8351728000029491
12638266666.666666 -0.5588433577284461 -0.8292732369506561 8.639256395586652e-17 7.063190830522288e-17 8.639256395586652e-17 7.063190830522288e-17 -0.5588428024833179 -0.8292736111274822
12638884000.0 -0.5676352561725356 -0.8232801564168553 8.712836071450243e-17 6.96873417385201e-17 8.712836071450243e-17 6.96873417385201e-17 -0.5676347049670326 -0.82328053646179
12639501333.333334 -0.5763628900771087 -0.8171938686393739 8.785384018255312e-17 6.873512205671909e-17 8.785384018255312e-17 6.873512205671909e-17 -0.5763623429732371 -0.8171942545088187
12640118666.666666 -0.5850252713474283 -0.8110150626743569 8.85689228903497e-17 6.777536184700977e-17 8.85689228903497e-17 6.777536184700977e-17 -0.585024728406725 -0.8110154543240597
12640736000.0 -0.5936214192766293 -0.8047444380521201 8.927353059572463e-17 6.680817452031592e-17 8.927353059572463e-17 6.680817452031592e-17 -0.5936208805601535 -0.8047448354371786
12641353333.333334 -0.6021503606561203 -0.7983827046983963 8.996758629248397e-17 6.583367429799339e-17 8.996758629248397e-17 6.583367429799339e-17 -0.6021498262244467 -0.7983831077732618
12641970666.666666 -0.6106111298861826 -0.7919305828536629 9.065101421883546e-17 6.485197619830252e-17 9.065101421883546e-17 6.485197619830252e-17 -0.6106105997993951 -0.7919309915721483
12642588000.0 -0.6190027690851965 -0.7853888029916665 9.132373986559341e-17 6.386319602289884e-17 9.132373986559341e-17 6.386319602289884e-17 -0.6190022434028815 -0.7853892173069499
12643205333.333334 -0.6273243281980194 -0.7787581057367735 9.198568998426774e-17 6.286745034319531e-17 9.198568998426774e-17 6.286745034319531e-17 -0.6273238069792587 -0.7787585256014045
12643822666.666666 -0.6355748651036791 -0.7720392417800163 9.263679259499923e-17 6.186485648664901e-17 9.263679259499923e-17 6.186485648664901e-17 -0.6355743484070443 -0.7720396671459211
12644440000.0 -0.6437534457218393 -0.765232971794265 9.327697699434844e-17 6.085553252296417e-17 9.327697699434844e-17 6.085553252296417e-17 -0.6437529336053825 -0.7652334026127503
12645057333.333334 -0.6518591441187225 -0.7583400663479615 9.390617376292813e-17 5.983959725022216e-17 9.390617376292813e-17 5.983959725022216e-17 -0.6518586366399727 -0.7583405025697224
12645674666.666666 -0.659891042611769 -0.75136130581803 9.452431477288433e-17 5.88171701809366e-17 9.452431477288433e-17 5.88171701809366e-17 -0.6598905398277255 -0.7513617473931559
12646292000.0 -0.6678482318738341 -0.744297480301268 9.513133319525259e-17 5.77883715279886e-17 9.513133319525259e-17 5.77883715279886e-17 -0.6678477338409574 -0.7442979271792449
12646909333.333334 -0.6757298110357685 -0.7371493895252079 9.572716350711154e-17 5.675332219056737e-17 9.572716350711154e-17 5.675332219056737e-17 -0.675729317809977 -0.7371498416549284
12647526666.666666 -0.6835348877886696 -0.7299178427573575 9.631174149863199e-17 5.571214373995952e-17 9.631174149863199e-17 5.571214373995952e-17 -0.6835343994253312 -0.729918300087123
12648144000.0 -0.691262578484794 -0.7226036587136667 9.688500427994327e-17 5.4664958405311916e-17 9.688500427994327e-17 5.4664958405311916e-17 -0.6912620950387214 -0.722604121191196
12648761333.333334 -0.6989120082376448 -0.715207665465804 9.744689028785792e-17 5.361188905930647e-17 9.744689028785792e-17 5.361188905930647e-17 -0.6989115297630889 -0.7152081330382385
12649378666.666666 -0.7064823110209575 -0.7077307003474638 9.799733929243233e-17 5.25530592037794e-17 9.799733929243233e-17 5.25530592037794e-17 -0.7064818375715998 -0.7077311729613718
12649996000.0 -0.7139726297667877 -0.7001736098595273 9.853629240337876e-17 5.1488592955259875e-17 9.853629240337876e-17 5.1488592955259875e-17 -0.713972161395737 -0.7001740874609135
12650613333.333334 -0.7213821164626056 -0.6925372495741693 9.906369207632325e-17 5.041861503044133e-17 9.906369207632325e-17 5.041861503044133e-17 -0.7213816532223903 -0.6925377321084782
12651230666.666666 -0.7287099322471622 -0.6848224840381338 9.957948211888959e-17 4.934325073161995e-17 9.957948211888959e-17 4.934325073161995e-17 -0.7287094741897243 -0.6848229714502567
12651848000.0 -0.7359552475055985 -0.6770301866747128 1.0008360769665344e-16 4.826262593201473e-17 1.0008360769665344e-16 4.826262593201473e-17 -0.7359547946822887 -0.6770306789089944
12652465333.333334 -0.7431172419633123 -0.6691612396849237 1.0057601533890377e-16 4.7176867061098944e-17 1.0057601533890377e-16 4.7176867061098944e-17 -0.743116794424883 -0.6691617366851675
12653082666.666666 -0.750195104778747 -0.6612165339477148 1.010566529442717e-16 4.6086101089819426e-17 1.010566529442717e-16 4.6086101089819426e-17 -0.7501946625753481 -0.6612170356571914
12653700000.0 -0.7571880346354187 -0.653196968918851 1.0152546978619887e-16 4.4990455515755543e-17 1.0152546978619887e-16 4.4990455515755543e-17 -0.757187597816592 -0.6531974752803035
12654317333.333334 -0.7640952398323021 -0.6451034525294695 1.0198241651821622e-16 4.389005834829329e-17 1.0198241651821622e-16 4.389005834829329e-17 -0.7640948084469721 -0.6451039634851178
12654934666.666666 -0.7709159383737538 -0.6369369010829392 1.0242744517910362e-16 4.278503809365077e-17 1.0242744517910362e-16 4.278503809365077e-17 -0.7709155124702289 -0.6369374165744918
12655552000.0 -0.7776493580579965 -0.6286982391511922 1.0286050919786177e-16 4.167552373990979e-17 1.0286050919786177e-16 4.167552373990979e-17 -0.7776489376839572 -0.6286987591198476
12656169333.333334 -0.7842947365643189 -0.6203883994703061 1.0328156339852061e-16 4.0561644742007466e-17 1.0328156339852061e-16 4.0561644742007466e-17 -0.7842943217668166 -0.6203889238567633
12656786666.666666 -0.7908513215396775 -0.6120083228345587 1.0369056400479962e-16 3.944353100664139e-17 1.0369056400479962e-16 3.944353100664139e-17 -0.7908509123651262 -0.6120088515790204
12657404000.0 -0.7973183706837215 -0.6035589579900862 1.0408746864459959e-16 3.832131287714359e-17 1.0408746864459959e-16 3.832131287714359e-17 -0.7973179671778954 -0.6035594910322692
12658021333.333334 -0.8036951518328226 -0.5950412615275004 1.0447223635432925e-16 3.7195121118316025e-17 1.0447223635432925e-16 3.7195121118316025e-17 -0.8036947540408493 -0.5950417988066404
12658638666.666666 -0.8099809430429822 -0.5864561977735642 1.0484482758306014e-16 3.6065086901244204e-17 1.0484482758306014e-16 3.6065086901244204e-17 -0.8099805510093372 -0.5864567392284226
12659256000.0 -0.8161750326716807 -0.5778047386818537 1.0520520419654318e-16 3.493134178799883e-17 1.0520520419654318e-16 3.493134178799883e-17 -0.8161746464401846 -0.5778052842507261
12659873333.333334 -0.8222767194582484 -0.5690878637229978 1.0555332948103014e-16 3.379401771638458e-17 1.0555332948103014e-16 3.379401771638458e-17 -0.8222763390720605 -0.56908841334372
12660490666.666666 -0.8282853126033584 -0.5603065597736486 1.0588916814694538e-16 3.265324698461012e-17 1.0588916814694538e-16 3.265324698461012e-17 -0.8282849381049724 -0.5603071133836036
12661108000.0 -0.8342001318473451 -0.5514618210045878 1.0621268633240027e-16 3.150916223589223e-17 1.0621268633240027e-16 3.150916223589223e-17 -0.8341997632785828 -0.5514623785407126
12661725333.333334 -0.8400205075469496 -0.5425546487685721 1.065238516065169e-16 3.036189644311395e-17 1.065238516065169e-16 3.036189644311395e-17 -0.8400201449489584 -0.5425552101673661
12662342666.666666 -0.8457457807514025 -0.5335860514865655 1.0682263297261629e-16 2.9211582893344896e-17 1.0682263297261629e-16 2.9211582893344896e-17 -0.8457454241646497 -0.5335866166840966
12662960000.0 -0.8513753032768987 -0.5245570445337588 1.0710900087121817e-16 2.805835517240703e-17 1.0710900087121817e-16 2.805835517240703e-17 -0.8513749527411664 -0.5245576134656709
12663577333.333334 -0.8569084377799541 -0.5154686501246643 1.0738292718288038e-16 2.6902347149394098e-17 1.0738292718288038e-16 2.6902347149394098e-17 -0.8569080933343359 -0.5154692227261849
12664194666.666666 -0.8623445578296481 -0.5063218971972397 1.0764438523087741e-16 2.574369296114014e-17 1.0764438523087741e-16 2.574369296114014e-17 -0.8623442195125457 -0.5063224734031881
12664812000.0 -0.867683047978492 -0.49711782129649845 1.0789334978370417e-16 2.4582526996693607e-17 1.0789334978370417e-16 2.4582526996693607e-17 -0.867682715827608 -0.4971184010412913
12665429333.333334 -0.8729233038321426 -0.48785746445719186 1.0812979705741756e-16 2.3418983881747224e-17 1.0812979705741756e-16 2.3418983881747224e-17 -0.8729229778844787 -0.4878580476748521
12666046666.666666 -0.8780647321177063 -0.4785418750860626 1.0835370471780291e-16 2.225319846308356e-17 1.0835370471780291e-16 2.225319846308356e-17 -0.8780644124095571 -0.47854246171022574
12666664000.0 -0.8831067507511406 -0.469172107842726 1.0856505188238921e-16 2.1085305792921162e-17 1.0856505188238921e-16 2.1085305792921162e-17 -0.883106437318093 -0.46917269780664944
12667281333.333334 -0.8880487889029212 -0.45974922352069064 1.087638191222754e-16 1.9915441113347976e-17 1.087638191222754e-16 1.9915441113347976e-17 -0.8880484817798465 -0.45974981675725946
12667898666.666666 -0.892890287062766 -0.4502742889270882 1.0894998846380357e-16 1.874373984066491e-17 1.0894998846380357e-16 1.874373984066491e-17 -0.892889986283818 -0.45027488536882365
12668516000.0 -0.8976306971030531 -0.4407483767617414 1.091235433900626e-16 1.7570337549718546e-17 1.091235433900626e-16 1.7570337549718546e-17 -0.8976304027016648 -0.4407489763408086
12669133333.333334 -0.9022694823407256 -0.4311725654960236 1.0928446884221443e-16 1.6395369958280586e-17 1.0928446884221443e-16 1.6395369958280586e-17 -0.9022691943496041 -0.43117316814423906
12669750666.666666 -0.9068061175981392 -0.421547939250583 1.0943275122066371e-16 1.5218972911339302e-17 1.0943275122066371e-16 1.5218972911339302e-17 -0.9068058360492633 -0.42154854489942256
12670368000.0 -0.9112400892625464 -0.41187558767255283 1.095683783860506e-16 1.404128236544473e-17 1.095683783860506e-16 1.404128236544473e-17 -0.9112398141871618 -0.41187619625315913
