! Parameters = {f0=12700.012000; bw=77.238000; Q=6100.000000; N=10; m_0_1=1.160255; m_1_1=-1.360917; m_1_2=0.995067; m_2_2=-1.361566; m_2_3=0.632030; m_2_8=-0.004924; m_2_9=0.031780; m_3_3=-1.363503; m_3_4=0.520559; m_3_7=-0.004324; m_3_8=-0.101412; m_3_9=-0.004924; m_4_4=-1.366428; m_4_5=0.356894; m_4_6=-0.000807; m_4_7=-0.121961; m_4_8=-0.004324; m_5_5=-1.366046; m_5_6=0.764249; m_5_7=-0.000807; m_6_6=-1.366047; m_6_7=0.357236; m_7_7=-1.366414; m_7_8=0.520677; m_8_8=-1.363505; m_8_9=0.632343; m_9_9=-1.361571; m_9_10=0.996145; m_10_10=-1.360927; m_10_11=1.161050}
!
! Created with skrf (http://scikit-rf.org).
# Hz S RI R 50.0 
!freq ReS11 ImS11 ReS21 ImS21 ReS12 ImS12 ReS22 ImS22
12607400000.0 -0.4594411717447094 -0.8882082017779952 4.429911037985814e-17 4.610961890171471e-17 4.429911037985814e-17 4.610961890171471e-17 -0.4594406286264421 -0.8882084827151742
12608017333.333334 -0.46589386017616 -0.8848406133592699 4.4628864246002844e-17 4.577303801510845e-17 4.4628864246002844e-17 4.577303801510845e-17 -0.4658933191435898 -0.8848408982281626
12608634666.666666 -0.4723218665554844 -0.8814261479973218 4.4956065820730246e-17 4.54341037332765e-17 4.4956065820730246e-17 4.54341037332765e-17 -0.472321327637068 -0.8814264367824518
12609252000.0 -0.47872485034076195 -0.8779649865832161 4.528069834484248e-17 4.509283537410097e-17 4.528069834484248e-17 4.509283537410097e-17 -0.4787243135648424 -0.8779652792689029
12609869333.333334 -0.4851024723158178 -0.8744573124818231 4.5602745205095315e-17 4.474925237453457e-17 4.5602745205095315e-17 4.474925237453457e-17 -0.4851019377106209 -0.8744576090521787
12610486666.666666 -0.49145439460799034 -0.870903311522207 4.5922189935038194e-17 4.4403374289503835e-17 4.5922189935038194e-17 4.4403374289503835e-17 -0.491453862201624 -0.8709036119611399
12611104000.0 -0.49778028070623115 -0.8673031719876723 4.623901621585862e-17 4.4055220790792954e-17 4.623901621585862e-17 4.4055220790792954e-17 -0.4977797505266847 -0.8673034762788882
12611721333.333334 -0.5040797954787355 -0.8636570846059027 4.6553207877199526e-17 4.370481166594179e-17 4.6553207877199526e-17 4.370481166594179e-17 -0.5040792675538773 -0.8636573927329046
12612338666.666666 -0.5103526051908692 -0.8599652425387581 4.6864748897986824e-17 4.335216681711797e-17 4.6864748897986824e-17 4.335216681711797e-17 -0.5103520795484452 -0.8599655544848467
12612956000.0 -0.5165983775227742 -0.8562278413720794 4.717362340723602e-17 4.299730625999641e-17 4.717362340723602e-17 4.299730625999641e-17 -0.5165978541904067 -0.8562281571203553
12613573333.333334 -0.5228167815869005 -0.8524450791053737 4.747981568485075e-17 4.264025012263346e-17 4.747981568485075e-17 4.264025012263346e-17 -0.5228162605920877 -0.8524453986387388
12614190666.666666 -0.5290074879456864 -0.8486171561412408 4.778331016242479e-17 4.228101864432175e-17 4.778331016242479e-17 4.228101864432175e-17 -0.529006969315799 -0.8486174794423964
12614808000.0 -0.5351701686289323 -0.8447442752747912 4.8084091424017255e-17 4.1919632174459615e-17 4.8084091424017255e-17 4.1919632174459615e-17 -0.5351696523912134 -0.8447446023262419
12615425333.333334 -0.5413044971511083 -0.8408266416829566 4.838214420693766e-17 4.1556111171394973e-17 4.838214420693766e-17 4.1556111171394973e-17 -0.541303983332671 -0.840826972467009
12616042666.666666 -0.5474101485288155 -0.8368644629135074 4.8677453402509685e-17 4.1190476201276787e-17 4.8677453402509685e-17 4.1190476201276787e-17 -0.5474096371566431 -0.8368647974122728
12616660000.0 -0.5534867992978149 -0.8328579488741843 4.897000405682733e-17 4.0822747936901936e-17 4.897000405682733e-17 4.0822747936901936e-17 -0.553486290398758 -0.8328582870695792
12617277333.333334 -0.5595341275303514 -0.8288073118214516 4.9259781371513226e-17 4.045294715654233e-17 4.9259781371513226e-17 4.045294715654233e-17 -0.5595336211311274 -0.8288076536951989
12617894666.666666 -0.5655518128520215 -0.8247127663493791 4.954677070445121e-17 4.0081094742787794e-17 4.954677070445121e-17 4.0081094742787794e-17 -0.5655513089792116 -0.824713111883007
12618512000.0 -0.5715395364589321 -0.8205745293781439 4.983095757052835e-17 3.9707211681361357e-17 4.983095757052835e-17 3.9707211681361357e-17 -0.571539035138982 -0.8205748785529896
12619129333.333334 -0.5774969811344047 -0.8163928201426695 5.011232764235031e-17 3.933131905995219e-17 5.011232764235031e-17 3.933131905995219e-17 -0.5774964823936228 -0.8163931729398799
12619746666.666666 -0.5834238312659445 -0.8121678601808979 5.039086675096432e-17 3.895343806702177e-17 5.039086675096432e-17 3.895343806702177e-17 -0.5834233351304988 -0.8121682165814286
12620364000.0 -0.5893197728618885 -0.8078998733220993 5.0666560886562237e-17 3.857358999061947e-17 5.0666560886562237e-17 3.857358999061947e-17 -0.5893192793578069 -0.8079002333067169
12620981333.333334 -0.5951844935679728 -0.8035890856750658 5.0939396199175115e-17 3.8191796217193556e-17 5.0939396199175115e-17 3.8191796217193556e-17 -0.5951840027211412 -0.8035894492243494
12621598666.666666 -0.6010176826840186 -0.7992357256160326 5.1209358999368043e-17 3.780807823038378e-17 5.1209358999368043e-17 3.780807823038378e-17 -0.6010171945201794 -0.7992360927103737
12622216000.0 -0.6068190311803213 -0.7948400237766271 5.1476435758916887e-17 3.742245760982273e-17 5.1476435758916887e-17 3.742245760982273e-17 -0.6068185457250735 -0.7948403943962331
12622833333.333334 -0.6125882317139806 -0.7904022130316887 5.174061311147631e-17 3.7034956029930415e-17 5.174061311147631e-17 3.7034956029930415e-17 -0.612587748992776 -0.7904025871565806
12623450666.666666 -0.6183249786452254 -0.7859225284868945 5.2001877853244094e-17 3.6645595258699125e-17 5.2001877853244094e-17 3.6645595258699125e-17 -0.618324498683369 -0.7859229060969103
12624068000.0 -0.6240289680536525 -0.7814012074662708 5.226021694361545e-17 3.62543971564729e-17 5.226021694361545e-17 3.62543971564729e-17 -0.6240284908763 -0.781401588541065
12624685333.333334 -0.6296998977542803 -0.776838489499652 5.251561750582409e-17 3.586138367472864e-17 5.251561750582409e-17 3.586138367472864e-17 -0.6296994233864383 -0.7768388740186986
12625302666.666666 -0.6353374673134943 -0.772234616310048 5.2768066827573123e-17 3.5466576854856215e-17 5.2768066827573123e-17 3.5466576854856215e-17 -0.6353369957800173 -0.7722350042526397
12625920000.0 -0.6409413780651161 -0.7675898318007104 5.301755236167062e-17 3.506999882691091e-17 5.301755236167062e-17 3.506999882691091e-17 -0.6409409093907066 -0.767590223145961
12626537333.333334 -0.6465113331260726 -0.7629043820423375 5.3264061726632986e-17 3.467167180839827e-17 5.3264061726632986e-17 3.467167180839827e-17 -0.6465108673352794 -0.762904776769183
12627154666.666666 -0.6520470374121702 -0.758178515260005 5.3507582707298425e-17 3.427161810302423e-17 5.3507582707298425e-17 3.427161810302423e-17 -0.6520465745293862 -0.7581789133472032
12627772000.0 -0.6575481976538755 -0.7534124818198813 5.374810325542628e-17 3.386986009944857e-17 5.374810325542628e-17 3.386986009944857e-17 -0.6575477377033382 -0.7534128832460156
12628389333.333334 -0.663014522411575 -0.7486065342162089 5.398561149027875e-17 3.3466420270048284e-17 5.398561149027875e-17 3.3466420270048284e-17 -0.6630140654173633 -0.7486069389596869
12629006666.666666 -0.6684457220912497 -0.7437609270577213 5.4220095699206035e-17 3.3061321169655e-17 5.4220095699206035e-17 3.3061321169655e-17 -0.6684452680772838 -0.743761335096777
12629624000.0 -0.673841508959731 -0.7388759170542276 5.445154433821224e-17 3.265458543430567e-17 5.445154433821224e-17 3.265458543430567e-17 -0.6738410579497713 -0.7388763283669231
12630241333.333334 -0.679201597159903 -0.7339517630030532 5.4679946032517445e-17 3.2246235779980045e-17 5.4679946032517445e-17 3.2246235779980045e-17 -0.6792011491775481 -0.7339521775672789
12630858666.666666 -0.6845257027258683 -0.7289887257753097 5.4905289577104776e-17 3.1836295001343533e-17 5.4905289577104776e-17 3.1836295001343533e-17 -0.6845252577945539 -0.7289891435687857
12631476000.0 -0.6898135435981567 -0.7239870683019185 5.512756393726792e-17 3.142478597046909e-17 5.512756393726792e-17 3.142478597046909e-17 -0.6898131017411552 -0.723987489302197
12632093333.333334 -0.6950648396383379 -0.7189470555599936 5.5346758249137094e-17 3.101173163557759e-17 5.5346758249137094e-17 3.101173163557759e-17 -0.6950644008787563 -0.7189474797444585
12632710666.666666 -0.7002793126441103 -0.7138689545585697 5.556286182020382e-17 3.059715501975852e-17 5.556286182020382e-17 3.059715501975852e-17 -0.700278877004889 -0.7138693819044383
12633328000.0 -0.7054566863640795 -0.7087530343244158 5.57758641298356e-17 3.018107921968881e-17 5.57758641298356e-17 3.018107921968881e-17 -0.7054562538679914 -0.70875346480874
12633945333.333334 -0.7105966865121485 -0.7035995658880196 5.59857548297769e-17 2.976352740435621e-17 5.59857548297769e-17 2.976352740435621e-17 -0.7105962571817978 -0.7035999994876875
12634562666.666666 -0.7156990407822733 -0.6984088222690124 5.61925237446438e-17 2.9344522813772764e-17 5.61925237446438e-17 2.9344522813772764e-17 -0.7156986146400943 -0.6984092589607493
12635180000.0 -0.7207634788628061 -0.6931810784617817 5.639616087240906e-17 2.892408875768493e-17 5.639616087240906e-17 2.892408875768493e-17 -0.7207630559310632 -0.6931815182221525
12635797333.333334 -0.7257897324507798 -0.6879166114209482 5.659665638487433e-17 2.8502248614286875e-17 5.659665638487433e-17 2.8502248614286875e-17 -0.7257893127515634 -0.6879170542263556
12636414666.666666 -0.7307775352661577 -0.6826157000466471 5.679400062813718e-17 2.807902582892258e-17 5.679400062813718e-17 2.807902582892258e-17 -0.7307771188213856 -0.6826161458733361
12637032000.0 -0.7357266230660013 -0.6772786251696941 5.69881841230485e-17 2.7654443912783054e-17 5.69881841230485e-17 2.7654443912783054e-17 -0.7357262098974174 -0.6772790739937524
12637649333.333334 -0.7406367336583347 -0.6719056695368535 5.71791975656532e-17 2.7228526441616805e-17 5.71791975656532e-17 2.7228526441616805e-17 -0.7406363237875054 -0.6719061213342106
12638266666.666666 -0.7455076069161647 -0.6664971177957082 5.73670318276316e-17 2.6801297054414515e-17 5.73670318276316e-17 2.6801297054414515e-17 -0.745507200364482 -0.6664975725421404
12638884000.0 -0.7503389847912113 -0.6610532564796487 5.75516779567228e-17 2.6372779452108706e-17 5.75516779567228e-17 2.6372779452108706e-17 -0.750338581579887 -0.6610537141507764
12639501333.333334 -0.7551306113275338 -0.6555743739927294 5.773312717714363e-17 2.5942997396259117e-17 5.773312717714363e-17 2.5942997396259117e-17 -0.7551302114776022 -0.6555748345640223
12640118666.666666 -0.7598822326750965 -0.6500607605943951 5.791137088998852e-17 2.5511974707756792e-17 5.791137088998852e-17 2.5511974707756792e-17 -0.7598818362074117 -0.6500612240411713
12640736000.0 -0.7645935971034387 -0.644512708383844 5.80864006736424e-17 2.5079735265472492e-17 5.80864006736424e-17 2.5079735265472492e-17 -0.7645932040386725 -0.6445131746812706
12641353333.333334 -0.7692644550146006 -0.6389305112850246 5.82582082841491e-17 2.464630300498363e-17 5.82582082841491e-17 2.464630300498363e-17 -0.7692640653732437 -0.6389309804081214
12641970666.666666 -0.7738945589566646 -0.6333144650307012 5.84267856556018e-17 2.4211701917224077e-17 5.84267856556018e-17 2.4211701917224077e-17 -0.7738941727590237 -0.63331493695434
12642588000.0 -0.7784836636367882 -0.6276648671468702 5.859212490050786e-17 2.3775956047167923e-17 5.859212490050786e-17 2.3775956047167923e-17 -0.7784832809029857 -0.6276653418457769
12643205333.333334 -0.783031525934162 -0.6219820169370414 5.875421831014594e-17 2.3339089492507625e-17 5.875421831014594e-17 2.3339089492507625e-17 -0.7830311466841363 -0.6219824943857988
12643822666.666666 -0.787537904912913 -0.6162662154663626 5.891305835491441e-17 2.2901126402324592e-17 5.891305835491441e-17 2.2901126402324592e-17 -0.7875375291664131 -0.6162666956394081
12644440000.0 -0.7920025618348776 -0.6105177655456426 5.906863768467081e-17 2.2462090975757793e-17 5.906863768467081e-17 2.2462090975757793e-17 -0.7920021896114673 -0.6105182484172731
12645057333.333334 -0.7964252601722224 -0.6047369717153582 5.922094912905846e-17 2.2022007460676702e-17 5.922094912905846e-17 2.2022007460676702e-17 -0.7964248914912756 -0.6047374572597294
12645674666.666666 -0.8008057656199195 -0.5989241402295857 5.936998569782625e-17 2.1580900152343748e-17 5.936998569782625e-17 2.1580900152343748e-17 -0.800805400500622 -0.5989246284207154
12646292000.0 -0.8051438461083845 -0.5930795790394834 5.951574058113917e-17 2.1138793392072953e-17 5.951574058113917e-17 2.1138793392072953e-17 -0.8051434845697308 -0.5930800698512511
12646909333.333334 -0.809439271815497 -0.5872035977773398 5.965820714987324e-17 2.0695711565903695e-17 5.965820714987324e-17 2.0695711565903695e-17 -0.8094389138762892 -0.5872040911834882
12647526666.666666 -0.8136918151788934 -0.581296507740009 5.97973789559085e-17 2.0251679103248655e-17 5.97973789559085e-17 2.0251679103248655e-17 -0.813691460857743 -0.5812970037141472
12648144000.0 -0.817901250908127 -0.5753586218722845 5.993324973240549e-17 1.980672047555866e-17 5.993324973240549e-17 1.980672047555866e-17 -0.8179009002234503 -0.5753591203878867
12648761333.333334 -0.8220673559963986 -0.5693902547505924 6.006581339407574e-17 1.936086019497561e-17 6.006581339407574e-17 1.936086019497561e-17 -0.8220670089664183 -0.5693907557810017
12649378666.666666 -0.8261899097324911 -0.5633917225661667 6.019506403743874e-17 1.8914122812994008e-17 6.019506403743874e-17 1.8914122812994008e-17 -0.8261895663752342 -0.5633922260845954
12649996000.0 -0.8302686937124765 -0.557363343108275 6.032099594107477e-17 1.846653291910191e-17 6.032099594107477e-17 1.846653291910191e-17 -0.8302683540457739 -0.557363849087806
12650613333.333334 -0.8343034918512688 -0.5513054357474032 6.044360356586031e-17 1.8018115139444405e-17 6.044360356586031e-17 1.8018115139444405e-17 -0.8343031558927546 -0.5513059441609923
12651230666.666666 -0.8382940903939481 -0.5452183214185279 6.056288155519882e-17 1.756889413547034e-17 6.056288155519882e-17 1.756889413547034e-17 -0.8382937581610578 -0.5452188322390041
12651848000.0 -0.8422402779273349 -0.539102322603734 6.067882473524288e-17 1.711889460256874e-17 6.067882473524288e-17 1.711889460256874e-17 -0.8422399494373045 -0.5391028358038013
12652465333.333334 -0.8461418453909998 -0.5329577633154128 6.079142811509786e-17 1.666814126873691e-17 6.079142811509786e-17 1.666814126873691e-17 -0.8461415206608663 -0.5329582788676522
12653082666.666666 -0.8499985860882997 -0.5267849690791735 6.090068688702432e-17 1.6216658893216214e-17 6.090068688702432e-17 1.6216658893216214e-17 -0.8499982651348984 -0.5267854869560435
12653700000.0 -0.8538102956975672 -0.5205842669162092 6.100659642662952e-17 1.5764472265126478e-17 6.100659642662952e-17 1.5764472265126478e-17 -0.8538099785375325 -0.5205847870900487
12654317333.333334 -0.85757677228268 -0.5143559853263835 6.110915229304157e-17 1.531160620213072e-17 6.110915229304157e-17 1.531160620213072e-17 -0.8575764589324429 -0.514356507769412
12654934666.666666 -0.8612978163038639 -0.5081004542706584 6.120835022908128e-17 1.485808554906753e-17 6.120835022908128e-17 1.485808554906753e-17 -0.8612975067796531 -0.508100978954978
12655552000.0 -0.8649732306283522 -0.5018180051534669 6.130418616142373e-17 1.4403935176582453e-17 6.130418616142373e-17 1.4403935176582453e-17 -0.8649729249461909 -0.5018185320510633
12656169333.333334 -0.8686028205406533 -0.4955089708054481 6.139665620074267e-17 1.394917997978996e-17 6.139665620074267e-17 1.394917997978996e-17 -0.868602518716361 -0.4955094998881933
12656786666.666666 -0.87218639375297 -0.48917368546564544 6.148575664185242e-17 1.349384487690141e-17 6.148575664185242e-17 1.349384487690141e-17 -0.8721860958021587 -0.4891742167052974
12657404000.0 -0.8757237604153985 -0.4828124847637728 6.157148396383719e-17 1.303795480786275e-17 6.157148396383719e-17 1.303795480786275e-17 -0.8757234663534736 -0.48281301813197836
12658021333.333334 -0.8792147331259694 -0.47642570570245735 6.165383483016955e-17 1.2581534732996897e-17 6.165383483016955e-17 1.2581534732996897e-17 -0.8792144429681307 -0.476426241170754
12658638666.666666 -0.8826591269404722 -0.47001368663958776 6.173280608881831e-17 1.2124609631647242e-17 6.173280608881831e-17 1.2124609631647242e-17 -0.8826588407017097 -0.4700142241794039
12659256000.0 -0.8860567593824683 -0.46357676726998837 6.18083947723496e-17 1.1667204500804879e-17 6.18083947723496e-17 1.1667204500804879e-17 -0.886056477077563 -0.46357730685264553
12659873333.333334 -0.8894074504527918 -0.4571152886077208 6.18805980980145e-17 1.1209344353751155e-17 6.18805980980145e-17 1.1209344353751155e-17 -0.8894071720963148 -0.457115830204435
12660490666.666666 -0.8927110226390518 -0.45062959296809596 6.194941346782743e-17 1.0751054218700052e-17 6.194941346782743e-17 1.0751054218700052e-17 -0.8927107482453652 -0.45063013654998013
12661108000.0 -0.8959673009252473 -0.4441200239491366 6.201483846863678e-17 1.0292359137422455e-17 6.201483846863678e-17 1.0292359137422455e-17 -0.8959670305084996 -0.44412056948720013
12661725333.333334 -0.8991761128008116 -0.4375869264137995 6.20768708721813e-17 9.833284163896791e-18 6.20768708721813e-17 9.833284163896791e-18 -0.8991758463749405 -0.4375874738789518
12662342666.666666 -0.9023372882698616 -0.43103064647150746 6.213550863514145e-17 9.373854362931335e-18 6.213550863514145e-17 9.373854362931335e-18 -0.9023370258485925 -0.43103119583455884
12662960000.0 -0.9054506598602139 -0.4244515314597857 6.21907498991754e-17 8.914094808814566e-18 6.21907498991754e-17 8.914094808814566e-18 -0.905450401457057 -0.42445208269144774
12663577333.333334 -0.9085160626322284 -0.41784992992590975 6.224259299094982e-17 8.454030583939191e-18 6.224259299094982e-17 8.454030583939191e-18 -0.908515808260481 -0.4178504829967988
12664194666.666666 -0.9115333341875148 -0.41122619160852025 6.229103642215762e-17 7.993686777443863e-18 6.229103642215762e-17 7.993686777443863e-18 -0.9115330838602596 -0.4112267464891579
12664812000.0 -0.9145023146776068 -0.40458066741893867 6.233607888952578e-17 7.53308848385508e-18 6.233607888952578e-17 7.53308848385508e-18 -0.9145020684077108 -0.4045812240797538
12665429333.333334 -0.9174228468123938 -0.39791370942265425 6.237771927481547e-17 7.072260801711622e-18 6.237771927481547e-17 7.072260801711622e-18 -0.9174226046125078 -0.397914267833984
12666046666.666666 -0.9202947758684212 -0.3912256708207507 6.241595664480881e-17 6.611228832215882e-18 6.241595664480881e-17 6.611228832215882e-18 -0.9202945377509781 -0.3912262309528421
12666664000.0 -0.9231179496971644 -0.38451690593101134 6.245079025128902e-17 6.150017677857209e-18 6.245079025128902e-17 6.150017677857209e-18 -0.923117715674381 -0.3845174677540236
12667281333.333334 -0.9258922187330112 -0.377787770169331 6.248221953100702e-17 5.6886524410640805e-18 6.248221953100702e-17 5.6886524410640805e-18 -0.9258919888168862 -0.3777883336533368
12667898666.666666 -0.9286174360012132 -0.37103862003083665 6.251024410564154e-17 5.2271582228320304e-18 6.251024410564154e-17 5.2271582228320304e-18 -0.9286172102035248 -0.3710391851458229
12668516000.0 -0.9312934571257379 -0.364269813070813 6.2534863781747e-17 4.765560121359165e-18 6.2534863781747e-17 4.765560121359165e-18 -0.9312932354580474 -0.36427037978668403
12669133333.333334 -0.9339201403367988 -0.35748170788608047 6.25560785506907e-17 4.303883230709147e-18 6.25560785506907e-17 4.303883230709147e-18 -0.9339199228104458 -0.3574822761726579
12669750666.666666 -0.9364973464784332 -0.350674664095809 6.257388858858312e-17 3.842152639423298e-18 6.257388858858312e-17 3.842152639423298e-18 -0.9364971331045377 -0.35067523392283473
12670368000.0 -0.9390249390158986 -0.3438490423224157 6.258829425619531e-17 3.3803934291762303e-18 6.258829425619531e-17 3.3803934291762303e-18 -0.9390247298053606 -0.3438496136595533
