! Parameters = {f0=12700.012000; bw=77.238000; Q=6100.000000; N=10; m_0_1=1.182277; m_1_1=-1.030587; m_1_2=1.017089; m_2_2=-1.031236; m_2_3=0.654052; m_2_8=-0.003822; m_2_9=0.032882; m_3_3=-1.033173; m_3_4=0.542581; m_3_7=-0.003222; m_3_8=-0.100310; m_3_9=-0.003822; m_4_4=-1.036098; m_4_5=0.378916; m_4_6=0.000295; m_4_7=-0.120859; m_4_8=-0.003222; m_5_5=-1.035716; m_5_6=0.786271; m_5_7=0.000295; m_6_6=-1.035717; m_6_7=0.379258; m_7_7=-1.036084; m_7_8=0.542699; m_8_8=-1.033175; m_8_9=0.654365; m_9_9=-1.031241; m_9_10=1.018167; m_10_10=-1.030597; m_10_11=1.183072}
!
! Created with skrf (http://scikit-rf.org).
# Hz S RI R 50.0 
!freq ReS11 ImS11 ReS21 ImS21 ReS12 ImS12 ReS22 ImS22
12607400000.0 -0.9374779531472297 -0.3480446628849927 7.158404239588038e-17 4.837510468929185e-18 7.158404239588038e-17 4.837510468929185e-18 -0.9374777362998509 -0.3480452469750942
12608017333.333334 -0.9402083168367242 -0.3405999426760101 7.16065008729319e-17 4.262542231455068e-18 7.16065008729319e-17 4.262542231455068e-18 -0.9402081046381267 -0.34060052843856303
12608634666.666666 -0.9428795614066026 -0.3331338059722248 7.162434558905706e-17 3.687525088700597e-18 7.162434558905706e-17 3.687525088700597e-18 -0.9428793538696736 -0.3331343933702351
12609252000.0 -0.9454915188924093 -0.32564672223495883 7.163757720439322e-17 3.1124960277523557e-18 7.163757720439322e-17 3.1124960277523557e-18 -0.9454913160297406 -0.32564731123133306
12609869333.333334 -0.9480440250575944 -0.3181391622426298 7.164619667530765e-17 2.537492021973544e-18 7.164619667530765e-17 2.537492021973544e-18 -0.9480438268814837 -0.318139752800178
12610486666.666666 -0.9505369194037985 -0.3106115980612842 7.165020525422016e-17 1.962550028635789e-18 7.165020525422016e-17 1.962550028635789e-18 -0.9505367259262467 -0.31061219014272157
12611104000.0 -0.9529700451810389 -0.3030645030146163 7.16496044894061e-17 1.3877069865406707e-18 7.16496044894061e-17 1.3877069865406707e-18 -0.9529698564137519 -0.3030650965825665
12611721333.333334 -0.955343249397446 -0.29549835165458616 7.164439622478138e-17 8.129998136739608e-19 7.164439622478138e-17 8.129998136739608e-19 -0.9553430653518309 -0.29549894667158244
12612338666.666666 -0.9576563828289676 -0.28791361973130847 7.163458259966824e-17 2.3846540482339215e-19 7.163458259966824e-17 2.3846540482339215e-19 -0.957656203516135 -0.2879142161597972
12612956000.0 -0.9599093000287545 -0.28031078416313865 7.162016604854186e-17 -3.358593707828084e-19 7.162016604854186e-17 -3.358593707828084e-19 -0.9599091254595146 -0.28031138196548044
12613573333.333334 -0.9621018593362265 -0.27269032300692886 7.160114930075862e-17 -9.099376718165016e-19 7.160114930075862e-17 -9.099376718165016e-19 -0.9621016895210907 -0.27269092214540186
12614190666.666666 -0.9642339228860667 -0.2650527154276965 7.15775353802651e-17 -1.4837326872261874e-18 7.15775353802651e-17 -1.4837326872261874e-18 -0.9642337578352471 -0.26505331586449876
12614808000.0 -0.9663053566168447 -0.2573984416686305 7.154932760528837e-17 -2.057207638580148e-18 7.154932760528837e-17 -2.057207638580148e-18 -0.9663051963402532 -0.25739904336588243
12615425333.333334 -0.9683160302794616 -0.24972798302086913 7.151652958800774e-17 -2.6303257824187885e-18 7.151652958800774e-17 -2.6303257824187885e-18 -0.9683158747867086 -0.24972858594061506
12616042666.666666 -0.9702658174453325 -0.2420418217932341 7.147914523420739e-17 -3.2030504126017762e-18 7.147914523420739e-17 -3.2030504126017762e-18 -0.9702656667457252 -0.2420424258974452
12616660000.0 -0.972154595514339 -0.23434044128190532 7.143717874291071e-17 -3.7753448626518745e-18 7.143717874291071e-17 -3.7753448626518745e-18 -0.9721544496168849 -0.23434104653248247
12617277333.333334 -0.9739822457225471 -0.22662432574000424 7.139063460599527e-17 -4.34717250809731e-18 7.139063460599527e-17 -4.34717250809731e-18 -0.9739821046359479 -0.22662493209877924
12617894666.666666 -0.9757486531496371 -0.21889396034728173 7.133951760779043e-17 -4.918496768798398e-18 7.133951760779043e-17 -4.918496768798398e-18 -0.975748516882294 -0.2188945677760213
12618512000.0 -0.9774537067262041 -0.21114983117930727 7.128383282465379e-17 -5.4892811113028116e-18 7.128383282465379e-17 -5.4892811113028116e-18 -0.9774535752862142 -0.21115043963971433
12619129333.333334 -0.9790972992406562 -0.20339242517729317 7.122358562453293e-17 -6.059489051146281e-18 7.122358562453293e-17 -6.059489051146281e-18 -0.9790971726358096 -0.203393034631009
12619746666.666666 -0.9806793273460095 -0.19562223011719754 7.115878166650487e-17 -6.629084155197889e-18 7.115878166650487e-17 -6.629084155197889e-18 -0.9806792055837947 -0.1956228405258054
12620364000.0 -0.9821996915663929 -0.1878397345790547 7.10894269002979e-17 -7.198030043980811e-18 7.10894269002979e-17 -7.198030043980811e-18 -0.9821995746539917 -0.18784034590408122
12620981333.333334 -0.983658296303249 -0.18004542791650407 7.101552756579804e-17 -7.766290393970624e-18 7.101552756579804e-17 -7.766290393970624e-18 -0.9836581842475375 -0.1800460401194221
12621598666.666666 -0.9850550498414009 -0.17223980022574129 7.093709019253207e-17 -8.333828939927452e-18 7.093709019253207e-17 -8.333828939927452e-18 -0.9850549426489498 -0.17224041326797235
12622216000.0 -0.9863898643547914 -0.16442334231484135 7.085412159913574e-17 -8.900609477193136e-18 7.085412159913574e-17 -8.900609477193136e-18 -0.986389762031865 -0.1644239561577579
12622833333.333334 -0.9876626559120181 -0.1565965456728413 7.07666288928022e-17 -9.466595863997812e-18 7.07666288928022e-17 -9.466595863997812e-18 -0.9876625584645727 -0.15659716027776904
12623450666.666666 -0.9888733444815883 -0.14875990243894774 7.067461946871344e-17 -1.0031752023749424e-17 7.067461946871344e-17 -1.0031752023749424e-17 -0.988873251915275 -0.14876051776716867
12624068000.0 -0.9900218539369785 -0.14091390537145226 7.057810100945102e-17 -1.0596041947336249e-17 7.057810100945102e-17 -1.0596041947336249e-17 -0.99002176625714 -0.1409145213842064
12624685333.333334 -0.991108112061422 -0.1330590478167185 7.047708148438998e-17 -1.1159429695414124e-17 7.047708148438998e-17 -1.1159429695414124e-17 -0.9911080292730922 -0.13305966447520653
12625302666.666666 -0.9921320505524074 -0.1251958236784425 7.037156914907618e-17 -1.1721879400678333e-17 7.037156914907618e-17 -1.1721879400678333e-17 -0.9921319726603138 -0.12519644094382854
12625920000.0 -0.9930936050260352 -0.11732472738617461 7.026157254458231e-17 -1.2283355270147903e-17 7.026157254458231e-17 -1.2283355270147903e-17 -0.9930935320345972 -0.11732534521958837
12626537333.333334 -0.993992715021014 -0.10944625386462496 7.014710049684809e-17 -1.2843821587436402e-17 7.014710049684809e-17 -1.2843821587436402e-17 -0.9939926469343413 -0.1094468722271642
12627154666.666666 -0.9948293240024839 -0.101560898502374 7.002816211600301e-17 -1.3403242715006771e-17 7.002816211600301e-17 -1.3403242715006771e-17 -0.9948292608243764 -0.10156151735510686
12627772000.0 -0.9956033793655845 -0.09366915712055303 6.990476679566552e-17 -1.396158309645213e-17 6.990476679566552e-17 -1.396158309645213e-17 -0.9956033210995368 -0.09366977642452101
12628389333.333334 -0.996314832438731 -0.08577152594206429 6.977692421223514e-17 -1.4518807258718894e-17 6.977692421223514e-17 -1.4518807258718894e-17 -0.9963147790879255 -0.08577214565828403
12629006666.666666 -0.9969636384867081 -0.077868501559954 6.96446443241533e-17 -1.5074879814383035e-17 6.96446443241533e-17 -1.5074879814383035e-17 -0.9969635900540174 -0.07786912164942004
12629624000.0 -0.9975497567134546 -0.06996058090649872 6.950793737115838e-17 -1.5629765463868596e-17 6.950793737115838e-17 -1.5629765463868596e-17 -0.9975497132014446 -0.06996120133018613
12630241333.333334 -0.9980731502646488 -0.062048261221789185 6.936681387351463e-17 -1.618342899769318e-17 6.936681387351463e-17 -1.618342899769318e-17 -0.9980731116755736 -0.06204888194065567
12630858666.666666 -0.9985337862300074 -0.05413204002263433 6.922128463122972e-17 -1.6735835298683224e-17 6.922128463122972e-17 -1.6735835298683224e-17 -0.9985337525658124 -0.054132660997622956
12631476000.0 -0.9989316356453809 -0.0462124150709663 6.907136072324601e-17 -1.7286949344215884e-17 6.907136072324601e-17 -1.7286949344215884e-17 -0.9989316069077009 -0.04621303626300777
12632093333.333334 -0.9992666734945456 -0.03828988434291026 6.891705350662589e-17 -1.7836736208406738e-17 6.891705350662589e-17 -1.7836736208406738e-17 -0.9992666496847052 -0.03829050571292548
12632710666.666666 -0.9995388787107923 -0.030364945997302415 6.875837461571057e-17 -1.838516106432788e-17 6.875837461571057e-17 -1.838516106432788e-17 -0.9995388598298083 -0.03036556750620498
12633328000.0 -0.9997482341782563 -0.022438098344224285 6.859533596126126e-17 -1.893218918621659e-17 6.859533596126126e-17 -1.893218918621659e-17 -0.9997482202268336 -0.022438719952922813
12633945333.333334 -0.999894726732981 -0.014509839813925089 6.842794972959068e-17 -1.947778595164948e-17 6.842794972959068e-17 -1.947778595164948e-17 -0.9998947177115138 -0.014510461483325738
12634562666.666666 -0.9999783471637488 -0.006580668925339105 6.825622838166958e-17 -2.0021916843736317e-17 6.825622838166958e-17 -2.0021916843736317e-17 -0.9999783430723239 -0.006581290616348086
12635180000.0 -0.9999990902126664 0.0013489157452320731 6.80801846522195e-17 -2.0564547453294707e-17 6.80801846522195e-17 -2.0564547453294707e-17 -0.9999990910510584 0.0013482940717061149
12635797333.333334 -0.9999569545754884 0.009278415595497908 6.789983154878655e-17 -2.1105643481020656e-17 6.789983154878655e-17 -2.1105643481020656e-17 -0.9999569603431634 0.009277793978541402
12636414666.666666 -0.9998519429017041 0.017207332028416684 6.771518235080175e-17 -2.164517073964179e-17 6.771518235080175e-17 -2.164517073964179e-17 -0.9998519535978173 0.01720671050710869
12637032000.0 -0.9996840617943674 0.02513516648371719 6.752625060861777e-17 -2.21830951560817e-17 6.752625060861777e-17 -2.21830951560817e-17 -0.999684077417765 0.025134545097126922
12637649333.333334 -0.9994533218096834 0.03306142046913385 6.733305014253462e-17 -2.2719382773596766e-17 6.733305014253462e-17 -2.2719382773596766e-17 -0.9994533423589019 0.03306079925631827
12638266666.666666 -0.9991597374563467 0.04098559559177984 6.713559504180593e-17 -2.325399975391456e-17 6.713559504180593e-17 -2.325399975391456e-17 -0.9991597629296117 0.04098497459178109
12638884000.0 -0.9988033271946233 0.048907193589485184 6.693389966362829e-17 -2.3786912379361614e-17 6.693389966362829e-17 -2.3786912379361614e-17 -0.9988033575898527 0.048906572841328294
12639501333.333334 -0.9983841134351923 0.056825716362155346 6.672797863211398e-17 -2.4318087054982655e-17 6.672797863211398e-17 -2.4318087054982655e-17 -0.998384148749995 0.05682509590484572
12640118666.666666 -0.9979021225377495 0.0647406660029211 6.651784683724844e-17 -2.484749031064958e-17 6.651784683724844e-17 -2.484749031064958e-17 -0.9979021627694236 0.06474004587544194
12640736000.0 -0.9973573848093151 0.07265154482989979 6.630351943382479e-17 -2.537508880317215e-17 6.630351943382479e-17 -2.537508880317215e-17 -0.9973574299548504 0.0726509250712098
12641353333.333334 -0.9967499345023774 0.0805578554168085 6.608501184037528e-17 -2.590084931837245e-17 6.608501184037528e-17 -2.590084931837245e-17 -0.9967499845584549 0.08055723606583937
12641970666.666666 -0.9960798098126941 0.08845910062483692 6.586233973806916e-17 -2.6424738773186915e-17 6.586233973806916e-17 -2.6424738773186915e-17 -0.9960798647756879 0.08845848172049096
12642588000.0 -0.9953470528769176 0.09635478363362356 6.563551906960691e-17 -2.694672421773166e-17 6.563551906960691e-17 -2.694672421773166e-17 -0.9953471127428921 0.0963541652147712
12643205333.333334 -0.994551709769937 0.10424440797252332 6.540456603809327e-17 -2.746677283736739e-17 6.540456603809327e-17 -2.746677283736739e-17 -0.9945517745346499 0.1042437900780007
12643822666.666666 -0.9936938305019745 0.11212747755193836 6.51694971058917e-17 -2.798485195476249e-17 6.51694971058917e-17 -2.798485195476249e-17 -0.9936939001608748 0.11212686022054474
12644440000.0 -0.9927734690154507 0.12000349669436966 6.49303289934688e-17 -2.850092903192958e-17 6.49303289934688e-17 -2.850092903192958e-17 -0.9927735435636804 0.12000287996486518
12645057333.333334 -0.9917906831815975 0.12787197016558527 6.468707867821894e-17 -2.901497167226369e-17 6.468707867821894e-17 -2.901497167226369e-17 -0.9917907626139914 0.12787135407668837
12645674666.666666 -0.9907455347968008 0.13573240320590088 6.443976339327276e-17 -2.9526947622568576e-17 6.443976339327276e-17 -2.9526947622568576e-17 -0.9907456191078877 0.135731787796286
12646292000.0 -0.9896380895787298 0.14358430156117694 6.418840062628421e-17 -3.003682477508577e-17 6.418840062628421e-17 -3.003682477508577e-17 -0.9896381787627324 0.14358368686947207
12646909333.333334 -0.9884684171621928 0.1514271715139525 6.393300811821847e-17 -3.0544571169477056e-17 6.393300811821847e-17 -3.0544571169477056e-17 -0.9884685112130291 0.1514265575787369
12647526666.666666 -0.9872365910947882 0.15926051991435033 6.36736038621047e-17 -3.105015499483864e-17 6.36736038621047e-17 -3.105015499483864e-17 -0.9872366900060677 0.15925990677415153
12648144000.0 -0.9859426888322276 0.16708385421136507 6.341020610178223e-17 -3.155354459168486e-17 6.341020610178223e-17 -3.155354459168486e-17 -0.9859427925972573 0.16708324190465704
12648761333.333334 -0.9845867917335097 0.17489668248358198 6.314283333063385e-17 -3.205470845391594e-17 6.314283333063385e-17 -3.205470845391594e-17 -0.9845869003452905 0.17489607104878246
12649378666.666666 -0.9831689850557985 0.18269851347013655 6.287150429030047e-17 -3.2553615230782573e-17 6.287150429030047e-17 -3.2553615230782573e-17 -0.9831690985070304 0.18269790294560515
12649996000.0 -0.981689357949045 0.19048885660174528 6.259623796937517e-17 -3.305023372884848e-17 6.259623796937517e-17 -3.305023372884848e-17 -0.9816894762321198 0.19048824702577982
12650613333.333334 -0.9801480034503892 0.19826722203143804 6.231705360208938e-17 -3.354453291392775e-17 6.231705360208938e-17 -3.354453291392775e-17 -0.9801481265573995 0.1982666134422737
12651230666.666666 -0.9785450184783167 0.20603312066538912 6.203397066698544e-17 -3.4036481913009925e-17 6.203397066698544e-17 -3.4036481913009925e-17 -0.9785451464010508 0.206032513101195
12651848000.0 -0.9768805038265573 0.21378606419366947 6.174700888555942e-17 -3.452605001619797e-17 6.174700888555942e-17 -3.452605001619797e-17 -0.9768806365565019 0.21378545769254645
12652465333.333334 -0.9751545641577499 0.22152556512095165 6.14561882209082e-17 -3.501320667860213e-17 6.14561882209082e-17 -3.501320667860213e-17 -0.9751547016860905 0.2215249597209302
12653082666.666666 -0.9733673079968619 0.22925113679716272 6.116152887635269e-17 -3.5497921522238175e-17 6.116152887635269e-17 -3.5497921522238175e-17 -0.9733674503144828 0.22925053253620026
12653700000.0 -0.9715188477243624 0.23696229344808392 6.086305129403543e-17 -3.598016433793132e-17 6.086305129403543e-17 -3.598016433793132e-17 -0.9715189948218483 0.23696169036406273
12654317333.333334 -0.9696092995691599 0.24465855020589616 6.056077615352855e-17 -3.6459905087167137e-17 6.056077615352855e-17 -3.6459905087167137e-17 -0.9696094514367953 0.2446579483366207
12654934666.666666 -0.967638783601292 0.25233942313966773 6.02547243704021e-17 -3.6937113903972384e-17 6.02547243704021e-17 -3.6937113903972384e-17 -0.9676389402290629 0.2523388225228623
12655552000.0 -0.9656074237243738 0.26000442928578243 5.99449170947876e-17 -3.741176109676622e-17 5.99449170947876e-17 -3.741176109676622e-17 -0.9656075851019673 0.26000382995908916
12656169333.333334 -0.9635153476678107 0.26765308667830917 5.963137570993874e-17 -3.788381715018327e-17 5.963137570993874e-17 -3.788381715018327e-17 -0.9635155137846168 0.2676524886792851
12656786666.666666 -0.9613626869787633 0.2752849143793061 5.931412183075104e-17 -3.835325272692469e-17 5.931412183075104e-17 -3.835325272692469e-17 -0.961362857823874 0.275284317745421
12657404000.0 -0.9591495770138766 0.28289943250906113 5.89931773022948e-17 -3.882003866955527e-17 5.89931773022948e-17 -3.882003866955527e-17 -0.9591497525760907 0.2828988372776963
12658021333.333334 -0.9568761569307661 0.29049616227629627 5.866856419831482e-17 -3.928414600231656e-17 5.866856419831482e-17 -3.928414600231656e-17 -0.9568763371985829 0.2904955684847399
12658638666.666666 -0.9545425696792909 0.29807462600816015 5.834030481973013e-17 -3.9745545932908046e-17 5.834030481973013e-17 -3.9745545932908046e-17 -0.9545427546409173 0.2980740336936069
12659256000.0 -0.9521489619925237 0.30563434718043003 5.800842169310059e-17 -4.0204209854281766e-17 5.800842169310059e-17 -4.0204209854281766e-17 -0.952149151635873 0.3056337563799783
12659873333.333334 -0.9496954843775547 0.3131748504473654 5.76729375691019e-17 -4.066010934639333e-17 5.76729375691019e-17 -4.066010934639333e-17 -0.9496956786902456 0.31317426119801417
12660490666.666666 -0.9471822911060186 0.3206956616716235 5.733387542097665e-17 -4.11132161779552e-17 5.733387542097665e-17 -4.11132161779552e-17 -0.9471824900753789 0.3206950740102712
12661108000.0 -0.9446095402043975 0.32819630795407395 5.699125844295946e-17 -4.1563502308193033e-17 5.699125844295946e-17 -4.1563502308193033e-17 -0.944609743817461 0.3281957219175148
12661725333.333334 -0.9419773934440782 0.3356763176635319 5.664511004871705e-17 -4.2010939888550435e-17 5.664511004871705e-17 -4.2010939888550435e-17 -0.9419776016875913 0.3356757332884553
12662342666.666666 -0.9392860163311879 0.3431352204664161 5.629545386974529e-17 -4.2455501264421086e-17 5.629545386974529e-17 -4.2455501264421086e-17 -0.9392862291916046 0.34313463778940284
12662960000.0 -0.9365355780961812 0.35057254735632093 5.594231375377167e-17 -4.289715897684177e-17 5.594231375377167e-17 -4.289715897684177e-17 -0.9365357955596679 0.35057196641384164
12663577333.333334 -0.9337262516832027 0.3579878306835081 5.558571376313759e-17 -4.3335885764182125e-17 5.558571376313759e-17 -4.3335885764182125e-17 -0.9337264737356381 0.357987251511921
12664194666.666666 -0.9308582137392114 0.36538060418431134 5.522567817316859e-17 -4.377165456381918e-17 5.522567817316859e-17 -4.377165456381918e-17 -0.9308584403661853 0.3653800268198593
12664812000.0 -0.9279316446028727 0.37275040301045453 5.4862231470531525e-17 -4.4204438513798606e-17 5.4862231470531525e-17 -4.4204438513798606e-17 -0.92793187578969 0.3727498274892636
12665429333.333334 -0.9249467282932082 0.38009676375830703 5.449539835157753e-17 -4.46342109544839e-17 5.449539835157753e-17 -4.46342109544839e-17 -0.9249469640248885 0.38009619011638385
12666046666.666666 -0.9219036524980806 0.3874192244978906 5.412520372067984e-17 -4.506094543018275e-17 5.412520372067984e-17 -4.506094543018275e-17 -0.9219038927593585 0.38741865277111986
12666664000.0 -0.9188026085622701 0.39471732480221405 5.375167268853847e-17 -4.548461569078423e-17 5.375167268853847e-17 -4.548461569078423e-17 -0.9188028533375978 0.3947167550263569
12667281333.333334 -0.9156437914755986 0.4019906057758569 5.337483057050427e-17 -4.590519569334379e-17 5.337483057050427e-17 -4.590519569334379e-17 -0.9156440407491452 0.401990037986548
12667898666.666666 -0.912427399860556 0.4092386100840855 5.299470288485972e-17 -4.6322659603691105e-17 5.299470288485972e-17 -4.6322659603691105e-17 -0.9124276536162105 0.40923804431683164
12668516000.0 -0.9091536359598131 0.4164608819816107 5.2611315351099966e-17 -4.6736981798008344e-17 5.2611315351099966e-17 -4.6736981798008344e-17 -0.9091538941811832 0.4164603182717876
12669133333.333334 -0.905822705623605 0.4236569673410086 5.222469388821403e-17 -4.714813686438135e-17 5.222469388821403e-17 -4.714813686438135e-17 -0.9058229682940198 0.4236564057238596
12669750666.666666 -0.9024348182966753 0.4308264136815375 5.183486461292812e-17 -4.75560996043644e-17 5.183486461292812e-17 -4.75560996043644e-17 -0.9024350853991854 0.4308258541921705
