! Parameters = {f0=12700.012000; bw=77.238000; Q=6100.000000; N=10; m_0_1=1.293188; m_1_1=0.633077; m_1_2=1.128000; m_2_2=0.632428; m_2_3=0.764963; m_2_8=0.001723; m_2_9=0.038427; m_3_3=0.630491; m_3_4=0.653492; m_3_7=0.002323; m_3_8=-0.094765; m_3_9=0.001723; m_4_4=0.627566; m_4_5=0.489827; m_4_6=0.005840; m_4_7=-0.115314; m_4_8=0.002323; m_5_5=0.627948; m_5_6=0.897182; m_5_7=0.005840; m_6_6=0.627947; m_6_7=0.490169; m_7_7=0.627580; m_7_8=0.653610; m_8_8=0.630489; m_8_9=0.765276; m_9_9=0.632423; m_9_10=1.129078; m_10_10=0.633067; m_10_11=1.293983}
!
! Created with skrf (http://scikit-rf.org).
# Hz S RI R 50.0 
!freq ReS11 ImS11 ReS21 ImS21 ReS12 ImS12 ReS22 ImS22
12607400000.0 0.7798059915784902 -0.6260212580241212 -7.022411596774448e-17 1.0126118086340378e-16 -7.022411596774448e-17 1.0126118086340378e-16 0.7798064180774419 -0.6260207267535532
12608017333.333334 0.7727404271860188 -0.634722169293137 -6.9062171235722e-17 1.0202805097181435e-16 -6.9062171235722e-17 1.0202805097181435e-16 0.7727408595916043 -0.6347216428620068
12608634666.666666 0.7655777849167307 -0.6433433416472177 -6.789186725966408e-17 1.0278159917078357e-16 -6.789186725966408e-17 1.0278159917078357e-16 0.7655782231740527 -0.6433428201211835
12609252000.0 0.758318964599544 -0.6518836920252667 -6.671335665391667e-17 1.035217345179829e-16 -6.671335665391667e-17 1.035217345179829e-16 0.7583194086529743 -0.6518831754693626
12609869333.333334 0.7509648781459995 -0.6603421475197393 -6.552679302012916e-17 1.0424836781804247e-16 -6.552679302012916e-17 1.0424836781804247e-16 0.7509653279391886 -0.66034163599837
12610486666.666666 0.7435164494358323 -0.6687176455112811 -6.433233092730521e-17 1.0496141163322491e-16 -6.433233092730521e-17 1.0496141163322491e-16 0.7435169049117134 -0.6687171390882116
12611104000.0 0.7359746142006194 -0.6770091338025406 -6.313012589166096e-17 1.0566078029391945e-16 -6.313012589166096e-17 1.0566078029391945e-16 0.7359750753014199 -0.6770086325408904
12611721333.333334 0.7283403199066093 -0.6852155707499323 -6.192033435645997e-17 1.063463899088513e-16 -6.192033435645997e-17 1.063463899088513e-16 0.7283407865738534 -0.6852150747121651
12612338666.666666 0.7206145256354235 -0.693335925394791 -6.070311367166553e-17 1.0701815837510354e-16 -6.070311367166553e-17 1.0701815837510354e-16 0.7206149978099424 -0.6933354346427085
12612956000.0 0.712798201963588 -0.7013691775928662 -5.947862207350029e-17 1.0767600538789751e-16 -5.947862207350029e-17 1.0767600538789751e-16 0.7127986795855278 -0.7013686921876007
12613573333.333334 0.7048923308407786 -0.7093143181422972 -5.824701866395882e-17 1.0831985245010776e-16 -5.824701866395882e-17 1.0831985245010776e-16 0.7048928138496058 -0.7093138381443025
12614190666.666666 0.6968979054662835 -0.7171703489105816 -5.700846339012919e-17 1.0894962288159195e-16 -5.700846339012919e-17 1.0894962288159195e-16 0.6968983938007944 -0.7171698743796268
12614808000.0 0.6888159301642462 -0.7249362829599452 -5.576311702347925e-17 1.095652418282504e-16 -5.576311702347925e-17 1.095652418282504e-16 0.688816423762575 -0.7249358139551074
12615425333.333334 0.6806474202575991 -0.7326111446712326 -5.4511141139008683e-17 1.1016663627086811e-16 -5.4511141139008683e-17 1.1016663627086811e-16 0.680647919057223 -0.7326106812508874
12616042666.666666 0.6723934019404251 -0.7401939698665481 -5.325269809434093e-17 1.1075373503370214e-16 -5.325269809434093e-17 1.1075373503370214e-16 0.672393905878175 -0.740193512088365
12616660000.0 0.6640549121490621 -0.7476838059303671 -5.19879510086926e-17 1.113264687928466e-16 -5.19879510086926e-17 1.113264687928466e-16 0.6640554211611303 -0.7476833538513016
12617277333.333334 0.6556329984318349 -0.7550797119292103 -5.071706374176597e-17 1.1188477008435116e-16 -5.071706374176597e-17 1.1188477008435116e-16 0.6556335124537813 -0.7550792656054955
12617894666.666666 0.6471287188174729 -0.7623807587298315 -4.944020087257489e-17 1.1242857331209115e-16 -4.944020087257489e-17 1.1242857331209115e-16 0.6471292377842351 -0.7623803182169723
12618512000.0 0.6385431416820855 -0.7695860291160364 -4.815752767811981e-17 1.129578147554259e-16 -4.815752767811981e-17 1.129578147554259e-16 0.6385436655279865 -0.7695855944688026
12619129333.333334 0.6298773456151613 -0.7766946179037265 -4.686921011209431e-17 1.1347243257656559e-16 -4.686921011209431e-17 1.1347243257656559e-16 0.6298778742739166 -0.7766941891761451
12619746666.666666 0.621132419283893 -0.7837056320547637 -4.5575414783407927e-17 1.1397236682774156e-16 -4.5575414783407927e-17 1.1397236682774156e-16 0.6211329526886203 -0.7837052093001127
12620364000.0 0.6123094612963184 -0.7906181907892268 -4.427630893466543e-17 1.1445755945811735e-16 -4.427630893466543e-17 1.1445755945811735e-16 0.612309999379547 -0.7906177740600298
12620981333.333334 0.6034095800636412 -0.7974314256958009 -4.297206042063253e-17 1.1492795432043338e-16 -4.297206042063253e-17 1.1492795432043338e-16 0.6034101227573182 -0.797431015043819
12621598666.666666 0.5944338936606696 -0.8041444808411196 -4.1662837686537614e-17 1.1538349717744252e-16 -4.1662837686537614e-17 1.1538349717744252e-16 0.5944344408961695 -0.8041440763173446
12622216000.0 0.5853835296854882 -0.8107565128771874 -4.034880974637147e-17 1.1582413570807415e-16 -4.034880974637147e-17 1.1582413570807415e-16 0.5853840813936223 -0.8107561145318375
12622833333.333334 0.5762596251177561 -0.817266691147364 -3.9030146161097226e-17 1.1624981951336186e-16 -3.9030146161097226e-17 1.1624981951336186e-16 0.5762601812287802 -0.8172662990298757
12623450666.666666 0.567063326175962 -0.8236741977906511 -3.770701701682194e-17 1.166605001221154e-16 -3.770701701682194e-17 1.166605001221154e-16 0.5670638866195858 -0.8236738119496736
12624068000.0 0.5577957881733351 -0.8299782278445053 -3.637959290286347e-17 1.170561309963599e-16 -3.637959290286347e-17 1.170561309963599e-16 0.5577963528787312 -0.8299778483278956
12624685333.333334 0.5484581753725867 -0.8361779893460427 -3.5048044889807846e-17 1.1743666753651048e-16 -3.5048044889807846e-17 1.1743666753651048e-16 0.5484587442683986 -0.8361776162008573
12625302666.666666 0.539051660840023 -0.8422727034312767 -3.371254450752123e-17 1.17802067086298e-16 -3.371254450752123e-17 1.17802067086298e-16 0.539052233854375 -0.8422723367037677
12625920000.0 0.5295774262977251 -0.8482616044332641 -3.2373263723027657e-17 1.1815228893746697e-16 -3.2373263723027657e-17 1.1815228893746697e-16 0.5295780033582319 -0.8482612441688738
12626537333.333334 0.5200366619754498 -0.8541439399780633 -3.103037491846736e-17 1.1848729433418867e-16 -3.103037491846736e-17 1.1848729433418867e-16 0.520037243009224 -0.8541435862214163
12627154666.666666 0.5104305664609853 -0.8599189710793315 -2.968405086891011e-17 1.1880704647725127e-16 -2.968405086891011e-17 1.1880704647725127e-16 0.5104311513946479 -0.8599186238742311
12627772000.0 0.5007603465493278 -0.8655859722313055 -2.833446472014344e-17 1.1911151052799227e-16 -2.833446472014344e-17 1.1911151052799227e-16 0.5007609353090173 -0.8655856316207282
12628389333.333334 0.49102721709156594 -0.8711442314996576 -2.6981789966490376e-17 1.1940065361196508e-16 -2.6981789966490376e-17 1.1940065361196508e-16 0.4910278096029471 -0.871143897525747
12629006666.666666 0.4812324008417939 -0.876593050611206 -2.5626200428475877e-17 1.1967444482237909e-16 -2.5626200428475877e-17 1.1967444482237909e-16 0.48123299703006744 -0.8765927233152672
12629624000.0 0.4713771283038193 -0.8819317450414529 -2.4267870230582674e-17 1.1993285522326012e-16 -2.4267870230582674e-17 1.1993285522326012e-16 0.4713777280937314 -0.8819314244639489
12630241333.333334 0.4614626375763292 -0.8871596441007193 -2.2906973778885348e-17 1.2017585785237903e-16 -2.2906973778885348e-17 1.2017585785237903e-16 0.4614632408921813 -0.887159330281265
12630858666.666666 0.4514901741976515 -0.8922760910182403 -2.1543685738718496e-17 1.2040342772391407e-16 -2.1543685738718496e-17 1.2040342772391407e-16 0.45149078096330925 -0.892275783995598
12631476000.0 0.4414609909889023 -0.8972804430248738 -2.017818101224194e-17 1.206155418308752e-16 -2.017818101224194e-17 1.206155418308752e-16 0.44146160112780525 -0.8972801428369475
12632093333.333334 0.4313763478969491 -0.9021720714336637 -1.881063471610081e-17 1.2081217914725372e-16 -1.881063471610081e-17 1.2081217914725372e-16 0.4313769613321209 -0.9021717781174959
12632710666.666666 0.4212375118360028 -0.9069503617188934 -1.744122215896785e-17 1.2099332062993688e-16 -1.744122215896785e-17 1.2099332062993688e-16 0.4212381284900602 -0.9069500753106589
12633328000.0 0.4110457565282236 -0.9116147135933899 -1.6070118819093737e-17 1.211589492203626e-16 -1.6070118819093737e-17 1.211589492203626e-16 0.41104637632338703 -0.9116144341283934
12633945333.333334 0.40080236234409267 -0.9161645410837578 -1.4697500321872244e-17 1.213090498459183e-16 -1.4697500321872244e-17 1.213090498459183e-16 0.40080298520219515 -0.9161642685964275
12634562666.666666 0.3905086161413293 -0.9205992726041021 -1.3323542417381493e-17 1.2144360942108648e-16 -1.3323542417381493e-17 1.2144360942108648e-16 0.3905092419838271 -0.9205990071279867
12635180000.0 0.3801658111032778 -0.9249183510278105 -1.1948420957904439e-17 1.2156261684833908e-16 -1.1948420957904439e-17 1.2156261684833908e-16 0.3801664398512597 -0.9249180925955749
12635797333.333334 0.3697752465764202 -0.9291212337575565 -1.0572311875455356e-17 1.2166606301877614e-16 -1.0572311875455356e-17 1.2166606301877614e-16 0.3697758781506181 -0.9291209824009773
12636414666.666666 0.35933822790727554 -0.9332073927934121 -9.195391159322284e-18 1.2175394081250964e-16 -9.195391159322284e-18 1.2175394081250964e-16 0.35933886222807304 -0.9332071485433726
12637032000.0 0.34885606627814364 -0.9371763147992782 -7.81783483355894e-18 1.2182624509879628e-16 -7.81783483355894e-18 1.2182624509879628e-16 0.3488567032655886 -0.9371760776857693
12637649333.333334 0.33833007854265373 -0.9410275011672816 -6.43981893455037e-18 1.2188297273591322e-16 -6.43981893455037e-18 1.2188297273591322e-16 0.33833071811646576 -0.9410272712193919
12638266666.666666 0.32776158706019404 -0.9447604680804551 -5.061519488533727e-18 1.2192412257078233e-16 -5.061519488533727e-18 1.2192412257078233e-16 0.32776222913977565 -0.94476024532637
12638884000.0 0.3171519195298136 -0.9483747465735114 -3.68311248915346e-18 1.219496954383404e-16 -3.68311248915346e-18 1.219496954383404e-16 0.3171525640342613 -0.9483745310405125
12639501333.333334 0.306502408823401 -0.9518698825917696 -2.304773875005101e-18 1.219596941606559e-16 -2.304773875005101e-18 1.219596941606559e-16 0.3065030556715139 -0.9518696743062273
12640118666.666666 0.2958143928184258 -0.9552454370481354 -9.266795072538199e-19 1.219541235457924e-16 -9.266795072538199e-19 1.219541235457924e-16 0.29581504192871655 -0.9552452360355059
12640736000.0 0.2850892142293222 -0.9585009858784317 4.509948528393416e-19 1.2193299038641942e-16 4.509948528393416e-19 1.2193299038641942e-16 0.28508986552002735 -0.9585007921632567
12641353333.333334 0.27432822043961985 -0.9616361200944197 1.8280735662137417e-18 1.218963034581713e-16 1.8280735662137417e-18 1.218963034581713e-16 0.2743288738287102 -0.9616359337003217
12641970666.666666 0.2635327633319964 -0.964650445835391 3.2043811384370667e-18 1.2184407351775206e-16 3.2043811384370667e-18 1.2184407351775206e-16 0.2635334187371873 -0.9646502667850708
12642588000.0 0.25270419911877007 -0.9675435844175487 4.579742242015958e-18 1.2177631330079023e-16 4.579742242015958e-18 1.2177631330079023e-16 0.2527048564575309 -0.967543412732781
12643205333.333334 0.24184388817138291 -0.9703151723816159 5.953981738680099e-18 1.2169303751944104e-16 5.953981738680099e-18 1.2169303751944104e-16 0.24184454736094896 -0.970315008083249
12643822666.666666 0.23095319484955595 -0.9729648615384837 7.326924701675004e-18 1.2159426285973706e-16 7.326924701675004e-18 1.2159426285973706e-16 0.2309538558069378 -0.9729647046464357
12644440000.0 0.2200334873299146 -0.9754923190129458 8.698396437987998e-18 1.2148000797868906e-16 8.698396437987998e-18 1.2148000797868906e-16 0.22003414997190893 -0.9754921695462029
12645057333.333334 0.2090861374341074 -0.9778972272855179 1.006822251052531e-17 1.2135029350113712e-16 1.006822251052531e-17 1.2135029350113712e-16 0.2090868016773074 -0.9778970852621315
12645674666.666666 0.19811252045649558 -0.9801792842323253 1.143622876027903e-17 1.2120514201635075e-16 1.143622876027903e-17 1.2120514201635075e-16 0.1981131862173013 -0.9801791496694094
12646292000.0 0.18711401499107025 -0.9823382031631165 1.2802241328456679e-17 1.2104457807437737e-16 1.2802241328456679e-17 1.2104457807437737e-16 0.18711468218569954 -0.9823380760768479
12646909333.333334 0.17609200275879164 -0.9843737128571733 1.416608667849849e-17 1.208686281821497e-16 1.416608667849849e-17 1.208686281821497e-16 0.1760926713032902 -0.9843735932627861
12647526666.666666 0.16504786843361646 -0.9862855575974626 1.552759161812078e-17 1.2067732079933726e-16 1.552759161812078e-17 1.2067732079933726e-16 0.1650485382438688 -0.9862854455092502
12648144000.0 0.15398299946862726 -0.9880734972027445 1.6886583321285915e-17 1.204706863339512e-16 1.6886583321285915e-17 1.204706863339512e-16 0.153983670460367 -0.9880733926340549
12648761333.333334 0.14289878592172922 -0.989737307057744 1.824288935007259e-17 1.2024875713770933e-16 1.824288935007259e-17 1.2024875713770933e-16 0.14289945801054954 -0.989737210020978
12649378666.666666 0.13179662028118777 -0.9912767781413392 1.9596337676536082e-17 1.2001156750114867e-16 1.9596337676536082e-17 1.2001156750114867e-16 0.13179729338255275 -0.9912766886479535
12649996000.0 0.12067789729044204 -0.9926917170528704 2.0946756704504095e-17 1.1975915364849234e-16 2.0946756704504095e-17 1.1975915364849234e-16 0.1206785713196964 -0.9926916351133697
12650613333.333334 0.10954401377299626 -0.9939819460364065 2.2293975291302226e-17 1.1949155373227302e-16 2.2293975291302226e-17 1.1949155373227302e-16 0.10954468864537657 -0.9939818716603468
12651230666.666666 0.09839636845705357 -0.9951473030030691 2.363782276937569e-17 1.1920880782771899e-16 2.363782276937569e-17 1.1920880782771899e-16 0.09839704408769896 -0.9951472361990571
12651848000.0 0.08723636179954258 -0.9961876415514285 2.49781289679236e-17 1.189109579268827e-16 2.49781289679236e-17 1.189109579268827e-16 0.08723703810350497 -0.9961875823271166
12652465333.333334 0.07606539581032098 -0.9971028309858703 2.631472423437987e-17 1.185980479325419e-16 2.631472423437987e-17 1.185980479325419e-16 0.07606607270257608 -0.9971027793479588
12653082666.666666 0.0648848738762144 -0.9978927563330062 2.76474394558505e-17 1.1827012365185498e-16 2.76474394558505e-17 1.1827012365185498e-16 0.06488555127167231 -0.9978927122872426
12653700000.0 0.053696200584314915 -0.9985573183561506 2.897610608052373e-17 1.1792723278976257e-16 2.897610608052373e-17 1.1792723278976257e-16 0.05369687839783074 -0.9985572819073254
12654317333.333334 0.04250078154595053 -0.9990964335677525 3.030055613888614e-17 1.1756942494217722e-16 3.030055613888614e-17 1.1756942494217722e-16 0.042501459692335264 -0.999096404719704
12654934666.666666 0.03130002321984596 -0.999510034239904 3.162062226496716e-17 1.171967515889085e-16 3.162062226496716e-17 1.171967515889085e-16 0.031300701613877144 -0.9995100129955162
12655552000.0 0.020095332735318272 -0.9997980684128545 3.2936137717464365e-17 1.1680926608635741e-16 3.2936137717464365e-17 1.1680926608635741e-16 0.020096011291750537 -0.9997980547740528
12656169333.333334 0.008888117715927792 -0.9999604999015141 3.4246936400720996e-17 1.1640702365999047e-16 3.4246936400720996e-17 1.1640702365999047e-16 0.008888796349503734 -0.99996049386927
12656786666.666666 -0.002320213897756391 -0.9999973083000208 3.5552852885709765e-17 1.1599008139655376e-16 3.5552852885709765e-17 1.1599008139655376e-16 -0.0023195352722955418 -0.9999973098743506
12657404000.0 -0.013528254024862858 -0.9999084889842959 3.6853722430856544e-17 1.1555849823606873e-16 3.6853722430856544e-17 1.1555849823606873e-16 -0.013527575492766546 -0.9999084981642594
12658021333.333334 -0.02473459462116914 -0.9996940531126234 3.814938100279497e-17 1.1511233496358846e-16 3.814938100279497e-17 1.1511233496358846e-16 -0.02473391626766678 -0.9996940698963268
12658638666.666666 -0.0359378278558211 -0.9993540276242563 3.94396652969965e-17 1.1465165420073052e-16 3.94396652969965e-17 1.1465165420073052e-16 -0.035937149766111356 -0.9993540520088493
12659256000.0 -0.04713654628859379 -0.9988884552360197 4.0724412758364506e-17 1.1417652039695574e-16 4.0724412758364506e-17 1.1417652039695574e-16 -0.04713586854783383 -0.9988884872176969
12659873333.333334 -0.058329343046279056 -0.9982973944369518 4.2003461601630297e-17 1.136869998206504e-16 4.2003461601630297e-17 1.136869998206504e-16 -0.05832866573957403 -0.9982974340109559
12660490666.666666 -0.06951481199954239 -0.9975809194809645 4.3276650831702034e-17 1.1318316054996027e-16 4.3276650831702034e-17 1.1318316054996027e-16 -0.06951413521193449 -0.997580966641583
12661108000.0 -0.08069154793982712 -0.9967391203774902 4.454382026393627e-17 1.1266507246338328e-16 4.454382026393627e-17 1.1266507246338328e-16 -0.08069087175628512 -0.9967391751180593
12661725333.333334 -0.09185814675546294 -0.9957721028802075 4.5804810544192697e-17 1.1213280723017828e-16 4.5804810544192697e-17 1.1213280723017828e-16 -0.09185747126087139 -0.9957721651931114
12662342666.666666 -0.10301320560848672 -0.9946799884737216 4.705946316888713e-17 1.1158643830050467e-16 4.705946316888713e-17 1.1158643830050467e-16 -0.10301253088763536 -0.9946800583503939
12662960000.0 -0.11415532311056655 -0.9934629143583271 4.830762050486112e-17 1.1102604089536563e-16 4.830762050486112e-17 1.1102604089536563e-16 -0.11415464924813976 -0.9934629917892528
12663577333.333334 -0.12528309949919736 -0.9921210334327621 4.954912580915188e-17 1.1045169199632165e-16 4.954912580915188e-17 1.1045169199632165e-16 -0.12528242657976338 -0.9921211184074781
12664194666.666666 -0.13639513681349386 -0.990654514275006 5.0783823248653557e-17 1.0986347033497788e-16 5.0783823248653557e-17 1.0986347033497788e-16 -0.136394464921494 -0.9906546067821004
12664812000.0 -0.14749003906992555 -0.9890635411210801 5.201155791962326e-17 1.0926145638226612e-16 5.201155791962326e-17 1.0926145638226612e-16 -0.14748936828966422 -0.9890636411481994
12665429333.333334 -0.1585664124375517 -0.9873483138419303 5.323217586709563e-17 1.0864573233749414e-16 5.323217586709563e-17 1.0864573233749414e-16 -0.1585657428531852 -0.9873484213757757
12666046666.666666 -0.16962286541309687 -0.985509047918318 5.444552410413157e-17 1.0801638211719631e-16 5.444552410413157e-17 1.0801638211719631e-16 -0.16962219710862306 -0.9855091629446486
12666664000.0 -0.18065800899604392 -0.9835459744137054 5.565145063100324e-17 1.0737349134373521e-16 5.565145063100324e-17 1.0737349134373521e-16 -0.18065734205529177 -0.9835460969173413
12667281333.333334 -0.19167045686273831 -0.9814593399452922 5.684980445413896e-17 1.0671714733374541e-16 5.684980445413896e-17 1.0671714733374541e-16 -0.19166979136935733 -0.9814594699101161
12667898666.666666 -0.20265882554080236 -0.9792494066529945 5.8040435605036e-17 1.0604743908631173e-16 5.8040435605036e-17 1.0604743908631173e-16 -0.202658161578252 -0.9792495440619522
12668516000.0 -0.21362173458304837 -0.9769164521664832 5.922319515898929e-17 1.0536445727096099e-16 5.922319515898929e-17 1.0536445727096099e-16 -0.2136210722345878 -0.9769165970015882
12669133333.333334 -0.22455780674048414 -0.9744607695703933 6.039793525365329e-17 1.0466829421546139e-16 6.039793525365329e-17 1.0466829421546139e-16 -0.22455714608916152 -0.9744609218127271
12669750666.666666 -0.2354656681357234 -0.9718826673674227 6.156450910753239e-17 1.0395904389337361e-16 6.156450910753239e-17 1.0395904389337361e-16 -0.23546500926436578 -0.9718828269971391
12670368000.0 -0.24634394843544494 -0.9691824694396063 6.272277103825497e-17 1.0323680191143846e-16 6.272277103825497e-17 1.0323680191143846e-16 -0.24634329142664746 -0.9691826364359323
