! Parameters = {f0=12700.012000; bw=77.238000; Q=6100.000000; N=10; m_0_1=1.227923; m_1_1=-0.345902; m_1_2=1.062735; m_2_2=-0.346551; m_2_3=0.699698; m_2_8=-0.001540; m_2_9=0.035164; m_3_3=-0.348488; m_3_4=0.588227; m_3_7=-0.000940; m_3_8=-0.098028; m_3_9=-0.001540; m_4_4=-0.351413; m_4_5=0.424562; m_4_6=0.002577; m_4_7=-0.118577; m_4_8=-0.000940; m_5_5=-0.351031; m_5_6=0.831917; m_5_7=0.002577; m_6_6=-0.351032; m_6_7=0.424904; m_7_7=-0.351399; m_7_8=0.588345; m_8_8=-0.348490; m_8_9=0.700011; m_9_9=-0.346556; m_9_10=1.063813; m_10_10=-0.345912; m_10_11=1.228718}
!
! Created with skrf (http://scikit-rf.org).
# Hz S RI R 50.0 
!freq ReS11 ImS11 ReS21 ImS21 ReS12 ImS12 ReS22 ImS22
12607400000.0 0.4944452051159584 0.8692088006559033 -6.511329933657145e-17 -6.258363063433508e-17 -6.511329933657145e-17 -6.258363063433508e-17 0.49444464272267047 0.8692091205703526
12608017333.333334 0.50248922499803 0.8645834712511652 -6.568383328535013e-17 -6.1958792949867e-17 -6.568383328535013e-17 -6.1958792949867e-17 0.5024886656248008 0.8645837963543166
12608634666.666666 0.5104899805919665 0.8598837012730557 -6.624837902498452e-17 -6.132876215904001e-17 -6.624837902498452e-17 -6.132876215904001e-17 0.5104894242866594 0.8598840315364098
12609252000.0 0.518446783033321 0.8551098953714866 -6.680688936425976e-17 -6.069359557860466e-17 -6.680688936425976e-17 -6.069359557860466e-17 0.5184462298435321 0.8551102307661054
12609869333.333334 0.5263589472420616 0.8502624645708309 -6.735931765991861e-17 -6.00533509534009e-17 -6.735931765991861e-17 -6.00533509534009e-17 0.5263583972151122 0.8502628050673351
12610486666.666666 0.5342257919813339 0.8453418262346608 -6.790561782052237e-17 -5.940808645114279e-17 -6.790561782052237e-17 -5.940808645114279e-17 0.5342252451642695 0.8453421718032352
12611104000.0 0.5420466399165307 0.840348404029563 -6.844574431029935e-17 -5.875786065712633e-17 -6.844574431029935e-17 -5.875786065712633e-17 0.5420460963561158 0.8403487546399597
12611721333.333334 0.5498208176731981 0.8352826278889154 -6.897965215289089e-17 -5.810273256896222e-17 -6.897965215289089e-17 -5.810273256896222e-17 0.5498202774159114 0.8352829835104535
12612338666.666666 0.5575476558951817 0.8301449339757627 -6.950729693510392e-17 -5.744276159120895e-17 -6.950729693510392e-17 -5.744276159120895e-17 0.5575471189872145 0.8301452945773358
12612956000.0 0.5652264893024023 0.8249357646451733 -7.002863481057855e-17 -5.677800753001052e-17 -7.002863481057855e-17 -5.677800753001052e-17 0.5652259557896518 0.8249361301952467
12613573333.333334 0.5728566567478262 0.8196555684063516 -7.054362250340123e-17 -5.610853058770821e-17 -7.054362250340123e-17 -5.610853058770821e-17 0.5728561266758934 0.8196559388729686
12614190666.666666 0.5804375012746735 0.8143047998838328 -7.105221731168612e-17 -5.5434391357392836e-17 -7.105221731168612e-17 -5.5434391357392836e-17 0.5804369746888585 0.8143051752346169
12614808000.0 0.5879683701727731 0.8088839197784868 -7.155437711109753e-17 -5.475565081743555e-17 -7.155437711109753e-17 -5.475565081743555e-17 0.5879678471180708 0.8088842999806432
12615425333.333334 0.5954486150349201 0.803393394827734 -7.205006035831338e-17 -5.4072370325994546e-17 -7.205006035831338e-17 -5.4072370325994546e-17 0.5954480955560187 0.8033937798480552
12616042666.666666 0.6028775918126381 0.7978336977654111 -7.253922609444486e-17 -5.338461161548093e-17 -7.253922609444486e-17 -5.338461161548093e-17 0.6028770759539123 0.7978340875702765
12616660000.0 0.6102546608715602 0.7922053072811188 -7.302183394839371e-17 -5.2692436787005824e-17 -7.302183394839371e-17 -5.2692436787005824e-17 0.6102541486770687 0.7922057018364994
12617277333.333334 0.6175791870466628 0.7865087079788875 -7.349784414017359e-17 -5.199590830477499e-17 -7.349784414017359e-17 -5.199590830477499e-17 0.6175786785601446 0.7865091072503485
12617894666.666666 0.6248505396967483 0.7807443903356067 -7.396721748415464e-17 -5.1295088990486884e-17 -7.396721748415464e-17 -5.1295088990486884e-17 0.624850034961619 0.7807447942883116
12618512000.0 0.6320680927590349 0.7749128506585705 -7.442991539228608e-17 -5.059004201765515e-17 -7.442991539228608e-17 -5.059004201765515e-17 0.6320675918183832 0.7749132592572823
12619129333.333334 0.6392312248026613 0.7690145910430605 -7.48858998772215e-17 -4.988083090596858e-17 -7.48858998772215e-17 -4.988083090596858e-17 0.6392307276992446 0.7690150042521462
12619746666.666666 0.6463393190825452 0.7630501193288347 -7.53351335554381e-17 -4.916751951555031e-17 -7.53351335554381e-17 -4.916751951555031e-17 0.6463388258587865 0.7630505371122673
12620364000.0 0.6533917635924161 0.7570199490564489 -7.577757965027331e-17 -4.845017204123189e-17 -7.577757965027331e-17 -4.845017204123189e-17 0.6533912742904007 0.7570203713778122
12620981333.333334 0.6603879511172518 0.7509245994232668 -7.621320199490348e-17 -4.772885300680722e-17 -7.621320199490348e-17 -4.772885300680722e-17 0.6603874657787229 0.7509250262457569
12621598666.666666 0.6673272792859043 0.7447645952384605 -7.664196503528569e-17 -4.7003627259231596e-17 -7.664196503528569e-17 -4.7003627259231596e-17 0.6673267979522596 0.7447650265248891
12622216000.0 0.6742091506227694 0.7385404668779901 -7.706383383303729e-17 -4.6274559962805347e-17 -7.706383383303729e-17 -4.6274559962805347e-17 0.6742086733350575 0.7385409025907884
12622833333.333334 0.6810329725993138 0.7322527502388627 -7.747877406825701e-17 -4.55417165933388e-17 -7.747877406825701e-17 -4.55417165933388e-17 0.6810324993982316 0.7322531903400848
12623450666.666666 0.687798157684926 0.7259019866931469 -7.788675204229033e-17 -4.480516293229191e-17 -7.788675204229033e-17 -4.480516293229191e-17 0.6877976886108145 0.7259024311444728
12624068000.0 0.694504123397732 0.7194887230411489 -7.828773468044361e-17 -4.406496506088306e-17 -7.828773468044361e-17 -4.406496506088306e-17 0.6945036584905725 0.7194891718038878
12624685333.333334 0.7011502923547026 0.7130135114643689 -7.868168953464932e-17 -4.3321189354160257e-17 -7.868168953464932e-17 -4.3321189354160257e-17 0.7011498316541149 0.7130139644994632
12625302666.666666 0.7077360923211026 0.7064769094782161 -7.906858478604992e-17 -4.2573902475096026e-17 -7.906858478604992e-17 -4.2573902475096026e-17 0.7077356358663387 0.7064773667462427
12625920000.0 0.714260956260184 0.6998794798835881 -7.944838924756255e-17 -4.1823171368589426e-17 -7.944838924756255e-17 -4.1823171368589426e-17 0.7142605040901281 0.6998799413447648
12626537333.333334 0.7207243223816489 0.6932217907187775 -7.982107236634654e-17 -4.106906325552518e-17 -7.982107236634654e-17 -4.106906325552518e-17 0.7207238745348111 0.6932222563329637
12627154666.666666 0.7271256341901755 0.6865044152103987 -8.018660422624866e-17 -4.031164562674257e-17 -8.018660422624866e-17 -4.031164562674257e-17 0.7271251907046912 0.686504884937101
12627772000.0 0.7334643405333743 0.6797279317239937 -8.054495555018035e-17 -3.955098623700573e-17 -8.054495555018035e-17 -3.955098623700573e-17 0.7334639014469992 0.6797284055223689
12628389333.333334 0.7397398956490862 0.6728929237144008 -8.089609770242211e-17 -3.878715309898539e-17 -8.089609770242211e-17 -3.878715309898539e-17 0.739739460999194 0.672893401543259
12629006666.666666 0.7459517592126028 0.665999979675269 -8.124000269089625e-17 -3.802021447716737e-17 -8.124000269089625e-17 -3.802021447716737e-17 0.7459513290361808 0.6660004614930765
12629624000.0 0.75209939638292 0.6590496930886792 -8.157664316936523e-17 -3.725023888177849e-17 -8.157664316936523e-17 -3.725023888177849e-17 0.7520989707165678 0.6590501788535644
12630241333.333334 0.7581822778490181 0.6520426623737973 -8.190599243957921e-17 -3.6477295062676703e-17 -8.190599243957921e-17 -3.6477295062676703e-17 0.758181856728942 0.652043152043551
12630858666.666666 0.764199879875245 0.644979490835559 -8.222802445336076e-17 -3.5701452003237066e-17 -8.222802445336076e-17 -3.5701452003237066e-17 0.7641994633372576 0.6449799843676417
12631476000.0 0.770151684346652 0.6378607866124482 -8.254271381464184e-17 -3.492277891419351e-17 -8.254271381464184e-17 -3.492277891419351e-17 0.7701512724261672 0.6378612839639909
12632093333.333334 0.77603717881329 0.6306871626245016 -8.285003578142966e-17 -3.4141345227496087e-17 -8.285003578142966e-17 -3.4141345227496087e-17 0.7760367715453222 0.6306876637523121
12632710666.666666 0.7818558565345555 0.6234592365202815 -8.31499662677231e-17 -3.335722059013021e-17 -8.31499662677231e-17 -3.335722059013021e-17 0.7818554539537126 0.6234597413808445
12633328000.0 0.7876072165228478 0.6161776306236437 -8.344248184537495e-17 -3.257047485790718e-17 -8.344248184537495e-17 -3.257047485790718e-17 0.7876068186633327 0.6161781391731286
12633945333.333334 0.7932907635864966 0.6088429718804261 -8.372755974587774e-17 -3.178117808928661e-17 -8.372755974587774e-17 -3.178117808928661e-17 0.7932903704821019 0.6088434840746885
12634562666.666666 0.7989060083725894 0.6014558918042221 -8.400517786211292e-17 -3.098940053912637e-17 -8.400517786211292e-17 -3.098940053912637e-17 0.798905620056695 0.601456407598808
12635180000.0 0.8044524674090185 0.5940170264221202 -8.427531475002699e-17 -3.0195212652455926e-17 -8.427531475002699e-17 -3.0195212652455926e-17 0.8044520839145887 0.5940175457722701
12635797333.333334 0.8099296631461582 0.5865270162198729 -8.453794963025511e-17 -2.939868505821601e-17 -8.453794963025511e-17 -2.939868505821601e-17 0.8099292845057393 0.5865275390805254
12636414666.666666 0.8153371239978472 0.5789865060869344 -8.479306238967768e-17 -2.8599888563011407e-17 -8.479306238967768e-17 -2.8599888563011407e-17 0.815336750243564 0.5789870324127304
12637032000.0 0.8206743843821939 0.5713961452606608 -8.50406335829339e-17 -2.77988941448024e-17 -8.50406335829339e-17 -2.77988941448024e-17 0.820674015545748 0.5713966750059478
12637649333.333334 0.825940984761531 0.5637565872705957 -8.528064443385949e-17 -2.6995772946631586e-17 -8.528064443385949e-17 -2.6995772946631586e-17 0.8259406208741963 0.5637571203894302
12638266666.666666 0.8311364716820253 0.5560684898821282 -8.551307683687456e-17 -2.619059627031243e-17 -8.551307683687456e-17 -2.619059627031243e-17 0.8311361127746483 0.5560690263282816
12638884000.0 0.8362603978126619 0.5483325150399568 -8.573791335830654e-17 -2.5383435570123147e-17 -8.573791335830654e-17 -2.5383435570123147e-17 0.8362600439156563 0.5483330547669184
12639501333.333334 0.8413123219838687 0.5405493288109304 -8.595513723766166e-17 -2.4574362446463004e-17 -8.595513723766166e-17 -2.4574362446463004e-17 0.8413119731272138 0.5405498717719114
12640118666.666666 0.8462918092253591 0.5327196013269122 -8.616473238882544e-17 -2.3763448639539793e-17 -8.616473238882544e-17 -2.3763448639539793e-17 0.8462914654385978 0.53272014747485
12640736000.0 0.851198430803784 0.5248440067267718 -8.636668340122131e-17 -2.295076602297877e-17 -8.636668340122131e-17 -2.295076602297877e-17 0.8511980921160199 0.5248445560143344
12641353333.333334 0.856031764259371 0.5169232230987735 -8.656097554088065e-17 -2.2136386597535483e-17 -8.656097554088065e-17 -2.2136386597535483e-17 0.8560314306992655 0.5169237754783628
12641970666.666666 0.8607913934425574 0.5089579324217846 -8.674759475148804e-17 -2.132038248466474e-17 -8.674759475148804e-17 -2.132038248466474e-17 0.8607910650383266 0.5089584878455405
12642588000.0 0.8654769085496934 0.5009488205067469 -8.692652765534073e-17 -2.0502825920179718e-17 -8.692652765534073e-17 -2.0502825920179718e-17 0.8654765853291098 0.5009493789265536
12643205333.333334 0.8700879061582949 0.4928965769377081 -8.709776155425629e-17 -1.9683789247876685e-17 -8.709776155425629e-17 -1.9683789247876685e-17 0.8700875881486789 0.4928971383051947
12643822666.666666 0.8746239892619104 0.48480189501219706 -8.726128443042612e-17 -1.8863344913122886e-17 -8.726128443042612e-17 -1.8863344913122886e-17 0.874623676490133 0.48480245927874444
12644440000.0 0.8790847673041945 0.4766654716817305 -8.741708494719902e-17 -1.8041565456485162e-17 -8.741708494719902e-17 -1.8041565456485162e-17 0.8790844597966723 0.4766660387984748
12645057333.333334 0.8834698562125066 0.46848800749185565 -8.756515244981105e-17 -1.7218523507322963e-17 -8.756515244981105e-17 -1.7218523507322963e-17 0.8834695539952008 0.4684885774096922
12645674666.666666 0.8877788784310661 0.4602702065216853 -8.770547696605204e-17 -1.6394291777393486e-17 -8.770547696605204e-17 -1.6394291777393486e-17 0.8877785815294794 0.4602707791912729
12646292000.0 0.8920114629534934 0.4520127763231987 -8.783804920687913e-17 -1.5568943054409597e-17 -8.783804920687913e-17 -1.5568943054409597e-17 0.8920111713926684 0.4520133516949641
12646909333.333334 0.8961672453546086 0.4437164278605975 -8.796286056695754e-17 -1.4742550195668625e-17 -8.796286056695754e-17 -1.4742550195668625e-17 0.8961669591591273 0.44371700588474056
12647526666.666666 0.9002458678218938 0.43538187544894497 -8.807990312515353e-17 -1.3915186121605024e-17 -8.807990312515353e-17 -1.3915186121605024e-17 0.9002455870158721 0.43538245607544107
12648144000.0 0.904246979186358 0.42700983669253245 -8.818916964495938e-17 -1.3086923809382472e-17 -8.818916964495938e-17 -1.3086923809382472e-17 0.9042467037934451 0.4270104198711376
12648761333.333334 0.9081702349526813 0.4186010324232707 -8.829065357486199e-17 -1.2257836286466095e-17 -8.829065357486199e-17 -1.2257836286466095e-17 0.9081699649960597 0.418601618103527
12649378666.666666 0.9120152973288498 0.4101561866387084 -8.838434904864865e-17 -1.1427996624207759e-17 -8.838434904864865e-17 -1.1427996624207759e-17 0.912015032831231 0.41015677476994694
12649996000.0 0.9157818352553643 0.40167602643940914 -8.847025088565588e-17 -1.0597477931402391e-17 -8.847025088565588e-17 -1.0597477931402391e-17 0.9157815762389879 0.4016766169707554
12650613333.333334 0.919469524433665 0.39316128196653083 -8.85483545909546e-17 -9.766353347878788e-18 -8.85483545909546e-17 -9.766353347878788e-18 0.9194692709202957 0.3931618748469082
12651230666.666666 0.9230780473540282 0.384612686339011 -8.861865635547686e-17 -8.934696038067492e-18 -8.861865635547686e-17 -8.934696038067492e-18 0.9230777993649553 0.38461328151714563
12651848000.0 0.9266070933229736 0.37603097559029025 -8.868115305608381e-17 -8.102579184558977e-18 -8.868115305608381e-17 -8.102579184558977e-18 0.9266068508790092 0.3760315730147157
12652465333.333334 0.930056358489981 0.3674168886050174 -8.873584225556994e-17 -7.270075981695486e-18 -8.873584225556994e-17 -7.270075981695486e-18 0.9300561216114567 0.36741748822407866
12653082666.666666 0.9334255458736186 0.3587711670555107 -8.878272220260876e-17 -6.437259629156855e-18 -8.878272220260876e-17 -6.437259629156855e-18 0.9334253145803856 0.35877176881736894
12653700000.0 0.9367143653871881 0.3500945553377156 -8.882179183164146e-17 -5.6042033254978314e-18 -8.882179183164146e-17 -5.6042033254978314e-18 0.9367141396986154 0.3500951591903528
12654317333.333334 0.9399225338636208 0.3413878005073243 -8.885305076269972e-17 -4.770980261773864e-18 -8.885305076269972e-17 -4.770980261773864e-18 0.9399223137985908 0.3413884063985469
12654934666.666666 0.9430497750799111 0.3326516522152931 -8.88764993011732e-17 -3.937663615094289e-18 -8.88764993011732e-17 -3.937663615094289e-18 0.9430495606568242 0.3326522600927383
12655552000.0 0.9460958197809298 0.32388686264324723 -8.889213843751453e-17 -3.1043265422196453e-18 -8.889213843751453e-17 -3.1043265422196453e-18 0.9460956110176951 0.32388747245438504
12656169333.333334 0.9490604057024723 0.31509418643906256 -8.889996984688541e-17 -2.271042173160799e-18 -8.889996984688541e-17 -2.271042173160799e-18 0.9490602026165109 0.31509479813120217
12656786666.666666 0.9519432775939944 0.3062743806514633 -8.889999588874246e-17 -1.437883604760106e-18 -8.889999588874246e-17 -1.437883604760106e-18 0.9519430802022385 0.3062749941717575
12657404000.0 0.9547441872405188 0.2974282046650559 -8.889221960636325e-17 -6.049238943007736e-19 -8.889221960636325e-17 -6.049238943007736e-19 0.9547439955594056 0.29742881996050424
12658021333.333334 0.9574628934839863 0.2885564201349692 -8.887664472631223e-17 2.2776394688036273e-19 -8.887664472631223e-17 2.2776394688036273e-19 0.9574627075294632 0.28855703715242487
12658638666.666666 0.9600991622440448 0.2796597909212551 -8.885327565784808e-17 1.0601069597811136e-18 -8.885327565784808e-17 1.0601069597811136e-18 0.9600989820315625 0.2796604096074273
12659256000.0 0.9626527665382397 0.2707390830229519 -8.882211749226969e-17 1.8920322441277588e-18 -8.882211749226969e-17 1.8920322441277588e-18 0.9626525920827544 0.2707397033244117
12659873333.333334 0.9651234865015064 0.2617950645123249 -8.878317600220387e-17 2.723466964728385e-18 -8.878317600220387e-17 2.723466964728385e-18 0.9651233178174757 0.26179568637550943
12660490666.666666 0.9675111094050685 0.2528285054688446 -8.87364576408342e-17 3.554338357825657e-18 -8.87364576408342e-17 3.554338357825657e-18 0.967510946506453 0.25282912884006187
12661108000.0 0.9698154296748761 0.24384017791244453 -8.868196954106747e-17 4.3845737374912536e-18 -8.868196954106747e-17 4.3845737374912536e-18 0.9698152725751354 0.24384080273787756
12661725333.333334 0.9720362489091766 0.2348308557375163 -8.861971951464512e-17 5.214100501925267e-18 -8.861971951464512e-17 5.214100501925267e-18 0.9720360976212716 0.23483148196322864
12662342666.666666 0.9741733758956604 0.2258013146460587 -8.854971605119174e-17 6.042846139823915e-18 -8.854971605119174e-17 6.042846139823915e-18 0.9741732304320504 0.22580194221799868
12662960000.0 0.9762266266279284 0.21675233208086175 -8.847196831720716e-17 6.870738236681385e-18 -8.847196831720716e-17 6.870738236681385e-18 0.9762264870005679 0.21675296094486654
12663577333.333334 0.9781958243213115 0.20768468715865088 -8.838648615499756e-17 7.697704481121046e-18 -8.838648615499756e-17 7.697704481121046e-18 0.9781956905416532 0.20768531726045208
12664194666.666666 0.9800807994281088 0.19859916060295052 -8.829328008154918e-17 8.52367267118744e-18 -8.829328008154918e-17 8.52367267118744e-18 0.9800806715071007 0.19859979188817842
12664812000.0 0.9818813896521587 0.18949653467697464 -8.819236128734248e-17 9.348570720641333e-18 -8.819236128734248e-17 9.348570720641333e-18 0.9818812676002433 0.18949716709116296
12665429333.333334 0.9835974399628571 0.18037759311607976 -8.808374163510862e-17 1.0172326665229597e-17 -8.808374163510862e-17 1.0172326665229597e-17 0.9835973237899698 0.18037822660467012
12666046666.666666 0.9852288026084564 0.17124312106050749 -8.796743365852699e-17 1.099486866895203e-17 -8.796743365852699e-17 1.099486866895203e-17 0.9852286923240265 0.1712437555688546
12666664000.0 0.986775337128832 0.16209390498756118 -8.784345056086168e-17 1.1816125030329395e-17 -8.784345056086168e-17 1.1816125030329395e-17 0.98677523274178 0.1620945404609371
12667281333.333334 0.9882369103675352 0.152930732644114 -8.771180621354657e-17 1.2636024188609823e-17 -8.771180621354657e-17 1.2636024188609823e-17 0.9882368118862737 0.15293136902771315
12667898666.666666 0.9896133964832863 0.14375439297861575 -8.757251515470584e-17 1.3454494730005338e-17 -8.757251515470584e-17 1.3454494730005338e-17 0.989613303915719 0.1437550302175596
12668516000.0 0.9909046769608186 0.13456567607310851 -8.742559258761717e-17 1.4271465393913117e-17 -8.742559258761717e-17 1.4271465393913117e-17 0.9909045903143383 0.13456631411245004
12669133333.333334 0.992110640621025 0.12536537307556544 -8.727105437912355e-17 1.5086865079073515e-17 -8.727105437912355e-17 1.5086865079073515e-17 0.9921105599025147 0.1253660118602942
12669750666.666666 0.9932311836306015 0.11615427613132383 -8.710891705797839e-17 1.5900622849773926e-17 -8.710891705797839e-17 1.5900622849773926e-17 0.9932311088464324 0.11615491560637049
12670368000.0 0.9942662095109506 0.10693317831507729 -8.693919781314091e-17 1.6712667941986016e-17 -8.693919781314091e-17 1.6712667941986016e-17 0.9942661406669833 0.10693381842531854
12670985333.333334 0.9952156291464755 0.09770287356276247 -8.676191449201036e-17 1.7522929769512906e-17 -8.676191449201036e-17 1.7522929769512906e-17 0.9952155662480594 0.09770351425302577
