! Parameters = {f0=12700.012000; bw=77.238000; Q=6100.000000; N=10; m_0_1=1.324019; m_1_1=1.095540; m_1_2=1.158831; m_2_2=1.094891; m_2_3=0.795794; m_2_8=0.003265; m_2_9=0.039969; m_3_3=1.092954; m_3_4=0.684323; m_3_7=0.003865; m_3_8=-0.093223; m_3_9=0.003265; m_4_4=1.090029; m_4_5=0.520658; m_4_6=0.007382; m_4_7=-0.113772; m_4_8=0.003865; m_5_5=1.090411; m_5_6=0.928013; m_5_7=0.007382; m_6_6=1.090410; m_6_7=0.521000; m_7_7=1.090043; m_7_8=0.684441; m_8_8=1.092952; m_8_9=0.796107; m_9_9=1.094886; m_9_10=1.159909; m_10_10=1.095530; m_10_11=1.324814}
!
! Created with skrf (http://scikit-rf.org).
# Hz S RI R 50.0 
!freq ReS11 ImS11 ReS21 ImS21 ReS12 ImS12 ReS22 ImS22
12607400000.0 0.89917106286663 -0.43759730312594763 -1.0458906819578943e-16 9.56784389065259e-17 -1.0458906819578943e-16 9.56784389065259e-17 0.899171368077175 -0.43759667598146734
12608017333.333334 0.8938015212873177 -0.44846275268330205 -1.033929563943525e-16 9.6929178029649e-17 -1.033929563943525e-16 9.6929178029649e-17 0.8938018340608708 -0.4484621293144287
12608634666.666666 0.888300689229871 -0.459262327557513 -1.0218190251804079e-16 9.816498039940636e-17 -1.0218190251804079e-16 9.816498039940636e-17 0.8883010095197509 -0.45926170805543926
12609252000.0 0.8826693747114531 -0.46999444139936375 -1.0095609289858997e-16 9.938566769545529e-17 -1.0095609289858997e-16 9.938566769545529e-17 0.882669702469879 -0.4699938258547054
12609869333.333334 0.8769084049157393 -0.4806575177690895 -9.971571599351569e-17 1.0059106391955031e-16 -9.971571599351569e-17 1.0059106391955031e-16 0.8769087400938375 -0.4806569062718717
12610486666.666666 0.8710186260715552 -0.49124999036766315 -9.846096235720884e-17 1.0178099542085044e-16 -9.846096235720884e-17 1.0178099542085044e-16 0.8710189686193678 -0.4912493830073082
12611104000.0 0.8650009033283756 -0.5017703032672453 -9.719202461168397e-17 1.0295529092091186e-16 -9.719202461168397e-17 1.0295529092091186e-16 0.8650012531948668 -0.5017697001325591
12611721333.333334 0.8588561206294454 -0.5122169111393601 -9.590909741712839e-17 1.0411378153822139e-16 -9.590909741712839e-17 1.0411378153822139e-16 0.8588564777625102 -0.5122163123185194
12612338666.666666 0.8525851805818186 -0.5225882794821148 -9.461237744206501e-17 1.0525630081245673e-16 -9.461237744206501e-17 1.0525630081245673e-16 0.8525855449282878 -0.5225876850626534
12612956000.0 0.846189004323703 -0.5328828848456939 -9.33020633332541e-17 1.0638268472834602e-16 -9.33020633332541e-17 1.0638268472834602e-16 0.8461893758293549 -0.5328822949144911
12613573333.333334 0.8396685313893852 -0.5430992150557782 -9.197835568536876e-17 1.0749277173910845e-16 -9.197835568536876e-17 1.0749277173910845e-16 0.8396689099989515 -0.5430986296990454
12614190666.666666 0.8330247195710259 -0.5532357694359816 -9.064145701030293e-17 1.0858640278959304e-16 -9.064145701030293e-17 1.0858640278959304e-16 0.8330251052282001 -0.5532351887392503
12614808000.0 0.8262585447779982 -0.5632910590282373 -8.929157170627078e-17 1.0966342133898346e-16 -8.929157170627078e-17 1.0966342133898346e-16 0.8262589374254445 -0.5632904830763459
12615425333.333334 0.8193710008936146 -0.5732636068113905 -8.792890602659887e-17 1.1072367338314881e-16 -8.792890602659887e-17 1.1072367338314881e-16 0.8193714004729759 -0.573263035688472
12616042666.666666 0.8123630996290725 -0.5831519479182533 -8.655366804828971e-17 1.11767007476581e-16 -8.655366804828971e-17 1.11767007476581e-16 0.8123635060809792 -0.5831513817077235
12616660000.0 0.8052358703748779 -0.5929546298507342 -8.51660676402975e-17 1.1279327475396526e-16 -8.51660676402975e-17 1.1279327475396526e-16 0.805236283638956 -0.5929540686352783
12617277333.333334 0.7979903600495515 -0.6026702126933065 -8.376631643154523e-17 1.1380232895135864e-16 -8.376631643154523e-17 1.1380232895135864e-16 0.7979907800644341 -0.6026696565548696
12617894666.666666 0.7906276329460358 -0.6122972693242695 -8.235462777874133e-17 1.1479402642693818e-16 -8.235462777874133e-17 1.1479402642693818e-16 0.7906280596493687 -0.6122967183440413
12618512000.0 0.7831487705751029 -0.6218343856257172 -8.093121673386663e-17 1.1576822618141106e-16 -8.093121673386663e-17 1.1576822618141106e-16 0.7831492039035567 -0.6218338398841229
12619129333.333334 0.7755548715067694 -0.6312801606908982 -7.949630001152315e-17 1.1672478987795114e-16 -7.949630001152315e-17 1.1672478987795114e-16 0.7755553113960478 -0.6312796202675856
12619746666.666666 0.767847051208683 -0.6406332070303089 -7.805009595594903e-17 1.1766358186179996e-16 -7.805009595594903e-17 1.1766358186179996e-16 0.767847497593532 -0.6406326720041365
12620364000.0 0.7600264418823728 -0.6498921507753642 -7.659282450786953e-17 1.1858446917941444e-16 -7.659282450786953e-17 1.1858446917941444e-16 0.7600268946965902 -0.6498916212243899
12620981333.333334 0.7520941922970542 -0.6590556318800779 -7.512470717112413e-17 1.1948732159720659e-16 -7.512470717112413e-17 1.1948732159720659e-16 0.7520946514735016 -0.6590551078815491
12621598666.666666 0.7440514676206487 -0.6681223043211235 -7.364596697900929e-17 1.2037201161991061e-16 -7.364596697900929e-17 1.2037201161991061e-16 0.7440519330912575 -0.6681217859514621
12622216000.0 0.735899449248829 -0.6770908362953073 -7.215682846048741e-17 1.2123841450848331e-16 -7.215682846048741e-17 1.2123841450848331e-16 0.7358999209446146 -0.6770903236301031
12622833333.333334 0.7276393346313799 -0.6859599104153327 -7.065751760612921e-17 1.2208640829762402e-16 -7.065751760612921e-17 1.2208640829762402e-16 0.7276398124824496 -0.6859594035293294
12623450666.666666 0.719272337096395 -0.6947282239032023 -6.914826183389254e-17 1.2291587381284903e-16 -6.914826183389254e-17 1.2291587381284903e-16 0.7192728210319589 -0.694727722870288
12624068000.0 0.7107996856719785 -0.703394488781669 -6.762928995464951e-17 1.237266946871733e-16 -6.762928995464951e-17 1.237266946871733e-16 0.7108001756203592 -0.7033939936748638
12624685333.333334 0.7022226249056076 -0.7119574320635238 -6.610083213756872e-17 1.2451875737734002e-16 -6.610083213756872e-17 1.2451875737734002e-16 0.7022231207942529 -0.7119569429549714
12625302666.666666 0.6935424146816644 -0.7204157959382447 -6.456311987531612e-17 1.252919511796201e-16 -6.456311987531612e-17 1.252919511796201e-16 0.6935429164371557 -0.7204153128992
12625920000.0 0.684760330035908 -0.7287683379572162 -6.301638594898354e-17 1.2604616824522918e-16 -6.301638594898354e-17 1.2604616824522918e-16 0.6847608375839724 -0.7287678610580363
12626537333.333334 0.6758776609686078 -0.7370138312158143 -6.146086439297381e-17 1.2678130359524208e-16 -6.146086439297381e-17 1.2678130359524208e-16 0.6758781742341293 -0.737013360525947
12627154666.666666 0.6668957122548576 -0.745151064533827 -5.989679045961038e-17 1.2749725513512887e-16 -5.989679045961038e-17 1.2749725513512887e-16 0.6668962311618869 -0.7451506001218013
12627772000.0 0.6578158032528061 -0.7531788426334578 -5.83244005835778e-17 1.2819392366885264e-16 -5.83244005835778e-17 1.2819392366885264e-16 0.6578163277245732 -0.753178384566874
12628389333.333334 0.6486392677101761 -0.7610959863146151 -5.674393234630599e-17 1.28871212912482e-16 -5.674393234630599e-17 1.28871212912482e-16 0.648639797669101 -0.7610955346601349
12629006666.666666 0.6393674535679427 -0.7689013326284804 -5.515562444005878e-17 1.2952902950742705e-16 -5.515562444005878e-17 1.2952902950742705e-16 0.6393679889356482 -0.7689008874518186
12629624000.0 0.6300017227627029 -0.7765937350480211 -5.35597166319665e-17 1.30167283033193e-16 -5.35597166319665e-17 1.30167283033193e-16 0.6300022634600229 -0.7765932964139318
12630241333.333334 0.6205434510263995 -0.784172063636582 -5.1956449727882575e-17 1.307858860197022e-16 -5.1956449727882575e-17 1.307858860197022e-16 0.6205439969733945 -0.7841716316088545
12630858666.666666 0.610994027684422 -0.7916352052137255 -5.034606553611155e-17 1.3138475395917005e-16 -5.034606553611155e-17 1.3138475395917005e-16 0.6109945788003884 -0.7916347798551708
12631476000.0 0.6013548554511903 -0.7989820635190051 -4.872880683093765e-17 1.3196380531755703e-16 -4.872880683093765e-17 1.3196380531755703e-16 0.6013554116546737 -0.7989816448914498
12632093333.333334 0.5916273502245353 -0.8062115593726652 -4.7104917316147325e-17 1.3252296154552684e-16 -4.7104917316147325e-17 1.3252296154552684e-16 0.5916279114333419 -0.806211147536941
12632710666.666666 0.5818129408774969 -0.8133226308343373 -4.547464158831959e-17 1.3306214708899819e-16 -4.547464158831959e-17 1.3306214708899819e-16 0.5818135070087056 -0.8133222258502716
12633328000.0 0.5719130690483646 -0.8203142333590764 -4.383822510002285e-17 1.3358128939923362e-16 -4.383822510002285e-17 1.3358128939923362e-16 0.5719136400183398 -0.8203138352854854
12633945333.333334 0.5619291889290309 -0.8271853399507102 -4.219591412292949e-17 1.340803189424677e-16 -4.219591412292949e-17 1.340803189424677e-16 0.5619297646534331 -0.8271849488453877
12634562666.666666 0.5518627670514054 -0.8339349413126758 -4.054795571080757e-17 1.3455916920908723e-16 -4.054795571080757e-17 1.3455916920908723e-16 0.5518633474452072 -0.8339345572323886
12635180000.0 0.5417152820719556 -0.8405620459963146 -3.889459766239924e-17 1.3501777672236183e-16 -3.889459766239924e-17 1.3501777672236183e-16 0.5417158670494505 -0.8405616689967912
12635797333.333334 0.5314882245544079 -0.8470656805465635 -3.7236088484194684e-17 1.3545608104671991e-16 -3.7236088484194684e-17 1.3545608104671991e-16 0.531488814029225 -0.8470653106824865
12636414666.666666 0.5211830967510368 -0.853444889644791 -3.5572677353169045e-17 1.358740247955541e-16 -3.5572677353169045e-17 1.358740247955541e-16 0.5211836906361526 -0.8534445269697896
12637032000.0 0.510801412381761 -0.8596987362492786 -3.390461407935719e-17 1.3627155363859042e-16 -3.390461407935719e-17 1.3627155363859042e-16 0.5108020105895142 -0.8596983808159228
12637649333.333334 0.5003446964119395 -0.8658263017327739 -3.223214906841035e-17 1.366486163087829e-16 -3.223214906841035e-17 1.366486163087829e-16 0.5003452988540408 -0.8658259535925621
12638266666.666666 0.48981448482824363 -0.8718266860174968 -3.0555533284036146e-17 1.370051646087596e-16 -3.0555533284036146e-17 1.370051646087596e-16 0.48981509141579094 -0.8718263452208526
12638884000.0 0.47921232441318523 -0.8776990077072675 -2.8875018210412797e-17 1.3734115341679868e-16 -2.8875018210412797e-17 1.3734115341679868e-16 0.4792129350566763 -0.8776986743035303
12639501333.333334 0.46853977251778534 -0.8834424042170433 -2.719085581449775e-17 1.3765654069235406e-16 -2.719085581449775e-17 1.3765654069235406e-16 0.46854038712713186 -0.8834420782544643
12640118666.666666 0.457798396833019 -0.889056031899524 -2.5503298508330042e-17 1.3795128748110988e-16 -2.5503298508330042e-17 1.3795128748110988e-16 0.45779901531755707 -0.8890557134252525
12640736000.0 0.4469897751590277 -0.8945390661693269 -2.381259911117094e-17 1.3822535791959196e-16 -2.381259911117094e-17 1.3822535791959196e-16 0.4469903974275346 -0.8945387552294107
12641353333.333334 0.436115495174118 -0.8998907016237268 -2.211901081179535e-17 1.3847871923928417e-16 -2.211901081179535e-17 1.3847871923928417e-16 0.43611612113482384 -0.8998903982631025
12641970666.666666 0.4251771542009139 -0.9051101521612833 -2.0422787130530534e-17 1.3871134177031727e-16 -2.0422787130530534e-17 1.3871134177031727e-16 0.425177783761515 -0.9051098564237686
12642588000.0 0.4141763589720305 -0.9101966510971576 -1.8724181881382246e-17 1.3892319894467484e-16 -1.8724181881382246e-17 1.3892319894467484e-16 0.414176992039704 -0.9101963630254477
12643205333.333334 0.40311472539393295 -0.9151494512757916 -1.7023449134123974e-17 1.3911426729893718e-16 -1.7023449134123974e-17 1.3911426729893718e-16 0.4031153618753497 -0.9151491709114505
12643822666.666666 0.39199387830962756 -0.919967825180634 -1.532084317631566e-17 1.3928452647656866e-16 -1.532084317631566e-17 1.3928452647656866e-16 0.3919945181109658 -0.9199675525640896
12644440000.0 0.3808154512600142 -0.9246510650409923 -1.3616618475340263e-17 1.3943395922973623e-16 -1.3616618475340263e-17 1.3943395922973623e-16 0.38081609428697394 -0.9246508002115303
12645057333.333334 0.3695810862439361 -0.9291984829359986 -1.1911029640440287e-17 1.395625514206631e-16 -1.1911029640440287e-17 1.395625514206631e-16 0.3695817324017533 -0.9291982259317589
12645674666.666666 0.3582924334770152 -0.9336094108956532 -1.0204331384712397e-17 1.3967029202252328e-16 -1.0204331384712397e-17 1.3967029202252328e-16 0.35829308267047427 -0.9336091617536203
12646292000.0 0.3469511511489578 -0.9378832009990485 -8.496778487093286e-18 1.3975717311987013e-16 -8.496778487093286e-18 1.3975717311987013e-16 0.3469518032824075 -0.9378829597550506
12646909333.333334 0.3355589051804889 -0.9420192254693533 -6.7886257544301816e-18 1.3982318990859855e-16 -6.7886257544301816e-18 1.3982318990859855e-16 0.33555956015785504 -0.942018992158054
12647526666.666666 0.32411736897829974 -0.946016876766157 -5.080127983450627e-18 1.3986834069544863e-16 -5.080127983450627e-18 1.3986834069544863e-16 0.3241180267030994 -0.9460166514210506
12648144000.0 0.3126282231891851 -0.9498755676747251 -3.371539922836086e-18 1.398926268970414e-16 -3.371539922836086e-18 1.398926268970414e-16 0.3126288835645422 -0.949875350328135
12648761333.333334 0.30109315545344373 -0.9535947313921663 -1.6631162352698563e-18 1.3989605303845524e-16 -1.6631162352698563e-18 1.3989605303845524e-16 0.30109381838210136 -0.9535945220752345
12649378666.666666 0.28951386015689917 -0.9571738216107154 4.488854044371945e-20 1.3987862675133742e-16 4.488854044371945e-20 1.3987862675133742e-16 0.2895145255412355 -0.9571736203534039
12649996000.0 0.2778920381817959 -0.9606123125980516 1.752220027290387e-18 1.398403587715548e-16 1.752220027290387e-18 1.398403587715548e-16 0.2778927059238379 -0.9606121194291355
12650613333.333334 0.26622939665720025 -0.9639096992744463 3.4586240478665298e-18 1.3978126293638276e-16 3.4586240478665298e-18 1.3978126293638276e-16 0.2662300666586379 -0.9639095142215095
12651230666.666666 0.25452764870824035 -0.9670654972869542 5.163846662151278e-18 1.397013561812337e-16 5.163846662151278e-18 1.397013561812337e-16 0.25452832087044164 -0.967065320376386
12651848000.0 0.24278851320424782 -0.9700792430806261 6.8676342053039594e-18 1.3960065853592282e-16 6.8676342053039594e-18 1.3960065853592282e-16 0.24278918742827288 -0.9700790743376172
12652465333.333334 0.2310137145064079 -0.9729504939665539 8.569733325290633e-18 1.3947919312047812e-16 8.569733325290633e-18 1.3947919312047812e-16 0.2310143906930236 -0.9729503334150928
12653082666.666666 0.2192049822146349 -0.9756788281868628 1.026989102052092e-17 1.393369861404909e-16 1.026989102052092e-17 1.393369861404909e-16 0.21920566026432964 -0.9756786758497329
12653700000.0 0.2073640509131249 -0.9782638449767568 1.1967854677457361e-17 1.391740668820024e-16 1.1967854677457361e-17 1.391740668820024e-16 0.20736473072612285 -0.9782637008755315
12654317333.333334 0.19549265991600473 -0.9807051646232805 1.3663372108021723e-17 1.389904677059451e-16 1.3663372108021723e-17 1.389904677059451e-16 0.19549334139228106 -0.9807050287783223
12654934666.666666 0.18359255301145624 -0.9830024285211838 1.535619158705392e-17 1.3878622404211736e-16 1.535619158705392e-17 1.3878622404211736e-16 0.18359323605075173 -0.9830023009516415
12655552000.0 0.17166547820573802 -0.9851552992255612 1.7046061889647734e-17 1.3856137438270584e-16 1.7046061889647734e-17 1.3856137438270584e-16 0.1716661627075735 -0.9851551799493654
12656169333.333334 0.15971318746656019 -0.987163460501391 1.8732732328326434e-17 1.3831596027536207e-16 1.8732732328326434e-17 1.3831596027536207e-16 0.15971387333025142 -0.9871633495352522
12656786666.666666 0.14773743646551493 -0.9890266173700326 2.0415952790234338e-17 1.3805002631581498e-16 2.0415952790234338e-17 1.3805002631581498e-16 0.14773812359018737 -0.9890265147294386
12657404000.0 0.13573998432021284 -0.9907444961525435 2.209547377416894e-17 1.3776362014003754e-16 2.209547377416894e-17 1.3776362014003754e-16 0.13574067260481698 -0.9907444018517602
12658021333.333334 0.12372259333599965 -0.9923168445098698 2.3771046427499912e-17 1.3745679241596635e-16 2.3771046427499912e-17 1.3745679241596635e-16 0.12372328267932489 -0.9923167585619329
12658638666.666666 0.11168702874714653 -0.9937434314798987 2.5442422582984816e-17 1.3712959683477154e-16 2.5442422582984816e-17 1.3712959683477154e-16 0.11168771904783711 -0.993743353896619
12659256000.0 0.09963505845718941 -0.9950240475114367 2.7109354795526933e-17 1.3678209010166866e-16 2.7109354795526933e-17 1.3678209010166866e-16 0.09963574961375869 -0.9950239783033945
12659873333.333334 0.08756845277966414 -0.9961585044949346 2.877159637870189e-17 1.3641433192630538e-16 2.877159637870189e-17 1.3641433192630538e-16 0.08756914469050964 -0.9961584436714785
12660490666.666666 0.07548898417795302 -0.9971466357901384 3.042890144122761e-17 1.3602638501269275e-16 3.042890144122761e-17 1.3602638501269275e-16 0.07548967674137132 -0.9971465833593841
12661108000.0 0.06339842700467238 -0.9979882962505836 3.2081024923339486e-17 1.356183150486826e-16 3.2081024923339486e-17 1.356183150486826e-16 0.06339912011887425 -0.997988252219415
12661725333.333334 0.051298557241463365 -0.9986833622448881 3.3727722632900554e-17 1.3519019069503574e-16 3.3727722632900554e-17 1.3519019069503574e-16 0.051299250804588525 -0.9986833266189529
12662342666.666666 0.03919115223769246 -0.9992317316749358 3.5368751281503054e-17 1.347420835740186e-16 3.5368751281503054e-17 1.347420835740186e-16 0.03919184614782466 -0.999231704458648
12662960000.0 0.027077990449688935 -0.9996333239908601 3.7003868520336746e-17 1.3427406825758478e-16 3.7003868520336746e-17 1.3427406825758478e-16 0.027078684604870867 -0.9996333051873971
12663577333.333334 0.01496085117939383 -0.9998880802028782 3.863283297594913e-17 1.3378622225510875e-16 3.863283297594913e-17 1.3378622225510875e-16 0.014961545477642153 -0.999888069814182
12664194666.666666 0.002841514312913203 -0.9999959628899604 4.025540428580461e-17 1.3327862600069902e-16 4.025540428580461e-17 1.3327862600069902e-16 0.0028422086522334918 -0.9999959609167363
12664812000.0 -0.009278239940758846 -0.9999569562053214 4.1871343133713315e-17 1.3275136284007097e-16 4.1871343133713315e-17 1.3275136284007097e-16 -0.0092775456623571 -0.9999569626470396
12665429333.333334 -0.021396631311377076 -0.9997710658787515 4.3480411285094005e-17 1.3220451901698895e-16 4.3480411285094005e-17 1.3220451901698895e-16 -0.021395937195865484 -0.9997710807336447
12666046666.666666 -0.033511879728750034 -0.9994383192157762 4.508237162200571e-17 1.3163818365930083e-16 4.508237162200571e-17 1.3163818365930083e-16 -0.03351118587806636 -0.9994383424808433
12666664000.0 -0.04562220558464066 -0.9989587650936359 4.6676988178096676e-17 1.3105244876451537e-16 4.6676988178096676e-17 1.3105244876451537e-16 -0.04562151210067385 -0.9989587967646403
12667281333.333334 -0.057725829993604774 -0.998332473954123 4.826402617325262e-17 1.3044740918499805e-16 4.826402617325262e-17 1.3044740918499805e-16 -0.057725136978179936 -0.9983325140255929
12667898666.666666 -0.06982097505466076 -0.9975595377932222 4.984325204816622e-17 1.2982316261270757e-16 4.984325204816622e-17 1.2982316261270757e-16 -0.06982028260952426 -0.9975595862584529
12668516000.0 -0.0819058641125302 -0.9966400701475884 5.141443349863679e-17 1.2917980956354125e-16 5.141443349863679e-17 1.2917980956354125e-16 -0.08190517233933481 -0.9966401269986441
12669133333.333334 -0.09397872201818547 -0.9955742060778985 5.2977339509670523e-17 1.2851745336126858e-16 5.2977339509670523e-17 1.2851745336126858e-16 -0.09397803101847534 -0.995574271305612
12669750666.666666 -0.10603777538999833 -0.9943621021489861 5.453174038944434e-17 1.2783620012102274e-16 5.453174038944434e-17 1.2783620012102274e-16 -0.10603708526519397 -0.9943621757429593
12670368000.0 -0.11808125287408971 -0.9930039364068484 5.607740780297562e-17 1.27136158732418e-16 5.607740780297562e-17 1.27136158732418e-16 -0.11808056372547338 -0.9930040183554567
