! Parameters = {f0=12700.012000; bw=77.238000; Q=6100.000000; N=10; m_0_1=1.173268; m_1_1=-1.165722; m_1_2=1.008080; m_2_2=-1.166371; m_2_3=0.645043; m_2_8=-0.004273; m_2_9=0.032431; m_3_3=-1.168308; m_3_4=0.533572; m_3_7=-0.003673; m_3_8=-0.100761; m_3_9=-0.004273; m_4_4=-1.171233; m_4_5=0.369907; m_4_6=-0.000156; m_4_7=-0.121310; m_4_8=-0.003673; m_5_5=-1.170851; m_5_6=0.777262; m_5_7=-0.000156; m_6_6=-1.170852; m_6_7=0.370249; m_7_7=-1.171219; m_7_8=0.533690; m_8_8=-1.168310; m_8_9=0.645356; m_9_9=-1.166376; m_9_10=1.009158; m_10_10=-1.165732; m_10_11=1.174063}
!
! Created with skrf (http://scikit-rf.org).
# Hz S RI R 50.0 
!freq ReS11 ImS11 ReS21 ImS21 ReS12 ImS12 ReS22 ImS22
12607400000.0 -0.8846628834752377 0.4662312544233043 4.900924610560251e-17 -4.781216313098362e-17 4.900924610560251e-17 -4.781216313098362e-17 -0.884663171751434 0.46623070742556316
12608017333.333334 -0.8810640708986552 0.4729969375919244 4.8627610831266973e-17 -4.818120240891629e-17 4.8627610831266973e-17 -4.818120240891629e-17 -0.8810643633438331 0.47299639284605033
12608634666.666666 -0.877413517024364 0.47973484357797724 4.824320203882795e-17 -4.854720095535708e-17 4.824320203882795e-17 -4.854720095535708e-17 -0.877413813620941 0.47973430111573834
12609252000.0 -0.873711436234544 0.48644457669175384 4.785604391427416e-17 -4.891013796832726e-17 4.785604391427416e-17 -4.891013796832726e-17 -0.8737117369646968 0.48644403654478174
12609869333.333334 -0.8699580459373292 0.49312574289805006 4.746616079927652e-17 -4.926999283790907e-17 4.746616079927652e-17 -4.926999283790907e-17 -0.869958350782993 0.4931252050978371
12610486666.666666 -0.8661535665541048 0.49977794983917984 4.707357718966676e-17 -4.9626745147406745e-17 4.707357718966676e-17 -4.9626745147406745e-17 -0.8661538754969754 0.4997774144170774
12611104000.0 -0.8622982215064119 0.5064008068582908 4.667831773389864e-17 -4.998037467450327e-17 4.667831773389864e-17 -4.998037467450327e-17 -0.8622985345279461 0.5064002738455077
12611721333.333334 -0.8583922372030389 0.5129939250219356 4.6280407231522664e-17 -5.033086139238586e-17 4.6280407231522664e-17 -5.033086139238586e-17 -0.8583925542844553 0.512993394449536
12612338666.666666 -0.8544358430265234 0.5195569171432561 4.587987063162437e-17 -5.0678185470883596e-17 4.587987063162437e-17 -5.0678185470883596e-17 -0.8544361641488046 0.5195563890421577
12612956000.0 -0.8504292713197681 0.5260893978045734 4.547673303126904e-17 -5.1022327277579886e-17 4.547673303126904e-17 -5.1022327277579886e-17 -0.8504295964636609 0.5260888722055461
12613573333.333334 -0.8463727573724706 0.5325909833799014 4.507101967394398e-17 -5.1363267378907855e-17 4.507101967394398e-17 -5.1363267378907855e-17 -0.8463730865184887 0.5325904603135653
12614190666.666666 -0.8422665394071748 0.5390612920576948 4.466275594797923e-17 -5.170098654124428e-17 4.466275594797923e-17 -5.170098654124428e-17 -0.8422668725355977 0.5390607715545178
12614808000.0 -0.8381108585653518 0.5454999438631486 4.425196738496788e-17 -5.203546573198537e-17 4.425196738496788e-17 -5.203546573198537e-17 -0.838111195656227 0.5454994259534451
12615425333.333334 -0.8339059588932257 0.5519065606805371 4.383867965817645e-17 -5.2366686120610634e-17 4.383867965817645e-17 -5.2366686120610634e-17 -0.8339062999263704 0.5519060453944667
12616042666.666666 -0.8296520873274414 0.5582807662754196 4.342291858094796e-17 -5.269462907973497e-17 4.342291858094796e-17 -5.269462907973497e-17 -0.8296524322824431 0.5582802536429846
12616660000.0 -0.8253494936805783 0.5646221863167112 4.300471010509824e-17 -5.301927618614621e-17 4.300471010509824e-17 -5.301927618614621e-17 -0.8253498425367966 0.5646216763677552
12617277333.333334 -0.8209984306264012 0.5709304483987832 4.258408031929585e-17 -5.3340609221837925e-17 4.258408031929585e-17 -5.3340609221837925e-17 -0.8209987833629686 0.5709299411629896
12617894666.666666 -0.8165991536851982 0.5772051820630756 4.216105544745835e-17 -5.3658610175009535e-17 4.216105544745835e-17 -5.3658610175009535e-17 -0.8165995102810203 0.5772046775699645
12618512000.0 -0.8121519212085305 0.5834460188202016 4.1735661847101675e-17 -5.3973261241085345e-17 4.1735661847101675e-17 -5.3973261241085345e-17 -0.8121522816422897 0.5834455170991306
12619129333.333334 -0.8076569943643074 0.5896525921712406 4.1307926007728136e-17 -5.428454482368489e-17 4.1307926007728136e-17 -5.428454482368489e-17 -0.8076573586144624 0.5896520932514009
12619746666.666666 -0.8031146371212848 0.595824537629492 4.087787454916849e-17 -5.459244353560985e-17 4.087787454916849e-17 -5.459244353560985e-17 -0.803115005166072 0.5958240415399072
12620364000.0 -0.7985251162335769 0.6019614927418551 4.044553421993384e-17 -5.4896940199805135e-17 4.044553421993384e-17 -5.4896940199805135e-17 -0.798525488051013 0.6019609995113808
12620981333.333334 -0.793888701225078 0.608063097110003 4.001093189556676e-17 -5.5198017850302315e-17 4.001093189556676e-17 -5.5198017850302315e-17 -0.7938890767929587 0.608062606767323
12621598666.666666 -0.789205664373564 0.6141289924116357 3.957409457697151e-17 -5.549565973316072e-17 3.957409457697151e-17 -5.549565973316072e-17 -0.7892060436694691 0.6141285049852627
12622216000.0 -0.7844762806947224 0.620158822421503 3.913504938874485e-17 -5.578984930738899e-17 3.913504938874485e-17 -5.578984930738899e-17 -0.7844766636960124 0.6201583379397738
12622833333.333334 -0.7797008279259809 0.6261522330323429 3.869382357749728e-17 -5.608057024585659e-17 3.869382357749728e-17 -5.608057024585659e-17 -0.7797012146098034 0.6261517515234204
12623450666.666666 -0.7748795865102717 0.6321088722755918 3.825044451017703e-17 -5.636780643618487e-17 3.825044451017703e-17 -5.636780643618487e-17 -0.7748799768535584 0.6321083937674602
12624068000.0 -0.7700128395794708 0.6380283903421626 3.780493967236511e-17 -5.665154198164063e-17 3.780493967236511e-17 -5.665154198164063e-17 -0.7700132335589415 0.638027914862628
12624685333.333334 -0.7651008729377692 0.6439104396029871 3.7357336666586194e-17 -5.693176120200057e-17 3.7357336666586194e-17 -5.693176120200057e-17 -0.7651012705299337 0.6439099671796754
12625302666.666666 -0.7601439750450031 0.6497546746293025 3.69076632106153e-17 -5.720844863440255e-17 3.69076632106153e-17 -5.720844863440255e-17 -0.7601443762261592 0.6497542052896563
12625920000.0 -0.755142436999542 0.6555607522131285 3.645594713574498e-17 -5.74815890342029e-17 3.645594713574498e-17 -5.74815890342029e-17 -0.75514284174578 0.6555602859844073
12626537333.333334 -0.7500965525213812 0.6613283313872073 3.6002216385094416e-17 -5.775116737579184e-17 3.6002216385094416e-17 -5.775116737579184e-17 -0.7500969608085849 0.6613278682964856
12627154666.666666 -0.7450066179348039 0.66705707344514 3.554649901187117e-17 -5.801716885341999e-17 3.554649901187117e-17 -5.801716885341999e-17 -0.7450070297386508 0.6670566135193045
12627772000.0 -0.7398729321508607 0.6727466419613979 3.508882317764318e-17 -5.827957888200126e-17 3.508882317764318e-17 -5.827957888200126e-17 -0.739873347446825 0.6727461852271478
12628389333.333334 -0.734695796650084 0.6783967028107878 3.462921715062214e-17 -5.853838309789295e-17 3.462921715062214e-17 -5.853838309789295e-17 -0.7346962154134361 0.6783962492946314
12629006666.666666 -0.7294755154644956 0.684006924188387 3.416770930390056e-17 -5.879356735968497e-17 3.416770930390056e-17 -5.879356735968497e-17 -0.7294759376703059 0.6840064739166419
12629624000.0 -0.7242123951599841 0.6895769766287796 3.370432811372549e-17 -5.904511774895178e-17 3.370432811372549e-17 -5.904511774895178e-17 -0.7242128207831227 0.6895765296275693
12630241333.333334 -0.718906744818107 0.6951065330256105 3.3239102157737887e-17 -5.92930205710066e-17 3.3239102157737887e-17 -5.92930205710066e-17 -0.7189071738332454 0.6951060893208648
12630858666.666666 -0.7135588760181719 0.7005952686505474 3.2772060113227066e-17 -5.953726235563091e-17 3.2772060113227066e-17 -5.953726235563091e-17 -0.713559308399786 0.700594828268
12631476000.0 -0.7081691028186491 0.7060428611726624 3.2303230755352454e-17 -5.977782985780448e-17 3.2303230755352454e-17 -5.977782985780448e-17 -0.708169538541019 0.706042424137849
12632093333.333334 -0.7027377417389995 0.7114489906770695 3.1832642955392763e-17 -6.001471005840479e-17 3.1832642955392763e-17 -6.001471005840479e-17 -0.7027381807762115 0.7114485570153266
12632710666.666666 -0.6972651117409719 0.7168133396838393 3.1360325678974544e-17 -6.02478901649004e-17 3.1360325678974544e-17 -6.02478901649004e-17 -0.6972655540669207 0.7168129094203036
12633328000.0 -0.6917515342097896 0.7221355931667215 3.08863079842804e-17 -6.047735761203857e-17 3.08863079842804e-17 -6.047735761203857e-17 -0.691751979798178 0.7221351663263262
12633945333.333334 -0.6861973329353742 0.7274154385715417 3.041061902028493e-17 -6.070310006250219e-17 3.041061902028493e-17 -6.070310006250219e-17 -0.6861977817597181 0.7274150151790187
12634562666.666666 -0.6806028340933574 0.7326525658345425 2.993328802496199e-17 -6.09251054075651e-17 2.993328802496199e-17 -6.09251054075651e-17 -0.6806032861269841 0.7326521459144174
12635180000.0 -0.6749683662258603 0.7378466674006481 2.945434432348878e-17 -6.114336176773239e-17 2.945434432348878e-17 -6.114336176773239e-17 -0.6749688214419105 0.73784625097724
12635797333.333334 -0.6692942602222 0.7429974382415244 2.897381732645932e-17 -6.135785749335973e-17 2.897381732645932e-17 -6.135785749335973e-17 -0.6692947185936312 0.7429970253389455
12636414666.666666 -0.6635808492995424 0.748104575873419 2.849173652808508e-17 -6.156858116526371e-17 2.849173652808508e-17 -6.156858116526371e-17 -0.6635813107991296 0.7481041665155722
12637032000.0 -0.6578284689832076 0.753167780375036 2.800813150438213e-17 -6.177552159532086e-17 2.800813150438213e-17 -6.177552159532086e-17 -0.6578289335835446 0.7531673745856138
12637649333.333334 -0.6520374570870718 0.7581867544050576 2.7523031911371995e-17 -6.197866782704582e-17 2.7523031911371995e-17 -6.197866782704582e-17 -0.6520379247605725 0.75818635220754
12638266666.666666 -0.64620815369362 0.7631612032196949 2.7036467483260556e-17 -6.217800913616237e-17 2.7036467483260556e-17 -6.217800913616237e-17 -0.6462086244125209 0.7631608046373495
12638884000.0 -0.6403409011341051 0.7680908346898899 2.6548468030632418e-17 -6.237353503115194e-17 2.6548468030632418e-17 -6.237353503115194e-17 -0.6403413748704672 0.7680904397457698
12639501333.333334 -0.6344360439683363 0.7729753593185603 2.6059063438622084e-17 -6.256523525379671e-17 2.6059063438622084e-17 -6.256523525379671e-17 -0.6344365206940448 0.7729749680355018
12640118666.666666 -0.628493928964596 0.7778144902574747 2.5568283665102666e-17 -6.275309977969947e-17 2.5568283665102666e-17 -6.275309977969947e-17 -0.6284944086513642 0.7778141026580977
12640736000.0 -0.6225149050789258 0.7826079433243868 2.5076158738831437e-17 -6.293711881880455e-17 2.5076158738831437e-17 -6.293711881880455e-17 -0.6225153876982956 0.782607559431092
12641353333.333334 -0.6164993234351606 0.787355437019291 2.4582718757654777e-17 -6.311728281588044e-17 2.4582718757654777e-17 -6.311728281588044e-17 -0.6164998089585054 0.7873550568542607
12641970666.666666 -0.6104475373038702 0.7920566925413173 2.4087993886646727e-17 -6.329358245101209e-17 2.4087993886646727e-17 -6.329358245101209e-17 -0.6104480257023941 0.7920563161265107
12642588000.0 -0.6043599020817404 0.7967114338049884 2.3592014356282034e-17 -6.346600864006451e-17 2.3592014356282034e-17 -6.346600864006451e-17 -0.6043603933264825 0.7967110611621439
12643205333.333334 -0.5982367752708183 0.8013193874563518 2.309481046059524e-17 -6.363455253513642e-17 2.309481046059524e-17 -6.363455253513642e-17 -0.5982372693326538 0.801319018606984
12643822666.666666 -0.5920785164573368 0.8058802828891708 2.259641255532926e-17 -6.379920552500162e-17 2.259641255532926e-17 -6.379920552500162e-17 -0.592079013306977 0.8058799178545686
12644440000.0 -0.585885487290731 0.8103938522607095 2.209685105609746e-17 -6.395995923553048e-17 2.209685105609746e-17 -6.395995923553048e-17 -0.5858859868987276 0.8103934910619369
12645057333.333334 -0.5796580514623809 0.8148598305074842 2.1596156436533767e-17 -6.411680553010047e-17 2.1596156436533767e-17 -6.411680553010047e-17 -0.5796585537991259 0.8148594731653769
12645674666.666666 -0.5733965746842521 0.8192779553608275 2.1094359226432672e-17 -6.426973650999438e-17 2.1094359226432672e-17 -6.426973650999438e-17 -0.57339707971998 0.819277601895993
12646292000.0 -0.567101424667279 0.8236479673623883 2.0591490009891954e-17 -6.441874451478191e-17 2.0591490009891954e-17 -6.441874451478191e-17 -0.5671019323720691 0.8236476177952045
12646909333.333334 -0.560772971099981 0.8279696098792223 2.008757942347145e-17 -6.456382212268191e-17 2.008757942347145e-17 -6.456382212268191e-17 -0.5607734814437588 0.8279692642298363
12647526666.666666 -0.5544115856266582 0.8322426291189279 1.958265815431617e-17 -6.470496215091977e-17 1.958265815431617e-17 -6.470496215091977e-17 -0.5544120985791973 0.8322422874072553
12648144000.0 -0.5480176418254967 0.8364667741445996 1.907675693829555e-17 -6.484215765606492e-17 1.907675693829555e-17 -6.484215765606492e-17 -0.5480181573564199 0.8364664363903216
12648761333.333334 -0.5415915151867456 0.840641796889481 1.8569906558147772e-17 -6.49754019343513e-17 1.8569906558147772e-17 -6.49754019343513e-17 -0.5415920332655281 0.8406414631120458
12649378666.666666 -0.5351335830906692 0.8447674521715383 1.8062137841605653e-17 -6.510468852198904e-17 1.8062137841605653e-17 -6.510468852198904e-17 -0.5351341036866386 0.8447671223901576
12649996000.0 -0.5286442247852638 0.8488434977079332 1.7553481659529505e-17 -6.52300111954579e-17 1.7553481659529505e-17 -6.52300111954579e-17 -0.5286447478676035 0.8488431719415828
12650613333.333334 -0.5221238213640822 0.8528696941291906 1.7043968924034585e-17 -6.535136397178788e-17 1.7043968924034585e-17 -6.535136397178788e-17 -0.5221243469018324 0.8528693723966084
12651230666.666666 -0.5155727557438534 0.8568458049932551 1.6533630586627972e-17 -6.546874110882221e-17 1.6533630586627972e-17 -6.546874110882221e-17 -0.5155732837059136 0.8568454873129412
12651848000.0 -0.5089914126418997 0.8607715967994379 1.6022497636317688e-17 -6.558213710547244e-17 1.6022497636317688e-17 -6.558213710547244e-17 -0.5089919429970297 0.8607712831896511
12652465333.333334 -0.5023801785536633 0.8646468390020517 1.551060109774633e-17 -6.569154670195199e-17 1.551060109774633e-17 -6.569154670195199e-17 -0.5023807112704853 0.8646465294808114
12653082666.666666 -0.495739441730036 0.8684713040239402 1.4997972029325372e-17 -6.57969648799958e-17 1.4997972029325372e-17 -6.57969648799958e-17 -0.49573997677703635 0.8684709986090228
12653700000.0 -0.48906959215431145 0.8722447672699831 1.448464152133055e-17 -6.589838686307278e-17 1.448464152133055e-17 -6.589838686307278e-17 -0.4890701294998435 0.8722444659789228
12654317333.333334 -0.48237102151962863 0.875967007140087 1.3970640694050506e-17 -6.599580811657236e-17 1.3970640694050506e-17 -6.599580811657236e-17 -0.4823715611319136 0.8759667099901746
12654934666.666666 -0.4756441232057232 0.8796378050423425 1.34560006958875e-17 -6.608922434798665e-17 1.34560006958875e-17 -6.608922434798665e-17 -0.475644665052852 0.8796375120506229
12655552000.0 -0.46888929225584863 0.8832569454058434 1.294075270147765e-17 -6.617863150707262e-17 1.294075270147765e-17 -6.617863150707262e-17 -0.4688898363057843 0.8832566565891163
12656169333.333334 -0.4621069253537018 0.8868242156932784 1.2424927909818119e-17 -6.626402578599976e-17 1.2424927909818119e-17 -6.626402578599976e-17 -0.46210747157428167 0.8868239310680978
12656786666.666666 -0.4552974208000297 0.8903394064134703 1.1908557542376344e-17 -6.634540361948472e-17 1.1908557542376344e-17 -6.634540361948472e-17 -0.4552979691589659 0.8903391259961406
12657404000.0 -0.4484611784892609 0.8938023111336607 1.1391672841208338e-17 -6.642276168491112e-17 1.1391672841208338e-17 -6.642276168491112e-17 -0.4484617289541434 0.893802034940238
12658021333.333334 -0.4415985998859977 0.8972127264916476 1.08743050670725e-17 -6.649609690243419e-17 1.08743050670725e-17 -6.649609690243419e-17 -0.4415991524242962 0.8972124545379391
12658638666.666666 -0.43471008800156713 0.9005704522076664 1.035648549755455e-17 -6.656540643506987e-17 1.035648549755455e-17 -6.656540643506987e-17 -0.43471064258063236 0.9005701845092277
12659256000.0 -0.42779604737009724 0.9038752910962726 9.838245425165585e-18 -6.663068768877277e-17 9.838245425165585e-18 -6.663068768877277e-17 -0.4277966039571638 0.9038750276684095
12659873333.333334 -0.4208568840250181 0.9071270490778033 9.319616155466511e-18 -6.669193831249577e-17 9.319616155466511e-18 -6.669193831249577e-17 -0.42085744258720537 0.9071267899355678
12660490666.666666 -0.41389300547511276 0.9103255351898181 8.80062900519438e-18 -6.674915619823498e-17 8.80062900519438e-18 -6.674915619823498e-17 -0.4138935659794279 0.9103252803480106
12661108000.0 -0.4069048206804842 0.9134705615983659 8.281315300350765e-18 -6.680233948106472e-17 8.281315300350765e-18 -6.680233948106472e-17 -0.406905383093823 0.9134703110715313
12661725333.333334 -0.39989274002879577 0.9165619436088931 7.76170637434545e-18 -6.685148653915143e-17 7.76170637434545e-18 -6.685148653915143e-17 -0.3998933043179457 0.9165616974113232
12662342666.666666 -0.3928571753109136 0.9195994996772123 7.241833566092863e-18 -6.689659599375838e-17 7.241833566092863e-18 -6.689659599375838e-17 -0.39285774144255475 0.9195992578229417
12662960000.0 -0.3857985396968525 0.9225830514201021 6.721728218129854e-18 -6.693766670923338e-17 6.721728218129854e-18 -6.693766670923338e-17 -0.3857991076375599 0.922582813922909
12663577333.333334 -0.3787172477115115 0.9255124236257815 6.201421674741551e-18 -6.6974697792981e-17 6.201421674741551e-18 -6.6974697792981e-17 -0.37871781742775795 0.9255121904991884
12664194666.666666 -0.3716137152102276 0.9283874442642484 5.680945280070799e-18 -6.700768859542255e-17 5.680945280070799e-18 -6.700768859542255e-17 -0.3716142866683843 0.9283872155215187
12664812000.0 -0.3644883593545099 0.9312079444973119 5.160330376237779e-18 -6.703663870993955e-17 5.160330376237779e-18 -6.703663870993955e-17 -0.36448893252084924 0.9312077201514507
12665429333.333334 -0.357341598587411 0.9339737586885644 4.63960830145863e-18 -6.706154797280384e-17 4.63960830145863e-18 -6.706154797280384e-17 -0.3573421734281084 0.9339735387523174
12666046666.666666 -0.35017385260911216 0.9366847244130456 4.118810388166945e-18 -6.708241646309252e-17 4.118810388166945e-18 -6.708241646309252e-17 -0.35017442909024804 0.9366845088988982
12666664000.0 -0.34298554235198364 0.9393406824668924 3.597967961124854e-18 -6.709924450258873e-17 3.597967961124854e-18 -6.709924450258873e-17 -0.34298612043954513 0.9393404713870688
12667281333.333334 -0.33577708995623756 0.9419414768765476 3.077112335563983e-18 -6.711203265566707e-17 3.077112335563983e-18 -6.711203265566707e-17 -0.33577766961612127 0.9419412702430113
12667898666.666666 -0.3285489187448715 0.9444869549080209 2.556274815291413e-18 -6.71207817291657e-17 2.556274815291413e-18 -6.71207817291657e-17 -0.32854949994288485 0.9444867527324728
12668516000.0 -0.32130145319883446 0.9469769670758464 2.0354866908142584e-18 -6.712549277224329e-17 2.0354866908142584e-18 -6.712549277224329e-17 -0.32130203590069717 0.9469767693697232
12669133333.333334 -0.31403511893223157 0.9494113671518108 1.5147792374829448e-18 -6.71261670762211e-17 1.5147792374829448e-18 -6.71261670762211e-17 -0.3140357031035795 0.9494111739262875
12669750666.666666 -0.30675034266722456 0.9517900121735846 9.941837136017682e-19 -6.71228061744115e-17 9.941837136017682e-19 -6.71228061744115e-17 -0.30675092827361 0.951789823439571
12670368000.0 -0.29944755220897035 0.9541127624531113 4.737313585583936e-19 -6.711541184193133e-17 4.737313585583936e-19 -6.711541184193133e-17 -0.29944813921586494 0.954112578221253
12670985333.333334 -0.2921271764206067 0.9563794815847813 -4.654660902761574e-20 -6.710398609550096e-17 -4.654660902761574e-20 -6.710398609550096e-17 -0.29212776479340313 0.9563793018654578
