! Parameters = {f0=12700.012000; bw=77.238000; Q=6100.000000; N=10; m_0_1=1.324219; m_1_1=1.098543; m_1_2=1.159031; m_2_2=1.097894; m_2_3=0.795994; m_2_8=0.003275; m_2_9=0.039979; m_3_3=1.095957; m_3_4=0.684523; m_3_7=0.003875; m_3_8=-0.093213; m_3_9=0.003275; m_4_4=1.093032; m_4_5=0.520858; m_4_6=0.007392; m_4_7=-0.113762; m_4_8=0.003875; m_5_5=1.093414; m_5_6=0.928213; m_5_7=0.007392; m_6_6=1.093413; m_6_7=0.521200; m_7_7=1.093046; m_7_8=0.684641; m_8_8=1.095955; m_8_9=0.796307; m_9_9=1.097889; m_9_10=1.160109; m_10_10=1.098533; m_10_11=1.325014}
!
! Created with skrf (http://scikit-rf.org).
# Hz S RI R 50.0 
!freq ReS11 ImS11 ReS21 ImS21 ReS12 ImS12 ReS22 ImS22
12607400000.0 0.8398046074099141 -0.5428887744030896 -9.23637775644166e-17 1.0769497853944042e-16 -9.23637775644166e-17 1.0769497853944042e-16 0.8398049861151093 -0.5428881885766247
12608017333.333334 0.8331600629630056 -0.5530319244702678 -9.102365402444608e-17 1.0879378767546761e-16 -9.102365402444608e-17 1.0879378767546761e-16 0.8331604487249208 -0.5530313433073181
12608634666.666666 0.8263930161073969 -0.5630937603354588 -8.967047525310985e-17 1.0987593543960271e-16 -8.967047525310985e-17 1.0987593543960271e-16 0.8263934088686234 -0.5630931839210134
12609252000.0 0.819504461825481 -0.5730728025721834 -8.830444821944966e-17 1.1094126692925201e-16 -8.830444821944966e-17 1.1094126692925201e-16 0.819504861527587 -0.5730722309905254
12609869333.333334 0.8124954129653384 -0.582967583927351 -8.692578172783215e-17 1.1198962981067394e-16 -8.692578172783215e-17 1.1198962981067394e-16 0.812495819548878 -0.582967017262045
12610486666.666666 0.8053669000918507 -0.59277664953695 -8.553468638609739e-17 1.1302087434068726e-16 -8.553468638609739e-17 1.1302087434068726e-16 0.8053673134963717 -0.5927760878708292
12611104000.0 0.7981199713349397 -0.6024985571402833 -8.413137457339882e-17 1.1403485338802236e-16 -8.413137457339882e-17 1.1403485338802236e-16 0.7981203914989934 -0.6024980005554386
12611721333.333334 0.7907556922357919 -0.6121318772915707 -8.271606040790469e-17 1.1503142245419063e-16 -8.271606040790469e-17 1.1503142245419063e-16 0.7907561190969411 -0.6121313258693368
12612338666.666666 0.7832751455899687 -0.621675193570422 -8.12889597141261e-17 1.1601043969404583e-16 -8.12889597141261e-17 1.1601043969404583e-16 0.7832755790847987 -0.6216746473913674
12612956000.0 0.7756794312881466 -0.6311271027901642 -7.985028999008532e-17 1.1697176593588297e-16 -7.985028999008532e-17 1.1697176593588297e-16 0.7756798713522726 -0.6311265619340782
12613573333.333334 0.7679696661546747 -0.6404862152037984 -7.840027037424406e-17 1.1791526470113343e-16 -7.840027037424406e-17 1.1791526470113343e-16 0.7679701127227527 -0.6404856797496804
12614190666.666666 0.7601469837830478 -0.6497511547087417 -7.69391216121375e-17 1.188408022236942e-16 -7.69391216121375e-17 1.188408022236942e-16 0.7601474367887846 -0.6497506247347888
12614808000.0 0.7522125343694634 -0.6589205590488713 -7.546706602286393e-17 1.1974824746878763e-16 -7.546706602286393e-17 1.1974824746878763e-16 0.7522129937456252 -0.6589200346324676
12615425333.333334 0.7441674845435383 -0.6679930800150193 -7.398432746528373e-17 1.206374721514545e-16 -7.398432746528373e-17 1.206374721514545e-16 0.7441679502219608 -0.6679925612327233
12616042666.666666 0.7360130171969045 -0.676967383643051 -7.249113130405879e-17 1.215083507545922e-16 -7.249113130405879e-17 1.215083507545922e-16 0.7360134891085045 -0.6769668705705866
12616660000.0 0.7277503313092318 -0.6858421504100716 -7.098770437542616e-17 1.2236076054660709e-16 -7.098770437542616e-17 1.2236076054660709e-16 0.7277508093840164 -0.6858416431223151
12617277333.333334 0.7193806417718577 -0.6946160754285189 -6.947427495281375e-17 1.231945815986155e-16 -6.947427495281375e-17 1.231945815986155e-16 0.7193811259389341 -0.6946155739994893
12617894666.666666 0.7109051792093921 -0.7032878686377797 -6.795107271224187e-17 1.2400969680122896e-16 -6.795107271224187e-17 1.2400969680122896e-16 0.7109056693969784 -0.7032873731406263
12618512000.0 0.7023251897983986 -0.7118562549942588 -6.641832869747243e-17 1.2480599188094282e-16 -6.641832869747243e-17 1.2480599188094282e-16 0.7023256859338359 -0.7118557655012528
12619129333.333334 0.6936419350845853 -0.7203199746584295 -6.48762752850915e-17 1.2558335541602865e-16 -6.48762752850915e-17 1.2558335541602865e-16 0.6936424370943467 -0.7203194912409518
12619746666.666666 0.6848566917970539 -0.7286777831803332 -6.332514614926855e-17 1.2634167885206922e-16 -6.332514614926855e-17 1.2634167885206922e-16 0.6848571996067555 -0.7286773059088641
12620364000.0 0.6759707516605128 -0.736928451682611 -6.176517622642849e-17 1.2708085651701054e-16 -6.176517622642849e-17 1.2708085651701054e-16 0.6759712651949271 -0.7369279806267217
12620981333.333334 0.6669854212056623 -0.7450707670408986 -6.019660167972446e-17 1.2780078563579241e-16 -6.019660167972446e-17 1.2780078563579241e-16 0.666985940388726 -0.7450703022692386
12621598666.666666 0.6579020215768222 -0.753103532062451 -5.861965986333089e-17 1.2850136634454586e-16 -5.861965986333089e-17 1.2850136634454586e-16 0.657902546331649 -0.753103073642739
12622216000.0 0.6487218883377165 -0.7610255656621241 -5.703458928656856e-17 1.2918250170435194e-16 -5.703458928656856e-17 1.2918250170435194e-16 0.6487224185866088 -0.7610251136611387
12622833333.333334 0.639446371275188 -0.7688357030359629 -5.5441629577901487e-17 1.298440977145466e-16 -5.5441629577901487e-17 1.298440977145466e-16 0.6394469069396478 -0.7688352575195323
12623450666.666666 0.6300768342007573 -0.7765327958324488 -5.384102144876607e-17 1.3048606332558876e-16 -5.384102144876607e-17 1.3048606332558876e-16 0.6300773752014988 -0.7765323568654418
12624068000.0 0.6206146547499458 -0.7841157123214747 -5.223300665721959e-17 1.3110831045149715e-16 -5.223300665721959e-17 1.3110831045149715e-16 0.6206152010069057 -0.7841152799677905
12624685333.333334 0.611061224179734 -0.7915833375607227 -5.0617827971494626e-17 1.3171075398181916e-16 -5.0617827971494626e-17 1.3171075398181916e-16 0.611061775612084 -0.7915829118832818
12625302666.666666 0.601417947164269 -0.7989345735593899 -4.899572913342579e-17 1.322933117931515e-16 -4.899572913342579e-17 1.322933117931515e-16 0.601418503690428 -0.7989341546201254
12625920000.0 0.5916862415879524 -0.8061683394399283 -4.7366954821650585e-17 1.3285590476024365e-16 -4.7366954821650585e-17 1.3285590476024365e-16 0.5916868031255985 -0.8061679272997765
12626537333.333334 0.5818675383372074 -0.8132835715967758 -4.573175061483238e-17 1.3339845676659712e-16 -4.573175061483238e-17 1.3339845676659712e-16 0.5818681048032894 -0.8132831663156666
12627154666.666666 0.5719632810900945 -0.820279223852745 -4.4090362954631714e-17 1.339208947146602e-16 -4.4090362954631714e-17 1.339208947146602e-16 0.5719638524008461 -0.8202788254895963
12627772000.0 0.5619749261038359 -0.827154267612999 -4.2443039108619083e-17 1.3442314853554584e-16 -4.2443039108619083e-17 1.3442314853554584e-16 0.5619755021747856 -0.8271538762257038
12628389333.333334 0.5519039420009485 -0.8339076920161023 -4.079002713311844e-17 1.3490515119828488e-16 -4.079002713311844e-17 1.3490515119828488e-16 0.551904522746933 -0.8339073076615225
12629006666.666666 0.5417518095531225 -0.8405385040827847 -3.9131575835839816e-17 1.3536683871865466e-16 -3.9131575835839816e-17 1.3536683871865466e-16 0.5417523948883002 -0.8405381268167437
12629624000.0 0.5315200214635688 -0.8470457288618934 -3.746793473852975e-17 1.3580815016751513e-16 -3.746793473852975e-17 1.3580815016751513e-16 0.5315206113014314 -0.8470453587391658
12630241333.333334 0.5212100821475634 -0.8534284095737256 -3.579935403946434e-17 1.3622902767870507e-16 -3.579935403946434e-17 1.3622902767870507e-16 0.521210676400949 -0.8534280466480313
12630858666.666666 0.510823507511325 -0.8596856077506687 -3.412608457588747e-17 1.3662941645647184e-16 -3.412608457588747e-17 1.3662941645647184e-16 0.5108241060924313 -0.8596852520746636
12631476000.0 0.5003618247287825 -0.8658164033753873 -3.244837778629799e-17 1.3700926478245567e-16 -3.244837778629799e-17 1.3700926478245567e-16 0.5003624275491796 -0.8658160550006572
12632093333.333334 0.489826572017494 -0.8718198950158221 -3.076648567279055e-17 1.373685240221818e-16 -3.076648567279055e-17 1.373685240221818e-16 0.48982717898813694 -0.8718195539928735
12632710666.666666 0.47921929841225835 -0.8776951999578626 -2.90806607632183e-17 1.3770714863111764e-16 -2.90806607632183e-17 1.3770714863111764e-16 0.4792199094435007 -0.8776948663361157
12633328000.0 0.46854156353715454 -0.8834414543352421 -2.7391156073299155e-17 1.3802509616026186e-16 -2.7391156073299155e-17 1.3802509616026186e-16 0.4685421785387623 -0.8834411281630257
12633945333.333334 0.4577949373766242 -0.889057813256338 -2.5698225068735034e-17 1.3832232726125654e-16 -2.5698225068735034e-17 1.3832232726125654e-16 0.457795556257788 -0.8890574945808801
12634562666.666666 0.44698100004430535 -0.8945434509285735 -2.40021216272277e-17 1.3859880569104545e-16 -2.40021216272277e-17 1.3859880569104545e-16 0.44698162271365444 -0.8945431397959952
12635180000.0 0.4361013415509303 -0.8998975607797184 -2.2303100000432335e-17 1.3885449831607e-16 -2.2303100000432335e-17 1.3885449831607e-16 0.4361019679165458 -0.8998972572350277
12635797333.333334 0.42515756157031215 -0.9051193555765982 -2.0601414775917314e-17 1.3908937511599117e-16 -2.0601414775917314e-17 1.3908937511599117e-16 0.4251581915397401 -0.9051190596636814
12636414666.666666 0.4141512692044182 -0.9102080675407019 -1.889732083906926e-17 1.3930340918694973e-16 -1.889732083906926e-17 1.3930340918694973e-16 0.41415190268468516 -0.9102077793023219
12637032000.0 0.4030840827465518 -0.9151629484611908 -1.719107333492888e-17 1.3949657674436604e-16 -1.719107333492888e-17 1.3949657674436604e-16 0.4030847196441763 -0.9151626679389763
12637649333.333334 0.39195762944343054 -0.9199832698048893 -1.548292763007821e-17 1.3966885712526286e-16 -1.548292763007821e-17 1.3966885712526286e-16 0.3919582696644382 -0.9199829970393304
12638266666.666666 0.3807735452560574 -0.9246683228233479 -1.3773139274454327e-17 1.3982023279012968e-16 -1.3773139274454327e-17 1.3982023279012968e-16 0.3807741887059942 -0.9246680578537907
12638884000.0 0.36953347461910185 -0.9292174186570884 -1.2061963963154477e-17 1.3995068932431893e-16 -1.2061963963154477e-17 1.3995068932431893e-16 0.3695341212030486 -0.9292171615217295
12639501333.333334 0.358239070199008 -0.9336298884369324 -1.0349657498270336e-17 1.4006021543897293e-16 -1.0349657498270336e-17 1.4006021543897293e-16 0.35823971982159375 -0.9336296391728122
12640118666.666666 0.34689199265134063 -0.9379050833822107 -8.63647575069339e-18 1.4014880297148766e-16 -8.63647575069339e-18 1.4014880297148766e-16 0.3468926452167568 -0.9379048420252081
12640736000.0 0.3354939103759754 -0.942042374896398 -6.922674621873073e-18 1.4021644688551062e-16 -6.922674621873073e-18 1.4021644688551062e-16 0.3354945657879905 -0.9420421414812276
12641353333.333334 0.3240464992726147 -0.946041154659232 -5.208510005764729e-18 1.4026314527046558e-16 -5.208510005764729e-18 1.4026314527046558e-16 0.3240471574345877 -0.9460409292194353
12641970666.666666 0.31255144249373334 -0.9499008347163908 -3.494237750534444e-18 1.4028889934062298e-16 -3.494237750534444e-18 1.4028889934062298e-16 0.31255210330862876 -0.9499006172843352
12642588000.0 0.30101043019728607 -0.9536208475658731 -1.7801136205088457e-18 1.4029371343369412e-16 -1.7801136205088457e-18 1.4029371343369412e-16 0.30101109356768785 -0.9536206381727451
12643205333.333334 0.2894251592983594 -0.9572006462413866 -6.639325802873457e-20 1.402775950089665e-16 -6.639325802873457e-20 1.402775950089665e-16 0.2894258251264851 -0.9572004449171877
12643822666.666666 0.2777973332193434 -0.9606397043928747 1.6466678546323305e-18 1.4024055464497124e-16 1.6466678546323305e-18 1.4024055464497124e-16 0.27779800140705885 -0.960639511166417
12644440000.0 0.2661286616397973 -0.9639375163638041 3.3588144332788026e-18 1.4018260603668771e-16 3.3588144332788026e-18 1.4018260603668771e-16 0.26612933208863093 -0.9639373312627065
12645057333.333334 0.2544208602449336 -0.9670935972655583 5.0697914298034035e-18 1.4010376599228468e-16 5.0697914298034035e-18 1.4010376599228468e-16 0.2544215328560909 -0.9670934203162416
12645674666.666666 0.24267565047341072 -0.9701074830487172 6.77934407012343e-18 1.400040544293983e-16 6.77934407012343e-18 1.400040544293983e-16 0.24267632514778922 -0.9701073142764018
12646292000.0 0.23089475926392009 -0.9729787305713654 8.487217892113091e-18 1.3988349437094528e-16 8.487217892113091e-18 1.3988349437094528e-16 0.23089543590212364 -0.972978570000068
12646909333.333334 0.21907991880181996 -0.9757069176641094 1.0193158783351227e-17 1.3974211194048112e-16 1.0193158783351227e-17 1.3974211194048112e-16 0.21908059730417326 -0.9757067653166375
12647526666.666666 0.20723286626394938 -0.9782916431922728 1.1896913018953252e-17 1.3957993635708987e-16 1.1896913018953252e-17 1.3957993635708987e-16 0.20723354653051268 -0.9782914990902224
12648144000.0 0.19535534356345347 -0.9807325271148168 1.359822729922317e-17 1.3939699992981973e-16 1.359822729922317e-17 1.3939699992981973e-16 0.1953560254940375 -0.9807323912785698
12648761333.333334 0.18344909709355264 -0.9830292105402405 1.5296848787279185e-17 1.3919333805165755e-16 1.5296848787279185e-17 1.3919333805165755e-16 0.1834497805877336 -0.9830290829889631
12649378666.666666 0.1715158774709609 -0.9851813557793184 1.6992525146548097e-17 1.389689891930504e-16 1.6992525146548097e-17 1.389689891930504e-16 0.17151656242809413 -0.9851812365309536
12649996000.0 0.1595574392782616 -0.9871886463947875 1.868500457825345e-17 1.3872399489496084e-16 1.868500457825345e-17 1.3872399489496084e-16 0.15955812559749794 -0.987188535466059
12650613333.333334 0.1475755408059263 -0.9890507872478781 2.0374035858717934e-17 1.3845839976147768e-16 2.0374035858717934e-17 1.3845839976147768e-16 0.14757622838622572 -0.9890506846542826
12651230666.666666 0.13557194379409485 -0.9907675045416557 2.205936837660127e-17 1.3817225145197038e-16 2.205936837660127e-17 1.3817225145197038e-16 0.13557263253424198 -0.9907674102974644
12651848000.0 0.12354841317303544 -0.9923385458613581 2.3740752170086982e-17 1.3786560067278023e-16 2.3740752170086982e-17 1.3786560067278023e-16 0.12354910297165418 -0.9923384599796123
12652465333.333334 0.11150671680409018 -0.9937636802114378 2.5417937963844028e-17 1.3753850116847947e-16 2.5417937963844028e-17 1.3753850116847947e-16 0.11150740755965881 -0.9937636027039495
12653082666.666666 0.09944862521965737 -0.9950426980495507 2.709067720596592e-17 1.3719100971266556e-16 2.709067720596592e-17 1.3719100971266556e-16 0.0994493168305232 -0.9950426289268974
12653700000.0 0.08737591136249552 -0.9961754113173958 2.875872210476757e-17 1.3682318609830946e-16 2.875872210476757e-17 1.3682318609830946e-16 0.08737660372689018 -0.9961753505889226
12654317333.333334 0.07529035032563568 -0.997161653468309 3.042182566540033e-17 1.3643509312766948e-16 3.042182566540033e-17 1.3643509312766948e-16 0.0752910433416899 -0.9971616011421262
12654934666.666666 0.06319371909087414 -0.9980012794918016 3.2079741726423126e-17 1.3602679660174169e-16 3.2079741726423126e-17 1.3602679660174169e-16 0.06319441265663278 -0.9980012355747825
12655552000.0 0.05108779626769449 -0.9986941659348577 3.3732224996180343e-17 1.3559836530927656e-16 3.3732224996180343e-17 1.3559836530927656e-16 0.05108849028113148 -0.9986941304326384
12656169333.333334 0.03897436183192275 -0.9992402109200788 3.537903108900181e-17 1.3514987101536633e-16 3.537903108900181e-17 1.3514987101536633e-16 0.03897505619095629 -0.9992401838370598
12656786666.666666 0.026855196863642967 -0.9996393341606888 3.7019916561341864e-17 1.3468138844956967e-16 3.7019916561341864e-17 1.3468138844956967e-16 0.026855891466150247 -0.9996393155000295
12657404000.0 0.014732083285658887 -0.999891476972314 3.8654638947709824e-17 1.3419299529361176e-16 3.8654638947709824e-17 1.3419299529361176e-16 0.014732778029491364 -0.9998914667359371
12658021333.333334 0.0026068036012080243 -0.9999966022816252 4.0282956796433117e-17 1.3368477216865196e-16 4.0282956796433117e-17 1.3368477216865196e-16 0.0026074983842063085 -0.9999966004702149
12658638666.666666 -0.009518859367785074 -0.999954694631785 4.190462970526321e-17 1.3315680262211691e-16 4.190462970526321e-17 1.3315680262211691e-16 -0.009518164647776179 -0.9999547012447852
12659256000.0 -0.02164312274321278 -0.9997657601847209 4.351941835686397e-17 1.3260917311408502e-16 4.351941835686397e-17 1.3260917311408502e-16 -0.021642428188329232 -0.9997657752203379
12659873333.333334 -0.03376420385275652 -0.999429826720215 4.512708455403708e-17 1.3204197300326847e-16 4.512708455403708e-17 1.3204197300326847e-16 -0.033763509565100054 -0.9994298501754173
12660490666.666666 -0.045880320491800484 -0.9989469436318326 4.67273912548017e-17 1.3145529453256077e-16 4.67273912548017e-17 1.3145529453256077e-16 -0.04587962657342357 -0.9989469755023501
12661108000.0 -0.057989691185986555 -0.9983171819196365 4.8320102607339535e-17 1.308492328141382e-16 4.8320102607339535e-17 1.308492328141382e-16 -0.05798899773887743 -0.9983172221999631
12661725333.333334 -0.07009053545255418 -0.997540634179773 4.990498398466358e-17 1.3022388581417204e-16 4.990498398466358e-17 1.3022388581417204e-16 -0.0700898425786219 -0.9975406828631671
12662342666.666666 -0.08218107406252877 -0.9966174145908441 5.148180201914622e-17 1.2957935433709944e-16 5.148180201914622e-17 1.2957935433709944e-16 -0.08218038186358813 -0.9966174716693285
12662960000.0 -0.0942595293022706 -0.9955476588971136 5.305032463684252e-17 1.2891574200947952e-16 5.305032463684252e-17 1.2891574200947952e-16 -0.09425883788002724 -0.9955477243614778
12663577333.333334 -0.10632412523468841 -0.9943315243885652 5.461032109157379e-17 1.2823315526344687e-16 5.461032109157379e-17 1.2823315526344687e-16 -0.1063234346907238 -0.9943315982283664
12664194666.666666 -0.11837308796058793 -0.992969189877755 5.616156199883335e-17 1.275317033197412e-16 5.616156199883335e-17 1.275317033197412e-16 -0.11837239839634463 -0.9929692720813204
12664812000.0 -0.13040464587929643 -0.991460855673538 5.770381936947552e-17 1.268114981703263e-16 5.770381936947552e-17 1.268114981703263e-16 -0.13040395739606309 -0.991460946227967
12665429333.333334 -0.14241702994926075 -0.9898067435516088 5.923686664315452e-17 1.2607265456061578e-16 5.923686664315452e-17 1.2607265456061578e-16 -0.14241634264815703 -0.9898068424427731
12666046666.666666 -0.15440847394809862 -0.9880070967218955 6.076047872154868e-17 1.2531528997129135e-16 6.076047872154868e-17 1.2531528997129135e-16 -0.15440778793006069 -0.9880072039344427
12666664000.0 -0.1663772147324333 -0.9860621797927799 6.227443200141003e-17 1.2453952459969129e-16 6.227443200141003e-17 1.2453952459969129e-16 -0.1663765300981987 -0.9860622953101357
12667281333.333334 -0.17832149249682544 -0.9839722787322382 6.377850440725394e-17 1.2374548134086294e-16 6.377850440725394e-17 1.2374548134086294e-16 -0.1783208093469188 -0.9839724025366108
12667898666.666666 -0.19023955103286122 -0.9817377008257478 6.527247542394336e-17 1.2293328576815378e-16 6.527247542394336e-17 1.2293328576815378e-16 -0.19023886946757862 -0.9817378328981251
12668516000.0 -0.20212963798731515 -0.9793587746310981 6.675612612895557e-17 1.22103066113444e-16 6.675612612895557e-17 1.22103066113444e-16 -0.20212895810671047 -0.9793589149512584
12669133333.333334 -0.2139900051194994 -0.9768358499301538 6.822923922437268e-17 1.212549532470082e-16 6.822923922437268e-17 1.212549532470082e-16 -0.21398932702336856 -0.976835998476661
12669750666.666666 -0.22581890855864786 -0.9741692976773547 6.969159906869684e-17 1.203890806569474e-16 6.969159906869684e-17 1.203890806569474e-16 -0.2258182323465151 -0.9741694544275681
12670368000.0 -0.23761460906029497 -0.9713595099451761 7.114299170836039e-17 1.1950558442826206e-16 7.114299170836039e-17 1.1950558442826206e-16 -0.2376139348313977 -0.9713596748752494
