! Parameters = {f0=12700.012000; bw=77.238000; Q=6100.000000; N=10; m_0_1=1.297793; m_1_1=0.702146; m_1_2=1.132605; m_2_2=0.701497; m_2_3=0.769568; m_2_8=0.001953; m_2_9=0.038657; m_3_3=0.699560; m_3_4=0.658097; m_3_7=0.002553; m_3_8=-0.094535; m_3_9=0.001953; m_4_4=0.696635; m_4_5=0.494432; m_4_6=0.006070; m_4_7=-0.115084; m_4_8=0.002553; m_5_5=0.697017; m_5_6=0.901787; m_5_7=0.006070; m_6_6=0.697016; m_6_7=0.494774; m_7_7=0.696649; m_7_8=0.658215; m_8_8=0.699558; m_8_9=0.769881; m_9_9=0.701492; m_9_10=1.133683; m_10_10=0.702136; m_10_11=1.298588}
!
! Created with skrf (http://scikit-rf.org).
# Hz S RI R 50.0 
!freq ReS11 ImS11 ReS21 ImS21 ReS12 ImS12 ReS22 ImS22
12607400000.0 -0.9502810637127006 0.31139348090297797 1.0354865250988076e-16 -7.155334316781998e-17 1.0354865250988076e-16 -7.155334316781998e-17 -0.9502812766130252 0.3113928311932281
12608017333.333334 -0.9466873630978678 0.3221537467586264 1.0270369929363899e-16 -7.2718297462827e-17 1.0270369929363899e-16 -7.2718297462827e-17 -0.9466875833442321 0.3221530995375848
12608634666.666666 -0.9429718257085634 0.33287255206711525 1.01845651393743e-16 -7.38732897530517e-17 1.01845651393743e-16 -7.38732897530517e-17 -0.942972053271904 0.3328719074178301
12609252000.0 -0.9391349297271239 0.34354851733961195 1.009746260866769e-16 -7.50181729797072e-17 1.009746260866769e-16 -7.50181729797072e-17 -0.9391351645774395 0.34354787534479275
12609869333.333334 -0.9351771689544843 0.35418026860073953 1.0009074229892917e-16 -7.615280146267017e-17 1.0009074229892917e-16 -7.615280146267017e-17 -0.9351774110608375 0.35417962934274544
12610486666.666666 -0.931099052746686 0.36476643756524413 9.91941205908099e-17 -7.72770309189736e-17 9.91941205908099e-17 -7.72770309189736e-17 -0.9310993020772101 0.3647658011260749
12611104000.0 -0.9269011059491744 0.3753056618144908 9.828488314003576e-17 -7.839071848114009e-17 9.828488314003576e-17 -7.839071848114009e-17 -0.9269013624710752 0.3753050282757746
12611721333.333334 -0.9225838688294524 0.3857965849712709 9.736315372516628e-17 -7.949372271525363e-17 9.736315372516628e-17 -7.949372271525363e-17 -0.9225841325090138 0.38579595441425507
12612338666.666666 -0.918147897007422 0.3962378568747132 9.642905770877207e-17 -8.058590363891737e-17 9.642905770877207e-17 -8.058590363891737e-17 -0.9181481678100089 0.3962372293802529
12612956000.0 -0.9135937613838315 0.4066281337541196 9.54827220204475e-17 -8.166712273895896e-17 9.54827220204475e-17 -8.166712273895896e-17 -0.9135940392738984 0.4066275094026692
12613573333.333334 -0.9089220480669805 0.4169660784015189 9.452427513962436e-17 -8.27372429889411e-17 9.452427513962436e-17 -8.27372429889411e-17 -0.9089223330080709 0.41696545727311934
12614190666.666666 -0.904133358297122 0.42725036034412406 9.355384707815877e-17 -8.379612886650532e-17 9.355384707815877e-17 -8.379612886650532e-17 -0.9041336502518762 0.4272497425183939
12614808000.0 -0.8992283083691583 0.4374796560154076 9.25715693627455e-17 -8.484364637048818e-17 9.25715693627455e-17 -8.484364637048818e-17 -0.8992286072993171 0.43747904157153233
12615425333.333334 -0.8942075295533078 0.44765264892546536 9.157757501715138e-17 -8.587966303782187e-17 9.157757501715138e-17 -8.587966303782187e-17 -0.89420783541972 0.4476520379421886
12616042666.666666 -0.8890716680138828 0.45776802983042497 9.05719985442384e-17 -8.690404796025078e-17 9.05719985442384e-17 -8.690404796025078e-17 -0.8890719807765063 0.457767422386036
12616660000.0 -0.8838213847260687 0.46782449690103955 8.955497590781481e-17 -8.791667180082263e-17 8.955497590781481e-17 -8.791667180082263e-17 -0.8838217043439793 0.46782389307336547
12617277333.333334 -0.8784573553909277 0.4778207558901062 8.85266445142856e-17 -8.891740681018622e-17 8.85266445142856e-17 -8.891740681018622e-17 -0.8784576818223229 0.4778201557565009
12617894666.666666 -0.8729802703484532 0.4877555202990098 8.748714319416152e-17 -8.990612684263433e-17 8.748714319416152e-17 -8.990612684263433e-17 -0.8729806035506562 0.4877549239363436
12618512000.0 -0.867390834488583 0.49762751154353957 8.643661218332331e-17 -9.08827073719962e-17 8.643661218332331e-17 -9.08827073719962e-17 -0.8673911744180517 0.4976269190281909
12619129333.333334 -0.8616897671606788 0.5074354591180942 8.537519310418685e-17 -9.184702550723805e-17 8.537519310418685e-17 -9.184702550723805e-17 -0.8616901137730085 0.507434870525938
12619746666.666666 -0.855877802080822 0.5171781007594166 8.430302894663234e-17 -9.279896000790276e-17 8.430302894663234e-17 -9.279896000790276e-17 -0.8558781553307531 0.5171775161658164
12620364000.0 -0.8499556872373235 0.5268541826091402 8.322026404877489e-17 -9.373839129931507e-17 8.322026404877489e-17 -9.373839129931507e-17 -0.8499560470787465 0.5268536020889371
12620981333.333334 -0.84392418479468 0.5364624593747926 8.212704407761695e-17 -9.466520148751805e-17 8.212704407761695e-17 -9.466520148751805e-17 -0.8439245511806415 0.5364618830022965
12621598666.666666 -0.83778407099528 0.5460016944904046 8.102351600945791e-17 -9.557927437405358e-17 8.102351600945791e-17 -9.557927437405358e-17 -0.8377844438779882 0.5460011223393834
12622216000.0 -0.8315361360596044 0.5554706602754809 7.990982811019623e-17 -9.64804954704654e-17 7.990982811019623e-17 -9.64804954704654e-17 -0.8315365153904386 0.5554700924191539
12622833333.333334 -0.8251811840844389 0.5648681380931477 7.878612991543525e-17 -9.736875201260315e-17 7.878612991543525e-17 -9.736875201260315e-17 -0.8251815698139505 0.5648675746041726
12623450666.666666 -0.8187200329395388 0.5741929185067474 7.765257221047543e-17 -9.824393297465978e-17 7.765257221047543e-17 -9.824393297465978e-17 -0.8187204250174624 0.5741923594572138
12624068000.0 -0.8121535141622346 0.5834438014357067 7.650930701009849e-17 -9.91059290830188e-17 7.650930701009849e-17 -9.91059290830188e-17 -0.812153912537492 0.5834432468971251
12624685333.333334 -0.8054824728504087 0.5926195963099811 7.535648753822316e-17 -9.99546328298465e-17 7.535648753822316e-17 -9.99546328298465e-17 -0.805482877471117 0.5926190463532754
12625302666.666666 -0.798707767553919 0.6017191222230267 7.419426820744321e-17 -1.0078993848642564e-16 7.419426820744321e-17 -1.0078993848642564e-16 -0.7987081783673953 0.6017185769185233
12625920000.0 -0.7918302701637828 0.6107412080842152 7.302280459833166e-17 -1.0161174211631437e-16 7.302280459833166e-17 -1.0161174211631437e-16 -0.7918306871165535 0.6107406675016354
12626537333.333334 -0.7848508658003059 0.6196846927690932 7.184225343871284e-17 -1.0241994158818417e-16 7.184225343871284e-17 -1.0241994158818417e-16 -0.7848512888381126 0.619684156977544
12627154666.666666 -0.7777704526990039 0.6285484252690496 7.065277258270655e-17 -1.0321443658848015e-16 7.065277258270655e-17 -1.0321443658848015e-16 -0.7777708817668099 0.6285478943370143
12627772000.0 -0.7705899420949062 0.6373312648395532 6.945452098964976e-17 -1.03995128633825e-16 6.945452098964976e-17 -1.03995128633825e-16 -0.7705903771369049 0.6373307388348836
12628389333.333334 -0.7633102581055337 0.6460320811466564 6.824765870292358e-17 -1.0476192108315174e-16 6.824765870292358e-17 -1.0476192108315174e-16 -0.7633106990651543 0.6460315601365627
12629006666.666666 -0.7559323376117135 0.6546497544127748 6.703234682859094e-17 -1.0551471914962858e-16 6.703234682859094e-17 -1.0551471914962858e-16 -0.7559327844316304 0.6546492384638192
12629624000.0 -0.7484571301371324 0.6631831755606464 6.580874751395122e-17 -1.0625342991230551e-16 6.580874751395122e-17 -1.0625342991230551e-16 -0.7484575827592705 0.6631826647387323
12630241333.333334 -0.7408855977261337 0.6716312463560679 6.457702392593438e-17 -1.0697796232753405e-16 6.457702392593438e-17 -1.0697796232753405e-16 -0.7408860560916769 0.6716307407264324
12630858666.666666 -0.7332187148199447 0.6799928795491945 6.333734022938857e-17 -1.0768822724012584e-16 6.333734022938857e-17 -1.0768822724012584e-16 -0.7332191788693434 0.6799923791764003
12631476000.0 -0.7254574681310738 0.6882669990146753 6.208986156522378e-17 -1.0838413739427215e-16 6.208986156522378e-17 -1.0838413739427215e-16 -0.7254579378040547 0.6882665039626035
12632093333.333334 -0.7176028565165777 0.6964525398898797 6.083475402848047e-17 -1.0906560744418704e-16 6.083475402848047e-17 -1.0906560744418704e-16 -0.7176033317521465 0.6964520502217182
12632710666.666666 -0.7096558908494093 0.7045484487120443 5.957218464623863e-17 -1.0973255396452156e-16 5.957218464623863e-17 -1.0973255396452156e-16 -0.709656371585864 0.7045479644902836
12633328000.0 -0.7016175938881448 0.7125536835540368 5.830232135541614e-17 -1.1038489546051959e-16 5.830232135541614e-17 -1.1038489546051959e-16 -0.7016180800630815 0.7125532048404604
12633945333.333334 -0.6934890001456538 0.7204672141581449 5.702533298048592e-17 -1.1102255237790421e-16 5.702533298048592e-17 -1.1102255237790421e-16 -0.6934894916959742 0.7204667410138205
12634562666.666666 -0.6852711557557793 0.7282880220688484 5.574138921107267e-17 -1.1164544711251183e-16 5.574138921107267e-17 -1.1164544711251183e-16 -0.6852716526176996 0.7282875545541218
12635180000.0 -0.6769651183387642 0.7360151007638354 5.445066057943302e-17 -1.122535040196752e-16 5.445066057943302e-17 -1.122535040196752e-16 -0.6769656204478238 0.7360146389383224
12635797333.333334 -0.6685719568650342 0.7436474557836361 5.3153318437847116e-17 -1.128466494233403e-16 5.3153318437847116e-17 -1.128466494233403e-16 -0.6685724641561026 0.7436469997062132
12636414666.666666 -0.6600927515178298 0.7511841048594126 5.1849534935908575e-17 -1.134248116249238e-16 5.1849534935908575e-17 -1.134248116249238e-16 -0.6600932639251168 0.7511836545882118
12637032000.0 -0.6515285935539814 0.7586240780395693 5.0539482997719183e-17 -1.1398792091190867e-16 5.0539482997719183e-17 -1.1398792091190867e-16 -0.6515291110110452 0.75862363363197
12637649333.333334 -0.6428805851635727 0.7659664178144884 4.922333629899122e-17 -1.1453590956617692e-16 4.922333629899122e-17 -1.1453590956617692e-16 -0.6428811076033264 0.7659659793271085
12638266666.666666 -0.6341498393280661 0.7732101792397753 4.790126924406399e-17 -1.1506871187207734e-16 4.790126924406399e-17 -1.1506871187207734e-16 -0.6341503666827898 0.7732097467284664
12638884000.0 -0.6253374796770896 0.7803544300578561 4.6573456942817883e-17 -1.1558626412423581e-16 4.6573456942817883e-17 -1.1558626412423581e-16 -0.6253380118784377 0.7803540035776961
12639501333.333334 -0.6164446403437179 0.7873982508180475 4.524007518753414e-17 -1.1608850463508604e-16 4.524007518753414e-17 -1.1608850463508604e-16 -0.6164451773227263 0.7873978304233308
12640118666.666666 -0.6074724658187745 0.7943407349946708 4.390130042966572e-17 -1.165753737421405e-16 4.390130042966572e-17 -1.165753737421405e-16 -0.6074730075058722 0.7943403207389048
12640736000.0 -0.5984221108030946 0.801180989104076 4.2557309756473917e-17 -1.170468138150129e-16 4.2557309756473917e-17 -1.170468138150129e-16 -0.598422657128111 0.8011805810399723
12641353333.333334 -0.5892947400594771 0.8079181328191926 4.120828086772411e-17 -1.1750276926212404e-16 4.120828086772411e-17 -1.1750276926212404e-16 -0.5892952909516518 0.8079177309986608
12641970666.666666 -0.5800915282623325 0.8145512990831753 3.985439205214467e-17 -1.1794318653720014e-16 3.985439205214467e-17 -1.1794318653720014e-16 -0.5800920836503243 0.814550903557317
12642588000.0 -0.5708136598466381 0.8210796342208857 3.849582216395401e-17 -1.1836801414545057e-16 3.849582216395401e-17 -1.1836801414545057e-16 -0.5708142196585342 0.8210792450399869
12643205333.333334 -0.5614623288556205 0.8275022980486764 3.713275059925686e-17 -1.1877720264950082e-16 3.713275059925686e-17 -1.1877720264950082e-16 -0.5614628930189455 0.8275019152622016
12643822666.666666 -0.5520387387868972 0.8338184639826517 3.5765357272368187e-17 -1.1917070467505522e-16 3.5765357272368187e-17 -1.1917070467505522e-16 -0.5520393072286237 0.833818087639239
12644440000.0 -0.5425441024377303 0.8400273191449512 3.439382259213978e-17 -1.1954847491627027e-16 3.439382259213978e-17 -1.1954847491627027e-16 -0.5425446750842867 0.8400269492924041
12645057333.333334 -0.5329796417489191 0.8461280644683827 3.3018327438177277e-17 -1.1991047014087192e-16 3.3018327438177277e-17 -1.1991047014087192e-16 -0.5329802185261993 0.8461277011536628
12645674666.666666 -0.523346587647562 0.8521199147992433 3.163905313702545e-17 -1.202566491949942e-16 3.163905313702545e-17 -1.202566491949942e-16 -0.5233471684809369 0.8521195580684691
12646292000.0 -0.5136461798883755 0.8580020989985372 3.025618143827659e-17 -1.2058697300775043e-16 3.025618143827659e-17 -1.2058697300775043e-16 -0.5136467647027005 0.8580017488969737
12646909333.333334 -0.5038796668945964 0.86377386004093 2.8869894490705485e-17 -1.2090140459551366e-16 2.8869894490705485e-17 -1.2090140459551366e-16 -0.503880255614222 0.8637735166129852
12647526666.666666 -0.4940483055969753 0.869434455112388 2.7480374818265028e-17 -1.2119990906594562e-16 2.7480374818265028e-17 -1.2119990906594562e-16 -0.49404889814575736 0.8694341184016076
12648144000.0 -0.48415336127208364 0.874983155705731 2.6087805296114474e-17 -1.2148245362173317e-16 2.6087805296114474e-17 -1.2148245362173317e-16 -0.48415395757339225 0.8749828257547911
12648761333.333334 -0.4741961073794755 0.8804192477143894 2.4692369126587247e-17 -1.2174900756405648e-16 2.4692369126587247e-17 -1.2174900756405648e-16 -0.47419670735620456 0.8804189245650907
12649378666.666666 -0.46417782539794217 0.8857420315242216 2.329424981513224e-17 -1.2199954229578015e-16 2.329424981513224e-17 -1.2199954229578015e-16 -0.4641784289725217 0.8857417152174885
12649996000.0 -0.4540998046603698 0.890950822103685 2.1893631146186678e-17 -1.2223403132437465e-16 2.1893631146186678e-17 -1.2223403132437465e-16 -0.4541004117547736 0.8909505126795553
12650613333.333334 -0.4439633421878991 0.8960449490919346 2.049069715908435e-17 -1.2245245026455052e-16 2.049069715908435e-17 -1.2245245026455052e-16 -0.4439639527236557 0.8960446465895574
12651230666.666666 -0.43376974252313266 0.9010237568850404 1.908563212390903e-17 -1.2265477684062327e-16 1.908563212390903e-17 -1.2265477684062327e-16 -0.4337703564213351 0.9010234613426693
12651848000.0 -0.4235203175618833 0.905886604720535 1.7678620517298898e-17 -1.2284099088860412e-16 1.7678620517298898e-17 -1.2284099088860412e-16 -0.4235209347431999 0.9058863161755247
12652465333.333334 -0.4132163863847194 0.9106328667596899 1.6269846998279026e-17 -1.2301107435800834e-16 1.6269846998279026e-17 -1.2301107435800834e-16 -0.413217006769404 0.9106325852484917
12653082666.666666 -0.40285927508710134 0.9152619321681152 1.4859496384082772e-17 -1.2316501131338598e-16 1.4859496384082772e-17 -1.2316501131338598e-16 -0.40285989859500276 0.9152616577262707
12653700000.0 -0.392450316608482 0.9197732051944755 1.3447753625892185e-17 -1.2330278793558495e-16 1.3447753625892185e-17 -1.2330278793558495e-16 -0.3924509431590553 0.9197729378566133
12654317333.333334 -0.3819908505611227 0.9241661052469992 1.2034803784671754e-17 -1.2342439252272463e-16 1.2034803784671754e-17 -1.2342439252272463e-16 -0.3819914800734389 0.9241658450468296
12654934666.666666 -0.3714822230574548 0.928440066968304 1.062083200691328e-17 -1.2352981549090264e-16 1.062083200691328e-17 -1.2352981549090264e-16 -0.37148285545021215 0.928439813938617
12655552000.0 -0.3609257865367313 0.9325945403081981 9.206023500396401e-18 -1.236190493746211e-16 9.206023500396401e-18 -1.236190493746211e-16 -0.3609264217282651 0.9325942944808572
12656169333.333334 -0.3503228995913653 0.9366289905943096 7.790563510017376e-18 -1.2369208882693148e-16 7.790563510017376e-18 -1.2369208882693148e-16 -0.35032353749965867 0.936628752000248
12656786666.666666 -0.3396749267917137 0.9405428986010482 6.374637293520612e-18 -1.237489306193109e-16 6.374637293520612e-18 -1.237489306193109e-16 -0.3396755673344081 0.9405426672702655
12657404000.0 -0.3289832385106167 0.9443357606163622 4.958430097311693e-18 -1.2378957364125532e-16 4.958430097311693e-18 -1.2378957364125532e-16 -0.32898388160502284 0.9443355365779205
12658021333.333334 -0.31824921074698237 0.9480070885065895 3.542127132235674e-18 -1.238140188995996e-16 3.542127132235674e-18 -1.238140188995996e-16 -0.31824985631009 0.9480068717886091
12658638666.666666 -0.30747422494885696 0.951556409779219 2.125913549429248e-18 -1.2382226951755872e-16 2.125913549429248e-18 -1.2382226951755872e-16 -0.3074748728973471 0.951556200408876
12659256000.0 -0.29665966783526093 0.9549832676438309 7.099744161021791e-19 -1.238143307334953e-16 7.099744161021791e-19 -1.238143307334953e-16 -0.2966603180855154 0.9549830656473537
12659873333.333334 -0.2858069312181236 0.9582872210707476 -7.055053085764032e-19 -1.2379020989940911e-16 -7.055053085764032e-19 -1.2379020989940911e-16 -0.2858075836862358 0.9582870264734114
12660490666.666666 -0.27491741182308005 0.961467844847822 -2.1203407975998646e-18 -1.2374991647915323e-16 -2.1203407975998646e-18 -1.2374991647915323e-16 -0.27491806642486666 0.9614676576739486
12661108000.0 -0.2639925111093618 0.9645247296352701 -3.534347380272012e-18 -1.2369346204637235e-16 -3.534347380272012e-18 -1.2369346204637235e-16 -0.2639931677603728 0.9645245499082232
12661725333.333334 -0.2530336350899761 0.9674574820181875 -4.94734056620562e-18 -1.2362086028216933e-16 -4.94734056620562e-18 -1.2362086028216933e-16 -0.2530342937055061 0.9674573097603704
12662342666.666666 -0.2420421941503457 0.9702657245573006 -6.3591360694111235e-18 -1.2353212697249428e-16 -6.3591360694111235e-18 -1.2353212697249428e-16 -0.24204285464544512 0.9702655597901543
12662960000.0 -0.23101960286696 0.9729490958375003 -7.76954983227186e-18 -1.2342728000526206e-16 -7.76954983227186e-18 -1.2342728000526206e-16 -0.23102026515644503 0.9729489385814974
12663577333.333334 -0.2199672798252929 0.9755072505143559 -9.17839804952232e-18 -1.233063393671947e-16 -9.17839804952232e-18 -1.233063393671947e-16 -0.2199679438237576 0.9755071007890026
12664194666.666666 -0.20888664743726268 0.9779398593585589 -1.0585497192145379e-17 -1.231693271403919e-16 -1.0585497192145379e-17 -1.231693271403919e-16 -0.20888731305908928 0.9779397171823891
12664812000.0 -0.19777913175805859 0.9802466092983162 -1.1990664031259322e-17 -1.2301626749862845e-16 -1.1990664031259322e-17 -1.2301626749862845e-16 -0.19777979891742886 0.9802464746888909
12665429333.333334 -0.18664616230274966 0.9824272034596117 -1.3393715661942248e-17 -1.2284718670337999e-16 -1.3393715661942248e-17 -1.2284718670337999e-16 -0.1866468309136558 0.9824270764335165
12666046666.666666 -0.17548917186233715 0.9844813612044105 -1.4794469526983934e-17 -1.2266211309958e-16 -1.4794469526983934e-17 -1.2266211309958e-16 -0.17548984183859295 0.9844812417772534
12666664000.0 -0.16430959631907763 0.9864088181668287 -1.6192743440656214e-17 -1.2246107711109722e-16 -1.6192743440656214e-17 -1.2246107711109722e-16 -0.1643102675743297 0.9864087063532384
12667281333.333334 -0.15310887446207963 0.9882093262870841 -1.7588355612303684e-17 -1.2224411123595923e-16 -1.7588355612303684e-17 -1.2224411123595923e-16 -0.1531095469098183 0.9882092221007084
12667898666.666666 -0.1418884478018824 0.9898826538434696 -1.898112466998847e-17 -1.2201125004129153e-16 -1.898112466998847e-17 -1.2201125004129153e-16 -0.14188912135545298 0.9898825572969728
12668516000.0 -0.13064976038482354 0.9914285854821852 -2.0370869684036126e-17 -1.217625301579923e-16 -2.0370869684036126e-17 -1.217625301579923e-16 -0.1306504349574375 0.9914284965872473
12669133333.333334 -0.11939425860761468 0.9928469222449937 -2.1757410190452312e-17 -1.2149799027515e-16 -2.1757410190452312e-17 -1.2149799027515e-16 -0.11939493411236082 0.9928468410123097
12669750666.666666 -0.10812339103079983 0.9941374815948839 -2.314056621436998e-17 -1.212176711341783e-16 -2.314056621436998e-17 -1.212176711341783e-16 -0.10812406738065551 0.9941374080341615
12670368000.0 -0.09683860819246902 0.995300097439543 -2.4520158293357654e-17 -1.2092161552269525e-16 -2.4520158293357654e-17 -1.2092161552269525e-16 -0.09683928530031113 0.9953000315595001
