! Parameters = {f0=12700.012000; bw=77.238000; Q=6100.000000; N=10; m_0_1=1.237933; m_1_1=-0.195752; m_1_2=1.072745; m_2_2=-0.196401; m_2_3=0.709708; m_2_8=-0.001040; m_2_9=0.035664; m_3_3=-0.198338; m_3_4=0.598237; m_3_7=-0.000440; m_3_8=-0.097528; m_3_9=-0.001040; m_4_4=-0.201263; m_4_5=0.434572; m_4_6=0.003077; m_4_7=-0.118077; m_4_8=-0.000440; m_5_5=-0.200881; m_5_6=0.841927; m_5_7=0.003077; m_6_6=-0.200882; m_6_7=0.434914; m_7_7=-0.201249; m_7_8=0.598355; m_8_8=-0.198340; m_8_9=0.710021; m_9_9=-0.196406; m_9_10=1.073823; m_10_10=-0.195762; m_10_11=1.238728}
!
! Created with skrf (http://scikit-rf.org).
# Hz S RI R 50.0 
!freq ReS11 ImS11 ReS21 ImS21 ReS12 ImS12 ReS22 ImS22
12607400000.0 0.27772707856176015 0.9606600178176372 -5.113852584267566e-17 -7.98822729274082e-17 -5.113852584267566e-17 -7.98822729274082e-17 0.2777264519482314 0.9606601989715611
12608017333.333334 0.28691248855516127 0.9579567964740984 -5.1897914181551525e-17 -7.936881883693903e-17 -5.1897914181551525e-17 -7.936881883693903e-17 0.2869118637354673 0.9579569836102624
12608634666.666666 0.29607159464961047 0.9551657504545842 -5.265215806007394e-17 -7.884815312064919e-17 -5.265215806007394e-17 -7.884815312064919e-17 0.29607097168085583 0.9551659435552476
12609252000.0 0.30520355714592695 0.9522871356399314 -5.3401189064366116e-17 -7.832032722112608e-17 -5.3401189064366116e-17 -7.832032722112608e-17 0.30520293608504073 0.9522873346868072
12609869333.333334 0.3143075388335416 0.9493212159391754 -5.414493929401219e-17 -7.778539322926262e-17 -5.414493929401219e-17 -7.778539322926262e-17 0.3143069197372724 0.9493214209134334
12610486666.666666 0.32338270506695405 0.9462682632654508 -5.4883341368178334e-17 -7.724340387915195e-17 -5.4883341368178334e-17 -7.724340387915195e-17 0.32338208799186513 0.94626847414772
12611104000.0 0.3324282238426576 0.9431285575109306 -5.561632843173136e-17 -7.669441254288997e-17 -5.561632843173136e-17 -7.669441254288997e-17 0.3324276088451211 0.9431287742812999
12611721333.333334 0.34144326587498564 0.9399023865213113 -5.634383416122925e-17 -7.613847322537532e-17 -5.634383416122925e-17 -7.613847322537532e-17 0.3414426530111781 0.9399026091593323
12612338666.666666 0.3504270046725158 0.936590046069293 -5.706579277093408e-17 -7.557564055899864e-17 -5.706579277093408e-17 -7.557564055899864e-17 0.35042639399841247 0.936590274553981
12612956000.0 0.35937861661368137 0.9331918398275191 -5.778213901873725e-17 -7.50059697983007e-17 -5.778213901873725e-17 -7.50059697983007e-17 0.3593780081850507 0.9331920741373545
12613573333.333334 0.3682972810221451 0.929708079340783 -5.84928082120257e-17 -7.442951681457972e-17 -5.84928082120257e-17 -7.442951681457972e-17 0.3682966748945454 0.9297083194537166
12614190666.666666 0.37718218024228134 0.9261390839973828 -5.919773621351332e-17 -7.384633809042801e-17 -5.919773621351332e-17 -7.384633809042801e-17 0.3771815764710537 0.9261393298908338
12614808000.0 0.3860324997139759 0.9224851809998964 -5.989685944700823e-17 -7.325649071422288e-17 -5.989685944700823e-17 -7.325649071422288e-17 0.3860318983542402 0.922485432650757
12615425333.333334 0.3948474280474368 0.9187467053351303 -6.059011490312489e-17 -7.266003237456216e-17 -6.059011490312489e-17 -7.266003237456216e-17 0.3948468291540863 0.9187469627197662
12616042666.666666 0.4036261570974242 0.9149239997434749 -6.127744014495177e-17 -7.205702135463805e-17 -6.127744014495177e-17 -7.205702135463805e-17 0.403625560725121 0.9149242628377298
12616660000.0 0.41236788203744573 0.9110174146874387 -6.195877331364254e-17 -7.144751652657455e-17 -6.195877331364254e-17 -7.144751652657455e-17 0.41236728824061525 0.9110176834666345
12617277333.333334 0.42107180143351525 0.9070273083195275 -6.263405313397185e-17 -7.08315773456949e-17 -6.263405313397185e-17 -7.08315773456949e-17 0.4210712102663418 0.9070275827584681
12617894666.666666 0.429737117317603 0.9029540464494241 -6.330321891982251e-17 -7.020926384474785e-17 -6.330321891982251e-17 -7.020926384474785e-17 0.4297365288340245 0.9029543265223968
12618512000.0 0.4383630352609209 0.898798002510389 -6.396621057962857e-17 -6.958063662806848e-17 -6.396621057962857e-17 -6.958063662806848e-17 0.43836244951462355 0.8987982881911666
12619129333.333334 0.4469487644464971 0.8945595575251444 -6.462296862173204e-17 -6.894575686571653e-17 -6.462296862173204e-17 -6.894575686571653e-17 0.44694818149091115 0.8945598487869885
12619746666.666666 0.45549351774188535 0.8902391000708496 -6.5273434159717e-17 -6.830468628753087e-17 -6.5273434159717e-17 -6.830468628753087e-17 0.45549293763017984 0.8902393968865121
12620364000.0 0.46399651177142626 0.8858370262434181 -6.591754891767621e-17 -6.765748717714088e-17 -6.591754891767621e-17 -6.765748717714088e-17 0.4639959345565046 0.8858373285851457
12620981333.333334 0.47245696698768846 0.8813537396214004 -6.655525523538312e-17 -6.700422236596449e-17 -6.655525523538312e-17 -6.700422236596449e-17 0.47245639272218365 0.8813540474609358
12621598666.666666 0.48087410774329126 0.876789651228803 -6.718649607345943e-17 -6.634495522710287e-17 -6.718649607345943e-17 -6.634495522710287e-17 0.4808735364795602 0.8767899645373874
12622216000.0 0.48924716236186266 0.8721451794974836 -6.781121501844303e-17 -6.567974966922679e-17 -6.781121501844303e-17 -6.567974966922679e-17 0.48924659415198185 0.8721454982458589
12622833333.333334 0.49757536320881146 0.8674207502287754 -6.842935628781977e-17 -6.500867013039013e-17 -6.842935628781977e-17 -6.500867013039013e-17 0.4975747981045731 0.867421074387189
12623450666.666666 0.5058579467617045 0.8626167965544523 -6.904086473496466e-17 -6.433178157182776e-17 -6.904086473496466e-17 -6.433178157182776e-17 0.50585738481461 0.8626171260926573
12624068000.0 0.5140941536802389 0.8577337588970316 -6.964568585405704e-17 -6.364914947166988e-17 -6.964568585405704e-17 -6.364914947166988e-17 0.5140935949414963 0.857734093784292
12624685333.333334 0.5222832288759831 0.8527720849293264 -7.024376578491555e-17 -6.296083981863019e-17 -7.024376578491555e-17 -6.296083981863019e-17 0.5222826733965006 0.8527724251344179
12625302666.666666 0.5304244215813072 0.8477322295335765 -7.083505131776191e-17 -6.226691910565869e-17 -7.083505131776191e-17 -6.226691910565869e-17 0.5304238694116897 0.8477325750247915
12625920000.0 0.5385169854186761 0.8426146547594664 -7.141948989794891e-17 -6.156745432352001e-17 -7.141948989794891e-17 -6.156745432352001e-17 0.5385164366092194 0.8426150055046143
12626537333.333334 0.5465601784685911 0.8374198297820604 -7.199702963059222e-17 -6.086251295436624e-17 -7.199702963059222e-17 -6.086251295436624e-17 0.546559633069279 0.8374201857484739
12627154666.666666 0.5545532633378525 0.8321482308586436 -7.256761928516304e-17 -6.015216296523799e-17 -7.256761928516304e-17 -6.015216296523799e-17 0.5545527213983509 0.8321485920131788
12627772000.0 0.5624955072272569 0.8268003412849952 -7.31312083000272e-17 -5.943647280151014e-17 -7.31312083000272e-17 -5.943647280151014e-17 0.562494968796909 0.8268007075940351
12628389333.333334 0.5703861819985402 0.8213766513512311 -7.368774678686856e-17 -5.871551138035732e-17 -7.368774678686856e-17 -5.871551138035732e-17 0.5703856471263637 0.8213770227806912
12629006666.666666 0.5782245642413476 0.8158776582967188 -7.423718553511297e-17 -5.798934808409974e-17 -7.423718553511297e-17 -5.798934808409974e-17 0.578224032976029 0.8158780348120479
12629624000.0 0.58600993533939 0.8103038662645995 -7.477947601624283e-17 -5.72580527535617e-17 -7.477947601624283e-17 -5.72580527535617e-17 0.58600940772928 0.8103042478307831
12630241333.333334 0.5937415815364425 0.8046557862554881 -7.531457038806004e-17 -5.652169568137355e-17 -7.531457038806004e-17 -5.652169568137355e-17 0.5937410576295524 0.8046561728370532
12630858666.666666 0.6014187940016207 0.7989339360807433 -7.584242149888009e-17 -5.578034760523841e-17 -7.584242149888009e-17 -5.578034760523841e-17 0.6014182738456177 0.7989343276417595
12631476000.0 0.609040868894709 0.7931388403147409 -7.636298289167726e-17 -5.503407970113613e-17 -7.636298289167726e-17 -5.503407970113613e-17 0.6090403525369111 0.7931392368188248
12632093333.333334 0.6166071074302514 0.7872710302471007 -7.687620880813513e-17 -5.428296357652798e-17 -7.687620880813513e-17 -5.428296357652798e-17 0.6166065949176249 0.7872714316574205
12632710666.666666 0.62411681594185 0.7813310438338154 -7.738205419264471e-17 -5.352707126350435e-17 -7.738205419264471e-17 -5.352707126350435e-17 0.6241163073210033 0.7813314501130922
12633328000.0 0.6315693059458215 0.7753194256478733 -7.788047469624853e-17 -5.2766475211875447e-17 -7.788047469624853e-17 -5.2766475211875447e-17 0.6315688012630014 0.775319836758385
12633945333.333334 0.6389638942042031 0.7692367268294161 -7.837142668048744e-17 -5.2001248282270057e-17 -7.837142668048744e-17 -5.2001248282270057e-17 0.6389633935052919 0.7692371427330029
12634562666.666666 0.6462999027873747 0.7630835050352373 -7.88548672212094e-17 -5.1231463739154196e-17 -7.88548672212094e-17 -5.1231463739154196e-17 0.6462994061178847 0.7630839256933033
12635180000.0 0.653576659136274 0.7568603243875978 -7.933075411228637e-17 -5.045719524385054e-17 -7.933075411228637e-17 -5.045719524385054e-17 0.6535761665413431 0.756860749761114
12635797333.333334 0.6607934961240349 0.7505677554225266 -7.97990458692805e-17 -4.967851684749659e-17 -7.97990458692805e-17 -4.967851684749659e-17 0.6607930076484229 0.750568185472036
12636414666.666666 0.6679497521171465 0.7442063750375133 -8.025970173302559e-17 -4.889550298399418e-17 -8.025970173302559e-17 -4.889550298399418e-17 0.6679492678052327 0.7442068097231351
12637032000.0 0.6750447710361167 0.7377767664386227 -8.07126816731621e-17 -4.810822846288959e-17 -8.07126816731621e-17 -4.810822846288959e-17 0.6750442909318931 0.7377772057200539
12637649333.333334 0.6820779024156162 0.7312795190870219 -8.115794639157466e-17 -4.731676846226673e-17 -8.115794639157466e-17 -4.731676846226673e-17 0.682077426562685 0.7312799629235427
12638266666.666666 0.6890485014641141 0.7247152286449429 -8.159545732577963e-17 -4.652119852157731e-17 -8.159545732577963e-17 -4.652119852157731e-17 0.6890480299056836 0.7247156769954195
12638884000.0 0.6959559291229717 0.7180844969210896 -8.202517665224088e-17 -4.5721594534441635e-17 -8.202517665224088e-17 -4.5721594534441635e-17 0.6959554619018523 0.7180849497439785
12639501333.333334 0.7027995521251325 0.7113879318153675 -8.244706728960473e-17 -4.491803274143812e-17 -8.244706728960473e-17 -4.491803274143812e-17 0.702799089283733 0.7113883890687196
12640118666.666666 0.7095787430529361 0.7046261472633899 -8.286109290186913e-17 -4.4110589722856477e-17 -8.286109290186913e-17 -4.4110589722856477e-17 0.7095782846332593 0.7046266089048537
12640736000.0 0.7162928803960428 0.6977997631797922 -8.326721790150062e-17 -4.3299342391383687e-17 -8.326721790150062e-17 -4.3299342391383687e-17 0.7162924264396823 0.6978002291666184
12641353333.333334 0.7229413486078907 0.6909094054019222 -8.366540745243998e-17 -4.248436798484304e-17 -8.366540745243998e-17 -4.248436798484304e-17 0.7229408991560271 0.6909098756909674
12641970666.666666 0.7295235381626296 0.683955705631959 -8.405562747307756e-17 -4.1665744058821766e-17 -8.405562747307756e-17 -4.1665744058821766e-17 0.7295230932560267 0.6839561801796894
12642588000.0 0.7360388456106826 0.6769393013793232 -8.443784463913287e-17 -4.084354847932256e-17 -8.443784463913287e-17 -4.084354847932256e-17 0.7360384052896826 0.6769397801418187
12643205333.333334 0.7424866736341692 0.6698608359021294 -8.481202638646814e-17 -4.00178594153768e-17 -8.481202638646814e-17 -4.00178594153768e-17 0.7424862379386907 0.6698613188350879
12643822666.666666 0.7488664311017048 0.6627209581481704 -8.517814091383977e-17 -3.918875533161062e-17 -8.517814091383977e-17 -3.918875533161062e-17 0.7488660000712379 0.6627214452069118
12644440000.0 0.7551775331225743 0.6555203226954414 -8.553615718555614e-17 -3.8356314980832246e-17 -8.553615718555614e-17 -3.8356314980832246e-17 0.7551771067961789 0.6555208138349122
12645057333.333334 0.7614194011002635 0.648259589692238 -8.588604493408143e-17 -3.752061739655681e-17 -8.588604493408143e-17 -3.752061739655681e-17 0.7614189795165631 0.6482600848670146
12645674666.666666 0.7675914627855783 0.6409394247965486 -8.62277746625585e-17 -3.668174188552472e-17 -8.62277746625585e-17 -3.668174188552472e-17 0.7675910459827577 0.6409399239608414
12646292000.0 0.7736931523292153 0.633560499114895 -8.656131764727226e-17 -3.583976802016546e-17 -8.656131764727226e-17 -3.583976802016546e-17 0.7736927403450191 0.6335610022225544
12646909333.333334 0.7797239103333886 0.6261234891411138 -8.688664594000951e-17 -3.499477563111347e-17 -8.688664594000951e-17 -3.499477563111347e-17 0.7797235032051147 0.6261239961456327
12647526666.666666 0.7856831839033636 0.6186290766940284 -8.720373237037795e-17 -3.414684479962401e-17 -8.720373237037795e-17 -3.414684479962401e-17 0.785682781667861 0.6186295875485467
12648144000.0 0.7915704266980205 0.6110779488550925 -8.751255054804021e-17 -3.329605584999562e-17 -8.751255054804021e-17 -3.329605584999562e-17 0.7915700293916865 0.6110784635124019
12648761333.333334 0.7973850989799431 0.6034707979054 -8.781307486486271e-17 -3.244248934200258e-17 -8.781307486486271e-17 -3.244248934200258e-17 0.7973847066387193 0.6034713163179479
12649378666.666666 0.8031266676648682 0.5958083212622645 -8.810528049700488e-17 -3.1586226063274e-17 -8.810528049700488e-17 -3.1586226063274e-17 0.803126280324238 0.5958088433821596
12649996000.0 0.8087946063707131 0.5880912214150756 -8.838914340693224e-17 -3.072734702165644e-17 -8.838914340693224e-17 -3.072734702165644e-17 0.8087942240656981 0.5880917471940911
12650613333.333334 0.8143883954656795 0.5803202058611008 -8.86646403453541e-17 -2.9865933437564475e-17 -8.86646403453541e-17 -2.9865933437564475e-17 0.8143880182308343 0.5803207352506776
12651230666.666666 0.8199075221158911 0.5724959870406193 -8.893174885307723e-17 -2.900206673634178e-17 -8.893174885307723e-17 -2.900206673634178e-17 0.8199071499853053 0.5724965199918747
12651848000.0 0.825351480332549 0.5646192822714285 -8.919044726280522e-17 -2.813582854054564e-17 -8.919044726280522e-17 -2.813582854054564e-17 0.825351113339839 0.5646198187351562
12652465333.333334 0.830719771018231 0.5566908136831898 -8.944071470084327e-17 -2.7267300662279384e-17 -8.944071470084327e-17 -2.7267300662279384e-17 0.8307194091965392 0.556691353609867
12653082666.666666 0.8360119020125538 0.5487113081513679 -8.968253108873968e-17 -2.639656509547198e-17 -8.968253108873968e-17 -2.639656509547198e-17 0.8360115453945459 0.5487118514911591
12653700000.0 0.8412273881375206 0.5406814972302627 -8.991587714485246e-17 -2.5523704008143624e-17 -8.991587714485246e-17 -2.5523704008143624e-17 0.8412270367553815 0.5406820439330243
12654317333.333334 0.8463657512417607 0.5326021170862943 -9.014073438583078e-17 -2.4648799734693922e-17 -9.014073438583078e-17 -2.4648799734693922e-17 0.8463654051271925 0.5326026671015798
12654934666.666666 0.8514265202445118 0.5244739084303012 -9.035708512803477e-17 -2.377193476813162e-17 -9.035708512803477e-17 -2.377193476813162e-17 0.8514261794287298 0.5244744617073641
12655552000.0 0.856409231178861 0.5162976164495303 -9.056491248887586e-17 -2.289319175230241e-17 -9.056491248887586e-17 -2.289319175230241e-17 0.856408895692593 0.5162981729373314
12656169333.333334 0.8613134272340612 0.5080739907396852 -9.07642003880707e-17 -2.2012653474154997e-17 -9.07642003880707e-17 -2.2012653474154997e-17 0.8613130971075426 0.5080745503868952
12656786666.666666 0.8661386587976181 0.499803785235864 -9.095493354883792e-17 -2.1130402855921896e-17 -9.095493354883792e-17 -2.1130402855921896e-17 0.8661383340605905 0.4998043479908694
12657404000.0 0.870884483496407 0.4914877581436086 -9.113709749900583e-17 -2.0246522947344832e-17 -9.113709749900583e-17 -2.0246522947344832e-17 0.8708841641781148 0.49148832395451597
12658021333.333334 0.8755504662373146 0.4831266718692467 -9.131067857205321e-17 -1.9361096917857788e-17 -9.131067857205321e-17 -1.9361096917857788e-17 0.8755501523665026 0.4831272406838871
12658638666.666666 0.8801361792469748 0.4747212929502655 -9.147566390806428e-17 -1.8474208048805877e-17 -9.147566390806428e-17 -1.8474208048805877e-17 0.8801358708518856 0.4747218647162002
12659256000.0 0.884641202111178 0.46627239198468945 -9.163204145462106e-17 -1.7585939725594488e-17 -9.163204145462106e-17 -1.7585939725594488e-17 0.8846408992195504 0.4662729666492146
12659873333.333334 0.8890651218132675 0.45778074356070736 -9.177979996761077e-17 -1.6696375429881345e-17 -9.177979996761077e-17 -1.6696375429881345e-17 0.8890648244523314 0.45778132107085745
12660490666.666666 0.8934075327720553 0.44924712618555734 -9.191892901195647e-17 -1.580559873176243e-17 -9.191892901195647e-17 -1.580559873176243e-17 0.8934072409685321 0.449247706488112
12661108000.0 0.8976680368790609 0.44067232221405445 -9.204941896228254e-17 -1.491369328190069e-17 -9.204941896228254e-17 -1.491369328190069e-17 0.897667750659159 0.44067290525554204
12661725333.333334 0.9018462435348759 0.4320571177771161 -9.217126100348974e-17 -1.402074280372854e-17 -9.217126100348974e-17 -1.402074280372854e-17 0.9018459629242901 0.43205770350381956
12662342666.666666 0.9059417696850924 0.4234023027094639 -9.228444713126866e-17 -1.3126831085565654e-17 -9.228444713126866e-17 -1.3126831085565654e-17 0.9059414947090016 0.42340289106742535
12662960000.0 0.9099542398554092 0.41470867047723714 -9.238897015252587e-17 -1.2232041972801747e-17 -9.238897015252587e-17 -1.2232041972801747e-17 0.9099539705384716 0.4147092614122623
12663577333.333334 0.9138832861859886 0.40597701810537523 -9.248482368574089e-17 -1.1336459360035182e-17 -9.248482368574089e-17 -1.1336459360035182e-17 0.9138830225523421 0.405977611563039
12664194666.666666 0.9177285484652334 0.39720814610444516 -9.2572002161245e-17 -1.044016718322849e-17 -9.2572002161245e-17 -1.044016718322849e-17 0.9177282905384919 0.3972087420300963
12664812000.0 0.9214896741627974 0.3884028583972772 -9.265050082142515e-17 -9.543249411847159e-18 -9.265050082142515e-17 -9.543249411847159e-18 0.9214894219660507 0.3884034567360442
12665429333.333334 0.9251663184619073 0.3795619622452624 -9.272031572085032e-17 -8.645790041022202e-18 -9.272031572085032e-17 -8.645790041022202e-18 0.9251660720177168 0.3795625629420575
12666046666.666666 0.9287581442909636 0.3706862681743696 -9.278144372632293e-17 -7.747873083702776e-18 -9.278144372632293e-17 -7.747873083702776e-18 0.9287579036213597 0.3706868711738936
12666664000.0 0.9322648223544922 0.3617765899007035 -9.283388251685642e-17 -6.84958256278384e-18 -9.283388251685642e-17 -6.84958256278384e-18 0.9322645874809768 0.3617771951474527
12667281333.333334 0.9356860311632341 0.35283374425617064 -9.287763058357306e-17 -5.951002503286075e-18 -9.287763058357306e-17 -5.951002503286075e-18 0.9356858021067743 0.3528343516944402
12667898666.666666 0.9390214570637032 0.3438585511133809 -9.291268722952953e-17 -5.052216924501741e-18 -9.291268722952953e-17 -5.052216924501741e-18 0.9390212338447304 0.34385916068727046
12668516000.0 0.9422707942669747 0.3348518333103735 -9.293905256946501e-17 -4.153309832144051e-18 -9.293905256946501e-17 -4.153309832144051e-18 0.9422705769053834 0.3348524449637923
12669133333.333334 0.9454337448765766 0.3258144165755814 -9.295672752947369e-17 -3.2543652105405915e-18 -9.295672752947369e-17 -3.2543652105405915e-18 0.9454335333917225 0.3258150302522538
12669750666.666666 0.9485100189159346 0.316747129451755 -9.296571384660288e-17 -2.355467014765652e-18 -9.296571384660288e-17 -2.355467014765652e-18 0.9485098133266332 0.31674774509522524
12670368000.0 0.9514993343549115 0.30765080322013616 -9.296601406837393e-17 -1.4566991628418042e-18 -9.296601406837393e-17 -1.4566991628418042e-18 0.9514991346794347 0.30765142077377333
12670985333.333334 0.9544014171356232 0.29852627182435376 -9.295763155222902e-17 -5.581455279189086e-19 -9.295763155222902e-17 -5.581455279189086e-19 0.9544012233917009 0.29852689123135795
