! Parameters = {f0=12700.012000; bw=77.238000; Q=6100.000000; N=10; m_0_1=1.187683; m_1_1=-0.949505; m_1_2=1.022495; m_2_2=-0.950154; m_2_3=0.659458; m_2_8=-0.003552; m_2_9=0.033152; m_3_3=-0.952091; m_3_4=0.547987; m_3_7=-0.002952; m_3_8=-0.100040; m_3_9=-0.003552; m_4_4=-0.955016; m_4_5=0.384322; m_4_6=0.000565; m_4_7=-0.120589; m_4_8=-0.002952; m_5_5=-0.954634; m_5_6=0.791677; m_5_7=0.000565; m_6_6=-0.954635; m_6_7=0.384664; m_7_7=-0.955002; m_7_8=0.548105; m_8_8=-0.952093; m_8_9=0.659771; m_9_9=-0.950159; m_9_10=1.023573; m_10_10=-0.949515; m_10_11=1.188478}
!
! Created with skrf (http://scikit-rf.org).
# Hz S RI R 50.0 
!freq ReS11 ImS11 ReS21 ImS21 ReS12 ImS12 ReS22 ImS22
12607400000.0 0.9733296871598873 0.22941081075895617 -7.365538871014343e-17 4.168680961538106e-18 -7.365538871014343e-17 4.168680961538106e-18 0.9733295435752826 0.22941141994978614
12608017333.333334 0.9751536231347628 0.2215297074592731 -7.360441418864115e-17 4.769962853158686e-18 -7.360441418864115e-17 4.769962853158686e-18 0.9751534844895994 0.22153031776178705
12608634666.666666 0.9769137464879115 0.21363410758303214 -7.354853572488744e-17 5.370690129299294e-18 -7.354853572488744e-17 5.370690129299294e-18 0.9769136127907779 0.21363471895718592
12609252000.0 0.9786099420395111 0.20572452780665154 -7.348775897692513e-17 5.970822831922769e-18 -7.348775897692513e-17 5.970822831922769e-18 0.9786098132986715 0.20572514021233468
12609869333.333334 0.9802420987930641 0.1978014857214564 -7.342208992807206e-17 6.570321058405551e-18 -7.342208992807206e-17 6.570321058405551e-18 0.9802419750164563 0.19780209911849475
12610486666.666666 0.9818101099426745 0.18986549979972428 -7.335153488639563e-17 7.169144964166384e-18 -7.335153488639563e-17 7.169144964166384e-18 0.9818099911379128 0.18986611414788318
12611104000.0 0.9833138728800619 0.18191708936067483 -7.327610048416173e-17 7.767254765323383e-18 -7.327610048416173e-17 7.767254765323383e-18 0.9833137590544331 0.18191770461966097
12611721333.333334 0.9847532892012294 0.17395677453668026 -7.319579367726654e-17 8.364610741314868e-18 -7.319579367726654e-17 8.364610741314868e-18 0.9847531803616946 0.17395739066614482
12612338666.666666 0.9861282647129467 0.16598507623903402 -7.311062174464432e-17 8.961173237533621e-18 -7.311062174464432e-17 8.961173237533621e-18 0.986128160866139 0.16598569319857506
12612956000.0 0.9874387094388936 0.15800251612394636 -7.302059228765199e-17 9.556902667968125e-18 -7.302059228765199e-17 9.556902667968125e-18 0.9874386105911196 0.15800313387311166
12613573333.333334 0.9886845376255403 0.15000961655846415 -7.292571322943965e-17 1.0151759517786347e-17 -7.292571322943965e-17 1.0151759517786347e-17 0.9886844437827789 0.15001023505675384
12614190666.666666 0.9898656677477697 0.14200690058623236 -7.282599281428997e-17 1.0745704345986365e-17 -7.282599281428997e-17 1.0745704345986365e-17 0.9898655789156715 0.14200751979310144
12614808000.0 0.990982022514223 0.1339948918931818 -7.272143960694499e-17 1.1338697787976686e-17 -7.272143960694499e-17 1.1338697787976686e-17 0.9909819386981104 0.13399551176804297
12615425333.333334 0.9920335288723305 0.12597411477345746 -7.261206249190564e-17 1.1930700558196099e-17 -7.261206249190564e-17 1.1930700558196099e-17 0.9920334500771971 0.12597473527568356
12616042666.666666 0.9930201180131227 0.1179450940948838 -7.249787067271504e-17 1.2521673452691998e-17 -7.249787067271504e-17 1.2521673452691998e-17 0.9930200442436322 0.11794571518381057
12616660000.0 0.9939417253756992 0.1099083552648432 -7.237887367121627e-17 1.3111577351723251e-17 -7.237887367121627e-17 1.3111577351723251e-17 0.9939416566361883 0.10990897689977223
12617277333.333334 0.9947982906514944 0.10186442419564147 -7.225508132679208e-17 1.3700373222337874e-17 -7.225508132679208e-17 1.3700373222337874e-17 0.9947982269459684 0.10186504633584241
12617894666.666666 0.9955897577881739 0.09381382727045892 -7.212650379558557e-17 1.42880221209315e-17 -7.212650379558557e-17 1.42880221209315e-17 0.9955896991203074 0.0938144498751722
12618512000.0 0.9963160749933592 0.0857570913083677 -7.199315154969067e-17 1.4874485195852354e-17 -7.199315154969067e-17 1.4874485195852354e-17 0.9963160213665002 0.08575771433680775
12619129333.333334 0.9969771947379632 0.07769474353048049 -7.185503537633737e-17 1.545972368991699e-17 -7.185503537633737e-17 1.545972368991699e-17 0.9969771461551256 0.07769536694183758
12619746666.666666 0.9975730737593389 0.06962731152493973 -7.171216637703972e-17 1.6043698943000676e-17 -7.171216637703972e-17 1.6043698943000676e-17 0.9975730302232084 0.06962793527838332
12620364000.0 0.9981036730640938 0.061555323212619834 -7.156455596673412e-17 1.6626372394566982e-17 -7.156455596673412e-17 1.6626372394566982e-17 0.9981036345770267 0.061555947267301014
12620981333.333334 0.9985689579306428 0.05347930681260943 -7.141221587289512e-17 1.7207705586202243e-17 -7.141221587289512e-17 1.7207705586202243e-17 0.998568924494662 0.053479931127663395
12621598666.666666 0.9989688979114781 0.045399790807588256 -7.125515813462534e-17 1.7787660164160254e-17 -7.125515813462534e-17 1.7787660164160254e-17 0.9989688695282783 0.04540041534213735
12622216000.0 0.9993034668351735 0.03731730390915947 -7.109339510173311e-17 1.8366197881868648e-17 -7.109339510173311e-17 1.8366197881868648e-17 0.9993034435061178 0.03731792862231558
12622833333.333334 0.9995726428080833 0.029232375023421443 -7.092693943378067e-17 1.894328060246158e-17 -7.092693943378067e-17 1.894328060246158e-17 0.9995726245342033 0.029232999874288762
12623450666.666666 0.9997764082157804 0.02114553321627187 -7.075580409912334e-17 1.9518870301261586e-17 -7.075580409912334e-17 1.9518870301261586e-17 0.9997763949977768 0.021146158163949606
12624068000.0 0.9999147497242096 0.013057307678729669 -7.058000237391465e-17 2.009292906830345e-17 -7.058000237391465e-17 2.009292906830345e-17 0.9999147415624541 0.01305793268231472
12624685333.333334 0.9999876582805621 0.004968227692362371 -7.039954784110242e-17 2.066541911080909e-17 -7.039954784110242e-17 2.066541911080909e-17 0.9999876551750938 0.004968852710951936
12625302666.666666 0.9999951291138629 -0.0031211774052641553 -7.021445438940227e-17 2.1236302755663815e-17 -7.021445438940227e-17 2.1236302755663815e-17 0.9999951310643894 -0.0031205524125698407
12625920000.0 0.9999371617352846 -0.011210378255423634 -7.002473621224506e-17 2.1805542451901448e-17 -7.002473621224506e-17 2.1805542451901448e-17 0.9999371687411848 -0.01120975332951864
12626537333.333334 0.9998137599381816 -0.019298845512699326 -6.983040780671375e-17 2.2373100773152574e-17 -6.983040780671375e-17 2.2373100773152574e-17 0.9998137719985024 -0.01929822069446935
12627154666.666666 0.999624931797842 -0.027386049879566787 -6.963148397245355e-17 2.293894042010331e-17 -6.963148397245355e-17 2.293894042010331e-17 0.9996249489112999 -0.027385425209886488
12627772000.0 0.9993706896709528 -0.03547146214142817 -6.942797981056231e-17 2.350302422294454e-17 -6.942797981056231e-17 2.350302422294454e-17 0.9993707118359346 -0.035470837661158515
12628389333.333334 0.999051050194805 -0.04355455320061817 -6.921991072246826e-17 2.406531514379196e-17 -6.921991072246826e-17 2.406531514379196e-17 0.9990510774093645 -0.04355392895060365
12629006666.666666 0.9986660342861833 -0.05163479411168064 -6.900729240877788e-17 2.4625776279123708e-17 -6.900729240877788e-17 2.4625776279123708e-17 0.9986660665480472 -0.051634170132746786
12629624000.0 0.9982156671400207 -0.059711656115442546 -6.879014086811182e-17 2.5184370862188644e-17 -6.879014086811182e-17 2.5184370862188644e-17 0.9982157044465857 -0.05971103244839319
12630241333.333334 0.997699978227733 -0.06778461067401277 -6.856847239592046e-17 2.5741062265406384e-17 -6.856847239592046e-17 2.5741062265406384e-17 0.9977000205760629 -0.06778398735962717
12630858666.666666 0.9971190012953064 -0.0758531295049712 -6.834230358327721e-17 2.629581400276498e-17 -6.834230358327721e-17 2.629581400276498e-17 0.9971190486821373 -0.07585250658400168
12631476000.0 0.9964727743610584 -0.08391668461647794 -6.811165131565148e-17 2.684858973221e-17 -6.811165131565148e-17 2.684858973221e-17 0.9964728267827978 -0.08391606212964714
12632093333.333334 0.9957613397131942 -0.09197474834122901 -6.787653277166974e-17 2.7399353258005793e-17 -6.787653277166974e-17 2.7399353258005793e-17 0.9957613971659183 -0.09197412632922702
12632710666.666666 0.9949847439070038 -0.1000267933713826 -6.76369654218505e-17 2.7948068533103396e-17 -6.76369654218505e-17 2.7948068533103396e-17 0.9949848063864624 -0.10002617187486464
12633328000.0 0.9941430377618281 -0.10807229279298064 -6.739296702732033e-17 2.849469966149544e-17 -6.739296702732033e-17 2.849469966149544e-17 0.9941431052634416 -0.10807167185256417
12633945333.333334 0.9932362763577298 -0.11611072012040057 -6.714455563851529e-17 2.903921090055274e-17 -6.714455563851529e-17 2.903921090055274e-17 0.9932363488765903 -0.11611009977666266
12634562666.666666 0.9922645190319034 -0.12414154933072338 -6.689174959386336e-17 2.9581566663347435e-17 -6.689174959386336e-17 2.9581566663347435e-17 0.9922645965627745 -0.12414092962419808
12635180000.0 0.9912278293747656 -0.1321642548983532 -6.663456751844066e-17 3.012173152098426e-17 -6.663456751844066e-17 3.012173152098426e-17 0.9912279119120853 -0.132163635869529
12635797333.333334 0.9901262752258212 -0.14017831182920953 -6.637302832262004e-17 3.065967020489328e-17 -6.637302832262004e-17 3.065967020489328e-17 0.9901263627636993 -0.14017769351852663
12636414666.666666 0.9889599286692126 -0.1481831956951669 -6.610715120069248e-17 3.1195347609132386e-17 -6.610715120069248e-17 3.1195347609132386e-17 0.9889600212014316 -0.14818257814301433
12637032000.0 0.9877288660289882 -0.15617838266845657 -6.583695562947481e-17 3.172872879266624e-17 -6.583695562947481e-17 3.172872879266624e-17 0.9877289635490054 -0.15617776591516996
12637649333.333334 0.9864331678641403 -0.16416334955574866 -6.55624613668948e-17 3.2259778981642986e-17 -6.55624613668948e-17 3.2259778981642986e-17 0.9864332703650871 -0.1641627336416074
12638266666.666666 0.985072918963296 -0.17213757383261358 -6.528368845056234e-17 3.278846357164933e-17 -6.528368845056234e-17 3.278846357164933e-17 0.9850730264379784 -0.17213695879783827
12638884000.0 0.9836482083392052 -0.18010053367749096 -6.500065719632373e-17 3.3314748129951755e-17 -6.500065719632373e-17 3.3314748129951755e-17 0.9836483207801051 -0.1800999195622407
12639501333.333334 0.9821591292228768 -0.18805170800608922 -6.471338819678759e-17 3.383859839774575e-17 -6.471338819678759e-17 3.383859839774575e-17 0.9821592466221506 -0.18805109485045893
12640118666.666666 0.9806057790575415 -0.19599057650509238 -6.442190231985366e-17 3.435998029235182e-17 -6.442190231985366e-17 3.435998029235182e-17 0.9806059014070235 -0.19598996434911048
12640736000.0 0.9789882594921554 -0.2039166196668797 -6.412622070718679e-17 3.487885990946869e-17 -6.412622070718679e-17 3.487885990946869e-17 0.9789883867833555 -0.20391600855050507
12641353333.333334 0.9773066763749177 -0.21182931882262804 -6.382636477272898e-17 3.5395203525311485e-17 -6.382636477272898e-17 3.5395203525311485e-17 0.9773068085990242 -0.2118287087857477
12641970666.666666 0.9755611397461851 -0.2197281561770614 -6.352235620113327e-17 3.590897759884608e-17 -6.352235620113327e-17 3.590897759884608e-17 0.9755612768940637 -0.21972754725948795
12642588000.0 0.9737517638313731 -0.22761261484183387 -6.321421694622196e-17 3.6420148773936055e-17 -6.321421694622196e-17 3.6420148773936055e-17 0.9737519058935685 -0.22761200708330262
12643205333.333334 0.9718786670334264 -0.23548217886960318 -6.290196922941488e-17 3.6928683881498084e-17 -6.290196922941488e-17 3.6928683881498084e-17 0.9718788140001637 -0.23548157230977004
12643822666.666666 0.9699419719251 -0.2433363332876841 -6.258563553813354e-17 3.743454994165678e-17 -6.258563553813354e-17 3.743454994165678e-17 0.9699421237862825 -0.2433357279661222
12644440000.0 0.9679418052409104 -0.2511745641318285 -6.22652386241972e-17 3.793771416586963e-17 -6.22652386241972e-17 3.793771416586963e-17 0.9679419619861228 -0.25117396008802634
12645057333.333334 0.9658782978688975 -0.2589963584796667 -6.194080150219998e-17 3.843814395904214e-17 -6.194080150219998e-17 3.843814395904214e-17 0.9658784594874066 -0.2589957557530254
12645674666.666666 0.963751584842002 -0.266801204484493 -6.161234744787342e-17 3.893580692162572e-17 -6.161234744787342e-17 3.893580692162572e-17 0.9637517513227561 -0.26680060311432346
12646292000.0 0.9615618053292339 -0.27458859140873126 -6.127989999641266e-17 3.943067085173111e-17 -6.127989999641266e-17 3.943067085173111e-17 0.9615619766608648 -0.27458799143425205
12646909333.333334 0.9593091026266115 -0.28235800965719354 -6.094348294082631e-17 3.9922703747167315e-17 -6.094348294082631e-17 3.9922703747167315e-17 0.9593092787974343 -0.2823574111175278
12647526666.666666 0.9569936241477311 -0.29010895081061827 -6.060312033022452e-17 4.041187380753358e-17 -6.060312033022452e-17 4.041187380753358e-17 0.9569938051457457 -0.29010835374479155
12648144000.0 0.9546155214141421 -0.29784090765885785 -6.025883646812189e-17 4.089814943625063e-17 -6.025883646812189e-17 4.089814943625063e-17 0.9546157072270332 -0.2978403121057955
12648761333.333334 0.9521749500454493 -0.3055533742340166 -5.991065591071041e-17 4.1381499242598123e-17 -5.991065591071041e-17 4.1381499242598123e-17 0.9521751406605883 -0.30555278023254107
12649378666.666666 0.9496720697491136 -0.31324584584361387 -5.95586034651228e-17 4.1861892043727366e-17 -5.95586034651228e-17 4.1861892043727366e-17 0.9496722651535587 -0.3132452534324426
12649996000.0 0.9471070443099746 -0.32091781910369294 -5.920270418767409e-17 4.233929686666764e-17 -5.920270418767409e-17 4.233929686666764e-17 0.9471072444904719 -0.320917228321435
12650613333.333334 0.9444800415795831 -0.3285687919715972 -5.884298338208489e-17 4.281368295032139e-17 -5.884298338208489e-17 4.281368295032139e-17 0.944480246522568 -0.328568202856752
12651230666.666666 0.9417912334651958 -0.33619826377890727 -5.847946659770795e-17 4.328501974741734e-17 -5.847946659770795e-17 4.328501974741734e-17 0.9417914431567921 -0.33619767636986053
12651848000.0 0.9390407959185005 -0.34380573526425423 -5.811217962770252e-17 4.375327692649881e-17 -5.811217962770252e-17 4.375327692649881e-17 0.9390410103445243 -0.3438051495992772
12652465333.333334 0.9362289089241169 -0.3513907086059665 -5.774114850723595e-17 4.421842437383844e-17 -5.774114850723595e-17 4.421842437383844e-17 0.9362291280700746 -0.35139012472321196
12653082666.666666 0.9333557564878939 -0.35895268745443143 -5.73663995116396e-17 4.468043219537959e-17 -5.73663995116396e-17 4.468043219537959e-17 0.933355980338984 -0.35895210539193156
12653700000.0 0.9304215266246886 -0.3664911769650549 -5.698795915455574e-17 4.5139270718651515e-17 -5.698795915455574e-17 4.5139270718651515e-17 0.9304217551658054 -0.36649059676072004
12654317333.333334 0.927426411346289 -0.3740056838300601 -5.660585418608168e-17 4.5594910494655054e-17 -5.660585418608168e-17 4.5594910494655054e-17 0.92742664456202 -0.37400510552167476
12654934666.666666 0.9243706066486629 -0.3814957163112455 -5.622011159088039e-17 4.604732229975506e-17 -5.622011159088039e-17 4.604732229975506e-17 0.9243708445232912 -0.38149513993646633
12655552000.0 0.9212543124992122 -0.3889607842719504 -5.583075858628894e-17 4.649647713754065e-17 -5.583075858628894e-17 4.649647713754065e-17 0.9212545550167182 -0.3889602098683041
12656169333.333334 0.9180777328237024 -0.3964003992091042 -5.5437822620411536e-17 4.69423462406718e-17 -5.5437822620411536e-17 4.69423462406718e-17 0.9180779799677637 -0.39639982681398483
12656786666.666666 0.9148410754928951 -0.40381407428524585 -5.504133137019193e-17 4.7384901072715706e-17 -5.504133137019193e-17 4.7384901072715706e-17 0.914841327246888 -0.4038135039359121
12657404000.0 0.91154455230891 -0.41120132436045886 -5.4641312739470274e-17 4.782411332996883e-17 -5.4641312739470274e-17 4.782411332996883e-17 0.9115448086559117 -0.4112007560940324
12658021333.333334 0.9081883789914352 -0.41856166602396283 -5.423779485703747e-17 4.825995494324839e-17 -5.423779485703747e-17 4.825995494324839e-17 0.9081886399142232 -0.418561099877425
12658638666.666666 0.904772775163576 -0.4258946176258256 -5.383080607466346e-17 4.869239807968191e-17 -5.383080607466346e-17 4.869239807968191e-17 0.90477304064463 -0.42589405363601546
12659256000.0 0.9012979643374571 -0.4331996993085313 -5.3420374965112085e-17 4.9121415144478064e-17 -5.3420374965112085e-17 4.9121415144478064e-17 0.9012982343589614 -0.4331991375121436
12659873333.333334 0.897764173899624 -0.4404764330383326 -5.3006530320148074e-17 4.954697878267541e-17 -5.3006530320148074e-17 4.954697878267541e-17 0.8977644484434659 -0.44047587347191447
12660490666.666666 0.8941716350961952 -0.4477243426364531 -5.258930114853137e-17 4.9969061880872636e-17 -5.258930114853137e-17 4.9969061880872636e-17 0.8941719141439688 -0.44772378533640245
12661108000.0 0.8905205830176471 -0.4549429538104285 -5.2168716673983415e-17 5.03876375689569e-17 -5.2168716673983415e-17 5.03876375689569e-17 0.8905208665506539 -0.4549423988129914
12661725333.333334 0.886811256583515 -0.46213179418496386 -5.174480633316035e-17 5.08026792217948e-17 -5.174480633316035e-17 5.08026792217948e-17 0.8868115445827652 -0.4621312415262328
12662342666.666666 0.8830438985267252 -0.4692903933329242 -5.131759977359773e-17 5.121416046092056e-17 -5.131759977359773e-17 5.121416046092056e-17 0.8830441909729362 -0.46928984304883353
12662960000.0 0.8792187553776641 -0.47641828280618964 -5.0887126851642493e-17 5.162205515620749e-17 -5.0887126851642493e-17 5.162205515620749e-17 0.8792190522512675 -0.47641773493251666
12663577333.333334 0.8753360774481457 -0.48351499616613813 -5.045341763038608e-17 5.202633742750742e-17 -5.045341763038608e-17 5.202633742750742e-17 0.8753363787292835 -0.48351445073849797
12664194666.666666 0.8713961188149199 -0.4905800690143672 -5.001650237756411e-17 5.242698164629314e-17 -5.001650237756411e-17 5.242698164629314e-17 0.8713964244834475 -0.4905795260682113
12664812000.0 0.8673991373031552 -0.49761303902288284 -4.957641156345783e-17 5.282396243726888e-17 -4.957641156345783e-17 5.282396243726888e-17 0.8673994473386436 -0.49761249859349727
12665429333.333334 0.8633453944694444 -0.5046134459645789 -4.91331758587816e-17 5.321725467996487e-17 -4.91331758587816e-17 5.321725467996487e-17 0.8633457088511798 -0.5046129080870813
12666046666.666666 0.8592351555848701 -0.5115808317430318 -4.868682613255171e-17 5.360683351031992e-17 -4.868682613255171e-17 5.360683351031992e-17 0.8592354742918573 -0.5115802964523695
12666664000.0 0.8550686896173744 -0.5185147404229445 -4.823739344994107e-17 5.399267432224723e-17 -4.823739344994107e-17 5.399267432224723e-17 0.8550690126283379 -0.5185142077538927
12667281333.333334 0.850846269214478 -0.5254147182594444 -4.778490907013568e-17 5.4374752769170456e-17 -4.778490907013568e-17 5.4374752769170456e-17 0.8508465965078612 -0.5254141882466024
12667898666.666666 0.8465681706851732 -0.5322803137282136 -4.732940444416642e-17 5.4753044765552433e-17 -4.732940444416642e-17 5.4753044765552433e-17 0.8465685022391425 -0.5322797864060045
12668516000.0 0.8422346739819623 -0.5391110775548433 -4.687091121271971e-17 5.5127526488414107e-17 -4.687091121271971e-17 5.5127526488414107e-17 0.8422350097744065 -0.53911055295751
12669133333.333334 0.8378460626825505 -0.5459065627442069 -4.6409461203975183e-17 5.5498174378801605e-17 -4.6409461203975183e-17 5.5498174378801605e-17 0.837846402691084 -0.545906040905811
12669750666.666666 0.8334026239712614 -0.5526663246097611 -4.5945086431378686e-17 5.586496514328081e-17 -4.5945086431378686e-17 5.586496514328081e-17 0.8334029681732256 -0.5526658055641809
12670368000.0 0.8289046486201832 -0.5593899208027414 -4.5477819091441075e-17 5.622787575538127e-17 -4.5477819091441075e-17 5.622787575538127e-17 0.8289049969926447 -0.5593894045836677
