! Parameters = {f0=12700.012000; bw=77.238000; Q=6100.000000; N=10; m_0_1=1.235130; m_1_1=-0.237794; m_1_2=1.069942; m_2_2=-0.238443; m_2_3=0.706905; m_2_8=-0.001180; m_2_9=0.035524; m_3_3=-0.240380; m_3_4=0.595434; m_3_7=-0.000580; m_3_8=-0.097668; m_3_9=-0.001180; m_4_4=-0.243305; m_4_5=0.431769; m_4_6=0.002937; m_4_7=-0.118217; m_4_8=-0.000580; m_5_5=-0.242923; m_5_6=0.839124; m_5_7=0.002937; m_6_6=-0.242924; m_6_7=0.432111; m_7_7=-0.243291; m_7_8=0.595552; m_8_8=-0.240382; m_8_9=0.707218; m_9_9=-0.238448; m_9_10=1.071020; m_10_10=-0.237804; m_10_11=1.235925}
!
! Created with skrf (http://scikit-rf.org).
# Hz S RI R 50.0 
!freq ReS11 ImS11 ReS21 ImS21 ReS12 ImS12 ReS22 ImS22
12607400000.0 -0.9873944815103345 0.1582786715978205 8.437039923221751e-17 -4.0439279945547573e-17 8.437039923221751e-17 -4.0439279945547573e-17 -0.9873945845182182 0.15827802899937968
12608017333.333334 -0.9858476249924584 0.16764384956377484 8.39626455738751e-17 -4.123766876465081e-17 8.39626455738751e-17 -4.123766876465081e-17 -0.9858477340898778 0.16764320800344543
12608634666.666666 -0.9842119442710087 0.1769939229298948 8.354734370461785e-17 -4.203195921142914e-17 8.354734370461785e-17 -4.203195921142914e-17 -0.984212059447538 0.17699328246537643
12609252000.0 -0.98248758671977 0.18632804926096488 8.312453469827901e-17 -4.282207998916006e-17 8.312453469827901e-17 -4.282207998916006e-17 -0.9824877079644367 0.18632740994985272
12609869333.333334 -0.9806747077022617 0.1956453875585034 8.269426030147755e-17 -4.360796021168009e-17 8.269426030147755e-17 -4.360796021168009e-17 -0.9806748350035492 0.1956447494582834
12610486666.666666 -0.9787734705577313 0.2049450983366208 8.225656292954117e-17 -4.4389529409697064e-17 8.225656292954117e-17 -4.4389529409697064e-17 -0.9787736039035771 0.20494446150466394
12611104000.0 -0.9767840465864149 0.2142263436977396 8.181148566232891e-17 -4.516671753713624e-17 8.181148566232891e-17 -4.516671753713624e-17 -0.976784185964213 0.21422570819129694
12611721333.333334 -0.9747066150341382 0.2234882874079212 8.135907224004681e-17 -4.5939454977349764e-17 8.135907224004681e-17 -4.5939454977349764e-17 -0.9747067604307411 0.2234876532841189
12612338666.666666 -0.9725413630761522 0.23273009497229416 8.089936705895299e-17 -4.670767254937714e-17 8.089936705895299e-17 -4.670767254937714e-17 -0.9725415144778716 0.23272946228812832
12612956000.0 -0.9702884858002468 0.24195093371032425 8.04324151670368e-17 -4.747130151410532e-17 8.04324151670368e-17 -4.747130151410532e-17 -0.9702886431928538 0.24195030252265542
12613573333.333334 -0.967948186189213 0.25114997283067214 7.995826225963887e-17 -4.82302735803884e-17 7.995826225963887e-17 -4.82302735803884e-17 -0.9679483495579403 0.25114934319622045
12614190666.666666 -0.9655206751025341 0.26032638350613035 7.947695467498782e-17 -4.8984520911167314e-17 7.947695467498782e-17 -4.8984520911167314e-17 -0.9655208444320786 0.2603257554814709
12614808000.0 -0.9630061712573685 0.269479338948383 7.898853938971384e-17 -4.973397612948841e-17 7.898853938971384e-17 -4.973397612948841e-17 -0.9630063465318915 0.2694787125899401
12615425333.333334 -0.9604049012088832 0.2786080144823332 7.84930640142759e-17 -5.047857232452485e-17 7.84930640142759e-17 -5.047857232452485e-17 -0.9604050824120115 0.2786073898463754
12616042666.666666 -0.9577170993298234 0.2877115876204885 7.799057678835759e-17 -5.1218243057515186e-17 7.799057678835759e-17 -5.1218243057515186e-17 -0.957717286444651 0.28771096476312386
12616660000.0 -0.9549430077893676 0.29678923813714847 7.748112657618321e-17 -5.1952922367691586e-17 7.748112657618321e-17 -5.1952922367691586e-17 -0.9549432007984576 0.296788617114319
12617277333.333334 -0.9520828765313587 0.3058401481421423 7.696476286179905e-17 -5.2682544778130884e-17 7.696476286179905e-17 -5.2682544778130884e-17 -0.952083075416745 0.30583952900961936
12617894666.666666 -0.9491369632517598 0.3148635021546022 7.644153574429421e-17 -5.3407045301568203e-17 7.644153574429421e-17 -5.3407045301568203e-17 -0.9491371679949493 0.3148628849679817
12618512000.0 -0.9461055333754014 0.3238584871765462 7.591149593294217e-17 -5.4126359446197834e-17 7.591149593294217e-17 -5.4126359446197834e-17 -0.9461057439573745 0.3238578719912431
12619129333.333334 -0.9429888600321628 0.33282429276583114 7.537469474234177e-17 -5.484042322135047e-17 7.537469474234177e-17 -5.484042322135047e-17 -0.9429890764333756 0.33282367963707465
12619746666.666666 -0.9397872240322486 0.3417601111095239 7.483118408744505e-17 -5.554917314320706e-17 7.483118408744505e-17 -5.554917314320706e-17 -0.9397874462326353 0.3417595000923527
12620364000.0 -0.9365009138409476 0.35066513709649555 7.428101647857116e-17 -5.625254624040686e-17 7.428101647857116e-17 -5.625254624040686e-17 -0.9365011418199216 0.3506645282457524
12620981333.333334 -0.9331302255526553 0.3595385683899348 7.372424501635823e-17 -5.695048005962269e-17 7.372424501635823e-17 -5.695048005962269e-17 -0.9331304592891121 0.3595379617602624
12621598666.666666 -0.9296754628641678 0.36837960549971943 7.316092338665711e-17 -5.764291267109198e-17 7.316092338665711e-17 -5.764291267109198e-17 -0.9296757023364851 0.3683790011455546
12622216000.0 -0.9261369370473364 0.3771874518543953 7.25911058553722e-17 -5.832978267409968e-17 7.25911058553722e-17 -5.832978267409968e-17 -0.9261371822333778 0.37718684982996464
12622833333.333334 -0.9225149669209711 0.3859613138730794 7.201484726326404e-17 -5.901102920239422e-17 7.201484726326404e-17 -5.901102920239422e-17 -0.9225152177980878 0.38596071423239425
12623450666.666666 -0.9188098788222323 0.39470040103667114 7.143220302069502e-17 -5.968659192956052e-17 7.143220302069502e-17 -5.968659192956052e-17 -0.9188101353672646 0.39469980383352293
12624068000.0 -0.915022006577088 0.40340392595941915 7.084322910230935e-17 -6.035641107435964e-17 7.084322910230935e-17 -6.035641107435964e-17 -0.9150222687663693 0.4034033312473749
12624685333.333334 -0.9111516914703004 0.412071104459707 7.024798204168699e-17 -6.102042740598785e-17 7.024798204168699e-17 -6.102042740598785e-17 -0.9111519592796565 0.4120705122921036
12625302666.666666 -0.907199282214759 0.42070115563052585 6.964651892594211e-17 -6.167858224929159e-17 6.964651892594211e-17 -6.167858224929159e-17 -0.9071995556195106 0.420700566060465
12625920000.0 -0.9031651349198477 0.4292933019102982 6.903889739025658e-17 -6.23308174899467e-17 6.903889739025658e-17 -6.23308174899467e-17 -0.9031654138948164 0.42929271499064353
12626537333.333334 -0.8990496130596145 0.43784676915239584 6.842517561238882e-17 -6.297707557955942e-17 6.842517561238882e-17 -6.297707557955942e-17 -0.8990498975791206 0.4378461849357666
12627154666.666666 -0.8948530874398496 0.44636078669524903 6.780541230712781e-17 -6.36172995407207e-17 6.780541230712781e-17 -6.36172995407207e-17 -0.8948533774777182 0.44636020523401615
12627772000.0 -0.8905759361646911 0.4548345874317572 6.71796667206705e-17 -6.425143297203701e-17 6.71796667206705e-17 -6.425143297203701e-17 -0.8905762316942514 0.4548340087780378
12628389333.333334 -0.8862185446026939 0.46326740787812415 6.654799862501719e-17 -6.487942005303969e-17 6.654799862501719e-17 -6.487942005303969e-17 -0.8862188455967827 0.4632668320837775
12629006666.666666 -0.8817813053518783 0.4716584882431039 6.591046831224898e-17 -6.550120554911296e-17 6.591046831224898e-17 -6.550120554911296e-17 -0.881781611782844 0.47165791535972673
12629624000.0 -0.8772646182045929 0.48000707249600316 6.52671365888077e-17 -6.611673481631731e-17 6.52671365888077e-17 -6.611673481631731e-17 -0.8772649300442953 0.48000650257492433
12630241333.333334 -0.8726688901113047 0.48831240843515006 6.461806476971788e-17 -6.67259538061696e-17 6.461806476971788e-17 -6.67259538061696e-17 -0.8726692073311205 0.48831184152742735
12630858666.666666 -0.8679945351441278 0.49657374775531915 6.396331467275927e-17 -6.732880907037322e-17 6.396331467275927e-17 -6.732880907037322e-17 -0.867994857714951 0.49657318391173333
12631476000.0 -0.8632419744592488 0.504790346115623 6.33029486125925e-17 -6.792524776549169e-17 6.33029486125925e-17 -6.792524776549169e-17 -0.8632423023514947 0.5047897853866742
12632093333.333334 -0.8584116362592643 0.5129614632060843 6.263702939485798e-17 -6.851521765755187e-17 6.263702939485798e-17 -6.851521765755187e-17 -0.8584119694428701 0.5129609056419863
12632710666.666666 -0.853503955754471 0.5210863628145573 6.196562031022544e-17 -6.90986671265939e-17 6.196562031022544e-17 -6.90986671265939e-17 -0.8535042941989023 0.521085808465235
12633328000.0 -0.8485193751235385 0.5291643128932575 6.128878512837251e-17 -6.967554517119018e-17 6.128878512837251e-17 -6.967554517119018e-17 -0.8485197187977894 0.529163761808341
12633945333.333334 -0.8434583434739029 0.5371945856243273 6.060658809197817e-17 -7.02458014128543e-17 6.060658809197817e-17 -7.02458014128543e-17 -0.8434586923464988 0.5371940378531472
12634562666.666666 -0.83832131680111 0.545176457485727 5.991909391062856e-17 -7.080938610043388e-17 5.991909391062856e-17 -7.080938610043388e-17 -0.8383216708401104 0.5451759130773105
12635180000.0 -0.8331087579478489 0.5531092093162309 5.922636775469344e-17 -7.136625011443274e-17 5.922636775469344e-17 -7.136625011443274e-17 -0.8331091171208527 0.5531086683192984
12635797333.333334 -0.8278211365621927 0.5609921263803207 5.852847524917899e-17 -7.191634497126017e-17 5.852847524917899e-17 -7.191634497126017e-17 -0.8278215008363378 0.5609915888432796
12636414666.666666 -0.822458929055296 0.5688244984325567 5.782548246752178e-17 -7.245962282743773e-17 5.782548246752178e-17 -7.245962282743773e-17 -0.8224592983972652 0.5688239644034983
12637032000.0 -0.8170226185584886 0.5766056197815483 5.711745592535534e-17 -7.299603648373462e-17 5.711745592535534e-17 -7.299603648373462e-17 -0.8170229929345115 0.5766050893082436
12637649333.333334 -0.8115126948796808 0.5843347893536301 5.640446257422692e-17 -7.352553938925296e-17 5.640446257422692e-17 -7.352553938925296e-17 -0.8115130742555354 0.5843342624835244
12638266666.666666 -0.8059296544593271 0.5920113107558863 5.568656979529687e-17 -7.404808564543537e-17 5.568656979529687e-17 -7.404808564543537e-17 -0.8059300388003454 0.5920107875360957
12638884000.0 -0.8002740003256523 0.5996344923389679 5.496384539298298e-17 -7.456363001002582e-17 5.496384539298298e-17 -7.456363001002582e-17 -0.8002743895967211 0.5996339728162748
12639501333.333334 -0.794546242049257 0.6072036472594976 5.42363575885658e-17 -7.507212790097021e-17 5.42363575885658e-17 -7.507212790097021e-17 -0.7945466362148246 0.6072031314803483
12640118666.666666 -0.7887468956974322 0.6147180935416635 5.35041750137946e-17 -7.557353540022851e-17 5.35041750137946e-17 -7.557353540022851e-17 -0.7887472947215078 0.6147175815521607
12640736000.0 -0.7828764837872442 0.6221771541392014 5.2767366704378845e-17 -7.606780925758091e-17 5.2767366704378845e-17 -7.606780925758091e-17 -0.7828768876334024 0.6221766459851021
12641353333.333334 -0.7769355352389943 0.6295801569957011 5.202600209356581e-17 -7.655490689428681e-17 5.202600209356581e-17 -7.655490689428681e-17 -0.7769359438703807 0.6295796527224137
12641970666.666666 -0.77092458532815 0.636926435105699 5.128015100555247e-17 -7.703478640677222e-17 5.128015100555247e-17 -7.703478640677222e-17 -0.7709249987074812 0.6369259347582764
12642588000.0 -0.7648441756372325 0.6442153265746136 5.052988364896576e-17 -7.750740657018365e-17 5.052988364896576e-17 -7.750740657018365e-17 -0.7648445937268016 0.6442148301977515
12643205333.333334 -0.7586948540071334 0.6514461746782528 4.9775270610251616e-17 -7.797272684191826e-17 4.9775270610251616e-17 -7.797272684191826e-17 -0.7586952767688122 0.6514456823162842
12643822666.666666 -0.7524771744875323 0.6586183279222448 4.901638284705791e-17 -7.843070736507255e-17 4.901638284705791e-17 -7.843070736507255e-17 -0.7524776018827765 0.6586178396191371
12644440000.0 -0.7461916972872193 0.6657311401004553 4.8253291681584156e-17 -7.88813089718285e-17 4.8253291681584156e-17 -7.88813089718285e-17 -0.7461921292770701 0.665730655899806
12645057333.333334 -0.7398389887234531 0.672783970353406 4.7486068793886675e-17 -7.932449318678332e-17 4.7486068793886675e-17 -7.932449318678332e-17 -0.7398394252685414 0.6727834902984379
12645674666.666666 -0.7334196211710663 0.6797761832258641 4.671478621517844e-17 -7.976022223019962e-17 4.671478621517844e-17 -7.976022223019962e-17 -0.7334200622316173 0.6797757073594236
12646292000.0 -0.726934173010708 0.6867071487243106 4.593951632104936e-17 -8.018845902121937e-17 4.593951632104936e-17 -8.018845902121937e-17 -0.726934618546543 0.6867066770888614
12646909333.333334 -0.720383228576919 0.6935762423734882 4.5160331824739655e-17 -8.060916718096574e-17 4.5160331824739655e-17 -8.060916718096574e-17 -0.7203836785474615 0.6935757750111099
12647526666.666666 -0.7137673781054323 0.7003828452727346 4.437730577029587e-17 -8.102231103562976e-17 4.437730577029587e-17 -8.102231103562976e-17 -0.7137678324697079 0.700382382225116
12648144000.0 -0.7070872176798477 0.7071263441518819 4.3590511525760705e-17 -8.142785561945602e-17 4.3590511525760705e-17 -8.142785561945602e-17 -0.7070876763964925 0.7071258854603206
12648761333.333334 -0.7003433491781489 0.7138061314262921 4.280002277630657e-17 -8.182576667767967e-17 4.280002277630657e-17 -8.182576667767967e-17 -0.7003438122054095 0.7138056771316884
12649378666.666666 -0.6935363802184117 0.7204216052516588 4.2005913517367415e-17 -8.221601066938237e-17 4.2005913517367415e-17 -8.221601066938237e-17 -0.6935368475141518 0.7204211553945138
12649996000.0 -0.6866669241039013 0.7269721695783973 4.1208258047710664e-17 -8.259855477030094e-17 4.1208258047710664e-17 -8.259855477030094e-17 -0.6866673956256024 0.726971724198807
12650613333.333334 -0.6797355997680105 0.7334572342051427 4.040713096250207e-17 -8.297336687555877e-17 4.040713096250207e-17 -8.297336687555877e-17 -0.679736075472779 0.733456793342797
12651230666.666666 -0.6727430317184185 0.7398762148320119 3.9602607146372266e-17 -8.334041560231759e-17 3.9602607146372266e-17 -8.334041560231759e-17 -0.6727435115629876 0.7398757785261892
12651848000.0 -0.6656898499807574 0.7462285331133027 3.879476176639092e-17 -8.369967029239528e-17 3.879476176639092e-17 -8.369967029239528e-17 -0.6656903339214908 0.7462281014028669
12652465333.333334 -0.6585766900419724 0.7525136167094879 3.79836702651007e-17 -8.405110101477677e-17 3.79836702651007e-17 -8.405110101477677e-17 -0.6585771780348705 0.7525131896328862
12653082666.666666 -0.6514041927930048 0.7587308993388415 3.7169408353469437e-17 -8.439467856808525e-17 3.7169408353469437e-17 -8.439467856808525e-17 -0.6514046847937067 0.7587304769340992
12653700000.0 -0.6441730044709819 0.7648798208285156 3.6352052003831767e-17 -8.473037448297901e-17 3.6352052003831767e-17 -8.473037448297901e-17 -0.6441735004347692 0.7648794031332327
12654317333.333334 -0.6368837766011194 0.7709598271648979 3.553167744284385e-17 -8.505816102446677e-17 3.553167744284385e-17 -8.505816102446677e-17 -0.6368842764829215 0.7709594142162471
12654934666.666666 -0.6295371659379576 0.7769703705435869 3.47083611443593e-17 -8.537801119417875e-17 3.47083611443593e-17 -8.537801119417875e-17 -0.6295376696923557 0.7769699623783101
12655552000.0 -0.6221338344061191 0.7829109094188003 3.3882179822333434e-17 -8.568989873254871e-17 3.3882179822333434e-17 -8.568989873254871e-17 -0.6221343419873498 0.7829105060732044
12656169333.333334 -0.6146744490408058 0.7887809085520618 3.3053210423694207e-17 -8.599379812093443e-17 3.3053210423694207e-17 -8.599379812093443e-17 -0.6146749604027647 0.7887805100620155
12656786666.666666 -0.6071596819276288 0.7945798390604778 3.2221530121186777e-17 -8.628968458367125e-17 3.2221530121186777e-17 -8.628968458367125e-17 -0.6071601970238762 0.7945794454614097
12657404000.0 -0.5995902101419902 0.8003071784644428 3.138721630619797e-17 -8.657753409005822e-17 3.138721630619797e-17 -8.657753409005822e-17 -0.5995907289257547 0.8003067897913373
12658021333.333334 -0.5919667156881897 0.805962410734627 3.0550346581585464e-17 -8.685732335626656e-17 3.0550346581585464e-17 -8.685732335626656e-17 -0.5919672381123714 0.8059620270220208
12658638666.666666 -0.5842898854380236 0.8115450263384381 2.971099875446832e-17 -8.712902984718729e-17 2.971099875446832e-17 -8.712902984718729e-17 -0.5842904114551994 0.8115446476204176
12659256000.0 -0.576560411068599 0.8170545222861463 2.8869250829001384e-17 -8.739263177820876e-17 2.8869250829001384e-17 -8.739263177820876e-17 -0.5765609406310275 0.8170541485963455
12659873333.333334 -0.5687789890003833 0.8224904021759379 2.80251809991569e-17 -8.764810811691763e-17 2.80251809991569e-17 -8.764810811691763e-17 -0.5687795220600075 0.8224900335475337
12660490666.666666 -0.5609463203342723 0.8278521762387739 2.71788676414693e-17 -8.789543858473797e-17 2.71788676414693e-17 -8.789543858473797e-17 -0.5609468568427256 0.8278518127044844
12661108000.0 -0.553063110788351 0.8331393613825642 2.63303893077656e-17 -8.813460365849902e-17 2.63303893077656e-17 -8.813460365849902e-17 -0.5530636506969597 0.8331390029746445
12661725333.333334 -0.5451300706345663 0.8383514812355176 2.5479824717905612e-17 -8.836558457192804e-17 2.5479824717905612e-17 -8.836558457192804e-17 -0.5451306138943567 0.83835112798576
12662342666.666666 -0.537147914634404 0.8434880661892886 2.4627252752486665e-17 -8.858836331707857e-17 2.4627252752486665e-17 -8.858836331707857e-17 -0.5371484611961035 0.8434877181290146
12662960000.0 -0.5291173619747708 0.8485486534410939 2.3772752445536448e-17 -8.880292264568878e-17 2.3772752445536448e-17 -8.880292264568878e-17 -0.5291179117888154 0.8485483106011565
12663577333.333334 -0.5210391362029835 0.8535327870355552 2.2916402977220026e-17 -8.900924607046316e-17 2.2916402977220026e-17 -8.900924607046316e-17 -0.5210396892195207 0.8535324494463339
12664194666.666666 -0.5129139651617697 0.8584400179056578 2.205828366649821e-17 -8.920731786629352e-17 2.205828366649821e-17 -8.920731786629352e-17 -0.5129145213306633 0.8584396855970556
12664812000.0 -0.5047425809234941 0.8632699039133266 2.1198473963814032e-17 -8.939712307139965e-17 2.1198473963814032e-17 -8.939712307139965e-17 -0.5047431401943289 0.8632695769147682
12665429333.333334 -0.4965257197243489 0.8680220098891804 2.0337053443742332e-17 -8.957864748840738e-17 2.0337053443742332e-17 -8.957864748840738e-17 -0.4965262820464345 0.8680216882296085
12666046666.666666 -0.48826412189806534 0.8726959076717073 1.9474101797645837e-17 -8.975187768535158e-17 1.9474101797645837e-17 -8.975187768535158e-17 -0.48826468722044236 0.8726955913795819
12666664000.0 -0.479958531808868 0.8772911761460443 1.8609698826308186e-17 -8.991680099661218e-17 1.8609698826308186e-17 -8.991680099661218e-17 -0.4799591000803113 0.877290865249338
12667281333.333334 -0.4716096977849251 0.8818074012816208 1.774392443258532e-17 -9.007340552377427e-17 1.774392443258532e-17 -9.007340552377427e-17 -0.47161026895394875 0.8818070958078184
12667898666.666666 -0.46321837205047955 0.8862441761697156 1.6876858614029942e-17 -9.022168013642168e-17 1.6876858614029942e-17 -9.022168013642168e-17 -0.4632189460653415 0.8862438761458097
12668516000.0 -0.4547853106582458 0.8906011010600183 1.6008581455494728e-17 -9.036161447286227e-17 1.6008581455494728e-17 -9.036161447286227e-17 -0.454785887466953 0.8906008065125084
12669133333.333334 -0.44631127342144417 0.8948777833965725 1.5139173121792053e-17 -9.049319894077182e-17 1.5139173121792053e-17 -9.049319894077182e-17 -0.44631185297175696 0.8948774943514625
12669750666.666666 -0.4377970238450123 0.899073837853312 1.4268713850274747e-17 -9.061642471777999e-17 1.4268713850274747e-17 -9.061642471777999e-17 -0.4377976060844488 0.8990735543361068
12670368000.0 -0.42924332905709295 0.9031888863686368 1.3397283943449024e-17 -9.073128375197875e-17 1.3397283943449024e-17 -9.073128375197875e-17 -0.4292439139329343 0.9031886084043413
12670985333.333334 -0.42065095973978867 0.9072225581795405 1.2524963761607561e-17 -9.083776876235712e-17 1.2524963761607561e-17 -9.083776876235712e-17 -0.42065154719908343 0.9072222857926563
