! Parameters = {f0=12700.012000; bw=77.238000; Q=6100.000000; N=10; m_0_1=1.223318; m_1_1=-0.414971; m_1_2=1.058130; m_2_2=-0.415620; m_2_3=0.695093; m_2_8=-0.001770; m_2_9=0.034934; m_3_3=-0.417557; m_3_4=0.583622; m_3_7=-0.001170; m_3_8=-0.098258; m_3_9=-0.001770; m_4_4=-0.420482; m_4_5=0.419957; m_4_6=0.002347; m_4_7=-0.118807; m_4_8=-0.001170; m_5_5=-0.420100; m_5_6=0.827312; m_5_7=0.002347; m_6_6=-0.420101; m_6_7=0.420299; m_7_7=-0.420468; m_7_8=0.583740; m_8_8=-0.417559; m_8_9=0.695406; m_9_9=-0.415625; m_9_10=1.059208; m_10_10=-0.414981; m_10_11=1.224113}
!
! Created with skrf (http://scikit-rf.org).
# Hz S RI R 50.0 
!freq ReS11 ImS11 ReS21 ImS21 ReS12 ImS12 ReS22 ImS22
12607400000.0 -0.7688096586859492 -0.6394776842947931 8.111468477049339e-17 3.485159487700199e-17 8.111468477049339e-17 3.485159487700199e-17 -0.7688092464789475 -0.6394781798687958
12608017333.333334 -0.7746241332639732 -0.632421894122013 8.141701090488358e-17 3.409462313324185e-17 8.141701090488358e-17 3.409462313324185e-17 -0.7746237256250896 -0.6324223934195732
12608634666.666666 -0.7803738552356646 -0.6253132383569556 8.171227913764617e-17 3.3335041846041276e-17 8.171227913764617e-17 3.3335041846041276e-17 -0.7803734521985252 -0.625313741335973
12609252000.0 -0.7860583439686135 -0.6181523112285157 8.200046707203408e-17 3.25729167650612e-17 8.200046707203408e-17 3.25729167650612e-17 -0.7860579455664574 -0.618152817846587
12609869333.333334 -0.7916771242834812 -0.6109397113349846 8.228155292328106e-17 3.180831383093404e-17 8.228155292328106e-17 3.180831383093404e-17 -0.791676730549155 -0.6109402215494053
12610486666.666666 -0.7972297264935715 -0.6036760415941829 8.255551552021862e-17 3.1041299169569984e-17 8.255551552021862e-17 3.1041299169569984e-17 -0.7972293374595306 -0.6036765553619535
12611104000.0 -0.802715686444241 -0.5963619091928887 8.282233430684488e-17 3.027193908643554e-17 8.282233430684488e-17 3.027193908643554e-17 -0.8027153021425434 -0.5963624264707162
12611721333.333334 -0.808134545551556 -0.5889979255362582 8.308198934382471e-17 2.9500300060863996e-17 8.308198934382471e-17 2.9500300060863996e-17 -0.8081341660138623 -0.5889984462805615
12612338666.666666 -0.8134858508407323 -0.5815847061965835 8.333446130995109e-17 2.8726448740310494e-17 8.333446130995109e-17 2.8726448740310494e-17 -0.8134854760983002 -0.5815852303634942
12612956000.0 -0.8187691549840284 -0.5741228708617842 8.357973150355395e-17 2.7950451934595263e-17 8.357973150355395e-17 2.7950451934595263e-17 -0.8187687850677123 -0.5741233984071531
12613573333.333334 -0.8239840163379265 -0.5666130432839109 8.381778184384022e-17 2.717237661018036e-17 8.381778184384022e-17 2.717237661018036e-17 -0.8239836512781756 -0.5666135741633113
12614190666.666666 -0.8291299989803168 -0.5590558512266339 8.404859487219995e-17 2.6392289884375717e-17 8.404859487219995e-17 2.6392289884375717e-17 -0.8291296388071695 -0.5590563853953636
12614808000.0 -0.8342066727467983 -0.5514519264129484 8.427215375344298e-17 2.5610259019584754e-17 8.427215375344298e-17 2.5610259019584754e-17 -0.8342063174898832 -0.5514524638260357
12615425333.333334 -0.8392136132666131 -0.5438019044724192 8.448844227699413e-17 2.4826351417501734e-17 8.448844227699413e-17 2.4826351417501734e-17 -0.839213262955144 -0.543802445084625
12616042666.666666 -0.8441504019982141 -0.5361064248879046 8.469744485802639e-17 2.404063461332568e-17 8.469744485802639e-17 2.404063461332568e-17 -0.8441500566609879 -0.5361069686537263
12616660000.0 -0.8490166262641831 -0.5283661309421909 8.489914653854486e-17 2.3253176269950964e-17 8.489914653854486e-17 2.3253176269950964e-17 -0.8490162859295803 -0.5283666778158684
12617277333.333334 -0.8538118792857817 -0.5205816696641536 8.50935329884133e-17 2.2464044172161195e-17 8.50935329884133e-17 2.2464044172161195e-17 -0.8538115439817604 -0.5205822195996702
12617894666.666666 -0.8585357602168144 -0.5127536917748835 8.528059050633005e-17 2.1673306220805563e-17 8.528059050633005e-17 2.1673306220805563e-17 -0.8585354299709099 -0.5127542447259716
12618512000.0 -0.8631878741773926 -0.5048828516328822 8.546030602075273e-17 2.088103042695276e-17 8.546030602075273e-17 2.088103042695276e-17 -0.863187549016714 -0.5048834075530261
12619129333.333334 -0.8677678322866869 -0.49696980717977246 8.563266709075818e-17 2.0087284906084062e-17 8.563266709075818e-17 2.0087284906084062e-17 -0.8677675122379168 -0.49697036602221367
12619746666.666666 -0.8722752516955468 -0.4890152198851343 8.579766190685898e-17 1.9292137872236096e-17 8.579766190685898e-17 1.9292137872236096e-17 -0.8722749367849372 -0.4890157816028743
12620364000.0 -0.87670975561858 -0.4810197546910587 8.595527929176521e-17 1.849565763213735e-17 8.595527929176521e-17 1.849565763213735e-17 -0.8767094458719508 -0.4810203192368628
12620981333.333334 -0.8810709733654687 -0.4729840799568854 8.610550870108233e-17 1.7697912579385522e-17 8.610550870108233e-17 1.7697912579385522e-17 -0.8810706688082063 -0.472984647283288
12621598666.666666 -0.8853585403721255 -0.46490886740303783 8.624834022396778e-17 1.6898971188558676e-17 8.624834022396778e-17 1.6898971188558676e-17 -0.8853582410291793 -0.4649094374623449
12622216000.0 -0.8895720982310421 -0.4567947920550946 8.638376458372278e-17 1.609890200937316e-17 8.638376458372278e-17 1.609890200937316e-17 -0.8895718041269237 -0.45679536479938865
12622833333.333334 -0.8937112947213584 -0.4486425321871633 8.651177313833817e-17 1.5297773660795757e-17 8.651177313833817e-17 1.5297773660795757e-17 -0.8937110058801385 -0.44864310756830683
12623450666.666666 -0.8977757838382115 -0.4404527692653569 8.66323578809786e-17 1.4495654825191537e-17 8.66323578809786e-17 1.4495654825191537e-17 -0.8977755002835193 -0.440453347234997
12624068000.0 -0.9017652258216886 -0.43222618789078043 8.674551144041899e-17 1.3692614242431707e-17 8.674551144041899e-17 1.3692614242431707e-17 -0.9017649475767088 -0.4322267684003524
12624685333.333334 -0.9056792871853121 -0.42396347574212234 8.685122708142236e-17 1.2888720704023432e-17 8.685122708142236e-17 1.2888720704023432e-17 -0.9056790142727844 -0.42396405874285453
12625302666.666666 -0.9095176407437472 -0.4156653235185306 8.694949870506355e-17 1.2084043047240178e-17 8.694949870506355e-17 1.2084043047240178e-17 -0.9095173731859613 -0.4156659089614469
12625920000.0 -0.9132799656403537 -0.40733242488143606 8.704032084900309e-17 1.1278650149213202e-17 8.704032084900309e-17 1.1278650149213202e-17 -0.9132797034591508 -0.40733301271736166
12626537333.333334 -0.9169659473737963 -0.398965476397034 8.712368868770009e-17 1.0472610921079032e-17 8.712368868770009e-17 1.0472610921079032e-17 -0.9169656905905659 -0.3989660665765987
12627154666.666666 -0.9205752778244767 -0.39056517747774666 8.719959803257461e-17 9.665994302091546e-18 8.719959803257461e-17 9.665994302091546e-18 -0.9205750264601548 -0.39056576995138925
12627772000.0 -0.9241076552803089 -0.3821322303237037 8.726804533211851e-17 8.858869253709252e-18 8.726804533211851e-17 8.858869253709252e-18 -0.9241074093553763 -0.3821328250416757
12628389333.333334 -0.9275627844618027 -0.373667339864356 8.732902767194436e-17 8.051304753757338e-18 8.732902767194436e-17 8.051304753757338e-18 -0.9275625439962851 -0.3736679367767272
12629006666.666666 -0.9309403765468773 -0.36517121369926514 8.73825427747882e-17 7.243369790506287e-18 8.73825427747882e-17 7.243369790506287e-18 -0.9309401415603408 -0.36517181275592586
12629624000.0 -0.9342401491949431 -0.35664456203908074 8.742858900045194e-17 6.435133356816414e-18 8.742858900045194e-17 6.435133356816414e-18 -0.9342399197064936 -0.3566451631897472
12630241333.333334 -0.9374618265705333 -0.34808809764609416 8.746716534569466e-17 5.626664444254553e-18 8.746716534569466e-17 5.626664444254553e-18 -0.9374616025988156 -0.34808870084031257
12630858666.666666 -0.9406051393662764 -0.3395025357748972 8.749827144406908e-17 4.8180320372181084e-18 8.749827144406908e-17 4.8180320372181084e-18 -0.9406049209294732 -0.3395031409620479
12631476000.0 -0.9436698248255735 -0.33088859411213856 8.752190756570443e-17 4.0093051070445805e-18 8.752190756570443e-17 4.0093051070445805e-18 -0.9436696119414031 -0.33088920124144044
12632093333.333334 -0.9466556267643987 -0.32224699271698537 8.753807461703336e-17 3.2005526061692985e-18 8.753807461703336e-17 3.2005526061692985e-18 -0.9466554194501117 -0.32224760173749945
12632710666.666666 -0.9495622955927869 -0.3135784539607163 8.754677414046627e-17 2.3918434622547123e-18 8.754677414046627e-17 2.3918434622547123e-18 -0.9495620938651688 -0.31357906482135106
12633328000.0 -0.9523895883357133 -0.3048837024663124 8.75480083140121e-17 1.5832465723016812e-18 8.75480083140121e-17 1.5832465723016812e-18 -0.9523893922110797 -0.30488431511582703
12633945333.333334 -0.9551372686533708 -0.2961634650479624 8.754177995084351e-17 7.748307968254041e-19 8.754177995084351e-17 7.748307968254041e-19 -0.9551370781475672 -0.29616407943497175
12634562666.666666 -0.9578051068609444 -0.2874184706502537 8.752809249880907e-17 -3.333504601304162e-20 8.752809249880907e-17 -3.333504601304162e-20 -0.9578049219893471 -0.28741908672323274
12635180000.0 -0.9603928799477826 -0.2786494502873474 8.750695003989181e-17 -8.411821862393942e-19 8.750695003989181e-17 -8.411821862393942e-19 -0.960392700725293 -0.27865006799463465
12635797333.333334 -0.9629003715960903 -0.2698571369816797 8.747835728961322e-17 -1.6486419079223746e-18 8.747835728961322e-17 -1.6486419079223746e-18 -0.9629001980371371 -0.26985775627148245
12636414666.666666 -0.9653273721989503 -0.26104226570290495 8.744231959638454e-17 -2.455645554985656e-18 8.744231959638454e-17 -2.455645554985656e-18 -0.9653272043174888 -0.2610428865233035
12637032000.0 -0.9676736788779097 -0.25220557330624094 8.73988429408033e-17 -3.2621245370522468e-18 8.73988429408033e-17 -3.2621245370522468e-18 -0.9676735166874165 -0.2522061956051921
12637649333.333334 -0.9699390954998723 -0.2433477984710901 8.734793393489727e-17 -4.068010335241228e-18 8.734793393489727e-17 -4.068010335241228e-18 -0.9699389390133499 -0.24334842219643288
12638266666.666666 -0.9721234326935524 -0.23446968163910178 8.728959982131403e-17 -4.873234507993398e-18 8.728959982131403e-17 -4.873234507993398e-18 -0.9721232819235232 -0.2344703067385605
12638884000.0 -0.9742265078652755 -0.22557196495235743 8.72238484724581e-17 -5.677728696860748e-18 8.72238484724581e-17 -5.677728696860748e-18 -0.974226362823784 -0.22557259137354707
12639501333.333334 -0.9762481452142344 -0.21665539219138993 8.715068838957355e-17 -6.4814246323039535e-18 8.715068838957355e-17 -6.4814246323039535e-18 -0.9762480059128443 -0.21665601988181984
12640118666.666666 -0.9781881757471828 -0.20772070871300896 8.707012870177656e-17 -7.284254139447851e-18 8.707012870177656e-17 -7.284254139447851e-18 -0.9781880421969785 -0.20772133762008788
12640736000.0 -0.9800464372926385 -0.1987686613876625 8.698217916502746e-17 -8.086149143905781e-18 8.698217916502746e-17 -8.086149143905781e-18 -0.9800463095042206 -0.19876929145870217
12641353333.333334 -0.9818227745143003 -0.18979999853761376 8.688685016106143e-17 -8.887041677469433e-18 8.688685016106143e-17 -8.887041677469433e-18 -0.9818226524977877 -0.18980062971983394
12641970666.666666 -0.983517038924142 -0.18081546987391622 8.678415269625396e-17 -9.686863883913495e-18 8.678415269625396e-17 -9.686863883913495e-18 -0.9835169226891695 -0.18081610211444904
12642588000.0 -0.9851290888947952 -0.1718158264338542 8.667409840044328e-17 -1.0485548024697127e-17 8.667409840044328e-17 -1.0485548024697127e-17 -0.9851289784505143 -0.17181645967974837
12643205333.333334 -0.9866587896713795 -0.16280182051821737 8.655669952569401e-17 -1.1283026484704952e-17 8.655669952569401e-17 -1.1283026484704952e-17 -0.9866586850264571 -0.162802454716443
12643822666.666666 -0.9881060133827724 -0.15377420562838687 8.64319689450105e-17 -1.2079231777958094e-17 8.64319689450105e-17 -1.2079231777958094e-17 -0.9881059145453889 -0.15377484072583933
12644440000.0 -0.9894706390523026 -0.1447337364033199 8.629992015099866e-17 -1.2874096553304526e-17 8.629992015099866e-17 -1.2874096553304526e-17 -0.9894705460301523 -0.1447343723468248
12645057333.333334 -0.9907525526078472 -0.135681168556552 8.616056725447612e-17 -1.3667553600095878e-17 8.616056725447612e-17 -1.3667553600095878e-17 -0.9907524654081385 -0.13568180529286933
12645674666.666666 -0.9919516468913826 -0.12661725881296962 8.601392498302652e-17 -1.445953585387202e-17 8.601392498302652e-17 -1.445953585387202e-17 -0.9919515655208357 -0.12661789628879835
12646292000.0 -0.9930678216679465 -0.11754276484546865 8.586000867950274e-17 -1.5249976402023557e-17 8.586000867950274e-17 -1.5249976402023557e-17 -0.9930677461327929 -0.11754340300745102
12646909333.333334 -0.994100983633993 -0.1084584452118161 8.569883430048457e-17 -1.603880848940513e-17 8.569883430048457e-17 -1.603880848940513e-17 -0.9941009139399779 -0.10845908400654238
12647526666.666666 -0.9950510464252172 -0.09936505929107185 8.553041841467725e-17 -1.6825965523974503e-17 8.553041841467725e-17 -1.6825965523974503e-17 -0.9950509825775951 -0.09936569866508449
12648144000.0 -0.9959179306237689 -0.09026336722008127 8.535477820125879e-17 -1.7611381082413106e-17 8.535477820125879e-17 -1.7611381082413106e-17 -0.9959178726273064 -0.09026400711987963
12648761333.333334 -0.9967015637648747 -0.08115412983016042 8.517193144818219e-17 -1.8394988915698443e-17 8.517193144818219e-17 -1.8394988915698443e-17 -0.9967015116238485 -0.0811547702022051
12649378666.666666 -0.997401880342911 -0.07203810858332658 8.498189655042174e-17 -1.9176722954683784e-17 8.498189655042174e-17 -1.9176722954683784e-17 -0.9974018340611076 -0.07203874937404392
12649996000.0 -0.9980188218168817 -0.06291606550858915 8.478469250816847e-17 -1.9956517315657847e-17 8.478469250816847e-17 -1.9956517315657847e-17 -0.9980187813975979 -0.06291670666437572
12650613333.333334 -0.9985523366153006 -0.05378876313841986 8.458033892497398e-17 -2.073430630589144e-17 8.458033892497398e-17 -2.073430630589144e-17 -0.9985523020613429 -0.05378940460564701
12651230666.666666 -0.9990023801405082 -0.044656964444954574 8.436885600584989e-17 -2.1510024429139156e-17 8.436885600584989e-17 -2.1510024429139156e-17 -0.999002351454192 -0.044657606169972774
12651848000.0 -0.999368914772405 -0.03552143277604404 8.415026455530444e-17 -2.228360639117013e-17 8.415026455530444e-17 -2.228360639117013e-17 -0.9993688919555567 -0.035522074705187534
12652465333.333334 -0.9996519098715888 -0.02638293179164282 8.392458597534447e-17 -2.3054987105219606e-17 8.392458597534447e-17 -2.3054987105219606e-17 -0.9996518929255418 -0.026383573871233947
12653082666.666666 -0.9998513417819119 -0.01724222540008674 8.369184226341615e-17 -2.382410169746634e-17 8.369184226341615e-17 -2.382410169746634e-17 -0.9998513307075101 -0.017242867576440543
12653700000.0 -0.999967193832474 -0.008100077693781634 8.345205601029393e-17 -2.459088551248924e-17 8.345205601029393e-17 -2.459088551248924e-17 -0.9999671886300694 -0.008100719913210284
12654317333.333334 -0.9999994563389994 0.0010427471141860193 8.320525039793359e-17 -2.5355274118660947e-17 8.320525039793359e-17 -2.5355274118660947e-17 -0.9999994570084546 0.0010421049053686805
12654934666.666666 -0.9999481266046555 0.010185484754130185 8.295144919726245e-17 -2.6117203313562677e-17 8.295144919726245e-17 -2.6117203313562677e-17 -0.9999481331453421 0.010184842609604216
12655552000.0 -0.9998132089202784 0.01932737096382295 8.269067676592052e-17 -2.6876609129377528e-17 8.269067676592052e-17 -2.6876609129377528e-17 -0.9998132213310761 0.019326728937257783
12656169333.333334 -0.9995947145640088 0.028467641552011393 8.242295804596655e-17 -2.7633427838216876e-17 8.242295804596655e-17 -2.7633427838216876e-17 -0.9995947328433087 0.028466999697061394
12656786666.666666 -0.9992926618003551 0.03760553246263926 8.214831856151629e-17 -2.8387595957483035e-17 8.214831856151629e-17 -2.8387595957483035e-17 -0.9992926859460546 0.037604890832939136
12657404000.0 -0.998907075878662 0.04674027983846013 8.186678441634813e-17 -2.913905025515969e-17 8.186678441634813e-17 -2.913905025515969e-17 -0.9989071058881722 0.04673963848762066
12658021333.333334 -0.9984379890310021 0.05587112008511769 8.157838229144749e-17 -2.988772775511874e-17 8.157838229144749e-17 -2.988772775511874e-17 -0.9984380249012419 0.055870479066720984
12658638666.666666 -0.9978854404694842 0.06499728993474872 8.128313944251633e-17 -3.063356574236367e-17 8.128313944251633e-17 -3.063356574236367e-17 -0.9978854821968832 0.0649966493023439
12659256000.0 -0.9972494763829676 0.07411802650998532 8.098108369741668e-17 -3.1376501768297126e-17 8.098108369741668e-17 -3.1376501768297126e-17 -0.9972495239634672 0.0741173863170841
12659873333.333334 -0.9965301499332067 0.08323256738764033 8.067224345358906e-17 -3.21164736559063e-17 8.067224345358906e-17 -3.21164736559063e-17 -0.9965302033622591 0.08323192768771247
12660490666.666666 -0.9957275212504151 0.09234015066232694 8.035664767540608e-17 -3.2853419504966906e-17 8.035664767540608e-17 -3.2853419504966906e-17 -0.9957275805229835 0.09233951150879567
12661108000.0 -0.9948416574282112 0.10144001501048759 8.003432589147811e-17 -3.358727769722105e-17 8.003432589147811e-17 -3.358727769722105e-17 -0.9948417225387707 0.1014393764567253
12661725333.333334 -0.9938726325180528 0.11053139975352541 7.970530819193009e-17 -3.431798690148873e-17 7.970530819193009e-17 -3.431798690148873e-17 -0.9938727034605921 0.1105307618528492
12662342666.666666 -0.9928205275230063 0.11961354492187223 7.936962522561219e-17 -3.504548607879548e-17 7.936962522561219e-17 -3.504548607879548e-17 -0.9928206042910276 0.11961290772753948
12662960000.0 -0.9916854303909978 0.12868569131826144 7.902730819727066e-17 -3.576971448745984e-17 7.902730819727066e-17 -3.576971448745984e-17 -0.9916855129775151 0.1286850548834651
12663577333.333334 -0.990467436007451 0.13774708058127574 7.867838886467591e-17 -3.649061168814439e-17 7.867838886467591e-17 -3.649061168814439e-17 -0.9904675244049936 0.13774644495914018
12664194666.666666 -0.9891666461873705 0.1467969552486275 7.832289953570002e-17 -3.720811754889042e-17 7.832289953570002e-17 -3.720811754889042e-17 -0.9891667403879831 0.14679632049220406
12664812000.0 -0.9877831696668113 0.1558345588206462 7.79608730653541e-17 -3.792217225011082e-17 7.79608730653541e-17 -3.792217225011082e-17 -0.9877832696620545 0.15583392498290868
12665429333.333334 -0.9863171220937916 0.1648591358234589 7.759234285276934e-17 -3.8632716289579256e-17 7.759234285276934e-17 -3.8632716289579256e-17 -0.9863172278747423 0.16485850295729912
12666046666.666666 -0.9847686260186659 0.17386993187191827 7.72173428381499e-17 -3.9339690487354646e-17 7.72173428381499e-17 -3.9339690487354646e-17 -0.9847687375759173 0.17386930003014153
12666664000.0 -0.9831378108838006 0.18286619373313961 7.683590749965601e-17 -4.004303599072472e-17 7.683590749965601e-17 -4.004303599072472e-17 -0.9831379282074644 0.18286556296846057
12667281333.333334 -0.9814248130128364 0.1918471693889608 7.644807185027827e-17 -4.0742694279052e-17 7.644807185027827e-17 -4.0742694279052e-17 -0.9814249360925442 0.19184653975399907
12667898666.666666 -0.9796297755992391 0.2008121080991418 7.605387143462861e-17 -4.143860716866398e-17 7.605387143462861e-17 -4.143860716866398e-17 -0.9796299044241422 0.20081147964641732
12668516000.0 -0.9777528486943464 0.20976026046400836 7.565334232570946e-17 -4.213071681766855e-17 7.565334232570946e-17 -4.213071681766855e-17 -0.977752983253116 0.20975963324593705
12669133333.333334 -0.9757941891948406 0.21869087848701219 7.524652112164417e-17 -4.281896573073279e-17 7.524652112164417e-17 -4.281896573073279e-17 -0.9757943294756707 0.21869025255590188
12669750666.666666 -0.9737539608295968 0.22760321563745328 7.48334449423473e-17 -4.3503296763857876e-17 7.48334449423473e-17 -4.3503296763857876e-17 -0.9737541068202039 0.227602591045499
