! Parameters = {f0=12700.012000; bw=77.238000; Q=6100.000000; N=10; m_0_1=1.275571; m_1_1=0.368813; m_1_2=1.110383; m_2_2=0.368164; m_2_3=0.747346; m_2_8=0.000842; m_2_9=0.037546; m_3_3=0.366227; m_3_4=0.635875; m_3_7=0.001442; m_3_8=-0.095646; m_3_9=0.000842; m_4_4=0.363302; m_4_5=0.472210; m_4_6=0.004959; m_4_7=-0.116195; m_4_8=0.001442; m_5_5=0.363684; m_5_6=0.879565; m_5_7=0.004959; m_6_6=0.363683; m_6_7=0.472552; m_7_7=0.363316; m_7_8=0.635993; m_8_8=0.366225; m_8_9=0.747659; m_9_9=0.368159; m_9_10=1.111461; m_10_10=0.368803; m_10_11=1.276366}
!
! Created with skrf (http://scikit-rf.org).
# Hz S RI R 50.0 
!freq ReS11 ImS11 ReS21 ImS21 ReS12 ImS12 ReS22 ImS22
12607400000.0 -0.8565582637058434 -0.5160503278528691 1.098886481056501e-16 2.855419014979847e-17 1.098886481056501e-16 2.855419014979847e-17 -0.8565579169011414 -0.5160509034909245
12608017333.333334 -0.862024592648178 -0.5068664534860888 1.1016839230950305e-16 2.736300087030153e-17 1.1016839230950305e-16 2.736300087030153e-17 -0.8620242520320484 -0.506867032769354
12608634666.666666 -0.8673924574331254 -0.4976246826554581 1.104352326812734e-16 2.6169100298202722e-17 1.104352326812734e-16 2.6169100298202722e-17 -0.8673921230438673 -0.497625265517411
12609252000.0 -0.8726612449201724 -0.4883260709958017 1.1068914329030324e-16 2.4972628124720297e-17 1.1068914329030324e-16 2.4972628124720297e-17 -0.8726609167953694 -0.48832665736951814
12609869333.333334 -0.8778303532858122 -0.4789716806345957 1.1093009971717636e-16 2.3773724284917638e-17 1.1093009971717636e-16 2.3773724284917638e-17 -0.8778300314623284 -0.4789722704527568
12610486666.666666 -0.8828991920923032 -0.4695625800706236 1.1115807905596083e-16 2.2572528941374445e-17 1.1115807905596083e-16 2.2572528941374445e-17 -0.882898876606281 -0.4695631732655243
12611104000.0 -0.8878671823552206 -0.46009984405172744 1.1137305991627823e-16 2.1369182467805682e-17 1.1137305991627823e-16 2.1369182467805682e-17 -0.8878668732420736 -0.4601004405552832
12611721333.333334 -0.8927337566093598 -0.45058455345247095 1.1157502242518952e-16 2.01638254327104e-17 1.1157502242518952e-16 2.01638254327104e-17 -0.8927334539037706 -0.4505851531962258
12612338666.666666 -0.8974983589737707 -0.44101779515027606 1.1176394822891023e-16 1.8956598582959606e-17 1.1176394822891023e-16 1.8956598582959606e-17 -0.8974980627096867 -0.4410183980654109
12612956000.0 -0.9021604452151945 -0.43140066190137416 1.1193982049434734e-16 1.7747642827382688e-17 1.1193982049434734e-16 1.7747642827382688e-17 -0.9021601554258244 -0.4314012679187146
12613573333.333334 -0.9067194828101426 -0.4217342522161658 1.1210262391045136e-16 1.6537099220389236e-17 1.1210262391045136e-16 1.6537099220389236e-17 -0.9067191995279521 -0.42173486126618953
12614190666.666666 -0.9111749510058017 -0.41201967023359193 1.122523446894056e-16 1.5325108945487988e-17 1.122523446894056e-16 1.5325108945487988e-17 -0.9111746742625086 -0.4120202822464367
12614808000.0 -0.9155263408795214 -0.40225802559498625 1.1238897056762578e-16 1.4111813298876896e-17 1.1238897056762578e-16 1.4111813298876896e-17 -0.9155260707060967 -0.4022586405004595
12615425333.333334 -0.9197731553969173 -0.3924504333174073 1.1251249080658814e-16 1.2897353672991473e-17 1.1251249080658814e-16 1.2897353672991473e-17 -0.9197728918235762 -0.392451051044992
12616042666.666666 -0.9239149094686607 -0.38259801366622204 1.1262289619347904e-16 1.1681871540051641e-17 1.1262289619347904e-16 1.1681871540051641e-17 -0.9239146525248625 -0.38259863414508594
12616660000.0 -0.9279511300058476 -0.3727018920272503 1.1272017904166574e-16 1.0465508435621649e-17 1.1272017904166574e-16 1.0465508435621649e-17 -0.9279508797202916 -0.3727025151862539
12617277333.333334 -0.9318813559741121 -0.36276319877803465 1.128043331909941e-16 9.248405942134009e-18 1.128043331909941e-16 9.248405942134009e-18 -0.9318811123747337 -0.36276382454573924
12617894666.666666 -0.9357051384461914 -0.3527830691589604 1.1287535400790313e-16 8.030705672465556e-18 1.1287535400790313e-16 8.030705672465556e-18 -0.9357049015601595 -0.3527836974636362
12618512000.0 -0.9394220406533387 -0.3427626431432398 1.1293323838536847e-16 6.812549253445936e-18 1.1293323838536847e-16 6.812549253445936e-18 -0.9394218105070536 -0.34276327391287453
12619129333.333334 -0.9430316380350293 -0.3327030653071768 1.1297798474266217e-16 5.594078309470375e-18 1.1297798474266217e-16 5.594078309470375e-18 -0.9430314146541191 -0.3327036984694838
12619746666.666666 -0.9465335182876216 -0.3226054846990047 1.1300959302494203e-16 4.375434446010038e-18 1.1300959302494203e-16 4.375434446010038e-18 -0.9465333016969382 -0.32260612018143064
12620364000.0 -0.9499272814114104 -0.31247105470771325 1.1302806470265965e-16 3.156759233195188e-18 1.1302806470265965e-16 3.156759233195188e-18 -0.9499270716350281 -0.31247169243744716
12620981333.333334 -0.9532125397562123 -0.302300932931628 1.1303340277079227e-16 1.9381941894185535e-18 1.1303340277079227e-16 1.9381941894185535e-18 -0.9532123368174267 -0.30230157283561004
12621598666.666666 -0.956388918065795 -0.29209628104575525 1.1302561174789958e-16 7.198807649093586e-19 1.1302561174789958e-16 7.198807649093586e-19 -0.9563887219871142 -0.2920969230506829
12622216000.0 -0.9594560535206481 -0.2818582646693293 1.1300469767500303e-16 -4.980396746622694e-19 1.1300469767500303e-16 -4.980396746622694e-19 -0.9594558643237981 -0.28185890870166846
12622833333.333334 -0.9624135957794697 -0.2715880532325652 1.1297066811428842e-16 -1.7154258645550134e-18 1.1297066811428842e-16 -1.7154258645550134e-18 -0.9624134134853872 -0.27158869921855694
12623450666.666666 -0.965261207019115 -0.26128681984329816 1.129235321476337e-16 -2.9321366573079698e-18 1.129235321476337e-16 -2.9321366573079698e-18 -0.965261031647946 -0.26128746770896766
12624068000.0 -0.9679985619732749 -0.25095574115268665 1.1286330037496023e-16 -4.148031039081889e-18 1.1286330037496023e-16 -4.148031039081889e-18 -0.9679983935443737 -0.2509563908238519
12624685333.333334 -0.9706253479695999 -0.24059599722089098 1.1278998491240736e-16 -5.362968145997729e-18 1.1278998491240736e-16 -5.362968145997729e-18 -0.9706251865015254 -0.24059664862317084
12625302666.666666 -0.9731412649653604 -0.23020877138250215 1.1270359939033539e-16 -6.576807280384103e-18 1.1270359939033539e-16 -6.576807280384103e-18 -0.9731411104758734 -0.23020942444132475
12625920000.0 -0.9755460255817936 -0.2197952501110731 1.1260415895114798e-16 -7.789407927098426e-18 1.1260415895114798e-16 -7.789407927098426e-18 -0.9755458780878581 -0.2197959047516851
12626537333.333334 -0.9778393551368787 -0.20935662288381607 1.124916802469466e-16 -9.000629769708383e-18 1.124916802469466e-16 -9.000629769708383e-18 -0.9778392146546571 -0.20935727903129045
12627154666.666666 -0.9800209916767236 -0.1988940820456797 1.12366181437005e-16 -1.0210332706740084e-17 1.12366181437005e-16 -1.0210332706740084e-17 -0.9800208582215767 -0.19889473962492507
12627772000.0 -0.9820906860055346 -0.1884088226729322 1.12227682185071e-16 -1.1418376867862846e-17 1.12227682185071e-16 -1.1418376867862846e-17 -0.9820905595920181 -0.18840948160870064
12628389333.333334 -0.9840482017139764 -0.17790204243715535 1.120762036564994e-16 -1.2624622629992938e-17 1.120762036564994e-16 -1.2624622629992938e-17 -0.9840480823558403 -0.17790270265405128
12629006666.666666 -0.9858933152062929 -0.16737494146785586 1.1191176851520268e-16 -1.3828930633454875e-17 1.1191176851520268e-16 -1.3828930633454875e-17 -0.98589320291648 -0.16737560289034495
12629624000.0 -0.9876258157257645 -0.1568287222158002 1.1173440092044026e-16 -1.5031161798007097e-17 1.1173440092044026e-16 -1.5031161798007097e-17 -0.9876257105164103 -0.15682938476821787
12630241333.333334 -0.9892455053788254 -0.14626458931544176 1.115441265234242e-16 -1.6231177338914734e-17 1.115441265234242e-16 -1.6231177338914734e-17 -0.9892454072612543 -0.14626525292200163
12630858666.666666 -0.9907521991576214 -0.13568374944760309 1.1134097246376328e-16 -1.742883878291207e-17 1.1134097246376328e-16 -1.742883878291207e-17 -0.9907521081423473 -0.1356844140324058
12631476000.0 -0.9921457249612142 -0.12508741120116562 1.1112496736572393e-16 -1.8624007984195305e-17 1.1112496736572393e-16 -1.8624007984195305e-17 -0.9921456410579381 -0.12508807668820754
12632093333.333334 -0.9934259236151739 -0.11447678493546964 1.1089614133433636e-16 -1.981654714027639e-17 1.1089614133433636e-16 -1.981654714027639e-17 -0.9934258468327843 -0.11447745124865154
12632710666.666666 -0.994592648889776 -0.1038530826419777 1.1065452595131527e-16 -2.100631880788237e-17 1.1065452595131527e-16 -2.100631880788237e-17 -0.9945925792363475 -0.10385374970511345
12633328000.0 -0.9956457675167406 -0.0932175178055253 1.104001542708148e-16 -2.219318591877184e-17 1.104001542708148e-16 -2.219318591877184e-17 -0.9956457049995313 -0.09321818554235042
12633945333.333334 -0.9965851592044104 -0.08257130526607813 1.1013306081502155e-16 -2.3377011795476953e-17 1.1013306081502155e-16 -2.3377011795476953e-17 -0.9965851038298636 -0.08257197360025877
12634562666.666666 -0.9974107166515122 -0.07191566107977025 1.0985328156957224e-16 -2.4557660167018732e-17 1.0985328156957224e-16 -2.4557660167018732e-17 -0.9974106684252557 -0.07191632993491183
12635180000.0 -0.9981223455594047 -0.061251802380142585 1.0956085397880186e-16 -2.5734995184581815e-17 1.0956085397880186e-16 -2.5734995184581815e-17 -0.9981223044862475 -0.06125247167979835
12635797333.333334 -0.9987199646428606 -0.05058094723891815 1.0925581694082894e-16 -2.690888143710888e-17 1.0925581694082894e-16 -2.690888143710888e-17 -0.9987199307267959 -0.050581616906598174
12636414666.666666 -0.9992035056393398 -0.03990431452706724 1.0893821080247364e-16 -2.80791839668414e-17 1.0893821080247364e-16 -2.80791839668414e-17 -0.9992034788835429 -0.039904984486247005
12637032000.0 -0.9995729133167949 -0.029223123775497784 1.0860807735400707e-16 -2.9245768284814146e-17 1.0860807735400707e-16 -2.9245768284814146e-17 -0.9995728937236202 -0.029223793949626847
12637649333.333334 -0.9998281454799741 -0.018538595035698126 1.0826545982373495e-16 -3.040850038628935e-17 1.0826545982373495e-16 -3.040850038628935e-17 -0.9998281330509612 -0.01853926534820911
12638266666.666666 -0.9999691729752469 -0.007851948740463056 1.0791040287241956e-16 -3.15672467661127e-17 1.0791040287241956e-16 -3.15672467661127e-17 -0.9999691677111154 -0.007852619114780196
12638884000.0 -0.9999959796939282 0.002835594435566308 1.0754295258753496e-16 -3.27218744340214e-17 1.0754295258753496e-16 -3.27218744340214e-17 -0.9999959815945788 0.0028349240760183513
12639501333.333334 -0.9999085625741214 0.013522813715247876 1.0716315647736233e-16 -3.3872250929870727e-17 1.0716315647736233e-16 -3.3872250929870727e-17 -0.9999085716386372 0.013522143447035262
12640118666.666666 -0.999706931601069 0.024208488358381023 1.0677106346492084e-16 -3.5018244338802614e-17 1.0677106346492084e-16 -3.5018244338802614e-17 -0.9997069478277156 0.024207818258052013
12640736000.0 -0.9993911098060053 0.03489139780151418 1.0636672388172344e-16 -3.615972330638104e-17 1.0636672388172344e-16 -3.615972330638104e-17 -0.9993911331922297 0.034890727945590366
12641353333.333334 -0.9989611332635402 0.04557032179659562 1.0595018946140719e-16 -3.729655705355383e-17 1.0595018946140719e-16 -3.729655705355383e-17 -0.9989611638059722 0.045569652261563266
12641970666.666666 -0.9984170510875242 0.056244040551122795 1.055215133331628e-16 -3.8428615391659584e-17 1.055215133331628e-16 -3.8428615391659584e-17 -0.9984170887819748 0.05624337141342388
12642588000.0 -0.9977589254254404 0.06691133486707398 1.0508075001502649e-16 -3.9555768737296825e-17 1.0508075001502649e-16 -3.9555768737296825e-17 -0.9977589702669076 0.0669106662030979
12643205333.333334 -0.9969868314513167 0.07757098628022793 1.0462795540701289e-16 -4.067788812712025e-17 1.0462795540701289e-16 -4.067788812712025e-17 -0.9969868834339803 0.07757031816630229
12643822666.666666 -0.9961008573571192 0.08822177719948317 1.0416318678408043e-16 -4.179484523258302e-17 1.0416318678408043e-16 -4.179484523258302e-17 -0.9961009164743445 0.08822110971186538
12644440000.0 -0.9951011043427025 0.09886249104568173 1.0368650278895095e-16 -4.290651237457285e-17 1.0368650278895095e-16 -4.290651237457285e-17 -0.9951011705870411 0.09886182426055029
12645057333.333334 -0.9939876866042296 0.10949191239079857 1.031979634247721e-16 -4.4012762537970175e-17 1.031979634247721e-16 -4.4012762537970175e-17 -0.9939877599674193 0.10949124638424425
12645674666.666666 -0.992760731321155 0.12010882709654708 1.0269763004761433e-16 -4.511346938615017e-17 1.0269763004761433e-16 -4.511346938615017e-17 -0.9927608117941207 0.12010816194456418
12646292000.0 -0.9914203786416486 0.1307120224534582 1.0218556535881466e-16 -4.620850727539391e-17 1.0218556535881466e-16 -4.620850727539391e-17 -0.9914204662145049 0.13071135823193614
12646909333.333334 -0.9899667816666438 0.14130028731892133 1.0166183339719392e-16 -4.729775126915543e-17 1.0166183339719392e-16 -4.729775126915543e-17 -0.9899668763286955 0.14129962410363592
12647526666.666666 -0.9884001064323176 0.1518724122558375 1.0112649953108097e-16 -4.838107715233476e-17 1.0112649953108097e-16 -4.838107715233476e-17 -0.9884002081720591 0.15187175012244183
12648144000.0 -0.9867205318911123 0.16242718967076447 1.005796304502115e-16 -4.945836144539966e-17 1.005796304502115e-16 -4.945836144539966e-17 -0.9867206406962342 0.16242652869478133
12648761333.333334 -0.9849282498913412 0.17296341395163042 1.0002129415747534e-16 -5.052948141842302e-17 1.0002129415747534e-16 -5.052948141842302e-17 -0.9849283657487246 0.17296275420844234
12649378666.666666 -0.9830234651552388 0.18347988160561093 9.945155996050952e-17 -5.1594315105039526e-17 9.945155996050952e-17 -5.1594315105039526e-17 -0.9830235880509636 0.1834792231704529
12649996000.0 -0.9810063952555749 0.1939753913966547 9.887049846314176e-17 -5.265274131630746e-17 9.887049846314176e-17 -5.265274131630746e-17 -0.9810065251749162 0.19397473434460452
12650613333.333334 -0.9788772705908242 0.20444874448252437 9.827818155668521e-17 -5.370463965448114e-17 9.827818155668521e-17 -5.370463965448114e-17 -0.9788774075182579 0.20444808888849475
12651230666.666666 -0.9766363343588484 0.21489874455179103 9.76746824111026e-17 -5.474989052665495e-17 9.76746824111026e-17 -5.474989052665495e-17 -0.9766364782780496 0.21489809049052055
12651848000.0 -0.9742838425290721 0.2253241979606474 9.706007546599551e-17 -5.578837515836447e-17 9.706007546599551e-17 -5.578837515836447e-17 -0.9742839934229222 0.22532354550669292
12652465333.333334 -0.9718200638132947 0.23572391386905753 9.643443642148824e-17 -5.681997560701784e-17 9.643443642148824e-17 -5.681997560701784e-17 -0.971820221663877 0.2357232630967845
12653082666.666666 -0.9692452796350193 0.24609670437666867 9.579784222894013e-17 -5.78445747752786e-17 9.579784222894013e-17 -5.78445747752786e-17 -0.9692454444236257 0.24609605536024332
12653700000.0 -0.9665597840972008 0.2564413846589401 9.515037108151394e-17 -5.886205642434368e-17 9.515037108151394e-17 -5.886205642434368e-17 -0.9665599558043333 0.25644073747232127
12654317333.333334 -0.963763883948781 0.266756773101984 9.44921024046359e-17 -5.9872305187069e-17 9.44921024046359e-17 -5.9872305187069e-17 -0.9637640625541518 0.26675612781891367
12654934666.666666 -0.9608578985495572 0.2770416914378625 9.382311684628453e-17 -6.087520658103657e-17 9.382311684628453e-17 -6.087520658103657e-17 -0.9608580840320928 0.2770410481318584
12655552000.0 -0.9578421598337382 0.28729496487906625 9.314349626714223e-17 -6.18706470215142e-17 9.314349626714223e-17 -6.18706470215142e-17 -0.9578423521715821 0.28729432362341295
12656169333.333334 -0.9547170122720497 0.29751542225262045 9.245332373064268e-17 -6.285851383425527e-17 9.245332373064268e-17 -6.285851383425527e-17 -0.9547172114425649 0.2975147831203616
12656786666.666666 -0.9514828128323349 0.3077018961340537 9.175268349284039e-17 -6.383869526825127e-17 9.175268349284039e-17 -6.383869526825127e-17 -0.9514830188121063 0.30770125919798297
12657404000.0 -0.9481399309388432 0.3178532229805273 9.104166099217204e-17 -6.481108050833273e-17 9.104166099217204e-17 -6.481108050833273e-17 -0.9481401437036802 0.31785258831318075
12658021333.333334 -0.9446887484299661 0.327968243263958 9.03203428390818e-17 -6.577555968766195e-17 9.03203428390818e-17 -6.577555968766195e-17 -0.9446889679549048 0.3279676109376051
12658638666.666666 -0.9411296595147021 0.3380458016032209 8.95888168055091e-17 -6.673202390011919e-17 8.95888168055091e-17 -6.673202390011919e-17 -0.9411298857740089 0.33804517168985665
12659256000.0 -0.937463070727515 0.34808474689644375 8.884717181423532e-17 -6.768036521258376e-17 8.884717181423532e-17 -6.768036521258376e-17 -0.9374633036946902 0.3480841194677809
12659873333.333334 -0.9336894008820238 0.35808393245214354 8.809549792812649e-17 -6.862047667706578e-17 8.809549792812649e-17 -6.862047667706578e-17 -0.9336896405298039 0.35808330757960366
12660490666.666666 -0.9298090810231053 0.3680422161203668 8.733388633924264e-17 -6.95522523427261e-17 8.733388633924264e-17 -6.95522523427261e-17 -0.9298093273234674 0.3680415938750732
12661108000.0 -0.9258225543775994 0.3779584604233102 8.656242935778019e-17 -7.047558726782542e-17 8.656242935778019e-17 -7.047558726782542e-17 -0.9258228073017624 0.3779578408760786
12661725333.333334 -0.9217302763038009 0.3878315326849296 8.578122040095685e-17 -7.139037753146768e-17 8.578122040095685e-17 -7.139037753146768e-17 -0.9217305358222294 0.38783091590626045
12662342666.666666 -0.9175327142393765 0.3976603051605045 8.499035398170993e-17 -7.229652024529642e-17 8.499035398170993e-17 -7.229652024529642e-17 -0.9175329803217863 0.3976596912205758
12662960000.0 -0.913230347647961 0.40744365516548037 8.41899256973169e-17 -7.319391356501347e-17 8.41899256973169e-17 -7.319391356501347e-17 -0.9132306202633206 0.4074430441341389
12663577333.333334 -0.9088236679644233 0.4171804652036281 8.338003221786135e-17 -7.40824567018102e-17 8.338003221786135e-17 -7.40824567018102e-17 -0.9088239470809575 0.4171798571503812
12664194666.666666 -0.9043131785387064 0.426869623094739 8.256077127460174e-17 -7.496204993364562e-17 8.256077127460174e-17 -7.496204993364562e-17 -0.904313464123902 0.42686901808874783
12664812000.0 -0.8996993945783871 0.4365100221015631 8.173224164820917e-17 -7.583259461641052e-17 8.173224164820917e-17 -7.583259461641052e-17 -0.8996996865989935 0.43650942021163325
12665429333.333334 -0.894982843089736 0.4461005610564027 8.089454315689846e-17 -7.669399319495054e-17 8.089454315689846e-17 -7.669399319495054e-17 -0.8949831415117717 0.44609996235097765
12666046666.666666 -0.8901640628176336 0.4556401444866628 8.004777664443512e-17 -7.754614921396794e-17 8.004777664443512e-17 -7.754614921396794e-17 -0.8901643676063902 0.4556395490338158
12666664000.0 -0.8852436041838705 0.46512768274031274 7.919204396801435e-17 -7.838896732880482e-17 7.919204396801435e-17 -7.838896732880482e-17 -0.8852439153039142 0.4651270906077385
12667281333.333334 -0.880222029224505 0.47456209210989375 7.832744798606913e-17 -7.922235331605016e-17 7.832744798606913e-17 -7.922235331605016e-17 -0.8802223466396821 0.47456150336490066
12667898666.666666 -0.8750999115254547 0.48394229495670765 7.745409254592748e-17 -8.004621408405371e-17 7.745409254592748e-17 -8.004621408405371e-17 -0.8751002351988982 0.48394170966621197
12668516000.0 -0.869877836157022 0.4932672198338357 7.657208247135865e-17 -8.086045768330343e-17 7.657208247135865e-17 -8.086045768330343e-17 -0.8698781660511521 0.49326663806435167
12669133333.333334 -0.8645563996072234 0.5025358016082219 7.568152355005492e-17 -8.166499331662533e-17 7.568152355005492e-17 -8.166499331662533e-17 -0.8645567356837538 0.5025352234258555
12669750666.666666 -0.859136209713442 0.511746981582738 7.478252252095096e-17 -8.245973134929745e-17 7.478252252095096e-17 -8.245973134929745e-17 -0.8591365519333846 0.5117464070531794
