! Parameters = {f0=12700.012000; bw=77.238000; Q=6100.000000; N=10; m_0_1=1.259955; m_1_1=0.134579; m_1_2=1.094767; m_2_2=0.133930; m_2_3=0.731730; m_2_8=0.000061; m_2_9=0.036765; m_3_3=0.131993; m_3_4=0.620259; m_3_7=0.000661; m_3_8=-0.096427; m_3_9=0.000061; m_4_4=0.129068; m_4_5=0.456594; m_4_6=0.004178; m_4_7=-0.116976; m_4_8=0.000661; m_5_5=0.129450; m_5_6=0.863949; m_5_7=0.004178; m_6_6=0.129449; m_6_7=0.456936; m_7_7=0.129082; m_7_8=0.620377; m_8_8=0.131991; m_8_9=0.732043; m_9_9=0.133925; m_9_10=1.095845; m_10_10=0.134569; m_10_11=1.260750}
!
! Created with skrf (http://scikit-rf.org).
# Hz S RI R 50.0 
!freq ReS11 ImS11 ReS21 ImS21 ReS12 ImS12 ReS22 ImS22
12607400000.0 0.8517791869827527 0.5239009607004246 -1.0182342484386635e-16 -2.745992631122392e-17 -1.0182342484386635e-16 -2.745992631122392e-17 0.8517788391975076 0.5239015261431981
12608017333.333334 0.8570919638769292 0.5151634356759167 -1.020812484659032e-16 -2.640303679110671e-17 -1.020812484659032e-16 -2.640303679110671e-17 0.857091621908724 0.5151640046176544
12608634666.666666 0.8623151147129806 0.5063720400430557 -1.0232810971992721e-16 -2.5343751902387524e-17 -1.0232810971992721e-16 -2.5343751902387524e-17 0.8623147785970023 0.5063726124239231
12609252000.0 0.8674480933064068 0.4975276931175847 -1.0256398663805348e-16 -2.428218527031478e-17 -1.0256398663805348e-16 -2.428218527031478e-17 0.8674477630772292 0.49752826887739443
12609869333.333334 0.8724903629019886 0.4886313197524106 -1.0278885842930647e-16 -2.321845071833148e-17 -1.0278885842930647e-16 -2.321845071833148e-17 0.8724900385935653 0.48863189883062746
12610486666.666666 0.8774413962299421 0.4796838502408403 -1.0300270548137157e-16 -2.2152662255887586e-17 -1.0300270548137157e-16 -2.2152662255887586e-17 0.8774410778756043 0.47968443257658794
12611104000.0 0.8823006755610949 0.47068622021922535 -1.0320550936222061e-16 -2.1084934066234268e-17 -1.0320550936222061e-16 -2.1084934066234268e-17 0.8823003631935495 0.47068680575129374
12611721333.333334 0.8870676927609474 0.4616393705692743 -1.0339725282160612e-16 -2.0015380494234062e-17 -1.0339725282160612e-16 -2.0015380494234062e-17 0.8870673864122703 0.46163995923612405
12612338666.666666 0.8917419493428314 0.45254424731961235 -1.0357791979243648e-16 -1.8944116034117226e-17 -1.0357791979243648e-16 -1.8944116034117226e-17 0.8917416490444658 0.45254483905938225
12612956000.0 0.8963229565201296 0.4434018015466793 -1.0374749539201972e-16 -1.7871255317256536e-17 -1.0374749539201972e-16 -1.7871255317256536e-17 0.8963226623028853 0.44340239629719413
12613573333.333334 0.9008102352572332 0.4342129892755795 -1.0390596592318186e-16 -1.6796913099929465e-17 -1.0390596592318186e-16 -1.6796913099929465e-17 0.9008099471512795 0.4342135869743545
12614190666.666666 0.9052033163197256 0.42497877137993345 -1.0405331887525986e-16 -1.572120425105985e-17 -1.0405331887525986e-16 -1.572120425105985e-17 0.9052030343545893 0.4249793719641814
12614808000.0 0.9095017403234712 0.4157001134813461 -1.0418954292496885e-16 -1.4644243739952552e-17 -1.0418954292496885e-16 -1.4644243739952552e-17 0.9095014645280354 0.41570071688798493
12615425333.333334 0.913705057782571 0.40637798584861345 -1.0431462793713998e-16 -1.3566146624033941e-17 -1.0431462793713998e-16 -1.3566146624033941e-17 0.9137047881850701 0.40637859201427157
12616042666.666666 0.917812829156458 0.3970133632960537 -1.0442856496533256e-16 -1.2487028036590903e-17 -1.0442856496533256e-16 -1.2487028036590903e-17 0.9178125657844768 0.3970139721570778
12616660000.0 0.9218246248957717 0.38760722508178014 -1.0453134625232248e-16 -1.1407003174476859e-17 -1.0453134625232248e-16 -1.1407003174476859e-17 0.921824367776239 0.3876078365742406
12617277333.333334 0.9257400254873684 0.3781605548050624 -1.0462296523045887e-16 -1.0326187285857338e-17 -1.0462296523045887e-16 -1.0326187285857338e-17 0.9257397746465601 0.378161168864762
12617894666.666666 0.929558621498059 0.36867434030381696 -1.0470341652189864e-16 -9.244695657928349e-18 -1.0470341652189864e-16 -9.244695657928349e-18 0.9295583769615883 0.3686749568662946
12618512000.0 0.9332800136176076 0.3591495735508312 -1.0477269593871372e-16 -8.162643604617295e-18 -1.0477269593871372e-16 -8.162643604617295e-18 0.9332797754104282 0.3591501925513716
12619129333.333334 0.9369038127003115 0.3495872505504833 -1.048308004828672e-16 -7.080146454360472e-18 -1.048308004828672e-16 -7.080146454360472e-18 0.9369035808467113 0.349587871924122
12619746666.666666 0.9404296398057665 0.33998837123440506 -1.0487772834607008e-16 -5.997319537782463e-18 -1.0487772834607008e-16 -5.997319537782463e-18 0.9404294143293681 0.33998899491593604
12620364000.0 0.9438571262385617 0.3303539393567318 -1.0491347890950637e-16 -4.914278175454624e-18 -1.0491347890950637e-16 -4.914278175454624e-18 0.9438569071623184 0.3303545652807144
12620981333.333334 0.9471859135866684 0.3206849623895946 -1.0493805274343332e-16 -3.831137665641556e-18 -1.0493805274343332e-16 -3.831137665641556e-18 0.9471857009328616 0.32068559049035966
12621598666.666666 0.9504156537590827 0.3109824514173136 -1.0495145160665629e-16 -2.748013272027895e-18 -1.0495145160665629e-16 -2.748013272027895e-18 0.9504154475493207 0.31098308162897115
12622216000.0 0.9535460090221487 0.3012474210308834 -1.0495367844587599e-16 -1.6650202114983225e-18 -1.0495367844587599e-16 -1.6650202114983225e-18 0.9535458092773632 0.30124805328732884
12622833333.333334 0.9565766520348665 0.29148088922190446 -1.0494473739491073e-16 -5.822736418766223e-19 -1.0494473739491073e-16 -5.822736418766223e-19 0.9565764587753114 0.29148152345682593
12623450666.666666 0.95950726588315 0.28168387727605076 -1.0492463377379249e-16 5.001113502615434e-19 -1.0492463377379249e-16 5.001113502615434e-19 0.9595070791283984 0.281684513422936
12624068000.0 0.9623375441129406 0.27185740966635563 -1.0489337408773694e-16 1.5820197618351089e-18 -1.0489337408773694e-16 1.5820197618351089e-18 0.9623373638818853 0.27185804765849925
12624685333.333334 0.9650671907623268 0.26200251394583757 -1.0485096602598742e-16 2.6633366854486285e-18 -1.0485096602598742e-16 2.6633366854486285e-18 0.9650670170731744 0.2620031537163473
12625302666.666666 0.9676959203923476 0.25212022064053957 -1.0479741846053599e-16 3.743947321535621e-18 -1.0479741846053599e-16 3.743947321535621e-18 0.9676957532626217 0.25212086212234436
12625920000.0 0.9702234581170218 0.24221156314113904 -1.0473274144471451e-16 4.823736990589945e-18 -1.0473274144471451e-16 4.823736990589945e-18 0.9702232975635563 0.24221220626699502
12626537333.333334 0.9726495396319266 0.23227757759548873 -1.0465694621166661e-16 5.902591145248611e-18 -1.0465694621166661e-16 5.902591145248611e-18 0.9726493856708663 0.23227822229798667
12627154666.666666 0.9749739112419316 0.22231930279991016 -1.0457004517268984e-16 6.980395382460009e-18 -1.0457004517268984e-16 6.980395382460009e-18 0.9749737638887309 0.22231994901148272
12627772000.0 0.9771963298877422 0.21233778009048254 -1.044720519154538e-16 8.057035455602196e-18 -1.044720519154538e-16 8.057035455602196e-18 0.9771961891571636 0.21233842774341133
12628389333.333334 0.9793165631712132 0.20233405323462217 -1.0436298120209959e-16 9.132397286520518e-18 -1.0436298120209959e-16 9.132397286520518e-18 0.9793164290773237 0.20233470226104433
12629006666.666666 0.981334389379781 0.1923091683213244 -1.0424284896720491e-16 1.0206366977658295e-17 -1.0424284896720491e-16 1.0206366977658295e-17 0.9813342619359547 0.1923098186532406
12629624000.0 0.983249597509539 0.18226417365230296 -1.0411167231563623e-16 1.1278830824041978e-17 -1.0411167231563623e-16 1.1278830824041978e-17 0.9832494767284508 0.18226482522158352
12630241333.333334 0.985061987287378 0.17220011963197865 -1.0396946952026826e-16 1.2349675325338971e-17 -1.0396946952026826e-16 1.2349675325338971e-17 0.9850618731810068 0.17220077237037146
12630858666.666666 0.9867713691918604 0.1621180586580301 -1.0381626001958875e-16 1.3418787197806085e-17 -1.0381626001958875e-16 1.3418787197806085e-17 0.9867712617714846 0.16211871249716736
12631476000.0 0.9883775644731215 0.15201904501084068 -1.0365206441516878e-16 1.4486053386304805e-17 -1.0365206441516878e-16 1.4486053386304805e-17 0.9883774637493199 0.15201969988224617
12632093333.333334 0.9898804051714875 0.14190413474370017 -1.0347690446902363e-16 1.5551361076187278e-17 -1.0347690446902363e-16 1.5551361076187278e-17 0.9898803111541388 0.14190479057879668
12632710666.666666 0.9912797341350583 0.1317743855722909 -1.032908031008441e-16 1.6614597705208167e-17 -1.032908031008441e-16 1.6614597705208167e-17 0.9912796468333375 0.13177504230240683
12633328000.0 0.9925754050361836 0.12163085676374338 -1.0309378438510099e-16 1.76756509754283e-17 -1.0309378438510099e-16 1.76756509754283e-17 0.9925753244585626 0.12163151432012037
12633945333.333334 0.9937672823867011 0.11147460902634825 -1.0288587354803979e-16 1.873440886501823e-17 -1.0288587354803979e-16 1.873440886501823e-17 0.9937672085409487 0.11147526734014832
12634562666.666666 0.9948552415521502 0.10130670439827126 -1.0266709696454638e-16 1.979075964006877e-17 -1.0266709696454638e-16 1.979075964006877e-17 0.9948551744453304 0.10130736340058392
12635180000.0 0.9958391687647787 0.0911282061367504 -1.0243748215489084e-16 2.0844591866378088e-17 -1.0243748215489084e-16 2.0844591866378088e-17 0.9958391084032492 0.09112886575859984
12635797333.333334 0.9967189611354595 0.08094017860665625 -1.0219705778135614e-16 2.1895794421164178e-17 -1.0219705778135614e-16 2.1895794421164178e-17 0.9967189075248737 0.08094083877900875
12636414666.666666 0.9974945266644252 0.07074368716953156 -1.019458536447427e-16 2.2944256504772038e-17 -1.019458536447427e-16 2.2944256504772038e-17 0.9974944798097292 0.07074434782330252
12637032000.0 0.9981657842509186 0.0605397980718181 -1.0168390068075451e-16 2.3989867652324066e-17 -1.0168390068075451e-16 2.3989867652324066e-17 0.9981657441563506 0.060540459137879275
12637649333.333334 0.9987326637016501 0.05032957833355731 -1.0141123095626468e-16 2.503251774534513e-17 -1.0141123095626468e-16 2.503251774534513e-17 0.9987326303707437 0.05033023974274423
12638266666.666666 0.9991951057381459 0.04011409563686936 -1.0112787766546416e-16 2.6072097023331595e-17 -1.0112787766546416e-16 2.6072097023331595e-17 0.9991950791737245 0.04011475731998835
12638884000.0 0.999553062002947 0.029894418214106672 -1.0083387512589359e-16 2.710849609527497e-17 -1.0083387512589359e-16 2.710849609527497e-17 0.9995530422071283 0.029895080101942192
12639501333.333334 0.9998064950646657 0.019671614736347914 -1.005292587743492e-16 2.814160595117343e-17 -1.005292587743492e-16 2.814160595117343e-17 0.9998064820388584 0.019672276759669777
12640118666.666666 0.9999553784218985 0.009446754201618618 -1.0021406516268833e-16 2.91713179734354e-17 -1.0021406516268833e-16 2.91713179734354e-17 0.9999553721668023 0.009447416291189217
12640736000.0 0.9999996965059996 -0.0007790941772632835 -9.988833195348682e-17 3.019752394834209e-17 -9.988833195348682e-17 3.019752394834209e-17 0.9999996970216075 -0.0007784320906816938
12641353333.333334 0.9999394446827046 -0.011004861083727627 -9.955209791562428e-17 3.122011607732107e-17 -9.955209791562428e-17 3.122011607732107e-17 0.9999394519683021 -0.011004199069365728
12641970666.666666 0.9997746292526208 -0.02122947721006618 -9.920540291971236e-17 3.223898698829834e-17 -9.920540291971236e-17 3.223898698829834e-17 0.9997746433067847 -0.021228815337140335
12642588000.0 0.9995052674505644 -0.03145187336873848 -9.884828793342795e-17 3.3254029746941686e-17 -9.884828793342795e-17 3.3254029746941686e-17 0.9995052882711642 -0.03145121170644352
12643205333.333334 0.9991313874437597 -0.04167098060443255 -9.848079501673385e-17 3.4265137867841416e-17 -9.848079501673385e-17 3.4265137867841416e-17 0.9991314150279577 -0.04167031922193452
12643822666.666666 0.9986530283288925 -0.05188573030573175 -9.810296731696927e-17 3.527220532568985e-17 -9.810296731696927e-17 3.527220532568985e-17 0.9986530626731436 -0.05188506927216067
12644440000.0 0.99807024012802 -0.06209505431694465 -9.771484906384436e-17 3.6275126566354174e-17 -9.771484906384436e-17 3.6275126566354174e-17 0.9980702812280726 -0.062094393701387286
12645057333.333334 0.9973830837833487 -0.07229788504960319 -9.73164855643162e-17 3.7273796517911776e-17 -9.73164855643162e-17 3.7273796517911776e-17 0.997383131634246 -0.07229722492109592
12645674666.666666 0.9965916311508555 -0.0824931555942993 -9.690792319734305e-17 3.826811060165501e-17 -9.690792319734305e-17 3.826811060165501e-17 0.9965916857469348 -0.0824924960218208
12646292000.0 0.9956959649927586 -0.09267979983236457 -9.648920940853419e-17 3.925796474301675e-17 -9.648920940853419e-17 3.925796474301675e-17 0.9956960263276523 -0.0926791408848286
12646909333.333334 0.9946961789689018 -0.10285675254690094 -9.606039270469516e-17 4.024325538242485e-17 -9.606039270469516e-17 4.024325538242485e-17 0.9946962470355387 -0.10285609429314926
12647526666.666666 0.9935923776269199 -0.11302294953465197 -9.562152264824639e-17 4.1223879486132603e-17 -9.562152264824639e-17 4.1223879486132603e-17 0.9935924524175256 -0.11302229204344705
12648144000.0 0.9923846763913272 -0.12317732771703147 -9.517264985154558e-17 4.219973455695957e-17 -9.517264985154558e-17 4.219973455695957e-17 0.9923847578974246 -0.12317667105704933
12648761333.333334 0.9910732015514364 -0.1333188252514027 -9.471382597109182e-17 4.317071864498999e-17 -9.471382597109182e-17 4.317071864498999e-17 0.9910732897638478 -0.13331816949122577
12649378666.666666 0.9896580902481812 -0.14344638164188978 -9.424510370163457e-17 4.4136730358179155e-17 -9.424510370163457e-17 4.4136730358179155e-17 0.9896581851570281 -0.14344572684999968
12649996000.0 0.9881394904597275 -0.1535589378506396 -9.376653677014964e-17 4.509766887295008e-17 -9.376653677014964e-17 4.509766887295008e-17 0.9881395920544328 -0.15355828409541014
12650613333.333334 0.986517560986043 -0.16365543640825642 -9.327817992973027e-17 4.605343394467727e-17 -9.327817992973027e-17 4.605343394467727e-17 0.9865176692553295 -0.16365478375794604
12651230666.666666 0.9847924714322768 -0.17373482152446484 -9.27800889533733e-17 4.700392591810249e-17 -9.27800889533733e-17 4.700392591810249e-17 0.9847925863641719 -0.17373417004720995
12651848000.0 0.9829644021909918 -0.18379603919871038 -9.227232062762731e-17 4.7949045737747126e-17 -9.227232062762731e-17 4.7949045737747126e-17 0.9829645237728292 -0.1837953889625184
12652465333.333334 0.9810335444233621 -0.19383803733004046 -9.175493274618113e-17 4.8888694958167075e-17 -9.175493274618113e-17 4.8888694958167075e-17 0.9810336726417789 -0.19383738840278203
12653082666.666666 0.979000100039147 -0.20385976582731843 -9.122798410331574e-17 4.982277575420226e-17 -9.122798410331574e-17 4.982277575420226e-17 0.9790002348800873 -0.20385911827672054
12653700000.0 0.9768642816755607 -0.21386017671908597 -9.069153448725074e-17 5.075119093115513e-17 -9.069153448725074e-17 5.075119093115513e-17 0.9768644231242799 -0.21385953061272558
12654317333.333334 0.9746263126750797 -0.2238382242629843 -9.01456446734234e-17 5.167384393483699e-17 -9.01456446734234e-17 5.167384393483699e-17 0.9746264607161421 -0.22383757966828038
12654934666.666666 0.97228642706207 -0.2337928650551614 -8.959037641761708e-17 5.259063886162692e-17 -8.959037641761708e-17 5.259063886162692e-17 0.9722865816793538 -0.23379222203936867
12655552000.0 0.9698448695182753 -0.24372305813957595 -8.902579244901534e-17 5.350148046840856e-17 -8.902579244901534e-17 5.350148046840856e-17 0.9698450306949699 -0.24372241676977693
12656169333.333334 0.9673018953573019 -0.2536277651165164 -8.845195646316988e-17 5.4406274182410554e-17 -8.845195646316988e-17 5.4406274182410554e-17 0.9673020630759146 -0.25362712545961535
12656786666.666666 0.9646577704978818 -0.26350595025138146 -8.786893311482392e-17 5.5304926111044925e-17 -8.786893311482392e-17 5.5304926111044925e-17 0.9646579447402368 -0.2635053123740969
12657404000.0 0.9619127714360464 -0.2733565805830408 -8.727678801068247e-17 5.619734305159386e-17 -8.727678801068247e-17 5.619734305159386e-17 0.9619129521832874 -0.2733559445518986
12658021333.333334 0.959067185216257 -0.2831786260316866 -8.66755877020482e-17 5.708343250087662e-17 -8.66755877020482e-17 5.708343250087662e-17 0.95906737244885 -0.28317799191301324
12658638666.666666 0.9561213094013691 -0.2929710595066326 -8.606539967739717e-17 5.796310266478199e-17 -8.606539967739717e-17 5.796310266478199e-17 0.9561215030991039 -0.29297042736654816
12659256000.0 0.9530754520414991 -0.3027328570137705 -8.5446292354808e-17 5.883626246779449e-17 -8.5446292354808e-17 5.883626246779449e-17 0.953075652183491 -0.3027322269181815
12659873333.333334 0.9499299316418158 -0.3124629977626207 -8.481833507434343e-17 5.97028215623701e-17 -8.481833507434343e-17 5.97028215623701e-17 0.9499301382065082 -0.31246236977721353
12660490666.666666 0.9466850771293074 -0.3221604642728612 -8.41815980903224e-17 6.056269033825307e-17 -8.41815980903224e-17 6.056269033825307e-17 0.946685290094475 -0.3221598384630955
12661108000.0 0.9433412278182359 -0.3318242424811846 -8.353615256346294e-17 6.141577993175825e-17 -8.353615256346294e-17 6.141577993175825e-17 0.9433414471609853 -0.3318236189122857
12661725333.333334 0.9398987333748036 -0.3414533218468789 -8.288207055299948e-17 6.226200223487748e-17 -8.288207055299948e-17 6.226200223487748e-17 0.939898959071578 -0.34145270058383176
12662342666.666666 0.9363579537805211 -0.3510466954577169 -8.221942500863813e-17 6.310126990439728e-17 -8.221942500863813e-17 6.310126990439728e-17 0.9363581858071015 -0.3510460765652592
12662960000.0 0.9327192592945415 -0.3606033601353013 -8.154828976246556e-17 6.393349637086973e-17 -8.154828976246556e-17 6.393349637086973e-17 0.932719497626048 -0.360602743677916
12663577333.333334 0.9289830304150095 -0.3701223165397798 -8.086873952075724e-17 6.475859584751233e-17 -8.086873952075724e-17 6.475859584751233e-17 0.9289832750259065 -0.37012170258168936
12664194666.666666 0.9251496578392069 -0.37960256927453373 -8.018084985567931e-17 6.557648333904158e-17 -8.018084985567931e-17 6.557648333904158e-17 0.925149908703304 -0.37960195787969264
12664812000.0 0.921219542422721 -0.38904312699018395 -7.948469719692916e-17 6.638707465038466e-17 -7.948469719692916e-17 6.638707465038466e-17 0.9212197995131781 -0.3890425182222732
12665429333.333334 0.9171930951375565 -0.39844300248820747 -7.878035882325839e-17 6.719028639533912e-17 -7.878035882325839e-17 6.719028639533912e-17 0.9171933584268831 -0.39844239641062623
12666046666.666666 0.9130707370291337 -0.4078012128242185 -7.806791285393902e-17 6.798603600510698e-17 -7.806791285393902e-17 6.798603600510698e-17 0.9130710064891949 -0.4078006095000791
12666664000.0 0.9088528991722264 -0.417116779410834 -7.734743824011269e-17 6.877424173677421e-17 -7.734743824011269e-17 6.877424173677421e-17 0.9088531747742458 -0.417116178902955
12667281333.333334 0.9045400226259563 -0.4263887281198493 -7.66190147560846e-17 6.955482268166648e-17 -7.66190147560846e-17 6.955482268166648e-17 0.9045403043405156 -0.4263881304907476
12667898666.666666 0.9001325583876445 -0.4356160893841529 -7.588272299051502e-17 7.032769877363201e-17 -7.588272299051502e-17 7.032769877363201e-17 0.9001328461846911 -0.4356154946960392
12668516000.0 0.8956309673455556 -0.4447978982993212 -7.51386443375177e-17 7.109279079724258e-17 -7.51386443375177e-17 7.109279079724258e-17 0.8956312611944028 -0.44479730661409206
12669133333.333334 0.8910357202309105 -0.4539331947240811 -7.438686098771464e-17 7.185002039586036e-17 -7.438686098771464e-17 7.185002039586036e-17 0.8910360201002431 -0.4539326061033139
12669750666.666666 0.886347297568454 -0.46302102338114925 -7.36274559191713e-17 7.259931007965085e-17 -7.36274559191713e-17 7.259931007965085e-17 0.8863476034263291 -0.4630204378860941
12670368000.0 0.8815661896262873 -0.4720604339569426 -7.286051288825865e-17 7.334058323349121e-17 -7.286051288825865e-17 7.334058323349121e-17 0.8815665014401395 -0.4720598516485171
