! Parameters = {f0=12700.012000; bw=77.238000; Q=6100.000000; N=10; m_0_1=1.293989; m_1_1=0.645089; m_1_2=1.128801; m_2_2=0.644440; m_2_3=0.765764; m_2_8=0.001763; m_2_9=0.038467; m_3_3=0.642503; m_3_4=0.654293; m_3_7=0.002363; m_3_8=-0.094725; m_3_9=0.001763; m_4_4=0.639578; m_4_5=0.490628; m_4_6=0.005880; m_4_7=-0.115274; m_4_8=0.002363; m_5_5=0.639960; m_5_6=0.897983; m_5_7=0.005880; m_6_6=0.639959; m_6_7=0.490970; m_7_7=0.639592; m_7_8=0.654411; m_8_8=0.642501; m_8_9=0.766077; m_9_9=0.644435; m_9_10=1.129879; m_10_10=0.645079; m_10_11=1.294784}
!
! Created with skrf (http://scikit-rf.org).
# Hz S RI R 50.0 
!freq ReS11 ImS11 ReS21 ImS21 ReS12 ImS12 ReS22 ImS22
12607400000.0 0.39912522706752046 -0.9168964244221466 -1.5119991569745513e-17 1.2275629926850728e-16 -1.5119991569745513e-17 1.2275629926850728e-16 0.39912585212101986 -0.9168961523359594
12608017333.333334 0.3888015719473844 -0.921321516980397 -1.3726662862873622e-17 1.2289553010012398e-16 -1.3726662862873622e-17 1.2289553010012398e-16 0.388802199986748 -0.9213212519448803
12608634666.666666 0.37842886589589514 -0.925630376260721 -1.233212051668616e-17 1.230189557396694e-16 -1.233212051668616e-17 1.230189557396694e-16 0.37842949684160165 -0.92563011830862
12609252000.0 0.36800841752638624 -0.9298224586605455 -1.0936543708574173e-17 1.2312656656024035e-16 -1.0936543708574173e-17 1.2312656656024035e-16 0.36800905129855516 -0.9298222078237077
12609869333.333334 0.3575415414753001 -0.9338972353097977 -9.540111678309995e-18 1.232183549649726e-16 -9.540111678309995e-18 1.232183549649726e-16 0.35754217799370225 -0.9338969916191702
12610486666.666666 0.3470295582365465 -0.9378541921375435 -8.143003705057762e-18 1.232943153872201e-16 -8.143003705057762e-18 1.232943153872201e-16 0.3470301974206145 -0.9378539556231693
12611104000.0 0.3364737939944601 -0.9416928299370184 -6.745399084363205e-18 1.2335444429047403e-16 -6.745399084363205e-18 1.2335444429047403e-16 0.33647443576329794 -0.9416926006280326
12611721333.333334 0.3258755804569671 -0.9454126644284242 -5.347477105238144e-18 1.2339874016801832e-16 -5.347477105238144e-18 1.2339874016801832e-16 0.3258762247293604 -0.9454124423530484
12612338666.666666 0.3152362546872857 -0.9490132263201344 -3.9494170271389785e-18 1.2342720354233052e-16 -3.9494170271389785e-18 1.2342720354233052e-16 0.3152369013817124 -0.9490130115056763
12612956000.0 0.30455715893521446 -0.9524940613679055 -2.5513980570281438e-18 1.2343983696421918e-16 -2.5513980570281438e-18 1.2343983696421918e-16 0.3045578079698555 -0.952493853840755
12613573333.333334 0.2938396404681475 -0.9558547304320718 -1.1535993264653308e-18 1.2343664501170322e-16 -1.1535993264653308e-18 1.2343664501170322e-16 0.2938402917608954 -0.9558545302176941
12614190666.666666 0.2830850514006692 -0.9590948095330816 2.4380013134936173e-19 1.234176342886318e-16 2.4380013134936173e-19 1.234176342886318e-16 0.2830857048691409 -0.9590946166560205
12614808000.0 0.27229474852419205 -0.9622138899049243 1.6406214044404998e-18 1.2338281342304556e-16 1.6406214044404998e-18 1.2338281342304556e-16 0.2722954040857371 -0.9622137043887923
12615425333.333334 0.2614700931358362 -0.9652115780466759 3.0366857249540466e-18 1.233321930652787e-16 3.0366857249540466e-18 1.233321930652787e-16 0.26147075070754894 -0.9652113999141574
12616042666.666666 0.25061245086652834 -0.9680874957722 4.431814491988092e-18 1.2326578588580333e-16 4.431814491988092e-18 1.2326578588580333e-16 0.25061311036525735 -0.9680873250450438
12616660000.0 0.2397231915088218 -0.9708412802578188 5.8258292944142936e-18 1.2318360657281537e-16 5.8258292944142936e-18 1.2318360657281537e-16 0.2397238528511807 -0.9708411169568386
12617277333.333334 0.22880368884400354 -0.9734725840881159 7.218551933648567e-18 1.2308567182956345e-16 7.218551933648567e-18 1.2308567182956345e-16 0.22880435194638124 -0.973472428233185
12617894666.666666 0.21785532046902542 -0.9759810752996979 8.609804446399675e-18 1.2297200037142117e-16 8.609804446399675e-18 1.2297200037142117e-16 0.21785598524759758 -0.9759809269097502
12618512000.0 0.20687946762224022 -0.9783664374231951 9.999409127399678e-18 1.2284261292269947e-16 9.999409127399678e-18 1.2284261292269947e-16 0.2068801339929789 -0.9783662965162201
12619129333.333334 0.19587751500961376 -0.98062836952307 1.1387188552026123e-17 1.2269753221320962e-16 1.1387188552026123e-17 1.2269753221320962e-16 0.19587818288829828 -0.9806282361161109
12619746666.666666 0.184850850629839 -0.9827665862356343 1.2772965598942286e-17 1.2253678297456457e-16 1.2772965598942286e-17 1.2253678297456457e-16 0.1848515199320669 -0.982766460344787
12620364000.0 0.1738008655990589 -0.9847808178050765 1.4156563472689564e-17 1.2236039193622493e-16 1.4156563472689564e-17 1.2236039193622493e-16 0.17380153624025638 -0.9847806994454875
12620981333.333334 0.16272895397572726 -0.9866708101174283 1.5537805726163362e-17 1.2216838782129902e-16 1.5537805726163362e-17 1.2216838782129902e-16 0.16272962587115997 -0.986670699303293
12621598666.666666 0.15163651258440008 -0.9884363247326854 1.6916516283122237e-17 1.2196080134207717e-16 1.6916516283122237e-17 1.2196080134207717e-16 0.1516371856491835 -0.9884362214772445
12622216000.0 0.1405249408397646 -0.9900771389148415 1.829251946056803e-17 1.2173766519532384e-16 1.829251946056803e-17 1.2173766519532384e-16 0.1405256149888751 -0.9900770432303816
12622833333.333334 0.12939564056986613 -0.9915930456600277 1.9665639991125715e-17 1.2149901405730878e-16 1.9665639991125715e-17 1.2149901405730878e-16 0.12939631571815188 -0.9915929575578807
12623450666.666666 0.11825001583945144 -0.9929838537226009 2.1035703045309363e-17 1.212448845785939e-16 2.1035703045309363e-17 1.212448845785939e-16 0.11825069190164239 -0.9929837732131377
12624068000.0 0.10708947277277557 -0.9942493876392711 2.2402534253754385e-17 1.2097531537856483e-16 2.2402534253754385e-17 1.2097531537856483e-16 0.1070901496634952 -0.9942493147319074
12624685333.333334 0.09591541937601014 -0.9953894877512723 2.376595972939935e-17 1.206903470397091e-16 2.376595972939935e-17 1.206903470397091e-16 0.09591609700978541 -0.9953894224544613
12625302666.666666 0.08472926536000457 -0.9964040102244534 2.5125806089525238e-17 1.2039002210165876e-16 2.5125806089525238e-17 1.2039002210165876e-16 0.08472994365127715 -0.9964039525456873
12625920000.0 0.0735324219619573 -0.9972928270674698 2.6481900477824234e-17 1.2007438505496403e-16 2.6481900477824234e-17 1.2007438505496403e-16 0.07353310082509446 -0.9972927770132818
12626537333.333334 0.062326301767885305 -0.9980558261478943 2.7834070586293296e-17 1.197434823346403e-16 2.7834070586293296e-17 1.197434823346403e-16 0.062326981117190386 -0.998055783723853
12627154666.666666 0.051112318534072984 -0.9986929112063874 2.9182144677100375e-17 1.193973623134582e-16 2.9182144677100375e-17 1.193973623134582e-16 0.05111299828379639 -0.9986928764170984
12627772000.0 0.03989188700862819 -0.9992040018688413 3.0525951604402617e-17 1.1903607529497876e-16 3.0525951604402617e-17 1.1903607529497876e-16 0.039892567072978266 -0.9992039747179476
12628389333.333334 0.02866642275348149 -0.9995890336565005 3.1865320835978783e-17 1.1865967350636975e-16 3.1865320835978783e-17 1.1865967350636975e-16 0.028667103046635178 -0.9995890141466794
12629006666.666666 0.01743734196520331 -0.9998479579941175 3.320008247489272e-17 1.182682110909474e-16 3.320008247489272e-17 1.182682110909474e-16 0.017438022401317158 -0.9998479461270839
12629624000.0 0.006206061296763772 -0.9999807422160681 3.453006728095937e-17 1.1786174410050553e-16 3.453006728095937e-17 1.1786174410050553e-16 0.006206741789984656 -0.9999807379925721
12630241333.333334 -0.005026002321418606 -0.9999873695704773 3.5855106692208915e-17 1.1744033048737716e-16 3.5855106692208915e-17 1.1744033048737716e-16 -0.0050253218569426186 -0.9999873729903048
12630858666.666666 -0.016257431859951633 -0.9998678392213322 3.7175032846181885e-17 1.170040300962774e-16 3.7175032846181885e-17 1.170040300962774e-16 -0.016256751510060462 -0.9998678502833046
12631476000.0 -0.027486810369724064 -0.9996221662485869 3.848967860120316e-17 1.1655290465588375e-16 3.848967860120316e-17 1.1655290465588375e-16 -0.027486130220234762 -0.999622184950561
12632093333.333334 -0.03871272116021204 -0.9992503816462566 3.979887755745544e-17 1.1608701777020968e-16 3.979887755745544e-17 1.1608701777020968e-16 -0.03871204129690803 -0.9992504079851273
12632710666.666666 -0.04993374797829335 -0.9987525323185211 4.110246407804612e-17 1.1560643490971136e-16 4.110246407804612e-17 1.1560643490971136e-16 -0.04993306848691353 -0.9987525662902189
12633328000.0 -0.06114847518723312 -0.9981286810737858 4.2400273309931025e-17 1.1511122340216873e-16 4.2400273309931025e-17 1.1511122340216873e-16 -0.06114779615346111 -0.9981287226732793
12633945333.333334 -0.07235548794491034 -0.9973789066167744 4.3692141204703715e-17 1.146014524233429e-16 4.3692141204703715e-17 1.146014524233429e-16 -0.0723548094543637 -0.9973789558380705
12634562666.666666 -0.08355337238251223 -0.9965033035385917 4.4977904539299944e-17 1.140771929873911e-16 4.4977904539299944e-17 1.140771929873911e-16 -0.08355269452073157 -0.9965033603747365
12635180000.0 -0.09474071578276516 -0.9955019823048005 4.625740093660124e-17 1.135385179370449e-16 4.625740093660124e-17 1.135385179370449e-16 -0.0947400386352034 -0.9955020467478795
12635797333.333334 -0.10591610675836005 -0.9943750692414652 4.753046888589896e-17 1.1298550193356576e-16 4.753046888589896e-17 1.1298550193356576e-16 -0.1059154304103718 -0.9943751412826063
12636414666.666666 -0.11707813542981435 -0.9931227065192376 4.879694776322398e-17 1.1241822144647997e-16 4.879694776322398e-17 1.1241822144647997e-16 -0.11707745996664479 -0.9931227861486088
12637032000.0 -0.12822539360342594 -0.9917450521354085 5.005667785161544e-17 1.118367547430594e-16 5.005667785161544e-17 1.118367547430594e-16 -0.1282247191102005 -0.9917451393422241
12637649333.333334 -0.13935647494898648 -0.990242279893971 5.130950036120132e-17 1.1124118187760338e-16 5.130950036120132e-17 1.1124118187760338e-16 -0.13935580151069996 -0.9902423746664898
12638266666.666666 -0.15046997517711846 -0.9886145793837028 5.255525744918445e-17 1.1063158468048208e-16 5.255525744918445e-17 1.1063158468048208e-16 -0.1504693028786239 -0.9886146817092283
12638884000.0 -0.16156449221649516 -0.9868621559542367 5.3793792239696365e-17 1.1000804674695869e-16 5.3793792239696365e-17 1.1000804674695869e-16 -0.1615638211424939 -0.9868622658191233
12639501333.333334 -0.17263862639064106 -0.984985230690171 5.50249488435066e-17 1.093706534257948e-16 5.50249488435066e-17 1.093706534257948e-16 -0.17263795662567175 -0.9849853480798232
12640118666.666666 -0.183690980594515 -0.9829840403831809 5.624857237760812e-17 1.087194918076328e-16 5.624857237760812e-17 1.087194918076328e-16 -0.18369031222294252 -0.9829841652820537
12640736000.0 -0.19472016047113 -0.9808588375020717 5.746450898470519e-17 1.0805465071313661e-16 5.746450898470519e-17 1.0805465071313661e-16 -0.19471949357713547 -0.9808589698936754
12641353333.333334 -0.20572477458671062 -0.9786098901610714 5.867260585243981e-17 1.0737622068098166e-16 5.867260585243981e-17 1.0737622068098166e-16 -0.20572410925428064 -0.9786100300279733
12641970666.666666 -0.21670343460698974 -0.9762374820858656 5.987271123264285e-17 1.0668429395554156e-16 5.987271123264285e-17 1.0668429395554156e-16 -0.21670277091990553 -0.9762376294096908
12642588000.0 -0.2276547554719684 -0.9737419125778741 6.106467446031492e-17 1.0597896447442725e-16 6.106467446031492e-17 1.0597896447442725e-16 -0.22765409351379529 -0.9737420673393081
12643205333.333334 -0.23857735557073723 -0.9711234964764734 6.22483459725109e-17 1.0526032785578886e-16 6.22483459725109e-17 1.0526032785578886e-16 -0.2385766954248148 -0.9711236586552676
12643822666.666666 -0.2494698569157809 -0.9683825641192828 6.342357732708095e-17 1.0452848138540278e-16 6.342357732708095e-17 1.0452848138540278e-16 -0.24946919866521167 -0.9683827336942534
12644440000.0 -0.26033088531685056 -0.965519461300477 6.459022122123753e-17 1.0378352400356483e-16 6.459022122123753e-17 1.0378352400356483e-16 -0.26033022904448944 -0.9655196382495083
12645057333.333334 -0.27115907055427485 -0.9625345492271736 6.57481315099718e-17 1.0302555629177484e-16 6.57481315099718e-17 1.0302555629177484e-16 -0.2711584163427202 -0.9625347335272252
12645674666.666666 -0.28195304655174686 -0.9594282044738972 6.689716322434158e-17 1.0225468045920003e-16 6.689716322434158e-17 1.0225468045920003e-16 -0.28195239448332776 -0.9594283961009992
12646292000.0 -0.2927114515490195 -0.9562008189349578 6.803717258959447e-17 1.0147100032893743e-16 6.803717258959447e-17 1.0147100032893743e-16 -0.29271080170578745 -0.9562010178642216
12646909333.333334 -0.303432928273269 -0.9528527997751425 6.916801704307395e-17 1.0067462132411444e-16 6.916801704307395e-17 1.0067462132411444e-16 -0.3034322807369863 -0.9528530059807591
12647526666.666666 -0.3141161241105182 -0.9493845693782912 7.028955525205558e-17 9.986565045372812e-17 7.028955525205558e-17 9.986565045372812e-17 -0.31411547896264874 -0.9493847828335379
12648144000.0 -0.3247596912764173 -0.9457965652939664 7.14016471313574e-17 9.904419629832659e-17 7.14016471313574e-17 9.904419629832659e-17 -0.32475904859811533 -0.945796785971207
12648761333.333334 -0.3353622869860611 -0.9420892401823175 7.250415386079318e-17 9.821036899548997e-17 7.250415386079318e-17 9.821036899548997e-17 -0.33536164685816144 -0.9420894680530083
12649378666.666666 -0.3459225736234495 -0.9382630617569606 7.359693790245142e-17 9.73642802251218e-17 7.359693790245142e-17 9.73642802251218e-17 -0.34592193612645733 -0.9382632967916525
12649996000.0 -0.35643921891026764 -0.9343185127259634 7.467986301784473e-17 9.650604319451749e-17 7.467986301784473e-17 9.650604319451749e-17 -0.3564385841243482 -0.9343187548943066
12650613333.333334 -0.3669108960740428 -0.9302560907309131 7.575279428483839e-17 9.563577262327719e-17 7.575279428483839e-17 9.563577262327719e-17 -0.3669102640790123 -0.930256340001662
12651230666.666666 -0.37733628401531927 -0.9260763082842192 7.681559811440257e-17 9.475358472803544e-17 7.681559811440257e-17 9.475358472803544e-17 -0.37733565489063325 -0.926076564625234
12651848000.0 -0.38771406747464254 -0.9217796927043281 7.786814226724839e-17 9.385959720695344e-17 7.786814226724839e-17 9.385959720695344e-17 -0.387713441299387 -0.921779956082581
12652465333.333334 -0.39804293719814976 -0.9173667860493355 7.891029587020683e-17 9.295392922409158e-17 7.891029587020683e-17 9.295392922409158e-17 -0.39804231405103085 -0.9173670564309133
12653082666.666666 -0.40832159010290275 -0.9128381450485381 7.994192943246429e-17 9.203670139356993e-17 7.994192943246429e-17 9.203670139356993e-17 -0.4083209700622366 -0.9128384223986475
12653700000.0 -0.41854872944146415 -0.9081943410321128 8.096291486163998e-17 9.11080357635256e-17 8.096291486163998e-17 9.11080357635256e-17 -0.41854811258516855 -0.908194625315087
12654317333.333334 -0.4287230649650556 -0.9034359598592402 8.197312547960324e-17 9.016805579995966e-17 8.197312547960324e-17 9.016805579995966e-17 -0.42872245137063764 -0.9034362510385383
12654934666.666666 -0.4388433130867468 -0.8985636018440016 8.297243603819124e-17 8.921688637033023e-17 8.297243603819124e-17 8.921688637033023e-17 -0.43884270283129545 -0.8985638998822183
12655552000.0 -0.4489081970432883 -0.8935778816796901 8.396072273468513e-17 8.825465372701811e-17 8.396072273468513e-17 8.825465372701811e-17 -0.44890759020346344 -0.8935781865385578
12656169333.333334 -0.4589164470560082 -0.8884794283613484 8.493786322708891e-17 8.728148549062992e-17 8.493786322708891e-17 8.728148549062992e-17 -0.4589158437080311 -0.8884797400017422
12656786666.666666 -0.4688668004911602 -0.8832688851063419 8.590373664924697e-17 8.629751063310075e-17 8.590373664924697e-17 8.629751063310075e-17 -0.468866200710805 -0.8832692034882871
12657404000.0 -0.4787580020192424 -0.8779469092731984 8.685822362575469e-17 8.530285946064263e-17 8.685822362575469e-17 8.530285946064263e-17 -0.4787574058818249 -0.8779472343558715
12658021333.333334 -0.48858880377334013 -0.8725141722786827 8.78012062866666e-17 8.4297663596533e-17 8.78012062866666e-17 8.4297663596533e-17 -0.4885882113537099 -0.8725145040204205
12658638666.666666 -0.49835796550636036 -0.8669713595132079 8.873256828199029e-17 8.328205596375976e-17 8.873256828199029e-17 8.328205596375976e-17 -0.49835737687889015 -0.8669716978715105
12659256000.0 -0.5080642547478956 -0.861319170254142 8.965219479603663e-17 8.225617076744563e-17 8.965219479603663e-17 8.225617076744563e-17 -0.5080636699864733 -0.8613195151856798
12659873333.333334 -0.5177064469593907 -0.8555583175777695 9.055997256149863e-17 8.122014347718808e-17 9.055997256149863e-17 8.122014347718808e-17 -0.517705866137408 -0.855558669038386
12660490666.666666 -0.5272833256886771 -0.8496895282693009 9.145578987336092e-17 8.017411080920986e-17 9.145578987336092e-17 8.017411080920986e-17 -0.527282748879023 -0.8496898862140229
12661108000.0 -0.5367936827235904 -0.8437135427311004 9.233953660262512e-17 7.911821070832963e-17 9.233953660262512e-17 7.911821070832963e-17 -0.53679310999864 -0.8437139071141393
12661725333.333334 -0.5462363182441995 -0.8376311148893888 9.321110420976284e-17 7.805258232985845e-17 9.321110420976284e-17 7.805258232985845e-17 -0.5462357496758053 -0.8376314856641486
12662342666.666666 -0.5556100409743692 -0.8314430120990124 9.407038575803862e-17 7.697736602125663e-17 9.407038575803862e-17 7.697736602125663e-17 -0.555609476633853 -0.8314433892180959
12662960000.0 -0.56491366833186 -0.8251500150467548 9.491727592656384e-17 7.589270330371289e-17 9.491727592656384e-17 7.589270330371289e-17 -0.5649131082900026 -0.8251503984619685
12663577333.333334 -0.5741460265776871 -0.8187529176527386 9.575167102316568e-17 7.479873685354922e-17 9.575167102316568e-17 7.479873685354922e-17 -0.5741454709047208 -0.8187533073150998
12664194666.666666 -0.5833059509641043 -0.8122525269703259 9.657346899702654e-17 7.369561048350328e-17 9.657346899702654e-17 7.369561048350328e-17 -0.5833053997297031 -0.8122529228300686
12664812000.0 -0.5923922858815944 -0.8056496630842694 9.738256945113126e-17 7.25834691238465e-17 9.738256945113126e-17 7.25834691238465e-17 -0.5923917391548656 -0.8056500650908505
12665429333.333334 -0.6014038850045912 -0.7989451590073023 9.817887365447813e-17 7.146245880338634e-17 9.817887365447813e-17 7.146245880338634e-17 -0.6014033428540659 -0.7989455671094075
12666046666.666666 -0.6103396114361215 -0.7921398605750272 9.896228455406193e-17 7.03327266303538e-17 9.896228455406193e-17 7.03327266303538e-17 -0.6103390739297485 -0.7921402747205797
12666664000.0 -0.6191983378514174 -0.785234626339071 9.973270678668695e-17 6.919442077308938e-17 9.973270678668695e-17 6.919442077308938e-17 -0.6191978050565521 -0.7852350464752361
12667281333.333334 -0.6279789466397556 -0.7782303274590641 1.0049004669048914e-16 6.804769044069943e-17 1.0049004669048914e-16 6.804769044069943e-17 -0.6279784186231522 -0.778230753532256
12667898666.666666 -0.6366803300458127 -0.7711278475924557 1.0123421231629292e-16 6.689268586350452e-17 1.0123421231629292e-16 6.689268586350452e-17 -0.636679806873617 -0.771128279548346
12668516000.0 -0.6453013903093284 -0.7639280827831022 1.0196511343872465e-16 6.5729558273393e-17 1.0196511343872465e-16 6.5729558273393e-17 -0.6453008720470682 -0.7639285205666247
12669133333.333334 -0.6538410398034444 -0.7566319413483469 1.0268266156707469e-16 6.455845988409458e-17 1.0268266156707469e-16 6.455845988409458e-17 -0.6538405265160215 -0.7566323849037063
12669750666.666666 -0.6622982011720522 -0.7492403437643239 1.033867699559876e-16 6.337954387125178e-17 1.033867699559876e-16 6.337954387125178e-17 -0.6622976929237344 -0.7492407930350014
12670368000.0 -0.670671807465751 -0.7417542225497884 1.0407735361588092e-16 6.219296435244249e-17 1.0407735361588092e-16 6.219296435244249e-17 -0.6706713043201644 -0.7417546774785503
