! Parameters = {f0=12700.012000; bw=77.238000; Q=6100.000000; N=10; m_0_1=1.282578; m_1_1=0.473918; m_1_2=1.117390; m_2_2=0.473269; m_2_3=0.754353; m_2_8=0.001193; m_2_9=0.037897; m_3_3=0.471332; m_3_4=0.642882; m_3_7=0.001793; m_3_8=-0.095295; m_3_9=0.001193; m_4_4=0.468407; m_4_5=0.479217; m_4_6=0.005310; m_4_7=-0.115844; m_4_8=0.001793; m_5_5=0.468789; m_5_6=0.886572; m_5_7=0.005310; m_6_6=0.468788; m_6_7=0.479559; m_7_7=0.468421; m_7_8=0.643000; m_8_8=0.471330; m_8_9=0.754666; m_9_9=0.473264; m_9_10=1.118468; m_10_10=0.473908; m_10_11=1.283373}
!
! Created with skrf (http://scikit-rf.org).
# Hz S RI R 50.0 
!freq ReS11 ImS11 ReS21 ImS21 ReS12 ImS12 ReS22 ImS22
12607400000.0 0.8528562393029396 -0.5221457986825789 -7.853395952114703e-17 8.715348153012994e-17 -7.853395952114703e-17 8.715348153012994e-17 0.8528565921244704 -0.5221452223947421
12608017333.333334 0.8471170768549771 -0.5314063022777377 -7.755680444439658e-17 8.799354736021155e-17 -7.755680444439658e-17 8.799354736021155e-17 0.8471174359163901 -0.5314057298959622
12608634666.666666 0.8412773659211483 -0.5406037306462045 -7.657067554257056e-17 8.882266864840223e-17 -7.657067554257056e-17 8.882266864840223e-17 0.8412777311792154 -0.540603162238043
12609252000.0 0.8353377996455175 -0.5497369921000463 -7.55756952779836e-17 8.96407496711562e-17 -7.55756952779836e-17 8.96407496711562e-17 0.8353381710562789 -0.5497364277325729
12609869333.333334 0.8292990830244366 -0.5588050025676654 -7.457198713247456e-17 9.044769607390108e-17 -7.457198713247456e-17 9.044769607390108e-17 0.829299460543209 -0.5588044423074696
12610486666.666666 0.8231619328229816 -0.5678066857223093 -7.355967559214555e-17 9.124341488185614e-17 -7.355967559214555e-17 9.124341488185614e-17 0.8231623164043589 -0.5678061296354854
12611104000.0 0.8169270774896303 -0.5767409731101747 -7.253888613192142e-17 9.202781451073211e-17 -7.253888613192142e-17 9.202781451073211e-17 0.8169274670874926 -0.576740421262316
12611721333.333334 0.8105952570701234 -0.5856068042767609 -7.150974520006137e-17 9.280080477720781e-17 -7.150974520006137e-17 9.280080477720781e-17 0.8105956526376399 -0.5856062567329503
12612338666.666666 0.8041672231194159 -0.5944031268930446 -7.047238020251985e-17 9.356229690926428e-17 -7.047238020251985e-17 9.356229690926428e-17 0.8041676246090529 -0.5944025837178482
12612956000.0 0.7976437386124152 -0.6031288968804505 -6.942691948720037e-17 9.431220355634233e-17 -6.942691948720037e-17 9.431220355634233e-17 0.7976441459759412 -0.6031283581379102
12613573333.333334 0.7910255778536779 -0.6117830785344389 -6.837349232812657e-17 9.505043879930772e-17 -6.837349232812657e-17 9.505043879930772e-17 0.7910259910421679 -0.6117825442880634
12614190666.666666 0.7843135263852621 -0.6203646446477551 -6.73122289094805e-17 9.57769181602583e-17 -6.73122289094805e-17 9.57769181602583e-17 0.7843139453491049 -0.6203641149605134
12614808000.0 0.7775083808936102 -0.6288725766321963 -6.62432603095537e-17 9.649155861214311e-17 -6.62432603095537e-17 9.649155861214311e-17 0.7775088055825141 -0.6288720515665104
12615425333.333334 0.7706109491148974 -0.637305864639624 -6.516671848458072e-17 9.719427858821348e-17 -6.516671848458072e-17 9.719427858821348e-17 0.7706113794778963 -0.6373053442573612
12616042666.666666 0.763622049739262 -0.6456635076816933 -6.408273625249991e-17 9.788499799127544e-17 -6.408273625249991e-17 9.788499799127544e-17 0.7636224857247221 -0.6456629920441597
12616660000.0 0.7565425123135836 -0.6539445137487359 -6.299144727659274e-17 9.856363820277909e-17 -6.299144727659274e-17 9.856363820277909e-17 0.7565429538692076 -0.6539440029166674
12617277333.333334 0.7493731771429399 -0.6621478999275884 -6.189298604902398e-17 9.923012209172656e-17 -6.189298604902398e-17 9.923012209172656e-17 0.7493736242157745 -0.6621473939611445
12617894666.666666 0.7421148951910739 -0.6702726925180242 -6.078748787433078e-17 9.98843740233712e-17 -6.078748787433078e-17 9.98843740233712e-17 0.7421153477275162 -0.6702721914767815
12618512000.0 0.7347685279791062 -0.6783179271486467 -5.967508885274704e-17 1.0052631986777856e-16 -5.967508885274704e-17 1.0052631986777856e-16 0.7347689859249115 -0.6783174310915923
12619129333.333334 0.7273349474835833 -0.6862826488910183 -5.855592586352606e-17 1.0115588700814859e-16 -5.855592586352606e-17 1.0115588700814859e-16 0.727335410783869 -0.6862821578765409
12619746666.666666 0.7198150360327072 -0.694165912373298 -5.743013654809063e-17 1.0177300434900406e-16 -5.743013654809063e-17 1.0177300434900406e-16 0.7198155046319601 -0.6941654264591818
12620364000.0 0.7122096862017216 -0.7019667818923239 -5.629785929315423e-17 1.0237760232415714e-16 -5.629785929315423e-17 1.0237760232415714e-16 0.7122101600438062 -0.7019663011357431
12620981333.333334 0.704519800707091 -0.7096843315245597 -5.515923321376051e-17 1.0296961290449109e-16 -5.515923321376051e-17 1.0296961290449109e-16 0.7045202797352543 -0.7096838559820701
12621598666.666666 0.6967462922990918 -0.7173176452362576 -5.4014398136185054e-17 1.0354896960558192e-16 -5.4014398136185054e-17 1.0354896960558192e-16 0.6967467764559712 -0.7173171749637908
12622216000.0 0.6888900836536925 -0.7248658169919645 -5.2863494580828814e-17 1.0411560749509387e-16 -5.2863494580828814e-17 1.0411560749509387e-16 0.6888905728813229 -0.724865352044822
12622833333.333334 0.6809521072629191 -0.7323279508621865 -5.1706663744987507e-17 1.0466946320000972e-16 -5.1706663744987507e-17 1.0466946320000972e-16 0.6809526015027381 -0.7323274912950314
12623450666.666666 0.6729333053242939 -0.7397031611296119 -5.05440474855639e-17 1.0521047491366125e-16 -5.05440474855639e-17 1.0521047491366125e-16 0.6729338045171499 -0.739702706996463
12624068000.0 0.6648346296288152 -0.7469905723944157 -4.937578830170997e-17 1.057385824025659e-16 -4.937578830170997e-17 1.057385824025659e-16 0.6648351337149752 -0.7469901237486423
12624685333.333334 0.6566570414480869 -0.7541893196780671 -4.820202931736596e-17 1.0625372701308761e-16 -4.820202931736596e-17 1.0625372701308761e-16 0.6566575503672433 -0.7541888765723825
12625302666.666666 0.6484015114203733 -0.7612985485258702 -4.702291426380876e-17 1.0675585167786789e-16 -4.702291426380876e-17 1.0675585167786789e-16 0.6484020251116499 -0.7612981110123239
12625920000.0 0.6400690194349999 -0.7683174151087152 -4.5838587462025387e-17 1.0724490092211237e-16 -4.5838587462025387e-17 1.0724490092211237e-16 0.640069537836961 -0.7683169832386892
12626537333.333334 0.6316605545164794 -0.7752450863228696 -4.464919380512841e-17 1.0772082086963637e-16 -4.464919380512841e-17 1.0772082086963637e-16 0.6316610775671354 -0.7752446601470702
12627154666.666666 0.6231771147069248 -0.7820807398890297 -4.345487874063009e-17 1.0818355924874935e-16 -4.345487874063009e-17 1.0818355924874935e-16 0.6231776423437408 -0.7820803194574821
12627772000.0 0.6146197069473873 -0.7888235644500797 -4.225578825268682e-17 1.0863306539792976e-16 -4.225578825268682e-17 1.0863306539792976e-16 0.6146202391072899 -0.7888231498121228
12628389333.333334 0.6059893469587787 -0.7954727596670382 -4.105206884432011e-17 1.0906929027129138e-16 -4.105206884432011e-17 1.0906929027129138e-16 0.6059898835781647 -0.7954723508713195
12629006666.666666 0.5972870591209138 -0.8020275363143778 -3.9843867519492405e-17 1.0949218644388737e-16 -3.9843867519492405e-17 1.0949218644388737e-16 0.5972876001356562 -0.8020271334088452
12629624000.0 0.5885138763510968 -0.8084871163735559 -3.863133176523751e-17 1.0990170811677452e-16 -3.863133176523751e-17 1.0990170811677452e-16 0.5885144216965529 -0.8084867194054537
12630241333.333334 0.5796708399815191 -0.814850733125362 -3.741460953365943e-17 1.102978111219109e-16 -3.741460953365943e-17 1.102978111219109e-16 0.5796713895925399 -0.8148503421412269
12630858666.666666 0.5707589996357109 -0.821117631240898 -3.619384922391964e-17 1.1068045292684136e-16 -3.619384922391964e-17 1.1068045292684136e-16 0.570759553446646 -0.8211172462865496
12631476000.0 0.561779413103741 -0.8272870668713719 -3.4969199664151647e-17 1.110495926391905e-16 -3.4969199664151647e-17 1.110495926391905e-16 0.5617799710484486 -0.8272866879919106
12632093333.333334 0.5527331462168745 -0.8333583077362443 -3.374081009337604e-17 1.1140519101094472e-16 -3.374081009337604e-17 1.1140519101094472e-16 0.5527337082287285 -0.8333579349760456
12632710666.666666 0.5436212727210652 -0.8393306332101489 -3.2508830143331335e-17 1.1174721044254574e-16 -3.2508830143331335e-17 1.1174721044254574e-16 0.543621838732964 -0.839330266612858
12633328000.0 0.5344448741492951 -0.8452033344085698 -3.127340982024894e-17 1.1207561498678827e-16 -3.127340982024894e-17 1.1207561498678827e-16 0.5344454440936682 -0.845202974017095
12633945333.333334 0.5252050396934607 -0.8509757142718062 -3.003469948666926e-17 1.1239037035249399e-16 -3.003469948666926e-17 1.1239037035249399e-16 0.5252056135022776 -0.8509753601283159
12634562666.666666 0.5159028660748785 -0.8566470876478526 -2.879284984313006e-17 1.1269144390801116e-16 -2.879284984313006e-17 1.1269144390801116e-16 0.5159034436796561 -0.8566467397937684
12635180000.0 0.5065394574142759 -0.8622167813736126 -2.7548011909887918e-17 1.1297880468449383e-16 -2.7548011909887918e-17 1.1297880468449383e-16 0.5065400387460887 -0.8622164398496072
12635797333.333334 0.49711592510064423 -0.8676841343548648 -2.630033700856673e-17 1.1325242337899026e-16 -2.630033700856673e-17 1.1325242337899026e-16 0.49711651009013014 -0.8676837992008549
12636414666.666666 0.4876333876593449 -0.8730484976447138 -2.5049976743812582e-17 1.1351227235732127e-16 -2.5049976743812582e-17 1.1351227235732127e-16 0.48763397623671456 -0.8730481688998559
12637032000.0 0.4780929706193456 -0.8783092345206164 -2.3797082984869807e-17 1.1375832565676711e-16 -2.3797082984869807e-17 1.1375832565676711e-16 0.4780935627143907 -0.8783089122233027
12637649333.333334 0.46849580637962634 -0.8834657205599574 -2.254180784719708e-17 1.1399055898853806e-16 -2.254180784719708e-17 1.1399055898853806e-16 0.4684964019217282 -0.8834654047478118
12638266666.666666 0.4588430340747954 -0.8885173437141541 -2.1284303674015765e-17 1.1420894974005202e-16 -2.1284303674015765e-17 1.1420894974005202e-16 0.458843632992933 -0.8885170344240264
12638884000.0 0.44913579943977855 -0.8934635043813551 -2.0024723017841215e-17 1.1441347697700825e-16 -2.0024723017841215e-17 1.1441347697700825e-16 0.4491364016625369 -0.8934632016493174
12639501333.333334 0.43937525467395083 -0.8983036154775417 -1.876321862202186e-17 1.1460412144525242e-16 -1.876321862202186e-17 1.1460412144525242e-16 0.4393758601295295 -0.8983033193388837
12640118666.666666 0.4295625583044549 -0.9030371025061779 -1.7499943402256384e-17 1.147808655724413e-16 -1.7499943402256384e-17 1.147808655724413e-16 0.4295631669206777 -0.9030368129954053
12640736000.0 0.4196988750482047 -0.9076634036266379 -1.623505042802522e-17 1.1494369346951355e-16 -1.623505042802522e-17 1.1494369346951355e-16 0.41969948675252666 -0.9076631207774645
12641353333.333334 0.4097853756744059 -0.9121819697205193 -1.4968692904170914e-17 1.1509259093193393e-16 -1.4968692904170914e-17 1.1509259093193393e-16 0.40978599039392305 -0.9121816935658665
12641970666.666666 0.39982323686495225 -0.9165922644571318 -1.3701024152292943e-17 1.1522754544075951e-16 -1.3701024152292943e-17 1.1522754544075951e-16 0.3998238545264092 -0.9165919950291214
12642588000.0 0.38981364107506605 -0.9208937643570075 -1.2432197592236957e-17 1.1534854616348694e-16 -1.2432197592236957e-17 1.1534854616348694e-16 0.38981426160486604 -0.9208935016869612
12643205333.333334 0.37975777639281905 -0.9250859588540965 -1.1162366723576285e-17 1.1545558395469857e-16 -1.1162366723576285e-17 1.1545558395469857e-16 0.3797583997170315 -0.9250857029725297
12643822666.666666 0.3696568363981882 -0.92916835035633 -9.891685107031923e-18 1.155486513565096e-16 -9.891685107031923e-18 1.155486513565096e-16 0.369657462442559 -0.9291681012929515
12644440000.0 0.35951202002130733 -0.9331404543047203 -8.620306345971272e-18 1.1562774259880483e-16 -8.620306345971272e-18 1.1562774259880483e-16 0.3595126487112659 -0.9331402120884245
12645057333.333334 0.34932453140031705 -0.9370017992308065 -7.34838406785313e-18 1.1569285359927744e-16 -7.34838406785313e-18 1.1569285359927744e-16 0.3493251626609866 -0.9370015638896743
12645674666.666666 0.33909557973833593 -0.9407519268126652 -6.07607190569994e-18 1.1574398196326122e-16 -6.07607190569994e-18 1.1574398196326122e-16 0.3390962134945415 -0.9407516983739569
12646292000.0 0.3288263791597723 -0.9443903919293621 -4.803523479533916e-18 1.1578112698336207e-16 -4.803523479533916e-18 1.1578112698336207e-16 0.3288270153360506 -0.9443901704195176
12646909333.333334 0.3185181485665886 -0.9479167627136535 -3.530892377920657e-18 1.1580428963888178e-16 -3.530892377920657e-18 1.1580428963888178e-16 0.3185187870871959 -0.9479165481582869
12647526666.666666 0.30817211149324936 -0.95133062060338 -2.2583321394184704e-18 1.1581347259504343e-16 -2.2583321394184704e-18 1.1581347259504343e-16 0.30817275228217156 -0.9513304130272782
12648144000.0 0.29778949596170795 -0.9546315603910721 -9.859962340771543e-19 1.158086802020111e-16 -9.859962340771543e-19 1.158086802020111e-16 0.29779013894266876 -0.9546313598181898
12648761333.333334 0.28737153433553797 -0.9578191902720784 2.859619550082231e-19 1.1578991849370705e-16 2.859619550082231e-19 1.1578991849370705e-16 0.2873721794320088 -0.9578189967255389
12649378666.666666 0.27691946317384936 -0.9608931318910174 1.557389150168661e-18 1.1575719518642762e-16 1.557389150168661e-18 1.1575719518642762e-16 0.2769201103090577 -0.9608929453931065
12649996000.0 0.2664345230842703 -0.9638530203867592 2.828132197629091e-18 1.1571051967725562e-16 2.828132197629091e-18 1.1571051967725562e-16 0.2664351721812095 -0.9638528409589249
12650613333.333334 0.2559179585758015 -0.9666985044356984 4.098038085898145e-18 1.1564990304227064e-16 4.098038085898145e-18 1.1564990304227064e-16 0.2559186095572391 -0.966698332098546
12651230666.666666 0.2453710179112367 -0.9694292462934179 5.366953964159965e-18 1.1557535803455983e-16 5.366953964159965e-18 1.1557535803455983e-16 0.24537167069972454 -0.9694290810667107
12651848000.0 0.23479495295861655 -0.9720449218348824 6.6347271606854025e-18 1.1548689908202245e-16 6.6347271606854025e-18 1.1548689908202245e-16 0.23479560747649933 -0.9720447637375365
12652465333.333334 0.22419101904304894 -0.9745452205927954 7.90120520112247e-18 1.1538454228497923e-16 7.90120520112247e-18 1.1538454228497923e-16 0.22419167521247385 -0.9745450696428802
12653082666.666666 0.21356047479762832 -0.976929845794483 9.16623582681507e-18 1.1526830541357846e-16 9.16623582681507e-18 1.1526830541357846e-16 0.21356113254055398 -0.976929702009217
12653700000.0 0.20290458201368095 -0.979198514397196 1.042966701312116e-17 1.1513820790499733e-16 1.042966701312116e-17 1.1513820790499733e-16 0.20290524125188675 -0.979198377792945
12654317333.333334 0.19222460549155107 -0.9813509571215788 1.1691346987587567e-17 1.1499427086045348e-16 1.1691346987587567e-17 1.1499427086045348e-16 0.19222526614664698 -0.9813508277138572
12654934666.666666 0.18152181289011624 -0.9833869184837204 1.2951124248195354e-17 1.1483651704200767e-16 1.2951124248195354e-17 1.1483651704200767e-16 0.18152247488355125 -0.9833867962871841
12655552000.0 0.1707974745762366 -0.9853061568254818 1.4208847581532613e-17 1.1466497086916938e-16 1.4208847581532613e-17 1.1466497086916938e-16 0.17079813782930892 -0.9853060418539316
12656169333.333334 0.16005286347438902 -0.9871084443431078 1.5464366080866686e-17 1.1447965841531114e-16 1.5464366080866686e-17 1.1447965841531114e-16 0.1600535279082548 -0.9871083366094845
12656786666.666666 0.14928925491518552 -0.9887935671143346 1.6717529164267024e-17 1.1428060740387397e-16 1.6717529164267024e-17 1.1428060740387397e-16 0.14928992045086845 -0.9887934666307189
12657404000.0 0.13850792648419438 -0.9903613251237507 1.7968186592613273e-17 1.1406784720438351e-16 1.7968186592613273e-17 1.1406784720438351e-16 0.1385085930425952 -0.9903612319013615
12658021333.333334 0.12771015787012804 -0.9918115322865568 1.9216188487597284e-17 1.138414088282633e-16 1.9216188487597284e-17 1.138414088282633e-16 0.12771082537203382 -0.9918114463357515
12658638666.666666 0.11689723071326096 -0.993144016470618 2.0461385349619573e-17 1.1360132492446072e-16 2.0461385349619573e-17 1.1360132492446072e-16 0.1168978990793544 -0.9931439378008879
12659256000.0 0.10607042845293864 -0.994358619516938 2.1703628075710784e-17 1.1334762977486427e-16 2.1703628075710784e-17 1.1334762977486427e-16 0.1060710976038077 -0.9943585481369107
12659873333.333334 0.09523103617540897 -0.9954551972584097 2.2942767977336788e-17 1.1308035928953566e-16 2.2942767977336788e-17 1.1308035928953566e-16 0.09523170603155616 -0.9954551331758459
12660490666.666666 0.08438034046145892 -0.996433619536911 2.417865679814398e-17 1.127995510017498e-16 2.417865679814398e-17 1.127995510017498e-16 0.08438101094331087 -0.9964335627587052
12661108000.0 0.07351962923330801 -0.9972937702187946 2.541114673172565e-17 1.1250524406282333e-16 2.541114673172565e-17 1.1250524406282333e-16 0.07352030026122479 -0.9972937207509736
12661725333.333334 0.06265019160219135 -0.9980355472086307 2.6640090439202185e-17 1.121974792367774e-16 2.6640090439202185e-17 1.121974792367774e-16 0.06265086309647594 -0.9980355050563524
12662342666.666666 0.05177331771492358 -0.9986588624613573 2.7865341066853354e-17 1.118762988947824e-16 2.7865341066853354e-17 1.118762988947824e-16 0.051773989595831495 -0.9986588276289118
12662960000.0 0.04089029860107707 -0.9991636419927106 2.908675226361477e-17 1.1154174700942721e-16 2.908675226361477e-17 1.1154174700942721e-16 0.04089097078882567 -0.9991636144835185
12663577333.333334 0.030002426019629783 -0.9995498258880138 3.030417819854531e-17 1.1119386914878845e-16 3.030417819854531e-17 1.1119386914878845e-16 0.030003098434407786 -0.9995498057046266
12664194666.666666 0.019110992305554863 -0.9998173683092924 3.1517473578190024e-17 1.1083271247031849e-16 3.1517473578190024e-17 1.1083271247031849e-16 0.019111664867531814 -0.9998173554533912
12664812000.0 0.008217290216597397 -0.999966237500706 3.272649366389996e-17 1.1045832571453665e-16 3.272649366389996e-17 1.1045832571453665e-16 0.00821796284593315 -0.9999662319731025
12665429333.333334 -0.002677387220311333 -0.9999964157923236 3.393109428908147e-17 1.1007075919853123e-16 3.393109428908147e-17 1.1007075919853123e-16 -0.0026767146034571286 -0.9999964175929598
12666046666.666666 -0.013571746862330628 -0.9999078996022219 3.513113187632291e-17 1.0967006480928804e-16 3.513113187632291e-17 1.0967006480928804e-16 -0.013571074337789053 -0.9999079087301687
12666664000.0 -0.024464495604626112 -0.9997006994369021 3.6326463454521436e-17 1.0925629599680725e-16 3.6326463454521436e-17 1.0925629599680725e-16 -0.02446382325220955 -0.9997007158903639
12667281333.333334 -0.03535434053328646 -0.9993748398900576 3.751694667585254e-17 1.088295077670608e-16 3.751694667585254e-17 1.088295077670608e-16 -0.035353668432779005 -0.9993748636663655
12667898666.666666 -0.046239989079154914 -0.9989303596396406 3.870243983270412e-17 1.0838975667474838e-16 3.870243983270412e-17 1.0838975667474838e-16 -0.046239317310303056 -0.9989303907352596
12668516000.0 -0.05712014917133596 -0.9983673114432716 3.9882801874523807e-17 1.0793710081587118e-16 3.9882801874523807e-17 1.0793710081587118e-16 -0.05711947781383903 -0.998367349853798
12669133333.333334 -0.0679935293901315 -0.997685762131993 4.105789242455269e-17 1.0747159982013228e-16 4.105789242455269e-17 1.0747159982013228e-16 -0.06799285852363225 -0.997685807852155
12669750666.666666 -0.07885883912069505 -0.9968857926023212 4.2227571796501946e-17 1.0699331484314382e-16 4.2227571796501946e-17 1.0699331484314382e-16 -0.07885816882477022 -0.9968858456259803
12670368000.0 -0.08971478870619244 -0.9959674978066427 4.339170101112777e-17 1.0650230855845831e-16 4.339170101112777e-17 1.0650230855845831e-16 -0.08971411906034325 -0.9959675581267936
