! Parameters = {f0=12700.012000; bw=77.238000; Q=6100.000000; N=10; m_0_1=1.220115; m_1_1=-0.463019; m_1_2=1.054927; m_2_2=-0.463668; m_2_3=0.691890; m_2_8=-0.001931; m_2_9=0.034773; m_3_3=-0.465605; m_3_4=0.580419; m_3_7=-0.001331; m_3_8=-0.098419; m_3_9=-0.001931; m_4_4=-0.468530; m_4_5=0.416754; m_4_6=0.002186; m_4_7=-0.118968; m_4_8=-0.001331; m_5_5=-0.468148; m_5_6=0.824109; m_5_7=0.002186; m_6_6=-0.468149; m_6_7=0.417096; m_7_7=-0.468516; m_7_8=0.580537; m_8_8=-0.465607; m_8_9=0.692203; m_9_9=-0.463673; m_9_10=1.056005; m_10_10=-0.463029; m_10_11=1.220910}
!
! Created with skrf (http://scikit-rf.org).
# Hz S RI R 50.0 
!freq ReS11 ImS11 ReS21 ImS21 ReS12 ImS12 ReS22 ImS22
12607400000.0 0.8714719226393246 -0.4904453976246049 -6.050253128969153e-17 6.23718003440894e-17 -6.050253128969153e-17 6.23718003440894e-17 0.8714722379548608 -0.49044483734032956
12608017333.333334 0.8669986524279216 -0.4983104822176686 -5.991839082057251e-17 6.290967152565885e-17 -5.991839082057251e-17 6.290967152565885e-17 0.8669989727843683 -0.4983099248366284
12608634666.666666 0.862454401296358 -0.5061347702780146 -5.932947625796857e-17 6.34420794063109e-17 -5.932947625796857e-17 6.34420794063109e-17 0.862454726666995 -0.5061342158455553
12609252000.0 0.8578395412812027 -0.5139176212334938 -5.873583863190579e-17 6.396898168281952e-17 -5.873583863190579e-17 6.396898168281952e-17 0.8578398716389026 -0.5139170697947161
12609869333.333334 0.8531544501996963 -0.5216583979045005 -5.813752934659659e-17 6.449033652800401e-17 -5.813752934659659e-17 6.449033652800401e-17 0.853154785516926 -0.5216578495042551
12610486666.666666 0.8483995116189339 -0.5293564665559414 -5.753460017600248e-17 6.500610259403408e-17 -5.753460017600248e-17 6.500610259403408e-17 0.8483998518677563 -0.5293559212388255
12611104000.0 0.8435751148243429 -0.5370111969493125 -5.692710325935409e-17 6.551623901570487e-17 -5.692710325935409e-17 6.551623901570487e-17 0.8435754599764207 -0.5370106547596674
12611721333.333334 0.8386816547879353 -0.5446219623941061 -5.63150910966897e-17 6.602070541363036e-17 -5.63150910966897e-17 6.602070541363036e-17 0.8386820048145321 -0.5446214233760119
12612338666.666666 0.8337195321358642 -0.5521881397992838 -5.569861654430373e-17 6.651946189744809e-17 -5.569861654430373e-17 6.651946189744809e-17 0.8337198870078472 -0.552187603996557
12612956000.0 0.8286891531156677 -0.5597091097242167 -5.5077732810202105e-17 6.701246906895067e-17 -5.5077732810202105e-17 6.701246906895067e-17 0.8286895128035118 -0.5597085771804071
12613573333.333334 0.8235909295630447 -0.567184256429353 -5.4452493449548196e-17 6.749968802516188e-17 -5.4452493449548196e-17 6.749968802516188e-17 0.8235912940368313 -0.5671837271877381
12614190666.666666 0.818425278868105 -0.5746129679266752 -5.382295236002787e-17 6.798108036141386e-17 -5.382295236002787e-17 6.798108036141386e-17 0.8184256480975287 -0.5746124420302589
12614808000.0 0.8131926239411668 -0.5819946360298499 -5.318916377723335e-17 6.845660817434342e-17 -5.318916377723335e-17 6.845660817434342e-17 0.8131929978955341 -0.5819941135213574
12615425333.333334 0.807893393178162 -0.5893286564039727 -5.255118227000982e-17 6.892623406485586e-17 -5.255118227000982e-17 6.892623406485586e-17 0.8078937718263974 -0.5893281373258484
12616042666.666666 0.8025280204256178 -0.5966144286149772 -5.190906273576006e-17 6.938992114105684e-17 -5.190906273576006e-17 6.938992114105684e-17 0.8025284037362629 -0.5966139130093796
12616660000.0 0.7970969449450337 -0.6038513561789279 -5.1262860395741154e-17 6.984763302112739e-17 -5.1262860395741154e-17 6.984763302112739e-17 0.797097332886252 -0.6038508440877273
12617277333.333334 0.7916006113769541 -0.6110388466108096 -5.0612630790334164e-17 7.029933383615708e-17 -5.0612630790334164e-17 7.029933383615708e-17 0.7916010039165338 -0.6110383380755852
12617894666.666666 0.7860394697047045 -0.6181763114728536 -4.9958429774283286e-17 7.074498823293761e-17 -4.9958429774283286e-17 7.074498823293761e-17 0.78603986681006 -0.618175806534889
12618512000.0 0.7804139752172394 -0.625263166423118 -4.9300313511896135e-17 7.118456137672195e-17 -4.9300313511896135e-17 7.118456137672195e-17 0.7804143768554136 -0.6252626651233975
12619129333.333334 0.774724588472248 -0.6322988312628318 -4.8638338472270736e-17 7.161801895390396e-17 -4.8638338472270736e-17 7.161801895390396e-17 0.7747249946099181 -0.6322983336420395
12619746666.666666 0.7689717752581579 -0.6392827299842808 -4.7972561424432265e-17 7.20453271747e-17 -4.7972561424432265e-17 7.20453271747e-17 0.7689721858616342 -0.6392822360827943
12620364000.0 0.7631560065560432 -0.6462142908178908 -4.7303039432484905e-17 7.246645277575875e-17 -4.7303039432484905e-17 7.246645277575875e-17 0.7631564215912752 -0.6462138006757803
12620981333.333334 0.7572777585012902 -0.6530929462787801 -4.662982985075982e-17 7.288136302271455e-17 -4.662982985075982e-17 7.288136302271455e-17 0.7572781779338671 -0.6530924599358038
12621598666.666666 0.7513375123443233 -0.6599181332135686 -4.595299031888324e-17 7.329002571273325e-17 -4.595299031888324e-17 7.329002571273325e-17 0.7513379361394769 -0.6599176507091685
12622216000.0 0.7453357544113477 -0.6666892928463038 -4.5272578756871796e-17 7.369240917698021e-17 -4.5272578756871796e-17 7.369240917698021e-17 0.7453361825339577 -0.666688814219606
12622833333.333334 0.7392729760645576 -0.6734058708241925 -4.4588653360192355e-17 7.408848228305249e-17 -4.4588653360192355e-17 7.408848228305249e-17 0.739273408479152 -0.6734053961140004
12623450666.666666 0.7331496736618708 -0.6800673172630265 -4.39012725947945e-17 7.447821443736954e-17 -4.39012725947945e-17 7.447821443736954e-17 0.73315011033263 -0.6800668465078195
12624068000.0 0.7269663485162507 -0.6866730867922414 -4.3210495192122045e-17 7.486157558751712e-17 -4.3210495192122045e-17 7.486157558751712e-17 0.7269667894070102 -0.6866726200301719
12624685333.333334 0.7207235068547063 -0.6932226385995276 -4.2516380144113033e-17 7.523853622454064e-17 -4.2516380144113033e-17 7.523853622454064e-17 0.7207239519289589 -0.6932221758684162
12625302666.666666 0.7144216597769012 -0.6997154364750399 -4.181898669818431e-17 7.560906738519011e-17 -4.181898669818431e-17 7.560906738519011e-17 0.7144221089978013 -0.6997149778123739
12625920000.0 0.7080613232131762 -0.7061509488554439 -4.111837435216226e-17 7.597314065413719e-17 -4.111837435216226e-17 7.597314065413719e-17 0.7080617765435432 -0.7061504942983746
12626537333.333334 0.7016430178824481 -0.7125286488672914 -4.041460284925721e-17 7.633072816611208e-17 -4.041460284925721e-17 7.633072816611208e-17 0.7016434752847679 -0.7125281984526303
12627154666.666666 0.6951672692495189 -0.718848014370217 -3.970773217295693e-17 7.668180260802769e-17 -3.970773217295693e-17 7.668180260802769e-17 0.6951677306859477 -0.7188475681344324
12627772000.0 0.6886346074819955 -0.7251085279997443 -3.8997822541920644e-17 7.702633722104491e-17 -3.8997822541920644e-17 7.702633722104491e-17 0.6886350729143623 -0.7251080859789583
12628389333.333334 0.6820455674070458 -0.7313096772094827 -3.8284934404900197e-17 7.73643058025704e-17 -3.8284934404900197e-17 7.73643058025704e-17 0.6820460367968578 -0.7313092394394703
12629006666.666666 0.6754006884673701 -0.737450954313329 -3.7569128435560193e-17 7.769568270824823e-17 -3.7569128435560193e-17 7.769568270824823e-17 0.6754011617758131 -0.7374505208295126
12629624000.0 0.6687005146773227 -0.7435318565267537 -3.685046552735826e-17 7.802044285386588e-17 -3.685046552735826e-17 7.802044285386588e-17 0.6687009918652659 -0.7435314273642016
12630241333.333334 0.6619455945781263 -0.7495518860081996 -3.612900678837181e-17 7.833856171723146e-17 -3.612900678837181e-17 7.833856171723146e-17 0.6619460756061246 -0.7495514612016229
12630858666.666666 0.6551364811931505 -0.7555105498996658 -3.540481353611543e-17 7.865001534000036e-17 -3.540481353611543e-17 7.865001534000036e-17 0.6551369660214493 -0.755510129483416
12631476000.0 0.6482737319824675 -0.7614073603672099 -3.467794729232483e-17 7.895478032946122e-17 -3.467794729232483e-17 7.895478032946122e-17 0.6482742205710046 -0.7614069443752756
12632093333.333334 0.64135790879734 -0.7672418346407736 -3.394846977777971e-17 7.925283386025135e-17 -3.394846977777971e-17 7.925283386025135e-17 0.6413584011057494 -0.7672414231067779
12632710666.666666 0.6343895778342693 -0.7730134950536733 -3.3216442907049257e-17 7.954415367605097e-17 -3.3216442907049257e-17 7.954415367605097e-17 0.6343900738218837 -0.7730130880108707
12633328000.0 0.6273693095883758 -0.7787218690819225 -3.2481928783245554e-17 7.982871809121924e-17 -3.2481928783245554e-17 7.982871809121924e-17 0.6273698092142315 -0.7787214665631972
12633945333.333334 0.6202976788069559 -0.7843664893826992 -3.1744989692795507e-17 8.010650599236965e-17 -3.1744989692795507e-17 8.010650599236965e-17 0.6202981820297953 -0.7843660914205611
12634562666.666666 0.6131752644423868 -0.7899468938326467 -3.1005688100147255e-17 8.037749683991818e-17 -3.1005688100147255e-17 8.037749683991818e-17 0.6131757712206612 -0.7899465004592301
12635180000.0 0.6060026496046138 -0.7954626255657938 -3.026408664249757e-17 8.064167066956878e-17 -3.026408664249757e-17 8.064167066956878e-17 0.606003159896488 -0.7954622368128539
12635797333.333334 0.5987804215134557 -0.8009132330109212 -2.9520248124502785e-17 8.08990080937526e-17 -2.9520248124502785e-17 8.08990080937526e-17 0.5987809352768115 -0.8009128489098325
12636414666.666666 0.59150917145069 -0.8062982699284156 -2.877423551296857e-17 8.114949030302255e-17 -2.877423551296857e-17 8.114949030302255e-17 0.5915096886431283 -0.806297890510168
12637032000.0 0.5841894947113708 -0.8116172954470051 -2.802611193152564e-17 8.139309906739844e-17 -2.802611193152564e-17 8.139309906739844e-17 0.5841900152902162 -0.8116169207422023
12637649333.333334 0.576821990555251 -0.8168698740997341 -2.727594065531786e-17 8.162981673765625e-17 -2.727594065531786e-17 8.162981673765625e-17 0.5768225144775553 -0.8168695041385915
12638266666.666666 0.5694072621577687 -0.8220555758595836 -2.652378510564731e-17 8.185962624657926e-17 -2.652378510564731e-17 8.185962624657926e-17 0.5694077893803137 -0.8220552106719242
12638884000.0 0.5619459165605031 -0.8271739761747915 -2.576970884463241e-17 8.208251111015249e-17 -2.576970884463241e-17 8.208251111015249e-17 0.5619464470398046 -0.8271736157900452
12639501333.333334 0.5544385646216371 -0.8322246560034958 -2.501377556985404e-17 8.229845542870837e-17 -2.501377556985404e-17 8.229845542870837e-17 0.5544390983139494 -0.8322243004506972
12640118666.666666 0.5468858209659282 -0.8372072018480613 -2.425604910898791e-17 8.250744388802548e-17 -2.425604910898791e-17 8.250744388802548e-17 0.5468863578272462 -0.8372068511558457
12640736000.0 0.539288303934077 -0.8421212057891344 -2.3496593414397583e-17 8.270946176038617e-17 -2.3496593414397583e-17 8.270946176038617e-17 0.5392888439201403 -0.8421208599857362
12641353333.333334 0.5316466355327459 -0.8469662655186154 -2.273547255781314e-17 8.290449490555826e-17 -2.273547255781314e-17 8.290449490555826e-17 0.5316471785990438 -0.8469659246318674
12641970666.666666 0.523961441382996 -0.8517419843730212 -2.1972750724875134e-17 8.309252977176327e-17 -2.1972750724875134e-17 8.309252977176327e-17 0.5239619874847684 -0.8517416484303495
12642588000.0 0.5162333506693728 -0.8564479713657519 -2.1208492209765054e-17 8.327355339656847e-17 -2.1208492209765054e-17 8.327355339656847e-17 0.5162338997616163 -0.8564476403941758
12643205333.333334 0.5084629960884474 -0.8610838412190752 -2.0442761409803262e-17 8.344755340773735e-17 -2.0442761409803262e-17 8.344755340773735e-17 0.5084635481259184 -0.8610835152452051
12643822666.666666 0.5006510137967503 -0.8656492143958331 -1.9675622820011785e-17 8.361451802403721e-17 -1.9675622820011785e-17 8.361451802403721e-17 0.5006515687339685 -0.8656488934458669
12644440000.0 0.4927980433590057 -0.8701437171303216 -1.8907141027713805e-17 8.377443605598643e-17 -1.8907141027713805e-17 8.377443605598643e-17 0.492798601150257 -0.8701434012300427
12645057333.333334 0.48490472769557436 -0.8745669814590062 -1.8137380707113447e-17 8.392729690655644e-17 -1.8137380707113447e-17 8.392729690655644e-17 0.48490528829491636 -0.8745666706337837
12645674666.666666 0.476971713029894 -0.8789186452506093 -1.7366406613851257e-17 8.407309057182746e-17 -1.7366406613851257e-17 8.407309057182746e-17 0.4769722763911586 -0.8789183395253929
12646292000.0 0.4689996488354709 -0.8831983522358058 -1.659428357955974e-17 8.421180764159322e-17 -1.659428357955974e-17 8.421180764159322e-17 0.4690002149122684 -0.8831980516351262
12646909333.333334 0.46098918778288456 -0.8874057520363022 -1.5821076506462595e-17 8.43434392999069e-17 -1.5821076506462595e-17 8.43434392999069e-17 0.4609897565286074 -0.8874054565842677
12647526666.666666 0.4529409856861765 -0.8915405001936101 -1.5046850361893573e-17 8.446797732559221e-17 -1.5046850361893573e-17 8.446797732559221e-17 0.4529415570540042 -0.8915402099139068
12648144000.0 0.44485570144926195 -0.8956022581971986 -1.4271670172859805e-17 8.458541409269445e-17 -1.4271670172859805e-17 8.458541409269445e-17 0.4448562753921624 -0.8956019731130846
12648761333.333334 0.4367339970119328 -0.8995906935122322 -1.3495601020609762e-17 8.469574257088245e-17 -1.3495601020609762e-17 8.469574257088245e-17 0.4367345734826682 -0.8995904136465382
12649378666.666666 0.42857653729574086 -0.9035054796067536 -1.2718708035167354e-17 8.479895632580449e-17 -1.2718708035167354e-17 8.479895632580449e-17 0.42857711624687156 -0.9035052049818825
12649996000.0 0.42038399014951244 -0.9073462959784492 -1.1941056389873777e-17 8.489504951939329e-17 -1.1941056389873777e-17 8.489504951939329e-17 0.42038457153340036 -0.9073460266163721
12650613333.333334 0.41215702629456724 -0.9111128281809319 -1.116271129594713e-17 8.498401691011794e-17 -1.116271129594713e-17 8.498401691011794e-17 0.4121576100633792 -0.9111125641031859
12651230666.666666 0.4038963192701161 -0.9148047678493432 -1.0383737997021843e-17 8.506585385318975e-17 -1.0383737997021843e-17 8.506585385318975e-17 0.40389690537582845 -0.9148045090770308
12651848000.0 0.39560254537767897 -0.9184218127257976 -9.604201763675217e-18 8.514055630071826e-17 -9.604201763675217e-18 8.514055630071826e-17 0.39560313377208195 -0.9184215592795866
12652465333.333334 0.3872763836260267 -0.9219636666839885 -8.824167887999934e-18 8.520812080181257e-17 -8.824167887999934e-18 8.520812080181257e-17 0.38727697426072755 -0.9219634185841074
12653082666.666666 0.3789185156756709 -0.9254300397534023 -8.04370167813338e-18 8.526854450263848e-17 -8.04370167813338e-18 8.526854450263848e-17 0.37891910850209864 -0.9254297970196407
12653700000.0 0.3705296257826379 -0.9288206481432334 -7.2628684527852e-18 8.532182514642451e-17 -7.2628684527852e-18 8.532182514642451e-17 0.3705302207520459 -0.9288204107949384
12654317333.333334 0.3621104007428925 -0.9321352142654303 -6.4817335358243675e-18 8.536796107341375e-17 -6.4817335358243675e-18 8.536796107341375e-17 0.36211099780636447 -0.9321349823215076
12654934666.666666 0.35366152983592986 -0.9353734667575021 -5.700362250787922e-18 8.540695122077279e-17 -5.700362250787922e-18 8.540695122077279e-17 0.35366212894438226 -0.9353732402364124
12655552000.0 0.3451837047681821 -0.9385351405047923 -4.918819915437878e-18 8.543879512244602e-17 -4.918819915437878e-18 8.543879512244602e-17 0.34518430587236915 -0.9385349194245513
12656169333.333334 0.336677619616709 -0.9416199766620633 -4.137171836342713e-18 8.546349290896088e-17 -4.137171836342713e-18 8.546349290896088e-17 0.33667822266722613 -0.9416197610402389
12656786666.666666 0.3281439707721873 -0.9446277226747588 -3.3554833033938143e-18 8.548104530718553e-17 -3.3554833033938143e-18 8.548104530718553e-17 0.3281445757194752 -0.9446275125284697
12657404000.0 0.31958345688184336 -0.947558132299697 -2.5738195843838003e-18 8.549145364003473e-17 -2.5738195843838003e-18 8.549145364003473e-17 0.3195840636761928 -0.9475579276456134
12658021333.333334 0.3109967787924167 -0.9504109656251757 -1.792245919571781e-18 8.549471982612696e-17 -1.792245919571781e-18 8.549471982612696e-17 0.31099738738397203 -0.9504107664795166
12658638666.666666 0.3023846394927286 -0.9531859890906346 -1.010827516248179e-18 8.549084637939211e-17 -1.010827516248179e-18 8.549084637939211e-17 0.3023852498314914 -0.9531857954691648
12659256000.0 0.29374774405593784 -0.9558829755058332 -2.2962954328983573e-19 8.547983640862937e-17 -2.2962954328983573e-19 8.547983640862937e-17 0.29374835609177213 -0.955882787423866
12659873333.333334 0.28508679958214295 -0.9585017040693508 5.512828742333778e-19 8.546169361701546e-17 5.512828742333778e-19 8.546169361701546e-17 0.2850874132647783 -0.9585015215417427
12660490666.666666 0.27640251514032876 -0.9610419603867141 1.3318446604899382e-18 8.543642230156452e-17 1.3318446604899382e-18 8.543642230156452e-17 0.27640313041936515 -0.9610417834278663
12661108000.0 0.2676956017101247 -0.9635035364880048 2.1119907943142247e-18 8.540402735253668e-17 2.1119907943142247e-18 8.540402735253668e-17 0.2676962185350361 -0.9635033651118612
12661725333.333334 0.25896677212406083 -0.9658862308447528 2.8916563145691468e-18 8.536451425280029e-17 2.8916563145691468e-18 8.536451425280029e-17 0.25896739044419964 -0.9658860650647982
12662342666.666666 0.25021674100874364 -0.9681898483865657 3.670776325584191e-18 8.531788907714163e-17 3.670776325584191e-18 8.531788907714163e-17 0.2502173607733449 -0.9681896882158266
12662960000.0 0.24144622472656918 -0.9704142005170401 4.4492860025252144e-18 8.526415849152807e-17 4.4492860025252144e-18 8.526415849152807e-17 0.24144684588475449 -0.9704140459680818
12663577333.333334 0.232655941317129 -0.9725591051291836 5.227120596770805e-18 8.520332975232133e-17 5.227120596770805e-18 8.520332975232133e-17 0.23265656381791106 -0.9725589562141105
12664194666.666666 0.22384661043823292 -0.9746243866203803 6.004215441299588e-18 8.513541070544152e-17 6.004215441299588e-18 8.513541070544152e-17 0.22384723423051925 -0.9746242433508339
12664812000.0 0.21501895330721021 -0.9766098759067048 6.7805059560467585e-18 8.506040978548205e-17 6.7805059560467585e-18 8.506040978548205e-17 0.21501957833980784 -0.9766097382938641
12665429333.333334 0.2061736926416439 -0.9785154104368252 7.555927653253793e-18 8.497833601477763e-17 7.555927653253793e-18 8.497833601477763e-17 0.2061743188632629 -0.9785152784914032
12666046666.666666 0.19731155260042227 -0.9803408342052522 8.330416142815583e-18 8.488919900242184e-17 8.330416142815583e-18 8.488919900242184e-17 0.19731217995968084 -0.9803407079374992
12666664000.0 0.1884332587242314 -0.9820859977651675 9.103907137631751e-18 8.479300894323433e-17 9.103907137631751e-18 8.479300894323433e-17 0.18843388716965953 -0.9820858771848674
12667281333.333334 0.17953953787637758 -0.9837507582406095 9.876336458901601e-18 8.468977661668581e-17 9.876336458901601e-18 8.468977661668581e-17 0.17954016735642117 -0.9837506433570788
12667898666.666666 0.17063111818308394 -0.9853349793382095 1.0647640041451233e-17 8.457951338576834e-17 1.0647640041451233e-17 8.457951338576834e-17 0.17063174864610917 -0.9853348701602972
12668516000.0 0.16170872897396185 -0.986838531358329 1.14177539390515e-17 8.446223119581769e-17 1.14177539390515e-17 8.446223119581769e-17 0.16170936036825978 -0.986838427894418
12669133333.333334 0.15277310072235892 -0.9882612912056788 1.218661432966641e-17 8.433794257329548e-17 1.218661432966641e-17 8.433794257329548e-17 0.1527737329961491 -0.9882611934636814
12669750666.666666 0.14382496498549732 -0.9896031423993957 1.2954157520770587e-17 8.420666062451135e-17 1.2954157520770587e-17 8.420666062451135e-17 0.14382559808693265 -0.9896030503867573
12670368000.0 0.13486505434449877 -0.9908639750826016 1.3720319954594002e-17 8.406839903430622e-17 1.3720319954594002e-17 8.406839903430622e-17 0.13486568822166914 -0.9908638888062948
