! Parameters = {f0=12700.012000; bw=77.238000; Q=6100.000000; N=10; m_0_1=1.257753; m_1_1=0.101546; m_1_2=1.092565; m_2_2=0.100897; m_2_3=0.729528; m_2_8=-0.000049; m_2_9=0.036655; m_3_3=0.098960; m_3_4=0.618057; m_3_7=0.000551; m_3_8=-0.096537; m_3_9=-0.000049; m_4_4=0.096035; m_4_5=0.454392; m_4_6=0.004068; m_4_7=-0.117086; m_4_8=0.000551; m_5_5=0.096417; m_5_6=0.861747; m_5_7=0.004068; m_6_6=0.096416; m_6_7=0.454734; m_7_7=0.096049; m_7_8=0.618175; m_8_8=0.098958; m_8_9=0.729841; m_9_9=0.100892; m_9_10=1.093643; m_10_10=0.101536; m_10_11=1.258548}
!
! Created with skrf (http://scikit-rf.org).
# Hz S RI R 50.0 
!freq ReS11 ImS11 ReS21 ImS21 ReS12 ImS12 ReS22 ImS22
12607400000.0 -0.3060674677280631 0.9520098241081116 2.405322782160794e-18 -1.043319279030694e-16 2.405322782160794e-18 -1.043319279030694e-16 -0.3060680986069298 0.9520096212827711
12608017333.333334 -0.2963785710633353 0.9550705432659325 1.3355957371923644e-18 -1.0433066506135656e-16 1.3355957371923644e-18 -1.0433066506135656e-16 -0.29637920393949585 0.9550703468708562
12608634666.666666 -0.2866590754711136 0.9580326583420179 2.661473054657793e-19 -1.0431844162625235e-16 2.661473054657793e-19 -1.0431844162625235e-16 -0.286659710279036 0.9580324683968523
12609252000.0 -0.27690998441853076 0.9608958635196413 -8.029102852700546e-19 -1.0429526317437058e-16 -8.029102852700546e-19 -1.0429526317437058e-16 -0.27691062109248965 0.9608956800433637
12609869333.333334 -0.2671323044282877 0.9636598631937828 -1.871464892269581e-18 -1.0426113643066607e-16 -1.871464892269581e-18 -1.0426113643066607e-16 -0.26713294290237183 0.9636596862047023
12610486666.666666 -0.25732704497476655 0.9663243720016488 -2.939404469514917e-18 -1.0421606926727991e-16 -2.939404469514917e-18 -1.0421606926727991e-16 -0.25732768518288507 0.9663242015174024
12611104000.0 -0.24749521837953495 0.9688891148522069 -4.006617079487617e-18 -1.0416007070226168e-16 -4.006617079487617e-18 -1.0416007070226168e-16 -0.24749586025542433 0.9688889508897572
12611721333.333334 -0.2376378397072155 0.9713538269544807 -5.07299090482081e-18 -1.0409315089817613e-16 -5.07299090482081e-18 -1.0409315089817613e-16 -0.23763848318444666 0.9713536695301163
12612338666.666666 -0.22775592666041267 0.9737182538449621 -6.138414260034814e-18 -1.0401532116058643e-16 -6.138414260034814e-18 -1.0401532116058643e-16 -0.22775657167239818 0.9737181029742967
12612956000.0 -0.21785049947467097 0.9759821514138786 -7.202775603209877e-18 -1.0392659393641905e-16 -7.202775603209877e-18 -1.0392659393641905e-16 -0.21785114595467062 0.9759820071118442
12613573333.333334 -0.20792258081327908 0.9781452859303533 -8.265963547615694e-18 -1.0382698281221198e-16 -8.265963547615694e-18 -1.0382698281221198e-16 -0.20792322869440807 0.9781451482112047
12614190666.666666 -0.1979731956615782 0.9802074340665702 -9.32786687337324e-18 -1.0371650251224032e-16 -9.32786687337324e-18 -1.0371650251224032e-16 -0.19797384487681388 0.9802073029438817
12614808000.0 -0.18800337122116745 0.9821683829208229 -1.038837453906493e-17 -1.0359516889652421e-16 -1.038837453906493e-17 -1.0359516889652421e-16 -0.18800402170335556 0.9821682584074843
12615425333.333334 -0.17801413680385186 0.9840279300394914 -1.1447375693309807e-17 -1.0346299895872069e-16 -1.1447375693309807e-17 -1.0346299895872069e-16 -0.1780147884857145 0.9840278121477125
12616042666.666666 -0.1680065237253747 0.9857858834379511 -1.250475968634069e-17 -1.0332001082389432e-16 -1.250475968634069e-17 -1.0332001082389432e-16 -0.16800717653951605 0.9857857721792531
12616660000.0 -0.15798156519894055 0.9874420616203876 -1.356041608154097e-17 -1.0316622374617152e-16 -1.356041608154097e-17 -1.0316622374617152e-16 -0.15798221907785479 0.9874419570056074
12617277333.333334 -0.1479402962285154 0.9889962935985381 -1.4614234666960296e-17 -1.0300165810627618e-16 -1.4614234666960296e-17 -1.0300165810627618e-16 -0.14794095110459365 0.9889961956378273
12617894666.666666 -0.1378837535021401 0.990448418909329 -1.5666105466781794e-17 -1.0282633540895155e-16 -1.5666105466781794e-17 -1.0282633540895155e-16 -0.13788440930767665 0.9904483276121474
12618512000.0 -0.12781297528447608 0.9917982876314902 -1.671591875282129e-17 -1.0264027828025535e-16 -1.671591875282129e-17 -1.0264027828025535e-16 -0.12781363195167636 0.9917982030066136
12619129333.333334 -0.11772900131017651 0.9930457604009673 -1.7763565055893877e-17 -1.024435104647545e-16 -1.7763565055893877e-17 -1.024435104647545e-16 -0.11772965877116331 0.9930456824564782
12619746666.666666 -0.10763287267614605 0.9941907084253544 -1.8808935177248092e-17 -1.0223605682258752e-16 -1.8808935177248092e-17 -1.0223605682258752e-16 -0.10763353086296695 0.9941906371686455
12620364000.0 -0.09752563173408349 0.995233013497189 -1.9851920199923288e-17 -1.0201794332641742e-16 -1.9851920199923288e-17 -1.0201794332641742e-16 -0.09752629057871781 0.9952329489349626
12620981333.333334 -0.08740832198312075 0.9961725680061274 -2.0892411500050063e-17 -1.0178919705827489e-16 -2.0892411500050063e-17 -1.0178919705827489e-16 -0.08740898141748661 0.9961725101443946
12621598666.666666 -0.07728198796180676 0.9970092749500874 -2.19303007581675e-17 -1.0154984620627492e-16 -2.19303007581675e-17 -1.0154984620627492e-16 -0.07728264791776797 0.9970092237941657
12622216000.0 -0.06714767514043582 0.9977430479452422 -2.2965479970475075e-17 -1.0129992006122487e-16 -2.2965479970475075e-17 -1.0129992006122487e-16 -0.0671483355498091 0.9977430034997575
12622833333.333334 -0.05700642981294068 0.9983738112349549 -2.3997841460038406e-17 -1.0103944901311967e-16 -2.3997841460038406e-17 -1.0103944901311967e-16 -0.057007090607502524 0.998373773503839
12623450666.666666 -0.04685929898915361 0.9989014996975789 -2.502727788796788e-17 -1.0076846454752115e-16 -2.502727788796788e-17 -1.0076846454752115e-16 -0.046859960100647434 0.99890146868407
12624068000.0 -0.03670733028645527 0.9993260588531997 -2.6053682264568917e-17 -1.004869992418206e-16 -2.6053682264568917e-17 -1.004869992418206e-16 -0.036707991646598465 0.9993260345598426
12624685333.333334 -0.02655157182161548 0.9996474448692538 -2.7076947960442295e-17 -1.0019508676138946e-16 -2.7076947960442295e-17 -1.0019508676138946e-16 -0.026552233362106485 0.9996474272979003
12625302666.666666 -0.016393072102867043 0.9998656245650495 -2.809696871750867e-17 -9.98927618556283e-17 -2.809696871750867e-17 -9.98927618556283e-17 -0.016393733755392294 0.9998656137168552
12625920000.0 -0.00623287992122863 0.9999805754151999 -2.911363866007449e-17 -9.958006035387777e-17 -2.911363866007449e-17 -9.958006035387777e-17 -0.006233541617469702 0.9999805712906275
12626537333.333334 0.003927955757377421 0.9999922855519413 -3.012685230574321e-17 -9.925701916125087e-17 -3.012685230574321e-17 -9.925701916125087e-17 0.003927294085736774 0.9999922881507589
12627154666.666666 0.014088385900565234 0.9999007537663647 -3.113650457636596e-17 -9.89236762543292e-17 -3.113650457636596e-17 -9.89236762543292e-17 0.014087724321832045 0.9999007630876467
12627772000.0 0.024247361518074575 0.9997059895085345 -3.2142490808930795e-17 -9.85800706767508e-17 -3.2142490808930795e-17 -9.85800706767508e-17 0.024246700100539635 0.9997060055506629
12628389333.333334 0.03440383376950313 0.9994080128865224 -3.314470676635124e-17 -9.822624253470644e-17 -3.314470676635124e-17 -9.822624253470644e-17 0.03440317258143386 0.9994080356471823
12629006666.666666 0.04455675407313146 0.9990068546643176 -3.414304864828411e-17 -9.786223299229962e-17 -3.414304864828411e-17 -9.786223299229962e-17 0.04455609318276497 0.9990068841405031
12629624000.0 0.05470507421384057 0.9985025562586635 -3.513741310183868e-17 -9.748808426681721e-17 -3.513741310183868e-17 -9.748808426681721e-17 0.0547044136893765 0.9985025924466743
12630241333.333334 0.0648477464515028 0.9978951697347715 -3.612769723225394e-17 -9.710383962388437e-17 -3.612769723225394e-17 -9.710383962388437e-17 0.06484708636109641 0.9978952126302162
12630858666.666666 0.07498372362898326 0.9971847578009606 -3.711379861351863e-17 -9.670954337251427e-17 -3.711379861351863e-17 -9.670954337251427e-17 0.07498306404073826 0.9971848073987538
12631476000.0 0.08511195928056295 0.9963713938021568 -3.809561529897032e-17 -9.630524086003668e-17 -3.809561529897032e-17 -9.630524086003668e-17 0.08511130026252466 0.996371450096524
12632093333.333334 0.0952314077395819 0.9954551617123522 -3.907304583177718e-17 -9.589097846694416e-17 -3.907304583177718e-17 -9.589097846694416e-17 0.09523074935973017 0.9954552246968279
12632710666.666666 0.10534102424668035 0.994436156125916 -4.0045989255416464e-17 -9.546680360161224e-17 -4.0045989255416464e-17 -9.546680360161224e-17 0.10534036657292234 0.9944362257933438
12633328000.0 0.11543976505763366 0.9933144822478257 -4.1014345124090286e-17 -9.503276469491428e-17 -4.1014345124090286e-17 -9.503276469491428e-17 0.115439108157797 0.993314558590359
12633945333.333334 0.12552658755096993 0.9920902558828185 -4.197801351305974e-17 -9.458891119474233e-17 -4.197801351305974e-17 -9.458891119474233e-17 0.1255259314927959 0.9920903388919247
12634562666.666666 0.1356004503357265 0.9907636034234284 -4.293689502893092e-17 -9.413529356041838e-17 -4.293689502893092e-17 -9.413529356041838e-17 0.13559979518686263 0.9907636930898851
12635180000.0 0.14566031335893725 0.9893346618369352 -4.389089081989215e-17 -9.367196325699754e-17 -4.389089081989215e-17 -9.367196325699754e-17 0.145659659186931 0.9893347581508369
12635797333.333334 0.15570513801303948 0.9878035786512259 -4.483990258588189e-17 -9.319897274947026e-17 -4.483990258588189e-17 -9.319897274947026e-17 0.1557044848853303 0.9878036816019778
12636414666.666666 0.1657338872429608 0.9861705119395763 -4.5783832588684533e-17 -9.271637549686826e-17 -4.5783832588684533e-17 -9.271637549686826e-17 0.16573323522687414 0.9861706215159023
12637032000.0 0.17574552565346946 0.9844356303042948 -4.672258366198694e-17 -9.222422594625591e-17 -4.672258366198694e-17 -9.222422594625591e-17 0.1757448748162094 0.9844357464942356
12637649333.333334 0.18573901961578995 0.9825991128593557 -4.7656059221357513e-17 -9.172257952662674e-17 -4.7656059221357513e-17 -9.172257952662674e-17 0.18573837002443222 0.9825992356502699
12638266666.666666 0.1957133373744586 0.980661149211887 -4.858416327414765e-17 -9.121149264270633e-17 -4.858416327414765e-17 -9.121149264270633e-17 0.19571268909594391 0.9806612785904532
12638884000.0 0.20566744915381605 0.9786219394425969 -4.95068004293505e-17 -9.069102266864314e-17 -4.95068004293505e-17 -9.069102266864314e-17 0.20566680225494274 0.9786220753948143
12639501333.333334 0.21560032726435246 0.976481694085113 -5.042387590738224e-17 -9.016122794160492e-17 -5.042387590738224e-17 -9.016122794160492e-17 0.21559968181177014 0.976481836596304
12640118666.666666 0.22551094620864187 0.9742406341042811 -5.1335295549777536e-17 -8.962216775528713e-17 -5.1335295549777536e-17 -8.962216775528713e-17 0.22551030226884422 0.9742407831590926
12640736000.0 0.23539828278766156 0.9718989908732538 -5.2240965828884686e-17 -8.907390235328368e-17 -5.2240965828884686e-17 -8.907390235328368e-17 0.23539764042697975 0.9718991464556589
12641353333.333334 0.24526131620573688 0.9694570061497612 -5.3140793857363893e-17 -8.851649292243456e-17 -5.3140793857363893e-17 -8.851649292243456e-17 0.2452606754903325 0.9694571682430603
12641970666.666666 0.2550990281766232 0.9669149320509899 -5.40346873977539e-17 -8.795000158599524e-17 -5.40346873977539e-17 -8.795000158599524e-17 0.2550983891724817 0.9669151006378135
12642588000.0 0.26491040302819413 0.9642730310276586 -5.4922554871875686e-17 -8.737449139676426e-17 -5.4922554871875686e-17 -8.737449139676426e-17 0.26490976580111747 0.9642732060899672
12643205333.333334 0.27469442780744036 0.9615315758368894 -5.580430537019342e-17 -8.679002633009776e-17 -5.580430537019342e-17 -8.679002633009776e-17 0.27469379242304076 0.9615317573559777
12643822666.666666 0.2844500923851315 0.9586908495140227 -5.667984866110661e-17 -8.619667127682681e-17 -5.667984866110661e-17 -8.619667127682681e-17 0.28444945890882495 0.9586910374705212
12644440000.0 0.29417638955996794 0.955751145343436 -5.754909520015749e-17 -8.559449203608768e-17 -5.754909520015749e-17 -8.559449203608768e-17 0.2941757580569667 0.955751339717312
12645057333.333334 0.30387231516259494 0.9527127668282568 -5.841195613915289e-17 -8.498355530806587e-17 -5.841195613915289e-17 -8.498355530806587e-17 0.3038716856979012 0.9527129675988165
12645674666.666666 0.31353686815924864 0.9495760276590383 -5.926834333523177e-17 -8.436392868663443e-17 -5.926834333523177e-17 -8.436392868663443e-17 0.3135362407976475 0.9495762348049298
12646292000.0 0.32316905075540237 0.946341251681274 -6.011816935985901e-17 -8.373568065189665e-17 -6.011816935985901e-17 -8.373568065189665e-17 0.3231684255614563 0.9463414651804902
12646909333.333334 0.3327678684982692 0.9430087728621336 -6.096134750769613e-17 -8.309888056267179e-17 -6.096134750769613e-17 -8.309888056267179e-17 0.33276724553631004 0.943008992692013
12647526666.666666 0.3423323303798494 0.9395789352558571 -6.179779180544688e-17 -8.245359864885176e-17 -6.179779180544688e-17 -8.245359864885176e-17 0.34233170971397237 0.9395791613930868
12648144000.0 0.3518614489391903 0.9360520929682503 -6.262741702059422e-17 -8.179990600368995e-17 -6.262741702059422e-17 -8.179990600368995e-17 0.3518608306332474 0.936052325388869
12648761333.333334 0.3613542403642271 0.9324286101201638 -6.34501386700607e-17 -8.113787457599913e-17 -6.34501386700607e-17 -8.113787457599913e-17 0.3613536244818205 0.9324288487995633
12649378666.666666 0.3708097245933557 0.9287088608099027 -6.426587302877296e-17 -8.046757716227308e-17 -6.426587302877296e-17 -8.046757716227308e-17 0.37080911119783116 0.9287091057228318
12649996000.0 0.3802269254167493 0.9248932290745534 -6.507453713817853e-17 -7.978908739869615e-17 -6.507453713817853e-17 -7.978908739869615e-17 0.3802263145711894 0.924893480195119
12650613333.333334 0.3896048705770639 0.9209821088503607 -6.587604881464749e-17 -7.910247975308963e-17 -6.587604881464749e-17 -7.910247975308963e-17 0.38960426234428214 0.9209823661520321
12651230666.666666 0.3989425918696877 0.9169759039321173 -6.66703266577915e-17 -7.840782951677633e-17 -6.66703266577915e-17 -7.840782951677633e-17 0.3989419863122219 0.9169761673877282
12651848000.0 0.40823912524306744 0.9128750279313174 -6.745729005872475e-17 -7.770521279633531e-17 -6.745729005872475e-17 -7.770521279633531e-17 0.40823852242317243 0.9128752975130682
12652465333.333334 0.41749351089784525 0.908679904233619 -6.823685920820865e-17 -7.699470650530225e-17 -6.823685920820865e-17 -7.699470650530225e-17 0.41749291087748786 0.9086801799130813
12653082666.666666 0.4267047933860593 0.9043909659550945 -6.900895510470667e-17 -7.627638835578979e-17 -6.900895510470667e-17 -7.627638835578979e-17 0.42670419622691097 0.9043912477032123
12653700000.0 0.4358720217100167 0.9000086558974028 -6.977349956239479e-17 -7.555033684998817e-17 -6.977349956239479e-17 -7.555033684998817e-17 0.4358714274734481 0.9000089436844984
12654317333.333334 0.44499424942011856 0.8955334265022454 -7.05304152190211e-17 -7.481663127164386e-17 -7.05304152190211e-17 -7.481663127164386e-17 0.4449936581671914 0.8955337202980176
12654934666.666666 0.4540705347128032 0.8909657398045427 -7.12796255437289e-17 -7.40753516774095e-17 -7.12796255437289e-17 -7.40753516774095e-17 0.45406994650426646 0.8909660395780753
12655552000.0 0.463099940527883 0.8863060673846813 -7.202105484476596e-17 -7.332657888813767e-17 -7.202105484476596e-17 -7.332657888813767e-17 0.46309935542416464 0.8863063731044425
12656169333.333334 0.4720815346449072 0.8815548903200172 -7.275462827709467e-17 -7.257039448010665e-17 -7.275462827709467e-17 -7.257039448010665e-17 0.472080952706109 0.881555201953865
12656786666.666666 0.4810143897797629 0.8767126991350308 -7.348027184992913e-17 -7.180688077615165e-17 -7.348027184992913e-17 -7.180688077615165e-17 0.48101381106565433 0.8767130166502166
12657404000.0 0.4898975836802573 0.8717799937507589 -7.419791243416886e-17 -7.10361208367312e-17 -7.419791243416886e-17 -7.10361208367312e-17 0.489897008250269 0.8717803171139293
12658021333.333334 0.49873019922138534 0.8667572834331566 -7.490747776974362e-17 -7.025819845091577e-17 -7.490747776974362e-17 -7.025819845091577e-17 0.498729627134603 0.8667576126103581
12658638666.666666 0.5075113244998908 0.8616450867405885 -7.56088964728521e-17 -6.947319812731604e-17 -7.56088964728521e-17 -6.947319812731604e-17 0.5075107558150489 0.8616454216972695
12659256000.0 0.5162400529286602 0.8564439314701475 -7.630209804313308e-17 -6.868120508490888e-17 -7.630209804313308e-17 -6.868120508490888e-17 0.5162394877041373 0.8564442721711657
12659873333.333334 0.5249154833301014 0.8511543546032962 -7.698701287071392e-17 -6.788230524382281e-17 -7.698701287071392e-17 -6.788230524382281e-17 0.5249149216239127 0.8511547010129182
12660490666.666666 0.5335367200291603 0.8457769022504419 -7.766357224316122e-17 -6.707658521605591e-17 -7.766357224316122e-17 -6.707658521605591e-17 0.5335361618989513 0.8457772543323477
12661108000.0 0.5421028729461288 0.8403121295943441 -7.833170835237214e-17 -6.626413229608016e-17 -7.833170835237214e-17 -6.626413229608016e-17 0.5421023184491708 0.8403124873116322
12661725333.333334 0.5506130576880589 0.8347606008330976 -7.899135430131379e-17 -6.544503445144263e-17 -7.899135430131379e-17 -6.544503445144263e-17 0.5506125068812429 0.8347609641482893
12662342666.666666 0.5590663956404309 0.829122889121658 -7.96424441107129e-17 -6.461938031324137e-17 -7.96424441107129e-17 -6.461938031324137e-17 0.559065848580261 0.8291232579966993
12662960000.0 0.5674620140577186 0.8233995765127561 -8.028491272561448e-17 -6.378725916657322e-17 -8.028491272561448e-17 -6.378725916657322e-17 0.5674614708003067 0.8233999509090231
12663577333.333334 0.575799046153518 0.8175912538967913 -8.091869602186196e-17 -6.294876094089251e-17 -8.091869602186196e-17 -6.294876094089251e-17 0.5757985067545781 0.8175916337750939
12664194666.666666 0.5840766311900375 0.8116985209408263 -8.154373081245658e-17 -6.210397620033051e-17 -8.154373081245658e-17 -6.210397620033051e-17 0.5840760957048796 0.8116989062614123
12664812000.0 0.59229391456694 0.8057219860266929 -8.215995485383351e-17 -6.12529961339288e-17 -8.215995485383351e-17 -6.12529961339288e-17 0.5922933830504648 0.8057223767492521
12665429333.333334 0.6004500479096873 0.7996622661880967 -8.276730685203035e-17 -6.03959125458208e-17 -8.276730685203035e-17 -6.03959125458208e-17 0.6004495204163804 0.7996626622717651
12666046666.666666 0.6085441891568784 0.7935199870470975 -8.336572646874422e-17 -5.953281784536379e-17 -8.336572646874422e-17 -5.953281784536379e-17 0.608543665740805 0.793520388450462
12666664000.0 0.6165755026475267 0.787295782749265 -8.39551543273134e-17 -5.866380503717346e-17 -8.39551543273134e-17 -5.866380503717346e-17 0.6165749833623257 0.7872961894303673
12667281333.333334 0.6245431592069977 0.7809902958984645 -8.45355320185523e-17 -5.778896771116186e-17 -8.45355320185523e-17 -5.778896771116186e-17 0.6245426441058758 0.7809907078148046
12667898666.666666 0.6324463362328396 0.7746041774903406 -8.510680210653063e-17 -5.690840003244836e-17 -8.510680210653063e-17 -5.690840003244836e-17 0.6324458253685672 0.7746045945988835
12668516000.0 0.6402842177797092 0.7681380868451024 -8.566890813421458e-17 -5.602219673126182e-17 -8.566890813421458e-17 -5.602219673126182e-17 0.6402837112046141 0.7681385091022812
12669133333.333334 0.648055994643394 0.7615926915396373 -8.622179462900637e-17 -5.5130453092785965e-17 -8.622179462900637e-17 -5.5130453092785965e-17 0.6480554924093556 0.7615931189013567
12669750666.666666 0.6557608644446622 0.7549686673383326 -8.676540710819901e-17 -5.423326494691542e-17 -8.676540710819901e-17 -5.423326494691542e-17 0.6557603666031069 0.7549690997599756
12670368000.0 0.6633980317118832 0.7482666981234886 -8.72996920843052e-17 -5.3330728657990746e-17 -8.72996920843052e-17 -5.3330728657990746e-17 0.6633975383137786 0.7482671355599195
