! Parameters = {f0=12700.012000; bw=77.238000; Q=6100.000000; N=10; m_0_1=1.198694; m_1_1=-0.784340; m_1_2=1.033506; m_2_2=-0.784989; m_2_3=0.670469; m_2_8=-0.003002; m_2_9=0.033702; m_3_3=-0.786926; m_3_4=0.558998; m_3_7=-0.002402; m_3_8=-0.099490; m_3_9=-0.003002; m_4_4=-0.789851; m_4_5=0.395333; m_4_6=0.001115; m_4_7=-0.120039; m_4_8=-0.002402; m_5_5=-0.789469; m_5_6=0.802688; m_5_7=0.001115; m_6_6=-0.789470; m_6_7=0.395675; m_7_7=-0.789837; m_7_8=0.559116; m_8_8=-0.786928; m_8_9=0.670782; m_9_9=-0.784994; m_9_10=1.034584; m_10_10=-0.784350; m_10_11=1.199489}
!
! Created with skrf (http://scikit-rf.org).
# Hz S RI R 50.0 
!freq ReS11 ImS11 ReS21 ImS21 ReS12 ImS12 ReS22 ImS22
12607400000.0 0.9905616966836813 -0.1370675930444148 -7.108062783783416e-17 3.221354161750141e-17 -7.108062783783416e-17 3.221354161750141e-17 0.9905617832645219 -0.13706696733951926
12608017333.333334 0.9893732227514804 -0.1453981640262045 -7.079026090042764e-17 3.281038548889262e-17 -7.079026090042764e-17 3.281038548889262e-17 0.9893733145899689 -0.14539753910263087
12608634666.666666 0.9881146904279395 -0.15371843923336054 -7.049488772281536e-17 3.3404622543458363e-17 -7.049488772281536e-17 3.3404622543458363e-17 0.9881147875170566 -0.15371781513528124
12609252000.0 0.9867861888309064 -0.16202782949979985 -7.019453162349715e-17 3.399621083496202e-17 -7.019453162349715e-17 3.399621083496202e-17 0.9867862911632653 -0.1620272062713251
12609869333.333334 0.9853878120328036 -0.17032574643032583 -6.9889216272044e-17 3.458510862506684e-17 -6.9889216272044e-17 3.458510862506684e-17 0.9853879196006428 -0.1703251241154994
12610486666.666666 0.9839196590539901 -0.1786116024420665 -6.957896568724912e-17 3.5171274386272994e-17 -6.957896568724912e-17 3.5171274386272994e-17 0.9839197718491816 -0.1786109810848636
12611104000.0 0.9823818338557228 -0.18688481080630756 -6.926380423524786e-17 3.575466680484962e-17 -6.926380423524786e-17 3.575466680484962e-17 0.9823819518697677 -0.1868841904506311
12611721333.333334 0.9807744453328302 -0.19514478568981497 -6.894375662763363e-17 3.633524478371351e-17 -6.894375662763363e-17 3.633524478371351e-17 0.9807745685568604 -0.19514416637949247
12612338666.666666 0.9790976073059611 -0.2033909421965129 -6.861884791952988e-17 3.6912967445325777e-17 -6.861884791952988e-17 3.6912967445325777e-17 0.9790977357307429 -0.2033903239752941
12612956000.0 0.9773514385135489 -0.21162269640881853 -6.828910350763915e-17 3.748779413457195e-17 -6.828910350763915e-17 3.748779413457195e-17 0.9773515721294797 -0.21162207932037141
12613573333.333334 0.9755360626034157 -0.21983946542890528 -6.79545491282874e-17 3.8059684421587534e-17 -6.79545491282874e-17 3.8059684421587534e-17 0.9755362014005253 -0.2198388495168132
12614190666.666666 0.973651608123983 -0.2280406674201454 -6.761521085541825e-17 3.8628598104614914e-17 -6.761521085541825e-17 3.8628598104614914e-17 0.9736517520919361 -0.22804005272790429
12614808000.0 0.9716982085151836 -0.2362257216482265 -6.727111509858632e-17 3.9194495212801965e-17 -6.727111509858632e-17 3.9194495212801965e-17 0.9716983576432814 -0.23622510821924209
12615425333.333334 0.9696760020990398 -0.24439404852219243 -6.692228860090949e-17 3.975733600901373e-17 -6.692228860090949e-17 3.975733600901373e-17 0.9696761563762161 -0.2443934363997759
12616042666.666666 0.9675851320698191 -0.25254506963564793 -6.6568758437009e-17 4.031708099260698e-17 -6.6568758437009e-17 4.031708099260698e-17 0.9675852914846474 -0.2525444588630147
12616660000.0 0.9654257464839244 -0.260678207807636 -6.62105520109263e-17 4.08736909021864e-17 -6.62105520109263e-17 4.08736909021864e-17 0.9654259110246134 -0.26067759842790084
12617277333.333334 0.9631979982494161 -0.2687928871234512 -6.584769705400577e-17 4.1427126718361747e-17 -6.584769705400577e-17 4.1427126718361747e-17 0.9631981679038144 -0.2687922791796267
12617894666.666666 0.960902045115185 -0.27688853297545046 -6.548022162277306e-17 4.1977349666455973e-17 -6.548022162277306e-17 4.1977349666455973e-17 0.9609022198707787 -0.2768879265104429
12618512000.0 0.9585380496597148 -0.2849645721039587 -6.51081540967643e-17 4.2524321219235753e-17 -6.51081540967643e-17 4.2524321219235753e-17 0.9585382295036305 -0.28496396716056543
12619129333.333334 0.9561061792797051 -0.293020432637398 -6.473152317637098e-17 4.306800309956575e-17 -6.473152317637098e-17 4.306800309956575e-17 0.9561063641987103 -0.2930198292583047
12619746666.666666 0.9536066061780902 -0.3010555441332193 -6.435035788062047e-17 4.360835728310644e-17 -6.435035788062047e-17 4.360835728310644e-17 0.9536067961585949 -0.3010549423609965
12620364000.0 0.9510395073518675 -0.30906933761821254 -6.396468754495887e-17 4.414534600095559e-17 -6.396468754495887e-17 4.414534600095559e-17 0.9510397023799246 -0.30906873749531305
12620981333.333334 0.9484050645796687 -0.3170612456284723 -6.357454181901624e-17 4.467893174226521e-17 -6.357454181901624e-17 4.467893174226521e-17 0.948405264640975 -0.317060647197228
12621598666.666666 0.9457034644087476 -0.3250307022500131 -6.317995066433312e-17 4.520907725686229e-17 -6.317995066433312e-17 4.520907725686229e-17 0.9457036694886447 -0.32503010555263173
12622216000.0 0.9429348981418411 -0.33297714315862537 -6.278094435207212e-17 4.573574555784059e-17 -6.278094435207212e-17 4.573574555784059e-17 0.9429351082253172 -0.3329765482371881
12622833333.333334 0.9400995618236329 -0.3409000056598098 -6.237755346071e-17 4.625889992412864e-17 -6.237755346071e-17 4.625889992412864e-17 0.9400997768953221 -0.3408994125562673
12623450666.666666 0.9371976562268516 -0.3487987287286753 -6.196980887371711e-17 4.677850390302729e-17 -6.196980887371711e-17 4.677850390302729e-17 0.9371978762710385 -0.34879813748484634
12624068000.0 0.9342293868380481 -0.3566727530496937 -6.155774177719173e-17 4.729452131275859e-17 -6.155774177719173e-17 4.729452131275859e-17 0.9342296118386656 -0.3566721637072609
12624685333.333334 0.9311949638430099 -0.3645215210563835 -6.11413836574912e-17 4.7806916244968856e-17 -6.11413836574912e-17 4.7806916244968856e-17 0.9311951937836407 -0.3645209336568904
12625302666.666666 0.9280946021120197 -0.37234447697042017 -6.072076629885051e-17 4.831565306720332e-17 -6.072076629885051e-17 4.831565306720332e-17 0.9280948369758993 -0.372343891555269
12625920000.0 0.9249285211844277 -0.3801410668415482 -6.029592178095329e-17 4.882069642539195e-17 -6.029592178095329e-17 4.882069642539195e-17 0.924928760954445 -0.3801404834519969
12626537333.333334 0.921696945253281 -0.3879107385863578 -5.986688247650922e-17 4.932201124628206e-17 -5.986688247650922e-17 4.932201124628206e-17 0.9216971899119781 -0.3879101572635162
12627154666.666666 0.9184001031494184 -0.3956529420274567 -5.943368104879558e-17 4.98195627398682e-17 -5.943368104879558e-17 4.98195627398682e-17 0.9184003526789933 -0.3956523628122847
12627772000.0 0.915038228325133 -0.4033671289327444 -5.89963504491787e-17 5.031331640180049e-17 -5.89963504491787e-17 5.031331640180049e-17 0.9150384827074415 -0.4033665518660488
12628389333.333334 0.9116115588378341 -0.41105275305378797 -5.855492391463161e-17 5.080323801575331e-17 -5.855492391463161e-17 5.080323801575331e-17 0.911611818054389 -0.4110521781762192
12629006666.666666 0.90812033733305 -0.4187092701648149 -5.810943496520431e-17 5.128929365580355e-17 -5.810943496520431e-17 5.128929365580355e-17 0.9081206013650245 -0.4187086975168645
12629624000.0 0.9045648110273057 -0.4263361381011203 -5.765991740150364e-17 5.177144968875387e-17 -5.765991740150364e-17 5.177144968875387e-17 0.9045650798555345 -0.4263355677231184
12630241333.333334 0.9009452316905956 -0.43393281679751095 -5.7206405302138e-17 5.2249672776452214e-17 -5.7206405302138e-17 5.2249672776452214e-17 0.9009455052955737 -0.43393224872962227
12630858666.666666 0.8972618556285985 -0.4414987683264424 -5.674893302114601e-17 5.272392987808594e-17 -5.674893302114601e-17 5.272392987808594e-17 0.8972621339904864 -0.4414982026086649
12631476000.0 0.8935149436644496 -0.4490334569362932 -5.628753518539525e-17 5.319418825246425e-17 -5.628753518539525e-17 5.319418825246425e-17 0.8935152267630708 -0.44903289360845355
12632093333.333334 0.889704761120351 -0.4565363490891189 -5.582224669198999e-17 5.366041546024981e-17 -5.582224669198999e-17 5.366041546024981e-17 0.8897050489351978 -0.4565357881908715
12632710666.666666 0.8858315777987523 -0.4640069134985123 -5.535310270564051e-17 5.412257936618833e-17 -5.535310270564051e-17 5.412257936618833e-17 0.885831870308984 -0.46400635506933524
12633328000.0 0.8818956679632174 -0.4714446211672733 -5.488013865600025e-17 5.458064814132917e-17 -5.488013865600025e-17 5.458064814132917e-17 0.8818959651476633 -0.47144406524646637
12633945333.333334 0.8778973103190424 -0.47884894542479206 -5.4403390235020196e-17 5.5034590265187134e-17 -5.4403390235020196e-17 5.5034590265187134e-17 0.8778976121562024 -0.47884839205147306
12634562666.666666 0.8738367879934921 -0.48621936196439225 -5.392289339426397e-17 5.548437452790284e-17 -5.392289339426397e-17 5.548437452790284e-17 0.8738370944615397 -0.48621881117749555
12635180000.0 0.8697143885158098 -0.4935553488803599 -5.3438684342200435e-17 5.592997003238478e-17 -5.3438684342200435e-17 5.592997003238478e-17 0.8697146995925924 -0.4935548007186326
12635797333.333334 0.8655304037967596 -0.5008563867050736 -5.2950799541490943e-17 5.637134619641489e-17 -5.2950799541490943e-17 5.637134619641489e-17 0.8655307194597999 -0.5008558412070728
12636414666.666666 0.8612851301080487 -0.5081219584456123 -5.245927570625834e-17 5.680847275473296e-17 -5.245927570625834e-17 5.680847275473296e-17 0.861285450334548 -0.5081214156497036
12637032000.0 0.8569788680613143 -0.5153515496204427 -5.1964149799332055e-17 5.724131976110275e-17 -5.1964149799332055e-17 5.724131976110275e-17 0.8569791928281512 -0.5153510095647955
12637649333.333334 0.8526119225868014 -0.5225446482958956 -5.1465459029476556e-17 5.766985759035467e-17 -5.1465459029476556e-17 5.766985759035467e-17 0.8526122518705367 -0.5225441110184822
12638266666.666666 0.8481846029118022 -0.5297007451223689 -5.096324084861093e-17 5.809405694039668e-17 -5.096324084861093e-17 5.809405694039668e-17 0.8481849366886786 -0.5297002106609607
12638884000.0 0.843697222538802 -0.5368193333703211 -5.045753294900391e-17 5.851388883420835e-17 -5.045753294900391e-17 5.851388883420835e-17 0.8436975607847464 -0.536818801762487
12639501333.333334 0.8391500992231773 -0.5438999089663238 -4.994837326046114e-17 5.892932462180402e-17 -4.994837326046114e-17 5.892932462180402e-17 0.8391504419138043 -0.5438993802494275
12640118666.666666 0.8345435549508324 -0.5509419705285398 -4.943579994749131e-17 5.93403359821755e-17 -4.943579994749131e-17 5.93403359821755e-17 0.8345439020614416 -0.5509414447397353
12640736000.0 0.8298779159151956 -0.5579450194025343 -4.891985140643404e-17 5.97468949252281e-17 -4.891985140643404e-17 5.97468949252281e-17 0.8298782674207777 -0.5579444965787658
12641353333.333334 0.825153512494405 -0.5649085596961603 -4.840056626264064e-17 6.014897379363695e-17 -4.840056626264064e-17 6.014897379363695e-17 0.8251538683696403 -0.5649080398741569
12641970666.666666 0.820370679227643 -0.5718320983150725 -4.7877983367546946e-17 6.054654526475277e-17 -4.7877983367546946e-17 6.054654526475277e-17 0.8203710394469074 -0.5718315815313493
12642588000.0 0.8155297547915803 -0.5787151449974587 -4.735214179580148e-17 6.093958235242683e-17 -4.735214179580148e-17 6.093958235242683e-17 0.8155301193289423 -0.5787146312883102
12643205333.333334 0.8106310819764345 -0.5855572123486809 -4.682308084234881e-17 6.132805840883318e-17 -4.682308084234881e-17 6.132805840883318e-17 0.8106314508056615 -0.5855567017501823
12643822666.666666 0.8056750076615427 -0.592357815876027 -4.6290840019504154e-17 6.171194712626304e-17 -4.6290840019504154e-17 6.171194712626304e-17 0.8056753807560988 -0.592357308424028
12644440000.0 0.80066188279092 -0.5991164740228256 -4.575545905401081e-17 6.209122253889382e-17 -4.575545905401081e-17 6.209122253889382e-17 0.8006622601239712 -0.5991159697529505
12645057333.333334 0.795592062348451 -0.6058327082025051 -4.521697788409097e-17 6.24658590245286e-17 -4.521697788409097e-17 6.24658590245286e-17 0.7955924438928655 -0.6058322071501493
12645674666.666666 0.790465905332651 -0.6125060428326203 -4.46754366564733e-17 6.283583130631613e-17 -4.46754366564733e-17 6.283583130631613e-17 0.7904662910610013 -0.6125055450329476
12646292000.0 0.7852837747311894 -0.6191360053685929 -4.413087572340452e-17 6.320111445444621e-17 -4.413087572340452e-17 6.320111445444621e-17 0.7852841646157543 -0.6191355108565336
12646909333.333334 0.7800460374953774 -0.6257221263369259 -4.358333563966576e-17 6.356168388780725e-17 -4.358333563966576e-17 6.356168388780725e-17 0.7800464315081443 -0.6257216351471742
12647526666.666666 0.7747530645140825 -0.6322639393685849 -4.303285715954998e-17 6.391751537563528e-17 -4.303285715954998e-17 6.391751537563528e-17 0.7747534626267498 -0.6322634515355963
12648144000.0 0.7694052305873738 -0.63876098123213 -4.247948123384582e-17 6.42685850391229e-17 -4.247948123384582e-17 6.42685850391229e-17 0.7694056327713517 -0.638760496790119
12648761333.333334 0.7640029144001066 -0.6452127918663634 -4.192324900679796e-17 6.461486935301037e-17 -4.192324900679796e-17 6.461486935301037e-17 0.7640033206265201 -0.645212310849301
12649378666.666666 0.7585464984951641 -0.651618914412841 -4.13642018130655e-17 6.495634514714288e-17 -4.13642018130655e-17 6.495634514714288e-17 0.7585469087348543 -0.6516184368544525
12649996000.0 0.7530363692461688 -0.6579788952484664 -4.0802381174647447e-17 6.529298960801455e-17 -4.0802381174647447e-17 6.529298960801455e-17 0.753036783469696 -0.6579784211822286
12650613333.333334 0.7474729168302285 -0.6642922840174745 -4.0237828797821566e-17 6.562478028026933e-17 -4.0237828797821566e-17 6.562478028026933e-17 0.7474733350078745 -0.6642918134766146
12651230666.666666 0.7418565352004469 -0.6705586336631814 -3.9670586570055246e-17 6.595169506818728e-17 -3.9670586570055246e-17 6.595169506818728e-17 0.7418569573022146 -0.670558166680672
12651848000.0 0.7361876220577173 -0.6767775004599725 -3.910069655689389e-17 6.627371223714793e-17 -3.910069655689389e-17 6.627371223714793e-17 0.7361880480533362 -0.6767770370685329
12652465333.333334 0.730466578822793 -0.6829484440444742 -3.852820099887418e-17 6.659081041504687e-17 -3.852820099887418e-17 6.659081041504687e-17 0.7304670086817198 -0.6829479842765656
12653082666.666666 0.7246938106079215 -0.6890710274466738 -3.7953142308391905e-17 6.69029685937059e-17 -3.7953142308391905e-17 6.69029685937059e-17 0.7246942442993414 -0.689070571334497
12653700000.0 0.7188697261878451 -0.6951448171211922 -3.7375563066558134e-17 6.721016613025498e-17 -3.7375563066558134e-17 6.721016613025498e-17 0.7188701636806766 -0.6951443646966877
12654317333.333334 0.7129947379712106 -0.7011693829776154 -3.6795506020079177e-17 6.751238274846914e-17 -3.6795506020079177e-17 6.751238274846914e-17 0.7129951792341033 -0.7011689342724566
12654934666.666666 0.7070692619711237 -0.7071442984111901 -3.6213014078091134e-17 6.780959854009688e-17 -3.6213014078091134e-17 6.780959854009688e-17 0.7070697069724666 -0.7071438534567874
12655552000.0 0.7010937177757781 -0.7130691403329568 -3.562813030898385e-17 6.81017939661614e-17 -3.562813030898385e-17 6.81017939661614e-17 0.701094166483696 -0.7130686991604492
12656169333.333334 0.6950685285187976 -0.7189434891996439 -3.504089793725165e-17 6.838894985821545e-17 -3.504089793725165e-17 6.838894985821545e-17 0.6950689809011572 -0.7189430518399009
12656786666.666666 0.6889941208491347 -0.7247669290435175 -3.445136034028505e-17 6.867104741959382e-17 -3.445136034028505e-17 6.867104741959382e-17 0.6889945768735463 -0.7247664955271362
12657404000.0 0.6828709249010252 -0.7305390475016809 -3.3859561045194054e-17 6.894806822661813e-17 -3.3859561045194054e-17 6.894806822661813e-17 0.6828713845348425 -0.7305386178589814
12658021333.333334 0.6766993742633591 -0.7362594358454246 -3.3265543725588284e-17 6.921999422979013e-17 -3.3265543725588284e-17 6.921999422979013e-17 0.676699837473685 -0.7362590101064516
12658638666.666666 0.6704799059491491 -0.74192768900902 -3.266935219837941e-17 6.948680775494283e-17 -3.266935219837941e-17 6.948680775494283e-17 0.670480372702836 -0.7419272672035381
12659256000.0 0.6642129603644368 -0.7475434056185327 -3.207103042054465e-17 6.974849150437743e-17 -3.207103042054465e-17 6.974849150437743e-17 0.6642134306280898 -0.7475429877760257
12659873333.333334 0.6578989812771717 -0.7531061880201916 -3.147062248590155e-17 7.000502855796426e-17 -3.147062248590155e-17 7.000502855796426e-17 0.6578994550171497 -0.7531057741698584
12660490666.666666 0.6515384157858477 -0.7586156423084828 -3.086817262187585e-17 7.025640237421437e-17 -3.086817262187585e-17 7.025640237421437e-17 0.6515388929682675 -0.758615232479238
12661108000.0 0.6451317142876987 -0.7640713783541815 -3.026372518622918e-17 7.050259679133791e-17 -3.026372518622918e-17 7.050259679133791e-17 0.6451321948784365 -0.7640709725746521
12661725333.333334 0.6386793304469747 -0.7694730098318248 -2.9657324663838473e-17 7.074359602824824e-17 -2.9657324663838473e-17 7.074359602824824e-17 0.6386798144116688 -0.7694726081303479
12662342666.666666 0.632181721162645 -0.7748201542472148 -2.9049015663397635e-17 7.097938468556887e-17 -2.9049015663397635e-17 7.097938468556887e-17 0.6321822084666985 -0.7748197566518368
12662960000.0 0.6256393465362208 -0.7801124329643607 -2.843884291416123e-17 7.120994774659013e-17 -2.843884291416123e-17 7.120994774659013e-17 0.6256398371448023 -0.7801120395028326
12663577333.333334 0.6190526698390173 -0.7853494712324113 -2.78268512626692e-17 7.143527057820394e-17 -2.78268512626692e-17 7.143527057820394e-17 0.6190531637170666 -0.7853490819321909
12664194666.666666 0.6124221574794418 -0.790530898212125 -2.7213085669447836e-17 7.165533893181634e-17 -2.7213085669447836e-17 7.165533893181634e-17 0.6124226545916693 -0.7905305131003713
12664812000.0 0.6057482789699198 -0.795656347002162 -2.6597591205724303e-17 7.187013894422427e-17 -2.6597591205724303e-17 7.187013894422427e-17 0.6057487792808111 -0.7956559661057355
12665429333.333334 0.5990315068937149 -0.8007254546650115 -2.5980413050119938e-17 7.207965713846896e-17 -2.5980413050119938e-17 7.207965713846896e-17 0.5990320103675325 -0.8007250780104717
12666046666.666666 0.5922723168714465 -0.8057378622527135 -2.5361596485362077e-17 7.228388042465346e-17 -2.5361596485362077e-17 7.228388042465346e-17 0.5922728234722326 -0.8057374898663169
12666664000.0 0.585471187527225 -0.8106932148324085 -2.4741186894935767e-17 7.248279610074915e-17 -2.4741186894935767e-17 7.248279610074915e-17 0.5854716972188033 -0.8106928467401066
12667281333.333334 0.5786286004551483 -0.8155911615111832 -2.4119229759801846e-17 7.26763918533502e-17 -2.4119229759801846e-17 7.26763918533502e-17 0.5786291132011279 -0.8155907977386213
12667898666.666666 0.5717450401848357 -0.8204313554611898 -2.3495770655047308e-17 7.286465575842005e-17 -2.3495770655047308e-17 7.286465575842005e-17 0.5717455559486123 -0.8204309960337044
12668516000.0 0.5648209941471823 -0.8252134539441487 -2.2870855246563162e-17 7.304757628199854e-17 -2.2870855246563162e-17 7.304757628199854e-17 0.5648215128919425 -0.8252130988867669
12669133333.333334 0.5578569526401274 -0.8299371183354284 -2.224452928771518e-17 7.322514228088178e-17 -2.224452928771518e-17 7.322514228088178e-17 0.5578574743288488 -0.8299367676728641
12669750666.666666 0.550853408793558 -0.8346020141482776 -2.1616838615988503e-17 7.339734300327898e-17 -2.1616838615988503e-17 7.339734300327898e-17 0.5508539333890146 -0.8346016679049323
12670368000.0 0.54381085853458 -0.8392078110573848 -2.0987829149656945e-17 7.356416808943291e-17 -2.0987829149656945e-17 7.356416808943291e-17 0.5438113859993432 -0.8392074692573445
12670985333.333334 0.5367298005524246 -0.8437541829222529 -2.035754688442685e-17 7.372560757221795e-17 -2.035754688442685e-17 7.372560757221795e-17 0.5367303308488662 -0.8437538455892866
