! Parameters = {f0=12700.012000; bw=77.238000; Q=6100.000000; N=10; m_0_1=1.167462; m_1_1=-1.252809; m_1_2=1.002274; m_2_2=-1.253458; m_2_3=0.639237; m_2_8=-0.004563; m_2_9=0.032141; m_3_3=-1.255395; m_3_4=0.527766; m_3_7=-0.003963; m_3_8=-0.101051; m_3_9=-0.004563; m_4_4=-1.258320; m_4_5=0.364101; m_4_6=-0.000446; m_4_7=-0.121600; m_4_8=-0.003963; m_5_5=-1.257938; m_5_6=0.771456; m_5_7=-0.000446; m_6_6=-1.257939; m_6_7=0.364443; m_7_7=-1.258306; m_7_8=0.527884; m_8_8=-1.255397; m_8_9=0.639550; m_9_9=-1.253463; m_9_10=1.003352; m_10_10=-1.252819; m_10_11=1.168257}
!
! Created with skrf (http://scikit-rf.org).
# Hz S RI R 50.0 
!freq ReS11 ImS11 ReS21 ImS21 ReS12 ImS12 ReS22 ImS22
12607400000.0 0.992913964357659 -0.1188354298322208 -6.098962827630791e-17 2.629985951438444e-17 -6.098962827630791e-17 2.629985951438444e-17 0.9929140374724216 -0.1188348189297451
12608017333.333334 0.9919958335602516 -0.12627060702693835 -6.077660824681089e-17 2.675618046209968e-17 -6.077660824681089e-17 2.675618046209968e-17 0.991995911245794 -0.12626999671924308
12608634666.666666 0.9910220271714937 -0.13369869730387549 -6.056017827982644e-17 2.7210784742016094e-17 -6.056017827982644e-17 2.7210784742016094e-17 0.9910221094230074 -0.13369808762515395
12609252000.0 0.9899925998461374 -0.14111928376283528 -6.034035214725749e-17 2.7663646905144106e-17 -6.034035214725749e-17 2.7663646905144106e-17 0.9899926866585598 -0.1411186747472425
12609869333.333334 0.9889076093606584 -0.14853194992471574 -6.011714381068899e-17 2.811474161253425e-17 -6.011714381068899e-17 2.811474161253425e-17 0.9889077007286695 -0.14853134160636575
12610486666.666666 0.9877671166100214 -0.15593627975482816 -5.989056742051343e-17 2.856404363668563e-17 -5.989056742051343e-17 2.856404363668563e-17 0.9877672125280478 -0.15593567216779286
12611104000.0 0.9865711856042028 -0.16333185768664055 -5.966063731504111e-17 2.9011527862957625e-17 -5.966063731504111e-17 2.9011527862957625e-17 0.9865712860664163 -0.16333125086494743
12611721333.333334 0.9853198834646856 -0.1707182686445395 -5.94273680196082e-17 2.945716929095774e-17 -5.94273680196082e-17 2.945716929095774e-17 0.9853199884650032 -0.17071766262216975
12612338666.666666 0.984013280420636 -0.1780950980674916 -5.919077424566681e-17 2.9900943035937344e-17 -5.919077424566681e-17 2.9900943035937344e-17 0.9840133899527204 -0.17809449287837817
12612956000.0 0.9826514498049429 -0.1854619319323936 -5.895087088986476e-17 3.034282433018038e-17 -5.895087088986476e-17 3.034282433018038e-17 0.9826515638622023 -0.18546132761041917
12613573333.333334 0.9812344680501754 -0.1928183567768896 -5.87076730331231e-17 3.078278852436979e-17 -5.87076730331231e-17 3.078278852436979e-17 0.9812345866257669 -0.19281775335588536
12614190666.666666 0.9797624146842353 -0.20016395972294151 -5.8461195939695e-17 3.1220811088961405e-17 -5.8461195939695e-17 3.1220811088961405e-17 0.9797625377710609 -0.20016335723668433
12614808000.0 0.9782353723258939 -0.20749832849994423 -5.821145505621516e-17 3.165686761555069e-17 -5.821145505621516e-17 3.165686761555069e-17 0.9782354999166047 -0.20749772698215543
12615425333.333334 0.9766534266801872 -0.21482105146772512 -5.795846601074639e-17 3.209093381821676e-17 -5.795846601074639e-17 3.209093381821676e-17 0.9766535587671816 -0.21482045095206836
12616042666.666666 0.9750166665335901 -0.22213171763973183 -5.770224461180882e-17 3.252298553487409e-17 -5.770224461180882e-17 3.252298553487409e-17 0.9750168031090143 -0.22213111815981096
12616660000.0 0.9733251837490113 -0.22942991670618082 -5.74428068473987e-17 3.295299872861633e-17 -5.74428068473987e-17 3.295299872861633e-17 0.9733253248047619 -0.22942931829553878
12617277333.333334 0.9715790732606774 -0.23671523905692027 -5.718016888400527e-17 3.3380949489037536e-17 -5.718016888400527e-17 3.3380949489037536e-17 0.9715792187883991 -0.23671464174903642
12617894666.666666 0.9697784330687858 -0.24398727580450258 -5.691434706561033e-17 3.3806814033560824e-17 -5.691434706561033e-17 3.3806814033560824e-17 0.9697785830598739 -0.2439866796327911
12618512000.0 0.9679233642339756 -0.25124561880724305 -5.664535791267595e-17 3.4230568708760145e-17 -5.664535791267595e-17 3.4230568708760145e-17 0.967923518679575 -0.25124502380505115
12619129333.333334 0.9660139708717329 -0.25848986069182356 -5.637321812113763e-17 3.465218999165035e-17 -5.637321812113763e-17 3.465218999165035e-17 0.9660141297627407 -0.2584892668924297
12619746666.666666 0.9640503601464568 -0.26571959487651525 -5.609794456136429e-17 3.5071654491007796e-17 -5.609794456136429e-17 3.5071654491007796e-17 0.9640505234735194 -0.26571900231312656
12620364000.0 0.9620326422654819 -0.27293441559383025 -5.581955427712774e-17 3.5488938948650465e-17 -5.581955427712774e-17 3.5488938948650465e-17 0.9620328100190011 -0.2729338242995823
12620981333.333334 0.9599609304729484 -0.2801339179131345 -5.553806448455772e-17 3.590402024072017e-17 -5.553806448455772e-17 3.590402024072017e-17 0.9599611026430742 -0.28013332792108725
12621598666.666666 0.9578353410433352 -0.28731769776372695 -5.525349257108241e-17 3.631687537896229e-17 -5.525349257108241e-17 3.631687537896229e-17 0.9578355176199743 -0.2873171091068649
12622216000.0 0.9556559932750298 -0.2944853519572194 -5.496585609436513e-17 3.6727481511989604e-17 -5.496585609436513e-17 3.6727481511989604e-17 0.9556561742478407 -0.2944847646684484
12622833333.333334 0.9534230094835858 -0.30163647821030093 -5.4675172781224385e-17 3.713581592654885e-17 -5.4675172781224385e-17 3.713581592654885e-17 0.9534231948419817 -0.3016358923224469
12623450666.666666 0.9511365149948707 -0.30877067516728884 -5.438146052656134e-17 3.7541856048753646e-17 -5.438146052656134e-17 3.7541856048753646e-17 0.9511367047280204 -0.30877009071309625
12624068000.0 0.948796638138047 -0.31588754242260086 -5.4084737392252644e-17 3.7945579445346375e-17 -5.4084737392252644e-17 3.7945579445346375e-17 0.9487968322348739 -0.31588695943473005
12624685333.333334 0.9464035102382923 -0.322986680543471 -5.378502160605432e-17 3.8346963824922004e-17 -5.378502160605432e-17 3.8346963824922004e-17 0.9464037086874761 -0.32298609905449704
12625302666.666666 0.9439572656095768 -0.33006769109190814 -5.3482331560497983e-17 3.874598703914198e-17 -5.3482331560497983e-17 3.874598703914198e-17 0.9439574683995545 -0.33006711113431864
12625920000.0 0.9414580415469658 -0.3371301766475441 -5.3176685811750186e-17 3.914262708397727e-17 -5.3176685811750186e-17 3.914262708397727e-17 0.941458248665932 -0.3371295982537378
12626537333.333334 0.9389059783190127 -0.3441737408296423 -5.286810307850648e-17 3.9536862100883777e-17 -5.286810307850648e-17 3.9536862100883777e-17 0.9389061897549206 -0.3441731640319272
12627154666.666666 0.9363012191598895 -0.35119798831934584 -5.255660224083722e-17 3.99286703780217e-17 -5.255660224083722e-17 3.99286703780217e-17 0.9363014349004508 -0.35119741314993685
12627772000.0 0.9336439102612604 -0.3582025248821047 -5.224220233904119e-17 4.03180303514431e-17 -5.224220233904119e-17 4.03180303514431e-17 0.9336441302939456 -0.35820195137312205
12628389333.333334 0.9309342007641815 -0.3651869573895078 -5.1924922572502544e-17 4.0704920606256254e-17 -5.1924922572502544e-17 4.0704920606256254e-17 0.9309344250762224 -0.3651863855729758
12629006666.666666 0.9281722427506428 -0.3721508938415876 -5.160478229850514e-17 4.1089319877823434e-17 -5.160478229850514e-17 4.1089319877823434e-17 0.9281724713290322 -0.3721503237494323
12629624000.0 0.9253581912351159 -0.3790939433886092 -5.1281801031078965e-17 4.147120705289819e-17 -5.1281801031078965e-17 4.147120705289819e-17 0.9253584240666078 -0.37909337505265644
12630241333.333334 0.9224922041557553 -0.38601571635324305 -5.0955998439807837e-17 4.18505611707917e-17 -5.0955998439807837e-17 4.18505611707917e-17 0.9224924412268676 -0.38601514980521767
12630858666.666666 0.9195744423656663 -0.3929158242521209 -5.0627394348642835e-17 4.2227361424512474e-17 -5.0627394348642835e-17 4.2227361424512474e-17 0.9195746836626801 -0.3929152595236442
12631476000.0 0.9166050696237262 -0.39979387981800796 -5.02960087346985e-17 4.260158716190652e-17 -5.02960087346985e-17 4.260158716190652e-17 0.9166053151326843 -0.39979331694059494
12632093333.333334 0.9135842525855069 -0.4066494970212461 -4.9961861727051997e-17 4.2973217886775653e-17 -4.9961861727051997e-17 4.2973217886775653e-17 0.9135845022922202 -0.4066489360263061
12632710666.666666 0.9105121607938864 -0.4134822910915289 -4.9624973605529176e-17 4.3342233259992107e-17 -4.9624973605529176e-17 4.3342233259992107e-17 0.9105124146839305 -0.41348173201036215
12633328000.0 0.9073889666694924 -0.4202918785395718 -4.9285364799471106e-17 4.370861310061611e-17 -4.9285364799471106e-17 4.370861310061611e-17 0.9073892247282095 -0.42029132140336806
12633945333.333334 0.9042148455010974 -0.42707787717848117 -4.8943055886510186e-17 4.4072337386984704e-17 -4.8943055886510186e-17 4.4072337386984704e-17 0.904215107713598 -0.4270773220183183
12634562666.666666 0.900989975435745 -0.43383990614528123 -4.859806759133263e-17 4.443338625779592e-17 -4.859806759133263e-17 4.443338625779592e-17 0.9009902417869062 -0.43383935299212234
12635180000.0 0.8977145374687153 -0.440577585922368 -4.8250420784422724e-17 4.479174001319681e-17 -4.8250420784422724e-17 4.479174001319681e-17 0.8977148079431847 -0.4405770348070612
12635797333.333334 0.8943887154334381 -0.4472905383586542 -4.790013648081571e-17 4.514737911584135e-17 -4.790013648081571e-17 4.514737911584135e-17 0.8943889900156334 -0.4472899893119301
12636414666.666666 0.8910126959911296 -0.45397838669089746 -4.7547235838829964e-17 4.5500284191954784e-17 -4.7547235838829964e-17 4.5500284191954784e-17 0.8910129746652385 -0.45397783974336725
12637032000.0 0.8875866686203239 -0.46064075556481804 -4.719174015879677e-17 4.585043603238017e-17 -4.719174015879677e-17 4.585043603238017e-17 0.8875869513703073 -0.4606402107469727
12637649333.333334 0.8841108256062559 -0.4672772710561427 -4.683367088178361e-17 4.619781559361637e-17 -4.683367088178361e-17 4.619781559361637e-17 0.8841111124158466 -0.46727672839835016
12638266666.666666 0.880585362030014 -0.47388756069169014 -4.647304958830224e-17 4.6542403998851657e-17 -4.647304958830224e-17 4.6542403998851657e-17 0.8805856528827196 -0.47388702022419477
12638884000.0 0.8770104757576713 -0.480471253470126 -4.610989799702319e-17 4.688418253897477e-17 -4.610989799702319e-17 4.688418253897477e-17 0.8770107706367728 -0.48047071522304563
12639501333.333334 0.8733863674291278 -0.48702797988288504 -4.574423796346911e-17 4.7223132673588796e-17 -4.574423796346911e-17 4.7223132673588796e-17 0.8733866663176829 -0.4870274438862105
12640118666.666666 0.8697132404468897 -0.493557371934836 -4.5376091478710786e-17 4.755923603200633e-17 -4.5376091478710786e-17 4.755923603200633e-17 0.8697135433277322 -0.4935568382184285
12640736000.0 0.8659913009645287 -0.5000590631651574 -4.500548066803849e-17 4.7892474414248935e-17 -4.500548066803849e-17 4.7892474414248935e-17 0.8659916078202704 -0.5000585317587474
12641353333.333334 0.8622207578753345 -0.5065326886675086 -4.463242778966152e-17 4.8222829792005716e-17 -4.463242778966152e-17 4.8222829792005716e-17 0.8622210686883661 -0.5065321596006944
12641970666.666666 0.8584018228003961 -0.5129778851108584 -4.4256955233358685e-17 4.8550284309618924e-17 -4.4256955233358685e-17 4.8550284309618924e-17 0.8584021375528873 -0.5129773584131037
12642588000.0 0.8545347100768217 -0.5193942907597021 -4.387908551915089e-17 4.8874820285032973e-17 -4.387908551915089e-17 4.8874820285032973e-17 0.854535028750723 -0.5193937664603346
12643205333.333334 0.8506196367456526 -0.5257815454944625 -4.349884129595167e-17 4.9196420210747045e-17 -4.349884129595167e-17 4.9196420210747045e-17 0.8506199593226964 -0.525781023622673
12643822666.666666 0.8466568225397096 -0.5321392908316532 -4.311624534021885e-17 4.951506675474953e-17 -4.311624534021885e-17 4.951506675474953e-17 0.8466571490014108 -0.5321387714164927
12644440000.0 0.8426464898712905 -0.5384671699439484 -4.2731320554599874e-17 4.98307427614424e-17 -4.2731320554599874e-17 4.98307427614424e-17 0.8426468201989484 -0.5384666530143281
12645057333.333334 0.8385888638196289 -0.5447648276803084 -4.234408996656316e-17 5.0143431252561066e-17 -4.234408996656316e-17 5.0143431252561066e-17 0.8385891979943269 -0.5447643132649965
12645674666.666666 0.8344841721183515 -0.5510319105857678 -4.1954576727029864e-17 5.04531154280776e-17 -4.1954576727029864e-17 5.04531154280776e-17 0.8344845101209595 -0.551031398713389
12646292000.0 0.8303326451425437 -0.5572680669215115 -4.1562804108988946e-17 5.075977866710152e-17 -4.1562804108988946e-17 5.075977866710152e-17 0.8303329869537187 -0.5572675576205447
12646909333.333334 0.8261345158959744 -0.5634729466843783 -4.116879550612937e-17 5.1063404528751685e-17 -4.116879550612937e-17 5.1063404528751685e-17 0.826134861496161 -0.5634724399831554
12647526666.666666 0.8218900199979563 -0.5696462016265994 -4.077257443143048e-17 5.13639767530449e-17 -4.077257443143048e-17 5.13639767530449e-17 0.8218903693673884 -0.5696456975533034
12648144000.0 0.8175993956700885 -0.5757874852753903 -4.037416451577548e-17 5.16614792617508e-17 -4.037416451577548e-17 5.16614792617508e-17 0.8175997487887917 -0.5757869838580549
12648761333.333334 0.8132628837229058 -0.5818964529523749 -3.997358950655004e-17 5.195589615924315e-17 -3.997358950655004e-17 5.195589615924315e-17 0.8132632405706959 -0.5818959542188811
12649378666.666666 0.8088807275424733 -0.587972761792765 -3.957087326622877e-17 5.22472117333447e-17 -3.957087326622877e-17 5.22472117333447e-17 0.808881088098959 -0.5879722657708406
12649996000.0 0.804453173076515 -0.5940160707649064 -3.916603977096293e-17 5.253541045615535e-17 -3.916603977096293e-17 5.253541045615535e-17 0.8044535373210993 -0.5940155774821247
12650613333.333334 0.7999804688207754 -0.6000260406891885 -3.875911310915187e-17 5.2820476984877516e-17 -3.875911310915187e-17 5.2820476984877516e-17 0.7999808367326564 -0.6000255501729663
12651230666.666666 0.7954628658050916 -0.6060023342570582 -3.83501174800326e-17 5.3102396162612826e-17 -3.83501174800326e-17 5.3102396162612826e-17 0.7954632373632623 -0.6060018465346535
12651848000.0 0.7909006175790794 -0.6119446160502462 -3.793907719222703e-17 5.338115301917367e-17 -3.793907719222703e-17 5.338115301917367e-17 0.7909009927623318 -0.6119441311487588
12652465333.333334 0.78629398019818 -0.6178525525592302 -3.752601666231294e-17 5.365673277186394e-17 -3.752601666231294e-17 5.365673277186394e-17 0.7862943589851046 -0.6178520705055985
12653082666.666666 0.7816432122091503 -0.6237258122021337 -3.7110960413388635e-17 5.392912082624789e-17 -3.7110960413388635e-17 5.392912082624789e-17 0.7816435945781376 -0.6237253330231344
12653700000.0 0.7769485746355012 -0.6295640653434054 -3.669393307360336e-17 5.419830277692862e-17 -3.669393307360336e-17 5.419830277692862e-17 0.7769489605647404 -0.6295635890656487
12654317333.333334 0.7722103309630356 -0.6353669843120682 -3.627495937471914e-17 5.446426440828991e-17 -3.627495937471914e-17 5.446426440828991e-17 0.7722107204305211 -0.6353665109620015
12654934666.666666 0.7674287471248367 -0.6411342434204057 -3.585406415064536e-17 5.472699169524145e-17 -3.585406415064536e-17 5.472699169524145e-17 0.7674291401083659 -0.641133773024309
12655552000.0 0.7626040914864451 -0.6468655189821036 -3.5431272335960636e-17 5.498647080395812e-17 -3.5431272335960636e-17 5.498647080395812e-17 0.7626044879636192 -0.6468650515660879
12656169333.333334 0.7577366348309071 -0.652560489330288 -3.500660896446815e-17 5.524268809258235e-17 -3.500660896446815e-17 5.524268809258235e-17 0.7577370347791345 -0.6525600249202949
12656786666.666666 0.7528266503433405 -0.6582188348358604 -3.458009916769135e-17 5.5495630111950813e-17 -3.458009916769135e-17 5.5495630111950813e-17 0.7528270537398366 -0.6582183734576607
12657404000.0 0.7478744135958029 -0.6638402379251996 -3.4151768173411315e-17 5.574528360627913e-17 -3.4151768173411315e-17 5.574528360627913e-17 0.7478748204175918 -0.6638397796043908
12658021333.333334 0.7428802025317341 -0.6694243830980932 -3.3721641304173084e-17 5.599163551385302e-17 -3.3721641304173084e-17 5.599163551385302e-17 0.7428806127556496 -0.6694239278600985
12658638666.666666 0.7378442974503919 -0.6749709569454001 -3.3289743975797485e-17 5.62346729677004e-17 -3.3289743975797485e-17 5.62346729677004e-17 0.7378447110530802 -0.6749705048154684
12659256000.0 0.7327669809910484 -0.6804796481667299 -3.2856101695878986e-17 5.647438329625793e-17 -3.2856101695878986e-17 5.647438329625793e-17 0.732767397948967 -0.6804791991699319
12659873333.333334 0.7276485381172365 -0.6859501475877824 -3.242074006229488e-17 5.671075402401691e-17 -3.242074006229488e-17 5.671075402401691e-17 0.7276489584066579 -0.6859497017490115
12660490666.666666 0.722489256100703 -0.6913821481777679 -3.1983684761695326e-17 5.694377287216603e-17 -3.1983684761695326e-17 5.694377287216603e-17 0.7224896796977143 -0.691381705521737
12661108000.0 0.7172894245052245 -0.6967753450666976 -3.1544961567988787e-17 5.717342775922203e-17 -3.1544961567988787e-17 5.717342775922203e-17 0.7172898513857304 -0.6967749056179395
12661725333.333334 0.7120493351704745 -0.7021294355623738 -3.1104596340837956e-17 5.739970680164158e-17 -3.1104596340837956e-17 5.739970680164158e-17 0.7120497653101968 -0.7021289993452379
12662342666.666666 0.706769282195564 -0.7074441191674574 -3.066261502413626e-17 5.762259831442859e-17 -3.066261502413626e-17 5.762259831442859e-17 0.7067697155700451 -0.7074436862061103
12662960000.0 0.7014495619225762 -0.712719097596295 -3.021904364448058e-17 5.784209081173083e-17 -3.021904364448058e-17 5.784209081173083e-17 0.7014499985071788 -0.7127186679147183
12663577333.333334 0.696090472919855 -0.7179540747917412 -2.977390830965413e-17 5.805817300741622e-17 -2.977390830965413e-17 5.805817300741622e-17 0.6960909126897631 -0.7179536484137287
12664194666.666666 0.6906923159653641 -0.7231487569416497 -2.9327235207090845e-17 5.827083381564561e-17 -2.9327235207090845e-17 5.827083381564561e-17 0.6906927588955872 -0.7231483338908096
12664812000.0 0.6852553940297517 -0.7283028524954306 -2.887905060233559e-17 5.848006235143406e-17 -2.887905060233559e-17 5.848006235143406e-17 0.6852558400951235 -0.7283024327951806
12665429333.333334 0.6797800122592595 -0.7334160721804864 -2.842938083751535e-17 5.868584793119212e-17 -2.842938083751535e-17 5.868584793119212e-17 0.6797804614344397 -0.7334156558540537
12666046666.666666 0.674266477958826 -0.7384881290182347 -2.7978252329791927e-17 5.888818007326358e-17 -2.7978252329791927e-17 5.888818007326358e-17 0.6742669302183023 -0.7384877160886554
12666664000.0 0.6687151005745451 -0.7435187383404857 -2.7525691569808802e-17 5.908704849845139e-17 -2.7525691569808802e-17 5.908704849845139e-17 0.6687155558926362 -0.7435183288306039
12667281333.333334 0.6631261916765334 -0.7485076178052092 -2.7071725120160118e-17 5.928244313052082e-17 -2.7071725120160118e-17 5.928244313052082e-17 0.6631266500273871 -0.7485072117376739
12667898666.666666 0.657500064941355 -0.7534544874124556 -2.661637961381522e-17 5.947435409670855e-17 -2.661637961381522e-17 5.947435409670855e-17 0.657500526298952 -0.75345408480972
12668516000.0 0.6518370361343538 -0.7583590695201269 -2.6159681752572086e-17 5.966277172820566e-17 -2.6159681752572086e-17 5.966277172820566e-17 0.6518375004725089 -0.7583586704044488
12669133333.333334 0.6461374230920607 -0.7632210888594492 -2.5701658305507486e-17 5.98476865606292e-17 -2.5701658305507486e-17 5.98476865606292e-17 0.6461378903844236 -0.7632206932528874
12669750666.666666 0.6404015457042892 -0.7680402725504759 -2.52423361073914e-17 6.002908933449513e-17 -2.52423361073914e-17 6.002908933449513e-17 0.6404020159243465 -0.768039880474891
12670368000.0 0.634629725896095 -0.772816350117477 -2.4781742057139318e-17 6.020697099566227e-17 -2.4781742057139318e-17 6.020697099566227e-17 0.6346301990171718 -0.7728159615945289
