! Parameters = {f0=12700.012000; bw=77.238000; Q=6100.000000; N=10; m_0_1=1.296592; m_1_1=0.684128; m_1_2=1.131404; m_2_2=0.683479; m_2_3=0.768367; m_2_8=0.001893; m_2_9=0.038597; m_3_3=0.681542; m_3_4=0.656896; m_3_7=0.002493; m_3_8=-0.094595; m_3_9=0.001893; m_4_4=0.678617; m_4_5=0.493231; m_4_6=0.006010; m_4_7=-0.115144; m_4_8=0.002493; m_5_5=0.678999; m_5_6=0.900586; m_5_7=0.006010; m_6_6=0.678998; m_6_7=0.493573; m_7_7=0.678631; m_7_8=0.657014; m_8_8=0.681540; m_8_9=0.768680; m_9_9=0.683474; m_9_10=1.132482; m_10_10=0.684118; m_10_11=1.297387}
!
! Created with skrf (http://scikit-rf.org).
# Hz S RI R 50.0 
!freq ReS11 ImS11 ReS21 ImS21 ReS12 ImS12 ReS22 ImS22
12607400000.0 -0.9175067162336338 -0.3977202857109371 1.242580088599838e-16 1.5111772563568635e-17 1.242580088599838e-16 1.5111772563568635e-17 -0.9175064445618052 -0.3977209124340475
12608017333.333334 -0.9219457931136585 -0.38731893132126083 1.2439781037447418e-16 1.369187802993429e-17 1.2439781037447418e-16 1.369187802993429e-17 -0.9219455285596554 -0.38731956104575116
12608634666.666666 -0.9262669590476952 -0.37686804133058555 1.2452139654160662e-16 1.2270760786612655e-17 1.2452139654160662e-16 1.2270760786612655e-17 -0.9262667016446544 -0.37686867397562845
12609252000.0 -0.9304696613864396 -0.36636895234069783 1.2462875765849982e-16 1.0848605903483698e-17 1.2462875765849982e-16 1.0848605903483698e-17 -0.9304694111665801 -0.36636958782510015
12609869333.333334 -0.9345533626313741 -0.35582300711759335 1.2471988613325867e-16 9.425598512697542e-18 1.2471988613325867e-16 9.425598512697542e-18 -0.9345531196259922 -0.35582364535980665
12610486666.666666 -0.938517540503375 -0.3452315544200894 1.2479477648513028e-16 8.0019237846562e-18 1.2479477648513028e-16 8.0019237846562e-18 -0.9385173047428419 -0.34523219533822075
12611104000.0 -0.9423616880097009 -0.33459594882682275 1.2485342534439293e-16 6.5777669038862085e-18 1.2485342534439293e-16 6.5777669038862085e-18 -0.9423614595234585 -0.33459659233864486
12611721333.333334 -0.946085313508626 -0.32391755056356714 1.248958314519634e-16 5.15331304506085e-18 1.248958314519634e-16 5.15331304506085e-18 -0.9460850923251812 -0.32391819658652876
12612338666.666666 -0.9496879407724438 -0.3131977253289219 1.249219956587362e-16 3.728747348912322e-18 1.249219956587362e-16 3.728747348912322e-18 -0.9496877269193699 -0.3131983737801596
12612956000.0 -0.953169109048402 -0.30243784411956753 1.24931920924647e-16 2.304254898193271e-18 1.24931920924647e-16 2.304254898193271e-18 -0.9531689025523294 -0.3024384949159144
12613573333.333334 -0.9565283731174814 -0.2916392830553533 1.2492561231746152e-16 8.800206937227185e-19 1.2492561231746152e-16 8.800206937227185e-19 -0.9565281740040993 -0.29163993611335165
12614190666.666666 -0.9597653033514991 -0.2808034232028165 1.24903077011293e-16 -5.437703696687311e-19 1.24903077011293e-16 -5.437703696687311e-19 -0.959765111645549 -0.280804078438727
12614808000.0 -0.962879485767952 -0.26993165039887645 1.2486432428484657e-16 -1.9669335270604244e-18 1.2486432428484657e-16 -1.9669335270604244e-18 -0.9628793014932249 -0.2699323077286895
12615425333.333334 -0.9658705220829921 -0.25902535507348623 1.248093655193893e-16 -3.3892841674150752e-18 1.248093655193893e-16 -3.3892841674150752e-18 -0.9658703452623272 -0.2590260144129328
12616042666.666666 -0.9687380297623917 -0.24808593207172439 1.2473821419645066e-16 -4.810637857462474e-18 1.2473821419645066e-16 -4.810637857462474e-18 -0.9687378604176734 -0.2480865933362868
12616660000.0 -0.9714816420704138 -0.23711478047559462 1.2465088589524888e-16 -6.230810365607545e-18 1.2465088589524888e-16 -6.230810365607545e-18 -0.9714814802225675 -0.2371154435805171
12617277333.333334 -0.974101008116777 -0.2261133034248442 1.2454739828984735e-16 -7.649617685753188e-18 1.2454739828984735e-16 -7.649617685753188e-18 -0.9741008537857674 -0.226113968285144
12617894666.666666 -0.976595792901447 -0.215082907937871 1.244277711460413e-16 -9.066876061098793e-18 1.244277711460413e-16 -9.066876061098793e-18 -0.9765956461062755 -0.2150835744683491
12618512000.0 -0.9789656773576031 -0.20402500473124874 1.2429202631796818e-16 -1.0482402007953563e-17 1.2429202631796818e-16 -1.0482402007953563e-17 -0.978965538116306 -0.2040256728465011
12619129333.333334 -0.9812103583923119 -0.19294100803988737 1.2414018774445867e-16 -1.189601233938138e-17 1.2414018774445867e-16 -1.189601233938138e-17 -0.981210226721957 -0.19294167765431527
12619746666.666666 -0.9833295489253736 -0.18183233543580124 1.2397228144510744e-16 -1.33075241889357e-17 1.2397228144510744e-16 -1.33075241889357e-17 -0.9833294248420595 -0.18183300646362296
12620364000.0 -0.9853229779260497 -0.17070040764672628 1.2378833551608201e-16 -1.471675503425165e-17 1.2378833551608201e-16 -1.471675503425165e-17 -0.985322861444903 -0.17070108000198758
12620981333.333334 -0.9871903904476408 -0.15954664837486462 1.235883801256632e-16 -1.6123522720609095e-17 1.235883801256632e-16 -1.6123522720609095e-17 -0.9871902815828135 -0.1595473219714499
12621598666.666666 -0.9889315476601847 -0.14837248411429926 1.2337244750951549e-16 -1.7527645484449146e-17 1.2337244750951549e-16 -1.7527645484449146e-17 -0.9889314464248559 -0.1483731588659428
12622216000.0 -0.9905462268809477 -0.13717934396889112 1.231405719656916e-16 -1.8928941976834316e-17 1.231405719656916e-16 -1.8928941976834316e-17 -0.9905461332873163 -0.1371800197891875
12622833333.333334 -0.9920342216029187 -0.1259686594693644 1.2289278984937364e-16 -2.0327231286817452e-17 1.2289278984937364e-16 -2.0327231286817452e-17 -0.9920341356622077 -0.1259693362717805
12623450666.666666 -0.993395341521222 -0.1147418643902521 1.2262913956734886e-16 -2.1722332964758867e-17 1.2262913956734886e-16 -2.1722332964758867e-17 -0.9933952632436739 -0.11474254208813739
12624068000.0 -0.9946294125574503 -0.10350039456658196 1.2234966157221597e-16 -2.3114067045602362e-17 1.2234966157221597e-16 -2.3114067045602362e-17 -0.9946293419523257 -0.10350107307317982
12624685333.333334 -0.995736276881951 -0.09224568770998735 1.2205439835633157e-16 -2.450225407205104e-17 1.2205439835633157e-16 -2.450225407205104e-17 -0.9957362139575286 -0.09224636693844629
12625302666.666666 -0.9967157929339605 -0.0809791832253425 1.2174339444550344e-16 -2.588671511763027e-17 1.2174339444550344e-16 -2.588671511763027e-17 -0.9967157376975381 -0.08097986308872733
12625920000.0 -0.997567835439775 -0.06970232202602132 1.2141669639240107e-16 -2.726727180977316e-17 1.2141669639240107e-16 -2.726727180977316e-17 -0.997567787897664 -0.06970300243732398
12626537333.333334 -0.9982922954287144 -0.05841654635020801 1.2107435276972645e-16 -2.86437463527282e-17 1.2107435276972645e-16 -2.86437463527282e-17 -0.9982922555862425 -0.05841722722235894
12627154666.666666 -0.9988890802470866 -0.04712329957618956 1.2071641416311792e-16 -3.001596155041768e-17 1.2071641416311792e-16 -3.001596155041768e-17 -0.9988890481085962 -0.04712398082206881
12627772000.0 -0.9993581135700463 -0.03582402603750132 1.2034293316378143e-16 -3.138374082926052e-17 1.2034293316378143e-16 -3.138374082926052e-17 -0.9993580891388949 -0.03582470756994965
12628389333.333334 -0.9996993354113295 -0.024520170838802084 1.1995396436089794e-16 -3.274690826078253e-17 1.1995396436089794e-16 -3.274690826078253e-17 -0.9996993186898874 -0.024520852570632093
12629006666.666666 -0.9999127021309485 -0.013213179670401367 1.195495643337313e-16 -3.410528858428721e-17 1.195495643337313e-16 -3.410528858428721e-17 -0.9999126931206017 -0.013213861514408736
12629624000.0 -0.99999818644076 -0.0019044986238762529 1.1912979164352084e-16 -3.545870722929183e-17 1.1912979164352084e-16 -3.545870722929183e-17 -0.9999981851419062 -0.0019051804928507951
12630241333.333334 -0.9999557774079594 0.009404425993130152 1.1869470682509323e-16 -3.6806990337956554e-17 1.1869470682509323e-16 -3.6806990337956554e-17 -0.9999557838200112 0.009403744186393278
12630858666.666666 -0.999785480456481 0.020712147841796927 1.1824437237823365e-16 -3.814996478737186e-17 1.1824437237823365e-16 -3.814996478737186e-17 -0.9997854945778644 0.020711466184486077
12631476000.0 -0.9994873173662979 0.032017220737244834 1.1777885275879664e-16 -3.948745821176498e-17 1.1777885275879664e-16 -3.948745821176498e-17 -0.999487339194454 0.032016539316520744
12632093333.333334 -0.9990613262706461 0.04331819883320997 1.1729821436957816e-16 -4.081929902456974e-17 1.1729821436957816e-16 -4.081929902456974e-17 -0.9990613558020307 0.04331751773619462
12632710666.666666 -0.9985075616511406 0.054613636807213935 1.1680252555093356e-16 -4.214531644039619e-17 1.1680252555093356e-16 -4.214531644039619e-17 -0.998507598881223 0.054612956120979314
12633328000.0 -0.9978260943308056 0.06590209004535436 1.1629185657113117e-16 -4.346534049693786e-17 1.1629185657113117e-16 -4.346534049693786e-17 -0.9978261392540728 0.06590140985691152
12633945333.333334 -0.9970170114650216 0.07718211482703344 1.1576627961649417e-16 -4.477920207666369e-17 1.1576627961649417e-16 -4.477920207666369e-17 -0.9970170640749763 0.07718143522332115
12634562666.666666 -0.9960804165303817 0.08845226850951537 1.1522586878126202e-16 -4.608673292849157e-17 1.1522586878126202e-16 -4.608673292849157e-17 -0.9960804768195438 0.08845158957738918
12635180000.0 -0.9950164293114425 0.09971110971262939 1.146707000572325e-16 -4.7387765689270926e-17 1.146707000572325e-16 -4.7387765689270926e-17 -0.9950164972713536 0.09971043153885063
12635797333.333334 -0.9938251858854226 0.11095719850294342 1.1410085132314815e-16 -4.868213390518193e-17 1.1410085132314815e-16 -4.868213390518193e-17 -0.9938252615066412 0.11095652117416777
12636414666.666666 -0.9925068386048004 0.12218909657789394 1.1351640233384728e-16 -4.996967205299131e-17 1.1351640233384728e-16 -4.996967205299131e-17 -0.9925069218769063 0.12218842018066053
12637032000.0 -0.9910615560777998 0.1334053674499897 1.1291743470917527e-16 -5.1250215561179155e-17 1.1291743470917527e-16 -5.1250215561179155e-17 -0.9910616469893968 0.13340469207071023
12637649333.333334 -0.9894895231468659 0.14460457663021914 1.1230403192265204e-16 -5.252360083095015e-17 1.1230403192265204e-16 -5.252360083095015e-17 -0.9894896216855813 0.14460390235516668
12638266666.666666 -0.987790940864989 0.1557852918117656 1.1167627928991837e-16 -5.378966525707488e-17 1.1167627928991837e-16 -5.378966525707488e-17 -0.9877910470174756 0.1557846187270634
12638884000.0 -0.9859660264700199 0.16694608305299322 1.1103426395692593e-16 -5.504824724864208e-17 1.1103426395692593e-16 -5.504824724864208e-17 -0.9859661402219585 0.16694541124460407
12639501333.333334 -0.9840150133568711 0.17808552296044006 1.1037807488791474e-16 -5.629918624962619e-17 1.1037807488791474e-16 -5.629918624962619e-17 -0.9840151346929726 0.17808485251415515
12640118666.666666 -0.9819381510476863 0.1892021868712603 1.097078028531564e-16 -5.754232275932296e-17 1.097078028531564e-16 -5.754232275932296e-17 -0.9819382799516922 0.18920151787268813
12640736000.0 -0.9797357051598549 0.2002946530358208 1.0902354041642959e-16 -5.87774983527076e-17 1.0902354041642959e-16 -5.87774983527076e-17 -0.9797358416145399 0.20029398557037623
12641353333.333334 -0.9774079573721747 0.21136150279880692 1.0832538192235194e-16 -6.000455570049067e-17 1.0832538192235194e-16 -6.000455570049067e-17 -0.9774081013593524 0.2113608369517009
12641970666.666666 -0.9749552053887081 0.22240132078133076 1.076134234833845e-16 -6.122333858920952e-17 1.076134234833845e-16 -6.122333858920952e-17 -0.974955356889227 0.2224006566375584
12642588000.0 -0.9723777629007623 0.23341269506161294 1.0688776296669112e-16 -6.243369194102162e-17 1.0688776296669112e-16 -6.243369194102162e-17 -0.9723779218945158 0.23341203270594385
12643205333.333334 -0.9696759595467508 0.24439421735569863 1.061484999807298e-16 -6.363546183342639e-17 1.061484999807298e-16 -6.363546183342639e-17 -0.9696761260126727 0.24439355687266484
12643822666.666666 -0.9668501408700461 0.25534448319748365 1.0539573586164421e-16 -6.482849551878863e-17 1.0539573586164421e-16 -6.482849551878863e-17 -0.966850314786117 0.2553438246713695
12644440000.0 -0.9639006682747654 0.26626209211841917 1.0462957365942537e-16 -6.601264144372378e-17 1.0462957365942537e-16 -6.601264144372378e-17 -0.963900849618018 0.2662614356332513
12645057333.333334 -0.9608279189796 0.2771456478264592 1.038501181238721e-16 -6.718774926829356e-17 1.038501181238721e-16 -6.718774926829356e-17 -0.9608281077261172 0.2771449934659941
12645674666.666666 -0.9576322859695475 0.2879937583847195 1.0305747569031961e-16 -6.835366988506311e-17 1.0305747569031961e-16 -6.835366988506311e-17 -0.9576324820944677 0.2879931062324342
12646292000.0 -0.9543141779455683 0.2988050363897693 1.0225175446514056e-16 -6.951025543801095e-17 1.0225175446514056e-16 -6.951025543801095e-17 -0.9543143814230899 0.29880438652885044
12646909333.333334 -0.9508740192724807 0.3095780991485273 1.0143306421109437e-16 -7.065735934118198e-17 1.0143306421109437e-16 -7.065735934118198e-17 -0.9508742300758632 0.3095774516618599
12647526666.666666 -0.9473122499245373 0.32031156885558804 1.0060151633239125e-16 -7.179483629727822e-17 1.0060151633239125e-16 -7.179483629727822e-17 -0.9473124680261072 0.32031092382574594
12648144000.0 -0.9436293254292311 0.33100407276919047 9.975722385960325e-17 -7.292254231599697e-17 9.975722385960325e-17 -7.292254231599697e-17 -0.943629550800383 0.3310034302784249
12648761333.333334 -0.9398257168089994 0.34165424338689027 9.8900301434344e-17 -7.404033473223003e-17 9.8900301434344e-17 -7.404033473223003e-17 -0.9398259494202018 0.3416536035171197
12649378666.666666 -0.9359019105210497 0.3522607186202667 9.80308652937697e-17 -7.514807222404902e-17 9.80308652937697e-17 -7.514807222404902e-17 -0.9359021503418485 0.3522600814530669
12649996000.0 -0.9318584083950721 0.36282214196934104 9.714903325483519e-17 -7.62456148305688e-17 9.714903325483519e-17 -7.62456148305688e-17 -0.9318586553940935 0.3628215075859337
12650613333.333334 -0.9276957275690524 0.37333716269606126 9.625492469839942e-17 -7.733282396956256e-17 9.625492469839942e-17 -7.733282396956256e-17 -0.9276959817140067 0.373336531177304
12651230666.666666 -0.9234144004232471 0.38380443599676206 9.534866055311588e-17 -7.840956245491683e-17 9.534866055311588e-17 -7.840956245491683e-17 -0.9234146616809368 0.38380380742313924
12651848000.0 -0.9190149745119113 0.39422262317463386 9.443036327909618e-17 -7.947569451393571e-17 9.443036327909618e-17 -7.947569451393571e-17 -0.9190152428482297 0.3942219976262442
12652465333.333334 -0.9144980124934318 0.4045903918105078 9.350015685144628e-17 -8.053108580437637e-17 9.350015685144628e-17 -8.053108580437637e-17 -0.9144982878733724 0.4045897693670563
12653082666.666666 -0.9098640920583471 0.41490641593334876 9.255816674355896e-17 -8.157560343135763e-17 9.255816674355896e-17 -8.157560343135763e-17 -0.9098643744460043 0.41490579667413485
12653700000.0 -0.9051138058553064 0.4251693761901719 9.160451991023097e-17 -8.260911596405677e-17 9.160451991023097e-17 -8.260911596405677e-17 -0.905114095213883 0.4251687601940803
12654317333.333334 -0.9002477614155221 0.435377960014237 9.063934477061355e-17 -8.363149345218933e-17 9.063934477061355e-17 -8.363149345218933e-17 -0.9002480577073324 0.43537734735972755
12654934666.666666 -0.8952665810748562 0.44553086179338247 8.966277119096088e-17 -8.464260744231157e-17 8.966277119096088e-17 -8.464260744231157e-17 -0.8952668842613325 0.44553025255848
12655552000.0 -0.8901709018943124 0.45562678303682347 8.867493046718222e-17 -8.564233099393614e-17 8.867493046718222e-17 -8.564233099393614e-17 -0.890171211936007 0.4556261772991073
12656169333.333334 -0.8849613755786315 0.4656644325410669 8.767595530727398e-17 -8.663053869538567e-17 8.767595530727398e-17 -8.663053869538567e-17 -0.8849616924352266 0.46566383037766257
12656786666.666666 -0.8796386683927845 0.4756425265553814 8.666597981350424e-17 -8.760710667951359e-17 8.666597981350424e-17 -8.760710667951359e-17 -0.8796389920230929 0.4756419280429492
12657404000.0 -0.8742034610769109 0.4855597889456744 8.564513946446026e-17 -8.857191263918157e-17 8.564513946446026e-17 -8.857191263918157e-17 -0.8742037914388842 0.48555919416040055
12658021333.333334 -0.8686564487591251 0.4954149513579532 8.46135710969315e-17 -8.952483584252025e-17 8.46135710969315e-17 -8.952483584252025e-17 -0.8686567858098573 0.4954143603755396
12658638666.666666 -0.8629983408667931 0.5052067533802168 8.357141288760364e-17 -9.046575714799983e-17 8.357141288760364e-17 -9.046575714799983e-17 -0.8629986845625277 0.5052061662758718
12659256000.0 -0.8572298610355504 0.5149339427040993 8.251880433458809e-17 -9.139455901928537e-17 8.251880433458809e-17 -9.139455901928537e-17 -0.8572302113316848 0.5149333595525278
12659873333.333334 -0.8513517470169747 0.5245952752846356 8.145588623879435e-17 -9.231112553987028e-17 8.145588623879435e-17 -9.231112553987028e-17 -0.8513521038680665 0.5245946961600298
12660490666.666666 -0.8453647505841992 0.5341895154994457 8.038280068516025e-17 -9.321534242747913e-17 8.038280068516025e-17 -9.321534242747913e-17 -0.8453651139439723 0.5341889404754755
12661108000.0 -0.8392696374355659 0.5437154363070739 7.929969102365254e-17 -9.410709704831063e-17 7.929969102365254e-17 -9.410709704831063e-17 -0.8392700072569171 0.543714865456878
12661725333.333334 -0.8330671870970153 0.5531718194034146 7.82067018502153e-17 -9.498627843097333e-17 7.82067018502153e-17 -9.498627843097333e-17 -0.8330675633320191 0.5531712527995907
12662342666.666666 -0.8267581928221017 0.5625574553779816 7.710397898747033e-17 -9.585277728027893e-17 7.710397898747033e-17 -9.585277728027893e-17 -0.8267585754220173 0.5625568930925771
12662960000.0 -0.8203434614907243 0.5718711438682966 7.59916694653085e-17 -9.670648599077638e-17 7.59916694653085e-17 -9.670648599077638e-17 -0.8203438504060016 0.5718705859727998
12663577333.333334 -0.8138238135058721 0.5811116937135039 7.486992150134268e-17 -9.754729866005252e-17 7.486992150134268e-17 -9.754729866005252e-17 -0.8138242086861575 0.5811111402788343
12664194666.666666 -0.80720008268865 0.5902779231067817 7.373888448117662e-17 -9.837511110183767e-17 7.373888448117662e-17 -9.837511110183767e-17 -0.807200484082794 0.5902773742032814
12664812000.0 -0.8004731161717514 0.5993686597463241 7.259870893857299e-17 -9.918982085884785e-17 7.259870893857299e-17 -9.918982085884785e-17 -0.8004735237278156 0.5993681154437497
12665429333.333334 -0.7936437742909686 0.6083827409854798 7.144954653543351e-17 -9.999132721543432e-17 7.144954653543351e-17 -9.999132721543432e-17 -0.7936441879562309 0.6083822013529921
12666046666.666666 -0.7867129304753795 0.6173190139811496 7.029155004170209e-17 -1.0077953120995644e-16 7.029155004170209e-17 -1.0077953120995644e-16 -0.7867133501963425 0.6173184790873062
12666664000.0 -0.7796814711353164 0.6261763358416587 6.912487331504061e-17 -1.0155433564698589e-16 6.912487331504061e-17 -1.0155433564698589e-16 -0.7796818968577129 0.6261758057544036
12667281333.333334 -0.7725502955493642 0.6349535737724515 6.794967128048661e-17 -1.023156451091983e-16 6.794967128048661e-17 -1.023156451091983e-16 -0.772550727218164 0.6349530485591072
12667898666.666666 -0.7653203157491203 0.6436496052212609 6.6766099909882e-17 -1.0306336596909584e-16 6.6766099909882e-17 -1.0306336596909584e-16 -0.7653207533085391 0.6436490849485206
12668516000.0 -0.7579924564024961 0.6522633180217384 6.557431620120253e-17 -1.0379740640047263e-16 6.557431620120253e-17 -1.0379740640047263e-16 -0.7579928997960019 0.6522628027556575
12669133333.333334 -0.7505676546957498 0.6607936105353468 6.437447815781841e-17 -1.04517676389607e-16 6.437447815781841e-17 -1.04517676389607e-16 -0.7505681038660696 0.6607931003413332
12669750666.666666 -0.7430468602132946 0.6692393917926394 6.316674476753173e-17 -1.0522408774627673e-16 6.316674476753173e-17 -1.0522408774627673e-16 -0.7430473151024225 0.6692388867354462
12670368000.0 -0.7354310348164582 0.677599581632554 6.195127598158042e-17 -1.0591655411448016e-16 6.195127598158042e-17 -1.0591655411448016e-16 -0.7354314953656614 0.6775990817762704
