! Parameters = {f0=12700.012000; bw=77.238000; Q=6100.000000; N=10; m_0_1=1.263158; m_1_1=0.182627; m_1_2=1.097970; m_2_2=0.181978; m_2_3=0.734933; m_2_8=0.000222; m_2_9=0.036926; m_3_3=0.180041; m_3_4=0.623462; m_3_7=0.000822; m_3_8=-0.096266; m_3_9=0.000222; m_4_4=0.177116; m_4_5=0.459797; m_4_6=0.004339; m_4_7=-0.116815; m_4_8=0.000822; m_5_5=0.177498; m_5_6=0.867152; m_5_7=0.004339; m_6_6=0.177497; m_6_7=0.460139; m_7_7=0.177130; m_7_8=0.623580; m_8_8=0.180039; m_8_9=0.735246; m_9_9=0.181973; m_9_10=1.099048; m_10_10=0.182617; m_10_11=1.263953}
!
! Created with skrf (http://scikit-rf.org).
# Hz S RI R 50.0 
!freq ReS11 ImS11 ReS21 ImS21 ReS12 ImS12 ReS22 ImS22
12607400000.0 0.18595873621555958 -0.9825575547645732 1.0792577231511947e-17 1.0653445091183669e-16 1.0792577231511947e-17 1.0653445091183669e-16 0.1859593901265027 -0.9825574310052336
12608017333.333334 0.17580834623999253 -0.9844244132447071 1.189859862120287e-17 1.0639549734938269e-16 1.189859862120287e-17 1.0639549734938269e-16 0.17580900136129032 -0.9844242962463751
12608634666.666666 0.1656392299394406 -0.9861864151897922 1.3002897519730589e-17 1.062450690186012e-16 1.3002897519730589e-17 1.062450690186012e-16 0.16563988620119774 -0.9861863049642697
12609252000.0 0.15545247048318184 -0.9878433729192609 1.4105354959259017e-17 1.0608318671120582e-16 1.4105354959259017e-17 1.0608318671120582e-16 0.1554531278153875 -0.987843269477622
12609869333.333334 0.14524915291981827 -0.9893951099413724 1.5205852218029052e-17 1.0590987245149733e-16 1.5205852218029052e-17 1.0590987245149733e-16 0.14524981125235534 -0.9893950132939726
12610486666.666666 0.13503036406167654 -0.9908414609720345 1.630427083309627e-17 1.0572514949350004e-16 1.630427083309627e-17 1.0572514949350004e-16 0.1350310233243277 -0.990841371128502
12611104000.0 0.12479719236881828 -0.9921822719524301 1.7400492613083532e-17 1.0552904231795696e-16 1.7400492613083532e-17 1.0552904231795696e-16 0.12479785249127413 -0.9921821889216675
12611721333.333334 0.1145507278335812 -0.9934174000653615 1.8494399650851318e-17 1.0532157662920283e-16 1.8494399650851318e-17 1.0532157662920283e-16 0.11455138874544771 -0.9934173238555459
12612338666.666666 0.10429206186402767 -0.9945467137505277 1.9585874336177204e-17 1.0510277935189705e-16 1.9585874336177204e-17 1.0510277935189705e-16 0.10429272349483365 -0.9945466443691089
12612956000.0 0.09402228716777675 -0.9955700927185216 2.0674799368368278e-17 1.0487267862763155e-16 2.0674799368368278e-17 1.0487267862763155e-16 0.09402294944698121 -0.9955700301722205
12613573333.333334 0.08374249763595258 -0.9964874279636036 2.176105776883517e-17 1.0463130381140827e-16 2.176105776883517e-17 1.0463130381140827e-16 0.08374316049295248 -0.9964873722584128
12614190666.666666 0.07345378822621637 -0.9972986217753655 2.2844532893656105e-17 1.0437868546798075e-16 2.2844532893656105e-17 1.0437868546798075e-16 0.07345445159035403 -0.997298572916549
12614808000.0 0.06315725484636205 -0.998003587749111 2.392510844605499e-17 1.0411485536807479e-16 2.392510844605499e-17 1.0411485536807479e-16 0.06315791864693267 -0.9980035457412026
12615425333.333334 0.05285399423764179 -0.9986022507950563 2.5002668488881848e-17 1.0383984648447155e-16 2.5002668488881848e-17 1.0383984648447155e-16 0.052854658403901064 -0.9986022156418602
12616042666.666666 0.042545103857776316 -0.9990945471463434 2.607709745701956e-17 1.0355369298796749e-16 2.607709745701956e-17 1.0355369298796749e-16 0.042545768318947796 -0.999094518850932
12616660000.0 0.032231681764143 -0.9994804243658202 2.7148280169745518e-17 1.0325643024320677e-16 2.7148280169745518e-17 1.0325643024320677e-16 0.03223234644942588 -0.9994804029305376
12617277333.333334 0.021914826496872934 -0.9997598413516303 2.821610184307642e-17 1.0294809480437873e-16 2.821610184307642e-17 1.0294809480437873e-16 0.021915491335449375 -0.9997598267780874
12617894666.666666 0.011595636961810714 -0.99993276834159 2.928044810201814e-17 1.0262872441080059e-16 2.928044810201814e-17 1.0262872441080059e-16 0.011596301882853516 -0.9999327606306672
12618512000.0 0.001275212313236539 -0.9999991869163606 3.034120499283087e-17 1.0229835798235517e-16 3.034120499283087e-17 1.0229835798235517e-16 0.001275877245916661 -0.9999991860682085
12619129333.333334 -0.009045348162727698 -0.9999590900014063 3.1398258995153553e-17 1.0195703561482925e-16 3.1398258995153553e-17 1.0195703561482925e-16 -0.009044683289233623 -0.9999590960154439
12619746666.666666 -0.01936494516566425 -0.9998124818677531 3.245149703417557e-17 1.0160479857509725e-16 3.245149703417557e-17 1.0160479857509725e-16 -0.019364280422166355 -0.9998124947426681
12620364000.0 -0.02968247949786684 -0.9995593781315263 3.350080649269986e-17 1.0124168929619521e-16 3.350080649269986e-17 1.0124168929619521e-16 -0.02968181495515448 -0.9995593978652765
12620981333.333334 -0.03999685218108136 -0.9991998057522975 3.4546075223126484e-17 1.0086775137228107e-16 3.4546075223126484e-17 1.0086775137228107e-16 -0.03999618790991558 -0.99919983234211
12621598666.666666 -0.05030696457404724 -0.9987338030302025 3.558719155946086e-17 1.0048302955344323e-16 3.558719155946086e-17 1.0048302955344323e-16 -0.05030630064515323 -0.9987338364725737
12622216000.0 -0.06061171848915044 -0.9981614196018688 3.662404432919614e-17 1.0008756974040928e-16 3.662404432919614e-17 1.0008756974040928e-16 -0.060611054973210024 -0.9981614598925669
12622833333.333334 -0.07091001630965317 -0.997482716435122 3.76565228651578e-17 9.968141897912573e-17 3.76565228651578e-17 9.968141897912573e-17 -0.07090935327729736 -0.9974827635691864
12623450666.666666 -0.08120076110640868 -0.996697765822502 3.868451701729762e-17 9.92646254552132e-17 3.868451701729762e-17 9.92646254552132e-17 -0.08120009862820983 -0.9966978197942418
12624068000.0 -0.09148285675475758 -0.9958066513735558 3.9707917164426307e-17 9.883723848829883e-17 3.9707917164426307e-17 9.883723848829883e-17 -0.09148219490122247 -0.9958067121765554
12624685333.333334 -0.10175520805148118 -0.9948094680059222 4.0726614225873664e-17 9.839930852623381e-17 4.0726614225873664e-17 9.839930852623381e-17 -0.10175454689304288 -0.9948095356330363
12625302666.666666 -0.11201672083108885 -0.9937063219352466 4.17404996730799e-17 9.795088713919317e-17 4.17404996730799e-17 9.795088713919317e-17 -0.11201606043809967 -0.9937063963786055
12625920000.0 -0.12226630208270388 -0.99249733066384 4.2749465541167045e-17 9.749202701363692e-17 4.2749465541167045e-17 9.749202701363692e-17 -0.12226564252542758 -0.9924974119148475
12626537333.333334 -0.1325028600662593 -0.9911826229681829 4.3753404440364336e-17 9.702278194618771e-17 4.3753404440364336e-17 9.702278194618771e-17 -0.13250220141486402 -0.9911827110175203
12627154666.666666 -0.14272530442887088 -0.9897623388852048 4.4752209567447625e-17 9.654320683735655e-17 4.4752209567447625e-17 9.654320683735655e-17 -0.1427246467534212 -0.9897624337228289
12627772000.0 -0.15293254632106063 -0.9882366296973528 4.574577471708488e-17 9.605335768515984e-17 4.574577471708488e-17 9.605335768515984e-17 -0.1529318896915102 -0.9882367313124975
12628389333.333334 -0.16312349851251073 -0.9866056579165072 4.6733994293058773e-17 9.555329157864842e-17 4.6733994293058773e-17 9.555329157864842e-17 -0.16312284299869542 -0.9866057662976886
12629006666.666666 -0.1732970755082087 -0.9848695972666269 4.771676331952201e-17 9.504306669126972e-17 4.771676331952201e-17 9.504306669126972e-17 -0.17329642117983823 -0.9848697124016385
12629624000.0 -0.18345219366367538 -0.9830286326653007 4.869397745208338e-17 9.45227422741635e-17 4.869397745208338e-17 9.45227422741635e-17 -0.18345154059032676 -0.9830287545412196
12630241333.333334 -0.19358777130075536 -0.9810829602039941 4.966553298888338e-17 9.399237864931242e-17 4.966553298888338e-17 9.399237864931242e-17 -0.19358711955186494 -0.9810830888071805
12630858666.666666 -0.20370272882244045 -0.9790327871272321 5.0631326881547716e-17 9.345203720260444e-17 5.0631326881547716e-17 9.345203720260444e-17 -0.20370207846729682 -0.9790329224433308
12631476000.0 -0.2137959888283663 -0.9768783318104288 5.1591256746140143e-17 9.290178037674256e-17 5.1591256746140143e-17 9.290178037674256e-17 -0.21379533993610278 -0.976878473824371
12632093333.333334 -0.22386647622912584 -0.9746198237367126 5.254522087393561e-17 9.23416716640992e-17 5.254522087393561e-17 9.23416716640992e-17 -0.223865828868713 -0.9746199724327171
12632710666.666666 -0.23391311836086714 -0.9722575034724701 5.349311824220655e-17 9.17717755994111e-17 5.349311824220655e-17 9.17717755994111e-17 -0.23391247260110626 -0.9722576588340475
12633328000.0 -0.24393484509985477 -0.9697916226416556 5.443484852489781e-17 9.119215775237967e-17 5.443484852489781e-17 9.119215775237967e-17 -0.2439342010093693 -0.969791784651606
12633945333.333334 -0.2539305889761203 -0.9672224438990582 5.5370312103202225e-17 9.060288472017635e-17 5.5370312103202225e-17 9.060288472017635e-17 -0.2539299466233493 -0.9672226125394757
12634562666.666666 -0.2638992852872211 -0.9645502409023178 5.629941007607587e-17 9.000402411982663e-17 5.629941007607587e-17 9.000402411982663e-17 -0.26389864474041225 -0.9645504161545934
12635180000.0 -0.2738398722117861 -0.9617752982827426 5.722204427068176e-17 8.939564458048037e-17 5.722204427068176e-17 8.939564458048037e-17 -0.2738392335389877 -0.9617754801275638
12635797333.333334 -0.28375129092255935 -0.9588979116149993 5.813811725273255e-17 8.87778157355863e-17 5.813811725273255e-17 8.87778157355863e-17 -0.28375065419161355 -0.9588981000323534
12636414666.666666 -0.2936324856989918 -0.9559183873856898 5.904753233673688e-17 8.815060821496975e-17 5.904753233673688e-17 8.815060821496975e-17 -0.2936318509775273 -0.9559185823548664
12637032000.0 -0.3034824040400189 -0.9528370429606082 5.995019359620842e-17 8.751409363677376e-17 5.995019359620842e-17 8.751409363677376e-17 -0.3034817713954441 -0.9528372444602012
12637649333.333334 -0.3132999967759784 -0.9496542065509942 6.084600587374082e-17 8.686834459932799e-17 6.084600587374082e-17 8.686834459932799e-17 -0.3132993662754731 -0.9496544145589032
12638266666.666666 -0.3230842181803067 -0.9463702171785869 6.173487479100819e-17 8.621343467290628e-17 6.173487479100819e-17 8.621343467290628e-17 -0.32308358989081665 -0.9463704316720217
12638884000.0 -0.33283402608109103 -0.9429854246394681 6.261670675869732e-17 8.554943839136899e-17 6.261670675869732e-17 8.554943839136899e-17 -0.3328334000693195 -0.942985645594949
12639501333.333334 -0.3425483819720194 -0.9395001894668135 6.349140898633027e-17 8.487643124371708e-17 6.349140898633027e-17 8.487643124371708e-17 -0.34254775830442047 -0.9395004168601749
12640118666.666666 -0.35222625112275846 -0.9359148828925812 6.435888949198032e-17 8.419448966555978e-17 6.435888949198032e-17 8.419448966555978e-17 -0.3522256298655303 -0.9359151166989751
12640736000.0 -0.36186660268978277 -0.9322298868077452 6.521905711197077e-17 8.350369103042614e-17 6.521905711197077e-17 8.350369103042614e-17 -0.36186598390886066 -0.9322301270016426
12641353333.333334 -0.3714684098253225 -0.9284455937219328 6.607182151036454e-17 8.280411364106867e-17 6.607182151036454e-17 8.280411364106867e-17 -0.3714677935863707 -0.9284458402771264
12641970666.666666 -0.3810306497874835 -0.9245624067213386 6.691709318846712e-17 8.209583672058624e-17 6.691709318846712e-17 8.209583672058624e-17 -0.3810300361558901 -0.9245626596109469
12642588000.0 -0.39055230404884 -0.9205807394259172 6.775478349418309e-17 8.137894040349184e-17 6.775478349418309e-17 8.137894040349184e-17 -0.39055169308970794 -0.9205809986223854
12643205333.333334 -0.40003235840487145 -0.9165010159453522 6.858480463128006e-17 8.065350572668349e-17 6.858480463128006e-17 8.065350572668349e-17 -0.4000317501830136 -0.916501281420458
12643822666.666666 -0.4094698030822536 -0.9123236708337708 6.94070696685767e-17 7.991961462030339e-17 6.94070696685767e-17 7.991961462030339e-17 -0.40946919766218454 -0.9123239425586246
12644440000.0 -0.41886363284620487 -0.9080491490435446 7.022149254899922e-17 7.917734989853312e-17 7.022149254899922e-17 7.917734989853312e-17 -0.4188630302921347 -0.9080494269885956
12645057333.333334 -0.4282128471075092 -0.9036779058779227 7.102798809857893e-17 7.842679525026389e-17 7.102798809857893e-17 7.842679525026389e-17 -0.42821224748333575 -0.9036781900129581
12645674666.666666 -0.4375164500292497 -0.8992104069424629 7.182647203531403e-17 7.766803522970711e-17 7.182647203531403e-17 7.766803522970711e-17 -0.4375158533985537 -0.8992106972366164
12646292000.0 -0.4467734506329823 -0.8946471280953872 7.261686097797999e-17 7.690115524686983e-17 7.261686097797999e-17 7.690115524686983e-17 -0.44677285705901887 -0.8946474245171379
12646909333.333334 -0.4559828629038815 -0.8899885553970943 7.339907245477369e-17 7.612624155800378e-17 7.339907245477369e-17 7.612624155800378e-17 -0.4559822724495736 -0.8899888579142712
12647526666.666666 -0.46514370589617426 -0.8852351850581853 7.417302491190547e-17 7.534338125591826e-17 7.417302491190547e-17 7.534338125591826e-17 -0.46514311862410723 -0.8852354936379732
12648144000.0 -0.47425500383752395 -0.8803875233866604 7.493863772208385e-17 7.455266226021033e-17 7.493863772208385e-17 7.455266226021033e-17 -0.47425441980993727 -0.8803878379955994
12648761333.333334 -0.4833157862327872 -0.8754460867340771 7.569583119286926e-17 7.375417330743712e-17 7.569583119286926e-17 7.375417330743712e-17 -0.4833152055115698 -0.8754464073380707
12649378666.666666 -0.4923250879675419 -0.8704114014404797 7.644452657494428e-17 7.294800394118185e-17 7.644452657494428e-17 7.294800394118185e-17 -0.4923245106142236 -0.8704117280047947
12649996000.0 -0.5012819494109315 -0.8652840037782994 7.718464607027635e-17 7.213424450203889e-17 7.718464607027635e-17 7.213424450203889e-17 -0.5012813754866778 -0.8652843362675716
12650613333.333334 -0.510185416517735 -0.8600644398953208 7.791611284017847e-17 7.131298611751146e-17 7.791611284017847e-17 7.131298611751146e-17 -0.5101848460833401 -0.8600647782735585
12651230666.666666 -0.5190345409300375 -0.8547532657564825 7.863885101324285e-17 7.048432069185109e-17 7.863885101324285e-17 7.048432069185109e-17 -0.5190339740459181 -0.85475360998707
12651848000.0 -0.5278283800784138 -0.8493510470845513 7.93527856931937e-17 6.964834089578412e-17 7.93527856931937e-17 6.964834089578412e-17 -0.5278278168046026 -0.8493513971302539
12652465333.333334 -0.5365659972820358 -0.8438583593000434 8.005784296661307e-17 6.880514015618355e-17 8.005784296661307e-17 6.880514015618355e-17 -0.5365654376781744 -0.8438587151230094
12653082666.666666 -0.5452464618485893 -0.8382757874598433 8.075394991055614e-17 6.79548126456618e-17 8.075394991055614e-17 6.79548126456618e-17 -0.5452459059739239 -0.8382761490216107
12653700000.0 -0.5538688491735757 -0.8326039261947815 8.144103460007613e-17 6.709745327206432e-17 8.144103460007613e-17 6.709745327206432e-17 -0.5538682970869483 -0.8326042934562796
12654317333.333334 -0.5624322408383885 -0.826843379646554 8.211902611560948e-17 6.623315766792247e-17 8.211902611560948e-17 6.623315766792247e-17 -0.5624316925982328 -0.82684375256811
12654934666.666666 -0.5709357247085232 -0.820994761403129 8.278785455027552e-17 6.536202217979904e-17 8.278785455027552e-17 6.536202217979904e-17 -0.5709351803728566 -0.82099513994447
12655552000.0 -0.5793783950306569 -0.8150586944334294 8.344745101705614e-17 6.448414385757012e-17 8.344745101705614e-17 6.448414385757012e-17 -0.5793778546570768 -0.8150590785536898
12656169333.333334 -0.5877593525288501 -0.8090358110211769 8.409774765583494e-17 6.359962044367073e-17 8.409774765583494e-17 6.359962044367073e-17 -0.5877588161745247 -0.8090362006788988
12656786666.666666 -0.5960777045007255 -0.8029267526972631 8.473867764037706e-17 6.270855036219819e-17 8.473867764037706e-17 6.270855036219819e-17 -0.5960771722223905 -0.8029271478504043
12657404000.0 -0.6043325649122564 -0.7967321701716338 8.537017518513957e-17 6.181103270801722e-17 8.537017518513957e-17 6.181103270801722e-17 -0.6043320367662067 -0.7967325707775692
12658021333.333334 -0.6125230544923465 -0.7904527232638225 8.599217555200673e-17 6.090716723574451e-17 8.599217555200673e-17 6.090716723574451e-17 -0.6125225305344328 -0.7904531292793529
12658638666.666666 -0.6206483008263081 -0.784089080832812 8.660461505687704e-17 5.999705434870923e-17 8.660461505687704e-17 5.999705434870923e-17 -0.6206477811119286 -0.7840894922141646
12659256000.0 -0.6287074384489424 -0.7776419207056655 8.720743107616952e-17 5.908079508779622e-17 8.720743107616952e-17 5.908079508779622e-17 -0.6287069230330384 -0.7776423374085003
12659873333.333334 -0.6366996089366592 -0.7711119296053797 8.780056205317051e-17 5.815849112028636e-17 8.780056205317051e-17 5.815849112028636e-17 -0.6366990978737086 -0.7711123515847949
12660490666.666666 -0.6446239609988462 -0.7644998030777936 8.838394750429523e-17 5.723024472858663e-17 8.838394750429523e-17 5.723024472858663e-17 -0.6446234543428578 -0.764500230288329
12661108000.0 -0.6524796505686971 -0.7578062454173744 8.895752802522997e-17 5.629615879889429e-17 8.895752802522997e-17 5.629615879889429e-17 -0.6524791483732056 -0.7578066778130179
12661725333.333334 -0.6602658408929457 -0.751031969592346 8.952124529691839e-17 5.535633680986186e-17 8.952124529691839e-17 5.535633680986186e-17 -0.660265343211005 -0.7510324071265373
12662342666.666666 -0.6679817026211636 -0.744177697168598 9.007504209148132e-17 5.441088282111555e-17 9.007504209148132e-17 5.441088282111555e-17 -0.6679812095053419 -0.7441781397942342
12662960000.0 -0.6756264138939304 -0.7372441582329793 9.061886227797647e-17 5.34599014617788e-17 9.061886227797647e-17 5.34599014617788e-17 -0.6756259253963046 -0.7372446059024197
12663577333.333334 -0.6831991604305205 -0.7302320913153975 9.11526508280469e-17 5.250349791892368e-17 9.11526508280469e-17 5.250349791892368e-17 -0.68319867660267 -0.7302325439804684
12664194666.666666 -0.6906991356155743 -0.7231422433102124 9.167635382146014e-17 5.1541777925945694e-17 9.167635382146014e-17 5.1541777925945694e-17 -0.6906986565085766 -0.7231427009222138
12664812000.0 -0.6981255405849525 -0.7159753693967377 9.218991845151112e-17 5.0574847750906884e-17 9.218991845151112e-17 5.0574847750906884e-17 -0.6981250662493775 -0.7159758319064468
12665429333.333334 -0.7054775843109944 -0.7087322329586476 9.269329303030437e-17 4.960281418482346e-17 9.269329303030437e-17 4.960281418482346e-17 -0.7054771147968989 -0.7087327003163253
12666046666.666666 -0.712754483686508 -0.7014136055029213 9.318642699391777e-17 4.862578452989348e-17 9.318642699391777e-17 4.862578452989348e-17 -0.7127540190434294 -0.7014140776583155
12666664000.0 -0.7199554636085462 -0.6940202665773039 9.366927090745074e-17 4.7643866587654675e-17 9.366927090745074e-17 4.7643866587654675e-17 -0.7199550038854993 -0.6940207434796581
12667281333.333334 -0.7270797570606262 -0.6865530036876158 9.41417764699157e-17 4.665716864715989e-17 9.41417764699157e-17 4.665716864715989e-17 -0.7270793023060977 -0.6865534852856731
12667898666.666666 -0.7341266051945741 -0.6790126122137338 9.460389651904875e-17 4.566579947301625e-17 9.460389651904875e-17 4.566579947301625e-17 -0.7341261554565144 -0.6790130984557401
12668516000.0 -0.7410952574114602 -0.6713998953247373 9.505558503596875e-17 4.4669868293427584e-17 9.505558503596875e-17 4.4669868293427584e-17 -0.7410948127372836 -0.6714003861584513
12669133333.333334 -0.7479849714413274 -0.6637156638936171 9.549679714970126e-17 4.366948478821675e-17 9.549679714970126e-17 4.366948478821675e-17 -0.7479845318779011 -0.6637161592663113
12669750666.666666 -0.754795013422381 -0.6559607364107509 9.592748914161052e-17 4.2664759076727137e-17 9.592748914161052e-17 4.2664759076727137e-17 -0.7547945790160265 -0.6559612362692215
12670368000.0 -0.7615246579792018 -0.6481359388966857 9.634761844967661e-17 4.1655801705744074e-17 9.634761844967661e-17 4.1655801705744074e-17 -0.7615242287756844 -0.6481364431872548
