! Parameters = {f0=12700.012000; bw=77.238000; Q=6100.000000; N=10; m_0_1=1.292988; m_1_1=0.630074; m_1_2=1.127800; m_2_2=0.629425; m_2_3=0.764763; m_2_8=0.001713; m_2_9=0.038417; m_3_3=0.627488; m_3_4=0.653292; m_3_7=0.002313; m_3_8=-0.094775; m_3_9=0.001713; m_4_4=0.624563; m_4_5=0.489627; m_4_6=0.005830; m_4_7=-0.115324; m_4_8=0.002313; m_5_5=0.624945; m_5_6=0.896982; m_5_7=0.005830; m_6_6=0.624944; m_6_7=0.489969; m_7_7=0.624577; m_7_8=0.653410; m_8_8=0.627486; m_8_9=0.765076; m_9_9=0.629420; m_9_10=1.128878; m_10_10=0.630064; m_10_11=1.293783}
!
! Created with skrf (http://scikit-rf.org).
# Hz S RI R 50.0 
!freq ReS11 ImS11 ReS21 ImS21 ReS12 ImS12 ReS22 ImS22
12607400000.0 0.8496409963403639 -0.5273615243242255 -8.185306321604185e-17 9.196373019746791e-17 -8.185306321604185e-17 9.196373019746791e-17 0.8496413555684391 -0.527360945565409
12608017333.333334 0.843680022270704 -0.5368463653794464 -8.079366078858497e-17 9.286388122410913e-17 -8.079366078858497e-17 9.286388122410913e-17 0.8436803879417633 -0.5368457907092619
12608634666.666666 0.8376131702223328 -0.5462638346714073 -7.972437249792306e-17 9.375184016416036e-17 -7.972437249792306e-17 9.375184016416036e-17 0.8376135422898582 -0.5462632641615698
12609252000.0 0.8314412015574508 -0.5556127503509254 -7.864533852284058e-17 9.462749859957453e-17 -7.864533852284058e-17 9.462749859957453e-17 0.8314415799741252 -0.5556121840726201
12609869333.333334 0.825164890829941 -0.5648919391719349 -7.755670022936864e-17 9.549074972253346e-17 -7.755670022936864e-17 9.549074972253346e-17 0.8251652755476557 -0.5648913771958095
12610486666.666666 0.8187850256881855 -0.5741002366387035 -7.645860015231853e-17 9.634148834841775e-17 -7.645860015231853e-17 9.634148834841775e-17 0.8187854166580456 -0.5740996790348589
12611104000.0 0.8123024067760574 -0.5832364871522039 -7.535118197663008e-17 9.717961092859956e-17 -7.535118197663008e-17 9.717961092859956e-17 0.812302803948388 -0.583235933990185
12611721333.333334 0.8057178476326695 -0.5922995441548096 -7.423459051864866e-17 9.800501556296752e-17 -7.423459051864866e-17 9.800501556296752e-17 0.8057182509570238 -0.5922989955035982
12612338666.666666 0.7990321745901201 -0.6012882702744172 -7.310897170720304e-17 9.88176020122868e-17 -7.310897170720304e-17 9.88176020122868e-17 0.7990325840152823 -0.6012877262024214
12612956000.0 0.7922462266697838 -0.6102015374671776 -7.197447256456111e-17 9.961727171033042e-17 -7.197447256456111e-17 9.961727171033042e-17 0.7922466421437776 -0.6102009980422238
12613573333.333334 0.7853608554771742 -0.6190382271588548 -7.083124118730873e-17 1.0040392777575504e-16 -7.083124118730873e-17 1.0040392777575504e-16 0.7853612769472712 -0.619037692448181
12614190666.666666 0.7783769250949027 -0.6277972303854328 -6.967942672701626e-17 1.0117747502381597e-16 -6.967942672701626e-17 1.0117747502381597e-16 0.7783773525076259 -0.6277967004556779
12614808000.0 0.771295311974324 -0.6364774479321695 -6.851917937083541e-17 1.0193781997782085e-16 -6.851917937083541e-17 1.0193781997782085e-16 0.7712957452754552 -0.6364769228493657
12615425333.333334 0.7641169048255254 -0.6450777904715647 -6.735065032195155e-17 1.0268487088037536e-16 -6.735065032195155e-17 1.0268487088037536e-16 0.7641173439601142 -0.64507727030113
12616042666.666666 0.7568426045058035 -0.6535971787000691 -6.617399177991746e-17 1.0341853770440396e-16 -6.617399177991746e-17 1.0341853770440396e-16 0.7568430494181722 -0.6535966635067983
12616660000.0 0.7494733239066054 -0.6620345434735276 -6.498935692086721e-17 1.041387321639447e-16 -6.498935692086721e-17 1.041387321639447e-16 0.7494737745403571 -0.6620340333215858
12617277333.333334 0.7420099878389492 -0.670388825941378 -6.379689987761098e-17 1.0484536772472102e-16 -6.379689987761098e-17 1.0484536772472102e-16 0.7420104441369748 -0.6703883208942903
12617894666.666666 0.7344535329174791 -0.6786589776794022 -6.25967757196364e-17 1.05538359614473e-16 -6.25967757196364e-17 1.05538359614473e-16 0.7344539948219632 -0.6786584778000466
12618512000.0 0.7268049074426339 -0.6868439608216134 -6.138914043293536e-17 1.062176248330974e-16 -6.138914043293536e-17 1.062176248330974e-16 0.7268053748950644 -0.6868434661722141
12619129333.333334 0.7190650712820275 -0.6949427481900864 -6.017415089982724e-17 1.0688308216249615e-16 -6.017415089982724e-17 1.0688308216249615e-16 0.7190655442232013 -0.6949422588322053
12619746666.666666 0.7112349957497196 -0.7029543234241564 -5.89519648785736e-17 1.0753465217625431e-16 -5.89519648785736e-17 1.0753465217625431e-16 0.7112354741197506 -0.7029538394186848
12620364000.0 0.7033156634843355 -0.7108776811079435 -5.772274098293377e-17 1.0817225724905788e-16 -5.772274098293377e-17 1.0817225724905788e-16 0.7033161472226626 -0.7108772025150951
12620981333.333334 0.6953080683259303 -0.7187118268963449 -5.648663866164475e-17 1.0879582156586725e-16 -5.648663866164475e-17 1.0879582156586725e-16 0.6953085573713238 -0.7187113537756488
12621598666.666666 0.6872132151910667 -0.7264557776400249 -5.524381817774439e-17 1.0940527113088703e-16 -5.524381817774439e-17 1.0940527113088703e-16 0.6872137094816385 -0.7264553100503177
12622216000.0 0.6790321199468048 -0.7341085615086955 -5.399444058784439e-17 1.1000053377627548e-16 -5.399444058784439e-17 1.1000053377627548e-16 0.6790326194200126 -0.7341080995081127
12622833333.333334 0.6707658092831688 -0.741669218113111 -5.273866772128945e-17 1.1058153917062975e-16 -5.273866772128945e-17 1.1058153917062975e-16 0.670766313875828 -0.7416687617590831
12623450666.666666 0.6624153205843922 -0.7491367986255217 -5.147666215924441e-17 1.1114821882722408e-16 -5.147666215924441e-17 1.1114821882722408e-16 0.6624158302326805 -0.7491363479747633
12624068000.0 0.6539817017986224 -0.7565103658988398 -5.0208587213668996e-17 1.117005061120224e-16 -5.0208587213668996e-17 1.117005061120224e-16 0.6539822164380902 -0.7565099210073452
12624685333.333334 0.6454660113063855 -0.763788994584265 -4.8934606906200605e-17 1.1223833625145291e-16 -4.8934606906200605e-17 1.1223833625145291e-16 0.6454665308719639 -0.7637885555073008
12625302666.666666 0.6368693177879822 -0.7709717712472272 -4.765488594704138e-17 1.12761646339906e-16 -4.765488594704138e-17 1.12761646339906e-16 0.6368698422139889 -0.7709713380393239
12625920000.0 0.628192700089046 -0.778057794482294 -4.6369589713606374e-17 1.1327037534706034e-16 -4.6369589713606374e-17 1.1327037534706034e-16 0.6281932293091957 -0.7780573671972403
12626537333.333334 0.6194372470854578 -0.7850461750260345 -4.5078884229267144e-17 1.1376446412489247e-16 -4.5078884229267144e-17 1.1376446412489247e-16 0.6194377810328706 -0.7850457537168716
12627154666.666666 0.6106040575465915 -0.7919360358687161 -4.37829361419068e-17 1.1424385541449383e-16 -4.37829361419068e-17 1.1424385541449383e-16 0.6106045961538004 -0.7919356205877289
12627772000.0 0.6016942399971745 -0.7987265123645517 -4.248191270242219e-17 1.1470849385263457e-16 -4.248191270242219e-17 1.1470849385263457e-16 0.6016947831961347 -0.7987261031632649
12628389333.333334 0.5927089125787347 -0.8054167523397757 -4.117598174321978e-17 1.1515832597806043e-16 -4.117598174321978e-17 1.1515832597806043e-16 0.5927094603008315 -0.805416349268945
12629006666.666666 0.5836492029086243 -0.8120059162000883 -3.9865311656551345e-17 1.1559330023758e-16 -3.9865311656551345e-17 1.1559330023758e-16 0.5836497550846825 -0.8120055193096956
12629624000.0 0.5745162479390084 -0.8184931770356436 -3.855007137287168e-17 1.160133669918755e-16 -3.855007137287168e-17 1.160133669918755e-16 0.5745168044992999 -0.8184927863748896
12630241333.333334 0.5653111938139305 -0.824877720725009 -3.723043033908064e-17 1.1641847852108746e-16 -3.723043033908064e-17 1.1641847852108746e-16 0.565311754688185 -0.8248773363423092
12630858666.666666 0.5560351957256408 -0.8311587460372206 -3.590655849675055e-17 1.1680858903013792e-16 -3.590655849675055e-17 1.1680858903013792e-16 0.5560357608430527 -0.8311583679801974
12631476000.0 0.5466894177693666 -0.8373354647325101 -3.4578626260226214e-17 1.171836546538292e-16 -3.4578626260226214e-17 1.171836546538292e-16 0.5466899870586047 -0.8373350930479865
12632093333.333334 0.5372750327975274 -0.8434071016610147 -3.3246804494782926e-17 1.1754363346166165e-16 -3.3246804494782926e-17 1.1754363346166165e-16 0.537275606186745 -0.8434067363950114
12632710666.666666 0.5277932222724101 -0.8493728948601578 -3.191126449465914e-17 1.1788848546242603e-16 -3.191126449465914e-17 1.1788848546242603e-16 0.5277937996892516 -0.8493725360578834
12633328000.0 0.5182451761177772 -0.8552320956503405 -3.057217796101279e-17 1.1821817260855474e-16 -3.057217796101279e-17 1.1821817260855474e-16 0.5182457574893894 -0.8552317433561893
12633945333.333334 0.5086320925697538 -0.860983968728763 -2.92297169799447e-17 1.1853265880019321e-16 -2.92297169799447e-17 1.1853265880019321e-16 0.5086326778227949 -0.860983622986309
12634562666.666666 0.4989551780263355 -0.8666277922617794 -2.7884054000384624e-17 1.1883190988904832e-16 -2.7884054000384624e-17 1.1883190988904832e-16 0.4989557670869831 -0.8666274531137694
12635180000.0 0.48921564689601293 -0.872162857975466 -2.6535361811979824e-17 1.1911589368197556e-16 -2.6535361811979824e-17 1.1911589368197556e-16 0.4892162396899741 -0.872162525463815
12635797333.333334 0.479414721445346 -0.8775884712445229 -2.5183813522938746e-17 1.1938457994431844e-16 -2.5183813522938746e-17 1.1938457994431844e-16 0.47941531789786673 -0.877588145410309
12636414666.666666 0.46955363164567315 -0.8829039511793891 -2.3829582537859747e-17 1.1963794040299303e-16 -2.3829582537859747e-17 1.1963794040299303e-16 0.4695542316815474 -0.8829036320628485
12637032000.0 0.45963361501860717 -0.8881086307117753 -2.2472842535496844e-17 1.19875948749329e-16 -2.2472842535496844e-17 1.19875948749329e-16 0.45963421856218706 -0.8881083183522975
12637649333.333334 0.4496559164808567 -0.893201856678309 -2.1113767446536455e-17 1.2009858064165108e-16 -2.1113767446536455e-17 1.2009858064165108e-16 0.449656523456061 -0.8932015511144316
12638266666.666666 0.4396217881878681 -0.8981829899025692 -1.9752531431316848e-17 1.2030581370761602e-16 -1.9752531431316848e-17 1.2030581370761602e-16 0.43962239851819307 -0.8981826911719736
12638884000.0 0.4295324893768383 -0.9030514052752225 -1.8389308857564306e-17 1.2049762754628993e-16 -1.8389308857564306e-17 1.2049762754628993e-16 0.4295331029853661 -0.9030511134147285
12639501333.333334 0.4193892862085589 -0.9078064918325354 -1.7024274278074316e-17 1.206740037299814e-16 -1.7024274278074316e-17 1.206740037299814e-16 0.4193899030179677 -0.9078062068780968
12640118666.666666 0.40919345160869774 -0.9124476528329604 -1.5657602408418757e-17 1.2083492580581548e-16 -1.5657602408418757e-17 1.2083492580581548e-16 0.40919407154127263 -0.9124473748196626
12640736000.0 0.3989462651076423 -0.9169743058322196 -1.4289468104562177e-17 1.2098037929706575e-16 -1.4289468104562177e-17 1.2098037929706575e-16 0.39894688808528306 -0.916974034794272
12641353333.333334 0.38864901268054225 -0.921385882756111 -1.2920046340606354e-17 1.2111035170421745e-16 -1.2920046340606354e-17 1.2111035170421745e-16 0.3886496386247744 -0.9213856187268445
12641970666.666666 0.37830298658538275 -0.9256818299720464 -1.1549512186373819e-17 1.2122483250579644e-16 -1.1549512186373819e-17 1.2122483250579644e-16 0.3783036154173677 -0.9256815729839102
12642588000.0 0.36790948520107214 -0.9298616083584159 -1.0178040785094492e-17 1.2132381315893332e-16 -1.0178040785094492e-17 1.2132381315893332e-16 0.36791011684161573 -0.9298613584429707
12643205333.333334 0.3574698128644738 -0.933924693372253 -8.80580733105739e-18 1.2140728709968006e-16 -8.80580733105739e-18 1.2140728709968006e-16 0.35747044723403765 -0.9339244505601699
12643822666.666666 0.3469852797066133 -0.9378705751151067 -7.43298704723681e-18 1.2147524974307463e-16 -7.43298704723681e-18 1.2147524974307463e-16 0.3469859167253247 -0.937870339436163
12644440000.0 0.3364572014883957 -0.9416987583969808 -6.059755162989309e-18 1.21527698482951e-16 -6.059755162989309e-18 1.21527698482951e-16 0.33645784107605675 -0.9416985298800551
12645057333.333334 0.32588689943545607 -0.9454087627984861 -4.6862868917032294e-18 1.2156463269149875e-16 -4.6862868917032294e-18 1.2156463269149875e-16 0.32588754151155447 -0.9454085414715552
12645674666.666666 0.31527570007235295 -0.949000122731133 -3.3127574084797903e-18 1.2158605371857128e-16 -3.3127574084797903e-18 1.2158605371857128e-16 0.31527634455607245 -0.9489999086212699
12646292000.0 0.30462493505590804 -0.952472387495828 -1.9393418278000657e-18 1.2159196489074125e-16 -1.9393418278000657e-18 1.2159196489074125e-16 0.3046255818661374 -0.9524721806291958
12646909333.333334 0.29393594100843673 -0.9558251213393086 -5.66215181277562e-19 1.215823715101047e-16 -5.66215181277562e-19 1.215823715101047e-16 0.2939365900637812 -0.9558249217411601
12647526666.666666 0.2832100593497684 -0.9590579035089176 8.064476046494714e-19 1.2155728085283417e-16 8.064476046494714e-19 1.2155728085283417e-16 0.28321071056855945 -0.9590577112035907
12648144000.0 0.2724486361288207 -0.9621703283054224 2.1784717309655832e-18 1.2151670216748036e-16 2.1784717309655832e-18 1.2151670216748036e-16 0.27244928942912616 -0.9621701433163381
12648761333.333334 0.2616530218549483 -0.9651620051338489 3.549682548290389e-18 1.2146064667302396e-16 3.549682548290389e-18 1.2146064667302396e-16 0.261653677154583 -0.9651618274835073
12649378666.666666 0.2508245713283535 -0.9680325585525348 4.919905579076934e-18 1.213891275566769e-16 4.919905579076934e-18 1.213891275566769e-16 0.2508252285448887 -0.9680323882625116
12649996000.0 0.23996464346995275 -0.970781628320271 6.288966539793291e-18 1.2130215997143298e-16 6.288966539793291e-18 1.2130215997143298e-16 0.23996530252072815 -0.9707814654112185
12650613333.333334 0.2290746011509225 -0.9734088694414919 7.656691363063841e-18 1.2119976103336878e-16 7.656691363063841e-18 1.2119976103336878e-16 0.2290752619530554 -0.9734087139331336
12651230666.666666 0.21815581102177506 -0.9759139522095427 9.022906219715829e-18 1.2108194981869938e-16 9.022906219715829e-18 1.2108194981869938e-16 0.2181564734921706 -0.9759138041206701
12651848000.0 0.20720964334057307 -0.9782965622481208 1.0387437540921295e-17 1.209487473605772e-16 1.0387437540921295e-17 1.209487473605772e-16 0.20721030739593566 -0.9782964215965935
12652465333.333334 0.19623747180121784 -0.9805564005506691 1.1750112040145642e-17 1.2080017664565193e-16 1.1750112040145642e-17 1.2080017664565193e-16 0.19623813735806098 -0.9805562673534121
12653082666.666666 0.1852406733610581 -0.9826931835179075 1.311075673513788e-17 1.2063626261037898e-16 1.311075673513788e-17 1.2063626261037898e-16 0.18524134033571507 -0.9826930577909082
12653700000.0 0.1742206280678088 -0.9847066429934735 1.4469198969886932e-17 1.2045703213707592e-16 1.4469198969886932e-17 1.2045703213707592e-16 0.17422129637644312 -0.9847065247517808
12654317333.333334 0.16317871888675228 -0.9865965262975014 1.5825266436449205e-17 1.2026251404974417e-16 1.5825266436449205e-17 1.2026251404974417e-16 0.1631793884453682 -0.9865964155552227
12654934666.666666 0.15211633152693133 -0.9883625962583804 1.717878719680196e-17 1.2005273910963375e-16 1.717878719680196e-17 1.2005273910963375e-16 0.15211700225138444 -0.9883624930286813
12655552000.0 0.14103485426710802 -0.9900046312425382 1.8529589704627128e-17 1.1982774001056433e-16 1.8529589704627128e-17 1.1982774001056433e-16 0.1410355260731158 -0.9900045355376395
12656169333.333334 0.12993567778210283 -0.9915224251821656 1.9877502826951776e-17 1.1958755137401557e-16 1.9877502826951776e-17 1.1958755137401557e-16 0.12993635058525543 -0.9915223370133439
12656786666.666666 0.11882019496759737 -0.9929157876011848 2.122235586587719e-17 1.1933220974395027e-16 2.122235586587719e-17 1.1933220974395027e-16 0.1188208686833678 -0.9929157069787684
12657404000.0 0.10768980076578143 -0.9941845436390793 2.2563978580107842e-17 1.190617535814156e-16 2.2563978580107842e-17 1.190617535814156e-16 0.10769047530953675 -0.9941844705724507
12658021333.333334 0.0965458919900979 -0.9953285340728731 2.3902201206492123e-17 1.187762232588901e-16 2.3902201206492123e-17 1.187762232588901e-16 0.0965465672771092 -0.9953284685704635
12658638666.666666 0.08538986715011805 -0.9963476153370886 2.5236854481449668e-17 1.184756610543974e-16 2.5236854481449668e-17 1.184756610543974e-16 0.08539054309557165 -0.9963475574063813
12659256000.0 0.07422312627575242 -0.9972416595417943 2.6567769662380506e-17 1.181601111453674e-16 2.6567769662380506e-17 1.181601111453674e-16 0.0742238027947601 -0.9972416091893196
12659873333.333334 0.06304707074180782 -0.998010554488627 2.7894778548935654e-17 1.1782961960227246e-16 2.7894778548935654e-17 1.1782961960227246e-16 0.06304774774941771 -0.9980105117199639
12660490666.666666 0.05186310309212169 -0.9986542036848763 2.921771350424066e-17 1.1748423438201846e-16 2.921771350424066e-17 1.1748423438201846e-16 0.051863780503329016 -0.9986541685046535
12661108000.0 0.040672626863265574 -0.999172526355614 3.053640747607224e-17 1.1712400532108864e-16 3.053640747607224e-17 1.1712400532108864e-16 0.04067330459302311 -0.9991724987675059
12661725333.333334 0.0294770464088048 -0.9995654574538039 3.1850694017872333e-17 1.1674898412847203e-16 3.1850694017872333e-17 1.1674898412847203e-16 0.02947772437203364 -0.9995654374605321
12662342666.666666 0.01827776672274644 -0.9998329476684829 3.3160407309756554e-17 1.1635922437833469e-16 3.3160407309756554e-17 1.1635922437833469e-16 0.018278444834346718 -0.9998329352718167
12662960000.0 0.0070761932633609595 -0.9999749634309438 3.446538217939798e-17 1.1595478150246553e-16 3.446538217939798e-17 1.1595478150246553e-16 0.007076871438222439 -0.9999749586316977
12663577333.333334 -0.004126268223224818 -0.9999914869189487 3.5765454122807275e-17 1.1553571278249292e-16 3.5765454122807275e-17 1.1553571278249292e-16 -0.004125590070211988 -0.999991489716983
12664194666.666666 -0.01532821187944236 -0.9998825160589608 3.7060459325049126e-17 1.1510207734185985e-16 3.7060459325049126e-17 1.1510207734185985e-16 -0.015327533833376998 -0.9998825264531856
12664812000.0 -0.026528231912681704 -0.9996480645264142 3.835023468084639e-17 1.1465393613757194e-16 3.835023468084639e-17 1.1465393613757194e-16 -0.026527554058640913 -0.9996480825147843
12665429333.333334 -0.03772492277188243 -0.9992881617439855 3.9634617815092126e-17 1.1419135195171334e-16 3.9634617815092126e-17 1.1419135195171334e-16 -0.03772424519491092 -0.9992881873235031
12666046666.666666 -0.04891687932346941 -0.9988028528779197 4.0913447103241684e-17 1.1371438938274067e-16 4.0913447103241684e-17 1.1371438938274067e-16 -0.04891620210856884 -0.9988028860446351
12666664000.0 -0.06010269702840067 -0.9981921988323346 4.218656169165214e-17 1.1322311483652892e-16 4.218656169165214e-17 1.1322311483652892e-16 -0.06010202026051895 -0.9981922395813457
12667281333.333334 -0.07128097211772055 -0.9974562762416057 4.345380151773571e-17 1.1271759651722182e-16 4.345380151773571e-17 1.1271759651722182e-16 -0.0712802958817413 -0.9974563245670609
12667898666.666666 -0.08245030176915258 -0.9965951774607358 4.471500733007807e-17 1.1219790441782798e-16 4.471500733007807e-17 1.1219790441782798e-16 -0.08244962614988426 -0.9965952333558311
12668516000.0 -0.09360928428311796 -0.9956090105537526 4.597002070843246e-17 1.1166411031059692e-16 4.597002070843246e-17 1.1166411031059692e-16 -0.09360860936528348 -0.9956090740107366
12669133333.333334 -0.104756519258388 -0.9944978992801768 4.7218684083520933e-17 1.1111628773720564e-16 4.7218684083520933e-17 1.1111628773720564e-16 -0.1047558451266141 -0.9944979702903507
12669750666.666666 -0.11589060776811155 -0.9932619830794678 4.8460840756858907e-17 1.1055451199866562e-16 4.8460840756858907e-17 1.1055451199866562e-16 -0.11588993450691781 -0.993262061633183
12670368000.0 -0.12701015253525968 -0.991901417053525 4.969633492033726e-17 1.0997886014506007e-16 4.969633492033726e-17 1.0997886014506007e-16 -0.12700948022904832 -0.9919015031401888
