! Parameters = {f0=12700.012000; bw=77.238000; Q=6100.000000; N=10; m_0_1=1.166061; m_1_1=-1.273830; m_1_2=1.000873; m_2_2=-1.274479; m_2_3=0.637836; m_2_8=-0.004633; m_2_9=0.032071; m_3_3=-1.276416; m_3_4=0.526365; m_3_7=-0.004033; m_3_8=-0.101121; m_3_9=-0.004633; m_4_4=-1.279341; m_4_5=0.362700; m_4_6=-0.000516; m_4_7=-0.121670; m_4_8=-0.004033; m_5_5=-1.278959; m_5_6=0.770055; m_5_7=-0.000516; m_6_6=-1.278960; m_6_7=0.363042; m_7_7=-1.279327; m_7_8=0.526483; m_8_8=-1.276418; m_8_9=0.638149; m_9_9=-1.274484; m_9_10=1.001951; m_10_10=-1.273840; m_10_11=1.166856}
!
! Created with skrf (http://scikit-rf.org).
# Hz S RI R 50.0 
!freq ReS11 ImS11 ReS21 ImS21 ReS12 ImS12 ReS22 ImS22
12607400000.0 0.7468250110444752 0.6650206033487002 -5.966490303450853e-17 -2.805353596085359e-17 -5.966490303450853e-17 -2.805353596085359e-17 0.7468246023718408 0.6650210622920094
12608017333.333334 0.7517588008866914 0.6594381739702786 -5.986297062950241e-17 -2.759752675437286e-17 -5.986297062950241e-17 -2.759752675437286e-17 0.7517583956644501 0.659438635922906
12608634666.666666 0.7566508637538462 0.6538191419501346 -6.005755726120286e-17 -2.7140127178431302e-17 -6.005755726120286e-17 -2.7140127178431302e-17 0.7566504620041518 0.6538196068861463
12609252000.0 0.7615009281081508 0.6481638191771242 -6.024865323424131e-17 -2.6681363773395196e-17 -6.024865323424131e-17 -2.6681363773395196e-17 0.7615005298529619 0.6481642870704227
12609869333.333334 0.7663087247429228 0.642472519554515 -6.043624905537105e-17 -2.6221263146709836e-17 -6.043624905537105e-17 -2.6221263146709836e-17 0.7663083300040008 0.6424729903788408
12610486666.666666 0.7710739867975828 0.6367455589824972 -6.062033543391761e-17 -2.5759851971384406e-17 -6.062033543391761e-17 -2.5759851971384406e-17 0.7710735955964928 0.6367460327114313
12611104000.0 0.7757964497725219 0.6309832553405845 -6.080090328224095e-17 -2.5297156984418647e-17 -6.080090328224095e-17 -2.5297156984418647e-17 0.7757960621306309 0.6309837319475492
12611721333.333334 0.7804758515436762 0.6251859284701026 -6.09779437161561e-17 -2.4833204985297254e-17 -6.09779437161561e-17 -2.4833204985297254e-17 0.7804754674821505 0.6251864079283626
12612338666.666666 0.7851119323771278 0.6193539001563677 -6.115144805537113e-17 -2.4368022834412218e-17 -6.115144805537113e-17 -2.4368022834412218e-17 0.7851115519169332 0.6193543824390324
12612956000.0 0.7897044349435747 0.6134874941107606 -6.132140782389422e-17 -2.3901637451527152e-17 -6.132140782389422e-17 -2.3901637451527152e-17 0.789704058105476 0.6134879791907857
12613573333.333334 0.7942531043325102 0.6075870359528921 -6.148781475043483e-17 -2.3434075814227063e-17 -6.148781475043483e-17 -2.3434075814227063e-17 0.7942527311370682 0.6075875238030802
12614190666.666666 0.7987576880664242 0.6016528531924632 -6.165066076879446e-17 -2.2965364956359894e-17 -6.165066076879446e-17 -2.2965364956359894e-17 0.7987573185339956 0.6016533437854656
12614808000.0 0.8032179361148671 0.5956852752110163 -6.180993801824635e-17 -2.2495531966473872e-17 -6.180993801824635e-17 -2.2495531966473872e-17 0.8032175702656034 0.5956857685193353
12615425333.333334 0.8076336009082086 0.5896846332438134 -6.196563884389712e-17 -2.2024603986269913e-17 -6.196563884389712e-17 -2.2024603986269913e-17 0.8076332387620553 0.589685129239803
12616042666.666666 0.8120044373515175 0.5836512603612677 -6.211775579704591e-17 -2.1552608209025155e-17 -6.211775579704591e-17 -2.1552608209025155e-17 0.8120040789282124 0.5836517590171356
12616660000.0 0.8163302028380276 0.5775854914506388 -6.226628163552223e-17 -2.1079571878040654e-17 -6.226628163552223e-17 -2.1079571878040654e-17 0.8163298481570993 0.5775859927384472
12617277333.333334 0.8206106572627556 0.5714876631972379 -6.241120932401904e-17 -2.0605522285067487e-17 -6.241120932401904e-17 -2.0605522285067487e-17 0.820610306343524 0.5714881670889067
12617894666.666666 0.8248455630356308 0.5653581140660178 -6.255253203441026e-17 -2.0130486768741316e-17 -6.255253203441026e-17 -2.0130486768741316e-17 0.824845215897205 0.5653586205333244
12618512000.0 0.8290346850949117 0.559197184282461 -6.26902431460594e-17 -1.9654492713004103e-17 -6.26902431460594e-17 -1.9654492713004103e-17 0.829034341756189 0.5591976932970429
12619129333.333334 0.8331777909200369 0.5530052158139735 -6.282433624611061e-17 -1.917756754554362e-17 -6.282433624611061e-17 -1.917756754554362e-17 0.8331774513997017 0.5530057273473298
12619746666.666666 0.8372746505446614 0.5467825523507179 -6.295480512977557e-17 -1.8699738736206143e-17 -6.295480512977557e-17 -1.8699738736206143e-17 0.8372743148611851 0.5467830663742105
12620364000.0 0.8413250365693901 0.5405295392865836 -6.3081643800603e-17 -1.822103379542322e-17 -6.3081643800603e-17 -1.822103379542322e-17 0.8413247047410277 0.5405300557714385
12620981333.333334 0.8453287241742852 0.5342465237001788 -6.320484647073435e-17 -1.7741480272645962e-17 -6.320484647073435e-17 -1.7741480272645962e-17 0.8453283962190778 0.5342470426174889
12621598666.666666 0.8492854911315562 0.5279338543352609 -6.332440756115747e-17 -1.726110575474178e-17 -6.332440756115747e-17 -1.726110575474178e-17 0.8492851670673259 0.5279343756559861
12622216000.0 0.8531951178176977 0.5215918815816601 -6.34403217019356e-17 -1.677993786443444e-17 -6.34403217019356e-17 -1.677993786443444e-17 0.8531947976620521 0.5215924052766312
12622833333.333334 0.8570573872258437 0.5152209574555967 -6.355258373243501e-17 -1.6298004258705004e-17 -6.355258373243501e-17 -1.6298004258705004e-17 0.8570570709961693 0.5152214834955143
12623450666.666666 0.8608720849776258 0.508821435580427 -6.366118870153283e-17 -1.581533262722028e-17 -6.366118870153283e-17 -1.581533262722028e-17 0.8608717726910906 0.5088219639358651
12624068000.0 0.8646389993352683 0.5023936711667035 -6.376613186781796e-17 -1.5331950690742002e-17 -6.376613186781796e-17 -1.5331950690742002e-17 0.8646386910088186 0.5023942018081099
12624685333.333334 0.8683579212132343 0.4959380209926253 -6.386740869977891e-17 -1.484788619953469e-17 -6.386740869977891e-17 -1.484788619953469e-17 0.8683576168635969 0.49593855389032454
12625302666.666666 0.8720286441898081 0.4894548433842878 -6.396501487597678e-17 -1.4363166931790883e-17 -6.396501487597678e-17 -1.4363166931790883e-17 0.8720283438334849 0.48945537850848103
12625920000.0 0.8756509645186593 0.48294449819559265 -6.405894628521145e-17 -1.3877820692027888e-17 -6.405894628521145e-17 -1.3877820692027888e-17 0.8756506681719322 0.48294503551636203
12626537333.333334 0.8792246811400063 0.4764073467885502 -6.414919902667041e-17 -1.3391875309509279e-17 -6.414919902667041e-17 -1.3391875309509279e-17 0.8792243888189301 0.47640788627585723
12627154666.666666 0.8827495956918946 0.46984375201299516 -6.423576941006747e-17 -1.2905358636658302e-17 -6.423576941006747e-17 -1.2905358636658302e-17 0.8827493074123004 0.46984429363668484
12627772000.0 0.8862255125211946 0.4632540781864719 -6.431865395577491e-17 -1.2418298547441335e-17 -6.431865395577491e-17 -1.2418298547441335e-17 0.8862252282986881 0.46325462191627376
12628389333.333334 0.889652238694382 0.45663869107416344 -6.439784939493104e-17 -1.1930722935816592e-17 -6.439784939493104e-17 -1.1930722935816592e-17 0.889651958544342 0.45663923687969293
12629006666.666666 0.8930295840083404 0.44999795786841384 -6.447335266955127e-17 -1.1442659714099961e-17 -6.447335266955127e-17 -1.1442659714099961e-17 0.8930293079459165 0.4499985057191736
12629624000.0 0.8963573610008736 0.4433322471684201 -6.454516093261279e-17 -1.0954136811407291e-17 -6.454516093261279e-17 -1.0954136811407291e-17 0.8963570890409895 0.4433327970338032
12630241333.333334 0.8996353849610933 0.4366419289598268 -6.461327154813851e-17 -1.0465182172035979e-17 -6.461327154813851e-17 -1.0465182172035979e-17 0.8996351171184418 0.4366424808091165
12630858666.666666 0.9028634739396902 0.4299273745941358 -6.467768209125994e-17 -9.975823753897596e-18 -6.467768209125994e-17 -9.975823753897596e-18 0.9028632102287354 0.42992792839650934
12631476000.0 0.9060414487590764 0.423188956768021 -6.473839034827776e-17 -9.486089526889756e-18 -6.473839034827776e-17 -9.486089526889756e-18 0.9060411891940509 0.42318951249254944
12632093333.333334 0.9091691330232632 0.4164270495027654 -6.479539431669905e-17 -8.9960074713415e-18 -6.479539431669905e-17 -8.9960074713415e-18 0.909168877618169 0.4164276071184167
12632710666.666666 0.9122463531276479 0.409642028123531 -6.484869220527253e-17 -8.505605576394321e-18 -6.484869220527253e-17 -8.505605576394321e-18 0.9122461018962522 0.40964258759917016
12633328000.0 0.9152729382687356 0.4028342692383154 -6.48982824340065e-17 -8.014911838414545e-18 -6.48982824340065e-17 -8.014911838414545e-18 0.9152726912245766 0.4028348305427087
12633945333.333334 0.9182487204535578 0.39600415071720635 -6.494416363417576e-17 -7.523954259402295e-18 -6.494416363417576e-17 -7.523954259402295e-18 0.9182484776099372 0.39600471381902075
12634562666.666666 0.9211735345089694 0.38915205167145817 -6.498633464831644e-17 -7.032760845404479e-18 -6.498633464831644e-17 -7.032760845404479e-18 0.9211732958789549 0.38915261653926386
12635180000.0 0.9240472180908966 0.3822783524322663 -6.502479453021032e-17 -6.541359604909632e-18 -6.502479453021032e-17 -6.541359604909632e-18 0.924046983687321 0.38227891903453887
12635797333.333334 0.9268696116932702 0.3753834345298405 -6.505954254485446e-17 -6.04977854726913e-18 -6.505954254485446e-17 -6.04977854726913e-18 0.9268693815287311 0.37538400283496237
12636414666.666666 0.9296405586569242 0.36846768067212265 -6.50905781684217e-17 -5.558045681098718e-18 -6.50905781684217e-17 -5.558045681098718e-18 0.9296403327437823 0.3684682506483849
12637032000.0 0.9323599051782699 0.3615314747235971 -6.511790108820684e-17 -5.066189012691666e-18 -6.511790108820684e-17 -5.066189012691666e-18 0.9323596835286485 0.3615320463392008
12637649333.333334 0.9350275003178727 0.3545752016838774 -6.51415112025629e-17 -4.574236544421689e-18 -6.51415112025629e-17 -4.574236544421689e-18 0.9350272829436569 0.35457577490693576
12638266666.666666 0.9376431960087682 0.34759924766649614 -6.51614086208233e-17 -4.082216273167016e-18 -6.51614086208233e-17 -4.082216273167016e-18 0.9376429829216055 0.3475998224650365
12638884000.0 0.9402068470647145 0.34060399987739365 -6.51775936632142e-17 -3.5901561887076406e-18 -6.51775936632142e-17 -3.5901561887076406e-18 0.9402066382760131 0.3406045762193592
12639501333.333334 0.942718311188278 0.33358984659334656 -6.519006686075299e-17 -3.098084272151353e-18 -6.519006686075299e-17 -3.098084272151353e-18 0.9427181067092063 0.3335904244465976
12640118666.666666 0.9451774489786537 0.3265571771406284 -6.519882895513622e-17 -2.6060284943442457e-18 -6.519882895513622e-17 -2.6060284943442457e-18 0.9451772488201398 0.32655775647294455
12640736000.0 0.9475841239395371 0.31950638187302594 -6.520388089861553e-17 -2.1140168142712693e-18 -6.520388089861553e-17 -2.1140168142712693e-18 0.947583928112268 0.31950696265210793
12641353333.333334 0.9499382024864936 0.3124378521507621 -6.520522385386027e-17 -1.6220771775025854e-18 -6.520522385386027e-17 -1.6220771775025854e-18 0.9499380110009155 0.3124384343442337
12641970666.666666 0.9522395539545961 0.30535198031812866 -6.520285919381008e-17 -1.1302375145856783e-18 -6.520285919381008e-17 -1.1302375145856783e-18 0.9522393668209136 0.30535256389353826
12642588000.0 0.9544880506055237 0.2982491596821665 -6.519678850151446e-17 -6.38525739477872e-19 -6.519678850151446e-17 -6.38525739477872e-19 0.9544878678336972 0.2982497446069887
12643205333.333334 0.9566835676347294 0.2911297844905915 -6.518701356996088e-17 -1.469697479600162e-19 -6.518701356996088e-17 -1.469697479600162e-19 0.9566833892344772 0.29113037073222936
12643822666.666666 0.9588259831783412 0.2839942499099923 -6.517353640189068e-17 3.444025839352079e-19 -6.517353640189068e-17 3.444025839352079e-19 0.9588258091591387 0.2839948374357791
12644440000.0 0.9609151783199122 0.27684295200395126 -6.515635920960351e-17 8.355634015043576e-19 -6.515635920960351e-17 8.355634015043576e-19 0.9609150086909907 0.27684354078115214
12645057333.333334 0.9629510370970461 0.2696762877109795 -6.513548441474996e-17 1.3264848729339534e-18 -6.513548441474996e-17 1.3264848729339534e-18 0.9629508718673904 0.2696768777067931
12645674666.666666 0.9649334465078135 0.2624946548225378 -6.511091464811216e-17 1.8171391908870758e-18 -6.511091464811216e-17 1.8171391908870758e-18 0.9649332856861658 0.26249524600409874
12646292000.0 0.9668622965170692 0.25529845196082124 -6.508265274937236e-17 2.3074985740712716e-18 -6.508265274937236e-17 2.3074985740712716e-18 0.9668621401119236 0.25529904429520095
12646909333.333334 0.9687374800624682 0.24808807855693346 -6.505070176687054e-17 2.7975352687969847e-18 -6.505070176687054e-17 2.7975352687969847e-18 0.9687373280820757 0.24808867201114326
12647526666.666666 0.970558893060514 0.24086393482836096 -6.501506495734966e-17 3.2872215505467633e-18 -6.501506495734966e-17 3.2872215505467633e-18 0.9705587455128779 0.24086452936935301
12648144000.0 0.9723264344122725 0.23362642175697734 -6.497574578568861e-17 3.776529725551419e-18 -6.497574578568861e-17 3.776529725551419e-18 0.9723262913051487 0.23362701735164648
12648761333.333334 0.9740400060090084 0.22637594106667558 -6.493274792462523e-17 4.26543213232873e-18 -6.493274792462523e-17 4.26543213232873e-18 0.9740398673499069 0.22637653768186175
12649378666.666666 0.9756995127375842 0.21911289520129282 -6.488607525446593e-17 4.7539011432566636e-18 -6.488607525446593e-17 4.7539011432566636e-18 0.9756993785337665 0.21911349280378234
12649996000.0 0.9773048624858212 0.21183768730191183 -6.483573186278434e-17 5.241909166123724e-18 -6.483573186278434e-17 5.241909166123724e-18 0.9773047327443012 0.21183828585843956
12650613333.333334 0.9788559661475404 0.2045507211847886 -6.478172204410778e-17 5.729428645691471e-18 -6.478172204410778e-17 5.729428645691471e-18 0.9788558408750838 0.20455132066203968
12651230666.666666 0.9803527376275379 0.19725240131882846 -6.472405029959415e-17 6.21643206522298e-18 -6.472405029959415e-17 6.21643206522298e-18 0.9803526168306608 0.1972530016834401
12651848000.0 0.9817950938463765 0.1899431328030512 -6.46627213366927e-17 6.702891948063763e-18 -6.46627213366927e-17 6.702891948063763e-18 0.9817949775313469 0.1899437340216148
12652465333.333334 0.9831829547449636 0.18262332134427295 -6.459774006879903e-17 7.188780859155396e-18 -6.459774006879903e-17 7.188780859155396e-18 0.983182842917801 0.18262392338333575
12653082666.666666 0.9845162432890174 0.17529337323450447 -6.452911161489454e-17 7.674071406592209e-18 -6.452911161489454e-17 7.674071406592209e-18 0.9845161359554894 0.1752939760605712
12653700000.0 0.9857948854733501 0.16795369532831433 -6.445684129917429e-17 8.158736243163774e-18 -6.445684129917429e-17 8.158736243163774e-18 0.9857947826389754 0.1679542989078495
12654317333.333334 0.9870188103259491 0.16060469502041466 -6.438093465066666e-17 8.642748067879734e-18 -6.438093465066666e-17 8.642748067879734e-18 0.987018711995996 0.16060529931984416
12654934666.666666 0.9881879499119274 0.15324678022299257 -6.430139740283791e-17 9.12607962750776e-18 -6.430139740283791e-17 9.12607962750776e-18 0.9881878560914145 0.15324738520870573
12655552000.0 0.9893022393373299 0.14588035934284405 -6.421823549318639e-17 9.60870371810829e-18 -6.421823549318639e-17 9.60870371810829e-18 0.989302150031024 0.14588096498119524
12656169333.333334 0.9903616167526584 0.13850584125918194 -6.413145506282765e-17 1.0090593186547572e-17 -6.413145506282765e-17 1.0090593186547572e-17 0.9903615319650764 0.1385064475164928
12656786666.666666 0.9913660233563839 0.1311236353004356 -6.404106245606355e-17 1.0571720932034573e-17 -6.404106245606355e-17 1.0571720932034573e-17 0.9913659430917914 0.13112424214299664
12657404000.0 0.992315403398162 0.12373415122186814 -6.394706421994522e-17 1.10520599076252e-17 -6.394706421994522e-17 1.10520599076252e-17 0.9923153276605717 0.12373475861594051
12658021333.333334 0.9932097041819419 0.1163377991826913 -6.384946710381924e-17 1.1531583121753772e-17 -6.384946710381924e-17 1.1531583121753772e-17 0.9932096329751163 0.11633840709450897
12658638666.666666 0.9940488760688908 0.10893498972335652 -6.374827805886946e-17 1.2010263639722689e-17 -6.374827805886946e-17 1.2010263639722689e-17 0.9940488093963395 0.10893559811912797
12659256000.0 0.9948328724801544 0.10152613374268227 -6.364350423763873e-17 1.2488074585233498e-17 -6.364350423763873e-17 1.2488074585233498e-17 0.9948328103451365 0.1015267425885925
12659873333.333334 0.9955616498994406 0.09411164247507513 -6.353515299354665e-17 1.2964989141877913e-17 -6.353515299354665e-17 1.2964989141877913e-17 0.9955615923049613 0.09411225173728735
12660490666.666666 0.99623516787541 0.08669192746793003 -6.342323188039456e-17 1.3440980554633934e-17 -6.342323188039456e-17 1.3440980554633934e-17 0.9962351148242241 0.08669253711258777
12661108000.0 0.9968533890239757 0.07926740055827824 -6.330774865185477e-17 1.391602213137578e-17 -6.330774865185477e-17 1.391602213137578e-17 0.9968533405185835 0.07926801055150692
12661725333.333334 0.9974162790303136 0.07183847385054988 -6.31887112609573e-17 1.439008724434384e-17 -6.31887112609573e-17 1.439008724434384e-17 0.9974162350729641 0.07183908415845904
12662342666.666666 0.9979238066508203 0.0644055596931625 -6.306612785955488e-17 1.486314933165705e-17 -6.306612785955488e-17 1.486314933165705e-17 0.9979237672435094 0.06440617028184746
12662960000.0 0.9983759437148138 0.056969070656001236 -6.294000679778689e-17 1.5335181898774202e-17 -6.294000679778689e-17 1.5335181898774202e-17 0.9983759088592854 0.05696968149154507
12663577333.333334 0.9987726651261164 0.0495294195072637 -6.28103566235243e-17 1.5806158519988605e-17 -6.28103566235243e-17 1.5806158519988605e-17 0.9987726348238621 0.04953003055573913
12664194666.666666 0.999113948864438 0.042087019190747706 -6.267718608181053e-17 1.6276052839887807e-17 -6.267718608181053e-17 1.6276052839887807e-17 0.9991139231166946 0.04208763041821882
12664812000.0 0.999399775986597 0.03464228280284503 -6.254050411428402e-17 1.6744838574837257e-17 -6.254050411428402e-17 1.6744838574837257e-17 0.9993997547943498 0.03464289417536939
12665429333.333334 0.9996301306275828 0.027195623569498915 -6.24003198585972e-17 1.721248951443272e-17 -6.24003198585972e-17 1.721248951443272e-17 0.9996301139915641 0.02719623505312932
12666046666.666666 0.9998050000014208 0.019747454823608287 -6.225664264781955e-17 1.767897952296562e-17 -6.225664264781955e-17 1.767897952296562e-17 0.9998049879221098 0.019748066384394664
12666664000.0 0.9999243744018992 0.012298189981545648 -6.210948200982986e-17 1.8144282540883656e-17 -6.210948200982986e-17 1.8144282540883656e-17 0.9999243668795218 0.012298801585536952
12667281333.333334 0.9999882472030923 0.004848242520835163 -6.195884766670204e-17 1.8608372586230523e-17 -6.195884766670204e-17 1.8608372586230523e-17 0.9999882442376204 0.004848854134081262
12667898666.666666 0.9999966148597361 -0.002601974043309235 -6.180474953407631e-17 1.907122375609488e-17 -6.180474953407631e-17 1.907122375609488e-17 0.9999966164508917 -0.002601362454755655
12668516000.0 0.9999494769074255 -0.010052046180708958 -6.164719772051622e-17 1.953281022806472e-17 -6.164719772051622e-17 1.953281022806472e-17 0.999949483054676 -0.01005143465079055
12669133333.333334 0.9998468359626373 -0.0175015603691457 -6.148620252686867e-17 1.9993106261632815e-17 -6.148620252686867e-17 1.9993106261632815e-17 0.9998468466651979 -0.01750094893179856
12669750666.666666 0.9996886977225878 -0.024950103117399595 -6.132177444559365e-17 2.0452086199658153e-17 -6.132177444559365e-17 2.0452086199658153e-17 0.9996887129794192 -0.024949491806551344
12670368000.0 0.9994750709649124 -0.03239726098817188 -6.115392416010066e-17 2.090972446976975e-17 -6.115392416010066e-17 2.090972446976975e-17 0.9994750907747243 -0.03239664983773984
