! Parameters = {f0=12700.012000; bw=77.238000; Q=6100.000000; N=10; m_0_1=1.178073; m_1_1=-1.093650; m_1_2=1.012885; m_2_2=-1.094299; m_2_3=0.649848; m_2_8=-0.004033; m_2_9=0.032671; m_3_3=-1.096236; m_3_4=0.538377; m_3_7=-0.003433; m_3_8=-0.100521; m_3_9=-0.004033; m_4_4=-1.099161; m_4_5=0.374712; m_4_6=0.000084; m_4_7=-0.121070; m_4_8=-0.003433; m_5_5=-1.098779; m_5_6=0.782067; m_5_7=0.000084; m_6_6=-1.098780; m_6_7=0.375054; m_7_7=-1.099147; m_7_8=0.538495; m_8_8=-1.096238; m_8_9=0.650161; m_9_9=-1.094304; m_9_10=1.013963; m_10_10=-1.093660; m_10_11=1.178868}
!
! Created with skrf (http://scikit-rf.org).
# Hz S RI R 50.0 
!freq ReS11 ImS11 ReS21 ImS21 ReS12 ImS12 ReS22 ImS22
12607400000.0 0.9698472244274569 -0.24371368708016056 -6.042117755682632e-17 3.574371013113609e-17 -6.042117755682632e-17 3.574371013113609e-17 0.9698473757334604 -0.24371308496420233
12608017333.333334 0.9679154311963848 -0.25127617883866965 -6.012535641037118e-17 3.6212463697914067e-17 -6.012535641037118e-17 3.6212463697914067e-17 0.9679155871898153 -0.25127557795146493
12608634666.666666 0.9659246695508147 -0.25882336206957024 -5.982590340472748e-17 3.6678776455870815e-17 -5.982590340472748e-17 3.6678776455870815e-17 0.9659248302217096 -0.25882276244760477
12609252000.0 0.9638750607741656 -0.2663547769750818 -5.95228386224137e-17 3.714262030389996e-17 -5.95228386224137e-17 3.714262030389996e-17 0.9638752261122786 -0.2663541786547606
12609869333.333334 0.9617667297350201 -0.2738699647180247 -5.921618236307065e-17 3.760396730570273e-17 -5.921618236307065e-17 3.760396730570273e-17 0.9617668997298214 -0.27386936773567006
12610486666.666666 0.9595998048795281 -0.2813684674497474 -5.890595514211478e-17 3.806278969145995e-17 -5.890595514211478e-17 3.806278969145995e-17 0.9595999795202058 -0.28136787184159645
12611104000.0 0.9573744182235091 -0.2888498283382655 -5.859217768936999e-17 3.851905985950421e-17 -5.859217768936999e-17 3.851905985950421e-17 0.957374597498969 -0.28884923414046826
12611721333.333334 0.9550907053444887 -0.2963135915958205 -5.827487094770545e-17 3.897275037795489e-17 -5.827487094770545e-17 3.897275037795489e-17 0.9550908892433562 -0.29631299884443757
12612338666.666666 0.9527488053734077 -0.30375930250675687 -5.795405607163327e-17 3.942383398638142e-17 -5.795405607163327e-17 3.942383398638142e-17 0.9527489938840265 -0.30375871123775716
12612956000.0 0.9503488609861112 -0.31118650745533377 -5.762975442591464e-17 3.987228359742365e-17 -5.762975442591464e-17 3.987228359742365e-17 0.9503490540965455 -0.31118591770459214
12613573333.333334 0.9478910183947499 -0.31859475395306147 -5.730198758415311e-17 4.031807229840295e-17 -5.730198758415311e-17 4.031807229840295e-17 0.9478912160927848 -0.31859416575635696
12614190666.666666 0.945375427338751 -0.32598359066664784 -5.69707773273602e-17 4.076117335294293e-17 -5.69707773273602e-17 4.076117335294293e-17 0.9453756296118951 -0.32598300405966174
12614808000.0 0.9428022410757951 -0.3333525674451985 -5.663614564251837e-17 4.1201560202563394e-17 -5.663614564251837e-17 4.1201560202563394e-17 0.9428024479112763 -0.3333519824635109
12615425333.333334 0.9401716163724301 -0.34070123534777486 -5.629811472113772e-17 4.163920646825692e-17 -5.629811472113772e-17 4.163920646825692e-17 0.9401718277572017 -0.3407006520268638
12616042666.666666 0.9374837134945426 -0.3480291466706923 -5.595670695778982e-17 4.2074085952065845e-17 -5.595670695778982e-17 4.2074085952065845e-17 0.9374839294152821 -0.3480285650459313
12616660000.0 0.9347386961975542 -0.3553358549749022 -5.56119449486303e-17 4.250617263864785e-17 -5.56119449486303e-17 4.250617263864785e-17 0.9347389166406637 -0.3553352750815581
12617277333.333334 0.9319367317164924 -0.3626209151130569 -5.5263851489918683e-17 4.293544069681641e-17 -5.5263851489918683e-17 4.293544069681641e-17 0.9319369566680998 -0.3626203369862872
12617894666.666666 0.9290779907558162 -0.3698838832566034 -5.4912449576521776e-17 4.336186448107603e-17 -5.4912449576521776e-17 4.336186448107603e-17 0.9290782202017757 -0.3698833069314547
12618512000.0 0.9261626474789203 -0.3771243169230609 -5.455776240039269e-17 4.3785418533160414e-17 -5.455776240039269e-17 4.3785418533160414e-17 0.9261628814048151 -0.37712374243446706
12619129333.333334 0.9231908794976321 -0.3843417750027148 -5.4199813349061914e-17 4.42060775835292e-17 -5.4199813349061914e-17 4.42060775835292e-17 0.9231911178887723 -0.38434120238549363
12619746666.666666 0.9201628678613448 -0.391535817785594 -5.3838626004099364e-17 4.462381655287392e-17 -5.3838626004099364e-17 4.462381655287392e-17 0.920163110702771 -0.3915352470744465
12620364000.0 0.9170787970459583 -0.3987060069883403 -5.347422413956592e-17 4.503861055360973e-17 -5.347422413956592e-17 4.503861055360973e-17 0.917079044322441 -0.3987054382178477
12620981333.333334 0.9139388549427035 -0.4058519057807511 -5.310663172046542e-17 4.545043489134138e-17 -5.310663172046542e-17 4.545043489134138e-17 0.9139391066387454 -0.40585133898537323
12621598666.666666 0.9107432328466536 -0.4129730788124981 -5.273587290117233e-17 4.5859265066331324e-17 -5.273587290117233e-17 4.5859265066331324e-17 0.9107434889464882 -0.412972514026571
12622216000.0 0.907492125445079 -0.4200690922396242 -5.2361972023855826e-17 4.6265076774946186e-17 -5.2361972023855826e-17 4.6265076774946186e-17 0.907492385932673 -0.4200685294973575
12622833333.333334 0.904185730805586 -0.42713951375097303 -5.198495361688427e-17 4.6667845911101246e-17 -5.198495361688427e-17 4.6667845911101246e-17 0.9041859956646418 -0.4271389530864494
12623450666.666666 0.9008242503640512 -0.4341839125945284 -5.1604842393237605e-17 4.706754856766917e-17 -5.1604842393237605e-17 4.706754856766917e-17 0.9008245195780069 -0.43418335404170083
12624068000.0 0.8974078889123641 -0.44120185960363173 -5.122166324888437e-17 4.746416103790438e-17 -5.122166324888437e-17 4.746416103790438e-17 0.8974081624643919 -0.44120130319632017
12624685333.333334 0.8939368545858946 -0.4481929272232283 -5.083544126116119e-17 4.78576598168396e-17 -5.083544126116119e-17 4.78576598168396e-17 0.8939371324589058 -0.4481923729951196
12625302666.666666 0.8904113588509055 -0.4551566895357386 -5.0446201687147984e-17 4.824802160266181e-17 -5.0446201687147984e-17 4.824802160266181e-17 0.8904116410275497 -0.4551561375203833
12625920000.0 0.8868316164915537 -0.4620927222872347 -5.00539699620125e-17 4.8635223298096757e-17 -5.00539699620125e-17 4.8635223298096757e-17 0.8868319029542191 -0.46209217251804485
12626537333.333334 0.8831978455969447 -0.46900060291300755 -4.9658771697372087e-17 4.901924201175188e-17 -4.9658771697372087e-17 4.901924201175188e-17 0.8831981363277615 -0.469000055423256
12627154666.666666 0.8795102675477329 -0.4758799105635408 -4.9260632679617035e-17 4.940005505947392e-17 -4.9260632679617035e-17 4.940005505947392e-17 0.8795105625285723 -0.47587936538635767
12627772000.0 0.8757691070026306 -0.48273022613014777 -4.885957886823632e-17 4.977763996568039e-17 -4.885957886823632e-17 4.977763996568039e-17 0.8757694062151062 -0.48272968329851895
12628389333.333334 0.8719745918848555 -0.4895511322702546 -4.8455636394148953e-17 5.0151974464662486e-17 -4.8455636394148953e-17 5.0151974464662486e-17 0.8719748953103256 -0.48955059181702015
12629006666.666666 0.8681269533680567 -0.49634221343317697 -4.804883155798392e-17 5.05230365019144e-17 -4.804883155798392e-17 5.05230365019144e-17 0.8681272609876243 -0.4963416753910286
12629624000.0 0.864226425862393 -0.503103055885136 -4.7639190828400266e-17 5.089080423540072e-17 -4.7639190828400266e-17 5.089080423540072e-17 0.8642267376569087 -0.5031025202866161
12630241333.333334 0.8602732470001162 -0.5098332477347145 -4.7226740840360137e-17 5.125525603684591e-17 -4.7226740840360137e-17 5.125525603684591e-17 0.8602735629501762 -0.5098327146122122
12630858666.666666 0.8562676576212589 -0.5165323789576518 -4.6811508393409574e-17 5.1616370492993694e-17 -4.6811508393409574e-17 5.1616370492993694e-17 0.8562679777072101 -0.5165318483434036
12631476000.0 0.852209901758767 -0.5232000414221712 -4.6393520449937524e-17 5.197412640686275e-17 -4.6393520449937524e-17 5.197412640686275e-17 0.8522102259607048 -0.5231995133482564
12632093333.333334 0.8481002266237707 -0.5298358289135959 -4.597280413344811e-17 5.232850279896923e-17 -4.597280413344811e-17 5.232850279896923e-17 0.8481005549215427 -0.529835303411937
12632710666.666666 0.8439388825905305 -0.5364393371591006 -4.554938672679528e-17 5.267947890856018e-17 -4.554938672679528e-17 5.267947890856018e-17 0.8439392149637364 -0.5364388142614596
12633328000.0 0.8397261231810451 -0.5430101638525573 -4.5123295670422554e-17 5.3027034194819035e-17 -4.5123295670422554e-17 5.3027034194819035e-17 0.8397264596090379 -0.5430096435905344
12633945333.333334 0.8354622050497731 -0.5495479086787792 -4.469455856060037e-17 5.3371148338052726e-17 -4.469455856060037e-17 5.3371148338052726e-17 0.8354625455116614 -0.5495473910838115
12634562666.666666 0.8311473879678598 -0.5560521733381266 -4.426320314764208e-17 5.3711801240874504e-17 -4.426320314764208e-17 5.3711801240874504e-17 0.8311477324425077 -0.5560516584414849
12635180000.0 0.8267819348074166 -0.5625225615706031 -4.3829257334110933e-17 5.4048973029372165e-17 -4.3829257334110933e-17 5.4048973029372165e-17 0.8267822832734479 -0.5625220494033921
12635797333.333334 0.8223661115254336 -0.5689586791801198 -4.339274917303054e-17 5.4382644054252145e-17 -4.339274917303054e-17 5.4382644054252145e-17 0.8223664639612291 -0.5689581697732735
12636414666.666666 0.8179001871476677 -0.5753601340583652 -4.295370686608077e-17 5.4712794891974184e-17 -4.295370686608077e-17 5.4712794891974184e-17 0.8179005435313681 -0.5753596274426468
12637032000.0 0.8133844337520905 -0.5817265362089303 -4.251215876176936e-17 5.503940634588377e-17 -4.251215876176936e-17 5.503940634588377e-17 0.8133847940616002 -0.5817260324149306
12637649333.333334 0.8088191264524802 -0.588057497770835 -4.2068133353624656e-17 5.536245944730652e-17 -4.2068133353624656e-17 5.536245944730652e-17 0.808819490665465 -0.5880569968289693
12638266666.666666 0.8042045433815738 -0.5943526330422735 -4.1621659278358286e-17 5.568193545664532e-17 -4.1621659278358286e-17 5.568193545664532e-17 0.8042049114754645 -0.5943521349827804
12638884000.0 0.799540965674158 -0.6006115585040657 -4.117276531402122e-17 5.599781586446149e-17 -4.117276531402122e-17 5.599781586446149e-17 0.7995413376261515 -0.600611063357006
12639501333.333334 0.7948286774498581 -0.6068338928431389 -4.072148037816408e-17 5.631008239253123e-17 -4.072148037816408e-17 5.631008239253123e-17 0.7948290532369172 -0.6068334006383918
12640118666.666666 0.7900679657960296 -0.6130192569754825 -4.0267833525985327e-17 5.661871699489171e-17 -4.0267833525985327e-17 5.661871699489171e-17 0.790068345394887 -0.6130187677427459
12640736000.0 0.7852591207499441 -0.6191672740696751 -3.981185394844522e-17 5.692370185888969e-17 -3.981185394844522e-17 5.692370185888969e-17 0.7852595041371029 -0.6191667878384631
12641353333.333334 0.7804024352814838 -0.6252775695693695 -3.935357097042754e-17 5.722501940617739e-17 -3.935357097042754e-17 5.722501940617739e-17 0.7804028224332169 -0.6252770863690097
12641970666.666666 0.7754982052750279 -0.6313497712164459 -3.889301404883642e-17 5.752265229373201e-17 -3.889301404883642e-17 5.752265229373201e-17 0.7754985961673826 -0.6313492910760791
12642588000.0 0.7705467295115354 -0.6373835090735602 -3.8430212770722045e-17 5.78165834148365e-17 -3.8430212770722045e-17 5.78165834148365e-17 0.7705471241203332 -0.6373830320221375
12643205333.333334 0.7655483096503586 -0.6433784155466574 -3.796519685138051e-17 5.810679590005655e-17 -3.796519685138051e-17 5.810679590005655e-17 0.7655487079511963 -0.6433779416129392
12643822666.666666 0.7605032502107206 -0.6493341254075435 -3.749799613245653e-17 5.839327311819638e-17 -3.749799613245653e-17 5.839327311819638e-17 0.7605036521789738 -0.6493336546200974
12644440000.0 0.7554118585533615 -0.6552502758158932 -3.7028640580039e-17 5.867599867723918e-17 -3.7028640580039e-17 5.867599867723918e-17 0.7554122641641839 -0.6552498082030926
12645057333.333334 0.7502744448617451 -0.6611265063414477 -3.655716028273982e-17 5.895495642527901e-17 -3.655716028273982e-17 5.895495642527901e-17 0.7502748540900713 -0.6611260419314695
12645674666.666666 0.7450913221231015 -0.6669624589860333 -3.608358544978202e-17 5.923013045142622e-17 -3.608358544978202e-17 5.923013045142622e-17 0.7450917349436479 -0.6669619978068569
12646292000.0 0.7398628061093407 -0.6727577782053952 -3.5607946409054734e-17 5.950150508671464e-17 -3.5607946409054734e-17 5.950150508671464e-17 0.7398632224966074 -0.6727573202847998
12646909333.333334 0.7345892153579856 -0.6785121109306655 -3.513027360519504e-17 5.976906490497268e-17 -3.513027360519504e-17 5.976906490497268e-17 0.7345896352862573 -0.6785116562962292
12647526666.666666 0.7292708711525941 -0.6842251065900651 -3.4650597597639604e-17 6.003279472369312e-17 -3.4650597597639604e-17 6.003279472369312e-17 0.7292712945959432 -0.6842246552691637
12648144000.0 0.7239080975032242 -0.6898964171302182 -3.416894905867174e-17 6.029267960488646e-17 -3.416894905867174e-17 6.029267960488646e-17 0.7239085244355118 -0.6898959691500229
12648761333.333334 0.7185012211266922 -0.6955256970373571 -3.368535877147733e-17 6.054870485590963e-17 -3.368535877147733e-17 6.054870485590963e-17 0.7185016515215688 -0.6955252524248327
12649378666.666666 0.7130505714267882 -0.7011126033582478 -3.3199857628177913e-17 6.080085603028948e-17 -3.3199857628177913e-17 6.080085603028948e-17 0.7130510052576962 -0.7011121621401517
12649996000.0 0.7075564804740497 -0.7066567957212502 -3.2712476627865794e-17 6.10491189285248e-17 -3.2712476627865794e-17 6.10491189285248e-17 0.7075569177142242 -0.7066563579241296
12650613333.333334 0.7020192829855288 -0.7121579363570504 -3.222324687463195e-17 6.129347959887452e-17 -3.222324687463195e-17 6.129347959887452e-17 0.7020197236080006 -0.7121575020072424
12651230666.666666 0.6964393163046022 -0.7176156901190403 -3.1732199575589854e-17 6.153392433812885e-17 -3.1732199575589854e-17 6.153392433812885e-17 0.6964397602821986 -0.717615259242669
12651848000.0 0.6908169203801372 -0.723029724504015 -3.1239366038884595e-17 6.177043969236893e-17 -3.1239366038884595e-17 6.177043969236893e-17 0.6908173676854829 -0.7230292971269903
12652465333.333334 0.6851524377460018 -0.7283997096722102 -3.074477767171448e-17 6.200301245770231e-17 -3.074477767171448e-17 6.200301245770231e-17 0.6851528883515223 -0.7283992858202262
12653082666.666666 0.6794462135001178 -0.7337253184674778 -3.024846597833117e-17 6.223162968099023e-17 -3.024846597833117e-17 6.223162968099023e-17 0.67944666737804 -0.7337248981660115
12653700000.0 0.6736985952833515 -0.7390062264372937 -2.97504625580327e-17 6.245627866055959e-17 -2.97504625580327e-17 6.245627866055959e-17 0.6736990524057058 -0.7390058097116038
12654317333.333334 0.6679099332585637 -0.7442421118523124 -2.925079910317637e-17 6.267694694688754e-17 -2.925079910317637e-17 6.267694694688754e-17 0.6679103935971862 -0.7442416987274371
12654934666.666666 0.6620805800890064 -0.7494326557262184 -2.874950739715455e-17 6.28936223432849e-17 -2.874950739715455e-17 6.28936223432849e-17 0.662081043615539 -0.749432246226974
12655552000.0 0.6562108909169614 -0.7545775418350441 -2.824661931237264e-17 6.310629290656034e-17 -2.824661931237264e-17 6.310629290656034e-17 0.656211357602854 -0.7545771359860225
12656169333.333334 0.650301223342208 -0.7596764567363374 -2.7742166808256408e-17 6.331494694765305e-17 -2.7742166808256408e-17 6.331494694765305e-17 0.6503016931587231 -0.7596760545619083
12656786666.666666 0.6443519374000737 -0.7647290897884169 -2.7236181929204383e-17 6.351957303227184e-17 -2.7236181929204383e-17 6.351957303227184e-17 0.6443524103182838 -0.7647286913127214
12657404000.0 0.6383633955395136 -0.7697351331692689 -2.6728696802562717e-17 6.37201599815062e-17 -2.6728696802562717e-17 6.37201599815062e-17 0.6383638715303056 -0.769734738416221
12658021333.333334 0.6323359626011181 -0.774694281895231 -2.6219743636599366e-17 6.391669687241972e-17 -2.6219743636599366e-17 6.391669687241972e-17 0.6323364416351953 -0.7746938908885164
12658638666.666666 0.6262700057949079 -0.7796062338395549 -2.5709354718468592e-17 6.41091730386298e-17 -2.5709354718468592e-17 6.41091730386298e-17 0.626270487842791 -0.779605846602629
12659256000.0 0.6201658946777892 -0.7844706897509602 -2.5197562412154837e-17 6.42975780708775e-17 -2.5197562412154837e-17 6.42975780708775e-17 0.6201663797098168 -0.7844703063070444
12659873333.333334 0.6140240011311427 -0.7892873532717675 -2.4684399156436516e-17 6.448190181757184e-17 -2.4684399156436516e-17 6.448190181757184e-17 0.6140244891174765 -0.7892869736438525
12660490666.666666 0.6078446993383081 -0.794055930955856 -2.4169897462847668e-17 6.466213438531741e-17 -2.4169897462847668e-17 6.466213438531741e-17 0.607845190248931 -0.7940555551666958
12661108000.0 0.6016283657614936 -0.798776132286766 -2.3654089913601072e-17 6.48382661394386e-17 -2.3654089913601072e-17 6.48382661394386e-17 0.601628859566214 -0.7987757603588794
12661725333.333334 0.5953753791190863 -0.8034476696952039 -2.313700915955179e-17 6.501028770447108e-17 -2.313700915955179e-17 6.501028770447108e-17 0.59537587578754 -0.8034473016508729
12662342666.666666 0.5890861203624715 -0.8080702585766546 -2.261868791812799e-17 6.517818996464816e-17 -2.261868791812799e-17 6.517818996464816e-17 0.5890866198641218 -0.8080698944379211
12662960000.0 0.5827609726528421 -0.8126436173086966 -2.2099158971271057e-17 6.534196406436558e-17 -2.2099158971271057e-17 6.534196406436558e-17 0.5827614749569827 -0.8126432570973631
12663577333.333334 0.5764003213378802 -0.8171674672681474 -2.1578455163361632e-17 6.550160140863426e-17 -2.1578455163361632e-17 6.550160140863426e-17 0.5764008264136375 -0.8171671110057751
12664194666.666666 0.5700045539281876 -0.8216415328481013 -2.105660939916095e-17 6.565709366350995e-17 -2.105660939916095e-17 6.565709366350995e-17 0.5700050617445225 -0.8216411805560092
12664812000.0 0.5635740600738174 -0.826065541474624 -2.0533654641730752e-17 6.580843275651299e-17 -2.0533654641730752e-17 6.580843275651299e-17 0.5635745705995259 -0.8260651931738859
12665429333.333334 0.5571092315404167 -0.830439223623437 -2.0009623910359587e-17 6.595561087702834e-17 -2.0009623910359587e-17 6.595561087702834e-17 0.5571097447441334 -0.8304388793348826
12666046666.666666 0.5506104621855265 -0.8347623128362291 -1.9484550278486658e-17 6.609862047668966e-17 -1.9484550278486658e-17 6.609862047668966e-17 0.5506109780357262 -0.8347619725804416
12666664000.0 0.5440781479342309 -0.8390345457371272 -1.8958466871611423e-17 6.62374542697492e-17 -1.8958466871611423e-17 6.62374542697492e-17 0.5440786663992295 -0.8390342095344412
12667281333.333334 0.5375126867555088 -0.8432556620484232 -1.84314068652313e-17 6.637210523342378e-17 -1.84314068652313e-17 6.637210523342378e-17 0.5375132078034668 -0.8432553299189257
12667898666.666666 0.5309144786376584 -0.8474254046066559 -1.790340348273159e-17 6.650256660823611e-17 -1.790340348273159e-17 6.650256660823611e-17 0.5309150022365812 -0.8474250765701825
12668516000.0 0.524283925563973 -0.8515435193782406 -1.737448999330914e-17 6.662883189833004e-17 -1.737448999330914e-17 6.662883189833004e-17 0.524284451681715 -0.8515431954543775
12669133333.333334 0.5176214314883744 -0.8556097554748757 -1.6844699709894086e-17 6.675089487176948e-17 -1.6844699709894086e-17 6.675089487176948e-17 0.5176219600926383 -0.8556094356829548
12669750666.666666 0.5109274023107028 -0.8596238651688818 -1.6314065987033505e-17 6.686874956082963e-17 -1.6314065987033505e-17 6.686874956082963e-17 0.5109279333690437 -0.8596235495279819
12670368000.0 0.5042022458520151 -0.8635856039082832 -1.5782622218817088e-17 6.698239026226104e-17 -1.5782622218817088e-17 6.698239026226104e-17 0.5042027793318421 -0.8635852924372293
