! Parameters = {f0=12700.012000; bw=77.238000; Q=6100.000000; N=10; m_0_1=1.301597; m_1_1=0.759203; m_1_2=1.136409; m_2_2=0.758554; m_2_3=0.773372; m_2_8=0.002144; m_2_9=0.038848; m_3_3=0.756617; m_3_4=0.661901; m_3_7=0.002744; m_3_8=-0.094344; m_3_9=0.002144; m_4_4=0.753692; m_4_5=0.498236; m_4_6=0.006261; m_4_7=-0.114893; m_4_8=0.002744; m_5_5=0.754074; m_5_6=0.905591; m_5_7=0.006261; m_6_6=0.754073; m_6_7=0.498578; m_7_7=0.753706; m_7_8=0.662019; m_8_8=0.756615; m_8_9=0.773685; m_9_9=0.758549; m_9_10=1.137487; m_10_10=0.759193; m_10_11=1.302392}
!
! Created with skrf (http://scikit-rf.org).
# Hz S RI R 50.0 
!freq ReS11 ImS11 ReS21 ImS21 ReS12 ImS12 ReS22 ImS22
12607400000.0 0.864362226274409 0.5028697065739414 -1.2444021666953636e-16 -3.0308420789284876e-17 -1.2444021666953636e-16 -3.0308420789284876e-17 0.8643618814567128 0.5028702992665461
12608017333.333334 0.8700667623855652 0.49293389921135994 -1.247574130709614e-16 -2.886402844199952e-17 -1.247574130709614e-16 -2.886402844199952e-17 0.8700664243973936 0.49293449578635623
12608634666.666666 0.8756570917919066 0.48293338836153693 -1.2505785451814152e-16 -2.741635398198571e-17 -1.2505785451814152e-16 -2.741635398198571e-17 0.8756567606769536 0.4829339887402409
12609252000.0 0.8811324806956667 0.4728694867116231 -1.2534150752771407e-16 -2.5965591648524467e-17 -1.2534150752771407e-16 -2.5965591648524467e-17 0.8811321564967205 0.4728700908148595
12609869333.333334 0.8864922103864703 0.4627435152694472 -1.2560834086676342e-16 -2.451193601633691e-17 -1.2560834086676342e-16 -2.451193601633691e-17 0.8864918931454054 0.4627441230175587
12610486666.666666 0.8917355773354925 0.45255680319044017 -1.2585832555609497e-16 -2.3055581969558433e-17 -1.2585832555609497e-16 -2.3055581969558433e-17 0.8917352670932684 0.45255741450330034
12611104000.0 0.8968618932880499 0.4423106876027189 -1.2609143487322616e-16 -2.159672467558549e-17 -1.2609143487322616e-16 -2.159672467558549e-17 0.8968615900847019 0.4423113023997401
12611721333.333334 0.9018704853537021 0.4320065134320231 -1.2630764435504979e-16 -2.013555955903794e-17 -1.2630764435504979e-16 -2.013555955903794e-17 0.9018701892283391 0.4320071316321691
12612338666.666666 0.9067606960947348 0.4216456332248757 -1.2650693180021909e-16 -1.86722822755576e-17 -1.2650693180021909e-16 -1.86722822755576e-17 0.9067604070855322 0.4216462547466713
12612956000.0 0.9115318836124028 0.41122940697114546 -1.2668927727121804e-16 -1.7207088685661556e-17 -1.2668927727121804e-16 -1.7207088685661556e-17 0.9115316017565972 0.4112300317326868
12613573333.333334 0.9161834216311513 0.40075920192560904 -1.2685466309612826e-16 -1.5740174828589323e-17 -1.2685466309612826e-16 -1.5740174828589323e-17 0.9161831469650382 0.40075982984457587
12614190666.666666 0.9207146995809062 0.39023639242830266 -1.2700307387009999e-16 -1.4271736896089574e-17 -1.2700307387009999e-16 -1.4271736896089574e-17 0.920714432139834 0.3902370234219683
12614808000.0 0.9251251226771262 0.3796623597243305 -1.2713449645651756e-16 -1.2801971206214855e-17 -1.2713449645651756e-16 -1.2801971206214855e-17 0.9251248624954903 0.37966299370957246
12615425333.333334 0.9294141119989535 0.3690384917823773 -1.2724891998786085e-16 -1.1331074177124152e-17 -1.2724891998786085e-16 -1.1331074177124152e-17 0.9294138591101938 0.36903912867568867
12616042666.666666 0.9335811045651695 0.3583661831125986 -1.2734633586626547e-16 -9.859242300864237e-18 -1.2734633586626547e-16 -9.859242300864237e-18 0.9335808590017658 0.35836682283009913
12616660000.0 0.9376255534080647 0.3476468345836547 -1.2742673776377958e-16 -8.3866721171733e-18 -1.2742673776377958e-16 -8.3866721171733e-18 0.9376253152015317 0.34764747704110155
12617277333.333334 0.9415469276453045 0.33688185323864417 -1.2749012162232036e-16 -6.91356018724489e-18 -1.2749012162232036e-16 -6.91356018724489e-18 0.9415466968261873 0.33688249835144285
12617894666.666666 0.9453447125495322 0.3260726521106245 -1.275364856533238e-16 -5.440103067575404e-18 -1.275364856533238e-16 -5.440103067575404e-18 0.9453444891474062 0.326073299793841
12618512000.0 0.9490184096160172 0.31522065003692284 -1.2756583033709802e-16 -3.96649728371008e-18 -1.2756583033709802e-16 -3.96649728371008e-18 0.9490181936594779 0.31522130020529326
12619129333.333334 0.9525675366280064 0.30432727147310884 -1.2757815842186892e-16 -2.4929393041338726e-18 -1.2757815842186892e-16 -2.4929393041338726e-18 0.9525673281446715 0.30432792404105197
12619746666.666666 0.9559916277200815 0.2933939463058579 -1.2757347492252798e-16 -1.019625514075021e-18 -1.2757347492252798e-16 -1.019625514075021e-18 0.9559914267365848 0.293394601187486
12620364000.0 0.9592902334393225 0.2824221096652059 -1.275517871190763e-16 4.5324781063379515e-19 -1.275517871190763e-16 4.5324781063379515e-19 0.9592900399813107 0.28242276677433575
12620981333.333334 0.9624629208041954 0.2714132017365245 -1.2751310455476906e-16 1.9254845296187277e-18 -1.2751310455476906e-16 1.9254845296187277e-18 0.9624627348963251 0.271413860986689
12621598666.666666 0.965509273361529 0.26036866757101795 -1.274574390339579e-16 3.396888664104934e-18 -1.274574390339579e-16 3.396888664104934e-18 0.9655090950274623 0.2603693288754772
12622216000.0 0.96842889124107 0.2492899568963955 -1.2738480461963396e-16 4.867264422937993e-18 -1.2738480461963396e-16 4.867264422937993e-18 0.9684287205034736 0.24929062016814876
12622833333.333334 0.9712213912080434 0.2381785239263323 -1.2729521763066975e-16 6.336416228595504e-18 -1.2729521763066975e-16 6.336416228595504e-18 0.9712212280885855 0.23817918907812918
12623450666.666666 0.9738864067134062 0.22703582716977852 -1.2718869663876334e-16 7.804148743174594e-18 -1.2718869663876334e-16 7.804148743174594e-18 0.9738862512327506 0.22703649411413002
12624068000.0 0.9764235879419719 0.2158633292394569 -1.2706526246508199e-16 9.270266894315545e-18 -1.2706526246508199e-16 9.270266894315545e-18 0.9764234401197797 0.2158639978886476
12624685333.333334 0.9788326018583772 0.20466249665968425 -1.2692493817660627e-16 1.073457590111968e-17 -1.2692493817660627e-16 1.073457590111968e-17 0.9788324617133026 0.20466316692578365
12625302666.666666 0.9811131322507073 0.19343479967426036 -1.267677490821823e-16 1.2196881299938905e-17 -1.267677490821823e-16 1.2196881299938905e-17 0.9811129998003948 0.1934354714691342
12625920000.0 0.983264879772104 0.18218171205300834 -1.2659372272826642e-16 1.3656988970224588e-17 -1.2659372272826642e-16 1.3656988970224588e-17 0.9832647550331852 0.18218238528833025
12626537333.333334 0.98528756197996 0.170904710898798 -1.264028888943868e-16 1.5114705160194678e-17 -1.264028888943868e-16 1.5114705160194678e-17 0.9852874449680542 0.17090538548606127
12627154666.666666 0.9871809133730444 0.1596052764534362 -1.261952795882978e-16 1.656983651254959e-17 -1.261952795882978e-16 1.656983651254959e-17 0.9871808041027539 0.15960595230396524
12627772000.0 0.9889446854263835 0.14828489190314234 -1.2597092904084085e-16 1.8022190090092884e-17 -1.2597092904084085e-16 1.8022190090092884e-17 0.9889445839112946 0.1482855689281046
12628389333.333334 0.9905786466238079 0.13694504318433948 -1.257298737005238e-16 1.9471573401214595e-17 -1.257298737005238e-16 1.9471573401214595e-17 0.9905785528764863 0.13694572129475674
12629006666.666666 0.9920825824884131 0.12558721878812934 -1.2547215222778506e-16 2.0917794425441023e-17 -1.2547215222778506e-16 2.0917794425441023e-17 0.9920824965204041 0.12558789789488978
12629624000.0 0.9934562956106506 0.11421290956533237 -1.251978054889864e-16 2.2360661638783197e-17 -1.251978054889864e-16 2.2360661638783197e-17 0.9934562174324788 0.11421358957920205
12630241333.333334 0.994699605674291 0.10282360853045773 -1.2490687655009988e-16 2.3799984039091295e-17 -1.2490687655009988e-16 2.3799984039091295e-17 0.9946995352954557 0.10282428936209238
12630858666.666666 0.9958123494800539 0.09142081066600924 -1.245994106701166e-16 2.523557117126571e-17 -1.245994106701166e-16 2.523557117126571e-17 0.9958122869090302 0.09142149222596595
12631476000.0 0.9967943809670686 0.08000601272588342 -1.2427545529414653e-16 2.6667233152481005e-17 -1.2427545529414653e-16 2.6667233152481005e-17 0.9967943262113064 0.08000669492463248
12632093333.333334 0.997645571232003 0.06858071303935535 -1.2393506004625385e-16 2.8094780697207e-17 -1.2393506004625385e-16 2.8094780697207e-17 0.9976455242979254 0.06858139578729192
12632710666.666666 0.9983658085460085 0.057146411314178754 -1.2357827672199086e-16 2.9518025142207784e-17 -1.2357827672199086e-16 2.9518025142207784e-17 0.9983657694390119 0.057147094521634724
12633328000.0 0.9989549983693978 0.04570460843953288 -1.2320515928063857e-16 3.093677847147593e-17 -1.2320515928063857e-16 3.093677847147593e-17 0.9989549670938502 0.04570529201678852
12633945333.333334 0.9994130633640271 0.03425680628935263 -1.2281576383718191e-16 3.235085334098657e-17 -1.2281576383718191e-16 3.235085334098657e-17 0.9994130399232684 0.03425749014664847
12634562666.666666 0.9997399434034623 0.022804507524991333 -1.2241014865398365e-16 3.376006310342228e-17 -1.2241014865398365e-16 3.376006310342228e-17 0.9997399277998029 0.022805191572539903
12635180000.0 0.9999355955808669 0.01134921539812035 -1.2198837413218731e-16 3.516422183275381e-17 -1.2198837413218731e-16 3.516422183275381e-17 0.9999355878155893 0.011349899546118017
12635797333.333334 0.9999999942146373 -0.00010756644678959558 -1.2155050280282534e-16 3.656314434875644e-17 -1.2155050280282534e-16 3.656314434875644e-17 0.9999999942879961 -0.00010688228815088432
12636414666.666666 0.9999331308517727 -0.011564334169640924 -1.2109659931766264e-16 3.795664624136928e-17 -1.2109659931766264e-16 3.795664624136928e-17 0.9999331387629915 -0.011563650090161854
12637032000.0 0.9997350142689825 -0.02301958393219148 -1.2062673043974952e-16 3.934454389497677e-17 -1.2062673043974952e-16 3.934454389497677e-17 0.999735030016258 -0.02301890002165359
12637649333.333334 0.9994056704715394 -0.0344718120955083 -1.2014096503369885e-16 4.0726654512571416e-17 -1.2014096503369885e-16 4.0726654512571416e-17 0.999405694052038 -0.034471128443662125
12638266666.666666 0.9989451426898565 -0.045919515417281155 -1.1963937405569082e-16 4.2102796139784217e-17 -1.1963937405569082e-16 4.2102796139784217e-17 0.9989451740997183 -0.04591883211383457
12638884000.0 0.998353491373824 -0.057361191249056184 -1.1912203054320487e-16 4.3472787688790325e-17 -1.1912203054320487e-16 4.3472787688790325e-17 0.9983535306081623 -0.05736050838366257
12639501333.333334 0.9976307941848649 -0.06879533773367524 -1.1858900960446598e-16 4.483644896212365e-17 -1.1858900960446598e-16 4.483644896212365e-17 0.9976308412377655 -0.06879465539592171
12640118666.666666 0.9967771459857548 -0.08022045400212889 -1.1804038840764055e-16 4.6193600676306186e-17 -1.1804038840764055e-16 4.6193600676306186e-17 0.9967772008502782 -0.08021977228152455
12640736000.0 0.9957926588281354 -0.0916350403710737 -1.1747624616972495e-16 4.7544064485440255e-17 -1.1747624616972495e-16 4.7544064485440255e-17 0.9957927214963167 -0.09163435935703788
12641353333.333334 0.9946774619378653 -0.10303759853889029 -1.1689666414522818e-16 4.888766300451298e-17 -1.1689666414522818e-16 4.888766300451298e-17 0.9946775324007174 -0.10303691832074094
12641970666.666666 0.9934317016979975 -0.11442663178314667 -1.1630172561451207e-16 5.022421983274711e-17 -1.1630172561451207e-16 5.022421983274711e-17 0.9934317799455102 -0.11442595245008845
12642588000.0 0.9920555416296059 -0.1258006451565513 -1.1569151587192045e-16 5.155355957667798e-17 -1.1569151587192045e-16 5.155355957667798e-17 0.9920556276507491 -0.12579996679766406
12643205333.333334 0.9905491623703009 -0.1371581456834092 -1.1506612221363116e-16 5.2875507873124636e-17 -1.1506612221363116e-16 5.2875507873124636e-17 0.9905492561530244 -0.1371574683876362
12643822666.666666 0.9889127616505138 -0.14849764255559245 -1.1442563392522693e-16 5.418989141205345e-17 -1.1442563392522693e-16 5.418989141205345e-17 0.9889128631817511 -0.14849696641172885
12644440000.0 0.9871465542675585 -0.1598176473281426 -1.1377014226903355e-16 5.5496537959233894e-17 -1.1377014226903355e-16 5.5496537959233894e-17 0.9871466635332253 -0.15981697242482337
12645057333.333334 0.9852507720574424 -0.17111667411456175 -1.1309974047119064e-16 5.679527637876173e-17 -1.1309974047119064e-16 5.679527637876173e-17 0.9852508890424427 -0.17111600054025083
12645674666.666666 0.9832256638644167 -0.18239323978205135 -1.1241452370845386e-16 5.808593665545322e-17 -1.1241452370845386e-16 5.808593665545322e-17 0.9832257885526415 -0.18239256762502926
12646292000.0 0.981071495508305 -0.19364586414616122 -1.1171458909474351e-16 5.936834991707389e-17 -1.1171458909474351e-16 5.936834991707389e-17 0.9810716278826371 -0.1936451934945141
12646909333.333334 0.9787885497496476 -0.2048730701649146 -1.1100003566747504e-16 6.064234845634322e-17 -1.1100003566747504e-16 6.064234845634322e-17 0.9787886897919609 -0.2048724011065221
12647526666.666666 0.9763771262525518 -0.21607338413285504 -1.1027096437358515e-16 6.190776575287754e-17 -1.1027096437358515e-16 6.190776575287754e-17 0.9763772739437172 -0.21607271675537945
12648144000.0 0.9738375415453516 -0.22724533587451534 -1.0952747805534276e-16 6.316443649489852e-17 -1.0952747805534276e-16 6.316443649489852e-17 0.9738376968652369 -0.22724467026538953
12648761333.333334 0.9711701289791059 -0.2383874589371734 -1.0876968143590991e-16 6.441219660078295e-17 -1.0876968143590991e-16 6.441219660078295e-17 0.9711702919065804 -0.23838679518358985
12649378666.666666 0.9683752386838019 -0.24949829078353658 -1.0799768110466049e-16 6.565088324043339e-17 -1.0799768110466049e-16 6.565088324043339e-17 0.9683754091967373 -0.24949762897243533
12649996000.0 0.9654532375224139 -0.26057637298363356 -1.0721158550222924e-16 6.688033485652069e-17 -1.0721158550222924e-16 6.688033485652069e-17 0.96545341559769 -0.2605757132016918
12650613333.333334 0.9624045090427205 -0.27162025140636153 -1.0641150490534987e-16 6.810039118549506e-17 -1.0641150490534987e-16 6.810039118549506e-17 0.9624046946562261 -0.27161959373998124
12651230666.666666 0.9592294534270125 -0.282628476410166 -1.0559755141145894e-16 6.93108932784154e-17 -1.0559755141145894e-16 6.93108932784154e-17 0.9592296465536475 -0.28262782094546274
12651848000.0 0.9559284874395045 -0.293599603033514 -1.0476983892301654e-16 7.051168352166349e-17 -1.0476983892301654e-16 7.051168352166349e-17 0.9559286880531885 -0.2935989498563068
12652465333.333334 0.9525020443716614 -0.30453219118448294 -1.0392848313164852e-16 7.170260565738851e-17 -1.0392848313164852e-16 7.170260565738851e-17 0.9525022524453312 -0.3045315403802814
12653082666.666666 0.9489505739853499 -0.315424805829679 -1.0307360150203916e-16 7.288350480379046e-17 -1.0307360150203916e-16 7.288350480379046e-17 0.9489507894909675 -0.31542415748367353
12653700000.0 0.9452745424537047 -0.32627601718292965 -1.022053132555541e-16 7.405422747526739e-17 -1.022053132555541e-16 7.405422747526739e-17 0.9452747653622583 -0.32627537137997925
12654317333.333334 0.9414744323000916 -0.3370844008924719 -1.0132373935370639e-16 7.521462160226974e-17 -1.0132373935370639e-16 7.521462160226974e-17 0.9414746625816011 -0.33708375771709387
12654934666.666666 0.9375507423346313 -0.34784853822834916 -1.0042900248133714e-16 7.636453655104291e-17 -1.0042900248133714e-16 7.636453655104291e-17 0.9375509799581514 -0.3478478977647074
12655552000.0 0.9335039875887432 -0.35856701626855236 -9.952122702959207e-17 7.750382314314054e-17 -9.952122702959207e-17 7.750382314314054e-17 0.9335042325223687 -0.35856637860044693
12656169333.333334 0.9293346992476663 -0.3692384280841652 -9.860053907871092e-17 7.86323336746984e-17 -9.860053907871092e-17 7.86323336746984e-17 0.9293349514585358 -0.36923779329502115
12656786666.666666 0.9250434245805627 -0.37986137292449224 -9.766706638053006e-17 7.974992193558774e-17 -9.766706638053006e-17 7.974992193558774e-17 0.925043684034862 -0.37986074109734835
12657404000.0 0.9206307268688141 -0.3904344564005797 -9.672093834083699e-17 8.085644322827816e-17 -9.672093834083699e-17 8.085644322827816e-17 0.9206309935317806 -0.3904338276180772
12658021333.333334 0.9160971853319861 -0.4009562906684807 -9.57622860014619e-17 8.195175438655341e-17 -9.57622860014619e-17 8.195175438655341e-17 0.9160974591679181 -0.40095566501285496
12658638666.666666 0.9114433950519082 -0.4114254946111958 -9.479124202219932e-17 8.303571379396582e-17 -9.479124202219932e-17 8.303571379396582e-17 0.9114436760241614 -0.4114248721642618
12659256000.0 0.906669966894412 -0.42184069402026814 -9.380794066247191e-17 8.41081814021342e-17 -9.380794066247191e-17 8.41081814021342e-17 0.9066702549654125 -0.421840074863413
12659873333.333334 0.9017775274293075 -0.43220052177583024 -9.281251776284756e-17 8.516901874875814e-17 -9.281251776284756e-17 8.516901874875814e-17 0.9017778225605518 -0.43219990599000085
12660490666.666666 0.8967667188480672 -0.44250361802621124 -9.180511072630897e-17 8.621808897546626e-17 -9.180511072630897e-17 8.621808897546626e-17 0.8967670210001295 -0.4425030056919043
12661108000.0 0.8916381988794421 -0.452748630366611 -9.078585849931723e-17 8.725525684544362e-17 -9.078585849931723e-17 8.725525684544362e-17 0.8916385080119773 -0.4527480215638616
12661725333.333334 0.8863926407033361 -0.46293421401618406 -8.975490155273818e-17 8.828038876077596e-17 -8.975490155273818e-17 8.828038876077596e-17 0.8863929567750906 -0.4629336088245579
12662342666.666666 0.881030732862225 -0.4730590319950218 -8.871238186248851e-17 8.929335277965593e-17 -8.871238186248851e-17 8.929335277965593e-17 0.8810310558310344 -0.47305843049360075
12662960000.0 0.8755531791709338 -0.48312175529931123 -8.765844289005033e-17 9.029401863329734e-17 -8.765844289005033e-17 9.029401863329734e-17 0.8755535089937344 -0.483121157566686
12663577333.333334 0.8699606986241526 -0.493121063075988 -8.659322956278153e-17 9.128225774263616e-17 -8.659322956278153e-17 9.128225774263616e-17 0.8699610352569859 -0.4931204691902474
12664194666.666666 0.8642540253021137 -0.5030556427960133 -8.551688825401756e-17 9.22579432348193e-17 -8.551688825401756e-17 9.22579432348193e-17 0.8642543687001302 -0.5030550528347327
12664812000.0 0.8584339082742034 -0.5129241904267069 -8.442956676301422e-17 9.322094995943515e-17 -8.442956676301422e-17 9.322094995943515e-17 0.8584342583916711 -0.5129236044669397
12665429333.333334 0.8525011115006845 -0.5227254106028462 -8.333141429468952e-17 9.417115450452485e-17 -8.333141429468952e-17 9.417115450452485e-17 0.8525014682909936 -0.5227248287211127
12666046666.666666 0.8464564137324018 -0.5324580167967209 -8.222258143921892e-17 9.510843521232797e-17 -8.222258143921892e-17 9.510843521232797e-17 0.8464567771480711 -0.5324574390689991
12666664000.0 0.8403006084084428 -0.5421207314872006 -8.110322015138375e-17 9.603267219484907e-17 -8.110322015138375e-17 9.603267219484907e-17 0.8403009784011258 -0.5421201579889154
12667281333.333334 0.8340345035522427 -0.5517122863270124 -7.997348372983753e-17 9.694374734910288e-17 -7.997348372983753e-17 9.694374734910288e-17 0.8340348800727359 -0.5517117171330269
12667898666.666666 0.827658921665285 -0.5612314223096152 -7.883352679613671e-17 9.784154437217197e-17 -7.883352679613671e-17 9.784154437217197e-17 0.8276593046635307 -0.5612308574942192
12668516000.0 0.8211746996191733 -0.5706768899343809 -7.768350527360512e-17 9.872594877601525e-17 -7.768350527360512e-17 9.872594877601525e-17 0.82117508904427 -0.5706763295712831
12669133333.333334 0.8145826885459785 -0.5800474493703268 -7.652357636608646e-17 9.959684790198692e-17 -7.652357636608646e-17 9.959684790198692e-17 0.8145830843461858 -0.5800468935326445
12669750666.666666 0.8078837537262624 -0.5893418706192357 -7.535389853646469e-17 1.0045413093516171e-16 -7.535389853646469e-17 1.0045413093516171e-16 0.8078841558490083 -0.5893413193794845
12670368000.0 0.8010787744756076 -0.59855893367694 -7.417463148508113e-17 1.0129768891836454e-16 -7.417463148508113e-17 1.0129768891836454e-16 0.8010791828674947 -0.5985583871070249
