! Parameters = {f0=12700.012000; bw=77.238000; Q=6100.000000; N=10; m_0_1=1.301997; m_1_1=0.765209; m_1_2=1.136809; m_2_2=0.764560; m_2_3=0.773772; m_2_8=0.002164; m_2_9=0.038868; m_3_3=0.762623; m_3_4=0.662301; m_3_7=0.002764; m_3_8=-0.094324; m_3_9=0.002164; m_4_4=0.759698; m_4_5=0.498636; m_4_6=0.006281; m_4_7=-0.114873; m_4_8=0.002764; m_5_5=0.760080; m_5_6=0.905991; m_5_7=0.006281; m_6_6=0.760079; m_6_7=0.498978; m_7_7=0.759712; m_7_8=0.662419; m_8_8=0.762621; m_8_9=0.774085; m_9_9=0.764555; m_9_10=1.137887; m_10_10=0.765199; m_10_11=1.302792}
!
! Created with skrf (http://scikit-rf.org).
# Hz S RI R 50.0 
!freq ReS11 ImS11 ReS21 ImS21 ReS12 ImS12 ReS22 ImS22
12607400000.0 0.9596563158920208 0.2811756663873467 -1.2831203632577146e-16 3.8366361163638255e-19 -1.2831203632577146e-16 3.8366361163638255e-19 0.9596561230306881 0.28117632462482095
12608017333.333334 0.962817896843728 0.2701512493349514 -1.2827390975341214e-16 1.8662122834257336e-18 -1.2827390975341214e-16 1.8662122834257336e-18 0.9628177115532205 0.2701519097086554
12608634666.666666 0.9658528351164418 0.2590912983821477 -1.2821866352769422e-16 3.347931132326774e-18 -1.2821866352769422e-16 3.347931132326774e-18 0.9658526574203885 0.2590919608050152
12609252000.0 0.9687607315146062 0.2479972682815294 -1.281463117311786e-16 4.82862258652257e-18 -1.281463117311786e-16 4.82862258652257e-18 0.9687605614356358 0.24799793266623354
12609869333.333334 0.9715412035529181 0.23687061826820635 -1.280568707251854e-16 6.3080892887651825e-18 -1.280568707251854e-16 6.3080892887651825e-18 0.9715410411126556 0.2368712845271707
12610486666.666666 0.9741938855066039 0.22571281186800415 -1.279503591467177e-16 7.786134122624697e-18 -1.279503591467177e-16 7.786134122624697e-18 0.9741937307256657 0.22571347991341398
12611104000.0 0.9767184284595949 0.2145253167046571 -1.2782679790507966e-16 9.262560238754042e-18 -1.2782679790507966e-16 9.262560238754042e-18 0.9767182813575902 0.21452598644847184
12611721333.333334 0.979114500350333 0.20330960430715503 -1.2768621017819823e-16 1.0737171081016943e-17 -1.2768621017819823e-16 1.0737171081016943e-17 0.9791143609458571 0.2033102756611189
12612338666.666666 0.9813817860155114 0.19206714991591062 -1.2752862140863838e-16 1.220977041265382e-17 -1.2752862140863838e-16 1.220977041265382e-17 0.9813816543261454 0.19206782279156467
12612956000.0 0.983519987231528 0.18079943228868706 -1.273540592993177e-16 1.3680162342358246e-17 -1.273540592993177e-16 1.3680162342358246e-17 0.9835198632738383 0.18080010659738127
12613573333.333334 0.9855288227536455 0.1695079335064557 -1.271625538089277e-16 1.5148151350264795e-17 -1.271625538089277e-16 1.5148151350264795e-17 0.9855287065431799 0.16950860915936025
12614190666.666666 0.9874080283530716 0.1581941387780065 -1.269541371470452e-16 1.6613542313945637e-17 -1.269541371470452e-16 1.6613542313945637e-17 0.9874079199043563 0.15819481568612315
12614808000.0 0.9891573568516611 0.14685953624484382 -1.2672884376895384e-16 1.8076140534289825e-17 -1.2672884376895384e-16 1.8076140534289825e-17 0.9891572561782007 0.14686021431901816
12615425333.333334 0.9907765781544421 0.13550561678539114 -1.2648671037016323e-16 1.9535751761337482e-17 -1.2648671037016323e-16 1.9535751761337482e-17 0.990776485268717 0.13550629593632402
12616042666.666666 0.9922654792798804 0.12413387381889031 -1.2622777588063332e-16 2.0992182220040483e-17 -1.2622777588063332e-16 2.0992182220040483e-17 0.9922653941933446 0.12413455395714959
12616660000.0 0.9936238643878923 0.11274580310896726 -1.259520814587013e-16 2.2445238635949458e-17 -1.259520814587013e-16 2.2445238635949458e-17 0.9936237871109748 0.11274648414499999
12617277333.333334 0.994851554805609 0.10134290256686107 -1.2565967048471286e-16 2.389472826083116e-17 -1.2565967048471286e-16 2.389472826083116e-17 0.9948514853477095 0.10134358441100479
12617894666.666666 0.9959483890508631 0.08992667205453986 -1.2535058855436752e-16 2.534045889816273e-17 -1.2535058855436752e-16 2.534045889816273e-17 0.9959483274203518 0.0899273546170346
12618512000.0 0.996914222853459 0.07849861318710778 -1.250248834717479e-16 2.678223892865644e-17 -1.250248834717479e-16 2.678223892865644e-17 0.9969141690576757 0.07849929637810789
12619129333.333334 0.9977489291741098 0.06706022913568856 -1.2468260524209326e-16 2.821987733551919e-17 -1.2468260524209326e-16 2.821987733551919e-17 0.9977488832193653 0.06706091286527464
12619746666.666666 0.9984523982211799 0.055613024429425714 -1.243238060642459e-16 2.9653183729796254e-17 -1.243238060642459e-16 2.9653183729796254e-17 0.9984523601127502 0.05561370860761613
12620364000.0 0.9990245374651159 0.04415850475758606 -1.2394854032282667e-16 3.108196837552851e-17 -1.2394854032282667e-16 3.108196837552851e-17 0.9990245072072456 0.04415918929434909
12620981333.333334 0.9994652716506046 0.03269817677176695 -1.23556864580125e-16 3.250604221480244e-17 -1.23556864580125e-16 3.250604221480244e-17 0.999465249246506 0.032698861577032515
12621598666.666666 0.9997745428064904 0.02123354788743759 -1.2314883756768658e-16 3.3925216892763356e-17 -1.2314883756768658e-16 3.3925216892763356e-17 0.9997745282583419 0.021234232871109083
12622216000.0 0.9999523102533897 0.009766126085776993 -1.2272452017762687e-16 3.5339304782471914e-17 -1.2272452017762687e-16 3.5339304782471914e-17 0.9999523035623366 0.009766811157743171
12622833333.333334 0.9999985506090446 -0.0017025802846189235 -1.2228397545365358e-16 3.674811900967841e-17 -1.2228397545365358e-16 3.674811900967841e-17 0.999998551775198 -0.0017018952144721093
12623450666.666666 0.9999132577913964 -0.013171062706192348 -1.2182726858181172e-16 3.8151473477466086e-17 -1.2182726858181172e-16 3.8151473477466086e-17 0.999913266813836 -0.013170377727969907
12624068000.0 0.9996964430193923 -0.024637812690872448 -1.2135446688093704e-16 3.9549182890812326e-17 -1.2135446688093704e-16 3.9549182890812326e-17 0.9996964598961617 -0.024637127894658457
12624685333.333334 0.9993481348114966 -0.03610132197854857 -1.2086563979283103e-16 4.0941062781018767e-17 -1.2086563979283103e-16 4.0941062781018767e-17 0.999348159539608 -0.03610063745439438
12625302666.666666 0.9988683789819554 -0.04756008273517276 -1.2036085887217137e-16 4.232692952998451e-17 -1.2036085887217137e-16 4.232692952998451e-17 0.9988684115573893 -0.047559398573085145
12625920000.0 0.9982572386347542 -0.059012587751516306 -1.1984019777611308e-16 4.370660039444143e-17 -1.1984019777611308e-16 4.370660039444143e-17 0.9982572790524588 -0.05901190404144562
12626537333.333334 0.9975147941553336 -0.07045733064102049 -1.1930373225364873e-16 4.5079893529964314e-17 -1.1930373225364873e-16 4.5079893529964314e-17 0.9975148424092256 -0.07045664747284879
12627154666.666666 0.9966411432000081 -0.08189280603810693 -1.1875154013466945e-16 4.644662801491993e-17 -1.1875154013466945e-16 4.644662801491993e-17 0.9966411992829759 -0.08189212350163635
12627772000.0 0.9956364006831121 -0.09331750979635385 -1.181837013187505e-16 4.7806623874282945e-17 -1.181837013187505e-16 4.7806623874282945e-17 0.995636464587012 -0.0933168279812944
12628389333.333334 0.9945006987619082 -0.10472993918594414 -1.1760029776369337e-16 4.915970210324938e-17 -1.1760029776369337e-16 4.915970210324938e-17 0.9945007704775716 -0.10472925818190242
12629006666.666666 0.9932341868191742 -0.11612859309174973 -1.1700141347375658e-16 5.0505684690807996e-17 -1.1700141347375658e-16 5.0505684690807996e-17 0.993234266336405 -0.11612791298821687
12629624000.0 0.9918370314435792 -0.1275119722104668 -1.1638713448765528e-16 5.18443946430835e-17 -1.1638713448765528e-16 5.18443946430835e-17 0.9918371187511563 -0.1275112930968067
12630241333.333334 0.9903094164077536 -0.13887857924802208 -1.1575754886626735e-16 5.31756560065942e-17 -1.1575754886626735e-16 5.31756560065942e-17 0.990309511493432 -0.13887790121345975
12630858666.666666 0.9886515426441558 -0.1502269191162072 -1.1511274668010194e-16 5.449929389130284e-17 -1.1511274668010194e-16 5.449929389130284e-17 0.9886516454946681 -0.15022624224981673
12631476000.0 0.9868636282185541 -0.16155549912995107 -1.1445281999645313e-16 5.581513449362394e-17 -1.1445281999645313e-16 5.581513449362394e-17 0.9868637388196146 -0.16155482352064468
12632093333.333334 0.9849459083014579 -0.17286282920289936 -1.1377786286636925e-16 5.712300511911774e-17 -1.1377786286636925e-16 5.712300511911774e-17 0.9849460266377629 -0.17286215493941512
12632710666.666666 0.9828986351371162 -0.1841474220438887 -1.1308797131129282e-16 5.842273420517026e-17 -1.1308797131129282e-16 5.842273420517026e-17 0.9828987611923444 -0.18414674921477875
12633328000.0 0.9807220780103271 -0.1954077933525731 -1.123832433094689e-16 5.971415134345768e-17 -1.123832433094689e-16 5.971415134345768e-17 0.9807222117671446 -0.19540712204619243
12633945333.333334 0.9784165232110649 -0.20664246201443645 -1.116637787821113e-16 6.099708730222256e-17 -1.116637787821113e-16 6.099708730222256e-17 0.9784166646511266 -0.20664179231893115
12634562666.666666 0.9759822739967962 -0.21784995029574777 -1.1092967957929403e-16 6.227137404842628e-17 -1.1092967957929403e-16 6.227137404842628e-17 0.9759824231007476 -0.2178492822990433
12635180000.0 0.9734196505525939 -0.22902878403790433 -1.1018104946559944e-16 6.353684476971296e-17 -1.1018104946559944e-16 6.353684476971296e-17 0.9734198073000769 -0.2290281178276946
12635797333.333334 0.9707289899490228 -0.24017749285136142 -1.0941799410551359e-16 6.479333389620852e-17 -1.0941799410551359e-16 6.479333389620852e-17 0.9707291543186726 -0.24017682851509628
12636414666.666666 0.9679106460978212 -0.2512946103089257 -1.0864062104858323e-16 6.604067712212997e-17 -1.0864062104858323e-16 6.604067712212997e-17 0.9679108180672744 -0.25129394793380017
12637032000.0 0.964964989705315 -0.26237867413880567 -1.078490397143074e-16 6.727871142724795e-17 -1.078490397143074e-16 6.727871142724795e-17 0.9649651692512105 -0.26237801381174836
12637649333.333334 0.9618924082236836 -0.2734282264168389 -1.0704336137680488e-16 6.850727509813894e-17 -1.0704336137680488e-16 6.850727509813894e-17 0.9618925953216667 -0.2734275682245007
12638266666.666666 0.9586933057999893 -0.28444181375828526 -1.0622369914922991e-16 6.97262077492695e-17 -1.0622369914922991e-16 6.97262077492695e-17 0.9586935004247137 -0.2844411577870275
12638884000.0 0.9553681032230196 -0.2954179875089952 -1.0539016796795126e-16 7.093535034389272e-17 -1.0539016796795126e-16 7.093535034389272e-17 0.9553683053481516 -0.2954173338448789
12639501333.333334 0.9519172378679199 -0.3063553039360102 -1.0454288457649083e-16 7.213454521475849e-17 -1.0454288457649083e-16 7.213454521475849e-17 0.9519174474661418 -0.30635465266478445
12640118666.666666 0.9483411636387623 -0.3172523244171646 -1.0368196750924321e-16 7.332363608461317e-17 -1.0368196750924321e-16 7.332363608461317e-17 0.9483413806817762 -0.31725167562425527
12640736000.0 0.9446403509086031 -0.328107615631042 -1.0280753707491496e-16 7.450246808656923e-17 -1.0280753707491496e-16 7.450246808656923e-17 0.9446405753671347 -0.3281069694015407
12641353333.333334 0.940815286457951 -0.3389197497444784 -1.0191971533981915e-16 7.567088778416262e-17 -1.0191971533981915e-16 7.567088778416262e-17 0.9408155183017548 -0.3389191061631318
12641970666.666666 0.9368664734104534 -0.34968730460123415 -1.0101862611084539e-16 7.682874319134188e-17 -1.0101862611084539e-16 7.682874319134188e-17 0.9368667126083142 -0.3496866637524317
12642588000.0 0.932794431166853 -0.3604088639086495 -1.0010439491827109e-16 7.797588379216624e-17 -1.0010439491827109e-16 7.797588379216624e-17 0.9327946776865915 -0.36040822587641325
12643205333.333334 0.9285996953366527 -0.37108301742398936 -9.917714899832472e-17 7.911216056033096e-17 -9.917714899832472e-17 7.911216056033096e-17 0.9285999491451297 -0.37108238229196266
12643822666.666666 0.9242828176676222 -0.38170836114004236 -9.823701727552233e-17 8.023742597849523e-17 -9.823701727552233e-17 8.023742597849523e-17 0.924283078730744 -0.3817077289914791
12644440000.0 0.9198443659732791 -0.392283497469663 -9.728413034480528e-17 8.135153405737536e-17 -9.728413034480528e-17 8.135153405737536e-17 0.9198446342560008 -0.3922828683874167
12645057333.333334 0.9152849240581918 -0.4028070354296278 -9.631862045344633e-17 8.24543403546464e-17 -9.631862045344633e-17 8.24543403546464e-17 0.9152851995245215 -0.40280640949614016
12645674666.666666 0.9106050916411896 -0.413277590823596 -9.534062148275854e-17 8.354570199361046e-17 -9.534062148275854e-17 8.354570199361046e-17 0.9106053742541953 -0.41327696812088677
12646292000.0 0.9058054842763889 -0.42369378642438504 -9.435026892953838e-17 8.46254776817112e-17 -9.435026892953838e-17 8.46254776817112e-17 0.9058057739982007 -0.4236931670340408
12646909333.333334 0.9008867332724222 -0.43405425215468146 -9.334769988740801e-17 8.569352772870796e-17 -9.334769988740801e-17 8.569352772870796e-17 0.9008870300642408 -0.4340536361578455
12647526666.666666 0.895849485609228 -0.4443576252676402 -9.233305302783878e-17 8.674971406475548e-17 -9.233305302783878e-17 8.674971406475548e-17 0.8958497894313278 -0.44435701274500194
12648144000.0 0.8906944038529577 -0.4546025505261042 -9.130646858102445e-17 8.779390025820087e-17 -9.130646858102445e-17 8.779390025820087e-17 0.8906947146646907 -0.45460194155788713
12648761333.333334 0.8854221660689234 -0.46478768038065676 -9.02680883165684e-17 8.882595153313937e-17 -9.02680883165684e-17 8.882595153313937e-17 0.8854224838287268 -0.46478707504660965
12649378666.666666 0.8800334657324154 -0.4749116751468729 -8.921805552395413e-17 8.984573478676386e-17 -8.921805552395413e-17 8.984573478676386e-17 0.8800337903978183 -0.4749110735262593
12649996000.0 0.8745290116373584 -0.48497320318178544 -8.815651499279463e-17 9.085311860650961e-17 -8.815651499279463e-17 9.085311860650961e-17 0.8745293431649837 -0.4849726053533717
12650613333.333334 0.8689095278031662 -0.4949709410588607 -8.708361299293149e-17 9.184797328692218e-17 -8.708361299293149e-17 9.184797328692218e-17 0.8689098661487401 -0.49497034710090776
12651230666.666666 0.8631757533795594 -0.504903573742003 -8.599949725433587e-17 9.283017084630302e-17 -8.599949725433587e-17 9.283017084630302e-17 0.8631760984979149 -0.5049029837322545
12651848000.0 0.8573284425491957 -0.5147697947587698 -8.490431694678645e-17 9.379958504314881e-17 -8.490431694678645e-17 9.379958504314881e-17 0.8573287943942797 -0.514769208774443
12652465333.333334 0.8513683644286008 -0.5245683063719967 -8.379822265941465e-17 9.475609139230657e-17 -8.379822265941465e-17 9.475609139230657e-17 0.8513687229534797 -0.5245677244897712
12653082666.666666 0.8452963029670041 -0.534297819750493 -8.268136638004384e-17 9.569956718090984e-17 -8.268136638004384e-17 9.569956718090984e-17 0.8452966681238705 -0.5342972420465019
12653700000.0 0.8391130568430751 -0.5439570551388087 -8.155390147432262e-17 9.662989148409489e-17 -8.155390147432262e-17 9.662989148409489e-17 0.8391134285832547 -0.5439564816886282
12654317333.333334 0.8328194393600813 -0.5535447420252274 -8.041598266474844e-17 9.7546945180417e-17 -8.041598266474844e-17 9.7546945180417e-17 0.8328198176340368 -0.5535441729038661
12654934666.666666 0.826416278338758 -0.5630596193091204 -7.926776600945142e-17 9.845061096707452e-17 -7.926776600945142e-17 9.845061096707452e-17 0.8264166630960995 -0.5630590545910115
12655552000.0 0.8199044160084227 -0.5725004354668239 -7.81094088808363e-17 9.934077337486153e-17 -7.81094088808363e-17 9.934077337486153e-17 0.8199048071979115 -0.572499875225813
12656169333.333334 0.8132847088963189 -0.5818659487160649 -7.69410699440827e-17 1.0021731878285053e-16 -7.69410699440827e-17 1.0021731878285053e-16 0.8132851064658755 -0.5818653930254022
12656786666.666666 0.80655802771486 -0.5911549271794415 -7.576290913542682e-17 1.0108013543286331e-16 -7.576290913542682e-17 1.0108013543286331e-16 0.8065584316115716 -0.5911543761117716
12657404000.0 0.7997252572470865 -0.6003661490464776 -7.457508764032573e-17 1.0192911344365624e-16 -7.457508764032573e-17 1.0192911344365624e-16 0.7997256674172123 -0.6003656026738297
12658021333.333334 0.7927872962303153 -0.6094984027342832 -7.337776787144179e-17 1.0276414482486302e-16 -7.337776787144179e-17 1.0276414482486302e-16 0.7927877126192946 -0.6094978611280619
12658638666.666666 0.7857450572379985 -0.6185504870468302 -7.217111344649381e-17 1.0358512349066622e-16 -7.217111344649381e-17 1.0358512349066622e-16 0.785745479790459 -0.6185499502778069
12659256000.0 0.7785994665595154 -0.6275212113331741 -7.095528916591082e-17 1.0439194527323947e-16 -7.095528916591082e-17 1.0439194527323947e-16 0.7785998952192792 -0.6275206794714765
12659873333.333334 0.7713514640784908 -0.6364093956438611 -6.973046099039296e-17 1.0518450793588904e-16 -6.973046099039296e-17 1.0518450793588904e-16 0.771351898788582 -0.6364088687589652
12660490666.666666 0.7640020031491714 -0.6452138708861348 -6.849679601830023e-17 1.0596271118595271e-16 -6.849679601830023e-17 1.0596271118595271e-16 0.7640024438518234 -0.645213349046854
12661108000.0 0.7565520504708461 -0.653933478977927 -6.725446246286714e-17 1.0672645668745103e-16 -6.725446246286714e-17 1.0672645668745103e-16 0.7565524971075106 -0.6539329622524058
12661725333.333334 0.7490025859609473 -0.6625670729998798 -6.600362962935049e-17 1.0747564807342785e-16 -6.600362962935049e-17 1.0747564807342785e-16 0.7490030384723015 -0.6625665614555836
12662342666.666666 0.741354602625962 -0.671113517346446 -6.474446789196438e-17 1.0821019095807046e-16 -6.474446789196438e-17 1.0821019095807046e-16 0.7413550609519146 -0.6711130110501502
12662960000.0 0.7336091064309009 -0.679571687875143 -6.347714867072975e-17 1.0892999294852945e-16 -6.347714867072975e-17 1.0892999294852945e-16 0.7336095705106036 -0.6795711868929283
12663577333.333334 0.7257671161669719 -0.6879404720544448 -6.220184440817582e-17 1.0963496365648072e-16 -6.220184440817582e-17 1.0963496365648072e-16 0.725767585938825 -0.6879399764516861
12664194666.666666 0.7178296633175699 -0.6962187691101128 -6.091872854591637e-17 1.1032501470941189e-16 -6.091872854591637e-17 1.1032501470941189e-16 0.71783013871923 -0.6962182789514698
12664812000.0 0.7097977919226017 -0.704405490169984 -5.962797550110216e-17 1.1100005976163619e-16 -5.962797550110216e-17 1.1100005976163619e-16 0.7097982728909926 -0.704405005519396
12665429333.333334 0.7016725584411223 -0.7124995584072357 -5.832976064274606e-17 1.116600145050346e-16 -5.832976064274606e-17 1.116600145050346e-16 0.701673044912441 -0.7124990793279102
12666046666.666666 0.6934550316125765 -0.7204999091818245 -5.702426026796828e-17 1.1230479667950192e-16 -5.702426026796828e-17 1.1230479667950192e-16 0.693455523522302 -0.7204994357362299
12666664000.0 0.685146292315776 -0.7284054901809573 -5.571165157802494e-17 1.129343260831675e-16 -5.571165157802494e-17 1.129343260831675e-16 0.6851467895986799 -0.7284050224308166
12667281333.333334 0.6767474334273014 -0.7362152615569554 -5.439211265438515e-17 1.1354852458225675e-16 -5.439211265438515e-17 1.1354852458225675e-16 0.6767479360174532 -0.7362147995632342
12667898666.666666 0.6682595596773208 -0.7439281960644389 -5.3065822434543094e-17 1.141473161207506e-16 -5.3065822434543094e-17 1.141473161207506e-16 0.6682600675080989 -0.7439277398873406
12668516000.0 0.6596837875043804 -0.7515432791953446 -5.173296068780802e-17 1.1473062672972254e-16 -5.173296068780802e-17 1.1473062672972254e-16 0.6596843005084817 -0.751542828894303
12669133333.333334 0.6510212449087289 -0.7590595093122182 -5.0393707991003743e-17 1.1529838453639036e-16 -5.0393707991003743e-17 1.1529838453639036e-16 0.6510217630181746 -0.7590590649458867
12669750666.666666 0.6422730713037326 -0.76647589778015 -4.9048245704009885e-17 1.1585051977290956e-16 -4.9048245704009885e-17 1.1585051977290956e-16 0.6422735944498801 -0.7664754594063966
12670368000.0 0.6334404173660906 -0.773791469096739 -4.7696755945254794e-17 1.163869647848631e-16 -4.7696755945254794e-17 1.163869647848631e-16 0.6334409454796415 -0.7737910367726383
