! Parameters = {f0=12700.012000; bw=77.238000; Q=6100.000000; N=10; m_0_1=1.162257; m_1_1=-1.330887; m_1_2=0.997069; m_2_2=-1.331536; m_2_3=0.634032; m_2_8=-0.004823; m_2_9=0.031881; m_3_3=-1.333473; m_3_4=0.522561; m_3_7=-0.004223; m_3_8=-0.101311; m_3_9=-0.004823; m_4_4=-1.336398; m_4_5=0.358896; m_4_6=-0.000706; m_4_7=-0.121860; m_4_8=-0.004223; m_5_5=-1.336016; m_5_6=0.766251; m_5_7=-0.000706; m_6_6=-1.336017; m_6_7=0.359238; m_7_7=-1.336384; m_7_8=0.522679; m_8_8=-1.333475; m_8_9=0.634345; m_9_9=-1.331541; m_9_10=0.998147; m_10_10=-1.330897; m_10_11=1.163052}
!
! Created with skrf (http://scikit-rf.org).
# Hz S RI R 50.0 
!freq ReS11 ImS11 ReS21 ImS21 ReS12 ImS12 ReS22 ImS22
12607400000.0 -0.9932734130737954 0.11579260287507981 5.941818000018148e-17 -2.5406596441811464e-17 5.941818000018148e-17 -2.5406596441811464e-17 -0.9932734839998074 0.11579199446738891
12608017333.333334 -0.992397018737886 0.12307785015999809 5.92162599057287e-17 -2.5842096400613958e-17 5.92162599057287e-17 -2.5842096400613958e-17 -0.9923970941226243 0.12307724231889203
12608634666.666666 -0.9914671908737447 0.1303564705750205 5.901115193085499e-17 -2.6276000049378078e-17 5.901115193085499e-17 -2.6276000049378078e-17 -0.9914672707127129 0.13035586333317006
12609252000.0 -0.9904839795460425 0.13762807221815873 5.880286863638631e-17 -2.670828408321585e-17 5.880286863638631e-17 -2.670828408321585e-17 -0.9904840638345052 0.1376274656081991
12609869333.333334 -0.9894474376937652 0.14489226356536372 5.859142275328825e-17 -2.713892529566359e-17 5.859142275328825e-17 -2.713892529566359e-17 -0.9894475264267485 0.14489165761989312
12610486666.666666 -0.988357621127386 0.1521486534914666 5.837682718190188e-17 -2.756790057991415e-17 5.837682718190188e-17 -2.756790057991415e-17 -0.9883577142996782 0.15214804824304431
12611104000.0 -0.9872145885258142 0.15939685129154707 5.815909499115746e-17 -2.79951869300694e-17 5.815909499115746e-17 -2.79951869300694e-17 -0.9872146861319635 0.15939624677269149
12611721333.333334 -0.9860184014332934 0.16663646670157622 5.793823941779951e-17 -2.842076144234564e-17 5.793823941779951e-17 -2.842076144234564e-17 -0.9860185034676106 0.16663586294476335
12612338666.666666 -0.9847691242560409 0.17386710991973883 5.771427386558343e-17 -2.8844601316312296e-17 5.771427386558343e-17 -2.8844601316312296e-17 -0.9847692307125989 0.1738665069574005
12612956000.0 -0.9834668242588035 0.1810883916272811 5.748721190447131e-17 -2.9266683856108015e-17 5.748721190447131e-17 -2.9266683856108015e-17 -0.9834669351314382 0.1810877894918033
12613573333.333334 -0.9821115715612293 0.18829992300950057 5.725706726982653e-17 -2.9686986471635884e-17 5.725706726982653e-17 -2.9686986471635884e-17 -0.9821116868435387 0.18829932173322142
12614190666.666666 -0.9807034391340875 0.19550131577670896 5.702385386158335e-17 -3.0105486679783183e-17 5.702385386158335e-17 -3.0105486679783183e-17 -0.9807035588194325 0.19550071539191707
12614808000.0 -0.9792425027953611 0.20269218218502721 5.678758574342117e-17 -3.052216210561073e-17 5.678758574342117e-17 -3.052216210561073e-17 -0.9792426268768674 0.20269158272396032
12615425333.333334 -0.9777288412061329 0.20987213505743024 5.654827714192389e-17 -3.093699048354498e-17 5.654827714192389e-17 -3.093699048354498e-17 -0.9777289696766892 0.209871536552273
12616042666.666666 -0.9761625358663697 0.21704078780448183 5.630594244573222e-17 -3.134994965856247e-17 5.630594244573222e-17 -3.134994965856247e-17 -0.9761626687186301 0.21704019028736446
12616660000.0 -0.9745436711105312 0.22419775444517798 5.60605962046875e-17 -3.176101758736761e-17 5.60605962046875e-17 -3.176101758736761e-17 -0.974543808336913 0.22419715794817408
12617277333.333334 -0.9728723341030217 0.23134264962775666 5.581225312896541e-17 -3.2170172339565235e-17 5.581225312896541e-17 -3.2170172339565235e-17 -0.9728724756957087 0.23134205418288195
12617894666.666666 -0.9711486148335281 0.23847508865030792 5.556092808820741e-17 -3.257739209881733e-17 5.556092808820741e-17 -3.257739209881733e-17 -0.9711487607844697 0.23847449428951828
12618512000.0 -0.9693726061121042 0.24559468748179136 5.530663611062829e-17 -3.2982655164017887e-17 5.530663611062829e-17 -3.2982655164017887e-17 -0.9693727564130162 0.2455940942369815
12619129333.333334 -0.9675444035642673 0.25270106278232757 5.504939238213919e-17 -3.338593995042195e-17 5.504939238213919e-17 -3.338593995042195e-17 -0.9675445582066317 0.2527004706853285
12619746666.666666 -0.9656641056257803 0.2597938319241133 5.4789212245439417e-17 -3.378722499080522e-17 5.4789212245439417e-17 -3.378722499080522e-17 -0.9656642646008455 0.25979324100669143
12620364000.0 -0.9637318135373486 0.2668726130120228 5.452611119910934e-17 -3.4186488936601224e-17 5.452611119910934e-17 -3.4186488936601224e-17 -0.9637319768361322 0.26687202330587784
12620981333.333334 -0.9617476313392399 0.27393702490392413 5.426010489670419e-17 -3.458371055901749e-17 5.426010489670419e-17 -3.458371055901749e-17 -0.9617477989525265 0.27393643644068755
12621598666.666666 -0.9597116658656042 0.2809866872314743 5.39912091458206e-17 -3.497886875017402e-17 5.39912091458206e-17 -3.497886875017402e-17 -0.9597118377839475 0.28098610004270747
12622216000.0 -0.9576240267387609 0.28802122042046313 5.37194399071703e-17 -3.537194252421166e-17 5.37194399071703e-17 -3.537194252421166e-17 -0.9576242029524833 0.28802063453765564
12622833333.333334 -0.9554848263632797 0.29504024571130427 5.3444813293638433e-17 -3.576291101840397e-17 5.3444813293638433e-17 -3.576291101840397e-17 -0.9554850068624727 0.29503966116587227
12623450666.666666 -0.9532941799199605 0.30204338517932033 5.3167345569340125e-17 -3.6151753494252815e-17 5.3167345569340125e-17 -3.6151753494252815e-17 -0.9532943646944881 0.30204280200260547
12624068000.0 -0.9510522053595941 0.3090302617552284 5.2887053148659734e-17 -3.6538449338590187e-17 5.2887053148659734e-17 -3.6538449338590187e-17 -0.9510523943990898 0.3090296799784952
12624685333.333334 -0.9487590233965988 0.316000499245468 5.260395259528627e-17 -3.692297806466667e-17 5.260395259528627e-17 -3.692297806466667e-17 -0.9487592166904666 0.31599991889990214
12625302666.666666 -0.9464147575026071 0.32295372235218617 5.2318060621252944e-17 -3.730531931321634e-17 5.2318060621252944e-17 -3.730531931321634e-17 -0.946414955040025 0.3229531434688941
12625920000.0 -0.9440195338996893 0.3298895566938507 5.2029394085941756e-17 -3.7685452853550936e-17 5.2029394085941756e-17 -3.7685452853550936e-17 -0.9440197356696058 0.32988897930385624
12626537333.333334 -0.9415734815536777 0.3368076288250289 5.1737969995112957e-17 -3.806335858460255e-17 5.1737969995112957e-17 -3.806335858460255e-17 -0.9415736875448156 0.3368070529592729
12627154666.666666 -0.9390767321671734 0.34370756625665827 5.1443805499898755e-17 -3.8439016535996893e-17 5.1443805499898755e-17 -3.8439016535996893e-17 -0.9390769423680295 0.34370699194599647
12627772000.0 -0.9365294201723946 0.3505889974762618 5.114691789580627e-17 -3.881240686909532e-17 5.114691789580627e-17 -3.881240686909532e-17 -0.9365296345712398 0.3505884247514631
12628389333.333334 -0.9339316827240747 0.3574515519675778 5.0847324621707396e-17 -3.9183509878038504e-17 5.0847324621707396e-17 -3.9183509878038504e-17 -0.9339319013089556 0.357450980859323
12629006666.666666 -0.9312836596919307 0.3642948602309093 5.0545043258820807e-17 -3.955230599077995e-17 5.0545043258820807e-17 -3.955230599077995e-17 -0.9312838824506682 0.3642942907697884
12629624000.0 -0.9285854936532367 0.3711185538027246 5.024009152968801e-17 -3.991877577011287e-17 5.024009152968801e-17 -3.991877577011287e-17 -0.9285857205734313 0.3711179860192373
12630241333.333334 -0.9258373298850976 0.37792226527566003 4.9932487297141005e-17 -4.0282899914688416e-17 4.9932487297141005e-17 -4.0282899914688416e-17 -0.9258375609541222 0.3779216992002109
12630858666.666666 -0.9230393163566758 0.38470562831813815 4.962224856326297e-17 -4.0644659260026326e-17 4.962224856326297e-17 -4.0644659260026326e-17 -0.9230395515616855 0.38470506398103843
12631476000.0 -0.9201916037211184 0.39146827769438663 4.9309393468341656e-17 -4.1004034779517557e-17 4.9309393468341656e-17 -4.1004034779517557e-17 -0.9201918430490454 0.39146771512585044
12632093333.333334 -0.9172943453075787 0.3982098492837586 4.899394028981458e-17 -4.136100758542061e-17 4.899394028981458e-17 -4.136100758542061e-17 -0.9172945887451344 0.39820928851390186
12632710666.666666 -0.9143476971129 0.4049299801004979 4.8675907441212526e-17 -4.171555892984233e-17 4.8675907441212526e-17 -4.171555892984233e-17 -0.9143479446465756 0.40492942115933656
12633328000.0 -0.9113518177931567 0.41162830831341185 4.835531347108449e-17 -4.2067670205724847e-17 4.835531347108449e-17 -4.2067670205724847e-17 -0.9113520694092253 0.41162775123086115
12633945333.333334 -0.9083068686552159 0.41830447326512044 4.803217706192748e-17 -4.241732294781067e-17 4.803217706192748e-17 -4.241732294781067e-17 -0.9083071243397303 0.4183039180709915
12634562666.666666 -0.9052130136479917 0.4249581154916025 4.770651702910326e-17 -4.2764498833606087e-17 4.770651702910326e-17 -4.2764498833606087e-17 -0.9052132733867887 0.424957562215603
12635180000.0 -0.9020704193536327 0.43158887674152735 4.737835231974927e-17 -4.310917968433517e-17 4.737835231974927e-17 -4.310917968433517e-17 -0.9020706831323321 0.43158832541325853
12635797333.333334 -0.8988792549785406 0.43819639999556875 4.7047702011683115e-17 -4.345134746588555e-17 4.7047702011683115e-17 -4.345134746588555e-17 -0.8988795227825447 0.4381958506445234
12636414666.666666 -0.8956396923443051 0.44478032948552404 4.6714585312299906e-17 -4.379098428974577e-17 4.6714585312299906e-17 -4.379098428974577e-17 -0.8956399641588021 0.4447797821410862
12637032000.0 -0.8923519058783828 0.45134031071362507 4.637902155746312e-17 -4.4128072413934225e-17 4.637902155746312e-17 -4.4128072413934225e-17 -0.8923521816883463 0.4513397654050681
12637649333.333334 -0.8890160726047519 0.45787599047152233 4.604103021038855e-17 -4.446259424391961e-17 4.604103021038855e-17 -4.446259424391961e-17 -0.889016352394941 0.45787544722800616
12638266666.666666 -0.8856323721343681 0.46438701685932693 4.570063086052202e-17 -4.479453233353311e-17 4.570063086052202e-17 -4.479453233353311e-17 -0.8856326558893317 0.46438647570989927
12638884000.0 -0.8822009866555002 0.47087303930456215 4.535784322241041e-17 -4.512386938587187e-17 4.535784322241041e-17 -4.512386938587187e-17 -0.882201274359572 0.4708725002781531
12639501333.333334 -0.8787221009238966 0.47733370858105867 4.5012687134564814e-17 -4.545058825419515e-17 4.5012687134564814e-17 -4.545058825419515e-17 -0.8787223925612014 0.4773331717064826
12640118666.666666 -0.8751959022529131 0.48376867682763663 4.466518255832546e-17 -4.5774671942804455e-17 4.466518255832546e-17 -4.5774671942804455e-17 -0.875196197807365 0.4837681421335889
12640736000.0 -0.8716225805032759 0.4901775975671098 4.431534957669883e-17 -4.609610360793479e-17 4.431534957669883e-17 -4.609610360793479e-17 -0.8716228799585788 0.49017706508216496
12641353333.333334 -0.8680023280730479 0.4965601257245899 4.3963208393222155e-17 -4.641486655860641e-17 4.3963208393222155e-17 -4.641486655860641e-17 -0.8680026314126992 0.4965595954772021
12641970666.666666 -0.8643353398871083 0.5029159176463677 4.360877933078786e-17 -4.6730944257498336e-17 4.360877933078786e-17 -4.6730944257498336e-17 -0.8643356470943957 0.5029153896648665
12642588000.0 -0.8606218133867799 0.5092446311181915 4.325208283048393e-17 -4.7044320321793904e-17 4.325208283048393e-17 -4.7044320321793904e-17 -0.860622124444785 0.5092441054307817
12643205333.333334 -0.8568619485191132 0.5155459253838407 4.289313945041944e-17 -4.735497852402425e-17 4.289313945041944e-17 -4.735497852402425e-17 -0.8568622634107133 0.515545402018602
12643822666.666666 -0.853055947726123 0.5218194611634746 4.253196986454599e-17 -4.766290279290196e-17 4.253196986454599e-17 -4.766290279290196e-17 -0.8530562664339891 0.521818940148358
12644440000.0 -0.8492040159339423 0.5280649006718 4.2168594861473095e-17 -4.7968077214145997e-17 4.2168594861473095e-17 -4.7968077214145997e-17 -0.8492043384405424 0.5280643820346275
12645057333.333334 -0.8453063605417771 0.5342819076362849 4.1803035343276205e-17 -4.8270486031298444e-17 4.1803035343276205e-17 -4.8270486031298444e-17 -0.8453066868293769 0.5342813914047482
12645674666.666666 -0.8413631914107412 0.5404701473152654 4.1435312324307445e-17 -4.8570113646525526e-17 4.1435312324307445e-17 -4.8570113646525526e-17 -0.841363521461404 0.5404696335169236
12646292000.0 -0.8373747208524468 0.546629286516135 4.106544692997813e-17 -4.886694462142794e-17 4.106544692997813e-17 -4.886694462142794e-17 -0.8373750546480351 0.5466287751784135
12646909333.333334 -0.8333411636177729 0.5527589936129741 4.0693460395570697e-17 -4.916096367781324e-17 4.0693460395570697e-17 -4.916096367781324e-17 -0.8333415011399495 0.5527584847631631
12647526666.666666 -0.8292627368851498 0.5588589385646455 4.031937406501158e-17 -4.945215569848696e-17 4.031937406501158e-17 -4.945215569848696e-17 -0.8292630781153785 0.5588584322298987
12648144000.0 -0.8251396602488795 0.5649287929325393 3.9943209389653717e-17 -4.974050572802165e-17 3.9943209389653717e-17 -4.974050572802165e-17 -0.8251400051684256 0.5649282891398719
12648761333.333334 -0.8209721557073736 0.5709682298981623 3.9564987927057904e-17 -5.0025998973513145e-17 3.9564987927057904e-17 -5.0025998973513145e-17 -0.8209725042973066 0.5709677286744508
12649378666.666666 -0.8167604476512033 0.5769769242807363 3.9184731339763485e-17 -5.030862080533283e-17 3.9184731339763485e-17 -5.030862080533283e-17 -0.8167607998923971 0.5769764256527161
12649996000.0 -0.812504762850937 0.5829545525548236 3.8802461394046116e-17 -5.0588356757875424e-17 3.8802461394046116e-17 -5.0588356757875424e-17 -0.8125051187240703 0.5829540565490874
12650613333.333334 -0.8082053304449774 0.5889007928676762 3.841819995868202e-17 -5.0865192530288885e-17 3.841819995868202e-17 -5.0865192530288885e-17 -0.8082056899305352 0.5889002995106729
12651230666.666666 -0.8038623819272901 0.5948153250564718 3.8031969003708565e-17 -5.1139113987194047e-17 3.8031969003708565e-17 -5.1139113987194047e-17 -0.8038627450055651 0.5948148343745057
12651848000.0 -0.7994761511347744 0.6006978306657851 3.7643790599159303e-17 -5.1410107159409735e-17 3.7643790599159303e-17 -5.1410107159409735e-17 -0.7994765177858674 0.600697342685013
12652465333.333334 -0.7950468742348215 0.6065479929645246 3.725368691382161e-17 -5.167815824464796e-17 3.725368691382161e-17 -5.167815824464796e-17 -0.7950472444386434 0.6065475077109561
12653082666.666666 -0.7905747897126013 0.6123654969629896 3.686168021397658e-17 -5.194325360820981e-17 3.686168021397658e-17 -5.194325360820981e-17 -0.7905751634488736 0.612365014462485
12653700000.0 -0.786060138358049 0.6181500294300554 3.64677928621188e-17 -5.220537978368158e-17 3.64677928621188e-17 -5.220537978368158e-17 -0.7860605156063049 0.6181495497083238
12654317333.333334 -0.7815031632531413 0.6239012789097221 3.6072047315707296e-17 -5.246452347359704e-17 3.6072047315707296e-17 -5.246452347359704e-17 -0.7815035439927269 0.6239008019923209
12654934666.666666 -0.776904109758637 0.629618935738111 3.567446612587583e-17 -5.272067155011454e-17 3.567446612587583e-17 -5.272067155011454e-17 -0.776904493968713 0.6296184616504441
12655552000.0 -0.7722632255008627 0.6353026920601355 3.527507193615321e-17 -5.2973811055673914e-17 3.527507193615321e-17 -5.2973811055673914e-17 -0.7722636131604037 0.6353022208274511
12656169333.333334 -0.7675807603585412 0.640952241845878 3.4873887481193244e-17 -5.322392920363581e-17 3.4873887481193244e-17 -5.322392920363581e-17 -0.7675811514463385 0.6409517734932688
12656786666.666666 -0.7628569664491566 0.6465672809072872 3.447093558547075e-17 -5.347101337892903e-17 3.447093558547075e-17 -5.347101337892903e-17 -0.7628573609438204 0.6465668154596889
12657404000.0 -0.7580920981154736 0.6521475069144494 3.40662391619963e-17 -5.371505113867421e-17 3.40662391619963e-17 -5.371505113867421e-17 -0.7580924959954312 0.652147044396638
12658021333.333334 -0.753286411911802 0.6576926194119073 3.365982121101579e-17 -5.3956030212804165e-17 3.365982121101579e-17 -5.3956030212804165e-17 -0.7532868131553014 0.657692159848499
12658638666.666666 -0.748440166590279 0.6632023198347311 3.325170481871648e-17 -5.419393850466807e-17 3.325170481871648e-17 -5.419393850466807e-17 -0.7484405711753884 0.6632018632501807
12659256000.0 -0.7435536230867484 0.668676311524809 3.284191315590567e-17 -5.4428764091639836e-17 3.284191315590567e-17 -5.4428764091639836e-17 -0.7435540309913596 0.6686758579434087
12659873333.333334 -0.7386270445068807 0.6741142997466254 3.243046947671451e-17 -5.46604952256987e-17 3.243046947671451e-17 -5.46604952256987e-17 -0.7386274557087084 0.6741138491925036
12660490666.666666 -0.7336606961120089 0.6795159917031356 3.201739711728415e-17 -5.488912033400902e-17 3.201739711728415e-17 -5.488912033400902e-17 -0.7336611105885917 0.6795155442002543
12661108000.0 -0.7286548453046513 0.6848810965517351 3.160271949443161e-17 -5.5114628019498275e-17 3.160271949443161e-17 -5.5114628019498275e-17 -0.7286552630333548 0.6848806521238909
12661725333.333334 -0.723609761614387 0.6902093254196315 3.118646010435006e-17 -5.533700706140453e-17 3.118646010435006e-17 -5.533700706140453e-17 -0.7236101825724027 0.6902088840904521
12662342666.666666 -0.7185257166831277 0.6955003914196249 3.076864252126541e-17 -5.555624641583559e-17 3.076864252126541e-17 -5.555624641583559e-17 -0.718526140847476 0.6954999532125692
12662960000.0 -0.7134029842505897 0.7007540096654502 3.0349290396114487e-17 -5.577233521630425e-17 3.0349290396114487e-17 -5.577233521630425e-17 -0.7134034115981218 0.7007535746038077
12663577333.333334 -0.7082418401395381 0.7059698972871404 2.992842745521016e-17 -5.598526277425892e-17 2.992842745521016e-17 -5.598526277425892e-17 -0.7082422706469339 0.7059694653940274
12664194666.666666 -0.7030425622409103 0.7111477734462727 2.95060774989042e-17 -5.619501857960325e-17 2.95060774989042e-17 -5.619501857960325e-17 -0.7030429958846832 0.7111473447446333
12664812000.0 -0.6978054304989388 0.7162873593510118 2.9082264400246774e-17 -5.640159230120579e-17 2.9082264400246774e-17 -5.640159230120579e-17 -0.6978058672554363 0.7162869338636171
12665429333.333334 -0.692530726895956 0.7213883782712428 2.865701210364076e-17 -5.660497378740039e-17 2.865701210364076e-17 -5.660497378740039e-17 -0.692531166741359 0.7213879560206873
12666046666.666666 -0.6872187354372906 0.7264505555533872 2.823034462350226e-17 -5.68051530664716e-17 2.823034462350226e-17 -5.68051530664716e-17 -0.6872191783476173 0.7264501365620901
12666664000.0 -0.6818697421359582 0.7314736186352147 2.780228604289207e-17 -5.70021203471429e-17 2.780228604289207e-17 -5.70021203471429e-17 -0.6818701880870629 0.7314732029254163
12667281333.333334 -0.6764840349972385 0.7364572970605351 2.73728605121843e-17 -5.719586601903488e-17 2.73728605121843e-17 -5.719586601903488e-17 -0.676484483964814 0.7364568846542968
12667898666.666666 -0.6710619040032728 0.7414013224936652 2.694209224769293e-17 -5.738638065313231e-17 2.694209224769293e-17 -5.738638065313231e-17 -0.6710623559628534 0.74140091341287
12668516000.0 -0.665603641097223 0.7463054287340897 2.6510005530311248e-17 -5.75736550022326e-17 2.6510005530311248e-17 -5.75736550022326e-17 -0.6656040960241826 0.7463050230004377
12669133333.333334 -0.660109540167842 0.7511693517305227 2.6076624704163427e-17 -5.775768000137828e-17 2.6076624704163427e-17 -5.775768000137828e-17 -0.6601099980373988 0.7511689493655331
12669750666.666666 -0.6545798970334232 0.7559928295953393 2.5641974175221744e-17 -5.793844676829279e-17 2.5641974175221744e-17 -5.793844676829279e-17 -0.6545803578206377 0.7559924306203465
12670368000.0 -0.6490150094259519 0.7607756026185948 2.520607840994382e-17 -5.81159466037957e-17 2.520607840994382e-17 -5.81159466037957e-17 -0.6490154731057313 0.7607752070547499
