! Parameters = {f0=12700.012000; bw=77.238000; Q=6100.000000; N=10; m_0_1=1.336832; m_1_1=1.287732; m_1_2=1.171644; m_2_2=1.287083; m_2_3=0.808607; m_2_8=0.003905; m_2_9=0.040609; m_3_3=1.285146; m_3_4=0.697136; m_3_7=0.004505; m_3_8=-0.092583; m_3_9=0.003905; m_4_4=1.282221; m_4_5=0.533471; m_4_6=0.008022; m_4_7=-0.113132; m_4_8=0.004505; m_5_5=1.282603; m_5_6=0.940826; m_5_7=0.008022; m_6_6=1.282602; m_6_7=0.533813; m_7_7=1.282235; m_7_8=0.697254; m_8_8=1.285144; m_8_9=0.808920; m_9_9=1.287078; m_9_10=1.172722; m_10_10=1.287722; m_10_11=1.337627}
!
! Created with skrf (http://scikit-rf.org).
# Hz S RI R 50.0 
!freq ReS11 ImS11 ReS21 ImS21 ReS12 ImS12 ReS22 ImS22
12607400000.0 -0.33314300277953124 -0.942876311983094 8.812480968776924e-17 1.214655858145317e-16 8.812480968776924e-17 1.214655858145317e-16 -0.3331423388110319 -0.9428765465803677
12608017333.333334 -0.34490137673324833 -0.9386389296887888 8.962916656797263e-17 1.2032317044219788e-16 8.962916656797263e-17 1.2032317044219788e-16 -0.34490071578104475 -0.9386391725543566
12608634666.666666 -0.3566058719961987 -0.934254918134036 9.111873382345721e-17 1.1916213870410958e-16 9.111873382345721e-17 1.1916213870410958e-16 -0.35660521416324176 -0.9342551692291529
12609252000.0 -0.3682546601534245 -0.9297249621662795 9.259328127073576e-17 1.1798268181804556e-16 9.259328127073576e-17 1.1798268181804556e-16 -0.36825400554216653 -0.9297252214509156
12609869333.333334 -0.3798459214922412 -0.9250497694316318 9.405258119559872e-17 1.1678499384541643e-16 9.405258119559872e-17 1.1678499384541643e-16 -0.3798452702046219 -0.9250500368644836
12610486666.666666 -0.3913778452864526 -0.9202300702643545 9.549640838815184e-17 1.1556927165946272e-16 9.549640838815184e-17 1.1556927165946272e-16 -0.39137719742388216 -0.9202303458028492
12611104000.0 -0.40284863007942256 -0.9152666175726814 9.692454017758404e-17 1.1433571491290888e-16 9.692454017758404e-17 1.1433571491290888e-16 -0.40284798574276687 -0.9152669011729854
12611721333.333334 -0.4142564839651748 -0.9101601867213356 9.833675646634808e-17 1.1308452600533046e-16 9.833675646634808e-17 1.1308452600533046e-16 -0.4142558432547385 -0.9101604783383588
12612338666.666666 -0.42559962486847186 -0.9049115754103377 9.973283976408385e-17 1.1181591004996244e-16 9.973283976408385e-17 1.1181591004996244e-16 -0.4255989878839842 -0.9049118749977443
12612956000.0 -0.43687628082335855 -0.8995216035503287 1.0111257522101143e-16 1.105300748401786e-16 1.0111257522101143e-16 1.105300748401786e-16 -0.4368756476639555 -0.899521911060539
12613573333.333334 -0.448084690249655 -0.8939911131346192 1.0247575066093803e-16 1.092272308155209e-16 1.0247575066093803e-16 1.092272308155209e-16 -0.44808406101386644 -0.8939914285188231
12614190666.666666 -0.4592231022283519 -0.8883209681075716 1.0382215661379096e-16 1.0790759102735757e-16 1.0382215661379096e-16 1.0790759102735757e-16 -0.4592224770140852 -0.8883212913157338
12614808000.0 -0.4702897767750264 -0.8825120542296859 1.0515158634777172e-16 1.0657137110408297e-16 1.0515158634777172e-16 1.0657137110408297e-16 -0.47028915567955104 -0.8825123852105531
12615425333.333334 -0.48128298511185497 -0.8765652789391257 1.0646383590100137e-16 1.052187892159809e-16 1.0646383590100137e-16 1.052187892159809e-16 -0.481282368231787 -0.8765656176402352
12616042666.666666 -0.49220100993737065 -0.870481571210119 1.0775870411274632e-16 1.0385006603967037e-16 1.0775870411274632e-16 1.0385006603967037e-16 -0.492200397368659 -0.8704819175778087
12616660000.0 -0.503042145694885 -0.8642618814077655 1.090359926541818e-16 1.0246542472217403e-16 1.090359926541818e-16 1.0246542472217403e-16 -0.5030415375327956 -0.8642622353871802
12617277333.333334 -0.5138046988391166 -0.8579071811394579 1.1029550605870073e-16 1.01065090844603e-16 1.1029550605870073e-16 1.01065090844603e-16 -0.513804095178217 -0.8579075426745578
12617894666.666666 -0.5244869881002053 -0.8514184631034146 1.1153705175172872e-16 9.964929238550227e-17 1.1153705175172872e-16 9.964929238550227e-17 -0.5244863890343519 -0.8514188321369872
12618512000.0 -0.5350873447470401 -0.8447967409332063 1.127604400801323e-16 9.821825968376101e-17 1.127604400801323e-16 9.821825968376101e-17 -0.5350867503693617 -0.8447971174068725
12619129333.333334 -0.5456041128474012 -0.8380430490397293 1.1396548434106814e-16 9.677222540125921e-17 1.1396548434106814e-16 9.677222540125921e-17 -0.5456035232502846 -0.8380434328939523
12619746666.666666 -0.5560356495268359 -0.8311584424494978 1.1515200081043223e-16 9.531142448507142e-17 1.1515200081043223e-16 9.531142448507142e-17 -0.5560350648019134 -0.831158833623596
12620364000.0 -0.5663803252254429 -0.8241439966397414 1.1631980877079706e-16 9.383609412935431e-17 1.1631980877079706e-16 9.383609412935431e-17 -0.5663797454635764 -0.8241443950718946
12620981333.333334 -0.5766365239521484 -0.8170008073705853 1.1746873053881004e-16 9.234647373696092e-17 1.1746873053881004e-16 9.234647373696092e-17 -0.5766359492434147 -0.8170012129978451
12621598666.666666 -0.5868026435373361 -0.8097299905137506 1.18598591492201e-16 9.084280488059359e-17 1.18598591492201e-16 9.084280488059359e-17 -0.5868020739710151 -0.809730403272052
12622216000.0 -0.5968770958830392 -0.8023326818783056 1.1970922009621973e-16 8.932533126372123e-17 1.1970922009621973e-16 8.932533126372123e-17 -0.5968765315475979 -0.802333101702475
12622833333.333334 -0.6068583072112498 -0.7948100370330637 1.2080044792958104e-16 8.779429868116869e-17 1.2080044792958104e-16 8.779429868116869e-17 -0.6068577481943304 -0.794810463856831
12623450666.666666 -0.6167447183092694 -0.787163231126445 1.218721097099577e-16 8.624995497932263e-17 1.218721097099577e-16 8.624995497932263e-17 -0.6167441646976735 -0.7871636648824522
12624068000.0 -0.6265347847738668 -0.779393458702451 1.2292404331888399e-16 8.469255001613621e-17 1.2292404331888399e-16 8.469255001613621e-17 -0.6265342366535445 -0.7793938993222649
12624685333.333334 -0.6362269772522653 -0.771501933514265 1.2395608982625426e-16 8.312233562068735e-17 1.2395608982625426e-16 8.312233562068735e-17 -0.6362264347083002 -0.771502380928387
12625302666.666666 -0.6458197816807878 -0.7634898883348648 1.2496809351417473e-16 8.153956555262773e-17 1.2496809351417473e-16 8.153956555262773e-17 -0.6458192447973832 -0.7634903424727402
12625920000.0 -0.6553116995219459 -0.7553585747639749 1.2595990190044562e-16 7.994449546112468e-17 1.2595990190044562e-16 7.994449546112468e-17 -0.6553111683824137 -0.7553590355540073
12626537333.333334 -0.6647012479980537 -0.7471092630329487 1.2693136576138084e-16 7.833738284373199e-17 1.2693136576138084e-16 7.833738284373199e-17 -0.6647007226848 -0.7471097304025088
12627154666.666666 -0.6739869603230333 -0.7387432418061926 1.2788233915420059e-16 7.671848700483507e-17 1.2788233915420059e-16 7.671848700483507e-17 -0.6739864409175467 -0.7387437156816316
12627772000.0 -0.6831673859317187 -0.7302618179797082 1.2881267943886663e-16 7.50880690138684e-17 1.2881267943886663e-16 7.50880690138684e-17 -0.6831668725145558 -0.7302622982863661
12628389333.333334 -0.6922410907059893 -0.7216663164773509 1.2972224729936953e-16 7.344639166329898e-17 1.2972224729936953e-16 7.344639166329898e-17 -0.6922405833567645 -0.7216668031395725
12629006666.666666 -0.7012066571993493 -0.7129580800433636 1.3061090676449747e-16 7.179371942632418e-17 1.3061090676449747e-16 7.179371942632418e-17 -0.7012061559967215 -0.7129585729845079
12629624000.0 -0.710062684858056 -0.7041384690328842 1.3147852522806495e-16 7.013031841432787e-17 1.3147852522806495e-16 7.013031841432787e-17 -0.7100621898797155 -0.7041389681753362
12630241333.333334 -0.7188077902398702 -0.6952088611994814 1.3232497346860206e-16 6.84564563340854e-17 1.3232497346860206e-16 6.84564563340854e-17 -0.7188073015625279 -0.6952093664646656
12630858666.666666 -0.7274406072302536 -0.6861706514798525 1.3315012566848318e-16 6.677240244477096e-17 1.3315012566848318e-16 6.677240244477096e-17 -0.727440124929629 -0.6861711627882445
12631476000.0 -0.7359597872559295 -0.6770252517757448 1.3395385943254551e-16 6.507842751466002e-17 1.3395385943254551e-16 6.507842751466002e-17 -0.7359593114067382 -0.6770257690468845
12632093333.333334 -0.7443639994951625 -0.6677740907338132 1.347360558061256e-16 6.337480377767825e-17 1.347360558061256e-16 6.337480377767825e-17 -0.7443635301711043 -0.6677746138863152
12632710666.666666 -0.7526519310859997 -0.6584186135220664 1.3549659929254333e-16 6.166180488973478e-17 1.3549659929254333e-16 6.166180488973478e-17 -0.7526514683597492 -0.6584191424736368
12633328000.0 -0.7608222873313201 -0.6489602816041546 1.3623537787006423e-16 5.993970588477912e-17 1.3623537787006423e-16 5.993970588477912e-17 -0.7608218312745133 -0.6489608162716
12633945333.333334 -0.7688737919008577 -0.639400572511319 1.3695228300826998e-16 5.82087831307336e-17 1.3695228300826998e-16 5.82087831307336e-17 -0.7688733425840828 -0.6394011128105623
12634562666.666666 -0.7768051870308823 -0.6297409796112375 1.3764720968388553e-16 5.646931428519287e-17 1.3764720968388553e-16 5.646931428519287e-17 -0.7768047445236674 -0.6297415254573304
12635180000.0 -0.7846152337204235 -0.6199830118750435 1.3832005639604316e-16 5.472157825094496e-17 1.3832005639604316e-16 5.472157825094496e-17 -0.7846147980912257 -0.6199835631821786
12635797333.333334 -0.7923027119249669 -0.610128193641426 1.3897072518098433e-16 5.296585513130387e-17 1.3897072518098433e-16 5.296585513130387e-17 -0.7923022832411624 -0.6101287503229514
12636414666.666666 -0.7998664207470044 -0.6001780643785493 1.3959912162618075e-16 5.120242618530944e-17 1.3959912162618075e-16 5.120242618530944e-17 -0.7998659990748788 -0.6001786263469829
12637032000.0 -0.8073051786236363 -0.5901341784435666 1.402051548839218e-16 4.9431573782674843e-17 1.402051548839218e-16 4.9431573782674843e-17 -0.8073047640283734 -0.590134745610609
12637649333.333334 -0.8146178235111139 -0.5799981048398529 1.4078873768428587e-16 4.765358135869406e-17 1.4078873768428587e-16 4.765358135869406e-17 -0.8146174160567842 -0.5799986771164
12638266666.666666 -0.8218032130664987 -0.5697714269717167 1.4134978634758476e-16 4.586873336887964e-17 1.4134978634758476e-16 4.586873336887964e-17 -0.8218028128160516 -0.5697720042678751
12638884000.0 -0.8288602248259134 -0.5594557423973249 1.4188822079620333e-16 4.4077315243543963e-17 1.4188822079620333e-16 4.4077315243543963e-17 -0.8288598318411686 -0.559456324622428
12639501333.333334 -0.8357877563800269 -0.5490526625789616 1.4240396456587962e-16 4.227961334219578e-17 1.4240396456587962e-16 4.227961334219578e-17 -0.835787370721661 -0.5490532496415795
12640118666.666666 -0.8425847255461638 -0.5385638126314298 1.428969448163928e-16 4.047591490786437e-17 1.428969448163928e-16 4.047591490786437e-17 -0.8425843472737042 -0.538564404439387
12640736000.0 -0.8492500705376388 -0.527990831067757 1.4336709234170875e-16 3.8666508021171405e-17 1.4336709234170875e-16 3.8666508021171405e-17 -0.8492496997094534 -0.5279914275281455
12641353333.333334 -0.8557827501291312 -0.5173353695440002 1.4381434157949046e-16 3.6851681554491585e-17 1.4381434157949046e-16 3.6851681554491585e-17 -0.8557823868024182 -0.5173359705631939
12641970666.666666 -0.8621817438197672 -0.5065990926005611 1.4423863062008446e-16 3.503172512579394e-17 1.4423863062008446e-16 3.503172512579394e-17 -0.8621813880505487 -0.5065996980842316
12642588000.0 -0.8684460519923272 -0.49578367740249984 1.4463990121488126e-16 3.320692905255456e-17 1.4463990121488126e-16 3.320692905255456e-17 -0.8684457038354395 -0.49578428725563056
12643205333.333334 -0.8745746960695173 -0.48489081347733975 1.4501809878412298e-16 3.137758430545383e-17 1.4501809878412298e-16 3.137758430545383e-17 -0.8745743555786019 -0.4848914276042407
12643822666.666666 -0.8805667186667767 -0.47392220245123595 1.4537317242411412e-16 2.954398246203719e-17 1.4537317242411412e-16 2.954398246203719e-17 -0.880566385894272 -0.47392282075555897
12644440000.0 -0.8864211837417825 -0.46287955778325607 1.4570507491384148e-16 2.7706415660331147e-17 1.4570507491384148e-16 2.7706415660331147e-17 -0.8864208587389157 -0.46288018016800925
12645057333.333334 -0.8921371767407802 -0.4517646044975126 1.4601376272101676e-16 2.586517655234739e-17 1.4601376272101676e-16 2.586517655234739e-17 -0.8921368595575618 -0.45176523086507725
12645674666.666666 -0.8977138047412998 -0.44057907891399434 1.4629919600753355e-16 2.4020558257523718e-17 1.4629919600753355e-16 2.4020558257523718e-17 -0.8977134954265121 -0.44057970916613826
12646292000.0 -0.9031501965918942 -0.4293247283768173 1.4656133863433614e-16 2.217285431610051e-17 1.4656133863433614e-16 2.217285431610051e-17 -0.903149895193086 -0.4293253624147113
12646909333.333334 -0.9084455030479712 -0.4180033109817722 1.4680015816569727e-16 2.0322358642482268e-17 1.4680015816569727e-16 2.0322358642482268e-17 -0.9084452096114508 -0.41800394870600566
12647526666.666666 -0.913598896904564 -0.40661659530148253 1.4701562587290365e-16 1.8469365478574567e-17 1.4701562587290365e-16 1.8469365478574567e-17 -0.9135986114753911 -0.4066172366120786
12648144000.0 -0.9186095731255974 -0.39516636010902256 1.4720771673737148e-16 1.6614169346970898e-17 1.4720771673737148e-16 1.6614169346970898e-17 -0.9186092957475765 -0.3951670049054538
12648761333.333334 -0.9234767489696173 -0.3836543941000963 1.4737640945314951e-16 1.4757065004271586e-17 1.4737640945314951e-16 1.4757065004271586e-17 -0.9234764796852917 -0.38365504228130104
12649378666.666666 -0.9281996641119168 -0.3720824956139854 1.475216864288474e-16 1.289834739430075e-17 1.475216864288474e-16 1.289834739430075e-17 -0.92819940296256 -0.37208314707838247
12649996000.0 -0.9327775807635923 -0.3604524723519392 1.47643533788975e-16 1.1038311601278016e-17 1.47643533788975e-16 1.1038311601278016e-17 -0.9327773277892043 -0.36045312699744503
12650613333.333334 -0.9372097837865615 -0.3487661410953642 1.4774194137468716e-16 9.177252803053411e-18 1.4774194137468716e-16 9.177252803053411e-18 -0.9372095390258613 -0.3487667988194081
12651230666.666666 -0.941495580805364 -0.33702532742180524 1.478169027439413e-16 7.315466224345768e-18 1.478169027439413e-16 7.315466224345768e-18 -0.9414953442957837 -0.3370259881213458
12651848000.0 -0.9456343023153783 -0.32523186541960314 1.4786841517106965e-16 5.453247089916313e-18 1.4786841517106965e-16 5.453247089916313e-18 -0.9456340740930554 -0.32523252899114324
12652465333.333334 -0.9496253017872871 -0.31338759740170136 1.478964796457593e-16 3.590890577836138e-18 1.478964796457593e-16 3.590890577836138e-18 -0.9496250818870646 -0.31338826374130685
12653082666.666666 -0.9534679557681423 -0.30149437361769305 1.4790110087144522e-16 1.72869177278773e-18 1.4790110087144522e-16 1.72869177278773e-18 -0.9534677442235592 -0.3014950426210071
12653700000.0 -0.957161663978822 -0.2895540519645662 1.4788228726311753e-16 -1.3305438072659875e-19 1.4788228726311753e-16 -1.3305438072659875e-19 -0.9571614608221067 -0.2895547235268256
12654317333.333334 -0.9607058494076107 -0.2775684976970679 1.4784005094453922e-16 -1.9940531249256537e-18 1.4784005094453922e-16 -1.9940531249256537e-18 -0.9607056546696798 -0.27756917171312007
12654934666.666666 -0.9640999584005636 -0.26553958313562 1.477744077448802e-16 -3.854009935452734e-18 1.477744077448802e-16 -3.854009935452734e-18 -0.9640997721110144 -0.2655402594999394
12655552000.0 -0.9673434607478829 -0.2534691873741584 1.4768537719476303e-16 -5.7126305678977115e-18 1.4768537719476303e-16 -5.7126305678977115e-18 -0.967343282934992 -0.2534698659808633
12656169333.333334 -0.9704358497666669 -0.24135919598692268 1.4757298252172804e-16 -7.569621104265112e-18 1.4757298252172804e-16 -7.569621104265112e-18 -0.9704356804573837 -0.24135987672979115
12656786666.666666 -0.973376642380249 -0.22921150073318663 1.4743725064511007e-16 -9.424687999447907e-18 1.4743725064511007e-16 -9.424687999447907e-18 -0.9733764816001912 -0.22921218350567338
12657404000.0 -0.9761653791935008 -0.21702799926234242 1.4727821217033572e-16 -1.1277538127540153e-17 1.4727821217033572e-16 -1.1277538127540153e-17 -0.9761652269669512 -0.21702868395759561
12658021333.333334 -0.9788016245646697 -0.2048105948171848 1.470959013826377e-16 -1.3127878828115566e-17 1.470959013826377e-16 -1.3127878828115566e-17 -0.9788014809145739 -0.20481128132806267
12658638666.666666 -0.9812849666734084 -0.19256119593670748 1.468903562401933e-16 -1.497541795235576e-17 1.468903562401933e-16 -1.497541795235576e-17 -0.9812848316213677 -0.1925618841557948
12659256000.0 -0.9836150175851464 -0.18028171615773705 1.466616183666707e-16 -1.681986390921314e-17 1.466616183666707e-16 -1.681986390921314e-17 -0.9836148911514194 -0.1802824059773627
12659873333.333334 -0.9857914133116307 -0.16797407371634618 1.4640973304321916e-16 -1.8660925711258705e-17 1.4640973304321916e-16 -1.8660925711258705e-17 -0.9857912955151273 -0.16797476502859945
12660490666.666666 -0.9878138138678173 -0.1556401912480291 1.4613474919986164e-16 -2.0498313020625098e-17 1.4613474919986164e-16 -2.0498313020625098e-17 -0.987813704726096 -0.15564088394477651
12661108000.0 -0.9896819033250192 -0.14328199548713316 1.4583671940632465e-16 -2.2331736194703518e-17 1.4583671940632465e-16 -2.2331736194703518e-17 -0.9896818028542839 -0.14328268946003536
12661725333.333334 -0.991395389860157 -0.13090141696649146 1.455156998622982e-16 -2.4160906331721563e-17 1.455156998622982e-16 -2.4160906331721563e-17 -0.9913952980752567 -0.13090211210702055
12662342666.666666 -0.9929540058014702 -0.11850038971505907 1.4517175038711091e-16 -2.5985535316260257e-17 1.4517175038711091e-16 -2.5985535316260257e-17 -0.9929539227158966 -0.11850108591451541
12662960000.0 -0.9943575076702397 -0.1060808509564076 1.4480493440885037e-16 -2.780533586454614e-17 1.4480493440885037e-16 -2.780533586454614e-17 -0.994357433296123 -0.10608154810593663
12663577333.333334 -0.9956056762188563 -0.09364474080587744 1.4441531895290808e-16 -2.9620021569635244e-17 1.4441531895290808e-16 -2.9620021569635244e-17 -0.9956056105669654 -0.0936454387964868
12664194666.666666 -0.9966983164650853 -0.08119400196733303 1.440029746299607e-16 -3.14293069464407e-17 1.440029746299607e-16 -3.14293069464407e-17 -0.9966982595448244 -0.08119470068990957
12664812000.0 -0.9976352577224904 -0.06873057943002328 1.435679756233954e-16 -3.32329074765557e-17 1.435679756233954e-16 -3.32329074765557e-17 -0.9976352095419005 -0.06873127877535024
12665429333.333334 -0.9984163536271226 -0.056256420164519365 1.4311039967615524e-16 -3.5030539652995933e-17 1.4311039967615524e-16 -3.5030539652995933e-17 -0.9984163141928776 -0.05625712002329327
12666046666.666666 -0.9990414821603743 -0.0437734728186825 1.4263032807705673e-16 -3.682192102463398e-17 1.4263032807705673e-16 -3.682192102463398e-17 -0.9990414514777824 -0.0437741730815304
12666664000.0 -0.9995105456680535 -0.031283687413029296 1.421278456465076e-16 -3.8606770240619693e-17 1.421278456465076e-16 -3.8606770240619693e-17 -0.9995105237410542 -0.03128438797052572
12667281333.333334 -0.9998234708756172 -0.018789015036450245 1.416030407217263e-16 -4.038480709439829e-17 1.416030407217263e-16 -4.038480709439829e-17 -0.9998234577067819 -0.01878971577913439
12667898666.666666 -0.9999802088996342 -0.0062914075412508095 1.4105600514135702e-16 -4.215575256773263e-17 1.4105600514135702e-16 -4.215575256773263e-17 -0.9999802044901674 -0.006292108359643628
12668516000.0 -0.9999807352554176 0.006207182761927429 1.4048683422956974e-16 -4.391932887439039e-17 1.4048683422956974e-16 -4.391932887439039e-17 -0.9999807396051543 0.006206481977306165
12669133333.333334 -0.9998250498608475 0.018704803408745443 1.3989562677960097e-16 -4.567525950367617e-17 1.3989562677960097e-16 -4.567525950367617e-17 -0.9998250629682545 0.01870410276736001
12669750666.666666 -0.9995131770363852 0.031199502086397882 1.3928248503676374e-16 -4.7423269263695934e-17 1.3928248503676374e-16 -4.7423269263695934e-17 -0.9995131988985615 0.031198801697679496
