! Parameters = {f0=12700.012000; bw=77.238000; Q=6100.000000; N=10; m_0_1=1.269364; m_1_1=0.275720; m_1_2=1.104176; m_2_2=0.275071; m_2_3=0.741139; m_2_8=0.000532; m_2_9=0.037236; m_3_3=0.273134; m_3_4=0.629668; m_3_7=0.001132; m_3_8=-0.095956; m_3_9=0.000532; m_4_4=0.270209; m_4_5=0.466003; m_4_6=0.004649; m_4_7=-0.116505; m_4_8=0.001132; m_5_5=0.270591; m_5_6=0.873358; m_5_7=0.004649; m_6_6=0.270590; m_6_7=0.466345; m_7_7=0.270223; m_7_8=0.629786; m_8_8=0.273132; m_8_9=0.741452; m_9_9=0.275066; m_9_10=1.105254; m_10_10=0.275710; m_10_11=1.270159}
!
! Created with skrf (http://scikit-rf.org).
# Hz S RI R 50.0 
!freq ReS11 ImS11 ReS21 ImS21 ReS12 ImS12 ReS22 ImS22
12607400000.0 0.40845218717934717 0.9127797164640726 -7.177549715939667e-17 -8.371427420730761e-17 -7.177549715939667e-17 -8.371427420730761e-17 0.4084515767324531 0.9127799896276189
12608017333.333334 0.4180174578526409 0.9084389935104278 -7.264399722516104e-17 -8.293304110197573e-17 -7.264399722516104e-17 -8.293304110197573e-17 0.4180168503384703 0.9084392730573289
12608634666.666666 0.427536606032869 0.9039980367797932 -7.350400549513289e-17 -8.214280768348073e-17 -7.350400549513289e-17 -8.214280768348073e-17 0.42753600151816173 0.9039983226785797
12609252000.0 0.4370085814126261 0.8994573362709022 -7.435542880640052e-17 -8.134366613678109e-17 -7.435542880640052e-17 -8.134366613678109e-17 0.4370079799637858 0.8994576284894107
12609869333.333334 0.44643233888951006 0.8948173929877906 -7.519817499555709e-17 -8.05357096100132e-17 -7.519817499555709e-17 -8.05357096100132e-17 0.44643174057259416 0.8948176914931597
12610486666.666666 0.45580683868109717 0.8900787188846657 -7.603215290864825e-17 -7.971903220366484e-17 -7.603215290864825e-17 -7.971903220366484e-17 0.4558062435618124 0.8900790236433465
12611104000.0 0.4651310464401314 0.8852418368092032 -7.685727241101837e-17 -7.88937289596309e-17 -7.685727241101837e-17 -7.88937289596309e-17 0.46513045458382446 0.885242147786959
12611721333.333334 0.47440393336818953 0.8803072804450811 -7.767344439698235e-17 -7.805989585022218e-17 -7.767344439698235e-17 -7.805989585022218e-17 0.4744033448398409 0.8803075976069923
12612338666.666666 0.48362447632950045 0.8752755942529423 -7.848058079945258e-17 -7.721762976700225e-17 -7.848058079945258e-17 -7.721762976700225e-17 0.4836238911937172 0.8752759175634107
12612956000.0 0.4927916579637318 0.8701473334103714 -7.927859459940004e-17 -7.636702850956892e-17 -7.927859459940004e-17 -7.636702850956892e-17 0.4927910762847409 0.870147662833125
12613573333.333334 0.5019044667981697 0.8649230637506835 -8.006739983518902e-17 -7.550819077424591e-17 -8.006739983518902e-17 -7.550819077424591e-17 0.5019038886398097 0.864923399248778
12614190666.666666 0.5109618973594913 0.8596033617003905 -8.084691161181704e-17 -7.46412161426486e-17 -8.084691161181704e-17 -7.46412161426486e-17 0.5109613227852063 0.8596037032362153
12614808000.0 0.5199629502845103 0.8541888142157167 -8.161704611002126e-17 -7.376620507016677e-17 -8.161704611002126e-17 -7.376620507016677e-17 0.5199623793573429 0.8541891617509992
12615425333.333334 0.5289066324306133 0.8486800187177344 -8.237772059525139e-17 -7.288325887436209e-17 -8.237772059525139e-17 -7.288325887436209e-17 0.528906065213197 0.848680372213543
12616042666.666666 0.537791956985241 0.8430775830265033 -8.312885342652877e-17 -7.199247972326307e-17 -8.312885342652877e-17 -7.199247972326307e-17 0.5377913935397948 0.8430779424432533
12616660000.0 0.5466179435748194 0.8373821252939787 -8.387036406516695e-17 -7.109397062358271e-17 -8.387036406516695e-17 -7.109397062358271e-17 0.5466173839631399 0.8373824905914369
12617277333.333334 0.5553836183728581 0.8315942739358514 -8.46021730833867e-17 -7.018783540882034e-17 -8.46021730833867e-17 -7.018783540882034e-17 0.5553830626563122 0.8315946450731383
12617894666.666666 0.5640880142074236 0.8257146675621974 -8.532420217277255e-17 -6.927417872731478e-17 -8.532420217277255e-17 -6.927417872731478e-17 0.5640874624469429 0.8257150444977934
12618512000.0 0.5727301706680398 0.8197439549068853 -8.60363741526422e-17 -6.835310603015603e-17 -8.60363741526422e-17 -6.835310603015603e-17 0.5727296229241137 0.819744337598636
12619129333.333334 0.5813091342112596 0.8136827947562738 -8.673861297822687e-17 -6.742472355908854e-17 -8.673861297822687e-17 -6.742472355908854e-17 0.5813085905439278 0.8136831831613925
12619746666.666666 0.5898239582662476 0.8075318558762619 -8.74308437487868e-17 -6.648913833424695e-17 -8.74308437487868e-17 -6.648913833424695e-17 0.589823418735095 0.8075322499513371
12620364000.0 0.5982737033391512 0.8012918169385491 -8.811299271555795e-17 -6.554645814185533e-17 -8.811299271555795e-17 -6.554645814185533e-17 0.5982731680033 0.8012922166395476
12620981333.333334 0.6066574371164845 0.7949633664459532 -8.878498728955025e-17 -6.459679152186875e-17 -8.878498728955025e-17 -6.459679152186875e-17 0.6066569060345882 0.794963771728225
12621598666.666666 0.6149742345683642 0.7885472026561756 -8.944675604926539e-17 -6.364024775546488e-17 -8.944675604926539e-17 -6.364024775546488e-17 0.614973707798601 0.7885476134744591
12622216000.0 0.6232231780503882 0.7820440335048902 -9.009822874823316e-17 -6.267693685251979e-17 -9.009822874823316e-17 -6.267693685251979e-17 0.6232226556504564 0.7820444498133192
12622833333.333334 0.6314033574048679 0.7754545765276554 -9.073933632243784e-17 -6.170696953897439e-17 -9.073933632243784e-17 -6.170696953897439e-17 0.6314028394319761 0.77545499827976
12623450666.666666 0.6395138700612911 0.7687795587807038 -9.137001089758771e-17 -6.073045724415639e-17 -9.137001089758771e-17 -6.073045724415639e-17 0.6395133565721551 0.7687799859294203
12624068000.0 0.6475538211359357 0.7620197167607095 -9.199018579628144e-17 -5.97475120879792e-17 -9.199018579628144e-17 -5.97475120879792e-17 0.6475533121867707 0.7620201492583821
12624685333.333334 0.6555223235306682 0.7551757963234642 -9.259979554501409e-17 -5.875824686810162e-17 -9.259979554501409e-17 -5.875824686810162e-17 0.6555218191771826 0.7551762341218514
12625302666.666666 0.6634184980305208 0.7482485526018428 -9.3198775881028e-17 -5.776277504704602e-17 -9.3198775881028e-17 -5.776277504704602e-17 0.663417998327911 0.748248995652124
12625920000.0 0.6712414734011545 0.741238749922096 -9.378706375908179e-17 -5.676121073915752e-17 -9.378706375908179e-17 -5.676121073915752e-17 0.6712409784040986 0.7412391981748757
12626537333.333334 0.6789903864846216 0.7341471617198341 -9.436459735801689e-17 -5.575366869759507e-17 -9.436459735801689e-17 -5.575366869759507e-17 0.678989896247273 0.7341476151251471
12627154666.666666 0.686664382294672 0.726974570454635 -9.493131608721784e-17 -5.474026430120374e-17 -9.493131608721784e-17 -5.474026430120374e-17 0.6866638968706535 0.726975028961953
12627772000.0 0.6942626141113565 0.7197217675234585 -9.548716059294518e-17 -5.3721113541296984e-17 -9.548716059294518e-17 -5.3721113541296984e-17 0.6942621335537548 0.7197222310816952
12628389333.333334 0.7017842435739953 0.7123895531737529 -9.603207276448088e-17 -5.2696333008456573e-17 -9.603207276448088e-17 -5.2696333008456573e-17 0.7017837679353552 0.7123900217312701
12629006666.666666 0.7092284407741359 0.7049787364147324 -9.656599574018421e-17 -5.16660398791785e-17 -9.656599574018421e-17 -5.16660398791785e-17 0.7092279701064538 0.7049792099193444
12629624000.0 0.71659438434681 0.6974901349284028 -9.708887391336565e-17 -5.0630351902528904e-17 -9.708887391336565e-17 -5.0630351902528904e-17 0.7165939187015293 0.6974906133273842
12630241333.333334 0.7238812615613234 0.689924574979186 -9.760065293803579e-17 -4.958938738670841e-17 -9.760065293803579e-17 -4.958938738670841e-17 0.7238808009893288 0.6899250582192766
12630858666.666666 0.7310882684107353 0.6822828913229588 -9.810127973450833e-17 -4.854326518556477e-17 -9.810127973450833e-17 -4.854326518556477e-17 0.7310878129623456 0.6822833793503683
12631476000.0 0.7382146097008992 0.6745659271145957 -9.859070249486836e-17 -4.749210468502651e-17 -9.859070249486836e-17 -4.749210468502651e-17 0.7382141594258632 0.6745664198750118
12632093333.333334 0.7452594991378879 0.6667745338152689 -9.906887068826467e-17 -4.643602578955006e-17 -9.906887068826467e-17 -4.643602578955006e-17 0.74525905408538 0.6667750312538624
12632710666.666666 0.7522221594148157 0.6589095710984443 -9.953573506609388e-17 -4.537514890843528e-17 -9.953573506609388e-17 -4.537514890843528e-17 0.7522217196334283 0.6589100731598756
12633328000.0 0.7591018222978085 0.650971906754793 -9.999124766702389e-17 -4.430959494212043e-17 -9.999124766702389e-17 -4.430959494212043e-17 0.7591013878355479 0.6509724133832168
12633945333.333334 0.7658977287105209 0.6429624165967164 -1.004353618218606e-16 -4.323948526845013e-17 -1.004353618218606e-16 -4.323948526845013e-17 0.7658972996148019 0.6429629277357901
12634562666.666666 0.7726091288180229 0.6348819843615657 -1.0086803215827897e-16 -4.2164941728872825e-17 -1.0086803215827897e-16 -4.2164941728872825e-17 0.7726087051356639 0.6348824999544541
12635180000.0 0.7792352821094427 0.6267315016142414 -1.0128921460541102e-16 -4.1086086614579927e-17 -1.0128921460541102e-16 -4.1086086614579927e-17 0.7792348638866592 0.626732021603623
12635797333.333334 0.7857754574798143 0.6185118676486444 -1.0169886639827698e-16 -4.000304265261976e-17 -1.0169886639827698e-16 -4.000304265261976e-17 0.7857750447622157 0.6185123919767186
12636414666.666666 0.7922289333105315 0.6102239893887181 -1.02096946082064e-16 -3.8915932991983024e-17 -1.02096946082064e-16 -3.8915932991983024e-17 0.7922285261431163 0.6102245179972122
12637032000.0 0.7985949975492018 0.601868781288094 -1.024834135162768e-16 -3.782488118959108e-17 -1.024834135162768e-16 -3.782488118959108e-17 0.7985945959763504 0.6018693141182673
12637649333.333334 0.8048729477880663 0.5934471652293691 -1.0285822987871734e-16 -3.673001119630202e-17 -1.0285822987871734e-16 -3.673001119630202e-17 0.8048725518535381 0.5934477022220219
12638266666.666666 0.8110620913415536 0.584960070422324 -1.0322135766932692e-16 -3.563144734284607e-17 -1.0322135766932692e-16 -3.563144734284607e-17 0.811061701088482 0.5849606115178029
12638884000.0 0.8171617453226432 0.5764084333014883 -1.0357276071387136e-16 -3.452931432574431e-17 -1.0357276071387136e-16 -3.452931432574431e-17 0.8171613607935301 0.576408978439693
12639501333.333334 0.8231712367183277 0.5677931974226567 -1.0391240416748752e-16 -3.3423737193159746e-17 -1.0391240416748752e-16 -3.3423737193159746e-17 0.823170857955039 0.5677937465430464
12640118666.666666 0.8290899024637063 0.5591153133590128 -1.0424025451806214e-16 -3.2314841330764373e-17 -1.0424025451806214e-16 -3.2314841330764373e-17 0.8290895295074681 0.5591158664006136
12640736000.0 0.8349170895154355 0.5503757385958243 -1.0455627958948611e-16 -3.120275244749105e-17 -1.0455627958948611e-16 -3.120275244749105e-17 0.8349167224068296 0.5503762954972359
12641353333.333334 0.8406521549233369 0.5415754374254574 -1.0486044854471667e-16 -3.00875965613914e-17 -1.0486044854471667e-16 -3.00875965613914e-17 0.8406517937022954 0.5415759981248593
12641970666.666666 0.8462944659017804 0.5327153808403181 -1.0515273188873649e-16 -2.896949998530096e-17 -1.0515273188873649e-16 -2.896949998530096e-17 0.8462941106075825 0.5327159452754773
12642588000.0 0.8518433998992238 0.5237965464261456 -1.0543310147132613e-16 -2.78485893125958e-17 -1.0543310147132613e-16 -2.78485893125958e-17 0.8518430505704898 0.5237971145344218
12643205333.333334 0.857298344667022 0.5148199182539549 -1.057015304896947e-16 -2.6724991402890784e-17 -1.057015304896947e-16 -2.6724991402890784e-17 0.8572980013417124 0.5148204899723104
12643822666.666666 0.8626586983269846 0.5057864867714609 -1.0595799349096746e-16 -2.5598833367677342e-17 -1.0595799349096746e-16 -2.5598833367677342e-17 0.8626583610423918 0.5057870620364647
12644440000.0 0.8679238694377343 0.4966972486938658 -1.062024663745059e-16 -2.447024255599565e-17 -1.062024663745059e-16 -2.447024255599565e-17 0.867923538230481 0.49669782744170177
12645057333.333334 0.8730932770599256 0.4875532068939603 -1.0643492639408605e-16 -2.3339346540050006e-17 -1.0643492639408605e-16 -2.3339346540050006e-17 0.8730929519659615 0.487553789060435
12645674666.666666 0.878166350820432 0.4783553702913254 -1.066553521599172e-16 -2.220627310082549e-17 -1.066553521599172e-16 -2.220627310082549e-17 0.8781660318750276 0.4783559558118739
12646292000.0 0.8831425309753271 0.4691047537409084 -1.0686372364051992e-16 -2.1071150213635655e-17 -1.0686372364051992e-16 -2.1071150213635655e-17 0.8831422182130726 0.46910534255060266
12646909333.333334 0.8880212684714297 0.45980237792144807 -1.0706002216443211e-16 -1.9934106033741796e-17 -1.0706002216443211e-16 -1.9934106033741796e-17 0.888020961926228 0.4598029699550027
12647526666.666666 0.8928020250071003 0.45044926922245715 -1.0724423042177672e-16 -1.879526888188803e-17 -1.0724423042177672e-16 -1.879526888188803e-17 0.8928017247121666 0.4504498644142381
12648144000.0 0.8974842730915801 0.44104645963107314 -1.0741633246567382e-16 -1.7654767229829354e-17 -1.0741633246567382e-16 -1.7654767229829354e-17 0.897483979079435 0.4410470579151037
12648761333.333334 0.902067496103099 0.4315949866183691 -1.0757631371349294e-16 -1.6512729685888078e-17 -1.0757631371349294e-16 -1.6512729685888078e-17 0.9020672084055692 0.4315955879283387
12649378666.666666 0.9065511883459624 0.4220958930247338 -1.077241609479572e-16 -1.5369284980470174e-17 -1.077241609479572e-16 -1.5369284980470174e-17 0.9065509069941732 0.422096497294004
12649996000.0 0.9109348551063655 0.412550226944755 -1.0785986231809303e-16 -1.4224561951576535e-17 -1.0785986231809303e-16 -1.4224561951576535e-17 0.9109345801307389 0.41255083410636717
12650613333.333334 0.9152180127069068 0.4029590416117306 -1.0798340734002713e-16 -1.3078689530301698e-17 -1.0798340734002713e-16 -1.3078689530301698e-17 0.9152177441371588 0.4029596515984138
12651230666.666666 0.9194001885599815 0.3933233952814087 -1.0809478689762598e-16 -1.1931796726361607e-17 -1.0809478689762598e-16 -1.1931796726361607e-17 0.9193999264251183 0.39332400802558665
12651848000.0 0.9234809212200027 0.3836443511150402 -1.0819399324298805e-16 -1.078401261355667e-17 -1.0819399324298805e-16 -1.078401261355667e-17 0.9234806655483182 0.3836449665488395
12652465333.333334 0.9274597604341795 0.3739229770623868 -1.0828101999677458e-16 -9.635466315310236e-18 -1.0828101999677458e-16 -9.635466315310236e-18 0.9274595112532521 0.3739235951176438
12653082666.666666 0.931336267192269 0.36416034574373224 -1.0835586214839366e-16 -8.486286990148741e-18 -1.0835586214839366e-16 -8.486286990148741e-18 0.9313360245289571 0.3641609663520004
12653700000.0 0.9351100137750817 0.3543575343313463 -1.0841851605602833e-16 -7.336603817180366e-18 -1.0841851605602833e-16 -7.336603817180366e-18 0.9351097776555225 0.35435815742390403
12654317333.333334 0.9387805838015002 0.344515624431084 -1.0846897944650814e-16 -6.1865459816511054e-18 -1.0846897944650814e-16 -6.1865459816511054e-18 0.9387803542511063 0.3445162499389426
12654934666.666666 0.9423475722745875 0.33463570196262193 -1.0850725141503302e-16 -5.036242660404057e-18 -1.0850725141503302e-16 -5.036242660404057e-18 0.9423473493180449 0.33463632981653296
12655552000.0 0.9458105856262261 0.3247188570397463 -1.0853333242473939e-16 -3.885823007406921e-18 -1.0853333242473939e-16 -3.885823007406921e-18 0.9458103692874916 0.3247194871702097
12656169333.333334 0.9491692417604818 0.31476618385026284 -1.0854722430611412e-16 -2.7354161392970517e-18 -1.0854722430611412e-16 -2.7354161392970517e-18 0.9491690320627767 0.31476681618753294
12656786666.666666 0.9524231700958137 0.3047787805351052 -1.085489302562565e-16 -1.585151120896189e-18 -1.085489302562565e-16 -1.585151120896189e-18 0.9524229670616279 0.30477941500920097
12657404000.0 0.9555720116059773 0.2947577490671461 -1.0853845483798596e-16 -4.351569507520773e-19 -1.0853845483798596e-16 -4.351569507520773e-19 0.955571815257061 0.29475838560785667
12658021333.333334 0.9586154188596249 0.28470419512963385 -1.0851580397879778e-16 7.144374533006494e-19 -1.0851580397879778e-16 7.144374533006494e-19 0.9586152292169886 0.28470483366652743
12658638666.666666 0.9615530560585716 0.2746192279944135 -1.0848098496966611e-16 1.863503268543341e-18 -1.0848098496966611e-16 1.863503268543341e-18 0.961552873142486 0.27461986845684544
12659256000.0 0.9643845990749838 0.2645039603991 -1.084340064636934e-16 3.0119117818339092e-18 -1.084340064636934e-16 3.0119117818339092e-18 0.964384422904974 0.26450460271621967
12659873333.333334 0.9671097354870374 0.25435950842462757 -1.0837487847460943e-16 4.159534403960062e-18 -1.0837487847460943e-16 4.159534403960062e-18 0.9671095660818826 0.2543601525253866
12660490666.666666 0.969728164613374 0.2441869913721897 -1.0830361237511766e-16 5.306242684019316e-18 -1.0830361237511766e-16 5.306242684019316e-18 0.9697280019911053 0.24418763718534994
12661108000.0 0.9722395975463941 0.23398753163930014 -1.0822022089508832e-16 6.451908323790144e-18 -1.0822022089508832e-16 6.451908323790144e-18 0.9722394417242908 0.23398817909344125
12661725333.333334 0.9746437571840053 0.22376225459641816 -1.0812471811960319e-16 7.59640319203737e-18 -1.0812471811960319e-16 7.59640319203737e-18 0.9746436081785977 0.2237629036199461
12662342666.666666 0.9769403782602631 0.2135122884625607 -1.0801711948684533e-16 8.739599338842421e-18 -1.0801711948684533e-16 8.739599338842421e-18 0.9769402360873265 0.21351293898371523
12662960000.0 0.9791292073746394 0.20323876418079026 -1.0789744178584195e-16 9.881369009858501e-18 -1.0789744178584195e-16 9.881369009858501e-18 0.9791290720491941 0.20323941612765284
12663577333.333334 0.9812100030199646 0.1929428152935141 -1.0776570315405282e-16 1.1021584660584368e-17 -1.0776570315405282e-16 1.1021584660584368e-17 0.9812098745562721 0.19294346859401548
12664194666.666666 0.9831825356090811 0.1826255778173567 -1.0762192307481113e-16 1.2160118970575191e-17 -1.0762192307481113e-16 1.2160118970575191e-17 0.9831824140206472 0.18262623239928602
12664812000.0 0.9850465875001619 0.17228819011792948 -1.0746612237461297e-16 1.3296844857641205e-17 -1.0746612237461297e-16 1.3296844857641205e-17 0.9850464727997306 0.172288845908941
12665429333.333334 0.986801953020754 0.16193179278403058 -1.0729832322025868e-16 1.4431635491998738e-17 -1.0729832322025868e-16 1.4431635491998738e-17 0.9868018452203096 0.1619324497116526
12666046666.666666 0.9884484384904376 0.15155752850202167 -1.071185491158446e-16 1.5564364310399823e-17 -1.071185491158446e-16 1.5564364310399823e-17 0.9884483376012002 0.15155818649366382
12666664000.0 0.989985862242227 0.1411665419295226 -1.0692682489960081e-16 1.6694905030247427e-17 -1.0692682489960081e-16 1.6694905030247427e-17 0.9899857682746551 0.14116720091248453
12667281333.333334 0.9914140546425861 0.1307599795693401 -1.0672317674059379e-16 1.7823131663597874e-17 -1.0672317674059379e-16 1.7823131663597874e-17 0.9914139676063716 0.1307606394708188
12667898666.666666 0.9927328581101642 0.12033898964279707 -1.0650763213526486e-16 1.8948918531225035e-17 -1.0650763213526486e-16 1.8948918531225035e-17 0.992732778014236 0.12033965038989575
12668516000.0 0.9939421271331973 0.10990472196298676 -1.062802199038306e-16 2.0072140276583562e-17 -1.062802199038306e-16 2.0072140276583562e-17 0.9939420539857143 0.10990538348272198
12669133333.333334 0.9950417282855062 0.09945832780827205 -1.0604097018653816e-16 2.1192671879721578e-17 -1.0604097018653816e-16 2.1192671879721578e-17 0.9950416620938636 0.09945899002758264
12669750666.666666 0.9960315402412888 0.0890009597947793 -1.0578991443976704e-16 2.2310388671189403e-17 -1.0578991443976704e-16 2.2310388671189403e-17 0.9960314810121097 0.08900162264053364
12670368000.0 0.9969114537884567 0.07853377174956071 -1.0552708543198715e-16 2.342516634589165e-17 -1.0552708543198715e-16 2.342516634589165e-17 0.9969114015275986 0.0785344351485655
