! Parameters = {f0=12700.012000; bw=77.238000; Q=6100.000000; N=10; m_0_1=1.252548; m_1_1=0.023468; m_1_2=1.087360; m_2_2=0.022819; m_2_3=0.724323; m_2_8=-0.000309; m_2_9=0.036395; m_3_3=0.020882; m_3_4=0.612852; m_3_7=0.000291; m_3_8=-0.096797; m_3_9=-0.000309; m_4_4=0.017957; m_4_5=0.449187; m_4_6=0.003808; m_4_7=-0.117346; m_4_8=0.000291; m_5_5=0.018339; m_5_6=0.856542; m_5_7=0.003808; m_6_6=0.018338; m_6_7=0.449529; m_7_7=0.017971; m_7_8=0.612970; m_8_8=0.020880; m_8_9=0.724636; m_9_9=0.022814; m_9_10=1.088438; m_10_10=0.023458; m_10_11=1.253343}
!
! Created with skrf (http://scikit-rf.org).
# Hz S RI R 50.0 
!freq ReS11 ImS11 ReS21 ImS21 ReS12 ImS12 ReS22 ImS22
12607400000.0 0.30898267630294457 -0.9510676662280652 -2.657909762861686e-18 1.017574471652182e-16 -2.657909762861686e-18 1.017574471652182e-16 0.3089833039580922 -0.9510674623153547
12608017333.333334 0.2994500240231004 -0.9541119866726301 -1.6301603586747856e-18 1.0175916214949609e-16 -1.6301603586747856e-18 1.0175916214949609e-16 0.2994506536565131 -0.9541117890606506
12608634666.666666 0.2898873850159387 -0.9570607629656797 -6.026472888233832e-19 1.0175050405055651e-16 -6.026472888233832e-19 1.0175050405055651e-16 0.2898880165643745 -0.9570605716736019
12609252000.0 0.2802957168779011 -0.959913699818755 4.2452482352962457e-19 1.0173147781337175e-16 4.2452482352962457e-19 1.0173147781337175e-16 0.2802963502779328 -0.9599135148651149
12609869333.333334 0.27067598011233224 -0.9626705115407127 1.4512514309379922e-18 1.0170208943741444e-16 1.4512514309379922e-18 1.0170208943741444e-16 0.27067661530035303 -0.9626703329434085
12610486666.666666 0.2610291380335397 -0.9653309220662601 2.4774280722815265e-18 1.016623459756336e-16 2.4774280722815265e-18 1.016623459756336e-16 0.2610297749457707 -0.9653307498425547
12611104000.0 0.25135615666986577 -0.967894664983738 3.502950383408766e-18 1.0161225553332263e-16 3.502950383408766e-18 1.0161225553332263e-16 0.2513567952423612 -0.9678944991502527
12611721333.333334 0.24165800466741347 -0.9703614835616635 4.527714107678954e-18 1.0155182726688327e-16 4.527714107678954e-18 1.0155182726688327e-16 0.2416586448360677 -0.9703613241343781
12612338666.666666 0.23193565319285658 -0.9727311307744961 5.551615106587148e-18 1.0148107138247973e-16 5.551615106587148e-18 1.0148107138247973e-16 0.2319362948934106 -0.9727309777687483
12612956000.0 0.22219007583602182 -0.9750033693274147 6.57454937031532e-18 1.0139999913458764e-16 6.57454937031532e-18 1.0139999913458764e-16 0.22219071900406898 -0.9750032227578959
12613573333.333334 0.21242224851275165 -0.9771779716799879 7.596413028257659e-18 1.0130862282443883e-16 7.596413028257659e-18 1.0130862282443883e-16 0.21242289308374526 -0.9771778315607454
12614190666.666666 0.20263314936684676 -0.9792547200690442 8.617102359565037e-18 1.0120695579835715e-16 8.617102359565037e-18 1.0120695579835715e-16 0.20263379527610564 -0.9792545864134771
12614808000.0 0.19282375867236387 -0.9812334065304195 9.63651380365563e-18 1.0109501244598936e-16 9.63651380365563e-18 1.0109501244598936e-16 0.19282440585507918 -0.9812332793512784
12615425333.333334 0.18299505873525737 -0.9831138329198243 1.0654543970693643e-17 1.0097280819843158e-16 1.0654543970693643e-17 1.0097280819843158e-16 0.18299570712649954 -0.9831137122292117
12616042666.666666 0.17314803379512356 -0.9848958109326648 1.1671089652058012e-17 1.0084035952624908e-16 1.1671089652058012e-17 1.0084035952624908e-16 0.17314868332984773 -0.9848956967420297
12616660000.0 0.1632836699265829 -0.9865791621229059 1.2686047830788587e-17 1.0069768393739145e-16 1.2686047830788587e-17 1.0069768393739145e-16 0.16328432053963654 -0.9865790544430476
12617277333.333334 0.1534029549406197 -0.9881637179209299 1.3699315691997164e-17 1.0054479997500361e-16 1.3699315691997164e-17 1.0054479997500361e-16 0.1534036065667484 -0.9881636167619928
12617894666.666666 0.14350687828563546 -0.9896493196504208 1.4710790633265483e-17 1.0038172721513199e-16 1.4710790633265483e-17 1.0038172721513199e-16 0.14350753085948995 -0.9896492250218969
12618512000.0 0.1335964309481693 -0.991035818544284 1.5720370275034386e-17 1.0020848626432215e-16 1.5720370275034386e-17 1.0020848626432215e-16 0.1335970844043117 -0.99103573045501
12619129333.333334 0.12367260535399872 -0.9923230757594947 1.6727952470912256e-17 1.0002509875712215e-16 1.6727952470912256e-17 1.0002509875712215e-16 0.12367325962690909 -0.9923229942176506
12619746666.666666 0.11373639526858954 -0.9935109623910229 1.77334353180068e-17 9.983158735347314e-17 1.77334353180068e-17 9.983158735347314e-17 0.11373705029267289 -0.9935108874041343
12620364000.0 0.10378879569741238 -0.9945993594847679 1.8736717167228043e-17 9.962797573599677e-17 1.8736717167228043e-17 9.962797573599677e-17 0.10378945140700467 -0.9945992910597017
12620981333.333334 0.0938308027866696 -0.9955881580494206 1.9737696633507484e-17 9.94142886071892e-17 1.9737696633507484e-17 9.94142886071892e-17 0.09383145911604474 -0.9955880961923873
12621598666.666666 0.08386341372320345 -0.996477259067421 2.0736272606054446e-17 9.919055168649969e-17 2.0736272606054446e-17 9.919055168649969e-17 0.08386407060657955 -0.9964772037839718
12622216000.0 0.07388762663489248 -0.9972665735048437 2.173234425853782e-17 9.895679170731424e-17 2.173234425853782e-17 9.895679170731424e-17 0.07388828400643874 -0.9972665247998712
12622833333.333334 0.06390444049047361 -0.9979560223203369 2.2725811059240787e-17 9.871303641383701e-17 2.2725811059240787e-17 9.871303641383701e-17 0.06390509828431674 -0.9979559801980749
12623450666.666666 0.05391485499973244 -0.9985455364730175 2.3716572781192752e-17 9.845931455786771e-17 2.3716572781192752e-17 9.845931455786771e-17 0.05391551314996332 -0.9985455009370405
12624068000.0 0.043919870513194674 -0.9990350569294016 2.4704529512263323e-17 9.81956558954771e-17 2.4704529512263323e-17 9.81956558954771e-17 0.0439205289538749 -0.9990350279826232
12624685333.333334 0.03392048792203655 -0.9994245346693058 2.5689581665225824e-17 9.792209118358044e-17 2.5689581665225824e-17 9.792209118358044e-17 0.033921146587205145 -0.9994245123139804
12625302666.666666 0.02391770855797008 -0.999713930690757 2.6671629987736753e-17 9.763865217642364e-17 2.6671629987736753e-17 9.763865217642364e-17 0.023918367381650006 -0.9997139149284784
12625920000.0 0.013912534092657735 -0.9999032160139047 2.765057557237412e-17 9.734537162194176e-17 2.765057557237412e-17 9.734537162194176e-17 0.013913193008862531 -0.999903206845606
12626537333.333334 0.00390596643774665 -0.9999923716839122 2.8626319866528765e-17 9.704228325804836e-17 2.8626319866528765e-17 9.704228325804836e-17 0.003906625380487078 -0.9999923691098676
12627154666.666666 -0.006100992355518857 -0.9999813887728641 2.959876468232496e-17 9.672942180880612e-17 2.959876468232496e-17 9.672942180880612e-17 -0.006100333452228268 -0.9999813927926862
12627772000.0 -0.016107340196983195 -0.9998702683806575 3.0567812206499594e-17 9.640682298049725e-17 3.0567812206499594e-17 9.640682298049725e-17 -0.0161066813991175 -0.9998702789932982
12628389333.333334 -0.026112075057416525 -0.9996590216348895 3.153336501017095e-17 9.60745234576175e-17 3.153336501017095e-17 9.60745234576175e-17 -0.02611141643093378 -0.9996590388386425
12629006666.666666 -0.036114195069340466 -0.9993476696897442 3.2495326058671317e-17 9.573256089873821e-17 3.2495326058671317e-17 9.573256089873821e-17 -0.036113536680175126 -0.9993476934822427
12629624000.0 -0.04611269862692821 -0.998936243723878 3.3453598721237095e-17 9.538097393230209e-17 3.3453598721237095e-17 9.538097393230209e-17 -0.04611204054098451 -0.998936274102095
12630241333.333334 -0.05610658448664553 -0.9984247849372886 3.4408086780716713e-17 9.501980215230151e-17 3.4408086780716713e-17 9.501980215230151e-17 -0.056105926769790905 -0.9984248218975385
12630858666.666666 -0.06609485186723085 -0.9978133445472038 3.535869444318403e-17 9.464908611387727e-17 3.535869444318403e-17 9.464908611387727e-17 -0.06609419458528933 -0.9978133880851421
12631476000.0 -0.07607650055028155 -0.9971019837829292 3.630532634757734e-17 9.42688673287942e-17 3.630532634757734e-17 9.42688673287942e-17 -0.07607584376902712 -0.9971020338935526
12632093333.333334 -0.08605053097993284 -0.9962907738797444 3.72478875751993e-17 9.387918826085534e-17 3.72478875751993e-17 9.387918826085534e-17 -0.08604987476508315 -0.9962908305573942
12632710666.666666 -0.09601594436329362 -0.9953797960717573 3.8186283659232655e-17 9.348009232119727e-17 3.8186283659232655e-17 9.348009232119727e-17 -0.09601528878050294 -0.9953798593101156
12633328000.0 -0.10597174277049239 -0.9943691415837548 3.91204205942029e-17 9.307162386348985e-17 3.91204205942029e-17 9.307162386348985e-17 -0.1059710878853453 -0.9943692113758474
12633945333.333334 -0.1159169292344112 -0.9932589116220873 4.0050204845340293e-17 9.265382817906416e-17 4.0050204845340293e-17 9.265382817906416e-17 -0.11591627511241619 -0.9932589879602859
12634562666.666666 -0.12585050785055005 -0.9920492173645356 4.0975543357953716e-17 9.222675149191977e-17 4.0975543357953716e-17 9.222675149191977e-17 -0.12584985455713266 -0.9920493002405563
12635180000.0 -0.1357714838768972 -0.9907401799491602 4.189634356670959e-17 9.17904409536565e-17 4.189634356670959e-17 9.17904409536565e-17 -0.13577083147739366 -0.9907402693540656
12635797333.333334 -0.1456788638334852 -0.989331930462175 4.281251340487843e-17 9.134494463830515e-17 4.281251340487843e-17 9.134494463830515e-17 -0.14567821239313575 -0.989332026386374
12636414666.666666 -0.15557165560168046 -0.9878246099248494 4.372396131349831e-17 9.089031153707881e-17 4.372396131349831e-17 9.089031153707881e-17 -0.1555710051856231 -0.9878247123581003
12637032000.0 -0.16544886852387128 -0.9862183692793398 4.463059625053518e-17 9.042659155300949e-17 4.463059625053518e-17 9.042659155300949e-17 -0.1654482191971349 -0.986218478210749
12637649333.333334 -0.17530951350244595 -0.9845133693736033 4.553232769993472e-17 8.995383549551722e-17 4.553232769993472e-17 8.995383549551722e-17 -0.17530886532994416 -0.9845134847916285
12638266666.666666 -0.18515260309892534 -0.9827097809452809 4.642906568064322e-17 8.947209507487744e-17 4.642906568064322e-17 8.947209507487744e-17 -0.18515195614544974 -0.9827099028377306
12638884000.0 -0.1949771516327317 -0.9808077846046163 4.732072075556775e-17 8.898142289659973e-17 4.732072075556775e-17 8.898142289659973e-17 -0.19497650596294572 -0.9808079129586538
12639501333.333334 -0.20478217528009066 -0.9788075708163397 4.820720404046745e-17 8.848187245572313e-17 4.820720404046745e-17 8.848187245572313e-17 -0.20478153095852242 -0.9788077056184797
12640118666.666666 -0.21456669217227062 -0.9767093398806421 4.9088427212792433e-17 8.79734981310188e-17 4.9088427212792433e-17 8.79734981310188e-17 -0.21456604926330736 -0.976709481116757
12640736000.0 -0.22432972249440794 -0.9745133019130163 4.9964302520491874e-17 8.745635517908783e-17 4.9964302520491874e-17 8.745635517908783e-17 -0.22432908106228935 -0.9745134495683365
12641353333.333334 -0.2340702885828475 -0.9722196768233872 5.083474279067626e-17 8.693049972842083e-17 5.083474279067626e-17 8.693049972842083e-17 -0.23406964869165833 -0.9722198308824982
12641970666.666666 -0.24378741502379353 -0.9698286942939183 5.169966143831383e-17 8.639598877331459e-17 5.169966143831383e-17 8.639598877331459e-17 -0.24378677673745852 -0.9698288547407684
12642588000.0 -0.2534801287505992 -0.9673405937561022 5.255897247481176e-17 8.585288016773371e-17 5.255897247481176e-17 8.585288016773371e-17 -0.2534794921328762 -0.9673407605740019
12643205333.333334 -0.2631474591412927 -0.9647556243667671 5.341259051653582e-17 8.530123261908512e-17 5.341259051653582e-17 8.530123261908512e-17 -0.2631468242557661 -0.96475579753839
12643822666.666666 -0.27278843811577325 -0.9620740449831213 5.426043079328447e-17 8.474110568189659e-17 5.426043079328447e-17 8.474110568189659e-17 -0.2727878050258479 -0.9620742244905067
12644440000.0 -0.2824021002327829 -0.9592961241368293 5.5102409156675443e-17 8.417255975142468e-17 5.5102409156675443e-17 8.417255975142468e-17 -0.2824014690016771 -0.959296309961382
12645057333.333334 -0.29198748278650116 -0.9564221400071374 5.59384420884685e-17 8.359565605717901e-17 5.59384420884685e-17 8.359565605717901e-17 -0.2919868534772418 -0.9564223321296346
12645674666.666666 -0.3015436259030071 -0.9534523803930096 5.67684467088418e-17 8.301045665634897e-17 5.67684467088418e-17 8.301045665634897e-17 -0.3015429985784221 -0.9534525787935985
12646292000.0 -0.3110695726364801 -0.9503871426842789 5.759234078459281e-17 8.241702442715353e-17 5.759234078459281e-17 8.241702442715353e-17 -0.3110689473591922 -0.950387347342479
12646909333.333334 -0.3205643690648377 -0.9472267338319235 5.84100427372374e-17 8.181542306213296e-17 5.84100427372374e-17 8.181542306213296e-17 -0.32056374589725894 -0.9472269447266304
12647526666.666666 -0.33002706438542456 -0.943971470317281 5.9221471651079e-17 8.120571706133251e-17 5.9221471651079e-17 8.120571706133251e-17 -0.33002644338974985 -0.943971687426769
12648144000.0 -0.3394567110102507 -0.9406216781203444 6.002654728120453e-17 8.058797172540775e-17 6.002654728120453e-17 8.058797172540775e-17 -0.3394560922484511 -0.940621901422267
12648761333.333334 -0.34885236466066755 -0.9371776926871923 6.082519006137875e-17 7.996225314867308e-17 6.082519006137875e-17 7.996225314867308e-17 -0.3488517481944842 -0.9371779221585845
12649378666.666666 -0.35821308446208916 -0.933639858896344 6.161732111188981e-17 7.93286282120552e-17 6.161732111188981e-17 7.93286282120552e-17 -0.3582124703530275 -0.9336400945136252
12649996000.0 -0.36753793303823673 -0.9300085310242109 6.240286224731925e-17 7.868716457597107e-17 6.240286224731925e-17 7.868716457597107e-17 -0.36753732134756 -0.9300087727631876
12650613333.333334 -0.37682597660497885 -0.9262840727096269 6.318173598424249e-17 7.803793067312507e-17 6.318173598424249e-17 7.803793067312507e-17 -0.3768253673937026 -0.9262843205454958
12651230666.666666 -0.3860762850636311 -0.9224668569175235 6.395386554883086e-17 7.738099570125086e-17 6.395386554883086e-17 7.738099570125086e-17 -0.38607567839251644 -0.9224671108248728
12651848000.0 -0.3952879320945165 -0.9185572659014085 6.471917488441984e-17 7.6716429615743e-17 6.471917488441984e-17 7.6716429615743e-17 -0.39528732802406374 -0.9185575258542198
12652465333.333334 -0.40445999524938214 -0.9145556911652233 6.547758865895975e-17 7.604430312224916e-17 6.547758865895975e-17 7.604430312224916e-17 -0.4044593938398263 -0.9145559571368775
12653082666.666666 -0.41359155604382924 -0.9104625334241239 6.622903227239888e-17 7.536468766918215e-17 6.622903227239888e-17 7.536468766918215e-17 -0.4135909573551322 -0.9104628053874002
12653700000.0 -0.4226817000494427 -0.90627820256428 6.69734318640318e-17 7.467765544012084e-17 6.69734318640318e-17 7.467765544012084e-17 -0.4226811041412885 -0.9062784804913612
12654317333.333334 -0.43172951698515644 -0.9020031176019261 6.771071431969709e-17 7.398327934620415e-17 6.771071431969709e-17 7.398327934620415e-17 -0.43172892391694445 -0.9020034014643997
12654934666.666666 -0.4407341008085605 -0.8976377066413262 6.844080727895734e-17 7.328163301839794e-17 6.844080727895734e-17 7.328163301839794e-17 -0.4407335106394006 -0.8976379964101894
12655552000.0 -0.4496945498066848 -0.8931824068318812 6.91636391421789e-17 7.257279079971124e-17 6.91636391421789e-17 7.257279079971124e-17 -0.44969396259539024 -0.8931827024775418
12656169333.333334 -0.45860996668596277 -0.8886376643245151 6.987913907750218e-17 7.18568277373702e-17 6.987913907750218e-17 7.18568277373702e-17 -0.45860938249104527 -0.8886379658167953
12656786666.666666 -0.4674794586624943 -0.8840039342267949 7.05872370277911e-17 7.113381957486674e-17 7.05872370277911e-17 7.113381957486674e-17 -0.4674788775421572 -0.8840042415349344
12657404000.0 -0.4763021375512183 -0.8792816805574712 7.128786371744881e-17 7.040384274398782e-17 7.128786371744881e-17 7.040384274398782e-17 -0.47630155956335213 -0.8792819936501307
12658021333.333334 -0.48507711985495644 -0.8744713761999584 7.198095065917888e-17 6.96669743567531e-17 7.198095065917888e-17 6.96669743567531e-17 -0.48507654505713244 -0.8744716950452229
12658638666.666666 -0.4938035268526633 -0.8695735028551068 7.266643016063662e-17 6.892329219731198e-17 7.266643016063662e-17 6.892329219731198e-17 -0.49380295530212703 -0.8695738274204872
12659256000.0 -0.5024804846878164 -0.8645885509927408 7.334423533104638e-17 6.817287471372415e-17 7.334423533104638e-17 6.817287471372415e-17 -0.5024799164414832 -0.8645888812451789
12659873333.333334 -0.5111071244556253 -0.8595170198027097 7.401430008767805e-17 6.741580100973593e-17 7.401430008767805e-17 6.741580100973593e-17 -0.5111065595700738 -0.8595173557085812
12660490666.666666 -0.5196825822899733 -0.854359417144948 7.46765591622662e-17 6.66521508364639e-17 7.46765591622662e-17 6.66521508364639e-17 -0.5196820208214402 -0.854359758670066
12661108000.0 -0.5282059994503139 -0.8491162594983832 7.533094810736177e-17 6.588200458399434e-17 7.533094810736177e-17 6.588200458399434e-17 -0.5282054414546883 -0.8491166066080013
12661725333.333334 -0.5366765224072251 -0.8437880719094799 7.59774033025441e-17 6.510544327298284e-17 7.59774033025441e-17 6.510544327298284e-17 -0.5366759679400435 -0.8437884245682962
12662342666.666666 -0.5450933029281985 -0.8383753879394708 7.661586196061131e-17 6.432254854611826e-17 7.661586196061131e-17 6.432254854611826e-17 -0.5450927520446375 -0.8383757461116303
12662960000.0 -0.5534554981623622 -0.8328787496110592 7.724626213363467e-17 6.353340265958183e-17 7.724626213363467e-17 6.353340265958183e-17 -0.5534549509172354 -0.83287911326016
12663577333.333334 -0.5617622707250529 -0.8272987073540385 7.786854271894801e-17 6.273808847442199e-17 7.786854271894801e-17 6.273808847442199e-17 -0.5617617271728033 -0.8272990764431319
12664194666.666666 -0.5700127887815726 -0.8216358199502283 7.848264346503539e-17 6.193668944788569e-17 7.848264346503539e-17 6.193668944788569e-17 -0.5700122489762687 -0.8216361944418259
12664812000.0 -0.5782062261305388 -0.8158906544774924 7.908850497734823e-17 6.112928962467075e-17 7.908850497734823e-17 6.112928962467075e-17 -0.578205690125868 -0.8158910343335674
12665429333.333334 -0.5863417622865456 -0.8100637862529955 7.968606872401634e-17 6.031597362814137e-17 7.968606872401634e-17 6.031597362814137e-17 -0.5863412301358102 -0.8100641714349888
12666046666.666666 -0.5944185825623549 -0.8041557987755807 8.027527704146938e-17 5.949682665148838e-17 8.027527704146938e-17 5.949682665148838e-17 -0.5944180543184655 -0.8041561892444026
12666664000.0 -0.6024358781506353 -0.7981672836672169 8.085607313998441e-17 5.867193444881211e-17 8.085607313998441e-17 5.867193444881211e-17 -0.6024353538661071 -0.7981676793832534
12667281333.333334 -0.6103928462046829 -0.7920988406139581 8.142840110911778e-17 5.784138332618636e-17 8.142840110911778e-17 5.784138332618636e-17 -0.610392325931629 -0.7920992415370728
12667898666.666666 -0.6182886899189554 -0.7859510773057902 8.199220592306733e-17 5.700526013263648e-17 8.199220592306733e-17 5.700526013263648e-17 -0.6182881737090813 -0.7859514833953289
12668516000.0 -0.6261226186089961 -0.7797246093756717 8.254743344593529e-17 5.616365225107809e-17 8.254743344593529e-17 5.616365225107809e-17 -0.6261221065135968 -0.7797250205904677
12669133333.333334 -0.6338938477903235 -0.7734200603381121 8.309403043688322e-17 5.531664758922545e-17 8.309403043688322e-17 5.531664758922545e-17 -0.6338933398602762 -0.7734204766364887
12669750666.666666 -0.6416015992572548 -0.7670380615265212 8.363194455521681e-17 5.446433457041735e-17 8.363194455521681e-17 5.446433457041735e-17 -0.6416010955430153 -0.7670384828662979
12670368000.0 -0.6492451011606591 -0.7605792520301329 8.416112436537018e-17 5.360680212440351e-17 8.416112436537018e-17 5.360680212440351e-17 -0.6492446017122552 -0.7605796783686272
