! Parameters = {f0=12700.012000; bw=77.238000; Q=6100.000000; N=10; m_0_1=1.293789; m_1_1=0.642086; m_1_2=1.128601; m_2_2=0.641437; m_2_3=0.765564; m_2_8=0.001753; m_2_9=0.038457; m_3_3=0.639500; m_3_4=0.654093; m_3_7=0.002353; m_3_8=-0.094735; m_3_9=0.001753; m_4_4=0.636575; m_4_5=0.490428; m_4_6=0.005870; m_4_7=-0.115284; m_4_8=0.002353; m_5_5=0.636957; m_5_6=0.897783; m_5_7=0.005870; m_6_6=0.636956; m_6_7=0.490770; m_7_7=0.636589; m_7_8=0.654211; m_8_8=0.639498; m_8_9=0.765877; m_9_9=0.641432; m_9_10=1.129679; m_10_10=0.642076; m_10_11=1.294584}
!
! Created with skrf (http://scikit-rf.org).
# Hz S RI R 50.0 
!freq ReS11 ImS11 ReS21 ImS21 ReS12 ImS12 ReS22 ImS22
12607400000.0 0.5068363826608611 -0.8620422734478116 -2.9793044474997617e-17 1.199246033724392e-16 -2.9793044474997617e-17 1.199246033724392e-16 0.5068369702293432 -0.8620419279875873
12608017333.333334 0.497127184179649 -0.8676776836760471 -2.842866416561294e-17 1.20230476663083e-16 -2.842866416561294e-17 1.20230476663083e-16 0.4971277755602788 -0.8676773448502076
12608634666.666666 0.4873553345595774 -0.8732037436223803 -2.706117843511836e-17 1.2052083717127854e-16 -2.706117843511836e-17 1.2052083717127854e-16 0.4873559296774552 -0.8732034114729742
12609252000.0 0.47752206531150826 -0.8786197568575667 -2.569076355142683e-17 1.2079565380282058e-16 -2.569076355142683e-17 1.2079565380282058e-16 0.4775226640912712 -0.8786194314257976
12609869333.333334 0.46762861568686986 -0.8839250408211091 -2.431759608833963e-17 1.210548974651511e-16 -2.431759608833963e-17 1.210548974651511e-16 0.46762921805270136 -0.8839247221473311
12610486666.666666 0.45767623252143047 -0.8891189269073105 -2.2941852902823516e-17 1.2129854107030124e-16 -2.2941852902823516e-17 1.2129854107030124e-16 0.45767683839706896 -0.8891186150310207
12611104000.0 0.447666170077961 -0.8942007605496363 -2.1563711112239377e-17 1.215265595375768e-16 -2.1563711112239377e-17 1.215265595375768e-16 0.44766677938671035 -0.8942004555094719
12611721333.333334 0.43759968988859416 -0.8991699013029871 -2.0183348071633098e-17 1.217389297959722e-16 -2.0183348071633098e-17 1.217389297959722e-16 0.4376003025533334 -0.899169603136721
12612338666.666666 0.4274780605954092 -0.9040257229246335 -1.8800941350890788e-17 1.219356307863456e-16 -1.8800941350890788e-17 1.219356307863456e-16 0.42747867653860105 -0.9040254316691666
12612956000.0 0.4173025577907495 -0.9087676134530297 -1.7416668711940968e-17 1.221166434633235e-16 -1.7416668711940968e-17 1.221166434633235e-16 0.41730317693445235 -0.9087673291443908
12613573333.333334 0.40707446385649343 -0.9133949752849341 -1.6030708085972667e-17 1.2228195079694447e-16 -1.6030708085972667e-17 1.2228195079694447e-16 0.40707508612236937 -0.9133946979582718
12614190666.666666 0.39679506780238744 -0.9179072252507413 -1.4643237550539953e-17 1.2243153777405735e-16 -1.4643237550539953e-17 1.2243153777405735e-16 0.3967956931117127 -0.9179069549403208
12614808000.0 0.38646566510354574 -0.9223037946880042 -1.3254435306760939e-17 1.2256539139944746e-16 -1.3254435306760939e-17 1.2256539139944746e-16 0.3864662933772206 -0.9223035314272028
12615425333.333334 0.3760875575372355 -0.9265841295130697 -1.1864479656436842e-17 1.2268350069671233e-16 -1.1864479656436842e-17 1.2268350069671233e-16 0.3760881886957952 -0.9265838733343748
12616042666.666666 0.3656620530189017 -0.9307476902908858 -1.0473548979205508e-17 1.2278585670887605e-16 -1.0473548979205508e-17 1.2278585670887605e-16 0.3656626869825249 -0.9307474412258877
12616660000.0 0.35519046543717403 -0.9347939523030416 -9.081821709693807e-18 1.2287245249874316e-16 -9.081821709693807e-18 1.2287245249874316e-16 0.3551911021256938 -0.9347937103824306
12617277333.333334 0.3446741144883354 -0.9387224056138745 -7.689476314633667e-18 1.2294328314899898e-16 -7.689476314633667e-18 1.2294328314899898e-16 0.34467475382124974 -0.9387221708674394
12617894666.666666 0.334114325510219 -0.9425325551346585 -6.296691270056172e-18 1.2299834576204482e-16 -6.296691270056172e-18 1.2299834576204482e-16 0.3341149674067005 -0.94253232759128
12618512000.0 0.3235124293147012 -0.9462239206861751 -4.903645038385191e-18 1.2303763945958239e-16 -4.903645038385191e-18 1.2303763945958239e-16 0.32351307369360693 -0.9462237003738238
12619129333.333334 0.3128697620205707 -0.9497960370590139 -3.510516045663948e-18 1.2306116538193274e-16 -3.510516045663948e-18 1.2306116538193274e-16 0.31287040880045314 -0.949795824004746
12619746666.666666 0.30218766488468846 -0.9532484540723656 -2.1174826587113247e-18 1.2306892668710183e-16 -2.1174826587113247e-18 1.2306892668710183e-16 0.3021883139838052 -0.9532482483023201
12620364000.0 0.2914674841330323 -0.9565807366307233 -7.247231622981286e-19 1.2306092854958705e-16 -7.247231622981286e-19 1.2306092854958705e-16 0.29146813546935685 -0.9565805381701186
12620981333.333334 0.2807105707913625 -0.9597924647786124 6.675842635942314e-19 1.2303717815892554e-16 6.675842635942314e-19 1.2303717815892554e-16 0.28071122428259465 -0.9597922736517439
12621598666.666666 0.26991828051449623 -0.9628832337536646 2.059261566559238e-18 1.229976847179863e-16 2.059261566559238e-18 1.229976847179863e-16 0.2699189360780719 -0.9628830499839004
12622216000.0 0.2590919734158127 -0.9658526540375182 3.450130844508013e-18 1.2294245944100415e-16 3.450130844508013e-18 1.2294245944100415e-16 0.2590926309689148 -0.965852477647297
12622833333.333334 0.24823301389556848 -0.9687003514049838 4.84001436835597e-18 1.2287151555135837e-16 4.84001436835597e-18 1.2287151555135837e-16 0.24823367335513793 -0.9687001824158142
12623450666.666666 0.23734277046927885 -0.9714259669711244 6.2287346047099406e-18 1.2278486827909454e-16 6.2287346047099406e-18 1.2278486827909454e-16 0.2373434317520237 -0.9714258054035777
12624068000.0 0.2264226155949169 -0.9740291572365656 7.61611423851787e-18 1.2268253485819036e-16 7.61611423851787e-18 1.2268253485819036e-16 0.22642327861732375 -0.9740290031102765
12624685333.333334 0.2154739255000018 -0.9765095941307674 9.001976195667674e-18 1.2256453452356552e-16 9.001976195667674e-18 1.2256453452356552e-16 0.21547459017834658 -0.9765094474644325
12625302666.666666 0.20449808000852 -0.9788669650532943 1.0386143665539665e-17 1.224308885078403e-16 1.0386143665539665e-17 1.224308885078403e-16 0.20449874625887754 -0.9788668258646651
12625920000.0 0.1934964623664181 -0.9811009729133378 1.1768440123571923e-17 1.2228162003783216e-16 1.1768440123571923e-17 1.2228162003783216e-16 0.19349713010467393 -0.9811008412192253
12626537333.333334 0.18247045906789142 -0.9832113361670369 1.3148689353679534e-17 1.2211675433080993e-16 1.3148689353679534e-17 1.2211675433080993e-16 0.18247112820975148 -0.9832112119833042
12627154666.666666 0.17142145968025765 -0.9851977888530342 1.4526715470729808e-17 1.2193631859048349e-16 1.4526715470729808e-17 1.2193631859048349e-16 0.17142213014125923 -0.985197672194596
12627772000.0 0.16035085666889087 -0.9870600806259819 1.590234294291416e-17 1.217403420027459e-16 1.590234294291416e-17 1.217403420027459e-16 0.16035152836441346 -0.9870599715068046
12628389333.333334 0.14926004522193037 -0.988797976788062 1.7275396614048927e-17 1.215288557311672e-16 1.7275396614048927e-17 1.215288557311672e-16 0.149260718067206 -0.9887978752211593
12629006666.666666 0.1381504230741131 -0.9904112583186148 1.8645701725884944e-17 1.2130189291222668e-16 1.8645701725884944e-17 1.2130189291222668e-16 0.13815109698423725 -0.9904111643160475
12629624000.0 0.1270233903310155 -0.991899721901681 2.0013083940267768e-17 1.210594886503082e-16 2.0013083940267768e-17 1.210594886503082e-16 0.12702406522095788 -0.9918996354745568
12630241333.333334 0.11588034929223816 -0.9932631799516818 2.1377369361328635e-17 1.2080168001243166e-16 2.1377369361328635e-17 1.2080168001243166e-16 0.11588102507685313 -0.9932631011101516
12630858666.666666 0.10472270427507281 -0.9945014606370037 2.2738384557517166e-17 1.205285060227504e-16 2.2738384557517166e-17 1.205285060227504e-16 0.10472338086911041 -0.9945013893902614
12631476000.0 0.09355186143698573 -0.9956144079017197 2.40959565836759e-17 1.2024000765678037e-16 2.40959565836759e-17 1.2024000765678037e-16 0.09355253875510237 -0.9956143442580022
12632093333.333334 0.08236922859899776 -0.9966018814851912 2.5449913002927472e-17 1.199362278354044e-16 2.5449913002927472e-17 1.199362278354044e-16 0.0823699065557669 -0.9966018254517757
12632710666.666666 0.07117621506789439 -0.9974637569397835 2.6800081908553403e-17 1.1961721141861766e-16 2.6800081908553403e-17 1.1961721141861766e-16 0.07117689357781722 -0.9974637085229863
12633328000.0 0.05997423145855865 -0.9981999256465476 2.814629194582333e-17 1.1928300519901976e-16 2.814629194582333e-17 1.1928300519901976e-16 0.0599749104360753 -0.9981998848517276
12633945333.333334 0.048764689516537195 -0.9988102948288896 2.948837233366714e-17 1.1893365789508097e-16 2.948837233366714e-17 1.1893365789508097e-16 0.048765368876037 -0.9988102616604422
12634562666.666666 0.0375490019398107 -0.9992947875642817 3.0826152886312756e-17 1.185692201441535e-16 3.0826152886312756e-17 1.185692201441535e-16 0.0375496815956433 -0.9992947620256413
12635180000.0 0.0263285822008702 -0.9996533427939459 3.215946403484931e-17 1.1818974449523705e-16 3.215946403484931e-17 1.1818974449523705e-16 0.026329262067356286 -0.9996533248875862
12635797333.333334 0.015104844368639252 -0.9998859153305528 3.34881368486793e-17 1.177952854015082e-16 3.34881368486793e-17 1.177952854015082e-16 0.015105524360081305 -0.9998859050579844
12636414666.666666 0.0038792029301785947 -0.9999924758639157 3.4812003056864113e-17 1.1738589921261517e-16 3.4812003056864113e-17 1.1738589921261517e-16 0.0038798829608717327 -0.9999924732256879
12637032000.0 -0.007346927387519651 -0.9999730109646862 3.6130895069443814e-17 1.1696164416671287e-16 3.6130895069443814e-17 1.1696164416671287e-16 -0.007346247403276892 -0.9999730159603847
12637649333.333334 -0.018572131795938623 -0.999827523086043 3.744464599857747e-17 1.1652258038228342e-16 3.744464599857747e-17 1.1652258038228342e-16 -0.01857145194383348 -0.9998275357142931
12638266666.666666 -0.029794995623138452 -0.9995560305633873 3.875308967965275e-17 1.160687698497008e-16 3.875308967965275e-17 1.160687698497008e-16 -0.029794315988833118 -0.9995560508218514
12638884000.0 -0.04101410449224111 -0.9991585676120261 4.005606069225745e-17 1.1560027642256857e-16 4.005606069225745e-17 1.1560027642256857e-16 -0.04101342516136203 -0.9991585954974074
12639501333.333334 -0.052228044499622504 -0.9986351843228652 4.1353394381051477e-17 1.1511716580882323e-16 4.1353394381051477e-17 1.1511716580882323e-16 -0.0522273655577494 -0.9986352198309026
12640118666.666666 -0.0634354023928459 -0.9979859466561017 4.264492687653942e-17 1.1461950556160173e-16 4.264492687653942e-17 1.1461950556160173e-16 -0.0634347239255012 -0.9979859897815768
12640736000.0 -0.07463476574942195 -0.9972109364328828 4.3930495115776206e-17 1.141073650698587e-16 4.3930495115776206e-17 1.141073650698587e-16 -0.07463408784205991 -0.9972109871696168
12641353333.333334 -0.0858247231539032 -0.9963102513250445 4.520993686283211e-17 1.1358081554880396e-16 4.520993686283211e-17 1.1358081554880396e-16 -0.08582404589189924 -0.9963103096659006
12641970666.666666 -0.09700386437658237 -0.9952840048427518 4.648309072932194e-17 1.130399300300398e-16 4.648309072932194e-17 1.130399300300398e-16 -0.09700318784522216 -0.9952840707796357
12642588000.0 -0.10817078055070803 -0.9941323263202283 4.774979619466902e-17 1.1248478335152886e-16 4.774979619466902e-17 1.1248478335152886e-16 -0.10817010483517676 -0.9941323998440875
12643205333.333334 -0.11932406435026548 -0.9928553608994369 4.9009893626334197e-17 1.1191545214730106e-16 4.9009893626334197e-17 1.1191545214730106e-16 -0.11932338953563748 -0.9928554420002668
12643822666.666666 -0.1304623101673654 -0.9914532695117863 5.0263224299900406e-17 1.113320148369432e-16 5.0263224299900406e-17 1.113320148369432e-16 -0.13046163633859295 -0.9914533581786259
12644440000.0 -0.1415841142891614 -0.9899262288578736 5.150963041900511e-17 1.107345516148778e-16 5.150963041900511e-17 1.107345516148778e-16 -0.1415834415310642 -0.9899263250788101
12645057333.333334 -0.15268807507498033 -0.988274431385187 5.274895513519647e-17 1.1012314443939563e-16 5.274895513519647e-17 1.1012314443939563e-16 -0.15268740347223503 -0.9882745351473571
12645674666.666666 -0.16377279313274173 -0.9864980852638882 5.398104256761068e-17 1.0949787702149119e-16 5.398104256761068e-17 1.0949787702149119e-16 -0.1637721227698711 -0.9864981965534798
12646292000.0 -0.1748368714957386 -0.9845974143605091 5.520573782258879e-17 1.0885883481344177e-16 5.520573782258879e-17 1.0885883481344177e-16 -0.1748362024571009 -0.9845975331627628
12646909333.333334 -0.18587891579810323 -0.9825726582098343 5.642288701304836e-17 1.0820610499722529e-16 5.642288701304836e-17 1.0820610499722529e-16 -0.18587824816788148 -0.9825727845090447
12647526666.666666 -0.1968975344510105 -0.980424071984634 5.76323372778364e-17 1.0753977647266148e-16 5.76323372778364e-17 1.0753977647266148e-16 -0.19689686831320224 -0.9804242057641539
12648144000.0 -0.20789133881794256 -0.9781519264635237 5.883393680087474e-17 1.0685993984537151e-16 5.883393680087474e-17 1.0685993984537151e-16 -0.2078906742563488 -0.9781520677057628
12648761333.333334 -0.21885894338949766 -0.9757565079968725 6.002753483017461e-17 1.061666874145213e-16 6.002753483017461e-17 1.061666874145213e-16 -0.21885828048771303 -0.9757566566833044
12649378666.666666 -0.2297989659581977 -0.9732381184706863 6.121298169670111e-17 1.054601131603552e-16 6.121298169670111e-17 1.054601131603552e-16 -0.22979830479959906 -0.9732382745818461
12649996000.0 -0.240710027792598 -0.9705970752685714 6.239012883314003e-17 1.0474031273149246e-16 6.239012883314003e-17 1.0474031273149246e-16 -0.24070936846033467 -0.9705972387840618
12650613333.333334 -0.25159075381118245 -0.9678337112317065 6.355882879244716e-17 1.0400738343205461e-16 6.355882879244716e-17 1.0400738343205461e-16 -0.25159009638816543 -0.9678338821301987
12651230666.666666 -0.26243977275532954 -0.9649483746169787 6.471893526628928e-17 1.0326142420856211e-16 6.471893526628928e-17 1.0326142420856211e-16 -0.26243911732422104 -0.9649485528762154
12651848000.0 -0.27325571736259424 -0.9619414290529708 6.587030310334347e-17 1.0250253563661779e-16 6.587030310334347e-17 1.0250253563661779e-16 -0.2732550640057976 -0.9619416146497695
12652465333.333334 -0.2840372245386896 -0.9588132534942221 6.701278832738572e-17 1.0173081990742253e-16 6.701278832738572e-17 1.0173081990742253e-16 -0.28403657333833854 -0.9588134464044781
12653082666.666666 -0.2947829355291913 -0.9555642421734974 6.814624815527786e-17 1.0094638081405434e-16 6.814624815527786e-17 1.0094638081405434e-16 -0.2947822865671397 -0.9555644423721859
12653700000.0 -0.305491496091213 -0.9521948045519737 6.92705410147796e-17 1.0014932373755617e-16 6.92705410147796e-17 1.0014932373755617e-16 -0.3054908494490247 -0.9521950120131546
12654317333.333334 -0.31616155666361256 -0.9487053652677735 7.038552656217358e-17 9.933975563284474e-17 7.038552656217358e-17 9.933975563284474e-17 -0.3161609124225516 -0.9487055799645947
12654934666.666666 -0.32679177253726566 -0.9450963640823992 7.149106569976571e-17 9.851778501439483e-17 7.149106569976571e-17 9.851778501439483e-17 -0.32679113077828503 -0.9450965859870981
12655552000.0 -0.33738080402471976 -0.9413682558252389 7.2587020593191e-17 9.768352194174987e-17 7.2587020593191e-17 9.768352194174987e-17 -0.3373801648284519 -0.9413684849091477
12656169333.333334 -0.347927316628575 -0.9375215103364074 7.36732546885544e-17 9.683707800483926e-17 7.36732546885544e-17 9.683707800483926e-17 -0.3479266800753216 -0.9375217465699569
12656786666.666666 -0.3584299812101212 -0.933556612407373 7.474963272941149e-17 9.597856630909615e-17 7.474963272941149e-17 9.597856630909615e-17 -0.3584293473798435 -0.9335568557600967
12657404000.0 -0.3688874741566312 -0.9294740617199382 7.581602077357713e-17 9.51081014603883e-17 7.581602077357713e-17 9.51081014603883e-17 -0.3688868431289385 -0.9294743121604728
12658021333.333334 -0.37929847754814217 -0.9252743727832728 7.687228620975028e-17 9.422579954976762e-17 7.687228620975028e-17 9.422579954976762e-17 -0.3792978494022838 -0.9252746302793676
12658638666.666666 -0.38966167932360535 -0.9209580748690608 7.791829777394466e-17 9.333177813805273e-17 7.791829777394466e-17 9.333177813805273e-17 -0.3896610541384588 -0.9209583393875765
12659256000.0 -0.3999757734462891 -0.9165257119447668 7.895392556580335e-17 9.242615624017546e-17 7.895392556580335e-17 9.242615624017546e-17 -0.399975151300352 -0.9165259834516852
12659873333.333334 -0.41023946006834916 -0.9119778426050973 7.997904106465872e-17 9.150905430940957e-17 7.997904106465872e-17 9.150905430940957e-17 -0.4102388410397281 -0.9119781210655211
12660490666.666666 -0.42045144569443604 -0.9073150400016948 8.09935171454342e-17 9.058059422140268e-17 8.09935171454342e-17 9.058059422140268e-17 -0.42045082986083715 -0.9073153253798546
12661108000.0 -0.43061044334515003 -0.9025378917707068 8.199722809441172e-17 8.964089925798518e-17 8.199722809441172e-17 8.964089925798518e-17 -0.4306098307838692 -0.9025381840299643
12661725333.333334 -0.4407151727187941 -0.897646999958927 8.299004962471298e-17 8.869009409089645e-17 8.299004962471298e-17 8.869009409089645e-17 -0.44071456350670757 -0.897647299061781
12662342666.666666 -0.45076436035293366 -0.89264298094783 8.397185889169413e-17 8.772830476524646e-17 8.397185889169413e-17 8.772830476524646e-17 -0.4507637545664881 -0.8926432868559206
12662960000.0 -0.4607567397849367 -0.8875264653758635 8.494253450808376e-17 8.675565868286855e-17 8.494253450808376e-17 8.675565868286855e-17 -0.46075613750013916 -0.8875267780499759
12663577333.333334 -0.4706910517114024 -0.8822980980590583 8.590195655894349e-17 8.577228458549115e-17 8.590195655894349e-17 8.577228458549115e-17 -0.47069045300381157 -0.8822984174591298
12664194666.666666 -0.48056604414704535 -0.876958537909677 8.685000661645507e-17 8.477831253772604e-17 8.685000661645507e-17 8.477831253772604e-17 -0.48056544909176163 -0.8769588639948008
12664812000.0 -0.49038047258240053 -0.871508457853209 8.778656775448803e-17 8.377387390991471e-17 8.778656775448803e-17 8.377387390991471e-17 -0.4903798812540574 -0.8715087905816409
12665429333.333334 -0.5001331001406181 -0.8659485447435965 8.871152456297287e-17 8.275910136081266e-17 8.871152456297287e-17 8.275910136081266e-17 -0.5001325126133711 -0.8659488840727575
12666046666.666666 -0.5098226977333888 -0.8602794992766404 8.962476316208209e-17 8.173412882010844e-17 8.962476316208209e-17 8.173412882010844e-17 -0.509822114080908 -0.8602798451631254
12666664000.0 -0.5194480442159184 -0.8545020359016564 9.052617121622508e-17 8.069909147076795e-17 9.052617121622508e-17 8.069909147076795e-17 -0.5194474645113784 -0.8545023883012376
12667281333.333334 -0.5290079265406733 -0.8486168827315161 9.141563794778296e-17 7.96541257312901e-17 9.141563794778296e-17 7.96541257312901e-17 -0.5290073508567438 -0.8486172415991493
12667898666.666666 -0.5385011399103105 -0.8426247814508633 9.229305415071673e-17 7.859936923772366e-17 9.229305415071673e-17 7.859936923772366e-17 -0.5385005683191468 -0.8426251467406929
12668516000.0 -0.5479264879296779 -0.8365264872225306 9.315831220391148e-17 7.753496082559958e-17 9.315831220391148e-17 7.753496082559958e-17 -0.547925920502914 -0.8365268588878977
12669133333.333334 -0.5572827827563055 -0.8303227685925553 9.401130608432936e-17 7.646104051169943e-17 9.401130608432936e-17 7.646104051169943e-17 -0.5572822195650426 -0.8303231465860009
12669750666.666666 -0.5665688452502735 -0.8240144073932142 9.485193137995882e-17 7.537774947567118e-17 9.485193137995882e-17 7.537774947567118e-17 -0.5665682863650726 -0.8240147916664872
12670368000.0 -0.5757835051228829 -0.8176021986444425 9.568008530255526e-17 7.428523004150115e-17 9.568008530255526e-17 7.428523004150115e-17 -0.5757829506137547 -0.8176025891485039
