! Parameters = {f0=12700.012000; bw=77.238000; Q=6100.000000; N=10; m_0_1=1.209104; m_1_1=-0.628184; m_1_2=1.043916; m_2_2=-0.628833; m_2_3=0.680879; m_2_8=-0.002481; m_2_9=0.034223; m_3_3=-0.630770; m_3_4=0.569408; m_3_7=-0.001881; m_3_8=-0.098969; m_3_9=-0.002481; m_4_4=-0.633695; m_4_5=0.405743; m_4_6=0.001636; m_4_7=-0.119518; m_4_8=-0.001881; m_5_5=-0.633313; m_5_6=0.813098; m_5_7=0.001636; m_6_6=-0.633314; m_6_7=0.406085; m_7_7=-0.633681; m_7_8=0.569526; m_8_8=-0.630772; m_8_9=0.681192; m_9_9=-0.628838; m_9_10=1.044994; m_10_10=-0.628194; m_10_11=1.209899}
!
! Created with skrf (http://scikit-rf.org).
# Hz S RI R 50.0 
!freq ReS11 ImS11 ReS21 ImS21 ReS12 ImS12 ReS22 ImS22
12607400000.0 0.9897031953086559 -0.14313484968963994 -7.470584304396641e-17 3.4409818968315724e-17 -7.470584304396641e-17 3.4409818968315724e-17 0.9897032865045824 -0.14313421911572494
12608017333.333334 0.9884170373596626 -0.1517621832242369 -7.438517646816867e-17 3.505986891912631e-17 -7.438517646816867e-17 3.505986891912631e-17 0.9884171340476251 -0.15176155350061382
12608634666.666666 0.987055675615562 -0.1603779699177789 -7.405885920578932e-17 3.570694173384081e-17 -7.405885920578932e-17 3.570694173384081e-17 0.9870557777876652 -0.16037734109227453
12609252000.0 0.985619213655746 -0.16898155423734634 -7.37269188036943e-17 3.6350988343422565e-17 -7.37269188036943e-17 3.6350988343422565e-17 0.9856193213036808 -0.16898092635771486
12609869333.333334 0.9841077607735945 -0.1775722815785803 -7.338938323440418e-17 3.699195993292905e-17 -7.338938323440418e-17 3.699195993292905e-17 0.9841078738886342 -0.1775716546924989
12610486666.666666 0.9825214319682138 -0.18614949831512237 -7.30462808937543e-17 3.762980794520676e-17 -7.30462808937543e-17 3.762980794520676e-17 0.9825215505412174 -0.18614887247018816
12611104000.0 0.9808603479355952 -0.19471255184887826 -7.26976405985216e-17 3.8264484084563945e-17 -7.26976405985216e-17 3.8264484084563945e-17 0.9808604719570079 -0.1947119270926046
12611721333.333334 0.9791246350595495 -0.20326079065905636 -7.23434915840308e-17 3.889594032040371e-17 -7.23434915840308e-17 3.889594032040371e-17 0.9791247645194003 -0.20326016703886862
12612338666.666666 0.9773144254019857 -0.2117935643522399 -7.198386350171952e-17 3.9524128890851153e-17 -7.198386350171952e-17 3.9524128890851153e-17 0.9773145602898939 -0.21179294191547293
12612956000.0 0.9754298566929099 -0.22031022371167813 -7.161878641666543e-17 4.014900230637057e-17 -7.161878641666543e-17 4.014900230637057e-17 0.9754299969980813 -0.22030960250557186
12613573333.333334 0.973471072319977 -0.2288101207465147 -7.124829080511075e-17 4.077051335330927e-17 -7.124829080511075e-17 4.077051335330927e-17 0.9734712180312067 -0.22880950081821091
12614190666.666666 0.9714382213175043 -0.23729260874145142 -7.087240755191579e-17 4.1388615097489725e-17 -7.087240755191579e-17 4.1388615097489725e-17 0.9714383724231774 -0.23729199013798996
12614808000.0 0.9693314583552077 -0.2457570423056208 -7.049116794801739e-17 4.2003260887715675e-17 -7.049116794801739e-17 4.2003260887715675e-17 0.9693316148432995 -0.24575642507393616
12615425333.333334 0.9671509437263723 -0.2542027774219394 -7.010460368783143e-17 4.2614404359299486e-17 -7.010460368783143e-17 4.2614404359299486e-17 0.9671511055844505 -0.2542021616088573
12616042666.666666 0.9648968433357134 -0.26262917149588755 -6.97127468666447e-17 4.322199943753151e-17 -6.97127468666447e-17 4.322199943753151e-17 0.9648970105509376 -0.2626285571481209
12616660000.0 0.9625693286866961 -0.27103558340462125 -6.931562997795832e-17 4.382600034115801e-17 -6.931562997795832e-17 4.382600034115801e-17 0.9625695012458205 -0.27103497056876713
12617277333.333334 0.9601685768685376 -0.27942137354555985 -6.89132859108186e-17 4.4426361585804526e-17 -6.89132859108186e-17 4.4426361585804526e-17 0.9601687547579105 -0.2794207622680956
12617894666.666666 0.9576947705427119 -0.2877859038851324 -6.850574794710687e-17 4.502303798739536e-17 -6.850574794710687e-17 4.502303798739536e-17 0.9576949537482774 -0.2877852942124124
12618512000.0 0.9551480979290268 -0.29612853800740474 -6.809304975879873e-17 4.5615984665547564e-17 -6.809304975879873e-17 4.5615984665547564e-17 0.9551482864363262 -0.2961279299856566
12619129333.333334 0.9525287527913507 -0.3044486411623368 -6.767522540520696e-17 4.6205157046923415e-17 -6.767522540520696e-17 4.6205157046923415e-17 0.9525289465855238 -0.3044480348376582
12619746666.666666 0.9498369344228598 -0.3127455803141341 -6.725230933018397e-17 4.679051086857251e-17 -6.725230933018397e-17 4.679051086857251e-17 0.9498371334886444 -0.31274497573248883
12620364000.0 0.9470728476307961 -0.32101872418962607 -6.682433635928815e-17 4.7372002181260354e-17 -6.682433635928815e-17 4.7372002181260354e-17 0.9470730519525318 -0.32101812139684116
12620981333.333334 0.9442367027210415 -0.3292674433258393 -6.639134169695479e-17 4.794958735272346e-17 -6.639134169695479e-17 4.794958735272346e-17 0.9442369122826691 -0.3292668423676011
12621598666.666666 0.9413287154819547 -0.3374911101183758 -6.59533609235921e-17 4.8523223070965286e-17 -6.59533609235921e-17 4.8523223070965286e-17 0.9413289302670174 -0.3374905110402263
12622216000.0 0.9383491071680577 -0.3456890988688392 -6.551042999269043e-17 4.9092866347466916e-17 -6.551042999269043e-17 4.9092866347466916e-17 0.9383493271597028 -0.3456885017161731
12622833333.333334 0.9352981044831594 -0.35386078583257735 -6.506258522787287e-17 4.965847452041524e-17 -6.506258522787287e-17 4.965847452041524e-17 0.9352983296641416 -0.35386019065063884
12623450666.666666 0.9321759395631174 -0.36200554926611334 -6.460986331994884e-17 5.0220005257863196e-17 -6.460986331994884e-17 5.0220005257863196e-17 0.9321761699157959 -0.36200495609999156
12624068000.0 0.9289828499581912 -0.3701227694743962 -6.415230132390465e-17 5.077741656090939e-17 -6.415230132390465e-17 5.077741656090939e-17 0.928983085464536 -0.3701221783690233
12624685333.333334 0.9257190786148806 -0.3782118288581903 -6.368993665589561e-17 5.13306667668138e-17 -6.368993665589561e-17 5.13306667668138e-17 0.9257193192564688 -0.3782112398583365
12625302666.666666 0.9223848738576247 -0.3862721119605887 -6.322280709020476e-17 5.187971455209593e-17 -6.322280709020476e-17 5.187971455209593e-17 0.9223851196156465 -0.3862715251108602
12625920000.0 0.9189804893696678 -0.3943030055144474 -6.275095075616088e-17 5.242451893562075e-17 -6.275095075616088e-17 5.242451893562075e-17 0.9189807402249245 -0.39430242085928197
12626537333.333334 0.9155061841739919 -0.4023038984884662 -6.227440613504994e-17 5.296503928163428e-17 -6.227440613504994e-17 5.296503928163428e-17 0.9155064401068993 -0.40230331607213055
12627154666.666666 0.9119622226134584 -0.41027418213404804 -6.179321205699477e-17 5.3501235302778355e-17 -6.179321205699477e-17 5.3501235302778355e-17 0.9119624836040489 -0.4102736020006344
12627772000.0 0.9083488743307158 -0.4182132500315614 -6.13074076977838e-17 5.403306706310462e-17 -6.13074076977838e-17 5.403306706310462e-17 0.9083491403586389 -0.41821267222498426
12628389333.333334 0.9046664142477546 -0.4261204981363257 -6.081703257573e-17 5.456049498099799e-17 -6.081703257573e-17 5.456049498099799e-17 0.9046666852922772 -0.4261199227003174
12629006666.666666 0.9009151225449052 -0.43399532482474923 -6.03221265484347e-17 5.508347983214901e-17 -6.03221265484347e-17 5.508347983214901e-17 0.9009153985849147 -0.43399475180285774
12629624000.0 0.8970952846395562 -0.4418371309400272 -5.982272980959185e-17 5.560198275242535e-17 -5.982272980959185e-17 5.560198275242535e-17 0.8970955656535639 -0.4418365603756132
12630241333.333334 0.8932071911644652 -0.4496453198376778 -5.931888288571555e-17 5.611596524077026e-17 -5.931888288571555e-17 5.611596524077026e-17 0.8932074771306042 -0.4496447517739102
12630858666.666666 0.8892511379456206 -0.457419297430989 -5.881062663288768e-17 5.662538916202482e-17 -5.881062663288768e-17 5.662538916202482e-17 0.8892514288416505 -0.45741873191084265
12631476000.0 0.885227425979694 -0.4651584722362956 -5.829800223342791e-17 5.713021674977547e-17 -5.829800223342791e-17 5.713021674977547e-17 0.8852277217830017 -0.46515790930254747
12632093333.333334 0.881136361411206 -0.4728622554178561 -5.77810511926048e-17 5.76304106091057e-17 -5.77810511926048e-17 5.76304106091057e-17 0.881136662098805 -0.47286169511308135
12632710666.666666 0.8769782555092411 -0.48053006083262734 -5.725981533526608e-17 5.812593371937563e-17 -5.725981533526608e-17 5.812593371937563e-17 0.8769785610577785 -0.4805295031991985
12633328000.0 0.8727534246436667 -0.48816130507506633 -5.673433680247295e-17 5.861674943694325e-17 -5.673433680247295e-17 5.861674943694325e-17 0.8727537350294203 -0.48816075015514737
12633945333.333334 0.868462190261135 -0.49575540752136404 -5.62046580481082e-17 5.910282149785889e-17 -5.62046580481082e-17 5.910282149785889e-17 0.8684625054600172 -0.49575485535690883
12634562666.666666 0.8641048788606556 -0.5033117903735738 -5.567082183546474e-17 5.958411402052587e-17 -5.567082183546474e-17 5.958411402052587e-17 0.8641051988482162 -0.503311241006323
12635180000.0 0.8596818219686596 -0.5108298787037491 -5.5132871233794495e-17 6.006059150834655e-17 -5.5132871233794495e-17 6.006059150834655e-17 0.8596821467200848 -0.5108293321752253
12635797333.333334 0.8551933561138692 -0.51830910049751 -5.45908496148587e-17 6.05322188523151e-17 -5.45908496148587e-17 6.05322188523151e-17 0.8551936856039865 -0.518308556849017
12636414666.666666 0.8506398228016393 -0.5257488866976672 -5.404480064943743e-17 6.099896133359674e-17 -5.404480064943743e-17 6.099896133359674e-17 0.850640157004917 -0.5257483459702846
12637032000.0 0.8460215684880027 -0.5331486712474679 -5.3494768303827334e-17 6.1460784626066e-17 -5.3494768303827334e-17 6.1460784626066e-17 0.846021907378554 -0.5331481334820499
12637649333.333334 0.8413389445532491 -0.5405078911337614 -5.294079683630768e-17 6.191765479882315e-17 -5.294079683630768e-17 6.191765479882315e-17 0.8413392881048324 -0.5405073563709323
12638266666.666666 0.8365923072752953 -0.547825986429667 -5.238293079360408e-17 6.236953831866174e-17 -5.238293079360408e-17 6.236953831866174e-17 0.8365926554613184 -0.5478254547098195
12638884000.0 0.8317820178024599 -0.5551024003373696 -5.1821215007305105e-17 6.281640205252746e-17 -5.1821215007305105e-17 6.281640205252746e-17 0.8317823705959784 -0.5551018717006596
12639501333.333334 0.8269084421260863 -0.5623365792303133 -5.1255694590284565e-17 6.325821326992241e-17 -5.1255694590284565e-17 6.325821326992241e-17 0.8269087994998092 -0.5623360537166595
12640118666.666666 0.821971951052672 -0.5695279726953761 -5.0686414933087624e-17 6.369493964529045e-17 -5.0686414933087624e-17 6.369493964529045e-17 0.8219723129789627 -0.5695274503444551
12640736000.0 0.8169729201755243 -0.5766760335749325 -5.011342170028524e-17 6.412654926037858e-17 -5.011342170028524e-17 6.412654926037858e-17 0.8169732866264025 -0.5766755144261765
12641353333.333334 0.8119117298464422 -0.5837802180081115 -4.953676082685335e-17 6.455301060653221e-17 -4.953676082685335e-17 6.455301060653221e-17 0.8119121007935852 -0.5837797021007051
12641970666.666666 0.80678876514655 -0.5908399854725025 -4.895647851447878e-17 6.497429258699823e-17 -4.895647851447878e-17 6.497429258699823e-17 0.8067891405612961 -0.5908394728453797
12642588000.0 0.8016044158571105 -0.5978547988251168 -4.8372621227873506e-17 6.539036451917402e-17 -4.8372621227873506e-17 6.539036451917402e-17 0.8016047957104627 -0.5978542895169596
12643205333.333334 0.7963590764298091 -0.6048241243433525 -4.7785235691079695e-17 6.580119613681723e-17 -4.7785235691079695e-17 6.580119613681723e-17 0.7963594606924328 -0.6048236183925847
12643822666.666666 0.7910531459567814 -0.6117474317655283 -4.719436888372008e-17 6.620675759224777e-17 -4.719436888372008e-17 6.620675759224777e-17 0.7910535345990116 -0.6117469292103159
12644440000.0 0.7856870281402069 -0.6186241943313006 -4.660006803727731e-17 6.660701945848304e-17 -4.660006803727731e-17 6.660701945848304e-17 0.7856874211320471 -0.6186236952095471
12645057333.333334 0.7802611312617074 -0.6254538888215828 -4.6002380631313363e-17 6.700195273136873e-17 -4.6002380631313363e-17 6.700195273136873e-17 0.7802615285728339 -0.6254533931709271
12645674666.666666 0.77477586815115 -0.6322359955985362 -4.540135438970403e-17 6.739152883165444e-17 -4.540135438970403e-17 6.739152883165444e-17 0.7747762697509127 -0.6322355034563485
12646292000.0 0.7692316561552475 -0.6389699986450805 -4.479703727681108e-17 6.777571960706392e-17 -4.479703727681108e-17 6.777571960706392e-17 0.7692320620126738 -0.6389695100484616
12646909333.333334 0.7636289171058994 -0.6456553856040481 -4.4189477493707193e-17 6.815449733428659e-17 -4.4189477493707193e-17 6.815449733428659e-17 0.7636293271896943 -0.6456549005898239
12647526666.666666 0.7579680772880565 -0.6522916478172074 -4.3578723474308496e-17 6.852783472098386e-17 -4.3578723474308496e-17 6.852783472098386e-17 0.7579684915666084 -0.6522911664219295
12648144000.0 0.7522495674071613 -0.6588782803641193 -4.2964823881542556e-17 6.889570490772709e-17 -4.2964823881542556e-17 6.889570490772709e-17 0.7522499858485421 -0.6588778026240596
12648761333.333334 0.7464738225565992 -0.6654147821002928 -4.234782760347536e-17 6.925808146991797e-17 -4.234782760347536e-17 6.925808146991797e-17 0.746474245128566 -0.6654143080514412
12649378666.666666 0.7406412821844428 -0.6719006556954867 -4.1727783749445394e-17 6.96149384196594e-17 -4.1727783749445394e-17 6.96149384196594e-17 0.7406417088544436 -0.6719001853735499
12649996000.0 0.7347523900600783 -0.6783354076714875 -4.110474164614107e-17 6.99662502076171e-17 -4.110474164614107e-17 6.99662502076171e-17 0.7347528207952511 -0.678334941111884
12650613333.333334 0.7288075942403404 -0.6847185484397572 -4.047875083370985e-17 7.031199172481783e-17 -4.047875083370985e-17 7.031199172481783e-17 0.7288080290075173 -0.6847180856776163
12651230666.666666 0.7228073470356362 -0.6910495923384562 -3.984986106182307e-17 7.065213830443074e-17 -3.984986106182307e-17 7.065213830443074e-17 0.7228077858013457 -0.6910491334086145
12651848000.0 0.716752104975279 -0.6973280576696649 -3.921812228572957e-17 7.098666572351081e-17 -3.921812228572957e-17 7.098666572351081e-17 0.7167525477057494 -0.6973276026066648
12652465333.333334 0.7106423287728687 -0.703553466735908 -3.8583584662301063e-17 7.13155502047041e-17 -3.8583584662301063e-17 7.13155502047041e-17 0.7106427754340296 -0.703553015573994
12653082666.666666 0.7044784832913797 -0.7097253458763598 -3.79462985460778e-17 7.163876841791016e-17 -3.79462985460778e-17 7.163876841791016e-17 0.7044789338488644 -0.7097248986494759
12653700000.0 0.6982610375074294 -0.7158432255032449 -3.730631448524733e-17 7.195629748193722e-17 -3.730631448524733e-17 7.195629748193722e-17 0.698261491926579 -0.7158427822450327
12654317333.333334 0.691990464476041 -0.7219066401371261 -3.666368321769158e-17 7.226811496607901e-17 -3.666368321769158e-17 7.226811496607901e-17 0.6919909227219057 -0.7219062008809223
12654934666.666666 0.6856672412942861 -0.7279151284426805 -3.6018455666938833e-17 7.257419889169846e-17 -3.6018455666938833e-17 7.257419889169846e-17 0.685667703331629 -0.7279146932215137
12655552000.0 0.6792918490651468 -0.733868233263639 -3.5370682938156054e-17 7.287452773374806e-17 -3.5370682938156054e-17 7.287452773374806e-17 0.6792923148584451 -0.7338678021102276
12656169333.333334 0.6728647728609316 -0.7397655016575507 -3.472041631411482e-17 7.31690804222627e-17 -3.472041631411482e-17 7.31690804222627e-17 0.6728652423743806 -0.739765074604301
12656786666.666666 0.6663865016863288 -0.7456064849302865 -3.4067707251138264e-17 7.34578363438186e-17 -3.4067707251138264e-17 7.34578363438186e-17 0.6663869748838445 -0.7456060620092887
12657404000.0 0.6598575284411362 -0.7513907386702314 -3.341260737503436e-17 7.374077534295776e-17 -3.341260737503436e-17 7.374077534295776e-17 0.6598580052863576 -0.7513903199132593
12658021333.333334 0.6532783498828856 -0.7571178227819865 -3.275516847703632e-17 7.401787772356739e-17 -3.275516847703632e-17 7.401787772356739e-17 0.6532788303391779 -0.7571174082204931
12658638666.666666 0.6466494665889838 -0.7627873015199087 -3.2095442509713e-17 7.428912425023214e-17 -3.2095442509713e-17 7.428912425023214e-17 0.6466499506194409 -0.7627868911850253
12659256000.0 0.6399713829185832 -0.7683987435213034 -3.1433481582870313e-17 7.45544961495483e-17 -3.1433481582870313e-17 7.45544961495483e-17 0.639971870486031 -0.7683983374438368
12659873333.333334 0.6332446069742272 -0.7739517218392227 -3.0769337959448474e-17 7.481397511139973e-17 -3.0769337959448474e-17 7.481397511139973e-17 0.6332450980412258 -0.7739513200496524
12660490666.666666 0.6264696505633467 -0.7794458139748263 -3.010306405142397e-17 7.506754329019098e-17 -3.010306405142397e-17 7.506754329019098e-17 0.6264701450921936 -0.7794454165033027
12661108000.0 0.6196470291590324 -0.78488060190976 -2.943471241564583e-17 7.531518330606588e-17 -2.943471241564583e-17 7.531518330606588e-17 0.6196475271117653 -0.7848802087861019
12661725333.333334 0.6127772618610567 -0.7902556721377627 -2.876433574974814e-17 7.555687824605638e-17 -2.876433574974814e-17 7.555687824605638e-17 0.6127777631994575 -0.7902552833914563
12662342666.666666 0.6058608713562927 -0.7955706156962027 -2.8091986887965136e-17 7.579261166522827e-17 -2.8091986887965136e-17 7.579261166522827e-17 0.6058613760418881 -0.7955702313563967
12662960000.0 0.5988983838788747 -0.8008250281972428 -2.7417718797006155e-17 7.602236758776432e-17 -2.7417718797006155e-17 7.602236758776432e-17 0.5988988918729411 -0.8008246482927485
12663577333.333334 0.591890329170318 -0.8060185098584862 -2.6741584571874462e-17 7.624613050802779e-17 -2.6741584571874462e-17 7.624613050802779e-17 0.5918908404338842 -0.8060181344177754
12664194666.666666 0.584837240439034 -0.8111506655335351 -2.6063637431714635e-17 7.646388539157638e-17 -2.6063637431714635e-17 7.646388539157638e-17 0.5848377549328839 -0.8111502945847369
12664812000.0 0.5777396543199419 -0.816221104741917 -2.538393071561712e-17 7.667561767615111e-17 -2.538393071561712e-17 7.667561767615111e-17 0.5777401720046168 -0.8162207383128153
12665429333.333334 0.570598110833432 -0.8212294416989447 -2.4702517878447652e-17 7.688131327261641e-17 -2.4702517878447652e-17 7.688131327261641e-17 0.5705986316692344 -0.8212290798169766
12666046666.666666 0.5634131533445801 -0.8261752953448551 -2.4019452486647968e-17 7.708095856587222e-17 -2.4019452486647968e-17 7.708095856587222e-17 0.5634136772915772 -0.8261749380371108
12666664000.0 0.5561853285213616 -0.831058289374113 -2.333478821402877e-17 7.727454041572641e-17 -2.333478821402877e-17 7.727454041572641e-17 0.5561858555393875 -0.8310579366673305
12667281333.333334 0.5489151862935746 -0.8358780522636851 -2.264857883757643e-17 7.746204615772606e-17 -2.264857883757643e-17 7.746204615772606e-17 0.5489157163422337 -0.8358777041842507
12667898666.666666 0.5416032798105752 -0.8406342173015979 -2.1960878233235342e-17 7.764346360395581e-17 -2.1960878233235342e-17 7.764346360395581e-17 0.541603812849245 -0.8406338738755423
12668516000.0 0.5342501653993772 -0.8453264226147074 -2.127174037167103e-17 7.781878104380241e-17 -2.127174037167103e-17 7.781878104380241e-17 0.5342507013872125 -0.8453260838677065
12669133333.333334 0.5268564025223519 -0.849954311196223 -2.058121931408299e-17 7.798798724466745e-17 -2.058121931408299e-17 7.798798724466745e-17 0.5268569414182864 -0.8499539771535926
12669750666.666666 0.5194225537345877 -0.8545175309329127 -1.988936920793456e-17 7.815107145266327e-17 -1.988936920793456e-17 7.815107145266327e-17 0.5194230954973371 -0.8545172016196076
12670368000.0 0.5119491846411101 -0.859015734631878 -1.9196244282744166e-17 7.830802339325353e-17 -1.9196244282744166e-17 7.830802339325353e-17 0.5119497292291777 -0.8590154100724925
12670985333.333334 0.5044368638538512 -0.8634485800469724 -1.8501898845834328e-17 7.845883327186684e-17 -1.8501898845834328e-17 7.845883327186684e-17 0.504437411225529 -0.8634482602657371
