! Parameters = {f0=12700.012000; bw=77.238000; Q=6100.000000; N=10; m_0_1=1.161857; m_1_1=-1.336893; m_1_2=0.996669; m_2_2=-1.337542; m_2_3=0.633632; m_2_8=-0.004843; m_2_9=0.031861; m_3_3=-1.339479; m_3_4=0.522161; m_3_7=-0.004243; m_3_8=-0.101331; m_3_9=-0.004843; m_4_4=-1.342404; m_4_5=0.358496; m_4_6=-0.000726; m_4_7=-0.121880; m_4_8=-0.004243; m_5_5=-1.342022; m_5_6=0.765851; m_5_7=-0.000726; m_6_6=-1.342023; m_6_7=0.358838; m_7_7=-1.342390; m_7_8=0.522279; m_8_8=-1.339481; m_8_9=0.633945; m_9_9=-1.337547; m_9_10=0.997747; m_10_10=-1.336903; m_10_11=1.162652}
!
! Created with skrf (http://scikit-rf.org).
# Hz S RI R 50.0 
!freq ReS11 ImS11 ReS21 ImS21 ReS12 ImS12 ReS22 ImS22
12607400000.0 -0.9920921219967427 -0.12551183797495943 6.363946056698263e-17 -1.041154260486569e-17 6.363946056698263e-17 -1.041154260486569e-17 -0.9920920451434545 -0.12551244545035842
12608017333.333334 -0.9929849849376755 -0.11824051627161057 6.354806356457146e-17 -1.088098388553046e-17 6.354806356457146e-17 -1.088098388553046e-17 -0.9929849125402909 -0.11824112426394899
12608634666.666666 -0.9938245550459415 -0.11096284868184181 6.345320756210685e-17 -1.1349642880090655e-17 6.345320756210685e-17 -1.1349642880090655e-17 -0.9938244871079093 -0.11096345715844012
12609252000.0 -0.9946107872624207 -0.10367922579321096 6.33548991294532e-17 -1.1817494130273689e-17 6.33548991294532e-17 -1.1817494130273689e-17 -0.9946107237869504 -0.10367983472136685
12609869333.333334 -0.9953436393906168 -0.09639003851277939 6.32531450236345e-17 -1.2284512232167847e-17 6.32531450236345e-17 -1.2284512232167847e-17 -0.9953435803806774 -0.09639064785976936
12610486666.666666 -0.9960230720988913 -0.08909567804635767 6.314795218838955e-17 -1.2750671837598453e-17 6.314795218838955e-17 -1.2750671837598453e-17 -0.9960230175572127 -0.08909628777943916
12611104000.0 -0.9966490489226029 -0.08179653587728433 6.303932775371444e-17 -1.321594765551106e-17 6.303932775371444e-17 -1.321594765551106e-17 -0.9966489988516749 -0.0817971459636972
12611721333.333334 -0.9972215362660419 -0.07449300374564131 6.292727903540307e-17 -1.3680314453315262e-17 6.292727903540307e-17 -1.3680314453315262e-17 -0.9972214906681139 -0.0744936141526096
12612338666.666666 -0.9977405034042487 -0.06718547362703124 6.281181353456808e-17 -1.414374705826766e-17 6.281181353456808e-17 -1.414374705826766e-17 -0.9977404622813297 -0.06718608432176504
12612956000.0 -0.9982059224846577 -0.05987433771162546 6.269293893715777e-17 -1.4606220358824197e-17 6.269293893715777e-17 -1.4606220358824197e-17 -0.9982058858385162 -0.059874948661322605
12613573333.333334 -0.9986177685285846 -0.05255998838320041 6.257066311346273e-17 -1.5067709305990393e-17 6.257066311346273e-17 -1.5067709305990393e-17 -0.9986177363607494 -0.052560599555048305
12614190666.666666 -0.9989760194325805 -0.04524281819790868 6.244499411760834e-17 -1.5528188914685428e-17 6.244499411760834e-17 -1.5528188914685428e-17 -0.9989759917443386 -0.045243429559085946
12614808000.0 -0.999280655969609 -0.0379232198632956 6.231594018704373e-17 -1.5987634265075508e-17 6.231594018704373e-17 -1.5987634265075508e-17 -0.9992806327620084 -0.03792383138097402
12615425333.333334 -0.9995316617900785 -0.030601586217308345 6.218350974201438e-17 -1.6446020503929772e-17 6.218350974201438e-17 -1.6446020503929772e-17 -0.9995316430639264 -0.03060219785865447
12616042666.666666 -0.9997290234227256 -0.023278310207042123 6.204771138502985e-17 -1.6903322845952476e-17 6.204771138502985e-17 -1.6903322845952476e-17 -0.9997290091785876 -0.023278921939219047
12616660000.0 -0.9998727302753313 -0.015953784867764453 6.190855390031859e-17 -1.7359516575121523e-17 6.190855390031859e-17 -1.7359516575121523e-17 -0.9998727205135329 -0.015954396657933644
12617277333.333334 -0.999962774635294 -0.008628403301736145 6.176604625327586e-17 -1.7814577046013913e-17 6.176604625327586e-17 -1.7814577046013913e-17 -0.9999627693559209 -0.008629015117059179
12617894666.666666 -0.9999991516700383 -0.0013025586573694587 6.162019758990006e-17 -1.82684796851339e-17 6.162019758990006e-17 -1.82684796851339e-17 -0.9999991508729354 -0.0013031704650097674
12618512000.0 -0.9999818594272822 0.006023355892354991 6.147101723621536e-17 -1.8721199992246917e-17 6.147101723621536e-17 -1.8721199992246917e-17 -0.9999818631120537 0.006022744125230357
12619129333.333334 -0.9999108988351371 0.013348947170506486 6.131851469769632e-17 -1.9172713541674312e-17 6.131851469769632e-17 -1.9172713541674312e-17 -0.9999109070011456 0.013348335476725074
12619746666.666666 -0.9997862737020553 0.020673822017504617 6.116269965866913e-17 -1.9622995983625106e-17 6.116269965866913e-17 -1.9622995983625106e-17 -0.9997862863484247 0.02067321042988684
12620364000.0 -0.9996079907166292 0.02799758731239044 6.100358198171172e-17 -2.0072023045497046e-17 6.100358198171172e-17 -2.0072023045497046e-17 -0.9996080078422427 0.027996975863747803
12620981333.333334 -0.9993760594472358 0.03531984999355561 6.084117170704427e-17 -2.0519770533174745e-17 6.084117170704427e-17 -2.0519770533174745e-17 -0.9993760810507355 0.03531923871668894
12621598666.666666 -0.9990904923415128 0.04264021708017863 6.067547905190374e-17 -2.0966214332340155e-17 6.067547905190374e-17 -2.0966214332340155e-17 -0.9990905184213019 0.04263960600787635
12622216000.0 -0.998751304725704 0.04995829569306028 6.050651440991801e-17 -2.1411330409752286e-17 6.050651440991801e-17 -2.1411330409752286e-17 -0.9987513352799444 0.04995768485809659
12622833333.333334 -0.9983585148038231 0.05727369307593632 6.033428835046123e-17 -2.1855094814549664e-17 6.033428835046123e-17 -2.1855094814549664e-17 -0.9983585498304368 0.05727308251106947
12623450666.666666 -0.9979121436566883 0.06458601661632929 6.015881161800904e-17 -2.2297483679519993e-17 6.015881161800904e-17 -2.2297483679519993e-17 -0.9979121831533587 0.06458540635429988
12624068000.0 -0.9974122152407835 0.0718948738668186 5.998009513147576e-17 -2.2738473222390815e-17 5.998009513147576e-17 -2.2738473222390815e-17 -0.9974122592049531 0.07189426394034774
12624685333.333334 -0.9968587563869713 0.07919987256601745 5.979814998354753e-17 -2.3178039747097375e-17 5.979814998354753e-17 -2.3178039747097375e-17 -0.996858804815844 0.07919926300780505
12625302666.666666 -0.9962517967990655 0.08650062065954056 5.961298744000853e-17 -2.3616159645044264e-17 5.961298744000853e-17 -2.3616159645044264e-17 -0.9962518496896058 0.08650001150226362
12625920000.0 -0.9955913690522183 0.09379672632124372 5.942461893904594e-17 -2.4052809396386475e-17 5.942461893904594e-17 -2.4052809396386475e-17 -0.9955914264011508 0.09379611759755442
12626537333.333334 -0.9948775085911882 0.10108779797405432 5.92330560905637e-17 -2.4487965571265055e-17 5.92330560905637e-17 -2.4487965571265055e-17 -0.9948775703949996 0.10108718971657848
12627154666.666666 -0.9941102537284348 0.10837344431104402 5.903831067547242e-17 -2.4921604831070796e-17 5.903831067547242e-17 -2.4921604831070796e-17 -0.9941103199833726 0.10837283655237925
12627772000.0 -0.9932896456420434 0.1156532743166279 5.884039464497372e-17 -2.5353703929694013e-17 5.884039464497372e-17 -2.5353703929694013e-17 -0.9932897163441162 0.11565266708934173
12628389333.333334 -0.9924157283735474 0.12292689728718188 5.863932011984305e-17 -2.57842397147521e-17 5.863932011984305e-17 -2.57842397147521e-17 -0.992415803518527 0.12292629062381036
12629006666.666666 -0.9914885488255404 0.13019392285232334 5.843509938968855e-17 -2.6213189128844796e-17 5.843509938968855e-17 -2.6213189128844796e-17 -0.991488628408958 0.1301933167853688
12629624000.0 -0.9905081567591661 0.13745396099571996 5.82277449122202e-17 -2.664052921076041e-17 5.82277449122202e-17 -2.664052921076041e-17 -0.9905082407763173 0.13745335555764965
12630241333.333334 -0.9894746047914392 0.1447066220761062 5.801726931249078e-17 -2.7066237096719592e-17 5.801726931249078e-17 -2.7066237096719592e-17 -0.9894746932373825 0.14470601729935073
12630858666.666666 -0.988387948392463 0.15195151684794292 5.780368538214454e-17 -2.74902900215768e-17 5.780368538214454e-17 -2.74902900215768e-17 -0.9883880412620175 0.1519509127648938
12631476000.0 -0.9872482458823739 0.15918825648278445 5.758700607863881e-17 -2.7912665320053597e-17 5.758700607863881e-17 -2.7912665320053597e-17 -0.9872483431701237 0.1591876531257931
12632093333.333334 -0.9860555584282875 0.16641645258966997 5.73672445244811e-17 -2.833334042791704e-17 5.73672445244811e-17 -2.833334042791704e-17 -0.9860556601285803 0.16641584999104564
12632710666.666666 -0.984809950040984 0.17363571723619292 5.714441400643416e-17 -2.8752292883199464e-17 5.714441400643416e-17 -2.8752292883199464e-17 -0.9848100561479292 0.17363511542820081
12633328000.0 -0.9835114875714615 0.1808456629693484 5.691852797472067e-17 -2.916950032739397e-17 5.691852797472067e-17 -2.916950032739397e-17 -0.983511598078935 0.18084506198420844
12633945333.333334 -0.982160240707368 0.18804590283624426 5.668960004222599e-17 -2.958494050663082e-17 5.668960004222599e-17 -2.958494050663082e-17 -0.9821603556090082 0.1880453027061287
12634562666.666666 -0.9807562819692459 0.19523605040492348 5.645764398368644e-17 -2.999859127286102e-17 5.645764398368644e-17 -2.999859127286102e-17 -0.980756401258457 0.19523545116195584
12635180000.0 -0.9792996867066668 0.2024157197849932 5.622267373486472e-17 -3.0410430585039524e-17 5.622267373486472e-17 -3.0410430585039524e-17 -0.9792998103766187 0.20241512146124624
12635797333.333334 -0.977790533094145 0.20958452564852964 5.598470339172391e-17 -3.082043651028951e-17 5.598470339172391e-17 -3.082043651028951e-17 -0.9777906611377727 0.20958392827602362
12636414666.666666 -0.9762289021269905 0.21674208325053618 5.574374720959231e-17 -3.122858722506187e-17 5.574374720959231e-17 -3.122858722506187e-17 -0.9762290345369945 0.21674148686123698
12637032000.0 -0.974614877616912 0.22388800844981405 5.54998196023161e-17 -3.163486101629453e-17 5.54998196023161e-17 -3.163486101629453e-17 -0.9746150143857591 0.2238874130756319
12637649333.333334 -0.9729485461875683 0.23102191772935743 5.525293514140393e-17 -3.203923628256532e-17 5.525293514140393e-17 -3.203923628256532e-17 -0.9729486873074932 0.23102132340214487
12638266666.666666 -0.9712299972698762 0.23814342821713028 5.50031085551672e-17 -3.2441691535230275e-17 5.50031085551672e-17 -3.2441691535230275e-17 -0.9712301427328807 0.23814283496868077
12638884000.0 -0.9694593230972309 0.24525215770653214 5.475035472784809e-17 -3.28422053995633e-17 5.475035472784809e-17 -3.28422053995633e-17 -0.9694594728950837 0.2452515655685778
12639501333.333334 -0.9676366187005665 0.2523477246768551 5.449468869874344e-17 -3.3240756615881075e-17 5.449468869874344e-17 -3.3240756615881075e-17 -0.9676367728248045 0.25234713368106554
12640118666.666666 -0.9657619819032591 0.2594297483137608 5.4236125661318326e-17 -3.363732404066636e-17 5.4236125661318326e-17 -3.363732404066636e-17 -0.9657621403451884 0.2594291584917411
12640736000.0 -0.963835513315788 0.266497848530047 5.397468096229912e-17 -3.4031886647702266e-17 5.397468096229912e-17 -3.4031886647702266e-17 -0.9638356760664839 0.26649725991333645
12641353333.333334 -0.9618573163304973 0.27355164598544335 5.371037010079314e-17 -3.44244235291465e-17 5.371037010079314e-17 -3.44244235291465e-17 -0.9618574833808048 0.2735510586055133
12641970666.666666 -0.9598274971159241 0.2805907621074374 5.34432087273561e-17 -3.481491389666738e-17 5.34432087273561e-17 -3.481491389666738e-17 -0.9598276684564578 0.28059017599568964
12642588000.0 -0.9577461646111262 0.287614819111481 5.317321264308664e-17 -3.520333708251762e-17 5.317321264308664e-17 -3.520333708251762e-17 -0.9577463402322718 0.2876142342992465
12643205333.333334 -0.9556134305198516 0.2946234400212121 5.2900397798692934e-17 -3.55896725406336e-17 5.2900397798692934e-17 -3.55896725406336e-17 -0.9556136104117663 0.29462285653974885
12643822666.666666 -0.9534294093045378 0.301616248688714 5.262478029355639e-17 -3.597389984771771e-17 5.262478029355639e-17 -3.597389984771771e-17 -0.9534295934571498 0.3016156665692055
12644440000.0 -0.9511942181801578 0.30859286981472994 5.2346376374797624e-17 -3.635599870430061e-17 5.2346376374797624e-17 -3.635599870430061e-17 -0.9511944065831685 0.3085922890882837
12645057333.333334 -0.9489079771079556 0.31555292896872345 5.2065202436318947e-17 -3.673594893581852e-17 5.2065202436318947e-17 -3.673594893581852e-17 -0.9489081697508387 0.31555234966636897
12645674666.666666 -0.9465708087889922 0.3224960526090292 5.1781275017850504e-17 -3.7113730493666745e-17 5.1781275017850504e-17 -3.7113730493666745e-17 -0.9465710056609948 0.32249547476171647
12646292000.0 -0.944182838657532 0.3294218681029802 5.1494610803976116e-17 -3.748932345626365e-17 5.1494610803976116e-17 -3.748932345626365e-17 -0.9441830397476763 0.32942129174157864
12646909333.333334 -0.941744194874375 0.33633000374671945 5.120522662317309e-17 -3.7862708030078025e-17 5.120522662317309e-17 -3.7862708030078025e-17 -0.9417444001714564 0.3363294289020151
12647526666.666666 -0.9392550083199124 0.34322008878533594 5.0913139446824774e-17 -3.823386455067499e-17 5.0913139446824774e-17 -3.823386455067499e-17 -0.9392552178125038 0.3432195154880311
12648144000.0 -0.9367154125871424 0.35009175343265686 5.0618366388227223e-17 -3.8602773483753393e-17 5.0618366388227223e-17 -3.8602773483753393e-17 -0.9367156262635907 0.3500911817133672
12648761333.333334 -0.934125543974478 0.35694462889114564 5.0320924701601034e-17 -3.8969415426157805e-17 5.0320924701601034e-17 -3.8969415426157805e-17 -0.9341257618229073 0.35694405878039936
12649378666.666666 -0.931485541478475 0.36377834737159037 5.0020831781091966e-17 -3.933377110688917e-17 5.0020831781091966e-17 -3.933377110688917e-17 -0.9314857634867868 0.3637777788998264
12649996000.0 -0.9287955467862977 0.3705925421130268 4.9718105159748283e-17 -3.969582138812746e-17 4.9718105159748283e-17 -3.969582138812746e-17 -0.9287957729421715 0.37059197531059307
12650613333.333334 -0.9260557042681896 0.37738684740223816 4.941276250851128e-17 -4.005554726622119e-17 4.941276250851128e-17 -4.005554726622119e-17 -0.9260559345590841 0.3773862822993904
12651230666.666666 -0.9232661609697045 0.38416089859343555 4.9104821635192805e-17 -4.041292987267617e-17 4.9104821635192805e-17 -4.041292987267617e-17 -0.9232663953828563 0.3841603352203349
12651848000.0 -0.9204270666037384 0.39091433212801213 4.879430048343664e-17 -4.0767950475147675e-17 4.879430048343664e-17 -4.0767950475147675e-17 -0.9204273051261652 0.3909137705147241
12652465333.333334 -0.9175385735426234 0.39764678555373933 4.8481217131683226e-17 -4.112059047841227e-17 4.8481217131683226e-17 -4.112059047841227e-17 -0.9175388161611229 0.3976462257302319
12653082666.666666 -0.9146008368098859 0.4043578975443771 4.816558979212855e-17 -4.147083142533044e-17 4.816558979212855e-17 -4.147083142533044e-17 -0.9146010835110386 0.4043573395405198
12653700000.0 -0.9116140140718612 0.41104730791922384 4.7847436809657076e-17 -4.1818654997822827e-17 4.7847436809657076e-17 -4.1818654997822827e-17 -0.9116142648420286 0.41104675176478517
12654317333.333334 -0.908578265629363 0.41771465766213234 4.75267766608037e-17 -4.216404301779804e-17 4.75267766608037e-17 -4.216404301779804e-17 -0.9085785204546896 0.41771410338677856
12654934666.666666 -0.9054937544090154 0.4243595889409356 4.720362795266827e-17 -4.250697744811838e-17 4.720362795266827e-17 -4.250697744811838e-17 -0.9054940132754302 0.4243590365742297
12655552000.0 -0.9023606459544354 0.43098174512680554 4.687800942184663e-17 -4.284744039352983e-17 4.687800942184663e-17 -4.284744039352983e-17 -0.9023609088476521 0.43098119469820506
12656169333.333334 -0.8991791084174947 0.4375807708130844 4.654993993336005e-17 -4.3185414101581154e-17 4.654993993336005e-17 -4.3185414101581154e-17 -0.8991793753230112 0.4375802223519398
12656786666.666666 -0.8959493125492052 0.44415631183453785 4.621943847956066e-17 -4.352088096355081e-17 4.621943847956066e-17 -4.352088096355081e-17 -0.8959495834523065 0.4441557653700915
12657404000.0 -0.8926714316905502 0.4507080152863912 4.588652417903762e-17 -4.3853823515359945e-17 4.588652417903762e-17 -4.3853823515359945e-17 -0.8926717065763068 0.4507074708477745
12658021333.333334 -0.8893456417631963 0.4572355295432138 4.5551216275519815e-17 -4.418422443847254e-17 4.5551216275519815e-17 -4.418422443847254e-17 -0.8893459206164681 0.457234987159448
12658638666.666666 -0.8859721212600978 0.46373850427771846 4.521353413677345e-17 -4.4512066560786143e-17 4.521353413677345e-17 -4.4512066560786143e-17 -0.8859724040655331 0.46373796397771105
12659256000.0 -0.8825510512358399 0.47021659047971465 4.4873497253482324e-17 -4.4837332857525985e-17 4.4873497253482324e-17 -4.4837332857525985e-17 -0.882551337977875 0.47021605229225816
12659873333.333334 -0.8790826152969541 0.47666944047476156 4.4531125238132733e-17 -4.5160006452118874e-17 4.4531125238132733e-17 -4.5160006452118874e-17 -0.8790829059598169 0.4766689044285327
12660490666.666666 -0.8755669995921089 0.48309670794275383 4.418643782389242e-17 -4.548007061705869e-17 4.418643782389242e-17 -4.548007061705869e-17 -0.8755672941598178 0.48309617406631156
12661108000.0 -0.8720043928020257 0.48949804793668383 4.383945486347021e-17 -4.579750877477596e-17 4.383945486347021e-17 -4.579750877477596e-17 -0.8720046912583921 0.4894975162584683
12661725333.333334 -0.8683949861294603 0.49587311690095537 4.349019632798943e-17 -4.611230449848032e-17 4.349019632798943e-17 -4.611230449848032e-17 -0.8683952884580872 0.4958725874492853
12662342666.666666 -0.8647389732888431 0.5022215726899942 4.313868230583499e-17 -4.642444151301248e-17 4.313868230583499e-17 -4.642444151301248e-17 -0.8647392794731279 0.5022210454930665
12662960000.0 -0.8610365504959264 0.5085430745865388 4.278493300150968e-17 -4.6733903695674616e-17 4.278493300150968e-17 -4.6733903695674616e-17 -0.8610368605190611 0.5085425496724261
12663577333.333334 -0.8572879164572951 0.5148372833198501 4.242896873447589e-17 -4.704067507705866e-17 4.242896873447589e-17 -4.704067507705866e-17 -0.8572882303022676 0.5148367607165008
12664194666.666666 -0.8534932723596176 0.5211038610840703 4.207080993800008e-17 -4.734473984185941e-17 4.207080993800008e-17 -4.734473984185941e-17 -0.853493590009212 0.5211033408193049
12664812000.0 -0.8496528218588889 0.5273424715562752 4.171047715797765e-17 -4.764608232969017e-17 4.171047715797765e-17 -4.764608232969017e-17 -0.8496531432956871 0.5273419536577868
12665429333.333334 -0.8457667710695331 0.5335527799144799 4.1347991051764333e-17 -4.794468703587921e-17 4.1347991051764333e-17 -4.794468703587921e-17 -0.8457670962759157 0.5335522644098318
12666046666.666666 -0.8418353285533267 0.5397344528556312 4.098337238700206e-17 -4.8240538612257334e-17 4.098337238700206e-17 -4.8240538612257334e-17 -0.8418356575114724 0.5397339397722549
12666664000.0 -0.8378587053080944 0.5458871586136617 4.0616642040425144e-17 -4.853362186794802e-17 4.0616642040425144e-17 -4.853362186794802e-17 -0.8378590379999848 0.5458866479788576
12667281333.333334 -0.8338371147565753 0.5520105669770127 4.0247820996682236e-17 -4.882392177013159e-17 4.0247820996682236e-17 -4.882392177013159e-17 -0.8338374511639914 0.5520100588179456
12667898666.666666 -0.8297707727348714 0.5581043493064957 3.987693034713151e-17 -4.911142344481743e-17 3.987693034713151e-17 -4.911142344481743e-17 -0.8297711128393969 0.5581038436501955
12668516000.0 -0.825659897480772 0.5641681785530747 3.9503991288644376e-17 -4.939611217759554e-17 3.9503991288644376e-17 -4.939611217759554e-17 -0.8256602412637941 0.5641676754264345
12669133333.333334 -0.8215047096222279 0.5702017292751335 3.9129025122404315e-17 -4.9677973414379573e-17 3.9129025122404315e-17 -4.9677973414379573e-17 -0.8215050570649381 0.5702012287049074
12669750666.666666 -0.8173054321654019 0.5762046776561077 3.875205325268738e-17 -4.9956992762150553e-17 3.875205325268738e-17 -4.9956992762150553e-17 -0.8173057832487977 0.5762041796689109
