! Parameters = {f0=12700.012000; bw=77.238000; Q=6100.000000; N=10; m_0_1=1.203298; m_1_1=-0.715271; m_1_2=1.038110; m_2_2=-0.715920; m_2_3=0.675073; m_2_8=-0.002771; m_2_9=0.033933; m_3_3=-0.717857; m_3_4=0.563602; m_3_7=-0.002171; m_3_8=-0.099259; m_3_9=-0.002771; m_4_4=-0.720782; m_4_5=0.399937; m_4_6=0.001346; m_4_7=-0.119808; m_4_8=-0.002171; m_5_5=-0.720400; m_5_6=0.807292; m_5_7=0.001346; m_6_6=-0.720401; m_6_7=0.400279; m_7_7=-0.720768; m_7_8=0.563720; m_8_8=-0.717859; m_8_9=0.675386; m_9_9=-0.715925; m_9_10=1.039188; m_10_10=-0.715281; m_10_11=1.204093}
!
! Created with skrf (http://scikit-rf.org).
# Hz S RI R 50.0 
!freq ReS11 ImS11 ReS21 ImS21 ReS12 ImS12 ReS22 ImS22
12607400000.0 -0.9753972031074231 -0.2204547485767966 7.97077044475304e-17 -5.246618839044028e-18 7.97077044475304e-17 -5.246618839044028e-18 -0.975397063320149 -0.22045536706161284
12608017333.333334 -0.9772466432823345 -0.2121061012636129 7.964379820694526e-17 -5.9339071944496064e-18 7.964379820694526e-17 -5.9339071944496064e-18 -0.9772465087954 -0.21210672089078922
12608634666.666666 -0.9790246268490529 -0.20374194468227402 7.957397086370367e-17 -6.62048333251608e-18 7.957397086370367e-17 -6.62048333251608e-18 -0.9790244976717705 -0.20374256540639307
12609252000.0 -0.9807310238008748 -0.19536289042274393 7.94982299490618e-17 -7.306296286230736e-18 7.94982299490618e-17 -7.306296286230736e-18 -0.9807308999421711 -0.19536351219831327
12609869333.333334 -0.9823657093655442 -0.18696955116428204 7.941658343260004e-17 -7.99129516550369e-18 7.941658343260004e-17 -7.99129516550369e-18 -0.982365590833953 -0.18697017394573623
12610486666.666666 -0.9839285640143253 -0.17856254063086563 7.932903972145901e-17 -8.675429160913957e-18 7.932903972145901e-17 -8.675429160913957e-18 -0.9839284508179926 -0.17856316437257055
12611104000.0 -0.9854194734708388 -0.1701424735458407 7.923560765953713e-17 -9.358647547497547e-18 7.923560765953713e-17 -9.358647547497547e-18 -0.9854193656175186 -0.1701430982020964
12611721333.333334 -0.9868383287193241 -0.16170996558744705 7.913629652666495e-17 -1.004089968845806e-17 7.913629652666495e-17 -1.004089968845806e-17 -0.9868382262163792 -0.16171059111249103
12612338666.666666 -0.9881850260126519 -0.15326563334360513 7.903111603773809e-17 -1.0722135038945786e-17 7.903111603773809e-17 -1.0722135038945786e-17 -0.9881849288670532 -0.15326625969161606
12612956000.0 -0.9894594668799335 -0.1448100942666618 7.892007634182188e-17 -1.1402303149785551e-17 7.892007634182188e-17 -1.1402303149785551e-17 -0.9894593750982599 -0.14481072139176263
12613573333.333334 -0.9906615581336674 -0.13634396662857892 7.880318802122913e-17 -1.2081353671176039e-17 7.880318802122913e-17 -1.2081353671176039e-17 -0.9906614717221045 -0.13634459448484015
12614190666.666666 -0.9917912118765883 -0.127867869475529 7.868046209055505e-17 -1.2759236356442839e-17 7.868046209055505e-17 -1.2759236356442839e-17 -0.9917911308409273 -0.1278684980169721
12614808000.0 -0.9928483455080895 -0.11938242258260119 7.855190999568967e-17 -1.3435901065726437e-17 7.855190999568967e-17 -1.3435901065726437e-17 -0.9928482698537306 -0.11938305176320237
12615425333.333334 -0.9938328817302635 -0.11088824640854039 7.841754361279375e-17 -1.411129776968757e-17 7.841754361279375e-17 -1.411129776968757e-17 -0.9938328114622113 -0.11088887618223336
12616042666.666666 -0.9947447485535394 -0.1023859620504633 7.827737524724628e-17 -1.4785376553187364e-17 7.827737524724628e-17 -1.4785376553187364e-17 -0.9947446836764035 -0.1023865923711429
12616660000.0 -0.9955838793019631 -0.09387619119827381 7.813141763255554e-17 -1.5458087618979658e-17 7.813141763255554e-17 -1.5458087618979658e-17 -0.995583819819961 -0.09387682201979967
12617277333.333334 -0.9963502126180737 -0.08535955608929055 7.797968392924334e-17 -1.6129381291373222e-17 7.797968392924334e-17 -1.6129381291373222e-17 -0.9963501585350255 -0.08536018736548995
12617894666.666666 -0.9970436924673709 -0.0768366794628327 7.782218772369697e-17 -1.6799208019883336e-17 7.782218772369697e-17 -1.6799208019883336e-17 -0.9970436437867016 -0.07683731114750417
12618512000.0 -0.9976642681424325 -0.06830818451448696 7.765894302698574e-17 -1.746751838289482e-17 7.765894302698574e-17 -1.746751838289482e-17 -0.9976642248671757 -0.068308816561404
12619129333.333334 -0.9982118942666128 -0.05977469485076673 7.748996427365373e-17 -1.8134263091280924e-17 7.748996427365373e-17 -1.8134263091280924e-17 -0.9982118563994017 -0.05977532721368053
12619746666.666666 -0.9986865307973624 -0.051236834443314394 7.731526632047343e-17 -1.879939299204391e-17 7.731526632047343e-17 -1.879939299204391e-17 -0.9986864983404363 -0.0512374670759577
12620364000.0 -0.9990881430291558 -0.04269522758336179 7.713486444517338e-17 -1.9462859071921988e-17 7.713486444517338e-17 -1.9462859071921988e-17 -0.9990881159843593 -0.0426958604394522
12620981333.333334 -0.9994167015960271 -0.03415049883616706 7.694877434513587e-17 -2.0124612460984618e-17 7.694877434513587e-17 -2.0124612460984618e-17 -0.9994166799648083 -0.03415113186941033
12621598666.666666 -0.9996721824737238 -0.025603272995147374 7.675701213605814e-17 -2.0784604436235345e-17 7.675701213605814e-17 -2.0784604436235345e-17 -0.9996721662571341 -0.0256039061592408
12622216000.0 -0.9998545669814534 -0.01705417503642096 7.655959435058789e-17 -2.1442786425182437e-17 7.655959435058789e-17 -2.1442786425182437e-17 -0.9998545561801487 -0.017054808285056847
12622833333.333334 -0.9999638417832584 -0.008503830072881496 7.635653793692817e-17 -2.209911000939932e-17 7.635653793692817e-17 -2.209911000939932e-17 -0.9999638363974992 -0.008504463359750485
12623450666.666666 -0.9999999988889872 4.713669131151799e-05 7.614786025740934e-17 -2.2753526928080743e-17 7.614786025740934e-17 -2.2753526928080743e-17 -0.9999999989186373 4.650341251705674e-05
12624068000.0 -0.9999630356548783 0.008598100006504732 7.593357908703026e-17 -2.3405989081585752e-17 7.593357908703026e-17 -2.3405989081585752e-17 -0.9999630410994061 0.008597466782087306
12624685333.333334 -0.9998529547837552 0.017148434623468344 7.5713712611972e-17 -2.4056448534958534e-17 7.5713712611972e-17 -2.4056448534958534e-17 -0.9998529656422327 0.017147801499721955
12625302666.666666 -0.9996697643248282 0.025697515338745102 7.548827942808337e-17 -2.4704857521431567e-17 7.548827942808337e-17 -2.4704857521431567e-17 -0.9996697805959316 0.02569688236195185
12625920000.0 -0.9994134776731021 0.03424471704070633 7.525729853932532e-17 -2.5351168445946787e-17 7.525729853932532e-17 -2.5351168445946787e-17 -0.999413499355113 0.03424408425713308
12626537333.333334 -0.9990841135684045 0.042789414755033124 7.50207893562022e-17 -2.5995333888613414e-17 7.50207893562022e-17 -2.5995333888613414e-17 -0.9990841406592078 0.04278878221092804
12627154666.666666 -0.9986816960940115 0.051330983690471406 7.477877169415353e-17 -2.6637306608181402e-17 7.477877169415353e-17 -2.6637306608181402e-17 -0.9986817285910976 0.051330351432060654
12627772000.0 -0.9982062546748772 0.05986879928474406 7.453126577190803e-17 -2.727703954552127e-17 7.453126577190803e-17 -2.727703954552127e-17 -0.9982062925753419 0.059868167358228405
12628389333.333334 -0.9976578240755076 0.06840223724970815 7.42782922098306e-17 -2.791448582702753e-17 7.42782922098306e-17 -2.791448582702753e-17 -0.9976578673760517 0.0684016057012596
12629006666.666666 -0.9970364443973868 0.07693067361759914 7.401987202821766e-17 -2.8549598768068355e-17 7.401987202821766e-17 -2.8549598768068355e-17 -0.997036493094316 0.0769300424933575
12629624000.0 -0.9963421610760669 0.08545348478625833 7.37560266455764e-17 -2.918233187638384e-17 7.37560266455764e-17 -2.918233187638384e-17 -0.9963422151652921 0.0854528541323278
12630241333.333334 -0.9955750248778387 0.09397004756481579 7.348677787686968e-17 -2.981263885548344e-17 7.348677787686968e-17 -2.981263885548344e-17 -0.9955750843548783 0.09396941742726182
12630858666.666666 -0.9947350918960259 0.10247973921925874 7.3212147931737e-17 -3.044047360801483e-17 7.3212147931737e-17 -3.044047360801483e-17 -0.9947351567560049 0.10247910964410448
12631476000.0 -0.9938224235468579 0.11098193751819221 7.293215941267686e-17 -3.1065790239139417e-17 7.293215941267686e-17 -3.1065790239139417e-17 -0.9938224937845074 0.11098130855141514
12632093333.333334 -0.9928370865650247 0.11947602077788422 7.264683531321377e-17 -3.168854305986271e-17 7.264683531321377e-17 -3.168854305986271e-17 -0.9928371621746828 0.11947539246541285
12632710666.666666 -0.9917791529987608 0.12796136790806273 7.235619901602783e-17 -3.2308686590366324e-17 7.235619901602783e-17 -3.2308686590366324e-17 -0.9917792339743757 0.12796074029577345
12633328000.0 -0.9906487002045743 0.13643735845738678 7.206027429105157e-17 -3.292617556333336e-17 7.206027429105157e-17 -3.292617556333336e-17 -0.9906487865397002 0.13643673159110006
12633945333.333334 -0.9894458108416252 0.14490337265847478 7.175908529355778e-17 -3.354096492721584e-17 7.175908529355778e-17 -3.354096492721584e-17 -0.9894459025294252 0.14490274658395208
12634562666.666666 -0.9881705728656468 0.15335879147353298 7.145265656219632e-17 -3.415300984953373e-17 7.145265656219632e-17 -3.415300984953373e-17 -0.9881706698988936 0.15335816623647341
12635180000.0 -0.9868230795225241 0.16180299663950606 7.114101301701717e-17 -3.476226572012561e-17 7.114101301701717e-17 -3.476226572012561e-17 -0.9868231818936016 0.16180237228554326
12635797333.333334 -0.9854034293414912 0.17023537071322986 7.082417995746468e-17 -3.536868815438587e-17 7.082417995746468e-17 -3.536868815438587e-17 -0.9854035370423924 0.17023474728792823
12636414666.666666 -0.9839117261279134 0.17865529711663422 7.050218306033965e-17 -3.597223299649168e-17 7.050218306033965e-17 -3.597223299649168e-17 -0.9839118391502417 0.17865467466548565
12637032000.0 -0.9823480789556879 0.18706216018188368 7.017504837773435e-17 -3.657285632261176e-17 7.017504837773435e-17 -3.657285632261176e-17 -0.9823481972906606 0.18706153875030482
12637649333.333334 -0.9807126021592775 0.19545534519633917 6.984280233494414e-17 -3.717051444408823e-17 6.984280233494414e-17 -3.717051444408823e-17 -0.9807127257977236 0.19545472482966753
12638266666.666666 -0.9790054153253706 0.20383423844742293 6.950547172835377e-17 -3.776516391059837e-17 6.950547172835377e-17 -3.776516391059837e-17 -0.9790055442577309 0.2038336191909135
12638884000.0 -0.9772266432840984 0.21219822726765983 6.916308372328663e-17 -3.835676151331453e-17 6.916308372328663e-17 -3.835676151331453e-17 -0.9772267775004282 0.21219760916648206
12639501333.333334 -0.9753764160999182 0.22054670007941984 6.881566585183711e-17 -3.8945264288027314e-17 6.881566585183711e-17 -3.8945264288027314e-17 -0.9753765555898891 0.22054608317865473
12640118666.666666 -0.9734548690621656 0.2288790464393886 6.846324601067845e-17 -3.9530629518247713e-17 6.846324601067845e-17 -3.9530629518247713e-17 -0.9734550138150627 0.2288784307840245
12640736000.0 -0.9714621426750175 0.23719465708381168 6.810585245882455e-17 -4.011281473831975e-17 6.810585245882455e-17 -4.011281473831975e-17 -0.9714622926797425 0.23719404271874156
12641353333.333334 -0.9693983826473895 0.2454929239722962 6.774351381540178e-17 -4.0691777736456276e-17 6.774351381540178e-17 -4.0691777736456276e-17 -0.9693985378924627 0.24549231094231472
12641970666.666666 -0.9672637398821738 0.2537732403327709 6.737625905735199e-17 -4.1267476557823215e-17 6.737625905735199e-17 -4.1267476557823215e-17 -0.9672639003557305 0.25377262868257
12642588000.0 -0.9650583704652198 0.26203500070574043 6.700411751714604e-17 -4.183986950754411e-17 6.700411751714604e-17 -4.183986950754411e-17 -0.9650585361550177 0.2620343904799076
12643205333.333334 -0.9627824356539445 0.2702776009885036 6.662711888044876e-17 -4.240891515372262e-17 6.662711888044876e-17 -4.240891515372262e-17 -0.9627826065473589 0.2702769922315174
12643822666.666666 -0.9604361018655282 0.278500438479352 6.624529318376486e-17 -4.2974572330432396e-17 6.624529318376486e-17 -4.2974572330432396e-17 -0.9604362779495554 0.27849983123557925
12644440000.0 -0.9580195406647394 0.286702911921667 6.585867081207071e-17 -4.353680014066911e-17 6.585867081207071e-17 -4.353680014066911e-17 -0.9580197219259987 0.2867023062353598
12645057333.333334 -0.9555329287514172 0.2948844215478032 6.54672824964033e-17 -4.409555795930976e-17 6.54672824964033e-17 -4.409555795930976e-17 -0.9555331151761484 0.29488381746309494
12645674666.666666 -0.9529764479475279 0.30304436912299615 6.507115931143726e-17 -4.4650805436029663e-17 6.507115931143726e-17 -4.4650805436029663e-17 -0.9529766395215972 0.3030437666838994
12646292000.0 -0.9503502851838548 0.31118215798918936 6.467033267302081e-17 -4.5202502498221746e-17 6.467033267302081e-17 -4.5202502498221746e-17 -0.9503504818927515 0.31118155723959173
12646909333.333334 -0.9476546324863793 0.3192971931084702 6.426483433572074e-17 -4.5750609353846484e-17 6.426483433572074e-17 -4.5750609353846484e-17 -0.9476548343152199 0.3192965940921318
12647526666.666666 -0.9448896869621871 0.3273888811067704 6.385469639030076e-17 -4.6295086494320316e-17 6.385469639030076e-17 -4.6295086494320316e-17 -0.9448898938957139 0.32738828386731983
12648144000.0 -0.9420556507850851 0.3354566303171441 6.343995126120224e-17 -4.683589469734287e-17 6.343995126120224e-17 -4.683589469734287e-17 -0.9420558628076702 0.33545603489807646
12648761333.333334 -0.9391527311808022 0.34349985082308543 6.302063170399769e-17 -4.737299502970775e-17 6.302063170399769e-17 -4.737299502970775e-17 -0.9391529482764462 0.343499257267758
12649378666.666666 -0.9361811404118683 0.3515179545015836 6.259677080282366e-17 -4.79063488500872e-17 6.259677080282366e-17 -4.79063488500872e-17 -0.9361813625642021 0.35151736285321306
12649996000.0 -0.9331410957620674 0.3595103550661779 6.216840196776898e-17 -4.84359178118202e-17 6.216840196776898e-17 -4.84359178118202e-17 -0.9331413229543557 0.35950976536783813
12650613333.333334 -0.9300328195205303 0.36747646810991147 6.173555893226332e-17 -4.8961663865647576e-17 6.173555893226332e-17 -4.8961663865647576e-17 -0.9300330517356682 0.3674758804045284
12651230666.666666 -0.9268565389655408 0.3754157111478722 6.12982757504443e-17 -4.948354926242217e-17 6.12982757504443e-17 -4.948354926242217e-17 -0.9268567761860588 0.3754151254782222
12651848000.0 -0.9236124863478499 0.38332750365997204 6.085658679446908e-17 -5.000153655583578e-17 6.085658679446908e-17 -5.000153655583578e-17 -0.9236127285559156 0.3833269200686792
12652465333.333334 -0.9203008988737259 0.3912112671333167 6.041052675184454e-17 -5.0515588605071804e-17 6.041052675184454e-17 -5.0515588605071804e-17 -0.920301146051143 0.3912106856628484
12653082666.666666 -0.9169220186876395 0.39906642510442547 5.996013062271354e-17 -5.1025668577460365e-17 5.996013062271354e-17 -5.1025668577460365e-17 -0.9169222708158506 0.3990658457970901
12653700000.0 -0.9134760928544847 0.4068924032015682 5.95054337171131e-17 -5.153173995111593e-17 5.95054337171131e-17 -5.153173995111593e-17 -0.9134763499145709 0.4068918260995113
12654317333.333334 -0.9099633733415979 0.4146886291865522 5.904647165223103e-17 -5.2033766517527216e-17 5.904647165223103e-17 -5.2033766517527216e-17 -0.9099636353142836 0.4146880543317549
12654934666.666666 -0.9063841170002722 0.42245453299672353 5.85832803496186e-17 -5.253171238414777e-17 5.85832803496186e-17 -5.253171238414777e-17 -0.9063843838659225 0.42245396043099775
12655552000.0 -0.9027385855469444 0.4301895467866986 5.811589603239605e-17 -5.302554197694503e-17 5.811589603239605e-17 -5.302554197694503e-17 -0.9027388572855698 0.4301889765516852
12656169333.333334 -0.8990270455442193 0.4378931049695516 5.764435522243779e-17 -5.3515220042925505e-17 5.764435522243779e-17 -5.3515220042925505e-17 -0.8990273221354762 0.43789253710671716
12656786666.666666 -0.8952497683811852 0.44556464425858305 5.716869473752149e-17 -5.4000711652648834e-17 5.716869473752149e-17 -5.4000711652648834e-17 -0.895250049804376 0.44556407880921617
12657404000.0 -0.8914070302536623 0.4532036037082994 5.668895168847079e-17 -5.4481982202702515e-17 5.668895168847079e-17 -5.4481982202702515e-17 -0.8914073164877392 0.4532030407135085
12658021333.333334 -0.887499112144026 0.4608094247554066 5.620516347627531e-17 -5.495899741815294e-17 5.620516347627531e-17 -5.495899741815294e-17 -0.8874994031675912 0.4608088642561167
12658638666.666666 -0.8835262998006465 0.46838155125967756 5.571736778918624e-17 -5.5431723354976083e-17 5.571736778918624e-17 -5.5431723354976083e-17 -0.8835265955919539 0.46838099329662697
12659256000.0 -0.8794888837169024 0.4759194295447929 5.5225602599780855e-17 -5.59001264024713e-17 5.5225602599780855e-17 -5.59001264024713e-17 -0.8794891842538596 0.4759188741585306
12659873333.333334 -0.8753871591100975 0.4834225084385238 5.472990616203823e-17 -5.636417328562002e-17 5.472990616203823e-17 -5.636417328562002e-17 -0.8753874643702684 0.48342195566940727
12660490666.666666 -0.8712214258998018 0.49089023931318887 5.423031700836612e-17 -5.682383106744678e-17 5.423031700836612e-17 -5.682383106744678e-17 -0.8712217358604044 0.4908896892013785
12661108000.0 -0.8669919886858122 0.4983220761259362 5.372687394660781e-17 -5.727906715135332e-17 5.372687394660781e-17 -5.727906715135332e-17 -0.866992303323726 0.49832152871139584
12661725333.333334 -0.8626991567261277 0.505717475458256 5.321961605705923e-17 -5.772984928339955e-17 5.321961605705923e-17 -5.772984928339955e-17 -0.8626994760178907 0.5057169307807475
12662342666.666666 -0.8583432439140917 0.5130758965561311 5.2708582689435603e-17 -5.81761455545865e-17 5.2708582689435603e-17 -5.81761455545865e-17 -0.8583435678359046 0.5130753546552129
12662960000.0 -0.8539245687555683 0.520396801369358 5.2193813459829276e-17 -5.861792440310386e-17 5.2193813459829276e-17 -5.861792440310386e-17 -0.8539248972832961 0.5203962622843814
12663577333.333334 -0.8494434543456129 0.5276796545909612 5.16753482476553e-17 -5.905515461654465e-17 5.16753482476553e-17 -5.905515461654465e-17 -0.8494437874547847 0.5276791183610676
12664194666.666666 -0.8449002283449005 0.5349239236962378 5.115322719257027e-17 -5.948780533410026e-17 5.115322719257027e-17 -5.948780533410026e-17 -0.8449005660107137 0.534923390360356
12664812000.0 -0.8402952229556837 0.5421290789818424 5.06274906913831e-17 -5.99158460487199e-17 5.06274906913831e-17 -5.99158460487199e-17 -0.8402955651530059 0.5421285485786866
12665429333.333334 -0.8356287748975275 0.549294593604469 5.0098179394929225e-17 -6.033924660925858e-17 5.0098179394929225e-17 -6.033924660925858e-17 -0.8356291216008964 0.5492940661725346
12666046666.666666 -0.8309012253828163 0.5564199436191861 4.956533420495268e-17 -6.075797722257642e-17 4.956533420495268e-17 -6.075797722257642e-17 -0.8309015765664414 0.5564194191967468
12666664000.0 -0.8261129200915324 0.5635046080181471 4.90289962709427e-17 -6.117200845563244e-17 4.90289962709427e-17 -6.117200845563244e-17 -0.8261132757293004 0.5635040866432539
12667281333.333334 -0.8212642091462528 0.5705480687682873 4.848920698698174e-17 -6.15813112375293e-17 4.848920698698174e-17 -6.15813112375293e-17 -0.8212645692117269 0.5705475504787649
12667898666.666666 -0.8163554470864393 0.5775498108493704 4.79460079885513e-17 -6.198585686154901e-17 4.79460079885513e-17 -6.198585686154901e-17 -0.8163558115528602 0.5775492956828131
12668516000.0 -0.8113869928424088 0.5845093222917804 4.7399441149327987e-17 -6.23856169871549e-17 4.7399441149327987e-17 -6.23856169871549e-17 -0.8113873616826994 0.5845088102855512
12669133333.333334 -0.806359209709291 0.5914260942136823 4.684954857799002e-17 -6.278056364194573e-17 4.684954857799002e-17 -6.278056364194573e-17 -0.8063595828960567 0.5914255854049097
12669750666.666666 -0.8012724653203467 0.5982996208583935 4.6296372614955845e-17 -6.317066922362068e-17 4.6296372614955845e-17 -6.317066922362068e-17 -0.8012728428258776 0.5982991152839684
12670368000.0 -0.7961271316200524 0.6051293996314097 4.573995582914924e-17 -6.355590650188318e-17 4.573995582914924e-17 -6.355590650188318e-17 -0.796127513416326 0.6051288973279828
