! Parameters = {f0=12700.012000; bw=77.238000; Q=6100.000000; N=10; m_0_1=1.335230; m_1_1=1.263708; m_1_2=1.170042; m_2_2=1.263059; m_2_3=0.807005; m_2_8=0.003825; m_2_9=0.040529; m_3_3=1.261122; m_3_4=0.695534; m_3_7=0.004425; m_3_8=-0.092663; m_3_9=0.003825; m_4_4=1.258197; m_4_5=0.531869; m_4_6=0.007942; m_4_7=-0.113212; m_4_8=0.004425; m_5_5=1.258579; m_5_6=0.939224; m_5_7=0.007942; m_6_6=1.258578; m_6_7=0.532211; m_7_7=1.258211; m_7_8=0.695652; m_8_8=1.261120; m_8_9=0.807318; m_9_9=1.263054; m_9_10=1.171120; m_10_10=1.263698; m_10_11=1.336025}
!
! Created with skrf (http://scikit-rf.org).
# Hz S RI R 50.0 
!freq ReS11 ImS11 ReS21 ImS21 ReS12 ImS12 ReS22 ImS22
12607400000.0 0.5874882276618296 -0.8092327121159693 -4.96835462498614e-17 1.404791376254657e-16 -4.96835462498614e-17 1.404791376254657e-16 0.5874887968387429 -0.8092322989035785
12608017333.333334 0.5773669288454676 -0.8164848005170441 -4.790869371279153e-17 1.4106348310607186e-16 -4.790869371279153e-17 1.4106348310607186e-16 0.577367503095056 -0.8164843944433874
12608634666.666666 0.5671561188295606 -0.8236103064398811 -4.612700257781922e-17 1.416254178641172e-16 -4.612700257781922e-17 1.416254178641172e-16 0.5671566980623036 -0.8236099075672108
12609252000.0 0.5568573806315826 -0.8306081251925836 -4.433875565553591e-17 1.421648623224172e-16 -4.433875565553591e-17 1.421648623224172e-16 0.5568579647571966 -0.8306077335820307
12609869333.333334 0.5464723109007005 -0.8374771718791219 -4.2544236676421534e-17 1.42681740470637e-16 -4.2544236676421534e-17 1.42681740470637e-16 0.5464728998281524 -0.837476787590686
12610486666.666666 0.5360025196705478 -0.844216381567326 -4.0743730245900933e-17 1.4317597987583845e-16 -4.0743730245900933e-17 1.4317597987583845e-16 0.5360031133080676 -0.8442160046598639
12611104000.0 0.5254496301091607 -0.8508247094542748 -3.8937521799231395e-17 1.4364751169247364e-16 -3.8937521799231395e-17 1.4364751169247364e-16 0.5254502283642587 -0.850824339985495
12611721333.333334 0.514815278267861 -0.8573011310279427 -3.712589755635897e-17 1.4409627067178904e-16 -3.712589755635897e-17 1.4409627067178904e-16 0.5148158810473401 -0.8573007690543943
12612338666.666666 0.5041011128272054 -0.8636446422262909 -3.530914447659601e-17 1.445221951706809e-16 -3.530914447659601e-17 1.445221951706809e-16 0.5041017200371762 -0.8636442878033554
12612956000.0 0.4933087948414536 -0.8698542595928807 -3.348755021319973e-17 1.4492522715997932e-16 -3.348755021319973e-17 1.4492522715997932e-16 0.4933094063873493 -0.8698539127747635
12613573333.333334 0.4824399974813447 -0.8759290204291701 -3.1661403067933555e-17 1.4530531223214309e-16 -3.1661403067933555e-17 1.4530531223214309e-16 0.48244061326793575 -0.8759286812688937
12614190666.666666 0.47149640577428265 -0.8818679829440108 -2.983099194546215e-17 1.456623996084024e-16 -2.983099194546215e-17 1.456623996084024e-16 0.471497025705691 -0.8818676514934037
12614808000.0 0.4604797163434211 -0.8876702263994706 -2.799660630771894e-17 1.45996442145317e-16 -2.799660630771894e-17 1.45996442145317e-16 0.46048034032313595 -0.8876699027091624
12615425333.333334 0.44939163714440533 -0.8933348512537032 -2.6158536128154296e-17 1.4630739634077056e-16 -2.6158536128154296e-17 1.4630739634077056e-16 0.4493922650752975 -0.8933345353731146
12616042666.666666 0.4382338872007839 -0.8988609793003008 -2.431707184600389e-17 1.4659522233937323e-16 -2.431707184600389e-17 1.4659522233937323e-16 0.43823451898512106 -0.8988606712776375
12616660000.0 0.4270081963373242 -0.9042477538045363 -2.247250432042744e-17 1.4685988393730507e-16 -2.247250432042744e-17 1.4685988393730507e-16 0.4270088318767868 -0.9042474536867813
12617277333.333334 0.41571630491188355 -0.9094943396361597 -2.0625124784590758e-17 1.4710134858658312e-16 -2.0625124784590758e-17 1.4710134858658312e-16 0.4157169441075787 -0.9094940474690649
12617894666.666666 0.4043599635458002 -0.9145999233987747 -1.877522479983213e-17 1.4731958739873289e-16 -1.877522479983213e-17 1.4731958739873289e-16 0.40436060629827836 -0.9145996392268557
12618512000.0 0.39294093285202414 -0.9195637135561555 -1.6923096209586178e-17 1.4751457514791376e-16 -1.6923096209586178e-17 1.4751457514791376e-16 0.392941579061294 -0.9195634374226842
12619129333.333334 0.3814609831627333 -0.9243849405547059 -1.5069031093490742e-17 1.4768629027343984e-16 -1.5069031093490742e-17 1.4768629027343984e-16 0.3814616327282777 -0.9243846725017039
12619746666.666666 0.3699218942544316 -0.929062856942962 -1.3213321721348708e-17 1.4783471488173862e-16 -1.3213321721348708e-17 1.4783471488173862e-16 0.3699225470752229 -0.9290625970111945
12620364000.0 0.35832545507209984 -0.9335967374874333 -1.135626050708643e-17 1.4795983474773145e-16 -1.135626050708643e-17 1.4795983474773145e-16 0.35832611104661494 -0.9335964857164009
12620981333.333334 0.3466734634521387 -0.9379858792849193 -9.498139962783156e-18 1.4806163931563e-16 -9.498139962783156e-18 1.4806163931563e-16 0.3466741224783771 -0.9379856357128571
12621598666.666666 0.33496772584333134 -0.9422296018716201 -7.639252652618869e-18 1.4814012169916284e-16 -7.639252652618869e-18 1.4814012169916284e-16 0.33496838781882776 -0.9422293665354844
12622216000.0 0.3232100570268576 -0.9463272473285865 -5.7798911468824856e-18 1.4819527868122174e-16 -5.7798911468824856e-18 1.4819527868122174e-16 0.32321072184870064 -0.9463270202640562
12622833333.333334 0.31140227983494423 -0.9502781803837256 -3.920347975938092e-18 1.4822711071293314e-16 -3.920347975938092e-18 1.4822711071293314e-16 0.31140294739979046 -0.9502779616251914
12623450666.666666 0.2995462248684254 -0.9540817885102304 -2.0609155843502763e-18 1.4823562191215044e-16 -2.0609155843502763e-18 1.4823562191215044e-16 0.2995468950725171 -0.9540815780907941
12624068000.0 0.28764373021275186 -0.9577374820216129 -2.0188628483867137e-19 1.4822082006137443e-16 -2.0188628483867137e-19 1.4822082006137443e-16 0.2876444029519318 -0.957737279973079
12624685333.333334 0.275696641152942 -0.9612446941631413 1.6564477875686756e-18 1.481827166050959e-16 1.6564477875686756e-18 1.481827166050959e-16 0.27569731632267036 -0.9612445005160146
12625302666.666666 0.26370680988785555 -0.964602881199603 3.513794721336114e-18 1.4812132664656502e-16 3.513794721336114e-18 1.4812132664656502e-16 0.2637074873832259 -0.9646026959830823
12625920000.0 0.2516760952425762 -0.9678115224997345 5.369862874328163e-18 1.480366689439853e-16 5.369862874328163e-18 1.480366689439853e-16 0.25167677495833213 -0.9678113457417095
12626537333.333334 0.2396063623806978 -0.9708701206168081 7.224360919463303e-18 1.47928765906137e-16 7.224360919463303e-18 1.47928765906137e-16 0.23960704421124812 -0.9708699523438523
12627154666.666666 0.22749948251494165 -0.973778201365814 9.076997890384685e-18 1.4779764358742835e-16 9.076997890384685e-18 1.4779764358742835e-16 0.2275001663543785 -0.9737780416031855
12627772000.0 0.21535733261680787 -0.9765353138970343 1.0927483227131814e-17 1.4764333168237004e-16 1.0927483227131814e-17 1.4764333168237004e-16 0.21535801835892218 -0.9765351626686689
12628389333.333334 0.2031817951261621 -0.9791410307658016 1.2775526821562538e-17 1.4746586351949057e-16 1.2775526821562538e-17 1.4746586351949057e-16 0.20318248266446 -0.979140888094309
12629006666.666666 0.19097475765878483 -0.9815949479989053 1.4620839062854107e-17 1.4726527605467002e-16 1.4620839062854107e-17 1.4726527605467002e-16 0.19097544688650459 -0.9815948139055674
12629624000.0 0.17873811271411633 -0.9838966851571364 1.6463130882765786e-17 1.4704160986391945e-16 1.6463130882765786e-17 1.4704160986391945e-16 0.17873880352424457 -0.983896559661902
12630241333.333334 0.16647375738177245 -0.9860458853942857 1.8302113800940833e-17 1.4679490913557992e-16 1.8302113800940833e-17 1.4679490913557992e-16 0.16647444966706107 -0.9860457685157694
12630858666.666666 0.15418359304743304 -0.9880422155124698 2.0137499969922785e-17 1.4652522166197547e-16 2.0137499969922785e-17 1.4652522166197547e-16 0.15418428670041567 -0.9880421072679489
12631476000.0 0.14186952509783846 -0.9898853660138234 2.1969002220271732e-17 1.4623259883047778e-16 2.1969002220271732e-17 1.4623259883047778e-16 0.14187022001084734 -0.9898852664192346
12632093333.333334 0.12953346262581172 -0.9915750511484112 2.3796334105347948e-17 1.459170956140351e-16 2.3796334105347948e-17 1.459170956140351e-16 0.12953415869099424 -0.9915749602183496
12632710666.666666 0.11717731813406176 -0.9931110089585728 2.5619209946089457e-17 1.4557877056112597e-16 2.5619209946089457e-17 1.4557877056112597e-16 0.11717801524339724 -0.9931109267062888
12633328000.0 0.10480300723848307 -0.9944930013195549 2.7437344875642715e-17 1.4521768578515276e-16 2.7437344875642715e-17 1.4521768578515276e-16 0.10480370528379943 -0.9944929277569512
12633945333.333334 0.09241244837148124 -0.9957208139763847 2.925045488377404e-17 1.448339069532947e-16 2.925045488377404e-17 1.448339069532947e-16 0.0924131472444719 -0.995720749114016
12634562666.666666 0.0800075624844958 -0.996794256577101 3.105825686120338e-17 1.4442750327479206e-16 3.105825686120338e-17 1.4442750327479206e-16 0.08000826207673645 -0.9967942004241724
12635180000.0 0.06759027275001855 -0.9977131627022787 3.286046864377892e-17 1.4399854748867786e-16 3.286046864377892e-17 1.4399854748867786e-16 0.06759097295298408 -0.9977131152666452
12635797333.333334 0.05516250426363573 -0.9984773898908137 3.4656809056411954e-17 1.4354711585097472e-16 3.4656809056411954e-17 1.4354711585097472e-16 0.0551632049687168 -0.9984773511789763
12636414666.666666 0.04272618374546014 -0.9990868196620124 3.644699795692146e-17 1.430732881213275e-16 3.644699795692146e-17 1.430732881213275e-16 0.042726884843980385 -0.9990867896791225
12637032000.0 0.03028323924151077 -0.9995413575339681 3.8230756279657824e-17 1.4257714754909815e-16 3.8230756279657824e-17 1.4257714754909815e-16 0.030283940624743228 -0.9995413362838191
12637649333.333334 0.01783559982454481 -0.9998409330382034 4.000780607894891e-17 1.4205878085891667e-16 4.000780607894891e-17 1.4205878085891667e-16 0.017836301383729134 -0.999840920523237
12638266666.666666 0.00538519529547014 -0.9999854997305889 4.1777870572344686e-17 1.4151827823569323e-16 4.1777870572344686e-17 1.4151827823569323e-16 0.005385896921829302 -0.9999854959518926
12638884000.0 -0.007066044116321498 -0.9999750351985556 4.354067418370274e-17 1.4095573330908097e-16 4.354067418370274e-17 1.4095573330908097e-16 -0.007065342531564321 -0.9999750401558618
12639501333.333334 -0.019516188052005803 -0.9998095410645598 4.529594258598653e-17 1.4037124313742626e-16 4.529594258598653e-17 1.4037124313742626e-16 -0.019515486617610354 -0.9998095547562464
12640118666.666666 -0.03196330632236875 -0.9994890429858392 4.704340274392363e-17 1.397649081911671e-16 4.704340274392363e-17 1.397649081911671e-16 -0.031962605147060855 -0.9994890654089312
12640736000.0 -0.04440546920767575 -0.999013590650424 4.8782782956450813e-17 1.3913683233569443e-16 4.8782782956450813e-17 1.3913683233569443e-16 -0.044404768400130405 -0.9990136218005918
12641353333.333334 -0.056840747756047076 -0.9983832577694497 5.0513812898815254e-17 1.3848712281373154e-16 5.0513812898815254e-17 1.3848712281373154e-16 -0.05684004742487175 -0.9983832976410131
12641970666.666666 -0.06926721408319195 -0.9975981420657114 5.223622366463976e-17 1.378158902271173e-16 5.223622366463976e-17 1.378158902271173e-16 -0.0692665143369096 -0.9975981906516372
12642588000.0 -0.08168294167078392 -0.9966583652585338 5.3949747807551614e-17 1.3712324851813993e-16 5.3949747807551614e-17 1.3712324851813993e-16 -0.0816822426178162 -0.996658422550439
12643205333.333334 -0.09408600566547656 -0.9955640730448858 5.565411938268433e-17 1.3640931495031119e-16 5.565411938268433e-17 1.3640931495031119e-16 -0.0940853074141271 -0.9955641390330384
12643822666.666666 -0.10647448317737569 -0.994315435076775 5.73490739879103e-17 1.3567421008862934e-16 5.73490739879103e-17 1.3567421008862934e-16 -0.10647378583581331 -0.9943155097500966
12644440000.0 -0.11884645357764323 -0.9929126449350031 5.903434880479237e-17 1.3491805777934182e-16 5.903434880479237e-17 1.3491805777934182e-16 -0.11884575725388503 -0.992912728281069
12645057333.333334 -0.13119999879688035 -0.991355920099085 6.070968263923184e-17 1.3414098512921625e-16 6.070968263923184e-17 1.3414098512921625e-16 -0.13119930359877546 -0.9913560121041295
12645674666.666666 -0.14353320362198493 -0.9896455019135971 6.237481596195312e-17 1.3334312248426138e-16 6.237481596195312e-17 1.3334312248426138e-16 -0.14353250965719688 -0.9896456025625096
12646292000.0 -0.15584415599352391 -0.9877816555506953 6.402949094864107e-17 1.3252460340797512e-16 6.402949094864107e-17 1.3252460340797512e-16 -0.155843463369515 -0.9877817648270297
12646909333.333334 -0.1681309473017166 -0.9857646699690725 6.567345151976525e-17 1.31685564659112e-16 6.567345151976525e-17 1.31685564659112e-16 -0.16813025612573043 -0.9857647878550453
12647526666.666666 -0.1803916726826707 -0.9835948578691098 6.730644338017492e-17 1.3082614616892788e-16 6.730644338017492e-17 1.3082614616892788e-16 -0.18039098306171636 -0.9835949843456064
12648144000.0 -0.19262443131375492 -0.9812725556443835 6.892821405839741e-17 1.2994649101793402e-16 6.892821405839741e-17 1.2994649101793402e-16 -0.1926237433545896 -0.9812726906909577
12648761333.333334 -0.20482732670784204 -0.9787981233295889 7.053851294556755e-17 1.290467454121994e-16 7.053851294556755e-17 1.290467454121994e-16 -0.2048266405169552 -0.9787982669244694
12649378666.666666 -0.21699846700766542 -0.9761719445446737 7.213709133412426e-17 1.2812705865913406e-16 7.213709133412426e-17 1.2812705865913406e-16 -0.21699778269126174 -0.9761720966647646
12649996000.0 -0.22913596527917407 -0.9733944264353417 7.372370245615499e-17 1.2718758314281188e-16 7.372370245615499e-17 1.2718758314281188e-16 -0.2291352829431574 -0.9733945870562286
12650613333.333334 -0.24123793980395875 -0.9704659996099544 7.52981015214284e-17 1.2622847429881663e-16 7.52981015214284e-17 1.2622847429881663e-16 -0.2412372595539157 -0.9704661687059076
12651230666.666666 -0.2533025143707617 -0.9673871180728303 7.686004575509429e-17 1.2524989058862275e-16 7.686004575509429e-17 1.2524989058862275e-16 -0.2533018363119451 -0.9673872956168086
12651848000.0 -0.2653278185669585 -0.9641582591537062 7.840929443508734e-17 1.2425199347348787e-16 7.840929443508734e-17 1.2425199347348787e-16 -0.2653271428042711 -0.9641584451173615
12652465333.333334 -0.2773119880677628 -0.9607799234339317 7.994560892912248e-17 1.2323494738792843e-16 7.994560892912248e-17 1.2323494738792843e-16 -0.2773113147057415 -0.9607801177876133
12653082666.666666 -0.2892531649258653 -0.957252634668704 8.146875273141196e-17 1.2219891971269902e-16 8.146875273141196e-17 1.2219891971269902e-16 -0.28925249406866455 -0.9572528373814639
12653700000.0 -0.30114949785925743 -0.9535769397059289 8.297849149903238e-17 1.2114408074731788e-16 8.297849149903238e-17 1.2114408074731788e-16 -0.3011488296106326 -0.9535771507455246
12654317333.333334 -0.312999142538077 -0.9497534084014831 8.447459308787603e-17 1.2007060368218652e-16 8.447459308787603e-17 1.2007060368218652e-16 -0.31299847700137 -0.9497536277343873
12654934666.666666 -0.3248002618708714 -0.945782633530781 8.595682758830461e-17 1.189786645702241e-16 8.595682758830461e-17 1.189786645702241e-16 -0.3247995991489929 -0.9457828611221816
12655552000.0 -0.33655102628918704 -0.9416652306969298 8.742496736043717e-17 1.1786844229806158e-16 8.742496736043717e-17 1.1786844229806158e-16 -0.3365503664846016 -0.9416654665107386
12656169333.333334 -0.34824961403132343 -0.9374018382352582 8.887878706900716e-17 1.1674011855684694e-16 8.887878706900716e-17 1.1674011855684694e-16 -0.34824895724603333 -0.9374020822341164
12656786666.666666 -0.35989421142455286 -0.9329931171144334 9.031806371791074e-17 1.1559387781257076e-16 9.031806371791074e-17 1.1559387781257076e-16 -0.3598935577600822 -0.932993369259716
12657404000.0 -0.3714830131666208 -0.9284397508338675 9.174257668433411e-17 1.144299072759979e-16 9.174257668433411e-17 1.144299072759979e-16 -0.37148236272400065 -0.9284400110856924
12658021333.333334 -0.3830142226054686 -0.9237424453178139 9.315210775254013e-17 1.1324839687214288e-16 9.315210775254013e-17 1.1324839687214288e-16 -0.3830135754852198 -0.9237427136350436
12658638666.666666 -0.394486052017563 -0.9189019288060091 9.45464411471596e-17 1.1204953920941452e-16 9.45464411471596e-17 1.1204953920941452e-16 -0.3944854083196819 -0.9189022051462608
12659256000.0 -0.40589672288563095 -0.9139189517405315 9.592536356624745e-17 1.1083352954821909e-16 9.592536356624745e-17 1.1083352954821909e-16 -0.4058960827095739 -0.9139192360601834
12659873333.333334 -0.41724446617370947 -0.9087942866497474 9.728866421377656e-17 1.0960056576929111e-16 9.728866421377656e-17 1.0960056576929111e-16 -0.41724382961837675 -0.9087945789039442
12660490666.666666 -0.42852752260171967 -0.9035287280284111 9.863613483182202e-17 1.0835084834154614e-16 9.863613483182202e-17 1.0835084834154614e-16 -0.42852688976544123 -0.9035290281710731
12661108000.0 -0.43974414291852326 -0.8981230922143468 9.996756973232493e-17 1.0708458028954164e-16 9.996756973232493e-17 1.0708458028954164e-16 -0.43974351389904215 -0.8981234001981742
12661725333.333334 -0.4508925881724428 -0.892578217262197 1.0128276582838615e-16 1.0580196716060092e-16 1.0128276582838615e-16 1.0580196716060092e-16 -0.4508919630669016 -0.8925785330386804
12662342666.666666 -0.4619711299814267 -0.8868949628132358 1.0258152266519982e-16 1.0450321699149689e-16 1.0258152266519982e-16 1.0450321699149689e-16 -0.46197050888635083 -0.886895286332661
12662960000.0 -0.4729780508007962 -0.8810742099621846 1.0386364245052464e-16 1.0318854027479123e-16 1.0386364245052464e-16 1.0318854027479123e-16 -0.4729774338120807 -0.8810745411736431
12663577333.333334 -0.4839116441893741 -0.8751168611206979 1.0512893008476048e-16 1.0185814992476612e-16 1.0512893008476048e-16 1.0185814992476612e-16 -0.4839110314022685 -0.8751171999720949
12664194666.666666 -0.49477021507434404 -0.8690238398773039 1.0637719319053084e-16 1.005122612430469e-16 1.0637719319053084e-16 1.005122612430469e-16 -0.4947696065834361 -0.8690241863153628
12664812000.0 -0.5055520800138383 -0.8627960908543153 1.0760824214187976e-16 9.915109188381087e-17 1.0760824214187976e-16 9.915109188381087e-17 -0.5055514759130414 -0.8627964448245901
12665429333.333334 -0.5162555674580291 -0.856434579561331 1.0882189009302883e-16 9.77748618186321e-17 1.0882189009302883e-16 9.77748618186321e-17 -0.5162549678405669 -0.8564349410082134
12666046666.666666 -0.52687901800808 -0.8499402922456657 1.1001795300660193e-16 9.63837933010681e-17 1.1001795300660193e-16 9.63837933010681e-17 -0.5268784229664712 -0.8499406611123925
12666664000.0 -0.5374207846736992 -0.8433142357392719 1.1119624968153756e-16 9.497811083074762e-17 1.1119624968153756e-16 9.497811083074762e-17 -0.5374201942997447 -0.8433146119679362
12667281333.333334 -0.5478792331283318 -0.8365574373027347 1.123566017804059e-16 9.355804111727439e-17 1.123566017804059e-16 9.355804111727439e-17 -0.5478786475131 -0.836557820834294
12667898666.666666 -0.558252741962345 -0.8296709444661354 1.1349883385634723e-16 9.212381304370412e-17 1.1349883385634723e-16 9.212381304370412e-17 -0.5582521611961585 -0.8296713352404217
12668516000.0 -0.5685397029349263 -0.8226558248663123 1.146227733795402e-16 9.067565762969991e-17 1.146227733795402e-16 9.067565762969991e-17 -0.5685391271073458 -0.8226562228220387
12669133333.333334 -0.5787385212227464 -0.8155131660817715 1.157282507631531e-16 8.921380799442378e-17 1.157282507631531e-16 8.921380799442378e-17 -0.5787379504225592 -0.8155135711565453
12669750666.666666 -0.5888476156677351 -0.8082440754637369 1.1681509938887553e-16 8.773849931904868e-17 1.1681509938887553e-16 8.773849931904868e-17 -0.5888470499829396 -0.8082444875940666
12670368000.0 -0.5988654190220186 -0.8008496799645922 1.1788315563194728e-16 8.624996880899302e-17 1.1788315563194728e-16 8.624996880899302e-17 -0.5988648585398127 -0.8008500990859004
