! Parameters = {f0=12700.012000; bw=77.238000; Q=6100.000000; N=10; m_0_1=1.254950; m_1_1=0.059504; m_1_2=1.089762; m_2_2=0.058855; m_2_3=0.726725; m_2_8=-0.000189; m_2_9=0.036515; m_3_3=0.056918; m_3_4=0.615254; m_3_7=0.000411; m_3_8=-0.096677; m_3_9=-0.000189; m_4_4=0.053993; m_4_5=0.451589; m_4_6=0.003928; m_4_7=-0.117226; m_4_8=0.000411; m_5_5=0.054375; m_5_6=0.858944; m_5_7=0.003928; m_6_6=0.054374; m_6_7=0.451931; m_7_7=0.054007; m_7_8=0.615372; m_8_8=0.056916; m_8_9=0.727038; m_9_9=0.058850; m_9_10=1.090840; m_10_10=0.059494; m_10_11=1.255745}
!
! Created with skrf (http://scikit-rf.org).
# Hz S RI R 50.0 
!freq ReS11 ImS11 ReS21 ImS21 ReS12 ImS12 ReS22 ImS22
12607400000.0 -0.9074844768710439 -0.4200856153665766 1.0188238561268044e-16 1.4932573059657676e-17 1.0188238561268044e-16 1.4932573059657676e-17 -0.9074841991062654 -0.4200862154038001
12608017333.333334 -0.9116719551058028 -0.4109187830622882 1.0200895174043969e-16 1.3893288555686292e-17 1.0200895174043969e-16 1.3893288555686292e-17 -0.9116716834155225 -0.4109193858387984
12608634666.666666 -0.9157668386586166 -0.4017102154700945 1.0212492366238092e-16 1.2852974919246119e-17 1.0212492366238092e-16 1.2852974919246119e-17 -0.9157665730698342 -0.40171082092440524
12609252000.0 -0.9197687116294815 -0.39246084786545465 1.0223029354192245e-16 1.1811740070400729e-17 1.0223029354192245e-16 1.1811740070400729e-17 -0.9197684521685715 -0.3924614559358127
12609869333.333334 -0.9236771675650814 -0.3831716196677103 1.0232505464107489e-16 1.0769691982143163e-17 1.0232505464107489e-16 1.0769691982143163e-17 -0.9236769142577955 -0.38317223029210373
12610486666.666666 -0.9274918095000679 -0.3738434743447014 1.0240920132070669e-16 9.726938669226119e-18 1.0240920132070669e-16 9.726938669226119e-18 -0.9274915623715297 -0.37384408746086456
12611104000.0 -0.9312122499974285 -0.3644773593168103 1.0248272904070034e-16 8.683588176945584e-18 1.0248272904070034e-16 8.683588176945584e-18 -0.9312120090721313 -0.36447797486223066
12611721333.333334 -0.934838111187719 -0.3550742258610251 1.0254563435998541e-16 7.639748570024712e-18 1.0254563435998541e-16 7.639748570024712e-18 -0.9348378764895243 -0.3550748437729495
12612338666.666666 -0.9383690248075817 -0.3456350290139804 1.0259791493646783e-16 6.5955279214039794e-18 1.0259791493646783e-16 6.5955279214039794e-18 -0.9383687963597168 -0.34563564922942186
12612956000.0 -0.9418046322370833 -0.33616072747511627 1.0263956952684075e-16 5.55103430106389e-18 1.0263956952684075e-16 5.55103430106389e-18 -0.9418044100621371 -0.33616134993085944
12613573333.333334 -0.9451445845360802 -0.32665228350946696 1.0267059798628107e-16 4.5063757649049776e-18 1.0267059798628107e-16 4.5063757649049776e-18 -0.9451443686560022 -0.3266529081420752
12614190666.666666 -0.9483885424797825 -0.31711066284958006 1.026910012680361e-16 3.461660343551886e-18 1.026910012680361e-16 3.461660343551886e-18 -0.9483883329158835 -0.31711128959540275
12614808000.0 -0.9515361765931114 -0.30753683459772824 1.0270078142289488e-16 2.4169960312082125e-18 1.0270078142289488e-16 2.4169960312082125e-18 -0.9515359733660548 -0.30753746339290516
12615425333.333334 -0.9545871671841893 -0.2979317711273709 1.0269994159854602e-16 1.3724907745282263e-18 1.0269994159854602e-16 1.3724907745282263e-18 -0.9545869703139954 -0.29793240190784065
12616042666.666666 -0.9575412043768425 -0.28829644798431514 1.0268848603882364e-16 3.282524614745229e-19 1.0268848603882364e-16 3.282524614745229e-19 -0.9575410138828837 -0.28829708068582094
12616660000.0 -0.9603979881420206 -0.2786318437877958 1.0266642008283963e-16 -7.156110898139113e-19 1.0266642008283963e-16 -7.156110898139113e-19 -0.9603978040430192 -0.27863247834589194
12617277333.333334 -0.9631572283283096 -0.268938940130945 1.0263375016400342e-16 -1.7589921421187083e-18 1.0263375016400342e-16 -1.7589921421187083e-18 -0.9631570506423374 -0.26893957648100353
12617894666.666666 -0.965818644691349 -0.2592187214812877 1.0259048380892948e-16 -2.801783050235204e-18 1.0259048380892948e-16 -2.801783050235204e-18 -0.9658184734358242 -0.25921935955850506
12618512000.0 -0.9683819669224079 -0.2494721750803425 1.0253662963623044e-16 -3.8438762720983055e-18 1.0253662963623044e-16 -3.8438762720983055e-18 -0.968381802114094 -0.24947281481974595
12619129333.333334 -0.9708469346756864 -0.23970029084389902 1.0247219735520124e-16 -4.885164379794243e-18 1.0247219735520124e-16 -4.885164379794243e-18 -0.9708467763306924 -0.23970093218035393
12619746666.666666 -0.9732132975948644 -0.22990406126112253 1.0239719776438831e-16 -5.9255400706524306e-18 1.0239719776438831e-16 -5.9255400706524306e-18 -0.9732131457286373 -0.22990470412933744
12620364000.0 -0.9754808153385316 -0.2200844812936635 1.0231164275004612e-16 -6.964896178290807e-18 1.0231164275004612e-16 -6.964896178290807e-18 -0.9754806699658627 -0.2200851256281987
12620981333.333334 -0.977649257604512 -0.21024254827502145 1.0221554528448724e-16 -8.003125683590532e-18 1.0221554528448724e-16 -8.003125683590532e-18 -0.977649118739529 -0.21024319401029407
12621598666.666666 -0.9797184041533328 -0.20037926180888885 1.0210891942431387e-16 -9.040121725732505e-18 1.0210891942431387e-16 -9.040121725732505e-18 -0.979718271809503 -0.20037990887918058
12622216000.0 -0.9816880448305811 -0.1904956236676809 1.0199178030854238e-16 -1.0075777613169698e-17 1.0199178030854238e-16 -1.0075777613169698e-17 -0.9816879190207078 -0.19049627200714425
12622833333.333334 -0.9835579795882254 -0.18059263769090145 1.0186414415661613e-16 -1.110998683457181e-17 1.0186414415661613e-16 -1.110998683457181e-17 -0.9835578603244458 -0.18059328723356616
12623450666.666666 -0.9853280185049309 -0.1706713096831863 1.01726028266308e-16 -1.2142643069755838e-17 1.01726028266308e-16 -1.2142643069755838e-17 -0.9853279057987192 -0.17067196036296697
12624068000.0 -0.9869979818053749 -0.16073264731206624 1.0157745101150912e-16 -1.3173640200618695e-17 1.0157745101150912e-16 -1.3173640200618695e-17 -0.9869978756675348 -0.16073329906276784
12624685333.333334 -0.988567699878516 -0.15077766000547993 1.0141843183991016e-16 -1.420287232200684e-17 1.0141843183991016e-16 -1.420287232200684e-17 -0.9885676003191853 -0.15077831276080544
12625302666.666666 -0.9900370132947514 -0.14080735884972861 1.0124899127057623e-16 -1.523023375255427e-17 1.0124899127057623e-16 -1.523023375255427e-17 -0.990036920323398 -0.14080801254328545
12625920000.0 -0.9914057728222071 -0.13082275648613828 1.0106915089139956e-16 -1.6255619045564905e-17 1.0106915089139956e-16 -1.6255619045564905e-17 -0.9914056864476282 -0.13082341105144496
12626537333.333334 -0.9926738394418048 -0.12082486700879994 1.0087893335646035e-16 -1.7278922999757266e-17 1.0087893335646035e-16 -1.7278922999757266e-17 -0.9926737596721283 -0.12082552237929306
12627154666.666666 -0.9938410843614305 -0.11081470586129194 1.0067836238326554e-16 -1.8300040670063015e-17 1.0067836238326554e-16 -1.8300040670063015e-17 -0.9938410112041122 -0.11081536197033284
12627772000.0 -0.9949073890290197 -0.1007932897334319 1.0046746274987706e-16 -1.9318867378394465e-17 1.0046746274987706e-16 -1.9318867378394465e-17 -0.9949073224908428 -0.10079394651431342
12628389333.333334 -0.9958726451445686 -0.09076163645829838 1.0024626029194921e-16 -2.033529872429481e-17 1.0024626029194921e-16 -2.033529872429481e-17 -0.9958725852316438 -0.09076229384425158
12629006666.666666 -0.9967367546711616 -0.08072076490859946 1.0001478189963266e-16 -2.1349230595680984e-17 1.0001478189963266e-16 -2.1349230595680984e-17 -0.9967367013889255 -0.08072142283280051
12629624000.0 -0.9974996298449038 -0.0706716948934164 9.97730555143946e-17 -2.2360559179435674e-17 9.97730555143946e-17 -2.2360559179435674e-17 -0.9974995831981202 -0.07067235328899343
12630241333.333334 -0.9981611931838597 -0.06061544705437127 9.952111012571489e-17 -2.3369180972044066e-17 9.952111012571489e-17 -2.3369180972044066e-17 -0.9981611531766172 -0.06061610585441096
12630858666.666666 -0.9987213774958963 -0.05055304276230459 9.925897576768679e-17 -2.4374992790143343e-17 9.925897576768679e-17 -2.4374992790143343e-17 -0.998721344131609 -0.05055370189985914
12631476000.0 -0.9991801258855341 -0.04048550401311368 9.898668351549506e-17 -2.5377891781099945e-17 9.898668351549506e-17 -2.5377891781099945e-17 -0.9991800991669416 -0.04048616342120755
12632093333.333334 -0.9995373917597041 -0.030413853324378473 9.870426548181175e-17 -2.6377775433452613e-17 9.870426548181175e-17 -2.6377775433452613e-17 -0.9995373716888697 -0.030414512936015173
12632710666.666666 -0.9997931388324904 -0.02033911363122481 9.841175481306719e-17 -2.7374541587395218e-17 9.841175481306719e-17 -2.7374541587395218e-17 -0.999793125410804 -0.020339773379393772
12633328000.0 -0.9999473411288203 -0.010262308182457693 9.810918568561451e-17 -2.8368088445215884e-17 9.810918568561451e-17 -2.8368088445215884e-17 -0.9999473343569932 -0.01026296800014097
12633945333.333334 -0.9999999829870876 -0.00018446043680450154 9.779659330180914e-17 -2.935831458162775e-17 9.779659330180914e-17 -2.935831458162775e-17 -0.9999999828651592 -0.00018512025698369408
12634562666.666666 -0.9999510590607575 0.009893406041260547 9.747401388596036e-17 -3.0345118954138134e-17 9.747401388596036e-17 -3.0345118954138134e-17 -0.9999510655880904 0.009892746285597573
12635180000.0 -0.9998005743189025 0.019970267685276707 9.714148468019601e-17 -3.1328400913315596e-17 9.714148468019601e-17 -3.1328400913315596e-17 -0.9998005874941829 0.019969608061128963
12635797333.333334 -0.999548544045697 0.030045101030869627 9.679904394021362e-17 -3.2308060213045655e-17 9.679904394021362e-17 -3.2308060213045655e-17 -0.9995485638669386 0.030044441605216254
12636414666.666666 -0.9991949938388708 0.040116882819672 9.644673093093353e-17 -3.3283997020727357e-17 9.644673093093353e-17 -3.3283997020727357e-17 -0.9991950203034105 0.040116223659465405
12637032000.0 -0.9987399596071024 0.050184590103251485 9.608458592204689e-17 -3.425611192742523e-17 9.608458592204689e-17 -3.425611192742523e-17 -0.9987399927116035 0.050183931275410605
12637649333.333334 -0.9981834875663786 0.06024720034697901 9.571265018346444e-17 -3.522430595797141e-17 9.571265018346444e-17 -3.522430595797141e-17 -0.9981835273068305 0.06024654191838247
12638266666.666666 -0.997525634235292 0.07030369153399675 9.53309659806577e-17 -3.618848058103235e-17 9.53309659806577e-17 -3.618848058103235e-17 -0.9975256806070091 0.07030303357147605
12638884000.0 -0.9967664664293081 0.08035304226884969 9.493957656990926e-17 -3.71485377190985e-17 9.493957656990926e-17 -3.71485377190985e-17 -0.9967665194269342 0.08035238483918257
12639501333.333334 -0.9959060612539752 0.09039423188136658 9.453852619345296e-17 -3.810437975845055e-17 9.453852619345296e-17 -3.810437975845055e-17 -0.9959061208714801 0.09039357505127005
12640118666.666666 -0.9949445060971082 0.10042624053009823 9.41278600745212e-17 -3.905590955905496e-17 9.41278600745212e-17 -3.905590955905496e-17 -0.9949445723277912 0.10042558436622198
12640736000.0 -0.9938818986198633 0.11044804930646478 9.370762441227776e-17 -4.0003030464441044e-17 9.370762441227776e-17 -4.0003030464441044e-17 -0.9938819714563517 0.11044739387538428
12641353333.333334 -0.9927183467468981 0.12045864033739306 9.327786637668825e-17 -4.094564631144232e-17 9.327786637668825e-17 -4.094564631144232e-17 -0.9927184261811488 0.1204579857056028
12641970666.666666 -0.9914539686553451 0.13045699688937662 9.283863410323939e-17 -4.188366144000216e-17 9.283863410323939e-17 -4.188366144000216e-17 -0.9914540546786463 0.13045634312328347
12642588000.0 -0.9900888927628252 0.14044210347154257 9.238997668760779e-17 -4.281698070281785e-17 9.238997668760779e-17 -4.281698070281785e-17 -0.9900889853657975 0.14044145063745905
12643205333.333334 -0.9886232577144259 0.15041294593865026 9.193194418020802e-17 -4.374550947498078e-17 9.193194418020802e-17 -4.374550947498078e-17 -0.9886233568870225 0.15041229410278786
12643822666.666666 -0.9870572123685942 0.16036851159429122 9.146458758063996e-17 -4.466915366356653e-17 9.146458758063996e-17 -4.466915366356653e-17 -0.9870573181001004 0.16036786082275328
12644440000.0 -0.9853909157820189 0.17030778929368676 9.098795883206309e-17 -4.558781971711942e-17 9.098795883206309e-17 -4.558781971711942e-17 -0.9853910280610559 0.17030713965246225
12645057333.333334 -0.9836245371935044 0.1802297695462467 9.050211081545667e-17 -4.650141463511657e-17 9.050211081545667e-17 -4.650141463511657e-17 -0.9836246560080302 0.1802291211012034
12645674666.666666 -0.9817582560067694 0.19013344461818327 9.000709734378645e-17 -4.740984597736865e-17 9.000709734378645e-17 -4.740984597736865e-17 -0.981758381344079 0.19013279743506098
12646292000.0 -0.9797922617721705 0.20001780863514124 8.950297315607915e-17 -4.831302187335348e-17 8.950297315607915e-17 -4.831302187335348e-17 -0.9797923936188979 0.20001716277954523
12646909333.333334 -0.9777267541675504 0.2098818576838298 8.898979391141984e-17 -4.921085103145974e-17 8.898979391141984e-17 -4.921085103145974e-17 -0.9777268925096698 0.20988121322122413
12647526666.666666 -0.9755619429778926 0.21972458991434943 8.84676161828243e-17 -5.01032427482255e-17 8.84676161828243e-17 -5.01032427482255e-17 -0.9755620878007191 0.21972394691005015
12648144000.0 -0.9732980480739922 0.2295450056419992 8.793649745104687e-17 -5.099010691746138e-17 8.793649745104687e-17 -5.099010691746138e-17 -0.9732981993621858 0.22954436416116827
12648761333.333334 -0.9709352993901926 0.23934210744853443 8.739649609828954e-17 -5.1871354039324205e-17 8.739649609828954e-17 -5.1871354039324205e-17 -0.970935457127757 0.23934146755617236
12649378666.666666 -0.9684739369010038 0.24911490028358022 8.684767140181369e-17 -5.2746895229334116e-17 8.684767140181369e-17 -5.2746895229334116e-17 -0.9684741010712896 0.24911426204451997
12649996000.0 -0.9659142105967143 0.25886239156577895 8.629008352746834e-17 -5.3616642227314824e-17 8.629008352746834e-17 -5.3616642227314824e-17 -0.9659143811824199 0.2588617550446792
12650613333.333334 -0.963256380457985 0.2685835912836278 8.572379352312695e-17 -5.448050740626802e-17 8.572379352312695e-17 -5.448050740626802e-17 -0.9632565574411593 0.26858295654496633
12651230666.666666 -0.9605007164295215 0.27827751209575624 8.514886331203825e-17 -5.5338403781177084e-17 8.514886331203825e-17 -5.5338403781177084e-17 -0.9605008997915664 0.278276879203824
12651848000.0 -0.9576474983925634 0.28794316943156434 8.456535568608029e-17 -5.619024501775259e-17 8.456535568608029e-17 -5.619024501775259e-17 -0.9576476881142332 0.2879425384504578
12652465333.333334 -0.9546970161364928 0.2975795815910534 8.397333429894383e-17 -5.70359454410831e-17 8.397333429894383e-17 -5.70359454410831e-17 -0.9546972121978985 0.2975789525846691
12653082666.666666 -0.9516495693294608 0.30718576984437285 8.33728636592151e-17 -5.787542004423668e-17 8.33728636592151e-17 -5.787542004423668e-17 -0.9516497717100727 0.30718514287640086
12653700000.0 -0.9485054674878413 0.31676075853157865 8.2764009123371e-17 -5.870858449679166e-17 8.2764009123371e-17 -5.870858449679166e-17 -0.9485056761664876 0.31676013366549505
12654317333.333334 -0.9452650299448827 0.32630357516142694 8.214683688871423e-17 -5.953535515325921e-17 8.214683688871423e-17 -5.953535515325921e-17 -0.9452652448997563 0.32630295246048885
12654934666.666666 -0.9419285858182479 0.335813250510256 8.152141398618452e-17 -6.035564906148817e-17 8.152141398618452e-17 -6.035564906148817e-17 -0.9419288070269057 0.33581263003749434
12655552000.0 -0.9384964739765452 0.34528881872053324 8.088780827311775e-17 -6.116938397095006e-17 8.088780827311775e-17 -6.116938397095006e-17 -0.9384967014159099 0.3452882005387459
12656169333.333334 -0.9349690430050138 0.35472931739865704 8.024608842592408e-17 -6.197647834094957e-17 8.024608842592408e-17 -6.197647834094957e-17 -0.9349692766513796 0.3547287015704041
12656786666.666666 -0.9313466511699899 0.36413378771307975 7.959632393265039e-17 -6.27768513488014e-17 7.959632393265039e-17 -6.27768513488014e-17 -0.9313468909990211 0.3641331743006751
12657404000.0 -0.9276296663826209 0.3735012744913963 7.893858508550345e-17 -6.35704228978747e-17 7.893858508550345e-17 -6.35704228978747e-17 -0.9276299123693573 0.3735006635569032
12658021333.333334 -0.9238184661614512 0.38283082631749155 7.827294297326585e-17 -6.435711362559638e-17 7.827294297326585e-17 -6.435711362559638e-17 -0.92381871828031 0.3828302179227154
12658638666.666666 -0.9199134375941016 0.3921214956281187 7.759946947364435e-17 -6.513684491135967e-17 7.759946947364435e-17 -6.513684491135967e-17 -0.919913695818879 0.39212088983460075
12659256000.0 -0.9159149772979078 0.40137233880924367 7.691823724553034e-17 -6.590953888436313e-17 7.691823724553034e-17 -6.590953888436313e-17 -0.9159152416017833 0.40137173567825524
12659873333.333334 -0.9118234913797052 0.410582416291727 7.622931972119073e-17 -6.667511843136143e-17 7.622931972119073e-17 -6.667511843136143e-17 -0.9118237617352432 0.4105818158842631
12660490666.666666 -0.9076393953945504 0.41975079264683135 7.5532791098393e-17 -6.743350720432136e-17 7.5532791098393e-17 -6.743350720432136e-17 -0.9076396717737025 0.41975019502360406
12661108000.0 -0.9033631143034652 0.42887653668133086 7.482872633241409e-17 -6.818462962804111e-17 7.482872633241409e-17 -6.818462962804111e-17 -0.9033633966775748 0.42887594190276374
12661725333.333334 -0.8989950824304073 0.437958721531806 7.411720112803234e-17 -6.892841090762257e-17 7.411720112803234e-17 -6.892841090762257e-17 -0.8989953707702117 0.4379581296580278
12662342666.666666 -0.8945357434179898 0.4469964247591405 7.339829193138441e-17 -6.966477703592609e-17 7.339829193138441e-17 -6.966477703592609e-17 -0.894536037693623 0.44699583584997904
12662960000.0 -0.8899855501825538 0.45598872844192745 7.2672075921802e-17 -7.03936548008838e-17 7.2672075921802e-17 -7.03936548008838e-17 -0.8899858503635507 0.4559881425569042
12663577333.333334 -0.8853449648681103 0.464934719269828 7.193863100353447e-17 -7.111497179277204e-17 7.193863100353447e-17 -7.111497179277204e-17 -0.8853452709234084 0.46493413646815085
12664194666.666666 -0.8806144587994238 0.47383348863627966 7.119803579743155e-17 -7.182865641136481e-17 7.119803579743155e-17 -7.182865641136481e-17 -0.8806147706973668 0.4738329089768378
12664812000.0 -0.87579451243409 0.4826841327308814 7.045036963253557e-17 -7.253463787302161e-17 7.045036963253557e-17 -7.253463787302161e-17 -0.8757948301424328 0.48268355627223963
12665429333.333334 -0.8708856153138049 0.49148575263106414 6.969571253760113e-17 -7.323284621768968e-17 6.969571253760113e-17 -7.323284621768968e-17 -0.870885938799714 0.4914851794314559
12666046666.666666 -0.8658882660146736 0.5002374543933419 6.893414523257748e-17 -7.392321231578907e-17 6.893414523257748e-17 -7.392321231578907e-17 -0.8658885952447315 0.5002368845106636
12666664000.0 -0.8608029720963732 0.5089383491444506 6.816574911996976e-17 -7.460566787505784e-17 6.816574911996976e-17 -7.460566787505784e-17 -0.8608033070365837 0.5089377826362573
12667281333.333334 -0.8556302500508883 0.5175875531711361 6.739060627618696e-17 -7.528014544726032e-17 6.739060627618696e-17 -7.528014544726032e-17 -0.8556305906666776 0.5175869900946335
12667898666.666666 -0.8503706252498648 0.5261841880102277 6.660879944279051e-17 -7.594657843483341e-17 6.660879944279051e-17 -7.594657843483341e-17 -0.8503709715060868 0.5261836284222682
12668516000.0 -0.8450246318912072 0.5347273805379321 6.582041201768051e-17 -7.660490109744124e-17 6.582041201768051e-17 -7.660490109744124e-17 -0.8450249837521461 0.5347268244950076
12669133333.333334 -0.8395928129450424 0.5432162630581494 6.502552804623702e-17 -7.725504855842169e-17 6.502552804623702e-17 -7.725504855842169e-17 -0.839593170374416 0.5432157106163865
12669750666.666666 -0.8340757200983804 0.5516499733909159 6.422423221237574e-17 -7.789695681115954e-17 6.422423221237574e-17 -7.789695681115954e-17 -0.834076083059346 0.5516494246060705
