! Parameters = {f0=12700.012000; bw=77.238000; Q=6100.000000; N=10; m_0_1=1.250345; m_1_1=-0.009566; m_1_2=1.085157; m_2_2=-0.010215; m_2_3=0.722120; m_2_8=-0.000419; m_2_9=0.036285; m_3_3=-0.012152; m_3_4=0.610649; m_3_7=0.000181; m_3_8=-0.096907; m_3_9=-0.000419; m_4_4=-0.015077; m_4_5=0.446984; m_4_6=0.003698; m_4_7=-0.117456; m_4_8=0.000181; m_5_5=-0.014695; m_5_6=0.854339; m_5_7=0.003698; m_6_6=-0.014696; m_6_7=0.447326; m_7_7=-0.015063; m_7_8=0.610767; m_8_8=-0.012154; m_8_9=0.722433; m_9_9=-0.010220; m_9_10=1.086235; m_10_10=-0.009576; m_10_11=1.251140}
!
! Created with skrf (http://scikit-rf.org).
# Hz S RI R 50.0 
!freq ReS11 ImS11 ReS21 ImS21 ReS12 ImS12 ReS22 ImS22
12607400000.0 0.997281083374016 0.07369152423567948 -9.841814672325571e-17 2.1414833331467293e-17 -9.841814672325571e-17 2.1414833331467293e-17 0.9972810348264369 0.07369218123614013
12608017333.333334 0.9979644193985265 0.0637731731560459 -9.817916465761646e-17 2.2396544709585937e-17 -9.817916465761646e-17 2.2396544709585937e-17 0.9979643773871314 0.06377383057449357
12608634666.666666 0.9985491159847234 0.053848518697880675 -9.793039730105601e-17 2.337561805488419e-17 -9.793039730105601e-17 2.337561805488419e-17 0.9985490805130246 0.053849176469297946
12609252000.0 0.9990351153408974 0.043918541820377036 -9.767187351245019e-17 2.435195590399067e-17 -9.767187351245019e-17 2.435195590399067e-17 0.9990350864117609 0.04391919987971803
12609869333.333334 0.9994223694306408 0.03398422400868474 -9.740362312069678e-17 2.53254611068602e-17 -9.740362312069678e-17 2.53254611068602e-17 0.9994223470462845 0.0339848822908814
12610486666.666666 0.9997108399775817 0.02404654717721172 -9.712567692134429e-17 2.629603683639044e-17 -9.712567692134429e-17 2.629603683639044e-17 0.9997108241395776 0.024047205617180392
12611104000.0 0.9999004984691866 0.01410649357214517 -9.683806667310603e-17 2.726358659807143e-17 -9.683806667310603e-17 2.726358659807143e-17 0.9999004891784589 0.014107152104792969
12611721333.333334 0.9999913261595599 0.004165045674820119 -9.654082509429737e-17 2.822801423952868e-17 -9.654082509429737e-17 2.822801423952868e-17 0.9999913234163861 0.004165704235051375
12612338666.666666 0.9999833140713109 -0.005776813895787356 -9.623398585916703e-17 2.918922396006984e-17 -9.623398585916703e-17 2.918922396006984e-17 0.9999833178753208 -0.00577615537306467
12612956000.0 0.9998764629964328 -0.01571810248001238 -9.591758359413335e-17 3.0147120320189084e-17 -9.591758359413335e-17 3.0147120320189084e-17 0.9998764733466095 -0.01571744405988021
12613573333.333334 0.9996707834962284 -0.02565783747445744 -9.559165387393488e-17 3.1101608251007097e-17 -9.559165387393488e-17 3.1101608251007097e-17 0.9996708003909085 -0.025657179221981224
12614190666.666666 0.9993662959002636 -0.03559503642948298 -9.525623321767768e-17 3.205259306369732e-17 -9.525623321767768e-17 3.205259306369732e-17 0.9993663193371365 -0.03559437840970521
12614808000.0 0.9989630303043594 -0.045528717146000736 -9.491135908479516e-17 3.2999980458853947e-17 -9.491135908479516e-17 3.2999980458853947e-17 0.9989630602804688 -0.045528059423934564
12615425333.333334 0.99846102656762 -0.05545789777266866 -9.455706987090946e-17 3.3943676535833506e-17 -9.455706987090946e-17 3.3943676535833506e-17 0.9984610630793628 -0.05545724041329141
12616042666.666666 0.9978603343084841 -0.06538159690302278 -9.419340490360867e-17 3.488358780202524e-17 -9.419340490360867e-17 3.488358780202524e-17 0.9978603773516121 -0.0653809399712696
12616660000.0 0.9971610128998314 -0.07529883367230977 -9.382040443812516e-17 3.581962118210182e-17 -9.382040443812516e-17 3.581962118210182e-17 0.9971610624694521 -0.07529817723306727
12617277333.333334 0.9963631314631096 -0.08520862785454994 -9.343810965291936e-17 3.675168402722628e-17 -9.343810965291936e-17 3.675168402722628e-17 0.9963631875536834 -0.08520797197264948
12617894666.666666 0.9954667688615018 -0.09510999995936627 -9.304656264518946e-17 3.767968412417322e-17 -9.304656264518946e-17 3.767968412417322e-17 0.9954668314668479 -0.09510934469957802
12618512000.0 0.9944720136921228 -0.10500197132893986 -9.264580642626294e-17 3.8603529704468435e-17 -9.264580642626294e-17 3.8603529704468435e-17 0.9944720828054162 -0.10500131675596609
12619129333.333334 0.9933789642772907 -0.11488356423442955 -9.223588491692577e-17 3.952312945341461e-17 -9.223588491692577e-17 3.952312945341461e-17 0.9933790398910638 -0.11488291041289829
12619746666.666666 0.9921877286547726 -0.12475380197297924 -9.181684294264518e-17 4.0438392519107046e-17 -9.181684294264518e-17 4.0438392519107046e-17 0.9921878107609152 -0.12475314896743785
12620364000.0 0.9908984245671181 -0.13461170896408534 -9.138872622870422e-17 4.1349228521396824e-17 -9.138872622870422e-17 4.1349228521396824e-17 0.9908985131568818 -0.13461105683899455
12620981333.333334 0.9895111794500487 -0.14445631084588406 -9.095158139525863e-17 4.225554756077956e-17 -9.095158139525863e-17 4.225554756077956e-17 0.9895112745140414 -0.14445565966561075
12621598666.666666 0.9880261304198255 -0.15428663457168243 -9.050545595229313e-17 4.315726022725818e-17 -9.050545595229313e-17 4.315726022725818e-17 0.9880262319480189 -0.15428598440049424
12622216000.0 0.9864434242597017 -0.16410170850610692 -9.005039829449876e-17 4.405427760913789e-17 -9.005039829449876e-17 4.405427760913789e-17 0.9864435322414292 -0.16410105940816533
12622833333.333334 0.984763217405433 -0.17390056252102826 -8.958645769605276e-17 4.4946511301784936e-17 -8.958645769605276e-17 4.4946511301784936e-17 0.9847633318293902 -0.17389991456038234
12623450666.666666 0.982985675929818 -0.1836822280914211 -8.911368430533286e-17 4.583387341629334e-17 -8.911368430533286e-17 4.583387341629334e-17 0.9829857967840657 -0.18368158133200138
12624068000.0 0.9811109755262488 -0.19344573839131873 -8.863212913952155e-17 4.671627658814177e-17 -8.863212913952155e-17 4.671627658814177e-17 0.9811111027982136 -0.19344509289693065
12624685333.333334 0.9791393014913644 -0.2031901283892332 -8.81418440791301e-17 4.759363398578403e-17 -8.81418440791301e-17 4.759363398578403e-17 0.97913943516784 -0.20318948422355113
12625302666.666666 0.9770708487067783 -0.2129144349433459 -8.764288186246688e-17 4.8465859319130105e-17 -8.764288186246688e-17 4.8465859319130105e-17 0.9770709887739266 -0.2129137921699066
12625920000.0 0.9749058216197153 -0.22261769689720604 -8.713529607996661e-17 4.93328668480695e-17 -8.713529607996661e-17 4.93328668480695e-17 0.9749059680630675 -0.2226170555794023
12626537333.333334 0.9726444342229159 -0.23229895517417495 -8.661914116849684e-17 5.0194571390826067e-17 -8.661914116849684e-17 5.0194571390826067e-17 0.9726445870273737 -0.2322983153752494
12627154666.666666 0.9702869100334376 -0.24195725287247327 -8.609447240554051e-17 5.105088833232846e-17 -8.609447240554051e-17 5.105088833232846e-17 0.970287069183277 -0.24195661465551258
12627772000.0 0.9678334820704984 -0.2515916353600096 -8.556134590329441e-17 5.190173363251933e-17 -8.556134590329441e-17 5.190173363251933e-17 0.9678336475493695 -0.2515909987879378
12628389333.333334 0.9652843928325817 -0.26120115036818464 -8.501981860272977e-17 5.274702383453328e-17 -8.501981860272977e-17 5.274702383453328e-17 0.9652845646235109 -0.26120051550375717
12629006666.666666 0.9626398942733442 -0.2707848480865114 -8.446994826751507e-17 5.3586676072905145e-17 -8.446994826751507e-17 5.3586676072905145e-17 0.962640072358734 -0.27078421499230815
12629624000.0 0.959900247776763 -0.2803417812562724 -8.391179347789748e-17 5.4420608081652654e-17 -8.391179347789748e-17 5.4420608081652654e-17 0.9599004321383973 -0.28034114999469306
12630241333.333334 0.9570657241313069 -0.2898710052641496 -8.334541362449213e-17 5.52487382023148e-17 -8.334541362449213e-17 5.52487382023148e-17 0.9570659147503507 -0.2898703758974061
12630858666.666666 0.9541366035031854 -0.29937157823553523 -8.277086890199831e-17 5.607098539191954e-17 -8.277086890199831e-17 5.607098539191954e-17 0.9541368003601882 -0.29937095082564674
12631476000.0 0.9511131754085873 -0.30884256112787356 -8.218822030280857e-17 5.688726923092563e-17 -8.218822030280857e-17 5.688726923092563e-17 0.9511133784834817 -0.30884193573665897
12632093333.333334 0.9479957386851317 -0.31828301782322915 -8.159752961059434e-17 5.769750993102185e-17 -8.159752961059434e-17 5.769750993102185e-17 0.9479959479572393 -0.3182823945123024
12632710666.666666 0.9447846014623388 -0.32769201522081676 -8.099885939376871e-17 5.850162834292522e-17 -8.099885939376871e-17 5.850162834292522e-17 0.9447848169103699 -0.3276913940515797
12633328000.0 0.9414800811311012 -0.33706862332944354 -8.039227299887407e-17 5.92995459641088e-17 -8.039227299887407e-17 5.92995459641088e-17 0.9414803027331584 -0.3370680043630809
12633945333.333334 0.9380825043123625 -0.3464119153592684 -7.97778345439327e-17 6.009118494640911e-17 -7.97778345439327e-17 6.009118494640911e-17 0.9380827320459427 -0.3464112986567409
12634562666.666666 0.9345922068248496 -0.3557209678133805 -7.91556089116839e-17 6.087646810361722e-17 -7.91556089116839e-17 6.087646810361722e-17 0.9345924406668449 -0.355720353435419
12635180000.0 0.9310095336518583 -0.3649948605791315 -7.852566174275688e-17 6.165531891898695e-17 -7.852566174275688e-17 6.165531891898695e-17 0.9310097735785599 -0.36499424858623153
12635797333.333334 0.9273348389071144 -0.3742326770191864 -7.788805942878165e-17 6.24276615526562e-17 -7.788805942878165e-17 6.24276615526562e-17 0.9273350848942143 -0.37423206747160165
12636414666.666666 0.9235684857998753 -0.3834335040618588 -7.724286910542134e-17 6.319342084900753e-17 -7.724286910542134e-17 6.319342084900753e-17 0.9235687378224696 -0.38343289701959576
12637032000.0 0.9197108465989395 -0.39259643229159963 -7.659015864531374e-17 6.39525223439783e-17 -7.659015864531374e-17 6.39525223439783e-17 0.9197111046315287 -0.39259582781441055
12637649333.333334 0.9157623025958556 -0.40172055603885426 -7.592999665097559e-17 6.470489227225673e-17 -7.592999665097559e-17 6.470489227225673e-17 0.9157625666123507 -0.401719954186233
12638266666.666666 0.9117232440672954 -0.4108049734694519 -7.526245244761136e-17 6.545045757443584e-17 -7.526245244761136e-17 6.545045757443584e-17 0.9117235140410168 -0.4108043743006264
12638884000.0 0.9075940702364299 -0.41984878667384506 -7.458759607585373e-17 6.618914590409115e-17 -7.458759607585373e-17 6.618914590409115e-17 0.9075943461401129 -0.41984819024777265
12639501333.333334 0.9033751892334855 -0.4288511017558362 -7.390549828444967e-17 6.692088563476673e-17 -7.390549828444967e-17 6.692088563476673e-17 0.9033754710392813 -0.42885050813119685
12640118666.666666 0.8990670180554244 -0.4378110289208771 -7.321623052287511e-17 6.764560586689092e-17 -7.321623052287511e-17 6.764560586689092e-17 0.8990673057349046 -0.43781043815606885
12640736000.0 0.8946699825246083 -0.44672768256427475 -7.251986493383896e-17 6.836323643466145e-17 -7.251986493383896e-17 6.836323643466145e-17 0.8946702760487658 -0.44672709471740696
12641353333.333334 0.890184517246968 -0.4556001813581869 -7.18164743458159e-17 6.907370791275328e-17 -7.18164743458159e-17 6.907370791275328e-17 0.8901848165862212 -0.4555995964870748
12641970666.666666 0.8856110655687484 -0.4644276483393465 -7.110613226540755e-17 6.977695162305997e-17 -7.110613226540755e-17 6.977695162305997e-17 0.8856113706929443 -0.4644270665015059
12642588000.0 0.8809500795328892 -0.47320921099533314 -7.038891286969923e-17 7.04728996412942e-17 -7.038891286969923e-17 7.04728996412942e-17 0.8809503904113052 -0.473208632247974
12643205333.333334 0.8762020198342948 -0.48194400135091586 -6.966489099855046e-17 7.116148480351184e-17 -6.966489099855046e-17 7.116148480351184e-17 0.8762023364356432 -0.4819434257509373
12643822666.666666 0.8713673557742037 -0.49063115605401786 -6.893414214678591e-17 7.184264071259325e-17 -6.893414214678591e-17 7.184264071259325e-17 0.871367678066634 -0.4906305836580025
12644440000.0 0.8664465652139501 -0.49926981646077623 -6.81967424563714e-17 7.25163017445967e-17 -6.81967424563714e-17 7.25163017445967e-17 0.8664468931650531 -0.49926924732498457
12645057333.333334 0.861440134527668 -0.5078591287205371 -6.745276870849461e-17 7.318240305506648e-17 -6.745276870849461e-17 7.318240305506648e-17 0.8614404681044769 -0.5078585629009015
12645674666.666666 0.8563485585542436 -0.5163982438602011 -6.670229831559788e-17 7.384088058524523e-17 -6.670229831559788e-17 7.384088058524523e-17 0.8563488977232401 -0.5163976814123211
12646292000.0 0.8511723405482456 -0.5248863178684043 -6.594540931332338e-17 7.449167106822963e-17 -6.594540931332338e-17 7.449167106822963e-17 0.8511726852753623 -0.5248857588475409
12646909333.333334 0.8459119921304613 -0.5333225117784787 -6.518218035246284e-17 7.513471203498825e-17 -6.518218035246284e-17 7.513471203498825e-17 0.8459123423810831 -0.533321956239548
12647526666.666666 0.8405680332371355 -0.5417059917516912 -6.44126906907799e-17 7.576994182035612e-17 -6.44126906907799e-17 7.576994182035612e-17 0.8405683889761073 -0.5417054397492614
12648144000.0 0.8351409920685515 -0.5500359291597108 -6.363702018479863e-17 7.639729956892586e-17 -6.363702018479863e-17 7.639729956892586e-17 0.8351413532601767 -0.5500353807479936
12648761333.333334 0.8296314050369676 -0.5583115006662651 -6.28552492815625e-17 7.701672524083104e-17 -6.28552492815625e-17 7.701672524083104e-17 0.8296317716450158 -0.5583109558991131
12649378666.666666 0.8240398167135635 -0.566531888308599 -6.206745901029676e-17 7.762815961748057e-17 -6.206745901029676e-17 7.762815961748057e-17 0.824040188701272 -0.5665313472394989
12649996000.0 0.8183667797744809 -0.5746962795785064 -6.127373097403662e-17 7.823154430718918e-17 -6.127373097403662e-17 7.823154430718918e-17 0.8183671571045588 -0.5746957422605742
12650613333.333334 0.8126128549463408 -0.5828038675024289 -6.047414734119492e-17 7.882682175072875e-17 -6.047414734119492e-17 7.882682175072875e-17 0.8126132375809724 -0.5828033339884042
12651230666.666666 0.8067786109508399 -0.5908538507211947 -5.966879083709166e-17 7.941393522678149e-17 -5.966879083709166e-17 7.941393522678149e-17 0.8067789988516907 -0.5908533210634375
12651848000.0 0.8008646244483236 -0.5988454335695274 -5.885774473538582e-17 7.999282885734048e-17 -5.885774473538582e-17 7.999282885734048e-17 0.8008650175765409 -0.5988449078200103
12652465333.333334 0.7948714799810355 -0.6067778261543423 -5.804109284952329e-17 8.056344761297289e-17 -5.804109284952329e-17 8.056344761297289e-17 0.7948718782972534 -0.6067773043646464
12653082666.666666 0.7887997699152921 -0.6146502444328901 -5.721891952407941e-17 8.11257373180364e-17 -5.721891952407941e-17 8.11257373180364e-17 0.7888001733796373 -0.6146497266542011
12653700000.0 0.7826500943827135 -0.6224619102905491 -5.639130962606272e-17 8.167964465579847e-17 -5.639130962606272e-17 8.167964465579847e-17 0.7826505029548064 -0.6224613965736503
12654317333.333334 0.7764230612212457 -0.6302120516172789 -5.555834853620195e-17 8.22251171734455e-17 -5.555834853620195e-17 8.22251171734455e-17 0.7764234748602062 -0.6302115420125475
12654934666.666666 0.7701192859148613 -0.6378999023842331 -5.472012214012932e-17 8.276210328704127e-17 -5.472012214012932e-17 8.276210328704127e-17 0.7701197045793129 -0.6378993969416354
12655552000.0 0.7637393915326649 -0.6455247027195358 -5.387671681956004e-17 8.329055228636529e-17 -5.387671681956004e-17 8.329055228636529e-17 0.7637398151807382 -0.6455242014886212
12656169333.333334 0.757284008667581 -0.6530856989830588 -5.3028219443426586e-17 8.381041433966306e-17 -5.3028219443426586e-17 8.381041433966306e-17 0.757284437256918 -0.6530852020129558
12656786666.666666 0.7507537753737707 -0.6605821438412184 -5.217471735892147e-17 8.432164049833364e-17 -5.217471735892147e-17 8.432164049833364e-17 0.7507542088615301 -0.6605816511806306
12657404000.0 0.7441493371036977 -0.6680132963406925 -5.131629838255322e-17 8.482418270149151e-17 -5.131629838255322e-17 8.482418270149151e-17 0.744149775446557 -0.6680128080378915
12658021333.333334 0.7374713466442135 -0.6753784219817809 -5.045305079111989e-17 8.531799378046055e-17 -5.045305079111989e-17 8.531799378046055e-17 0.7374717897983755 -0.6753779380846037
12658638666.666666 0.7307204640522483 -0.6826767927907738 -4.958506331265703e-17 8.580302746316656e-17 -4.958506331265703e-17 8.580302746316656e-17 0.7307209119734441 -0.682676313346617
12659256000.0 0.7238973565893211 -0.6899076873921783 -4.871242511732893e-17 8.627923837844642e-17 -4.871242511732893e-17 8.627923837844642e-17 0.7238978092328151 -0.689907212447994
12659873333.333334 0.7170026986557004 -0.6970703910798922 -4.7835225808303634e-17 8.67465820602509e-17 -4.7835225808303634e-17 8.67465820602509e-17 0.7170031559762945 -0.6970699206821824
12660490666.666666 0.7100371717238655 -0.7041641958877237 -4.6953555412565913e-17 8.720501495176765e-17 -4.6953555412565913e-17 8.720501495176765e-17 0.7100376336759041 -0.7041637300825377
12661108000.0 0.7030014642708938 -0.7111884006596345 -4.6067504371688296e-17 8.765449440945167e-17 -4.6067504371688296e-17 8.765449440945167e-17 0.703001930808268 -0.7111879394925628
12661725333.333334 0.695896271710629 -0.7181423111188173 -4.5177163532601904e-17 8.809497870694346e-17 -4.5177163532601904e-17 8.809497870694346e-17 0.6958967427867809 -0.7181418546349874
12662342666.666666 0.6887222963248443 -0.7250252399364203 -4.4282624138267376e-17 8.852642703892551e-17 -4.4282624138267376e-17 8.852642703892551e-17 0.6887227718927721 -0.7250247881804919
12662960000.0 0.6814802471938718 -0.7318365067994426 -4.338397781837199e-17 8.894879952485206e-17 -4.338397781837199e-17 8.894879952485206e-17 0.6814807272061342 -0.7318360598156046
12663577333.333334 0.6741708401264314 -0.7385754384780553 -4.248131657995459e-17 8.936205721260481e-17 -4.248131657995459e-17 8.936205721260481e-17 0.674171324535153 -0.7385749963100209
12664194666.666666 0.6667947975890075 -0.7452413688920293 -4.1574732797997995e-17 8.976616208205131e-17 -4.1574732797997995e-17 8.976616208205131e-17 0.6667952863458826 -0.7452409315830306
12664812000.0 0.6593528486343736 -0.7518336391766257 -4.066431920601113e-17 9.01610770484975e-17 -4.066431920601113e-17 9.01610770484975e-17 0.6593533416906715 -0.7518332067694108
12665429333.333334 0.6518457288294497 -0.7583515977477955 -3.975016888655353e-17 9.054676596605741e-17 -3.975016888655353e-17 9.054676596605741e-17 0.6518462261360201 -0.7583511702846241
12666046666.666666 0.6442741801828336 -0.7647946003663776 -3.88323752617437e-17 9.092319363092e-17 -3.88323752617437e-17 9.092319363092e-17 0.6442746816901106 -0.764794177889017
12666664000.0 0.6366389510711372 -0.7711620102020537 -3.7911032083718656e-17 9.129032578452687e-17 -3.7911032083718656e-17 9.129032578452687e-17 0.6366394567291438 -0.7711615927517729
12667281333.333334 0.6289407961653617 -0.7774531978959973 -3.6986233425105964e-17 9.164812911663765e-17 -3.6986233425105964e-17 9.164812911663765e-17 0.628941305923716 -0.777452785513565
12667898666.666666 0.6211804763560013 -0.7836675416233356 -3.6058073669404586e-17 9.199657126832373e-17 -3.6058073669404586e-17 9.199657126832373e-17 0.6211809901639218 -0.7836671343490167
12668516000.0 0.613358758677968 -0.7898044271545032 -3.512664750138769e-17 9.23356208348449e-17 -3.512664750138769e-17 9.23356208348449e-17 0.6133592764842777 -0.7898040250280535
12669133333.333334 0.6054764162349103 -0.7958632479158467 -3.419204989747918e-17 9.266524736843007e-17 -3.419204989747918e-17 9.266524736843007e-17 0.6054769379880414 -0.7958628509765084
12669750666.666666 0.5975342281225089 -0.8018434050498061 -3.325437611605467e-17 9.298542138097876e-17 -3.325437611605467e-17 9.298542138097876e-17 0.5975347537705091 -0.8018430133363063
12670368000.0 0.5895329793516949 -0.8077443074739337 -3.231372168777829e-17 9.329611434664274e-17 -3.231372168777829e-17 9.329611434664274e-17 0.5895335088422313 -0.8077439210244775
