! Parameters = {f0=12700.012000; bw=77.238000; Q=6100.000000; N=10; m_0_1=1.235330; m_1_1=-0.234791; m_1_2=1.070142; m_2_2=-0.235440; m_2_3=0.707105; m_2_8=-0.001170; m_2_9=0.035534; m_3_3=-0.237377; m_3_4=0.595634; m_3_7=-0.000570; m_3_8=-0.097658; m_3_9=-0.001170; m_4_4=-0.240302; m_4_5=0.431969; m_4_6=0.002947; m_4_7=-0.118207; m_4_8=-0.000570; m_5_5=-0.239920; m_5_6=0.839324; m_5_7=0.002947; m_6_6=-0.239921; m_6_7=0.432311; m_7_7=-0.240288; m_7_8=0.595752; m_8_8=-0.237379; m_8_9=0.707418; m_9_9=-0.235445; m_9_10=1.071220; m_10_10=-0.234801; m_10_11=1.236125}
!
! Created with skrf (http://scikit-rf.org).
# Hz S RI R 50.0 
!freq ReS11 ImS11 ReS21 ImS21 ReS12 ImS12 ReS22 ImS22
12607400000.0 -0.9610843321856303 0.2762551473314739 7.895205445387884e-17 -5.0372681572325993e-17 7.895205445387884e-17 -5.0372681572325993e-17 -0.9610845120019005 0.27625452175466986
12608017333.333334 -0.9584171440736033 0.2853709479705858 7.845015833228696e-17 -5.1117232394589236e-17 7.845015833228696e-17 -5.1117232394589236e-17 -0.9584173298143198 0.28537032416041874
12608634666.666666 -0.9556634955092589 0.2944610048051467 7.794124802801828e-17 -5.18567931726796e-17 7.794124802801828e-17 -5.18567931726796e-17 -0.9556636871570862 0.2944603828177157
12609252000.0 -0.9528236349040365 0.30352449780551843 7.742537305507341e-17 -5.259129789845848e-17 7.742537305507341e-17 -5.259129789845848e-17 -0.9528238324411074 0.30352387769675265
12609869333.333334 -0.9498978184466665 0.312560609338568 7.690258354794316e-17 -5.332068105418515e-17 7.690258354794316e-17 -5.332068105418515e-17 -0.9498980218545854 0.3125599911642219
12610486666.666666 -0.9468863100801752 0.32156852424107635 7.637293025677961e-17 -5.4044877618314384e-17 7.637293025677961e-17 -5.4044877618314384e-17 -0.9468865193400183 0.32156790805672436
12611104000.0 -0.9437893814779036 0.3305474298937887 7.583646454246457e-17 -5.47638230713164e-17 7.583646454246457e-17 -5.47638230713164e-17 -0.9437895965702218 0.3305468157548206
12611721333.333334 -0.9406073120191989 0.3394965162941296 7.529323837168619e-17 -5.54774534013591e-17 7.529323837168619e-17 -5.54774534013591e-17 -0.9406075329240176 0.33949590425574455
12612338666.666666 -0.9373403887640461 0.3484149761297581 7.474330431190204e-17 -5.6185705110026e-17 7.474330431190204e-17 -5.6185705110026e-17 -0.9373406154608694 0.3484143662469611
12612956000.0 -0.9339889064272442 0.3573020048511825 7.418671552627909e-17 -5.688851521794107e-17 7.418671552627909e-17 -5.688851521794107e-17 -0.9339891388950547 0.357301397178778
12613573333.333334 -0.9305531673518403 0.3661568007442862 7.362352576859711e-17 -5.758582127032582e-17 7.362352576859711e-17 -5.758582127032582e-17 -0.9305534055691039 0.3661561953368747
12614190666.666666 -0.9270334814817879 0.37497856500283955 7.305378937805181e-17 -5.827756134256632e-17 7.305378937805181e-17 -5.827756134256632e-17 -0.9270337254264522 0.3749779619148114
12614808000.0 -0.9234301663340636 0.3837665018003477 7.24775612740554e-17 -5.896367404566669e-17 7.24775612740554e-17 -5.896367404566669e-17 -0.923430415983563 0.38376590108587894
12615425333.333334 -0.9197435469699436 0.392519818362056 7.189489695095001e-17 -5.96440985316972e-17 7.189489695095001e-17 -5.96440985316972e-17 -0.9197438023011985 0.39251922007510276
12616042666.666666 -0.9159739559657597 0.40123772503625554 7.130585247269803e-17 -6.031877449915519e-17 7.130585247269803e-17 -6.031877449915519e-17 -0.9159742169551822 0.40123712923055044
12616660000.0 -0.9121217333828165 0.4099194353657308 7.071048446749798e-17 -6.098764219830497e-17 7.071048446749798e-17 -6.098764219830497e-17 -0.9121220000063096 0.4099188420947771
12617277333.333334 -0.9081872267367864 0.4185641661585228 7.010885012236468e-17 -6.165064243644564e-17 7.010885012236468e-17 -6.165064243644564e-17 -0.9081874989697466 0.41856357547558937
12617894666.666666 -0.9041707909663267 0.42717113755866054 6.950100717767191e-17 -6.2307716583115e-17 6.950100717767191e-17 -6.2307716583115e-17 -0.9041710687836491 0.42717054951677863
12618512000.0 -0.9000727884010293 0.4357395731165924 6.888701392159989e-17 -6.295880657529028e-17 6.888701392159989e-17 -6.295880657529028e-17 -0.9000730717771048 0.4357389877685487
12619129333.333334 -0.8958935887287963 0.4442686998590726 6.826692918460606e-17 -6.360385492245676e-17 6.826692918460606e-17 -6.360385492245676e-17 -0.8958938776375202 0.4442681172574069
12619746666.666666 -0.8916335689624789 0.45275774835894944 6.764081233377647e-17 -6.42428047116996e-17 6.764081233377647e-17 -6.42428047116996e-17 -0.8916338633772467 0.4527571685559474
12620364000.0 -0.8872931134057531 0.46120595280477483 6.700872326717654e-17 -6.48755996126899e-17 6.700872326717654e-17 -6.48755996126899e-17 -0.8872934132994676 0.46120537585246496
12620981333.333334 -0.8828726136186734 0.46961255106946026 6.637072240814548e-17 -6.550218388262776e-17 6.637072240814548e-17 -6.550218388262776e-17 -0.882872918963747 0.46961197701960944
12621598666.666666 -0.8783724683821333 0.4779767847794617 6.572687069952717e-17 -6.612250237114588e-17 6.572687069952717e-17 -6.612250237114588e-17 -0.8783727791504877 0.4779762136835692
12622216000.0 -0.8737930836619884 0.4862978993829882 6.507722959788361e-17 -6.673650052512845e-17 6.507722959788361e-17 -6.673650052512845e-17 -0.8737933998250603 0.4862973312922824
12622833333.333334 -0.8691348725724507 0.4945751442180486 6.442186106763181e-17 -6.734412439350554e-17 6.442186106763181e-17 -6.734412439350554e-17 -0.8691351941011916 0.4945745791834812
12623450666.666666 -0.8643982553387798 0.5028077725802444 6.376082757517624e-17 -6.794532063195137e-17 6.376082757517624e-17 -6.794532063195137e-17 -0.8643985822036608 0.5028072106524869
12624068000.0 -0.8595836592594176 0.5109950417900585 6.309419208294932e-17 -6.854003650757071e-17 6.309419208294932e-17 -6.854003650757071e-17 -0.8595839914304304 0.5109944830194966
12624685333.333334 -0.8546915186673066 0.5191362132600713 6.242201804344705e-17 -6.912821990349051e-17 6.242201804344705e-17 -6.912821990349051e-17 -0.8546918561139693 0.5191356576968018
12625302666.666666 -0.849722274890976 0.5272305525611533 6.174436939321516e-17 -6.97098193234016e-17 6.174436939321516e-17 -6.97098193234016e-17 -0.8497226175823315 0.5272300002549781
12625920000.0 -0.8446763762143835 0.5352773294892758 6.106131054676234e-17 -7.028478389606665e-17 6.106131054676234e-17 -7.028478389606665e-17 -0.8446767241190062 0.5352767804896988
12626537333.333334 -0.8395542778368087 0.5432758181308541 6.037290639049077e-17 -7.085306337971965e-17 6.037290639049077e-17 -7.085306337971965e-17 -0.8395546309228047 0.5432752724870754
12627154666.666666 -0.8343564418315741 0.5512252969285686 5.967922227652488e-17 -7.141460816645694e-17 5.967922227652488e-17 -7.141460816645694e-17 -0.8343568000665867 0.5512247546894817
12627772000.0 -0.8290833371043934 0.5591250487464114 5.898032401653017e-17 -7.196936928654263e-17 5.898032401653017e-17 -7.196936928654263e-17 -0.8290837004556031 0.5591245099605967
12628389333.333334 -0.8237354393511602 0.566974360934235 5.827627787550037e-17 -7.251729841264724e-17 5.827627787550037e-17 -7.251729841264724e-17 -0.8237358077852903 0.5669738256499578
12629006666.666666 -0.8183132310149293 0.5747725253922111 5.756715056547895e-17 -7.305834786404747e-17 5.756715056547895e-17 -7.305834786404747e-17 -0.818313604498247 0.5747719936574149
12629624000.0 -0.8128172012424546 0.5825188386346112 5.685300923926444e-17 -7.359247061074638e-17 5.685300923926444e-17 -7.359247061074638e-17 -0.8128175797407754 0.5825183104969157
12630241333.333334 -0.8072478458400139 0.5902126018533411 5.613392148406333e-17 -7.411962027754394e-17 5.613392148406333e-17 -7.411962027754394e-17 -0.8072482293187043 0.5902120773600368
12630858666.666666 -0.8016056672288322 0.5978531209807747 5.5409955315130856e-17 -7.46397511480266e-17 5.5409955315130856e-17 -7.46397511480266e-17 -0.8016060556528124 0.5978526001788178
12631476000.0 -0.7958911743994543 0.605439706752778 5.468117916931766e-17 -7.515281816853746e-17 5.468117916931766e-17 -7.515281816853746e-17 -0.795891567733203 0.6054391896887887
12632093333.333334 -0.7901048828661855 0.6129716747704123 5.394766189866334e-17 -7.565877695202294e-17 5.394766189866334e-17 -7.565877695202294e-17 -0.7901052810737409 0.6129711614906678
12632710666.666666 -0.7842473146203454 0.6204483455619908 5.3209472763879663e-17 -7.615758378187114e-17 5.3209472763879663e-17 -7.615758378187114e-17 -0.7842477176653094 0.6204478361124224
12633328000.0 -0.7783189980832277 0.6278690446443063 5.246668142783472e-17 -7.664919561566052e-17 5.246668142783472e-17 -7.664919561566052e-17 -0.7783194059287708 0.6278685390704964
12633945333.333334 -0.7723204680584527 0.6352331025834576 5.171935794900144e-17 -7.713357008884754e-17 5.171935794900144e-17 -7.713357008884754e-17 -0.7723208806673146 0.6352326009306337
12634562666.666666 -0.7662522656837706 0.6425398550551722 5.0967572774862896e-17 -7.761066551839584e-17 5.0967572774862896e-17 -7.761066551839584e-17 -0.7662526830182651 0.6425393573682034
12635180000.0 -0.760114938382121 0.6497886429048897 5.0211396735297955e-17 -7.808044090633293e-17 5.0211396735297955e-17 -7.808044090633293e-17 -0.7601153604041401 0.6497881492282837
12635797333.333334 -0.753909039812375 0.6569788122070729 4.945090103590788e-17 -7.854285594326012e-17 4.945090103590788e-17 -7.854285594326012e-17 -0.753909466483391 0.6569783225849711
12636414666.666666 -0.7476351298193171 0.6641097143242877 4.8686157251355527e-17 -7.899787101176904e-17 4.8686157251355527e-17 -7.899787101176904e-17 -0.7476355611003871 0.6641092288004613
12637032000.0 -0.7412937743831766 0.6711807059656728 4.791723731861479e-17 -7.944544718982972e-17 4.791723731861479e-17 -7.944544718982972e-17 -0.7412942102349449 0.6711802245835192
12637649333.333334 -0.7348855455684923 0.6781911492450574 4.7144213530248355e-17 -7.988554625407787e-17 4.7144213530248355e-17 -7.988554625407787e-17 -0.7348859859511967 0.678190672047597
12638266666.666666 -0.7284110214726451 0.6851404117383619 4.6367158527609895e-17 -8.031813068306373e-17 4.6367158527609895e-17 -8.031813068306373e-17 -0.7284114663461155 0.6851399387682311
12638884000.0 -0.721870786173563 0.6920278665407891 4.558614529404178e-17 -8.074316366042013e-17 4.558614529404178e-17 -8.074316366042013e-17 -0.7218712354972309 0.692027397840241
12639501333.333334 -0.715265429677076 0.6988528923233426 4.4801247148042064e-17 -8.116060907796638e-17 4.4801247148042064e-17 -8.116060907796638e-17 -0.7152658834099743 0.6988524279342406
12640118666.666666 -0.708595547863866 0.7056148733886928 4.401253773639661e-17 -8.157043153875024e-17 4.401253773639661e-17 -8.157043153875024e-17 -0.7085960059646341 0.7056144133525069
12640736000.0 -0.701861742435255 0.7123131997271857 4.322009102726675e-17 -8.19725963600305e-17 4.322009102726675e-17 -8.19725963600305e-17 -0.7018622048621419 0.7123127440849892
12641353333.333334 -0.6950646208595618 0.7189472670712274 4.2423981303306855e-17 -8.236706957616486e-17 4.2423981303306855e-17 -8.236706957616486e-17 -0.6950650875704308 0.7189468158636934
12641970666.666666 -0.6882047963167232 0.7255164769503797 4.16242831546875e-17 -8.275381794146545e-17 4.16242831546875e-17 -8.275381794146545e-17 -0.6882052672690547 0.7255160302177772
12642588000.0 -0.6812828876433376 0.7320202367449891 4.0821071472130684e-17 -8.313280893296767e-17 4.0821071472130684e-17 -8.313280893296767e-17 -0.6812833627942343 0.7320197945271794
12643205333.333334 -0.6742995192766562 0.7384579597398244 4.0014421439917796e-17 -8.3504010753133e-17 4.0014421439917796e-17 -8.3504010753133e-17 -0.6742999985828464 0.7384575220762584
12643822666.666666 -0.6672553211983355 0.7448290651769301 3.9204408528866415e-17 -8.386739233248777e-17 3.9204408528866415e-17 -8.386739233248777e-17 -0.6672558046161762 0.7448286321066433
12644440000.0 -0.6601509288775406 0.751132978308072 3.8391108489280926e-17 -8.422292333219483e-17 3.8391108489280926e-17 -8.422292333219483e-17 -0.6601514163630221 0.7511325498696817
12645057333.333334 -0.6529869832137662 0.7573691304464546 3.757459734390197e-17 -8.457057414654743e-17 3.757459734390197e-17 -8.457057414654743e-17 -0.6529874747225172 0.757368706678157
12645674666.666666 -0.6457641304788537 0.7635369590181764 3.675495138079766e-17 -8.49103159054114e-17 3.675495138079766e-17 -8.49103159054114e-17 -0.6457646259661434 0.7635365399577425
12646292000.0 -0.6384830222587068 0.7696359076129582 3.5932247146254335e-17 -8.524212047658793e-17 3.5932247146254335e-17 -8.524212047658793e-17 -0.63848352167945 0.7696354932977306
12646909333.333334 -0.6311443153946424 0.7756654260342292 3.5106561437656915e-17 -8.556596046810521e-17 3.5106561437656915e-17 -8.556596046810521e-17 -0.6311448187034041 0.7756650165011191
12647526666.666666 -0.6237486719239835 0.7816249703488882 3.4277971296331226e-17 -8.588180923044707e-17 3.4277971296331226e-17 -8.588180923044707e-17 -0.6237491790749818 0.7816245656343718
12648144000.0 -0.6162967590204227 0.7875140029363012 3.3446554000357443e-17 -8.618964085871716e-17 3.3446554000357443e-17 -8.618964085871716e-17 -0.6162972699675336 0.7875136030764159
12648761333.333334 -0.6087892489337682 0.7933319925368523 3.261238705739602e-17 -8.648943019472067e-17 3.261238705739602e-17 -8.648943019472067e-17 -0.6087897636305302 0.7933315975671943
12649378666.666666 -0.6012268189294798 0.7990784142997317 3.177554819748592e-17 -8.678115282898145e-17 3.177554819748592e-17 -8.678115282898145e-17 -0.601227337329097 0.7990780242554524
12649996000.0 -0.5936101512272777 0.8047527498305076 3.093611536578805e-17 -8.706478510270268e-17 3.093611536578805e-17 -8.706478510270268e-17 -0.593610673282626 0.8047523647463123
12650613333.333334 -0.5859399329398476 0.8103544872377035 3.0094166715368506e-17 -8.734030410963687e-17 3.0094166715368506e-17 -8.734030410963687e-17 -0.5859404586034767 0.8103541071478453
12651230666.666666 -0.5782168560107649 0.8158831211790447 2.924978059993124e-17 -8.760768769789957e-17 2.924978059993124e-17 -8.760768769789957e-17 -0.578217385234904 0.8158827461173228
12651848000.0 -0.5704416171520269 0.8213381529070803 2.8403035566524686e-17 -8.78669144717149e-17 2.8403035566524686e-17 -8.78669144717149e-17 -0.5704421498885884 0.8213377829068371
12652465333.333334 -0.562614917781222 0.8267190903141547 2.755401034828114e-17 -8.811796379307607e-17 2.755401034828114e-17 -8.811796379307607e-17 -0.5626154539818065 0.8267187254082731
12653082666.666666 -0.5547374639584428 0.8320254479766771 2.6702783857094468e-17 -8.836081578335139e-17 2.6702783857094468e-17 -8.836081578335139e-17 -0.554738003574343 0.8320250881975773
12653700000.0 -0.5468099663221689 0.8372567471991996 2.584943517629645e-17 -8.859545132481464e-17 2.584943517629645e-17 -8.859545132481464e-17 -0.5468105093043741 0.8372563925788352
12654317333.333334 -0.5388331400256757 0.8424125160572491 2.4994043553340775e-17 -8.88218520621006e-17 2.4994043553340775e-17 -8.88218520621006e-17 -0.5388336863248773 0.8424121666271076
12654934666.666666 -0.5308077046721206 0.8474922894401752 2.4136688392454287e-17 -8.904000040359443e-17 2.4136688392454287e-17 -8.904000040359443e-17 -0.5308082542387139 0.8474919452312704
12655552000.0 -0.5227343842496912 0.8524956090930497 2.3277449247261707e-17 -8.92498795227553e-17 2.3277449247261707e-17 -8.92498795227553e-17 -0.5227349370337832 0.8524952701359231
12656169333.333334 -0.5146139070665867 0.8574220236578347 2.241640581346281e-17 -8.945147335935199e-17 2.241640581346281e-17 -8.945147335935199e-17 -0.5146144630179976 0.8574216899825494
12656786666.666666 -0.5064470056849031 0.8622710887143498 2.155363792141319e-17 -8.964476662065034e-17 2.155363792141319e-17 -8.964476662065034e-17 -0.5064475647531737 0.8622707603504912
12657404000.0 -0.4982344168548636 0.8670423668201739 2.0689225528758918e-17 -8.982974478251326e-17 2.0689225528758918e-17 -8.982974478251326e-17 -0.4982349789892573 0.8670420437968441
12658021333.333334 -0.4899768814481104 0.8717354275502509 1.9823248713044805e-17 -9.000639409043452e-17 1.9823248713044805e-17 -9.000639409043452e-17 -0.4899774465976198 0.8717351098960685
12658638666.666666 -0.4816751443911903 0.8763498475355371 1.895578766430672e-17 -9.017470156050318e-17 1.895578766430672e-17 -9.017470156050318e-17 -0.48167571250454067 0.8763495352786332
12659256000.0 -0.47332995459790816 0.8808852105014453 1.8086922677656534e-17 -9.033465498029671e-17 1.8086922677656534e-17 -9.033465498029671e-17 -0.47333052562356237 0.8808849036694612
12659873333.333334 -0.4649420649021865 0.8853411073051591 1.7216734145867855e-17 -9.048624290970094e-17 1.7216734145867855e-17 -9.048624290970094e-17 -0.4649426387883496 0.8853408059252437
12660490666.666666 -0.45651223198995355 0.8897171359726556 1.6345302551973908e-17 -9.062945468165602e-17 1.6345302551973908e-17 -9.062945468165602e-17 -0.456512808684578 0.8897168400714641
12661108000.0 -0.44804121633083077 0.8940129017349936 1.547270846179554e-17 -9.076428040284287e-17 1.547270846179554e-17 -9.076428040284287e-17 -0.44804179578162084 0.8940126113386847
12661725333.333334 -0.4395297821096804 0.8982280170638473 1.4599032516552105e-17 -9.089071095428211e-17 1.4599032516552105e-17 -9.089071095428211e-17 -0.43953036426409614 0.8982277321980792
12662342666.666666 -0.43097869715759096 0.9023621017065043 1.3724355425403908e-17 -9.100873799187326e-17 1.3724355425403908e-17 -9.100873799187326e-17 -0.4309792819628546 0.9023618223964356
12662960000.0 -0.4223887328825598 0.9064147827201957 1.2848757958006781e-17 -9.111835394685995e-17 1.2848757958006781e-17 -9.111835394685995e-17 -0.422389320285659 0.9064145089904799
12663577333.333334 -0.41376066419995294 0.910385694505712 1.197232093708727e-17 -9.121955202621999e-17 1.197232093708727e-17 -9.121955202621999e-17 -0.4137612541476463 0.9103854263804976
12664194666.666666 -0.4050952694626766 0.9142744788403513 1.1095125230976996e-17 -9.131232621298962e-17 1.1095125230976996e-17 -9.131232621298962e-17 -0.40509586190149843 0.9142742163432783
12664812000.0 -0.3963933303907798 0.9180807849103154 1.0217251746187238e-17 -9.139667126651087e-17 1.0217251746187238e-17 -9.139667126651087e-17 -0.3963939252670448 0.9180805280645145
12665429333.333334 -0.3876556320011149 0.9218042693422783 9.338781419941402e-18 -9.147258272261309e-17 9.338781419941402e-18 -9.147258272261309e-17 -0.38765622926092347 0.921804018170368
12666046666.666666 -0.3788829625364429 0.9254445962343951 8.45979521274909e-18 -9.15400568937176e-17 8.45979521274909e-18 -9.15400568937176e-17 -0.3788835621256857 0.9254443507584804
12666664000.0 -0.3700761133942463 0.9290014371866403 7.580374100939328e-18 -9.159909086887549e-17 7.580374100939328e-18 -9.159909086887549e-17 -0.37007671525860875 0.9290011974283097
12667281333.333334 -0.3612358790554914 0.9324744713303635 6.700599069234382e-18 -9.164968251373122e-17 6.700599069234382e-18 -9.164968251373122e-17 -0.36123648314045914 0.9324742373106871
12667898666.666666 -0.35236305701290677 0.9358633853572617 5.820551103302127e-18 -9.169183047041584e-17 5.820551103302127e-18 -9.169183047041584e-17 -0.35236366326377017 0.9358631570967899
12668516000.0 -0.34345844769882566 0.9391678735477211 4.940311182295702e-18 -9.172553415737052e-17 4.940311182295702e-18 -9.172553415737052e-17 -0.3434590560606858 0.9391676510664841
12669133333.333334 -0.33452285441343127 0.9423876377982289 4.0599602714617665e-18 -9.175079376909481e-17 4.0599602714617665e-18 -9.175079376909481e-17 -0.33452346483120354 0.9423874211157329
12669750666.666666 -0.3255570832518087 0.9455223876484412 3.1795793146643156e-18 -9.176761027582837e-17 3.1795793146643156e-18 -9.176761027582837e-17 -0.32555769567022874 0.9455221767836677
12670368000.0 -0.3165619430315477 0.9485718403072726 2.2992492269759404e-18 -9.177598542315871e-17 2.2992492269759404e-18 -9.177598542315871e-17 -0.3165625573951757 0.9485716352786754
