! Parameters = {f0=12700.012000; bw=77.238000; Q=6100.000000; N=10; m_0_1=1.169865; m_1_1=-1.216773; m_1_2=1.004677; m_2_2=-1.217422; m_2_3=0.641640; m_2_8=-0.004443; m_2_9=0.032261; m_3_3=-1.219359; m_3_4=0.530169; m_3_7=-0.003843; m_3_8=-0.100931; m_3_9=-0.004443; m_4_4=-1.222284; m_4_5=0.366504; m_4_6=-0.000326; m_4_7=-0.121480; m_4_8=-0.003843; m_5_5=-1.221902; m_5_6=0.773859; m_5_7=-0.000326; m_6_6=-1.221903; m_6_7=0.366846; m_7_7=-1.222270; m_7_8=0.530287; m_8_8=-1.219361; m_8_9=0.641953; m_9_9=-1.217427; m_9_10=1.005755; m_10_10=-1.216783; m_10_11=1.170660}
!
! Created with skrf (http://scikit-rf.org).
# Hz S RI R 50.0 
!freq ReS11 ImS11 ReS21 ImS21 ReS12 ImS12 ReS22 ImS22
12607400000.0 0.00029942703190900333 -0.9999999551716499 1.9085694205380035e-17 6.449608593084659e-17 1.9085694205380035e-17 6.449608593084659e-17 0.0003000435560800772 -0.9999999549868562
12608017333.333334 -0.007263198240658932 -0.9999736226277008 1.95747795107434e-17 6.433556304201924e-17 1.95747795107434e-17 6.433556304201924e-17 -0.007262581762913611 -0.9999736271052285
12608634666.666666 -0.014825408099732427 -0.9998900975979941 2.006252692396007e-17 6.417133550357569e-17 2.006252692396007e-17 6.417133550357569e-17 -0.014824791703665414 -0.9998901067371316
12609252000.0 -0.02238677003232416 -0.9997493848597111 2.0548908415724184e-17 6.400341438093753e-17 2.0548908415724184e-17 6.400341438093753e-17 -0.022386153753179875 -0.9997493986594784
12609869333.333334 -0.029946851573972064 -0.9995514924608212 2.1033896047649173e-17 6.383181095134744e-17 2.1033896047649173e-17 6.383181095134744e-17 -0.029946235446984843 -0.9995515109199746
12610486666.666666 -0.03750522033333192 -0.9992964317196373 2.1517461973857707e-17 6.365653670312978e-17 2.1517461973857707e-17 6.365653670312978e-17 -0.03750460439372381 -0.9992964548366619
12611104000.0 -0.045061444017219586 -0.9989842172241434 2.1999578442594287e-17 6.347760333492878e-17 2.1999578442594287e-17 6.347760333492878e-17 -0.04506082830019858 -0.998984244997262
12611721333.333334 -0.052615090454938264 -0.9986148668311866 2.2480217797786787e-17 6.329502275495077e-17 2.2480217797786787e-17 6.329502275495077e-17 -0.052614474995696235 -0.9986148992583564
12612338666.666666 -0.06016572762330845 -0.9981884016654409 2.295935248064489e-17 6.310880708017884e-17 2.295935248064489e-17 6.310880708017884e-17 -0.06016511245701898 -0.9981884387443507
12612956000.0 -0.0677129236712633 -0.9977048461181993 2.343695503123422e-17 6.291896863558227e-17 2.343695503123422e-17 6.291896863558227e-17 -0.06771230883307976 -0.9977048878462725
12613573333.333334 -0.07525624694446291 -0.9971642278459877 2.391299809002808e-17 6.272551995331996e-17 2.391299809002808e-17 6.272551995331996e-17 -0.07525563246951651 -0.997164274220383
12614190666.666666 -0.08279526601015251 -0.9965665777689711 2.4387454399486578e-17 6.25284737719195e-17 2.4387454399486578e-17 6.25284737719195e-17 -0.08279465193355028 -0.9965666287865816
12614808000.0 -0.09032954968172449 -0.995911930069194 2.4860296805602403e-17 6.232784303545437e-17 2.4860296805602403e-17 6.232784303545437e-17 -0.0903289360385472 -0.9959119857266476
12615425333.333334 -0.0978586670434079 -0.9952003221886223 2.533149825945066e-17 6.212364089270552e-17 2.533149825945066e-17 6.212364089270552e-17 -0.0978580538687081 -0.9952003824822814
12616042666.666666 -0.10538218747491432 -0.9944317948270017 2.580103181873024e-17 6.191588069631217e-17 2.580103181873024e-17 6.191588069631217e-17 -0.10538157480371435 -0.9944318597529642
12616660000.0 -0.11289968067606677 -0.993606391939531 2.6268870649298194e-17 6.170457600191055e-17 2.6268870649298194e-17 6.170457600191055e-17 -0.11289906854335673 -0.9936064614936301
12617277333.333334 -0.1204107166914384 -0.9927241607343426 2.6734988026698992e-17 6.148974056726067e-17 2.6734988026698992e-17 6.148974056726067e-17 -0.12041010513217418 -0.9927242349121475
12617894666.666666 -0.1279148659348024 -0.9917851516698223 2.7199357337676482e-17 6.127138835136639e-17 2.7199357337676482e-17 6.127138835136639e-17 -0.12791425498390369 -0.9917852304666384
12618512000.0 -0.13541169921401203 -0.9907894184516829 2.766195208170626e-17 6.104953351357113e-17 2.766195208170626e-17 6.104953351357113e-17 -0.1354110889063604 -0.990789501862552
12619129333.333334 -0.14290078775515302 -0.9897370180299444 2.812274587247772e-17 6.082419041266224e-17 2.812274587247772e-17 6.082419041266224e-17 -0.1429001781255896 -0.9897371060496442
12619746666.666666 -0.15038170322737696 -0.9886280105956347 2.858171243941208e-17 6.05953736059443e-17 2.858171243941208e-17 6.05953736059443e-17 -0.15038109431070096 -0.9886281032186803
12620364000.0 -0.15785401776728647 -0.9874624595773631 2.903882562914523e-17 6.036309784831332e-17 2.903882562914523e-17 6.036309784831332e-17 -0.1578534095982527 -0.9874625567980065
12620981333.333334 -0.16531730400332192 -0.9862404316377037 2.949405940701378e-17 6.01273780913159e-17 2.949405940701378e-17 6.01273780913159e-17 -0.1653166966166391 -0.9862405334499347
12621598666.666666 -0.1727711350803736 -0.9849619966693587 2.994738785853337e-17 5.988822948219649e-17 2.994738785853337e-17 5.988822948219649e-17 -0.1727705285107025 -0.9849621030669059
12622216000.0 -0.1802150846840825 -0.9836272277911786 3.03987851908608e-17 5.96456673629379e-17 3.03987851908608e-17 5.96456673629379e-17 -0.18021447896603368 -0.9836273387675089
12622833333.333334 -0.1876487270652793 -0.9822362013439699 3.084822573426575e-17 5.939970726928263e-17 3.084822573426575e-17 5.939970726928263e-17 -0.18764812223341096 -0.9822363168922874
12623450666.666666 -0.19507163706422204 -0.9807889968861473 3.1295683943579174e-17 5.915036492975062e-17 3.1295683943579174e-17 5.915036492975062e-17 -0.19507103315303878 -0.9807891169993971
12624068000.0 -0.2024833901350541 -0.9792856971891638 3.174113439963227e-17 5.889765626464722e-17 3.174113439963227e-17 5.889765626464722e-17 -0.20248278717900398 -0.979285821860029
12624685333.333334 -0.20988356237011124 -0.9777263882327619 3.218455181071284e-17 5.864159738504693e-17 3.218455181071284e-17 5.864159738504693e-17 -0.209882960403585 -0.9777265174536682
12625302666.666666 -0.2172717305238901 -0.9761111592001213 3.2625911013969886e-17 5.838220459178971e-17 3.2625911013969886e-17 5.838220459178971e-17 -0.21727112958121786 -0.976111292963232
12625920000.0 -0.22464747203767102 -0.9744401024726631 3.3065186976861977e-17 5.811949437443852e-17 3.3065186976861977e-17 5.811949437443852e-17 -0.2246468721531213 -0.9744402407698844
12626537333.333334 -0.2320103650632977 -0.9727133136248551 3.3502354798547497e-17 5.785348341025361e-17 3.3502354798547497e-17 5.785348341025361e-17 -0.2320097662710751 -0.9727134564478337
12627154666.666666 -0.23935998848747123 -0.9709308914187091 3.3937389711300024e-17 5.758418856313829e-17 3.3937389711300024e-17 5.758418856313829e-17 -0.2393593908217146 -0.9709310387588342
12627772000.0 -0.24669592195600007 -0.9690929377980887 3.437026708191472e-17 5.73116268825728e-17 3.437026708191472e-17 5.73116268825728e-17 -0.2466953254507804 -0.9690930896464922
12628389333.333334 -0.25401774589748377 -0.9671995578829697 3.480096241307429e-17 5.703581560255853e-17 3.480096241307429e-17 5.703581560255853e-17 -0.25401715058680263 -0.9671997142305268
12629006666.666666 -0.2613250415476128 -0.9652508599633512 3.5229451344753185e-17 5.675677214052242e-17 3.5229451344753185e-17 5.675677214052242e-17 -0.2613244474653998 -0.9652510208006798
12629624000.0 -0.2686173909729818 -0.9632469554930967 3.565570965557129e-17 5.64745140962374e-17 3.565570965557129e-17 5.64745140962374e-17 -0.2686167981530929 -0.9632471208105589
12630241333.333334 -0.27589437709504727 -0.9611879590835436 3.60797132641664e-17 5.618905925071521e-17 3.60797132641664e-17 5.618905925071521e-17 -0.2758937855712633 -0.9611881288712472
12630858666.666666 -0.28315558371384575 -0.9590739884969889 3.650143823053876e-17 5.59004255651018e-17 3.650143823053876e-17 5.59004255651018e-17 -0.2831549935198701 -0.9590741627447865
12631476000.0 -0.2904005955320989 -0.9569051646398685 3.69208607574137e-17 5.560863117954411e-17 3.69208607574137e-17 5.560863117954411e-17 -0.2904000067015552 -0.9569053433373584
12632093333.333334 -0.29762899817860966 -0.9546816115559413 3.7337957191557584e-17 5.531369441207299e-17 3.7337957191557584e-17 5.531369441207299e-17 -0.2976284107450405 -0.9546817946924683
12632710666.666666 -0.3048403782321272 -0.9524034564191506 3.7752704025114714e-17 5.5015633757455317e-17 3.7752704025114714e-17 5.5015633757455317e-17 -0.3048397922289923 -0.952403643983808
12633328000.0 -0.3120343232451272 -0.9500708295263081 3.816507789693354e-17 5.4714467886037616e-17 3.816507789693354e-17 5.4714467886037616e-17 -0.31203373870580087 -0.9500710215079351
12633945333.333334 -0.31921042176715636 -0.9476838642897137 3.857505559386194e-17 5.4410215642594776e-17 3.857505559386194e-17 5.4410215642594776e-17 -0.3192098387249261 -0.9476840606768996
12634562666.666666 -0.32636826336850194 -0.9452426972294882 3.898261405205527e-17 5.4102896045154045e-17 3.898261405205527e-17 5.4102896045154045e-17 -0.32636768185656645 -0.9452428980105708
12635180000.0 -0.3335074386636376 -0.9427474679657698 3.938773035826565e-17 5.3792528283815686e-17 3.938773035826565e-17 5.3792528283815686e-17 -0.33350685871510427 -0.942747673128836
12635797333.333334 -0.3406275393346648 -0.9401983192107197 3.9790381751125136e-17 5.3479131719561884e-17 3.9790381751125136e-17 5.3479131719561884e-17 -0.3406269609825487 -0.9401985287436073
12636414666.666666 -0.34772815815455915 -0.9375953967603988 4.0190545622412043e-17 5.3162725883062065e-17 4.0190545622412043e-17 5.3162725883062065e-17 -0.34772758143178123 -0.9375956106506979
12637032000.0 -0.3548088890106221 -0.9349388494863707 4.0588199518322414e-17 5.2843330473456563e-17 4.0588199518322414e-17 5.2843330473456563e-17 -0.3548083139500067 -0.9349390677214234
12637649333.333334 -0.36186932692762785 -0.9322288293272183 4.0983321140719273e-17 5.252096535714238e-17 4.0983321140719273e-17 5.252096535714238e-17 -0.36186875356190085 -0.9322290518941186
12638266666.666666 -0.36890906809090535 -0.9294654912798808 4.1375888348371334e-17 5.219565056654852e-17 4.1375888348371334e-17 5.219565056654852e-17 -0.3689084964526925 -0.9294657181654762
12638884000.0 -0.3759277098695942 -0.9266489933907301 4.1765879158196286e-17 5.1867406298892493e-17 4.1765879158196286e-17 5.1867406298892493e-17 -0.37592713999141936 -0.9266492245816229
12639501333.333334 -0.3829248508395915 -0.9237794967465602 4.215327174648033e-17 5.1536252914937494e-17 4.215327174648033e-17 5.1536252914937494e-17 -0.3829242827538746 -0.9237797322291073
12640118666.666666 -0.3899000908063813 -0.9208571654654301 4.2538044450085665e-17 5.120221093774378e-17 4.2538044450085665e-17 5.120221093774378e-17 -0.3898995245454372 -0.9208574052257457
12640736000.0 -0.3968530308283427 -0.9178821666871021 4.292017576767803e-17 5.086530105138471e-17 4.292017576767803e-17 5.086530105138471e-17 -0.396852466424378 -0.9178824107110554
12641353333.333334 -0.40378327323893765 -0.9148546705637465 4.32996443608869e-17 5.052554409970334e-17 4.32996443608869e-17 5.052554409970334e-17 -0.40378271072404975 -0.9148549188369646
12641970666.666666 -0.41069042167000447 -0.9117748502499754 4.367642905552031e-17 5.0182961085004724e-17 4.367642905552031e-17 5.0182961085004724e-17 -0.41068986107617994 -0.9117751027578452
12642588000.0 -0.41757408107416716 -0.9086428818930546 4.405050884272509e-17 4.98375731667775e-17 4.405050884272509e-17 4.98375731667775e-17 -0.41757352243327933 -0.9086431386207208
12643205333.333334 -0.424433857747456 -0.9054589446228163 4.442186288015293e-17 4.9489401660393584e-17 4.442186288015293e-17 4.9489401660393584e-17 -0.4244333010912633 -0.9054592055551833
12643822666.666666 -0.4312693593519269 -0.9022232205413635 4.479047049312009e-17 4.913846803579493e-17 4.479047049312009e-17 4.913846803579493e-17 -0.4312688047120716 -0.9022234856630988
12644440000.0 -0.43808019493797373 -0.8989358947127201 4.5156311175744574e-17 4.878479391618364e-17 4.5156311175744574e-17 4.878479391618364e-17 -0.43807964234597907 -0.8989361640082512
12645057333.333334 -0.4448659749667128 -0.8955971551522304 4.551936459208121e-17 4.842840107669564e-17 4.551936459208121e-17 4.842840107669564e-17 -0.4448654244539825 -0.8955974286057489
12645674666.666666 -0.4516263113322886 -0.8922071928157955 4.587961057724515e-17 4.806931144306769e-17 4.587961057724515e-17 4.806931144306769e-17 -0.4516257629301039 -0.8922074704112559
12646292000.0 -0.4583608173841223 -0.8887662015889277 4.623702913853398e-17 4.770754709028634e-17 4.623702913853398e-17 4.770754709028634e-17 -0.4583602711236413 -0.8887664833100498
12646909333.333334 -0.4650691079489741 -0.8852743782756829 4.659160045651273e-17 4.7343130241255457e-17 4.659160045651273e-17 4.7343130241255457e-17 -0.4650685638612284 -0.8852746641059516
12647526666.666666 -0.47175079935287156 -0.8817319225874599 4.694330488611919e-17 4.697608326542515e-17 4.694330488611919e-17 4.697608326542515e-17 -0.47175025746876637 -0.8817322125101268
12648144000.0 -0.4784055094433069 -0.8781390371314454 4.7292122957743437e-17 4.6606428677426926e-17 4.7292122957743437e-17 4.6606428677426926e-17 -0.4784049697936179 -0.8781393311295301
12648761333.333334 -0.48503285761086534 -0.8744959273991446 4.763803537829345e-17 4.623418913570543e-17 4.763803537829345e-17 4.623418913570543e-17 -0.48503232022623766 -0.8744962254554351
12649378666.666666 -0.4916324648110213 -0.8708028017546177 4.798102303225462e-17 4.585938744113661e-17 4.798102303225462e-17 4.585938744113661e-17 -0.4916319297219675 -0.8708031038516716
12649996000.0 -0.49820395358594083 -0.8670598714224922 4.83210669827455e-17 4.548204653563145e-17 4.83210669827455e-17 4.548204653563145e-17 -0.4982034208228395 -0.8670601775426384
12650613333.333334 -0.5047469480859955 -0.8632673504759252 4.865814847255163e-17 4.510218950074257e-17 4.865814847255163e-17 4.510218950074257e-17 -0.5047464176790887 -0.8632676606012631
12651230666.666666 -0.5112610740911606 -0.8594254558244152 4.8992248925148067e-17 4.47198395562652e-17 4.8992248925148067e-17 4.47198395562652e-17 -0.5112605460705529 -0.8594257699368174
12651848000.0 -0.5177459590326632 -0.8555344072012533 4.932334994572804e-17 4.433502005881065e-17 4.932334994572804e-17 4.433502005881065e-17 -0.5177454334283194 -0.8555347252823654
12652465333.333334 -0.5242012320140698 -0.851594427151084 4.965143332219685e-17 4.394775450039908e-17 4.965143332219685e-17 4.394775450039908e-17 -0.5242007088558145 -0.8515947491823282
12653082666.666666 -0.530626523832502 -0.8476057410171818 4.9976481026167386e-17 4.3558066507031e-17 4.9976481026167386e-17 4.3558066507031e-17 -0.5306260031500166 -0.8476060669797553
12653700000.0 -0.5370214669999936 -0.8435685769284109 5.0298475213949125e-17 4.316597983724545e-17 5.0298475213949125e-17 4.316597983724545e-17 -0.5370209488228151 -0.8435689068032878
12654317333.333334 -0.5433856957641713 -0.8394831657863899 5.061739822751657e-17 4.277151838068291e-17 5.061739822751657e-17 4.277151838068291e-17 -0.5433851801216895 -0.8394834995543213
12654934666.666666 -0.5497188461294351 -0.8353497412521139 5.093323259546459e-17 4.2374706156641876e-17 5.093323259546459e-17 4.2374706156641876e-17 -0.5497183330508936 -0.8353500788936322
12655552000.0 -0.5560205558776864 -0.8311685397326594 5.124596103397112e-17 4.197556731260736e-17 5.124596103397112e-17 4.197556731260736e-17 -0.5560200453921779 -0.8311688812280756
12656169333.333334 -0.5622904645889673 -0.8269398003677023 5.1555566447718517e-17 4.15741261228085e-17 5.1555566447718517e-17 4.15741261228085e-17 -0.5622899567254348 -0.8269401456971113
12656786666.666666 -0.568528213662222 -0.8226637650157529 5.1862031930832996e-17 4.117040698673287e-17 5.1862031930832996e-17 4.117040698673287e-17 -0.5685277084494551 -0.8226641141590306
12657404000.0 -0.5747334463357089 -0.8183406782403824 5.216534076779385e-17 4.07644344276574e-17 5.216534076779385e-17 4.07644344276574e-17 -0.5747329438023425 -0.8183410311771886
12658021333.333334 -0.5809058077074528 -0.8139707872962043 5.246547643433952e-17 4.0356233091162555e-17 5.246547643433952e-17 4.0356233091162555e-17 -0.5809053078819659 -0.8139711440059835
12658638666.666666 -0.5870449447554271 -0.809554342114814 5.2762422598353866e-17 3.994582774365014e-17 5.2762422598353866e-17 3.994582774365014e-17 -0.5870444476661407 -0.8095547025767974
12659256000.0 -0.5931505063579756 -0.8050915952903295 5.305616312075798e-17 3.9533243270832173e-17 5.305616312075798e-17 3.9533243270832173e-17 -0.5931500120330528 -0.8050919594835364
12659873333.333334 -0.599222143313689 -0.8005828020650962 5.334668205636902e-17 3.9118504676242135e-17 5.334668205636902e-17 3.9118504676242135e-17 -0.5992216517811303 -0.8005831699683335
12660490666.666666 -0.6052595083613731 -0.7960282203150849 5.3633963654757486e-17 3.8701637079726205e-17 5.3633963654757486e-17 3.8701637079726205e-17 -0.605259019649018 -0.79602859190695
12661108000.0 -0.6112622562001429 -0.7914281105349762 5.391799236110335e-17 3.828266571591283e-17 5.391799236110335e-17 3.828266571591283e-17 -0.6112617703356662 -0.7914284857938578
12661725333.333334 -0.6172300435088512 -0.7867827358235016 5.41987528170149e-17 3.786161593271335e-17 5.41987528170149e-17 3.786161593271335e-17 -0.6172295605197626 -0.7867831147275803
12662342666.666666 -0.6231625289659732 -0.782092361868203 5.4476229861362294e-17 3.743851318977784e-17 5.4476229861362294e-17 3.743851318977784e-17 -0.623162048879615 -0.7820927443954538
12662960000.0 -0.6290593732690389 -0.7773572569303094 5.4750408531082276e-17 3.701338305696969e-17 5.4750408531082276e-17 3.701338305696969e-17 -0.6290588961125844 -0.7773576430585014
12663577333.333334 -0.634920239153972 -0.7725776918294465 5.502127406197727e-17 3.658625121282526e-17 5.502127406197727e-17 3.658625121282526e-17 -0.6349197649544246 -0.772578081536145
12664194666.666666 -0.6407447914145112 -0.7677539399280382 5.528881188950171e-17 3.61571434430091e-17 5.528881188950171e-17 3.61571434430091e-17 -0.640744320198703 -0.7677543331906073
12664812000.0 -0.6465326969212971 -0.7628862771157483 5.555300764953613e-17 3.57260856387637e-17 5.555300764953613e-17 3.57260856387637e-17 -0.6465322287158861 -0.7628866739113495
12665429333.333334 -0.6522836246409635 -0.7579749817936591 5.581384717915035e-17 3.529310379535193e-17 5.581384717915035e-17 3.529310379535193e-17 -0.6522831594724335 -0.7579753820992549
12666046666.666666 -0.6579972456549683 -0.7530203348584463 5.607131651734876e-17 3.485822401050376e-17 5.607131651734876e-17 3.485822401050376e-17 -0.6579967835496269 -0.7530207386508002
12666664000.0 -0.6636732331786381 -0.7480226196861055 5.63254019058189e-17 3.44214724828317e-17 5.63254019058189e-17 3.44214724828317e-17 -0.663672774162615 -0.7480230269417846
12667281333.333334 -0.6693112625795604 -0.7429821221160074 5.657608978964402e-17 3.39828755102814e-17 5.657608978964402e-17 3.39828755102814e-17 -0.6693108066788062 -0.7429825328113825
12667898666.666666 -0.6749110113963642 -0.7378991304343631 5.682336681802703e-17 3.3542459488536596e-17 5.682336681802703e-17 3.3542459488536596e-17 -0.6749105586366481 -0.73789954454561
12668516000.0 -0.6804721593571589 -0.7327739353577309 5.706721984498835e-17 3.3100250909443196e-17 5.706721984498835e-17 3.3100250909443196e-17 -0.6804717097640698 -0.7327743528608348
12669133333.333334 -0.6859943883976691 -0.7276068300165681 5.730763593005226e-17 3.265627635942686e-17 5.730763593005226e-17 3.265627635942686e-17 -0.6859939419966101 -0.7276072508873194
12669750666.666666 -0.6914773826796292 -0.722398109938267 5.754460233892953e-17 3.221056251789096e-17 5.754460233892953e-17 3.221056251789096e-17 -0.6914769394958199 -0.7223985341522681
12670368000.0 -0.6969208286087678 -0.717148073030334 5.777810654417911e-17 3.176313615562435e-17 5.777810654417911e-17 3.176313615562435e-17 -0.6969203886672398 -0.7171485005629966
