! Parameters = {f0=12700.012000; bw=77.238000; Q=6100.000000; N=10; m_0_1=1.281376; m_1_1=0.455900; m_1_2=1.116188; m_2_2=0.455251; m_2_3=0.753151; m_2_8=0.001133; m_2_9=0.037837; m_3_3=0.453314; m_3_4=0.641680; m_3_7=0.001733; m_3_8=-0.095355; m_3_9=0.001133; m_4_4=0.450389; m_4_5=0.478015; m_4_6=0.005250; m_4_7=-0.115904; m_4_8=0.001733; m_5_5=0.450771; m_5_6=0.885370; m_5_7=0.005250; m_6_6=0.450770; m_6_7=0.478357; m_7_7=0.450403; m_7_8=0.641798; m_8_8=0.453312; m_8_9=0.753464; m_9_9=0.455246; m_9_10=1.117266; m_10_10=0.455890; m_10_11=1.282171}
!
! Created with skrf (http://scikit-rf.org).
# Hz S RI R 50.0 
!freq ReS11 ImS11 ReS21 ImS21 ReS12 ImS12 ReS22 ImS22
12607400000.0 0.9844950044495911 0.1754126170308734 -1.1593548898886034e-16 1.300226708431714e-17 -1.1593548898886034e-16 1.300226708431714e-17 0.9844948860310588 0.17541328164797854
12608017333.333334 0.9863417716788535 0.1647115947383206 -1.157635220540817e-16 1.4267923959665698e-17 -1.157635220540817e-16 1.4267923959665698e-17 0.9863416604898572 0.16471226056955107
12608634666.666666 0.9880722270918416 0.15399114925731533 -1.1557774684792095e-16 1.5531375023863596e-17 -1.1557774684792095e-16 1.5531375023863596e-17 0.9880721231447842 0.1539918162240397
12609252000.0 0.9896861666291457 0.1432525447687669 -1.153781910416939e-16 1.6792469725540907e-17 -1.153781910416939e-16 1.6792469725540907e-17 0.9896860699355757 0.14325321279222758
12609869333.333334 0.9911833999711777 0.1324970475950215 -1.151648839471153e-16 1.8051057854649565e-17 -1.151648839471153e-16 1.8051057854649565e-17 0.9911833105417862 0.13249771659634388
12610486666.666666 0.9925637505606247 0.12172592605047866 -1.1493785651215176e-16 1.9306989560282913e-17 -1.1493785651215176e-16 1.9306989560282913e-17 0.9925636684052465 0.12172659595068064
12611104000.0 0.9938270556232968 0.11094045029180262 -1.1469714131666276e-16 2.056011536854996e-17 -1.1469714131666276e-16 2.056011536854996e-17 0.9938269807509075 0.11094112101180388
12611721333.333334 0.9949731661872666 0.10014189216859393 -1.1444277256787124e-16 2.1810286200263557e-17 -1.1444277256787124e-16 2.1810286200263557e-17 0.9949730986059807 0.100142563629225
12612338666.666666 0.9960019471004757 0.08933152507307093 -1.1417478609561801e-16 2.3057353388701595e-17 -1.1417478609561801e-16 2.3057353388701595e-17 0.9960018868175499 0.08933219719508308
12612956000.0 0.9969132770466818 0.07851062378982367 -1.138932193474353e-16 2.4301168697246496e-17 -1.138932193474353e-16 2.4301168697246496e-17 0.9969132240685081 0.0785112964938976
12613573333.333334 0.9977070485597153 0.06768046434594026 -1.135981113834356e-16 2.5541584336937458e-17 -1.135981113834356e-16 2.5541584336937458e-17 0.9977070028918276 0.06768113755269613
12614190666.666666 0.9983831680362054 0.05684232386005431 -1.132895028709891e-16 2.677845298405594e-17 -1.132895028709891e-16 2.677845298405594e-17 0.998383129683272 0.05684299749006057
12614808000.0 0.9989415557465863 0.0459974803919696 -1.129674360792311e-16 2.8011627797551444e-17 -1.129674360792311e-16 2.8011627797551444e-17 0.9989415247124149 0.04599815436575267
12615425333.333334 0.999382145844508 0.035147212792005715 -1.1263195487336493e-16 2.9240962436473926e-17 -1.1263195487336493e-16 2.9240962436473926e-17 0.9993821221320416 0.0351478870300592
12616042666.666666 0.9997048863746036 0.024292800549993835 -1.1228310470878766e-16 3.04663110772844e-17 -1.1228310470878766e-16 3.04663110772844e-17 0.9997048699859211 0.024293474972787957
12616660000.0 0.9999097392786092 0.013435523644623424 -1.119209326250168e-16 3.1687528431145335e-17 -1.119209326250168e-16 3.1687528431145335e-17 0.9999097302149261 0.01343619817261443
12617277333.333334 0.9999966803998583 0.0025766623922484685 -1.1154548723943565e-16 3.2904469761110976e-17 -1.1154548723943565e-16 3.2904469761110976e-17 0.999996678661528 0.0025773369458879972
12617894666.666666 0.9999656994861297 -0.008282502703721198 -1.1115681874085954e-16 3.4116990899226305e-17 -1.1115681874085954e-16 3.4116990899226305e-17 0.9999657050726393 -0.008281828203976774
12618512000.0 0.9998168001908493 -0.019140691104359932 -1.1075497888288986e-16 3.5324948263633025e-17 -1.1075497888288986e-16 3.5324948263633025e-17 0.9998168131008239 -0.01914001673804009
12619129333.333334 0.9995500000726703 -0.029996622385605267 -1.1034002097712396e-16 3.6528198875472705e-17 -1.1034002097712396e-16 3.6528198875472705e-17 0.999550020303872 -0.02999594823221601
12619746666.666666 0.9991653305933954 -0.040849016389760275 -1.0991199988613986e-16 3.772660037583688e-17 -1.0991199988613986e-16 3.772660037583688e-17 0.9991653581427213 -0.04084834252877466
12620364000.0 0.9986628371142657 -0.05169659337622535 -1.0947097201632458e-16 3.892001104255435e-17 -1.0947097201632458e-16 3.892001104255435e-17 0.9986628719777509 -0.05169591988707418
12620981333.333334 0.9980425788906155 -0.06253807417237996 -1.0901699531051421e-16 4.010828980691822e-17 -1.0901699531051421e-16 4.010828980691822e-17 0.9980426210634343 -0.06253740113444249
12621598666.666666 0.9973046290648874 -0.07337218032448288 -1.0855012924044827e-16 4.129129627033685e-17 -1.0855012924044827e-16 4.129129627033685e-17 0.9973046785413519 -0.07337150781707735
12622216000.0 0.9964490746579953 -0.08419763424851524 -1.080704347990433e-16 4.246889072090139e-17 -1.080704347990433e-16 4.246889072090139e-17 0.9964491314315566 -0.08419696235088958
12622833333.333334 0.9954760165590762 -0.09501315938066644 -1.0757797449249728e-16 4.364093414983661e-17 -1.0757797449249728e-16 4.364093414983661e-17 0.9954760806223264 -0.0950124881719889
12623450666.666666 0.9943855695135849 -0.10581748032798276 -1.0707281233220485e-16 4.4807288267892165e-17 -1.0707281233220485e-16 4.4807288267892165e-17 0.9943856408582581 -0.10581680988733282
12624068000.0 0.9931778621097758 -0.11660932301868072 -1.0655501382650342e-16 4.596781552161965e-17 -1.0655501382650342e-16 4.596781552161965e-17 0.9931779407267457 -0.11660865342503922
12624685333.333334 0.9918530367635022 -0.12738741485264182 -1.0602464597222695e-16 4.712237910959122e-17 -1.0602464597222695e-16 4.712237910959122e-17 0.9918531226427877 -0.12738674618488222
12625302666.666666 0.9904112497014871 -0.13815048485097323 -1.0548177724612203e-16 4.8270842998440847e-17 -1.0548177724612203e-16 4.8270842998440847e-17 0.9904113428322514 -0.13814981718785202
12625920000.0 0.9888526709428198 -0.1488972638065331 -1.0492647759603493e-16 4.9413071938927254e-17 -1.0492647759603493e-16 4.9413071938927254e-17 0.988852771313372 -0.14889659722668064
12626537333.333334 0.9871774842789819 -0.1596264844330067 -1.0435881843197991e-16 5.0548931481779905e-17 -1.0435881843197991e-16 5.0548931481779905e-17 0.9871775918767796 -0.15962581901491812
12627154666.666666 0.9853858872521468 -0.1703368815146025 -1.0377887261700813e-16 5.167828799350274e-17 -1.0377887261700813e-16 5.167828799350274e-17 0.985386002063795 -0.1703362173366279
12627772000.0 0.9834780911318417 -0.1810271920554724 -1.0318671445789069e-16 5.2801008672103264e-17 -1.0318671445789069e-16 5.2801008672103264e-17 0.9834782131430975 -0.1810265291958083
12628389333.333334 0.9814543208901106 -0.19169615542819946 -1.0258241969568517e-16 5.391696156261325e-17 -1.0258241969568517e-16 5.391696156261325e-17 0.9814544500858823 -0.19169549396487906
12629006666.666666 0.9793148151749267 -0.20234251352278987 -1.0196606549606525e-16 5.502601557263332e-17 -1.0196606549606525e-16 5.502601557263332e-17 0.9793149515392775 -0.20234185353367423
12629624000.0 0.9770598262820693 -0.21296501089492037 -1.0133773043954842e-16 5.612804048764589e-17 -1.0133773043954842e-16 5.612804048764589e-17 0.9770599697982196 -0.2129643524576892
12630241333.333334 0.9746896201253862 -0.22356239491392782 -1.0069749451150639e-16 5.722290698631266e-17 -1.0069749451150639e-16 5.722290698631266e-17 0.974689770775714 -0.22356173810607022
12630858666.666666 0.9722044762054254 -0.23413341591057857 -1.0004543909205617e-16 5.831048665557874e-17 -1.0004543909205617e-16 5.831048665557874e-17 0.9722046339714681 -0.2341327608093835
12631476000.0 0.9696046875764529 -0.24467682732451443 -9.938164694573348e-17 5.939065200575582e-17 -9.938164694573348e-17 5.939065200575582e-17 0.969604852438913 -0.24467617400706282
12632093333.333334 0.9668905608119304 -0.2551913858511125 -9.870620221107106e-17 6.046327648537561e-17 -9.870620221107106e-17 6.046327648537561e-17 0.9668907327506739 -0.25519073439426687
12632710666.666666 0.9640624159683795 -0.26567585158804435 -9.801919038995823e-17 6.15282344960242e-17 -9.801919038995823e-17 6.15282344960242e-17 0.9640625949624402 -0.2656752020684404
12633328000.0 0.9611205865475424 -0.27612898818184417 -9.732069833686887e-17 6.258540140700798e-17 -9.732069833686887e-17 6.258540140700798e-17 0.9611207725751248 -0.276128340675882
12633945333.333334 0.9580654194571824 -0.28654956297323725 -9.661081424793095e-17 6.36346535699012e-17 -9.661081424793095e-17 6.36346535699012e-17 0.9580656124956637 -0.2865489175570718
12634562666.666666 0.9548972749700771 -0.296936347142854 -9.588962764983267e-17 6.467586833298148e-17 -9.588962764983267e-17 6.467586833298148e-17 0.9548974749960091 -0.29693570389238616
12635180000.0 0.9516165266816032 -0.3072881158558887 -9.515722938858343e-17 6.570892405552305e-17 -9.515722938858343e-17 6.570892405552305e-17 0.9516167336707171 -0.30728747484675706
12635797333.333334 0.9482235614656082 -0.3176036484067806 -9.441371161810001e-17 6.673370012199685e-17 -9.441371161810001e-17 6.673370012199685e-17 0.9482237753928162 -0.3176030097143518
12636414666.666666 0.9447187794288942 -0.3278817283628377 -9.365916778867767e-17 6.77500769560877e-17 -9.365916778867767e-17 6.77500769560877e-17 0.9447190002682923 -0.3278810920621975
12637032000.0 0.941102593863908 -0.33812114370805796 -9.289369263526087e-17 6.875793603465141e-17 -9.289369263526087e-17 6.875793603465141e-17 0.9411028215887807 -0.3381205098740035
12637649333.333334 0.9373754312001191 -0.3483206869857324 -9.211738216561502e-17 6.975715990147101e-17 -9.211738216561502e-17 6.975715990147101e-17 0.9373756657829411 -0.34832005569276214
12638266666.666666 0.9335377309536438 -0.3584791554410698 -9.133033364830909e-17 7.074763218093517e-17 -9.133033364830909e-17 7.074763218093517e-17 0.933537972366085 -0.358478526763376
12638884000.0 0.9295899456755011 -0.36859535116281844 -9.053264560058586e-17 7.17292375915376e-17 -9.053264560058586e-17 7.17292375915376e-17 0.929590193888426 -0.3685947251742764
12639501333.333334 0.9255325408981467 -0.3786680812247614 -8.972441777605299e-17 7.270186195928395e-17 -8.972441777605299e-17 7.270186195928395e-17 0.9255327958816236 -0.3786674579989234
12640118666.666666 0.9213659950807324 -0.38869615782602357 -8.890575115227838e-17 7.366539223090217e-17 -8.890575115227838e-17 7.366539223090217e-17 0.9213662568040334 -0.3886955374361085
12640736000.0 0.9170907995524222 -0.39867839843176955 -8.807674791816336e-17 7.461971648700915e-17 -8.807674791816336e-17 7.461971648700915e-17 0.917091067984027 -0.3986777809506546
12641353333.333334 0.9127074584548022 -0.4086136259118106 -8.723751146129525e-17 7.556472395499644e-17 -8.723751146129525e-17 7.556472395499644e-17 0.9127077335624034 -0.4086130114120231
12641970666.666666 0.9082164886821131 -0.4185006686801757 -8.6388146355033e-17 7.650030502192299e-17 -8.6388146355033e-17 7.650030502192299e-17 0.9082167704326194 -0.41850005723388445
12642588000.0 0.9036184198204984 -0.42833836083279697 -8.55287583455431e-17 7.742635124716171e-17 -8.55287583455431e-17 7.742635124716171e-17 0.9036187081800369 -0.42833775251180306
12643205333.333334 0.8989137940854601 -0.43812554228520373 -8.465945433867772e-17 7.834275537492901e-17 -8.465945433867772e-17 7.834275537492901e-17 0.8989140890193842 -0.4381249371609336
12643822666.666666 0.8941031662579092 -0.44786105890934813 -8.378034238668932e-17 7.924941134669795e-17 -8.378034238668932e-17 7.924941134669795e-17 0.8941034677307987 -0.4478604570528436
12644440000.0 0.8891871036188267 -0.4575437626695221 -8.289153167486668e-17 8.014621431340576e-17 -8.289153167486668e-17 8.014621431340576e-17 0.889187411594494 -0.45754316415143287
12645057333.333334 0.8841661858823354 -0.46717251175781505 -8.199313250799157e-17 8.103306064756444e-17 -8.199313250799157e-17 8.103306064756444e-17 0.8841665003238308 -0.46717191664839064
12645674666.666666 0.8790410051273008 -0.476746170728835 -8.108525629670511e-17 8.190984795518033e-17 -8.108525629670511e-17 8.190984795518033e-17 0.8790413259969149 -0.47674557909791593
12646292000.0 0.8738121657275066 -0.48626361063360063 -8.01680155436928e-17 8.277647508757366e-17 -8.01680155436928e-17 8.277647508757366e-17 0.8738124929867768 -0.48626302255061077
12646909333.333334 0.8684802842804576 -0.4957237091525467 -7.924152382982979e-17 8.363284215296277e-17 -7.924152382982979e-17 8.363284215296277e-17 0.8684806178901694 -0.4957231246864837
12647526666.666666 0.8630459895346363 -0.505125350727918 -7.830589580011215e-17 8.447885052797955e-17 -7.830589580011215e-17 8.447885052797955e-17 0.8630463294548332 -0.5051247699473481
12648144000.0 0.8575099223152823 -0.5144674266954707 -7.736124714951529e-17 8.531440286897998e-17 -7.736124714951529e-17 8.531440286897998e-17 0.8575102685052656 -0.5144668496685176
12648761333.333334 0.8518727354489165 -0.5237488354150323 -7.640769460873819e-17 8.613940312319393e-17 -7.640769460873819e-17 8.613940312319393e-17 0.8518730878672518 -0.5237482622093701
12649378666.666666 0.8461350936863904 -0.5329684824003618 -7.544535592980954e-17 8.695375653973322e-17 -7.544535592980954e-17 8.695375653973322e-17 0.8461354522909147 -0.5329679130832086
12649996000.0 0.8402976736243987 -0.5421252804483886 -7.447434987156457e-17 8.775736968045028e-17 -7.447434987156457e-17 8.775736968045028e-17 0.840298038372223 -0.5421247150864971
12650613333.333334 0.8343611636256872 -0.5512181497674133 -7.349479618503607e-17 8.855015043060859e-17 -7.349479618503607e-17 8.855015043060859e-17 0.8343615344732014 -0.5512175884270626
12651230666.666666 0.8283262637380489 -0.560246018104177 -7.250681559873848e-17 8.933200800938782e-17 -7.250681559873848e-17 8.933200800938782e-17 0.8283266406409288 -0.560245460851166
12651848000.0 0.822193685611511 -0.5692078208707096 -7.151052980377943e-17 9.010285298027426e-17 -7.151052980377943e-17 9.010285298027426e-17 0.8221940685247223 -0.5692072677703489
12652465333.333334 0.8159641524145985 -0.5781025012695821 -7.0506061438948e-17 9.086259726121581e-17 -7.0506061438948e-17 9.086259726121581e-17 0.8159645412924037 -0.5781019523866867
12653082666.666666 0.8096383987491134 -0.5869290104184607 -6.949353407563219e-17 9.161115413466304e-17 -6.949353407563219e-17 9.161115413466304e-17 0.8096387935450746 -0.586928465817341
12653700000.0 0.8032171705632246 -0.5956863074741859 -6.847307220264456e-17 9.234843825742864e-17 -6.847307220264456e-17 9.234843825742864e-17 0.8032175712302114 -0.5956857672186417
12654317333.333334 0.7967012250638523 -0.6043733597550259 -6.744480121096636e-17 9.307436567036488e-17 -6.744480121096636e-17 9.307436567036488e-17 0.7967016315540474 -0.604372823908339
12654934666.666666 0.7900913306271661 -0.6129891428627565 -6.640884737836742e-17 9.378885380788555e-17 -6.640884737836742e-17 9.378885380788555e-17 0.7900917428920683 -0.6129886114876811
12655552000.0 0.7833882667079108 -0.6215326408035198 -6.53653378539102e-17 9.449182150732904e-17 -6.53653378539102e-17 9.449182150732904e-17 0.7833886846983447 -0.6215321139622785
12656169333.333334 0.7765928237477799 -0.6300028461072789 -6.431440064242229e-17 9.518318901810285e-17 -6.431440064242229e-17 9.518318901810285e-17 0.776593247413899 -0.6300023238615527
12656786666.666666 0.7697058030819023 -0.6383987599469998 -6.32561645887816e-17 9.586287801071902e-17 -6.32561645887816e-17 9.586287801071902e-17 0.7697062323731948 -0.6383982423579211
12657404000.0 0.7627280168444863 -0.6467193922562544 -6.219075936217341e-17 9.653081158560838e-17 -6.219075936217341e-17 9.653081158560838e-17 0.762728451709784 -0.6467188793844024
12658021333.333334 0.7556602878730555 -0.6549637618459764 -6.111831544023426e-17 9.718691428177633e-17 -6.111831544023426e-17 9.718691428177633e-17 0.7556607282605363 -0.654963253751367
12658638666.666666 0.7485034496114713 -0.6631308965200988 -6.003896409311303e-17 9.783111208527687e-17 -6.003896409311303e-17 9.783111208527687e-17 0.7485038954686676 -0.6631303932621784
12659256000.0 0.7412583460114287 -0.6712198331904558 -5.895283736740183e-17 9.846333243753599e-17 -5.895283736740183e-17 9.846333243753599e-17 0.7412587972852331 -0.6712193348280955
12659873333.333334 0.7339258314331386 -0.679229617990115 -5.786006807004349e-17 9.908350424345764e-17 -5.786006807004349e-17 9.908350424345764e-17 0.7339262880698108 -0.679229124581603
12660490666.666666 0.7265067705446425 -0.6871593063858019 -5.676078975213346e-17 9.969155787936654e-17 -5.676078975213346e-17 9.969155787936654e-17 0.7265072324898135 -0.6871588179888354
12661108000.0 0.7190020382195164 -0.6950079632896319 -5.565513669258063e-17 1.0028742520080211e-16 -5.565513669258063e-17 1.0028742520080211e-16 0.7190025054181983 -0.6950074799613134
12661725333.333334 0.7114125194341354 -0.7027746631689261 -5.454324388179932e-17 1.0087103955007107e-16 -5.454324388179932e-17 1.0087103955007107e-16 0.7114129918307249 -0.702774184965753
12662342666.666666 0.7037391091629395 -0.7104584901557404 -5.342524700520485e-17 1.014423357636831e-16 -5.342524700520485e-17 1.014423357636831e-16 0.7037395867012267 -0.7104580171336013
12662960000.0 0.6959827122731549 -0.7180585381546029 -5.230128242672411e-17 1.0200125017955489e-16 -5.230128242672411e-17 1.0200125017955489e-16 0.6959831948963284 -0.7180580703687698
12663577333.333334 0.6881442434179085 -0.7255739109495433 -5.1171487172170977e-17 1.0254772064406414e-16 -5.1171487172170977e-17 1.0254772064406414e-16 0.6881447310685636 -0.7255734484546658
12664194666.666666 0.6802246269285339 -0.73300372230962 -5.0035998912580456e-17 1.0308168651890271e-16 -5.0035998912580456e-17 1.0308168651890271e-16 0.6802251195486784 -0.7330032651597178
12664812000.0 0.6722247967054058 -0.7403470960935808 -4.889495594747229e-17 1.0360308868774641e-16 -4.889495594747229e-17 1.0360308868774641e-16 0.6722252942364667 -0.7403466443420386
12665429333.333334 0.6641456961079574 -0.7476031663530451 -4.774849718801352e-17 1.0411186956275517e-16 -4.774849718801352e-17 1.0411186956275517e-16 0.6641461984907892 -0.7476027200526059
12666046666.666666 0.6559882778433764 -0.7547710774346765 -4.659676214017628e-17 1.0460797309085879e-16 -4.659676214017628e-17 1.0460797309085879e-16 0.6559887850182672 -0.7547706366374354
12666664000.0 0.6477535038541952 -0.7618499840811416 -4.5439890887736096e-17 1.0509134475989947e-16 -4.5439890887736096e-17 1.0509134475989947e-16 0.6477540157608725 -0.7618495488385387
12667281333.333334 0.6394423452049814 -0.7688390515306671 -4.4278024075329183e-17 1.0556193160453235e-16 -4.4278024075329183e-17 1.0556193160453235e-16 0.6394428617826224 -0.768838621893484
12667898666.666666 0.6310557819677898 -0.7757374556155214 -4.311130289133074e-17 1.0601968221199251e-16 -4.311130289133074e-17 1.0601968221199251e-16 0.6310563031550264 -0.7757370316338736
12668516000.0 0.6225948031064114 -0.7825443828593432 -4.1939869050751226e-17 1.0646454672763745e-16 -4.1939869050751226e-17 1.0646454672763745e-16 0.6225953288413375 -0.7825439645826737
12669133333.333334 0.614060406360127 -0.7892590305727629 -4.076386477805665e-17 1.0689647686031289e-16 -4.076386477805665e-17 1.0689647686031289e-16 0.6140609365803064 -0.7892586180498373
12669750666.666666 0.6054535981256538 -0.7958806069483803 -3.958343278992445e-17 1.0731542588753049e-16 -3.958343278992445e-17 1.0731542588753049e-16 0.6054541327681273 -0.7958802002272812
12670368000.0 0.596775393338734 -0.8024083311539215 -3.839871627794143e-17 1.0772134866045853e-16 -3.839871627794143e-17 1.0772134866045853e-16 0.5967759323400281 -0.8024079302820435
