! Parameters = {f0=12700.012000; bw=77.238000; Q=6100.000000; N=10; m_0_1=1.319414; m_1_1=1.026471; m_1_2=1.154226; m_2_2=1.025822; m_2_3=0.791189; m_2_8=0.003034; m_2_9=0.039738; m_3_3=1.023885; m_3_4=0.679718; m_3_7=0.003634; m_3_8=-0.093454; m_3_9=0.003034; m_4_4=1.020960; m_4_5=0.516053; m_4_6=0.007151; m_4_7=-0.114003; m_4_8=0.003634; m_5_5=1.021342; m_5_6=0.923408; m_5_7=0.007151; m_6_6=1.021341; m_6_7=0.516395; m_7_7=1.020974; m_7_8=0.679836; m_8_8=1.023883; m_8_9=0.791502; m_9_9=1.025817; m_9_10=1.155304; m_10_10=1.026461; m_10_11=1.320209}
!
! Created with skrf (http://scikit-rf.org).
# Hz S RI R 50.0 
!freq ReS11 ImS11 ReS21 ImS21 ReS12 ImS12 ReS22 ImS22
12607400000.0 -0.6875357769907887 0.7261505046183494 6.28945930391929e-17 -1.237917368258158e-16 6.28945930391929e-17 -1.237917368258158e-16 -0.6875362817033689 0.7261500267446904
12608017333.333334 -0.6787845985096373 0.7343374352611474 6.138355436686827e-17 -1.2451760365894347e-16 6.138355436686827e-17 -1.2451760365894347e-16 -0.6787851088875804 0.7343369634931127
12608634666.666666 -0.669935940481511 0.7424189084680987 5.986416116217349e-17 -1.2522503874766376e-16 5.986416116217349e-17 -1.2522503874766376e-16 -0.6699364564509697 0.742418442872836
12609252000.0 -0.6609910736530563 0.7503937636673096 5.833663810775515e-17 -1.259139462194744e-16 5.833663810775515e-17 -1.259139462194744e-16 -0.6609915951393895 0.7503933043110755
12609869333.333334 -0.6519512825873223 0.7582608555982275 5.680121098282728e-17 -1.265842329389702e-16 5.680121098282728e-17 -1.265842329389702e-16 -0.6519518095151035 0.7582604025463755
12610486666.666666 -0.6428178654794355 0.7660190544759791 5.525810662987495e-17 -1.2723580852032947e-16 5.525810662987495e-17 -1.2723580852032947e-16 -0.6428183977724639 0.7660186077929512
12611104000.0 -0.6335921339698426 0.7736672461538948 5.370755292113582e-17 -1.2786858533942802e-16 5.370755292113582e-17 -1.2786858533942802e-16 -0.6335926715511551 0.7736668059032122
12611721333.333334 -0.6242754129563811 0.7812043322831421 5.214977872507179e-17 -1.2848247854549256e-16 5.214977872507179e-17 -1.2848247854549256e-16 -0.6242759557482627 0.7812038985273966
12612338666.666666 -0.6148690404037306 0.7886292304706979 5.058501387258941e-17 -1.2907740607239696e-16 5.058501387258941e-17 -1.2907740607239696e-16 -0.6148695883277251 0.7886288032715418
12612956000.0 -0.6053743671511984 0.7959408744348385 4.901348912316862e-17 -1.2965328864953116e-16 4.901348912316862e-17 -1.2965328864953116e-16 -0.6053749201281204 0.7959404538529764
12613573333.333334 -0.5957927567190634 0.8031382141580047 4.7435436130936486e-17 -1.3021004981223465e-16 4.7435436130936486e-17 -1.3021004981223465e-16 -0.5957933146690094 0.8031378002531847
12614190666.666666 -0.5861255851124477 0.8102202160378378 4.585108741052043e-17 -1.3074761591185604e-16 4.585108741052043e-17 -1.3074761591185604e-16 -0.5861261479548088 0.8102198088688446
12614808000.0 -0.57637424062387 0.8171858630354958 4.4260676302844805e-17 -1.3126591612537724e-16 4.4260676302844805e-17 -1.3126591612537724e-16 -0.5763748082773418 0.8171854626601399
12615425333.333334 -0.5665401236337558 0.824034154821788 4.266443694083177e-17 -1.3176488246461875e-16 4.266443694083177e-17 -1.3176488246461875e-16 -0.5665406960163522 0.8240337612969006
12616042666.666666 -0.5566246464094731 0.8307641079207375 4.106260421496675e-17 -1.3224444978504072e-16 4.106260421496675e-17 -1.3224444978504072e-16 -0.5566252234385354 0.8307637213021585
12616660000.0 -0.546629232902422 0.8373747558508788 3.9455413738789317e-17 -1.3270455579411732e-16 3.9455413738789317e-17 -1.3270455579411732e-16 -0.5466298144946333 0.8373743761934516
12617277333.333334 -0.5365553185435442 0.843865149264055 3.784310181426617e-17 -1.3314514105930246e-16 3.784310181426617e-17 -1.3314514105930246e-16 -0.5365559046149402 0.843864776621618
12617894666.666666 -0.5264043500373243 0.8502343560816581 3.6225905397137395e-17 -1.3356614901555607e-16 3.6225905397137395e-17 -1.3356614901555607e-16 -0.5264049405033061 0.8502339905070373
12618512000.0 -0.5161777851536717 0.8564814616287156 3.460406206208676e-17 -1.33967525972478e-16 3.460406206208676e-17 -1.33967525972478e-16 -0.5161783799290165 0.856481103173716
12619129333.333334 -0.5058770925190499 0.8626055687649379 3.297780996793018e-17 -1.343492211209937e-16 3.297780996793018e-17 -1.343492211209937e-16 -0.5058776915179264 0.8626052174803395
12619746666.666666 -0.4955037514052611 0.8686057980137615 3.1347387822675815e-17 -1.347111865396332e-16 3.1347387822675815e-17 -1.347111865396332e-16 -0.49550435454123776 0.8686054539493065
12620364000.0 -0.4850592515169276 0.8744812876886782 2.9713034848517526e-17 -1.3505337720038602e-16 2.9713034848517526e-17 -1.3505337720038602e-16 -0.48505985870298873 0.8744809508930693
12620981333.333334 -0.47454509277792956 0.8802311940167743 2.80749907468248e-17 -1.3537575097411956e-16 2.80749907468248e-17 -1.3537575097411956e-16 -0.474545703926486 0.8802308645376654
12621598666.666666 -0.4639627851156829 0.8858546912600892 2.643349566298068e-17 -1.356782686355948e-16 2.643349566298068e-17 -1.356782686355948e-16 -0.463963400138585 0.8858543691440786
12622216000.0 -0.45331384824434684 0.8913509718341663 2.4788790151264634e-17 -1.3596089386803537e-16 2.4788790151264634e-17 -1.3596089386803537e-16 -0.45331446705289663 0.891350657126789
12622833333.333334 -0.4425998114466785 0.896719246423972 2.3141115139628178e-17 -1.3622359326728471e-16 2.3141115139628178e-17 -1.3622359326728471e-16 -0.442600433951644 0.8967189391696968
12623450666.666666 -0.43182221335441784 0.9019587440972572 2.1490711894452987e-17 -1.3646633634553305e-16 2.1490711894452987e-17 -1.3646633634553305e-16 -0.4318228394660451 0.9019584443394782
12624068000.0 -0.42098260172725055 0.9070687124153082 1.9837821985273424e-17 -1.3668909553461712e-16 1.9837821985273424e-17 -1.3668909553461712e-16 -0.42098323135527577 0.907068420196338
12624685333.333334 -0.41008253323040317 0.9120484175410564 1.8182687249445365e-17 -1.368918461888973e-16 1.8182687249445365e-17 -1.368918461888973e-16 -0.4100831662840665 0.9120481329021205
12625302666.666666 -0.39912357321150704 0.9168971443442766 1.652554975685616e-17 -1.370745665876996e-16 1.652554975685616e-17 -1.370745665876996e-16 -0.3991242095995659 0.9168968673255088
12625920000.0 -0.38810729547530814 0.9216141965045095 1.486665177449355e-17 -1.3723723793734423e-16 1.486665177449355e-17 -1.3723723793734423e-16 -0.3881079351060499 0.9216139271449449
12626537333.333334 -0.3770352820580443 0.9261988966108857 1.320623573115189e-17 -1.3737984437273087e-16 1.320623573115189e-17 -1.3737984437273087e-16 -0.3770359248392998 0.9261986349484563
12627154666.666666 -0.3659091230001219 0.9306505862594683 1.1544544182015527e-17 -1.3750237295850857e-16 1.1544544182015527e-17 -1.3750237295850857e-16 -0.36590976883927856 0.9306503323309973
12627772000.0 -0.35473041611750705 0.9349686261479101 9.881819773237434e-18 -1.3760481368981721e-16 9.881819773237434e-18 -1.3760481368981721e-16 -0.3547310649215222 0.9349683799891055
12628389333.333334 -0.34350076677279284 0.9391523961670517 8.218305206631877e-18 -1.3768715949259334e-16 8.218305206631877e-18 -1.3768715949259334e-16 -0.34350141844820686 0.9391521578125027
12629006666.666666 -0.3322217876441784 0.9432012954901609 6.554243204224189e-18 -1.3774940622345971e-16 6.554243204224189e-18 -1.3774940622345971e-16 -0.33222244209712903 0.943201064973333
12629624000.0 -0.32089509849408643 0.9471147426591354 4.889876472913139e-18 -1.377915526691811e-16 4.889876472913139e-18 -1.377915526691811e-16 -0.32089575563032163 0.9471145200123661
12630241333.333334 -0.30952232593655093 0.9508921756680084 3.225447669118044e-18 -1.3781360054569557e-16 3.225447669118044e-18 -1.3781360054569557e-16 -0.3095229856614421 0.9508919609224998
12630858666.666666 -0.29810510320370176 0.9545330520436266 1.5611993634587839e-18 -1.378155544967196e-16 1.5611993634587839e-18 -1.378155544967196e-16 -0.29810576542225825 0.954532845229445
12631476000.0 -0.2866450699108401 0.9580368489236831 -1.0262599460445308e-19 -1.377974220919275e-16 -1.0262599460445308e-19 -1.377974220919275e-16 -0.2866457345277224 0.9580366500697521
12632093333.333334 -0.2751438718214886 0.9614030631316351 -1.7657861119707064e-18 -1.377592138247042e-16 -1.7657861119707064e-18 -1.377592138247042e-16 -0.2751445387410218 0.9614028722657323
12632710666.666666 -0.2636031606107747 0.9646312112490559 -3.428038887174841e-18 -1.3770094310947465e-16 -3.428038887174841e-18 -1.3770094310947465e-16 -0.26360382973696306 0.9646310283978096
12633328000.0 -0.25202459362815327 0.9677208296850778 -5.089142445594992e-18 -1.3762262627860669e-16 -5.089142445594992e-18 -1.3762262627860669e-16 -0.25202526486469334 0.9677206548739625
12633945333.333334 -0.24040983365953175 0.9706714747429259 -6.748855174581908e-18 -1.3752428257889201e-16 -6.748855174581908e-18 -1.3752428257889201e-16 -0.2404105069098265 0.9706713079962601
12634562666.666666 -0.22876054868850776 0.9734827226836358 -8.406935758552066e-18 -1.374059341676031e-16 -8.406935758552066e-18 -1.374059341676031e-16 -0.22876122385568018 0.9734825640245754
12635180000.0 -0.21707841165674874 0.9761541697869219 -1.0063143214035546e-17 -1.3726760610812812e-16 -1.0063143214035546e-17 -1.3726760610812812e-16 -0.21707908864365633 0.9761540192374609
12635797333.333334 -0.20536510022374277 0.978685432409159 -1.17172369246696e-17 -1.3710932636518246e-16 -1.17172369246696e-17 -1.3710932636518246e-16 -0.20536577893299132 0.9786852899901254
12636414666.666666 -0.1936222965260107 0.9810761470384468 -1.3368976676070466e-17 -1.3693112579960402e-16 -1.3368976676070466e-17 -1.3693112579960402e-16 -0.19362297685996782 0.981076012769497
12637032000.0 -0.1818516869352575 0.9833259703468694 -1.5018122690710967e-17 -1.3673303816272212e-16 -1.5018122690710967e-17 -1.3673303816272212e-16 -0.1818523687960672 0.9833258442464886
12637649333.333334 -0.17005496181647264 0.9854345792397425 -1.6664435662658564e-17 -1.3651510009031397e-16 -1.6664435662658564e-17 -1.3651510009031397e-16 -0.17005564510606933 0.9854344613252414
12638266666.666666 -0.15823381528506808 0.9874016709020405 -1.830767679227384e-17 -1.362773510961374e-16 -1.830767679227384e-17 -1.362773510961374e-16 -0.15823449990519037 0.9874015611895518
12638884000.0 -0.14638994496350274 0.9892269628418909 -1.9947607820779032e-17 -1.3601983356505308e-16 -1.9947607820779032e-17 -1.3601983356505308e-16 -0.14639063081570805 0.9892268613463695
12639501333.333334 -0.1345250517376297 0.9909101929311248 -2.158399106477694e-17 -1.357425927457258e-16 -2.158399106477694e-17 -1.357425927457258e-16 -0.1345257387233077 0.9909100996663412
12640118666.666666 -0.12264083951251784 0.9924511194429044 -2.3216589450622304e-17 -1.3544567674291838e-16 -2.3216589450622304e-17 -1.3544567674291838e-16 -0.12264152753290562 0.9924510344214496
12640736000.0 -0.11073901496719318 0.9938495210865198 -2.484516654879869e-17 -1.3512913650935459e-16 -2.484516654879869e-17 -1.3512913650935459e-16 -0.11073970392338858 0.9938494443197977
12641353333.333334 -0.09882128731053055 0.9951051970390371 -2.6469486607995893e-17 -1.3479302583720414e-16 -2.6469486607995893e-17 -1.3479302583720414e-16 -0.0988219771035066 0.9951051285372641
12641970666.666666 -0.08688936803480837 0.996217966974257 -2.808931458928276e-17 -1.3443740134912022e-16 -2.808931458928276e-17 -1.3443740134912022e-16 -0.0868900585654279 0.9962179067464646
12642588000.0 -0.07494497067051661 0.9971876710885499 -2.9704416200043794e-17 -1.3406232248889008e-16 -2.9704416200043794e-17 -1.3406232248889008e-16 -0.07494566183954599 0.9971876191425783
12643205333.333334 -0.06298981054013672 0.9980141701238157 -3.131455792779779e-17 -1.336678515116776e-16 -3.131455792779779e-17 -1.336678515116776e-16 -0.06299050224826036 0.9980141264663155
12643822666.666666 -0.05102560451160762 0.9986973453874975 -3.2919507073958125e-17 -1.332540534738455e-16 -3.2919507073958125e-17 -1.332540534738455e-16 -0.05102629665944232 0.9986973100239299
12644440000.0 -0.03905407075208011 0.9992370987696072 -3.45190317873702e-17 -1.3282099622239463e-16 -3.45190317873702e-17 -1.3282099622239463e-16 -0.03905476324018912 0.9992370717042395
12645057333.333334 -0.02707692848103076 0.999633352756822 -3.6112901097776856e-17 -1.3236875038398551e-16 -3.6112901097776856e-17 -1.3236875038398551e-16 -0.02707762120993823 0.9996333339927306
12645674666.666666 -0.01509589772342351 0.9998860504436163 -3.7700884949115867e-17 -1.3189738935356572e-16 -3.7700884949115867e-17 -1.3189738935356572e-16 -0.015096590593628743 0.999886039982687
12646292000.0 -0.003112699062386204 0.9999951555404446 -3.928275423271999e-17 -1.3140698928258455e-16 -3.928275423271999e-17 -1.3140698928258455e-16 -0.003113391974377877 0.9999951533833674
12646909333.333334 0.008870946607340885 0.9999606523789328 -4.0858280820253756e-17 -1.3089762906684344e-16 -4.0858280820253756e-17 -1.3089762906684344e-16 0.008870253753070352 0.9999606585252078
12647526666.666666 0.02085331832691022 0.9997825459141442 -4.242723759661436e-17 -1.303693903339163e-16 -4.242723759661436e-17 -1.303693903339163e-16 0.020852625629850418 0.9997825603620782
12648144000.0 0.03283269532056896 0.9994608617238586 -4.398939849263058e-17 -1.298223574301879e-16 -4.398939849263058e-17 -1.298223574301879e-16 0.03283200288017718 0.9994608844705664
12648761333.333334 0.04480735724249358 0.9989956460049036 -4.5544538517552605e-17 -1.2925661740751735e-16 -4.5544538517552605e-17 -1.2925661740751735e-16 0.04480666515818058 0.9989956770463094
12649378666.666666 0.05677558442396067 0.9983869655665226 -4.7092433791423694e-17 -1.286722600094945e-16 -4.7092433791423694e-17 -1.286722600094945e-16 0.05677489279507635 0.998387004897359
12649996000.0 0.068735658120392 0.9976349078207758 -4.8632861577273704e-17 -1.2806937765731148e-16 -4.8632861577273704e-17 -1.2806937765731148e-16 0.06873496704621114 0.9976349554345854
12650613333.333334 0.08068586075820973 0.9967395807699811 -5.016560031312605e-17 -1.274480654352514e-16 -5.016560031312605e-17 -1.274480654352514e-16 0.08068517033791786 0.996739636659119
12651230666.666666 0.09262447618121199 0.9957011129912262 -5.169042964378106e-17 -1.2680842107581046e-16 -5.169042964378106e-17 -1.2680842107581046e-16 0.09262378651389098 0.9957011771468589
12651848000.0 0.1045497898973967 0.9945196536178761 -5.3207130452494644e-17 -1.2615054494440775e-16 -5.3207130452494644e-17 -1.2615054494440775e-16 0.10454910108201064 0.9945197260299838
12652465333.333334 0.11646008932500787 0.9931953723181675 -5.471548489239543e-17 -1.2547454002374473e-16 -5.471548489239543e-17 -1.2547454002374473e-16 0.11645940146038881 0.9931954529755456
12653082666.666666 0.12835366403830778 0.991728459270859 -5.621527641770487e-17 -1.2478051189778988e-16 -5.621527641770487e-17 -1.2478051189778988e-16 0.1283529772231418 0.991728548161122
12653700000.0 0.1402288060136059 0.9901191251378847 -5.770628981482688e-17 -1.2406856873535975e-16 -5.770628981482688e-17 -1.2406856873535975e-16 0.14022812034641846 0.9901192222474634
12654317333.333334 0.15208380987412176 0.9883676010341411 -5.918831123312503e-17 -1.233388212733775e-16 -5.918831123312503e-17 -1.233388212733775e-16 0.1520831254532641 0.988367706348289
12654934666.666666 0.16391697313514764 0.9864741384942755 -6.066112821559501e-17 -1.225913827997156e-16 -6.066112821559501e-17 -1.225913827997156e-16 0.1639162900587823 0.9864742519970686
12655552000.0 0.1757265964486512 0.9844390094365342 -6.212452972925111e-17 -1.218263691357045e-16 -6.212452972925111e-17 -1.218263691357045e-16 0.1757259148147382 0.984439131110875
12656169333.333334 0.18751098384689677 0.9822625061237851 -6.357830619529507e-17 -1.2104389861828326e-16 -6.357830619529507e-17 -1.2104389861828326e-16 0.18751030375317942 0.9822626359514044
12656786666.666666 0.19926844298636687 0.97994494112149 -6.502224951912592e-17 -1.20244092081754e-16 -6.502224951912592e-17 -1.20244092081754e-16 0.19926776453035758 0.9799450790829477
12657404000.0 0.21099728539073986 0.9774866472528154 -6.64561531200393e-17 -1.1942707283922368e-16 -6.64561531200393e-17 -1.1942707283922368e-16 0.2109966086697066 0.9774867933275074
12658021333.333334 0.22269582669325988 0.9748879775508654 -6.78798119607536e-17 -1.1859296666366173e-16 -6.78798119607536e-17 -1.1859296666366173e-16 0.22269515180421195 0.9748881317170243
12658638666.666666 0.23436238687859942 0.9721493052079897 -6.929302257665504e-17 -1.1774190176863038e-16 -6.929302257665504e-17 -1.1774190176863038e-16 0.23436171391827348 0.9721494674426872
12659256000.0 0.2459952905243464 0.9692710235221386 -7.069558310487319e-17 -1.1687400878862658e-16 -7.069558310487319e-17 -1.1687400878862658e-16 0.24599461958919275 0.9692711938012908
12659873333.333334 0.25759286704147033 0.9662535458404111 -7.208729331301419e-17 -1.1598942075913544e-16 -7.208729331301419e-17 -1.1598942075913544e-16 0.25759219822763907 0.9662537241387811
12660490666.666666 0.2691534509140692 0.9630973054997393 -7.346795462770667e-17 -1.150882730963076e-16 -7.346795462770667e-17 -1.150882730963076e-16 0.2691527843173968 0.963097491790942
12661108000.0 0.28067538193893876 0.9598027557645592 -7.48373701629258e-17 -1.1417070357627472e-16 -7.48373701629258e-17 -1.1417070357627472e-16 0.2806747176549332 0.9598029500210624
12661725333.333334 0.29215700546355117 0.9563703697618309 -7.619534474795391e-17 -1.1323685231419956e-16 -7.619534474795391e-17 -1.1323685231419956e-16 0.2921563435873798 0.9563705719549634
12662342666.666666 0.3035966726240904 0.9528006404129834 -7.75416849551906e-17 -1.1228686174292156e-16 -7.75416849551906e-17 -1.1228686174292156e-16 0.303596013250565 0.9528008505129355
12662960000.0 0.3149927405819425 0.9490940803632104 -7.887619912764596e-17 -1.1132087659130675e-16 -7.887619912764596e-17 -1.1132087659130675e-16 0.3149920838055063 0.9490942983390405
12663577333.333334 0.32634357275973125 0.945251221907819 -8.019869740615583e-17 -1.1033904386227831e-16 -8.019869740615583e-17 -1.1033904386227831e-16 0.3263429186744457 0.9452514477274577
12664194666.666666 0.3376475390764265 0.9412726169157607 -8.150899175635024e-17 -1.093415128105076e-16 -8.150899175635024e-17 -1.093415128105076e-16 0.3376468877759569 0.941272850546015
12664812000.0 0.3489030161812755 0.9371588367504294 -8.280689599534517e-17 -1.0832843491978489e-16 -8.280689599534517e-17 -1.0832843491978489e-16 0.3489023677588791 0.9371590781569897
12665429333.333334 0.36010838768706727 0.9329104721875681 -8.409222581812917e-17 -1.0729996388009272e-16 -8.409222581812917e-17 -1.0729996388009272e-16 0.36010774223557757 0.9329107213350081
12666046666.666666 0.37126204440207156 0.9285281333304913 -8.536479882367631e-17 -1.0625625556436089e-16 -8.536479882367631e-17 -1.0625625556436089e-16 0.37126140201388697 0.9285283901822785
12666664000.0 0.38236238456153077 0.9240124495223163 -8.662443454081888e-17 -1.0519746800487242e-16 -8.662443454081888e-17 -1.0519746800487242e-16 0.38236174532860157 0.9240127140408166
12667281333.333334 0.39340781405716146 0.9193640692557967 -8.787095445372755e-17 -1.0412376136944848e-16 -8.787095445372755e-17 -1.0412376136944848e-16 0.3934071780709749 0.9193643414022771
12667898666.666666 0.4043967466664232 0.9145836600800517 -8.91041820271952e-17 -1.0303529793724952e-16 -8.91041820271952e-17 -1.0303529793724952e-16 0.40439611401799214 0.9145839398146884
12668516000.0 0.4153276042803931 0.9096719085046658 -9.032394273159182e-17 -1.0193224207430262e-16 -9.032394273159182e-17 -1.0193224207430262e-16 0.4153269750602412 0.9096721957865482
12669133333.333334 0.426198817130003 0.9046295199012665 -9.153006406746602e-17 -1.0081476020878097e-16 -9.153006406746602e-17 -1.0081476020878097e-16 0.42619819142815446 0.9046298146884069
12669750666.666666 0.4370088240118417 0.8994572184020756 -9.272237558992483e-17 -9.968302080591797e-17 -9.272237558992483e-17 -9.968302080591797e-17 0.4370082019178045 0.8994575206514078
