! Parameters = {f0=12700.012000; bw=77.238000; Q=6100.000000; N=10; m_0_1=1.185681; m_1_1=-0.979535; m_1_2=1.020493; m_2_2=-0.980184; m_2_3=0.657456; m_2_8=-0.003652; m_2_9=0.033052; m_3_3=-0.982121; m_3_4=0.545985; m_3_7=-0.003052; m_3_8=-0.100140; m_3_9=-0.003652; m_4_4=-0.985046; m_4_5=0.382320; m_4_6=0.000465; m_4_7=-0.120689; m_4_8=-0.003052; m_5_5=-0.984664; m_5_6=0.789675; m_5_7=0.000465; m_6_6=-0.984665; m_6_7=0.382662; m_7_7=-0.985032; m_7_8=0.546103; m_8_8=-0.982123; m_8_9=0.657769; m_9_9=-0.980189; m_9_10=1.021571; m_10_10=-0.979545; m_10_11=1.186476}
!
! Created with skrf (http://scikit-rf.org).
# Hz S RI R 50.0 
!freq ReS11 ImS11 ReS21 ImS21 ReS12 ImS12 ReS22 ImS22
12607400000.0 0.12947621186466002 0.9915825283661583 -2.9630315606594413e-17 -6.673554284320121e-17 -2.9630315606594413e-17 -6.673554284320121e-17 0.12947559229231062 0.9915826092668236
12608017333.333334 0.1374346035368356 0.9905108428232977 -3.0165244847541677e-17 -6.647975528815183e-17 -3.0165244847541677e-17 -6.647975528815183e-17 0.13743398466441642 0.9905109286924134
12608634666.666666 0.14538413280402188 0.9893752846764815 -3.0697975685104285e-17 -6.621968474210665e-17 -3.0697975685104285e-17 -6.621968474210665e-17 0.14538351467137023 0.9893753755080253
12609252000.0 0.15332428704474424 0.9881759271516722 -3.122847386635119e-17 -6.595535002498958e-17 -3.122847386635119e-17 -6.595535002498958e-17 0.15332366969164565 0.9881760229393007
12609869333.333334 0.1612545542421007 0.9869128475888977 -3.175670529889604e-17 -6.568677023033257e-17 -3.175670529889604e-17 -6.568677023033257e-17 0.16125393770828664 0.9869129483259494
12610486666.666666 0.16917442301661093 0.9855861274372939 -3.228263605305984e-17 -6.54139647239211e-17 -3.228263605305984e-17 -6.54139647239211e-17 0.1691738073417562 0.9855862331167888
12611104000.0 0.17708338265961293 0.9841958522497819 -3.280623236406819e-17 -6.513695314239858e-17 -3.280623236406819e-17 -6.513695314239858e-17 0.1770827678833328 0.9841959628644209
12611721333.333334 0.18498092316563491 0.9827421116776446 -3.332746063419065e-17 -6.485575539187705e-17 -3.332746063419065e-17 -6.485575539187705e-17 0.18498030932748294 0.9827422272198114
12612338666.666666 0.1928665352656754 0.9812249994646793 -3.384628743489592e-17 -6.457039164651659e-17 -3.384628743489592e-17 -6.457039164651659e-17 0.19286592240514103 0.9812251199264422
12612956000.0 0.200739710459987 0.9796446134411635 -3.4362679508995066e-17 -6.428088234708747e-17 -3.4362679508995066e-17 -6.428088234708747e-17 0.2007390986164925 0.9796447388142727
12613573333.333334 0.20859994105072682 0.9780010555175694 -3.487660377274691e-17 -6.398724819952901e-17 -3.487660377274691e-17 -6.398724819952901e-17 0.2085993302636251 0.9780011857934601
12614190666.666666 0.2164467201748069 0.9762944316779723 -3.5388027317985924e-17 -6.368951017347284e-17 -3.5388027317985924e-17 -6.368951017347284e-17 0.21644611048337895 0.9762945668477642
12614808000.0 0.22427954183655133 0.974524851973223 -3.589691741421958e-17 -6.338768950075931e-17 -3.589691741421958e-17 -6.338768950075931e-17 0.22427893328000376 0.9745249920277214
12615425333.333334 0.23209790094032512 0.97269243051385 -3.6403241510705586e-17 -6.308180767394097e-17 -3.6403241510705586e-17 -6.308180767394097e-17 0.23209729355778716 0.9726925754435453
12616042666.666666 0.239901293323077 0.9707972854627073 -3.69069672385333e-17 -6.277188644476088e-17 -3.69069672385333e-17 -6.277188644476088e-17 0.23990068715359866 0.9707974352577772
12616660000.0 0.24768921578696096 0.9688395390273286 -3.7408062412681126e-17 -6.245794782262026e-17 -3.7408062412681126e-17 -6.245794782262026e-17 0.2476886108695102 0.9688396936776379
12617277333.333334 0.25546116613164643 0.9668193174520794 -3.790649503407354e-17 -6.214001407302219e-17 -3.790649503407354e-17 -6.214001407302219e-17 0.2554605625051065 0.966819476947181
12617894666.666666 0.26321664318667587 0.9647367510100282 -3.840223329159702e-17 -6.181810771601698e-17 -3.840223329159702e-17 -6.181810771601698e-17 0.2632160408898431 0.9647369153391631
12618512000.0 0.2709551468440281 0.9625919739944733 -3.8895245564146266e-17 -6.149225152460294e-17 -3.8895245564146266e-17 -6.149225152460294e-17 0.27095454591560947 0.9625921431465728
12619129333.333334 0.27867617809009565 0.9603851247103654 -3.9385500422614043e-17 -6.11624685231402e-17 -3.9385500422614043e-17 -6.11624685231402e-17 0.2786755785687056 0.9603852986740496
12619746666.666666 0.28637923903797013 0.958116345465351 -3.987296663189309e-17 -6.082878198573051e-17 -3.987296663189309e-17 -6.082878198573051e-17 0.28637864096212917 0.9581165242289325
12620364000.0 0.2940638329596597 0.9557857825605693 -4.03576131528648e-17 -6.0491215434582e-17 -4.03576131528648e-17 -6.0491215434582e-17 0.294063236367791 0.9557859661120512
12620981333.333334 0.30172946431784653 0.953393586281297 -4.0839409144350035e-17 -6.0149792638374e-17 -4.0839409144350035e-17 -6.0149792638374e-17 0.301728869248274 0.9533937746083749
12621598666.666666 0.3093756387980866 0.9509399108871825 -4.1318323965078814e-17 -5.980453761058442e-17 -4.1318323965078814e-17 -5.980453761058442e-17 0.3093750452890323 0.9509401039772464
12622216000.0 0.3170018633406583 0.9484249146023088 -4.17943271756287e-17 -5.945547460781319e-17 -4.17943271756287e-17 -5.945547460781319e-17 0.3170012714302397 0.9484251124424414
12622833333.333334 0.324607646172248 0.9458487596050223 -4.2267388540344286e-17 -5.910262812809381e-17 -4.2267388540344286e-17 -5.910262812809381e-17 0.3246070558984758 0.9458489621820019
12623450666.666666 0.33219249683766255 0.9432116120174762 -4.27374780292477e-17 -5.874602290918657e-17 -4.27374780292477e-17 -5.874602290918657e-17 0.33219190823843864 0.9432118193177773
12624068000.0 0.3397559262315643 0.9405136418948842 -4.320456581994959e-17 -5.838568392684521e-17 -4.320456581994959e-17 -5.838568392684521e-17 0.3397553393446783 0.9405138539046776
12624685333.333334 0.34729744663000955 0.9377550232145506 -4.366862229952408e-17 -5.802163639308461e-17 -4.366862229952408e-17 -5.802163639308461e-17 0.3472968614931372 0.9377552399197048
12625302666.666666 0.354816571721739 0.9349359338647107 -4.412961806636787e-17 -5.765390575443517e-17 -4.412961806636787e-17 -5.765390575443517e-17 0.3548159883724397 0.9349361552507931
12625920000.0 0.3623128166397778 0.9320565556329707 -4.4587523932075583e-17 -5.72825176901583e-17 -4.4587523932075583e-17 -5.72825176901583e-17 0.3623122351154917 0.9320567816852482
12626537333.333334 0.3697856979924087 0.9291170741946966 -4.504231092326282e-17 -5.690749811047643e-17 -4.504231092326282e-17 -5.690749811047643e-17 0.3697851183304548 0.9291173048981368
12627154666.666666 0.3772347338945834 0.9261176791009501 -4.549395028339088e-17 -5.652887315477597e-17 -4.549395028339088e-17 -5.652887315477597e-17 0.3772341561321569 0.9261179144402217
12627772000.0 0.3846594439989943 0.9230585637662604 -4.594241347459204e-17 -5.614666918978252e-17 -4.594241347459204e-17 -5.614666918978252e-17 0.3846588681731647 0.9230588037257358
12628389333.333334 0.39205934952678856 0.9199399254562646 -4.638767217943867e-17 -5.576091280775617e-17 -4.638767217943867e-17 -5.576091280775617e-17 0.39205877567449626 0.9199401700200187
12629006666.666666 0.3994339732988082 0.916761965274833 -4.682969830275252e-17 -5.537163082462654e-17 -4.682969830275252e-17 -5.537163082462654e-17 0.3994334014568629 0.9167622144266453
12629624000.0 0.40678283976607243 0.9135248881512193 -4.7268463973341555e-17 -5.497885027816095e-17 -4.7268463973341555e-17 -5.497885027816095e-17 0.40678226997115075 0.913525141874576
12630241333.333334 0.4141054750405742 0.9102289028267935 -4.770394154576429e-17 -5.4582598426083603e-17 -4.770394154576429e-17 -5.4582598426083603e-17 0.4141049073292173 0.9102291611048872
12630858666.666666 0.42140140692578726 0.9068742218416037 -4.813610360205166e-17 -5.418290274420322e-17 -4.813610360205166e-17 -5.418290274420322e-17 0.4214008413343982 0.9068744846573351
12631476000.0 0.4286701649472443 0.9034610615206117 -4.8564922953439777e-17 -5.377979092450423e-17 -4.8564922953439777e-17 -5.377979092450423e-17 0.4286696015120857 0.90346132885659
12632093333.333334 0.43591128038261606 0.899989641959859 -4.899037264205729e-17 -5.337329087325022e-17 -4.899037264205729e-17 -5.337329087325022e-17 0.4359107191398087 0.8999899137984053
12632710666.666666 0.4431242862921715 0.8964601870121734 -4.941242594261132e-17 -5.296343070906211e-17 -4.941242594261132e-17 -5.296343070906211e-17 0.44312372727769045 0.8964604633353181
12633328000.0 0.4503087175488586 0.8928729242727369 -4.9831056364068894e-17 -5.255023876097138e-17 -4.9831056364068894e-17 -5.255023876097138e-17 0.45030816079853225 0.8928732050622243
12633945333.333334 0.4574641108681732 0.8892280850644787 -5.0246237651301515e-17 -5.213374356648011e-17 -5.0246237651301515e-17 -5.213374356648011e-17 0.4574635564176799 0.889228370301766
12634562666.666666 0.4645900048381322 0.8855259044231008 -5.065794378672093e-17 -5.171397386960097e-17 -5.065794378672093e-17 -5.171397386960097e-17 0.4645894527229993 0.8855261940893618
12635180000.0 0.4716859399490066 0.8817666210819443 -5.106614899190481e-17 -5.1290958618878853e-17 -5.106614899190481e-17 -5.1290958618878853e-17 0.4716853902046067 0.8817669151580672
12635797333.333334 0.4787514586229486 0.8779504774565854 -5.1470827729199684e-17 -5.0864726965405076e-17 -5.1470827729199684e-17 -5.0864726965405076e-17 0.4787509112844983 0.8779507759231772
12636414666.666666 0.48578610524350063 0.8740777196292093 -5.187195470330948e-17 -5.043530826081825e-17 -5.187195470330948e-17 -5.043530826081825e-17 0.4857855603460578 0.8740780224665947
12637032000.0 0.49278942618497373 0.8701485973327372 -5.2269504862866663e-17 -5.000273205529188e-17 -5.2269504862866663e-17 -5.000273205529188e-17 0.4927888837634362 0.8701489045209633
12637649333.333334 0.4997609698417031 0.8661633639347298 -5.2663453401987574e-17 -4.95670280955106e-17 -5.2663453401987574e-17 -4.95670280955106e-17 0.4997604299308043 0.866163675453562
12638266666.666666 0.5067002866571395 0.862122276421053 -5.3053775761808867e-17 -4.9128226322634924e-17 -5.3053775761808867e-17 -4.9128226322634924e-17 0.5066997492914489 0.8621225922499821
12638884000.0 0.5136069291529425 0.8580255953792585 -5.344044763201459e-17 -4.8686356870247105e-17 -5.344044763201459e-17 -4.8686356870247105e-17 0.5136063943668608 0.8580259154974975
12639501333.333334 0.5204804519577082 0.8538735849818444 -5.382344495233335e-17 -4.824145006229821e-17 -5.382344495233335e-17 -4.824145006229821e-17 0.5204799197854676 0.8538739093683327
12640118666.666666 0.5273204118356443 0.8496665129692548 -5.42027439140231e-17 -4.7793536411039465e-17 -5.42027439140231e-17 -4.7793536411039465e-17 0.5273198823113046 0.849666841602659
12640736000.0 0.5341263677154904 0.8454046506324074 -5.457832096135989e-17 -4.7342646614916757e-17 -5.457832096135989e-17 -4.7342646614916757e-17 0.5341258408729372 0.8454049834911215
12641353333.333334 0.540897880718476 0.8410882727954947 -5.4950152793064453e-17 -4.688881155650717e-17 -5.4950152793064453e-17 -4.688881155650717e-17 0.5408973565914189 0.8410886098576427
12641970666.666666 0.5476345141869827 0.8367176577980382 -5.53182163637569e-17 -4.6432062300388493e-17 -5.53182163637569e-17 -4.6432062300388493e-17 0.5476339928089528 0.836717999041475
12642588000.0 0.5543358337125592 0.8322930874770312 -5.568248888536774e-17 -4.5972430091031866e-17 -5.568248888536774e-17 -4.5972430091031866e-17 0.5543353151169073 0.8322934328793452
12643205333.333334 0.5610014071639332 0.8278148471487654 -5.60429478285368e-17 -4.5509946350674425e-17 -5.60429478285368e-17 -4.5509946350674425e-17 0.5610008913838276 0.8278151966872788
12643822666.666666 0.5676308047149713 0.823283225590368 -5.639957092400667e-17 -4.504464267716726e-17 -5.639957092400667e-17 -4.504464267716726e-17 0.5676302917833949 0.8232835792421375
12644440000.0 0.5742235988722555 0.8186985150212756 -5.675233616397386e-17 -4.4576550841842795e-17 -5.675233616397386e-17 -4.4576550841842795e-17 0.5742230888220047 0.8186988727630955
12645057333.333334 0.5807793645027661 0.8140610110843102 -5.710122180344178e-17 -4.4105702787347855e-17 -5.710122180344178e-17 -4.4105702787347855e-17 0.5807788573664483 0.8140613728927136
12645674666.666666 0.5872976788611587 0.8093710128267143 -5.744620636155449e-17 -4.3632130625467743e-17 -5.744620636155449e-17 -4.3632130625467743e-17 0.58729717467119 0.8093713786779743
12646292000.0 0.5937781216172547 0.8046288226807017 -5.778726862290895e-17 -4.3155866634942594e-17 -5.778726862290895e-17 -4.3155866634942594e-17 0.5937776204058578 0.804629192550832
12646909333.333334 0.6002202748829135 0.7998347464441173 -5.812438763883887e-17 -4.267694325929126e-17 -5.812438763883887e-17 -4.267694325929126e-17 0.6002197766821175 0.7998351203088773
12647526666.666666 0.606623723239078 0.79498909326066 -5.845754272870095e-17 -4.219539310459448e-17 -5.845754272870095e-17 -4.219539310459448e-17 0.6066232280807123 0.7949894710955505
12648144000.0 0.6129880537626224 0.7900921755998851 -5.878671348113012e-17 -4.1711248937286815e-17 -5.878671348113012e-17 -4.1711248937286815e-17 0.6129875616783194 0.7900925573801564
12648761333.333334 0.619312856052873 0.7851443092371495 -5.911187975527905e-17 -4.1224543681935555e-17 -5.911187975527905e-17 -4.1224543681935555e-17 0.6193123670740623 0.7851446949377985
12649378666.666666 0.6255977222580467 0.7801458132332635 -5.943302168203233e-17 -4.073531041902016e-17 -5.943302168203233e-17 -4.073531041902016e-17 0.6255972364159559 0.7801462028290373
12649996000.0 0.6318422471017557 0.7750970099137598 -5.975011966521973e-17 -4.024358238267709e-17 -5.975011966521973e-17 -4.024358238267709e-17 0.6318417644274057 0.775097403379156
12650613333.333334 0.6380460279089356 0.7699982248482632 -6.006315438279451e-17 -3.974939295845867e-17 -6.006315438279451e-17 -3.974939295845867e-17 0.638045548433141 0.7699986221575333
12651230666.666666 0.6442086646318181 0.7648497868295032 -6.037210678799966e-17 -3.925277568107513e-17 -6.037210678799966e-17 -3.925277568107513e-17 0.6442081883851837 0.7648501879566527
12651848000.0 0.6503297598759226 0.7596520278519457 -6.067695811051924e-17 -3.875376423212004e-17 -6.067695811051924e-17 -3.875376423212004e-17 0.6503292868888417 0.7596524327707361
12652465333.333334 0.6564089189254612 0.7544052830905643 -6.09776898576003e-17 -3.8252392437804567e-17 -6.09776898576003e-17 -3.8252392437804567e-17 0.6564084492281155 0.7544056917745168
12653082666.666666 0.6624457497688853 0.7491098908791607 -6.127428381516654e-17 -3.77486942666678e-17 -6.127428381516654e-17 -3.77486942666678e-17 0.6624452833912398 0.7491103033015545
12653700000.0 0.6684398631242416 0.743766192688463 -6.156672204891289e-17 -3.7242703827276095e-17 -6.156672204891289e-17 -3.7242703827276095e-17 0.6684394000960461 0.743766608822341
12654317333.333334 0.6743908724640698 0.7383745331043033 -6.18549869053677e-17 -3.673445536593934e-17 -6.18549869053677e-17 -3.673445536593934e-17 0.674390412814853 0.7383749529224697
12654934666.666666 0.6802983940405123 0.7329352598052217 -6.213906101295545e-17 -3.622398326438535e-17 -6.213906101295545e-17 -3.622398326438535e-17 0.6802979377995835 0.7329356832802463
12655552000.0 0.6861620469100411 0.727448723540065 -6.241892728302963e-17 -3.5711322037443656e-17 -6.241892728302963e-17 -3.5711322037443656e-17 0.6861615941064871 0.7274491506442852
12656169333.333334 0.6919814529579188 0.7219152781054682 -6.269456891088339e-17 -3.5196506330728954e-17 -6.269456891088339e-17 -3.5196506330728954e-17 0.6919810036206011 0.7219157088109889
12656786666.666666 0.6977562369226624 0.7163352803229589 -6.296596937674952e-17 -3.467957091830058e-17 -6.296596937674952e-17 -3.467957091830058e-17 0.6977557910802177 0.7163357146016575
12657404000.0 0.7034860264202243 0.7107090900159725 -6.323311244677547e-17 -3.4160550700325157e-17 -6.323311244677547e-17 -3.4160550700325157e-17 0.7034855841010587 0.7107095278394958
12658021333.333334 0.7091704519680003 0.7050370699866415 -6.349598217398626e-17 -3.3639480700719446e-17 -6.349598217398626e-17 -3.3639480700719446e-17 0.7091700132002927 0.7050375113264139
12658638666.666666 0.7148091470086433 0.6993195859924305 -6.375456289921236e-17 -3.3116396064814605e-17 -6.375456289921236e-17 -3.3116396064814605e-17 0.7148087118203384 0.6993200308196494
12659256000.0 0.72040174793377 0.6935570067224589 -6.40088392520222e-17 -3.259133205696828e-17 -6.40088392520222e-17 -3.259133205696828e-17 0.7204013163525813 0.6935574550081021
12659873333.333334 0.725947894107318 0.6877497037738358 -6.425879615161163e-17 -3.206432405821507e-17 -6.425879615161163e-17 -3.206432405821507e-17 0.7259474661607217 0.6877501554886591
12660490666.666666 0.7314472278887565 0.6818980516277351 -6.450441880768858e-17 -3.1535407563883107e-17 -6.450441880768858e-17 -3.1535407563883107e-17 0.7314468036039936 0.6818985067422777
12661108000.0 0.7368993946564264 0.6760024276249607 -6.474569272133677e-17 -3.1004618181203596e-17 -6.474569272133677e-17 -3.1004618181203596e-17 0.7368989740604978 0.6760028861095442
12661725333.333334 0.7423040428300146 0.670063211942026 -6.498260368584911e-17 -3.047199162694021e-17 -6.498260368584911e-17 -3.047199162694021e-17 0.7423036259496806 0.6700636737667576
12662342666.666666 0.7476608238935178 0.6640807875663272 -6.521513778755702e-17 -2.993756372497672e-17 -6.521513778755702e-17 -2.993756372497672e-17 0.747660410755298 0.6640812527011029
12662960000.0 0.7529693924176032 0.6580555402715735 -6.544328140663198e-17 -2.940137040391724e-17 -6.544328140663198e-17 -2.940137040391724e-17 0.7529689830477722 0.6580560086860778
12663577333.333334 0.7582294060818799 0.6519878585929096 -6.566702121786359e-17 -2.8863447694687714e-17 -6.566702121786359e-17 -2.8863447694687714e-17 0.7582290005064662 0.6519883302566181
12664194666.666666 0.7634405256970489 0.6458781338017734 -6.588634419142626e-17 -2.832383172811518e-17 -6.588634419142626e-17 -2.832383172811518e-17 0.7634401239418349 0.6458786086839559
12664812000.0 0.7686024152266654 0.6397267598807981 -6.610123759362034e-17 -2.778255873251231e-17 -6.610123759362034e-17 -2.778255873251231e-17 0.7686020173171845 0.6397272379505201
12665429333.333334 0.773714741808899 0.6335341334982957 -6.631168898759956e-17 -2.7239665031243473e-17 -6.631168898759956e-17 -2.7239665031243473e-17 0.7737143477704341 0.6335346147244197
12666046666.666666 0.7787771757778718 0.6273006539828322 -6.65176862340661e-17 -2.6695187040315582e-17 -6.65176862340661e-17 -2.6695187040315582e-17 0.7787767856354537 0.6273011383340203
12666664000.0 0.7837893906851869 0.6210267232971468 -6.671921749196545e-17 -2.6149161265914677e-17 -6.671921749196545e-17 -2.6149161265914677e-17 0.7837890044635925 0.6210272107418627
12667281333.333334 0.7887510633206194 0.6147127460126725 -6.691627121913826e-17 -2.5601624301996232e-17 -6.691627121913826e-17 -2.5601624301996232e-17 0.7887506810443701 0.6147132365191833
12667898666.666666 0.7936618737332095 0.608359129283138 -6.710883617297467e-17 -2.5052612827813765e-17 -6.710883617297467e-17 -2.5052612827813765e-17 0.7936614954265716 0.6083596228195174
12668516000.0 0.7985215052518769 0.6019662828183355 -6.729690141103319e-17 -2.4502163605480574e-17 -6.729690141103319e-17 -2.4502163605480574e-17 0.7985211309388559 0.6019667793524636
12669133333.333334 0.803329644505664 0.5955346188579225 -6.74804562916416e-17 -2.3950313477525414e-17 -6.74804562916416e-17 -2.3950313477525414e-17 0.8033292742100074 0.5955351183574901
12669750666.666666 0.8080859814441885 0.5890645521445257 -6.7659490474486e-17 -2.3397099364418815e-17 -6.7659490474486e-17 -2.3397099364418815e-17 0.8080856151893819 0.5890650545770353
12670368000.0 0.8127902093574623 0.5825564998972202 -6.783399392117435e-17 -2.2842558262110417e-17 -6.783399392117435e-17 -2.2842558262110417e-17 0.8127898471667288 0.5825570052299889
