! Parameters = {f0=12700.012000; bw=77.238000; Q=6100.000000; N=10; m_0_1=1.296191; m_1_1=0.678122; m_1_2=1.131003; m_2_2=0.677473; m_2_3=0.767966; m_2_8=0.001873; m_2_9=0.038577; m_3_3=0.675536; m_3_4=0.656495; m_3_7=0.002473; m_3_8=-0.094615; m_3_9=0.001873; m_4_4=0.672611; m_4_5=0.492830; m_4_6=0.005990; m_4_7=-0.115164; m_4_8=0.002473; m_5_5=0.672993; m_5_6=0.900185; m_5_7=0.005990; m_6_6=0.672992; m_6_7=0.493172; m_7_7=0.672625; m_7_8=0.656613; m_8_8=0.675534; m_8_9=0.768279; m_9_9=0.677468; m_9_10=1.132081; m_10_10=0.678112; m_10_11=1.296986}
!
! Created with skrf (http://scikit-rf.org).
# Hz S RI R 50.0 
!freq ReS11 ImS11 ReS21 ImS21 ReS12 ImS12 ReS22 ImS22
12607400000.0 -0.795522176232438 -0.6059244731170891 1.1680524573288643e-16 4.435543644701426e-17 1.1680524573288643e-16 4.435543644701426e-17 -0.7955217624695371 -0.6059250163487043
12608017333.333334 -0.8023165326567862 -0.5968988033372215 1.1727972099827528e-16 4.3014230891118964e-17 1.1727972099827528e-16 4.3014230891118964e-17 -0.802316125077125 -0.5968993511816232
12608634666.666666 -0.809008492634444 -0.5877969537562794 1.1773880620021778e-16 4.166797412390959e-17 1.1773880620021778e-16 4.166797412390959e-17 -0.8090080912894314 -0.5877975061430997
12609252000.0 -0.8155972020974201 -0.5786200860069386 1.181824478579694e-16 4.0316842627761604e-17 1.181824478579694e-16 4.0316842627761604e-17 -0.8155968070376656 -0.5786206428652372
12609869333.333334 -0.8220818201552098 -0.5693693712960971 1.1861059451325136e-16 3.896101344772519e-17 1.1861059451325136e-16 3.896101344772519e-17 -0.8220814314305165 -0.5693699325543711
12610486666.666666 -0.8284615192020147 -0.560045990255538 1.1902319673612617e-16 3.7600664168366324e-17 1.1902319673612617e-16 3.7600664168366324e-17 -0.8284611368613702 -0.560046555841728
12611104000.0 -0.8347354850225407 -0.5506511327909899 1.1942020713061878e-16 3.6235972890509434e-17 1.1942020713061878e-16 3.6235972890509434e-17 -0.8347351091141147 -0.5506517026324926
12611721333.333334 -0.8409029168956922 -0.5411859979305944 1.1980158034004787e-16 3.486711820800398e-17 1.1980158034004787e-16 3.486711820800398e-17 -0.8409025474668282 -0.5411865719542702
12612338666.666666 -0.846963027696908 -0.5316517936716686 1.2016727305211407e-16 3.349427918435799e-17 1.2016727305211407e-16 3.349427918435799e-17 -0.8469626647941191 -0.5316523718038518
12612956000.0 -0.8529150439986783 -0.5220497368264345 1.2051724400371516e-16 3.2117635329336664e-17 1.2051724400371516e-16 3.2117635329336664e-17 -0.8529146876676379 -0.5220503189929412
12613573333.333334 -0.8587582061690229 -0.512381052867081 1.2085145398547788e-16 3.073736657557769e-17 1.2085145398547788e-16 3.073736657557769e-17 -0.8587578564545634 -0.5123816389932209
12614190666.666666 -0.864491768468657 -0.5026469757690287 1.2116986584604664e-16 2.9353653255061223e-17 1.2116986584604664e-16 2.9353653255061223e-17 -0.8644914254147614 -0.5026475657796129
12614808000.0 -0.8701149991460734 -0.49284874785358457 1.2147244449608764e-16 2.7966676075606257e-17 1.2147244449608764e-16 2.7966676075606257e-17 -0.8701146627958697 -0.4928493416729356
12615425333.333334 -0.875627180530947 -0.4829876196293648 1.21759156912028e-16 2.6576616097306636e-17 1.21759156912028e-16 2.6576616097306636e-17 -0.8756268509267052 -0.48298821718132745
12616042666.666666 -0.88102760912572 -0.4730648496327257 1.220299721395305e-16 2.518365470891704e-17 1.220299721395305e-16 2.518365470891704e-17 -0.8810272863088437 -0.47306545084067514
12616660000.0 -0.8863155956954343 -0.4630817042670382 1.2228486129668952e-16 2.3787973604240024e-17 1.2228486129668952e-16 2.3787973604240024e-17 -0.8863152797064562 -0.46308230905389014
12617277333.333334 -0.8914904653556287 -0.4530394576411871 1.2252379757696632e-16 2.2389754758444726e-17 1.2252379757696632e-16 2.2389754758444726e-17 -0.8914901562342081 -0.45304006592940904
12617894666.666666 -0.8965515576584656 -0.44293939140699035 1.2274675625184689e-16 2.0989180404400338e-17 1.2274675625184689e-16 2.0989180404400338e-17 -0.8965512554433803 -0.44294000311861015
12618512000.0 -0.9014982266771454 -0.4327827945953717 1.2295371467324164e-16 1.9586433008904822e-17 1.2295371467324164e-16 1.9586433008904822e-17 -0.901497931406288 -0.4327834096519877
12619129333.333334 -0.9063298410881627 -0.4225709634522009 1.2314465227559229e-16 1.8181695249036073e-17 1.2314465227559229e-16 1.8181695249036073e-17 -0.9063295527985372 -0.42257158177499304
12619746666.666666 -0.9110457842520038 -0.4123052012726349 1.2331955057773548e-16 1.6775149988313842e-17 1.2331955057773548e-16 1.6775149988313842e-17 -0.9110455029797176 -0.4123058227823728
12620364000.0 -0.9156454542918793 -0.401986818234674 1.2347839318447526e-16 1.5366980252969017e-17 1.2347839318447526e-16 1.5366980252969017e-17 -0.9156451800721412 -0.4019874428517288
12620981333.333334 -0.9201282641703656 -0.39161713123233804 1.2362116578789047e-16 1.3957369208176908e-17 1.2362116578789047e-16 1.3957369208176908e-17 -0.9201279970374842 -0.3916177588766934
12621598666.666666 -0.9244936417644992 -0.3811974637072383 1.2374785616837588e-16 1.2546500134239612e-17 1.2374785616837588e-16 1.2546500134239612e-17 -0.9244933817518707 -0.3811980942984975
12622216000.0 -0.9287410299387113 -0.3707291454798215 1.238584541954076e-16 1.1134556402794294e-17 1.238584541954076e-16 1.1134556402794294e-17 -0.9287407770788229 -0.37072977893722064
12622833333.333334 -0.9328698866159642 -0.3602135125796019 1.2395295182803722e-16 9.72172145302959e-18 1.2395295182803722e-16 9.72172145302959e-18 -0.9328696409403858 -0.36021414882201896
12623450666.666666 -0.9368796848468888 -0.3496519070747533 1.2403134311511685e-16 8.308178767888476e-18 1.2403134311511685e-16 8.308178767888476e-18 -0.9368794463862707 -0.3496525460207187
12624068000.0 -0.9407699128770795 -0.3390456769007209 1.2409362419525397e-16 6.894111850260708e-18 1.2409362419525397e-16 6.894111850260708e-18 -0.9407696816611499 -0.3390463184684287
12624685333.333334 -0.9445400742124586 -0.3283961756880568 1.2413979329649377e-16 5.4797041991924536e-18 1.2413979329649377e-16 5.4797041991924536e-18 -0.9445398502700146 -0.3283968197953731
12625302666.666666 -0.9481896876824767 -0.3177047625900859 1.2416985073573059e-16 4.065139286148185e-18 1.2416985073573059e-16 4.065139286148185e-18 -0.9481894710413886 -0.3177054091545622
12625920000.0 -0.951718287501718 -0.3069728021089385 1.241837989178519e-16 2.6506005311794947e-18 1.241837989178519e-16 2.6506005311794947e-18 -0.9517180781889182 -0.3069734510478197
12626537333.333334 -0.955125423329194 -0.29620166392180275 1.2418164233460812e-16 1.2362712792475543e-18 1.2418164233460812e-16 1.2362712792475543e-18 -0.9551252213706786 -0.2962023151520394
12627154666.666666 -0.9584106603258833 -0.2853927227059604 1.241633875632155e-16 -1.7766522354132672e-19 1.241633875632155e-16 -1.7766522354132672e-19 -0.9584104657467072 -0.28539337614421856
12627772000.0 -0.9615735792102729 -0.27454735796317703 1.2412904326468812e-16 -1.591025853660378e-18 1.2412904326468812e-16 -1.591025853660378e-18 -0.961573392034548 -0.27454801352584957
12628389333.333334 -0.9646137763117505 -0.26366695384405137 1.240786201819011e-16 -3.003627633791336e-18 1.240786201819011e-16 -3.003627633791336e-18 -0.9646135965626392 -0.2636676114472675
12629006666.666666 -0.9675308636222681 -0.25275289897084124 1.2401213113738326e-16 -4.415287756545158e-18 1.2401213113738326e-16 -4.415287756545158e-18 -0.9675306913219843 -0.25275355853047865
12629624000.0 -0.9703244688457365 -0.2418065862607064 1.2392959103084391e-16 -5.82582360802448e-18 1.2392959103084391e-16 -5.82582360802448e-18 -0.9703243040155403 -0.24180724769240058
12630241333.333334 -0.9729942354456104 -0.23082941274766 1.2383101683642894e-16 -7.235052791447008e-18 1.2383101683642894e-16 -7.235052791447008e-18 -0.972994078105808 -0.23083007596681654
12630858666.666666 -0.9755398226903468 -0.21982277940446535 1.237164275997115e-16 -8.642793150671627e-18 1.237164275997115e-16 -8.642793150671627e-18 -0.9755396728602854 -0.2198234443262695
12631476000.0 -0.9779609056969614 -0.20878809096353015 1.2358584443441162e-16 -1.0048862793747482e-17 1.2358584443441162e-16 -1.0048862793747482e-17 -0.9779607633950289 -0.20878875750295853
12632093333.333334 -0.9802571754724103 -0.19772675573798668 1.2343929051885516e-16 -1.1453080116335227e-17 1.2343929051885516e-16 -1.1453080116335227e-17 -0.9802570407160306 -0.19772742380981737
12632710666.666666 -0.9824283389530561 -0.1866401854418155 1.2327679109216204e-16 -1.2855263825145167e-17 1.2327679109216204e-16 -1.2855263825145167e-17 -0.9824282117586907 -0.18664085496063987
12633328000.0 -0.9844741190421248 -0.17552979500942437 1.2309837345016693e-16 -1.425523296133985e-17 1.2309837345016693e-16 -1.425523296133985e-17 -0.9844739994252653 -0.1755304658896568
12633945333.333334 -0.9863942546449779 -0.16439700241548175 1.229040669410832e-16 -1.5652806923800053e-17 1.229040669410832e-16 -1.5652806923800053e-17 -0.9863941426201507 -0.16439767457137194
12634562666.666666 -0.9881885007024952 -0.1532432284936978 1.2269390296089498e-16 -1.704780549241952e-17 1.2269390296089498e-16 -1.704780549241952e-17 -0.9881883962832549 -0.1532439018393406
12635180000.0 -0.989856628222333 -0.14206989675554324 1.2246791494848992e-16 -1.8440048851299177e-17 1.2246791494848992e-16 -1.8440048851299177e-17 -0.9898565314212628 -0.1420705712048904
12635797333.333334 -0.9913984243081557 -0.130878433208545 1.2222613838052402e-16 -1.9829357611907662e-17 1.2222613838052402e-16 -1.9829357611907662e-17 -0.991398335136864 -0.13087910867541538
12636414666.666666 -0.9928136921867899 -0.11967026617440259 1.2196861076603466e-16 -2.1215552836125517e-17 1.2196861076603466e-16 -2.1215552836125517e-17 -0.9928136106559114 -0.11967094257249389
12637032000.0 -0.9941022512333587 -0.10844682610655679 1.2169537164077968e-16 -2.2598456059291305e-17 1.2169537164077968e-16 -2.2598456059291305e-17 -0.9941021773525531 -0.10844750334945642
12637649333.333334 -0.9952639369943336 -0.09720954540762641 1.2140646256132531e-16 -2.3977889313125397e-17 1.2140646256132531e-16 -2.3977889313125397e-17 -0.9952638707722811 -0.09721022340882216
12638266666.666666 -0.9962986012085024 -0.08595985824673733 1.2110192709887102e-16 -2.5353675148601296e-17 1.2110192709887102e-16 -2.5353675148601296e-17 -0.9962985426529071 -0.08596053691962885
12638884000.0 -0.9972061118259088 -0.07469920037637254 1.207818108328166e-16 -2.6725636658733763e-17 1.207818108328166e-16 -2.6725636658733763e-17 -0.9972060609434946 -0.07469987963428215
12639501333.333334 -0.9979863530247037 -0.06342900894913285 1.2044616134406825e-16 -2.809359750130861e-17 1.2044616134406825e-16 -2.809359750130861e-17 -0.9979863098212141 -0.06342968870531662
12640118666.666666 -0.9986392252259098 -0.05215072233451697 1.2009502820809964e-16 -2.945738192147192e-17 1.2009502820809964e-16 -2.945738192147192e-17 -0.9986391897061087 -0.05215140250217594
12640736000.0 -0.9991646451061714 -0.04086577993475278 1.1972846298773227e-16 -3.081681477434388e-17 1.1972846298773227e-16 -3.081681477434388e-17 -0.9991646172738416 -0.04086646042704394
12641353333.333334 -0.9995625456083312 -0.02957562200208523 1.1934651922569934e-16 -3.217172154739141e-17 1.1934651922569934e-16 -3.217172154739141e-17 -0.9995625254662733 -0.02957630273213258
12641970666.666666 -0.9998328759500391 -0.018281689453969303 1.1894925243691502e-16 -3.352192838286639e-17 1.1894925243691502e-16 -3.352192838286639e-17 -0.9998328635000732 -0.018282370334875047
12642588000.0 -0.9999756016302058 -0.006985423689767723 1.1853672010052065e-16 -3.486726210004182e-17 1.1853672010052065e-16 -3.486726210004182e-17 -0.9999755968731692 -0.006986104634623267
12643205333.333334 -0.9999907044334145 0.004311733593379445 1.1810898165166455e-16 -3.6207550217405756e-17 1.1810898165166455e-16 -3.6207550217405756e-17 -0.999990707369164 0.004311052671482362
12643822666.666666 -0.9998781824322455 0.015608340584638102 1.1766609847303743e-16 -3.7542620974732015e-17 1.1766609847303743e-16 -3.7542620974732015e-17 -0.9998781930596544 0.01560765977259633
12644440000.0 -0.9996380499875194 0.026902955543350544 1.172081338861594e-16 -3.8872303355052734e-17 1.172081338861594e-16 -3.8872303355052734e-17 -0.9996380683044807 0.026902274928038417
12645057333.333334 -0.9992703377464662 0.03819413698306745 1.1673515314241752e-16 -4.0196427106529136e-17 1.1673515314241752e-16 -4.0196427106529136e-17 -0.9992703637498915 0.03819345665132573
12645674666.666666 -0.9987750926388186 0.04948044385549067 1.1624722341385764e-16 -4.1514822764211306e-17 1.1624722341385764e-16 -4.1514822764211306e-17 -0.9987751263246398 0.04947976389411548
12646292000.0 -0.9981523778708077 0.06076043573470087 1.1574441378371725e-16 -4.282732167172723e-17 1.1574441378371725e-16 -4.282732167172723e-17 -0.9981524192339741 0.06075975623043249
12646909333.333334 -0.9974022729171146 0.07203267300045355 1.152267952367494e-16 -4.413375600275937e-17 1.152267952367494e-16 -4.413375600275937e-17 -0.9974023219516002 0.07203199403996562
12647526666.666666 -0.9965248735107205 0.08329571702230998 1.1469444064926567e-16 -4.5433958782514506e-17 1.1469444064926567e-16 -4.5433958782514506e-17 -0.9965249302095169 0.08329503869219812
12648144000.0 -0.9955202916306751 0.09454813034318628 1.141474247789554e-16 -4.6727763909021606e-17 1.141474247789554e-16 -4.6727763909021606e-17 -0.9955203559857999 0.09454745272995739
12648761333.333334 -0.9943886554878265 0.10578847686269756 1.1358582425446967e-16 -4.8015006174302295e-17 1.1358582425446967e-16 -4.8015006174302295e-17 -0.9943887274903186 0.10578780005275844
12649378666.666666 -0.993130109508455 0.11701532202041316 1.1300971756476273e-16 -4.929552128542709e-17 1.1300971756476273e-16 -4.929552128542709e-17 -0.9931301891483791 0.11701464610005975
12649996000.0 -0.9917448143158174 0.12822723297919839 1.1241918504818203e-16 -5.0569145885476714e-17 1.1241918504818203e-16 -5.0569145885476714e-17 -0.9917449015822646 0.12822655803460467
12650613333.333334 -0.9902329467096727 0.1394227788078273 1.118143088813484e-16 -5.1835717574316265e-17 1.118143088813484e-16 -5.1835717574316265e-17 -0.9902330415907612 0.13942210492503426
12651230666.666666 -0.9885946996437205 0.15060053066360712 1.1119517306779037e-16 -5.309507492926632e-17 1.1119517306779037e-16 -5.309507492926632e-17 -0.988594802126599 0.1505998579285119
12651848000.0 -0.9868302822009409 0.16175906197498902 1.1056186342633175e-16 -5.434705752566769e-17 1.1056186342633175e-16 -5.434705752566769e-17 -0.9868303922717895 0.16175839047333407
12652465333.333334 -0.9849399195669454 0.17289694862338253 1.0991446757927603e-16 -5.55915059572518e-17 1.0991446757927603e-16 -5.55915059572518e-17 -0.9849400372109752 0.17289627844074423
12653082666.666666 -0.9829238530012437 0.1840127691248823 1.0925307494035047e-16 -5.682826185639703e-17 1.0925307494035047e-16 -5.682826185639703e-17 -0.9829239782027026 0.1840121003466605
12653700000.0 -0.9807823398063842 0.1951051048120782 1.0857777670239711e-16 -5.805716791428835e-17 1.0857777670239711e-16 -5.805716791428835e-17 -0.9807824725485573 0.19510443752348536
12654317333.333334 -0.9785156532952164 0.20617254001455504 1.078886658248946e-16 -5.927806790082725e-17 1.078886658248946e-16 -5.927806790082725e-17 -0.9785157935604273 0.20617187430060493
12654934666.666666 -0.9761240827559378 0.21721366223996 1.0718583702120108e-16 -6.049080668449563e-17 1.0718583702120108e-16 -6.049080668449563e-17 -0.9761242305255521 0.21721299818545745
12655552000.0 -0.9736079334151752 0.2282270623542452 1.0646938674558948e-16 -6.169523025204178e-17 1.0646938674558948e-16 -6.169523025204178e-17 -0.9736080886696024 0.22822640004377462
12656169333.333334 -0.9709675263990837 0.2392113347612594 1.0573941318010425e-16 -6.28911857279411e-17 1.0573941318010425e-16 -6.28911857279411e-17 -0.9709676891177789 0.23921067427917436
12656786666.666666 -0.9682031986922999 0.25016507758241596 1.0499601622112211e-16 -6.40785213938349e-17 1.0499601622112211e-16 -6.40785213938349e-17 -0.9682033688537705 0.25016441901282904
12657404000.0 -0.9653153030949788 0.2610868928354444 1.0423929746576695e-16 -6.525708670769098e-17 1.0423929746576695e-16 -6.525708670769098e-17 -0.9653154806767824 0.26108623626221544
12658021333.333334 -0.9623042081777171 0.2719753866129724 1.0346936019806806e-16 -6.642673232287362e-17 1.0346936019806806e-16 -6.642673232287362e-17 -0.9623043931564667 0.2719747321196983
12658638666.666666 -0.9591702982345969 0.28282916926012314 1.0268630937493165e-16 -6.758731010700947e-17 1.0268630937493165e-16 -6.758731010700947e-17 -0.9591704905859656 0.2828285169301278
12659256000.0 -0.9559139732340404 0.2936468555522569 1.0189025161186055e-16 -6.873867316075049e-17 1.0189025161186055e-16 -6.873867316075049e-17 -0.9559141729327602 0.29364620546857917
12659873333.333334 -0.9525356487678296 0.3044270648714848 1.0108129516852047e-16 -6.988067583628481e-17 1.0108129516852047e-16 -6.988067583628481e-17 -0.9525358557876988 0.30442641711686935
12660490666.666666 -0.9490357559980785 0.3151684213828754 1.0025954993406286e-16 -7.101317375573437e-17 1.0025954993406286e-16 -7.101317375573437e-17 -0.9490359703119625 0.3151677760397609
12661108000.0 -0.945414741602112 0.3258695542103151 9.942512741223079e-17 -7.213602382939392e-17 9.942512741223079e-17 -7.213602382939392e-17 -0.94541496318195 0.3258689113608255
12661725333.333334 -0.9416730677155952 0.3365290976110646 9.857814070630907e-17 -7.324908427373124e-17 9.857814070630907e-17 -7.324908427373124e-17 -0.9416732965324006 0.336528457336997
12662342666.666666 -0.937811211873415 0.34714569115046573 9.771870450382357e-17 -7.435221462927893e-17 9.771870450382357e-17 -7.435221462927893e-17 -0.9378114478972803 0.3471450535332805
12662960000.0 -0.9338296669488346 0.3577179798752729 9.684693506106328e-17 -7.544527577831608e-17 9.684693506106328e-17 -7.544527577831608e-17 -0.9338299101489362 0.35771734499608365
12663577333.333334 -0.9297289410905466 0.368244614486715 9.596295018741476e-17 -7.652812996235903e-17 9.596295018741476e-17 -7.652812996235903e-17 -0.9297291914351473 0.36824398242627787
12664194666.666666 -0.9255095576578249 0.37872425151267325 9.506686922948165e-17 -7.760064079949357e-17 9.506686922948165e-17 -7.760064079949357e-17 -0.92550981511428 0.3787236223513771
12664812000.0 -0.9211720551537366 0.3891555534791448 9.415881305502198e-17 -7.866267330150825e-17 9.415881305502198e-17 -7.866267330150825e-17 -0.9211723196884959 0.3891549272970003
12665429333.333334 -0.9167169871563969 0.3995371890809633 9.323890403669037e-17 -7.971409389084613e-17 9.323890403669037e-17 -7.971409389084613e-17 -0.9167172587350103 0.399536565957593
12666046666.666666 -0.9121449222483899 0.4098678333515522 9.230726603560764e-17 -8.075477041734841e-17 9.230726603560764e-17 -8.075477041734841e-17 -0.9121452008355132 0.4098672133661814
12666664000.0 -0.9074564439440345 0.4201461678324176 9.136402438469563e-17 -8.178457217486203e-17 9.136402438469563e-17 -8.178457217486203e-17 -0.90745672950343 0.4201455510638624
12667281333.333334 -0.9026521506151333 0.43037088074089347 9.040930587190809e-17 -8.280336991756133e-17 9.040930587190809e-17 -8.280336991756133e-17 -0.9026524431096794 0.43037026726755245
12667898666.666666 -0.8977326554144545 0.44054066713792767 8.944323872320212e-17 -8.381103587616439e-17 8.944323872320212e-17 -8.381103587616439e-17 -0.8977329548061469 0.440540057037771
12668516000.0 -0.8926985861974776 0.4506542290945951 8.8465952585363e-17 -8.480744377391055e-17 8.8465952585363e-17 -8.480744377391055e-17 -0.8926988924474353 0.4506536224451545
12669133333.333334 -0.8875505854423777 0.4607102758575185 8.747757850867485e-17 -8.579246884231766e-17 8.747757850867485e-17 -8.579246884231766e-17 -0.8875508985108501 0.4607096727358788
12669750666.666666 -0.8822893101679201 0.4707075240138336 8.647824892935748e-17 -8.676598783679689e-17 8.647824892935748e-17 -8.676598783679689e-17 -0.8822896300142887 0.47070692449662116
