! Parameters = {f0=12700.012000; bw=77.238000; Q=6100.000000; N=10; m_0_1=1.264359; m_1_1=0.200645; m_1_2=1.099171; m_2_2=0.199996; m_2_3=0.736134; m_2_8=0.000282; m_2_9=0.036986; m_3_3=0.198059; m_3_4=0.624663; m_3_7=0.000882; m_3_8=-0.096206; m_3_9=0.000282; m_4_4=0.195134; m_4_5=0.460998; m_4_6=0.004399; m_4_7=-0.116755; m_4_8=0.000882; m_5_5=0.195516; m_5_6=0.868353; m_5_7=0.004399; m_6_6=0.195515; m_6_7=0.461340; m_7_7=0.195148; m_7_8=0.624781; m_8_8=0.198057; m_8_9=0.736447; m_9_9=0.199991; m_9_10=1.100249; m_10_10=0.200635; m_10_11=1.265154}
!
! Created with skrf (http://scikit-rf.org).
# Hz S RI R 50.0 
!freq ReS11 ImS11 ReS21 ImS21 ReS12 ImS12 ReS22 ImS22
12607400000.0 -0.5129710819105406 -0.858405888332177 7.92252895445514e-17 7.294423285049521e-17 7.92252895445514e-17 7.294423285049521e-17 -0.5129705100833808 -0.8584062300476508
12608017333.333334 -0.5218332336487139 -0.8530475228611543 7.99671848198552e-17 7.209864805463594e-17 7.99671848198552e-17 7.209864805463594e-17 -0.5218326654188502 -0.8530478704631312
12608634666.666666 -0.5306394188675371 -0.8475976682033451 8.070006497678574e-17 7.124552830037764e-17 8.070006497678574e-17 7.124552830037764e-17 -0.5306388542955564 -0.8475980216539701
12609252000.0 -0.5393886931052773 -0.8420569088547438 8.142385360135644e-17 7.038496959937769e-17 8.142385360135644e-17 7.038496959937769e-17 -0.5393881322513692 -0.842057268115539
12609869333.333334 -0.5480801180040156 -0.8364258390607796 8.213847530105866e-17 6.951706873701503e-17 8.213847530105866e-17 6.951706873701503e-17 -0.5480795609279645 -0.8364262040926472
12610486666.666666 -0.5567127614099747 -0.8307050627527838 8.284385571267923e-17 6.864192326153835e-17 8.284385571267923e-17 6.864192326153835e-17 -0.5567122081711536 -0.8307054335160103
12611104000.0 -0.5652856974739427 -0.82489519348292 8.353992151003317e-17 6.7759631473097e-17 8.353992151003317e-17 6.7759631473097e-17 -0.5652851481313084 -0.8248955699371828
12611721333.333334 -0.5737980067500738 -0.8189968543587132 8.422660041151323e-17 6.687029241277731e-17 8.422660041151323e-17 6.687029241277731e-17 -0.5737974613621588 -0.8189972364630825
12612338666.666666 -0.5822487762948075 -0.8130106779760178 8.490382118759516e-17 6.597400585147221e-17 8.490382118759516e-17 6.597400585147221e-17 -0.5822482349197147 -0.813011065688962
12612956000.0 -0.5906370997648469 -0.806937306351116 8.557151366818705e-17 6.507087227872283e-17 8.557151366818705e-17 6.507087227872283e-17 -0.5906365624602428 -0.8069376996305058
12613573333.333334 -0.5989620775139954 -0.8007773908521292 8.622960874984586e-17 6.416099289150616e-17 8.622960874984586e-17 6.416099289150616e-17 -0.5989615443371045 -0.8007777896552425
12614190666.666666 -0.6072228166900577 -0.7945315921288575 8.687803840291746e-17 6.324446958289399e-17 8.687803840291746e-17 6.324446958289399e-17 -0.6072222876976565 -0.7945319964123844
12614808000.0 -0.6154184313303012 -0.7882005800421468 8.751673567853076e-17 6.232140493067434e-17 8.751673567853076e-17 6.232140493067434e-17 -0.6154179065787115 -0.7882009897621935
12615425333.333334 -0.6235480424566786 -0.7817850335918882 8.814563471546402e-17 6.139190218591249e-17 8.814563471546402e-17 6.139190218591249e-17 -0.6235475220017622 -0.7817854487039824
12616042666.666666 -0.6316107781699404 -0.77528564084432 8.876467074691548e-17 6.04560652614089e-17 8.876467074691548e-17 6.04560652614089e-17 -0.6316102620670927 -0.7752860613034155
12616660000.0 -0.639605773743215 -0.7687030988581797 8.937378010712305e-17 5.951399872012882e-17 8.937378010712305e-17 5.951399872012882e-17 -0.6396052620473596 -0.7687035246186614
12617277333.333334 -0.647532171714837 -0.762038113609873 8.99729002378915e-17 5.856580776352327e-17 8.99729002378915e-17 5.856580776352327e-17 -0.6475316644804189 -0.7620385446255614
12617894666.666666 -0.6553891219800456 -0.7552913999179721 9.056196969495867e-17 5.761159821984052e-17 9.056196969495867e-17 5.761159821984052e-17 -0.6553886192610268 -0.7552918361421294
12618512000.0 -0.6631757818825762 -0.7484636813662101 9.114092815429109e-17 5.665147653229212e-17 9.114092815429109e-17 5.665147653229212e-17 -0.6631752837324286 -0.7484641227515437
12619129333.333334 -0.6708913163045535 -0.7415556902262765 9.170971641818754e-17 5.568554974726183e-17 9.170971641818754e-17 5.568554974726183e-17 -0.670890822776254 -0.7415561367249456
12619746666.666666 -0.6785348977564495 -0.7345681673789503 9.22682764213229e-17 5.471392550235027e-17 9.22682764213229e-17 5.471392550235027e-17 -0.6785344089024744 -0.73456861894257
12620364000.0 -0.6861057064656785 -0.7275018622347696 9.281655123662475e-17 5.373671201442419e-17 9.281655123662475e-17 5.373671201442419e-17 -0.6861052223379971 -0.7275023188144164
12620981333.333334 -0.6936029304643927 -0.7203575326537726 9.335448508102724e-17 5.275401806760547e-17 9.335448508102724e-17 5.275401806760547e-17 -0.6936024511144633 -0.7203579941999906
12621598666.666666 -0.7010257656768396 -0.7131359448639696 9.388202332112576e-17 5.1765953001152433e-17 9.388202332112576e-17 5.1765953001152433e-17 -0.7010252911556012 -0.7131364113267734
12622216000.0 -0.7083734160053443 -0.7058378733793929 9.439911247866633e-17 5.077262669735148e-17 9.439911247866633e-17 5.077262669735148e-17 -0.7083729463632161 -0.7058383447082777
12622833333.333334 -0.7156450934159024 -0.698464100916839 9.490570023594021e-17 4.977414956929602e-17 9.490570023594021e-17 4.977414956929602e-17 -0.7156446287027729 -0.6984645770607806
12623450666.666666 -0.7228400180224698 -0.6910154183121389 9.540173544101766e-17 4.8770632548671163e-17 9.540173544101766e-17 4.8770632548671163e-17 -0.7228395582876946 -0.691015899219602
12624068000.0 -0.729957418170768 -0.6834926244351817 9.58871681128878e-17 4.7762187073419144e-17 9.58871681128878e-17 4.7762187073419144e-17 -0.7299569634631644 -0.683493110054126
12624685333.333334 -0.7369965305211192 -0.6758965261041503 9.636194944644105e-17 4.674892507540852e-17 9.636194944644105e-17 4.674892507540852e-17 -0.7369960808889607 -0.6758970163820355
12625302666.666666 -0.7439566001299857 -0.6682279379993453 9.682603181732857e-17 4.573095896804098e-17 9.682603181732857e-17 4.573095896804098e-17 -0.7439561556209967 -0.668228432883136
12625920000.0 -0.750836880531381 -0.6604876825753303 9.727936878670279e-17 4.470840163378573e-17 9.727936878670279e-17 4.470840163378573e-17 -0.7508364411927311 -0.6604881820115021
12626537333.333334 -0.7576366338165044 -0.652676589973183 9.772191510580967e-17 4.368136641170323e-17 9.772191510580967e-17 4.368136641170323e-17 -0.757636199694805 -0.652677093907729
12627154666.666666 -0.7643551307131518 -0.6447954979311709 9.815362672045546e-17 4.264996708491337e-17 9.815362672045546e-17 4.264996708491337e-17 -0.7643547018544504 -0.6447960063096075
12627772000.0 -0.7709916506639073 -0.6368452516949223 9.857446077535995e-17 4.161431786797518e-17 9.857446077535995e-17 4.161431786797518e-17 -0.7709912271136821 -0.636845764462294
12628389333.333334 -0.7775454819032221 -0.6288267039270136 9.898437561833487e-17 4.0574533394325374e-17 9.898437561833487e-17 4.0574533394325374e-17 -0.7775450637063772 -0.6288272210278996
12629006666.666666 -0.7840159215340773 -0.6207407146151259 9.938333080438188e-17 3.953072870354953e-17 9.938333080438188e-17 3.953072870354953e-17 -0.7840155087349391 -0.6207412359936467
12629624000.0 -0.7904022756030462 -0.6125881509802099 9.977128709960928e-17 3.8483019228732607e-17 9.977128709960928e-17 3.8483019228732607e-17 -0.7904018682453571 -0.612588676580032
12630241333.333334 -0.7967038591749686 -0.6043698873831639 1.0014820648505243e-16 3.743152078367804e-17 1.0014820648505243e-16 3.743152078367804e-17 -0.7967034573018835 -0.6043704171475069
12630858666.666666 -0.8029199964061666 -0.5960868052313745 1.0051405216033031e-16 3.637634955016699e-17 1.0051405216033031e-16 3.637634955016699e-17 -0.8029196000602488 -0.5960873391030175
12631476000.0 -0.8090500206172572 -0.5877397928837562 1.0086878854719674e-16 3.531762206510551e-17 1.0086878854719674e-16 3.531762206510551e-17 -0.809049629840472 -0.5877403308050425
12632093333.333334 -0.8150932743643078 -0.579329745555928 1.0121238129293192e-16 3.4255455207706626e-17 1.0121238129293192e-16 3.4255455207706626e-17 -0.8150928891980196 -0.5793302874687726
12632710666.666666 -0.821049109509506 -0.5708575652239989 1.0154479727360865e-16 3.318996618661445e-17 1.0154479727360865e-16 3.318996618661445e-17 -0.8210487299944733 -0.5708581110698945
12633328000.0 -0.8269168872908 -0.5623241605276449 1.0186600459723587e-16 3.2121272526956755e-17 1.0186600459723587e-16 3.2121272526956755e-17 -0.8269165134671712 -0.562324710247668
12633945333.333334 -0.8326959783901422 -0.5537304466730271 1.0217597260673929e-16 3.1049492057455047e-17 1.0217597260673929e-16 3.1049492057455047e-17 -0.8326956102974518 -0.5537310002078445
12634562666.666666 -0.8383857630011974 -0.5450773453343349 1.0247467188283346e-16 2.997474289741967e-17 1.0247467188283346e-16 2.997474289741967e-17 -0.8383854006783618 -0.545077902624211
12635180000.0 -0.843985630895672 -0.5363657845551483 1.0276207424673801e-16 2.889714344378204e-17 1.0276207424673801e-16 2.889714344378204e-17 -0.8439852743809845 -0.5363663455399492
12635797333.333334 -0.8494949814889018 -0.5275966986486902 1.0303815276277304e-16 2.781681235804932e-17 1.0303815276277304e-16 2.781681235804932e-17 -0.8494946308200285 -0.5275972632678922
12636414666.666666 -0.8549132239040779 -0.5187710280979084 1.0330288174080104e-16 2.6733868553296848e-17 1.0330288174080104e-16 2.6733868553296848e-17 -0.854912879118056 -0.5187715962906049
12637032000.0 -0.8602397770358362 -0.509889719454276 1.0355623673855234e-16 2.564843118106185e-17 1.0355623673855234e-16 2.564843118106185e-17 -0.8602394381690663 -0.5098902911591813
12637649333.333334 -0.8654740696124092 -0.5009537252365343 1.0379819456379443e-16 2.4560619618289758e-17 1.0379819456379443e-16 2.4560619618289758e-17 -0.8654737367006547 -0.5009543003919931
12638266666.666666 -0.8706155402569583 -0.4919640038284415 1.0402873327637534e-16 2.347055345421692e-17 1.0402873327637534e-16 2.347055345421692e-17 -0.8706152133353411 -0.49196458237243496
12638884000.0 -0.875663637547823 -0.4829215193759127 1.0424783219012908e-16 2.2378352477238266e-17 1.0424783219012908e-16 2.2378352477238266e-17 -0.8756633166508186 -0.4829221012460641
12639501333.333334 -0.8806178200775774 -0.4738272416837628 1.044554718746372e-16 2.1284136661784923e-17 1.044554718746372e-16 2.1284136661784923e-17 -0.8806175052390108 -0.47382782681734414
12640118666.666666 -0.8854775565111198 -0.4646821461116439 1.0465163415685826e-16 2.018802615516609e-17 1.0465163415685826e-16 2.018802615516609e-17 -0.8854772477641649 -0.46468273444558467
12640736000.0 -0.8902423256427723 -0.4554872134692411 1.0483630212262468e-16 1.909014126436125e-17 1.0483630212262468e-16 1.909014126436125e-17 -0.8902420230199453 -0.4554878049401329
12641353333.333334 -0.8949116164519619 -0.4462434299114807 1.0500946011798198e-16 1.799060244291656e-17 1.0500946011798198e-16 1.799060244291656e-17 -0.8949113199851193 -0.4462440244555851
12641970666.666666 -0.8994849281582148 -0.43695178683241287 1.0517109375041545e-16 1.6889530277684142e-17 1.0517109375041545e-16 1.6889530277684142e-17 -0.8994846378785495 -0.436952384385668
12642588000.0 -0.9039617702747712 -0.4276132807590619 1.0532118988992277e-16 1.578704547564151e-17 1.0532118988992277e-16 1.578704547564151e-17 -0.9039614862128107 -0.4276138812570899
12643205333.333334 -0.9083416626612447 -0.418228913244448 1.054597366699503e-16 1.468326885070018e-17 1.054597366699503e-16 1.468326885070018e-17 -0.9083413848468457 -0.41822951662256097
12643822666.666666 -0.9126241355750757 -0.4087996907602455 1.0558672348819868e-16 1.3578321310453847e-17 1.0558672348819868e-16 1.3578321310453847e-17 -0.9126238640374219 -0.4088002969534531
12644440000.0 -0.9168087297219477 -0.39932662458876295 1.0570214100727956e-16 1.2472323842996419e-17 1.0570214100727956e-16 1.2472323842996419e-17 -0.9168084644895472 -0.39932723353177935
12645057333.333334 -0.920894996304967 -0.3898107307146645 1.0580598115524395e-16 1.1365397503670522e-17 1.0580598115524395e-16 1.1365397503670522e-17 -0.9208947374056493 -0.38981134234191556
12645674666.666666 -0.9248824970728882 -0.3802530297157987 1.0589823712596499e-16 1.0257663401864795e-17 1.0589823712596499e-16 1.0257663401864795e-17 -0.9248822445338007 -0.3802536439614288
12646292000.0 -0.9287708043671138 -0.37065454665374026 1.0597890337939027e-16 9.149242687741297e-18 1.0597890337939027e-16 9.149242687741297e-18 -0.9287705582147184 -0.3706551634516189
12646909333.333334 -0.9325595011674525 -0.36101631096411474 1.0604797564164652e-16 8.040256539069089e-18 1.0604797564164652e-16 8.040256539069089e-18 -0.9325592614275238 -0.3610169302478444
12647526666.666666 -0.9362481811369835 -0.3513393563458505 1.0610545090501399e-16 6.9308261479604244e-18 1.0610545090501399e-16 6.9308261479604244e-18 -0.9362479478346069 -0.35133997804877387
12648144000.0 -0.9398364486655515 -0.34162472065052474 1.0615132742776083e-16 5.821072707643816e-18 1.0615132742776083e-16 5.821072707643816e-18 -0.9398362218251198 -0.34162534470573175
12648761333.333334 -0.9433239189122378 -0.3318734457709491 1.0618560473383614e-16 4.7111173992812535e-18 1.0618560473383614e-16 4.7111173992812535e-18 -0.9433236985574468 -0.3318740721112833
12649378666.666666 -0.9467102178465538 -0.32208657752963926 1.0620828361242998e-16 3.6010813787346606e-18 1.0620828361242998e-16 3.6010813787346606e-18 -0.9467100040004024 -0.32208720608770597
12649996000.0 -0.9499949822886831 -0.3122651655663036 1.0621936611739179e-16 2.491085763373365e-18 1.0621936611739179e-16 2.491085763373365e-18 -0.9499947749734695 -0.3122657962744769
12650613333.333334 -0.9531778599483345 -0.3024102632255371 1.0621885556651406e-16 1.3812516188668752e-18 1.0621885556651406e-16 1.3812516188668752e-18 -0.9531776591856554 -0.30241089601596727
12651230666.666666 -0.9562585094625244 -0.2925229274438791 1.0620675654067648e-16 2.7169994603968796e-19 1.0620675654067648e-16 2.7169994603968796e-19 -0.9562583152732708 -0.2925235622484994
12651848000.0 -0.9592366004322935 -0.2826042186361036 1.061830748828532e-16 -8.374483323522347e-19 1.061830748828532e-16 -8.374483323522347e-19 -0.9592364128366496 -0.2826048553866384
12652465333.333334 -0.9621118134580079 -0.2726552005819243 1.0614781769698342e-16 -1.9460723847256618e-18 1.0614781769698342e-16 -1.9460723847256618e-18 -0.9621116324754491 -0.2726558392098955
12653082666.666666 -0.9648838401736842 -0.26267694031168787 1.0610099334670488e-16 -3.054051483834713e-18 1.0610099334670488e-16 -3.054051483834713e-18 -0.9648836658229747 -0.2626775807484229
12653700000.0 -0.9675523832800743 -0.25267050799187946 1.0604261145394896e-16 -4.161265019903835e-18 1.0604261145394896e-16 -4.161265019903835e-18 -0.9675522155792647 -0.2526711501685185
12654317333.333334 -0.9701171565765035 -0.24263697681051202 1.0597268289740241e-16 -5.267592513700668e-18 1.0597268289740241e-16 -5.267592513700668e-18 -0.9701169955429311 -0.24263762065801547
12654934666.666666 -0.972577884991587 -0.23257742286197317 1.0589121981082898e-16 -6.37291362965891e-18 1.0589121981082898e-16 -6.37291362965891e-18 -0.9725777306418701 -0.23257806831112865
12655552000.0 -0.9749343046127781 -0.2224929250313921 1.0579823558125611e-16 -7.477108188938127e-18 1.0579823558125611e-16 -7.477108188938127e-18 -0.974934156962818 -0.22249357201282247
12656169333.333334 -0.9771861627145699 -0.21238456487937246 1.0569374484702874e-16 -8.580056182434418e-18 1.0569374484702874e-16 -8.580056182434418e-18 -0.977186021779548 -0.21238521332354302
12656786666.666666 -0.9793332177856856 -0.2022534265256352 1.0557776349572262e-16 -9.681637783836651e-18 1.0557776349572262e-16 -9.681637783836651e-18 -0.9793330835800614 -0.20225407636286116
12657404000.0 -0.9813752395549664 -0.19210059653280248 1.0545030866192417e-16 -1.0781733362615513e-17 1.0545030866192417e-16 -1.0781733362615513e-17 -0.9813751120924759 -0.1921012476932564
12658021333.333334 -0.9833120090160361 -0.18192716379000243 1.0531139872487723e-16 -1.1880223496977222e-17 1.0531139872487723e-16 -1.1880223496977222e-17 -0.9833118883096912 -0.18192781620372178
12658638666.666666 -0.9851433184508088 -0.1717342193960028 1.0516105330599262e-16 -1.2976988986813435e-17 1.0516105330599262e-16 -1.2976988986813435e-17 -0.9851432045128972 -0.17173487299289775
12659256000.0 -0.98686897145178 -0.16152285654213558 1.0499929326622289e-16 -1.407191086661886e-17 1.0499929326622289e-16 -1.407191086661886e-17 -0.9868688642938596 -0.16152351125199585
12659873333.333334 -0.98848878294308 -0.15129417039507928 1.0482614070330451e-16 -1.5164870418369325e-17 1.0482614070330451e-16 -1.5164870418369325e-17 -0.9884886825759813 -0.1512948261475822
12660490666.666666 -0.9900025792002881 -0.1410492579796272 1.0464161894886926e-16 -1.625574918434699e-17 1.0464161894886926e-16 -1.625574918434699e-17 -0.9900024856341132 -0.14104991470434522
12661108000.0 -0.9914101978691476 -0.13078921806052682 1.0444575256541049e-16 -1.7344428980009554e-17 1.0444575256541049e-16 -1.7344428980009554e-17 -0.9914101111132685 -0.1307898756869351
12661725333.333334 -0.9927114879828852 -0.12051515102522724 1.042385673431353e-16 -1.843079190670578e-17 1.042385673431353e-16 -1.843079190670578e-17 -0.9927114080459408 -0.12051580948271079
12662342666.666666 -0.993906309978461 -0.11022815876546918 1.0402009029666379e-16 -1.951472036447658e-17 1.0402009029666379e-16 -1.951472036447658e-17 -0.99390623686836 -0.11022881798333112
12662960000.0 -0.9949945357115295 -0.0999293445591637 1.0379034966161247e-16 -2.0596097064723647e-17 1.0379034966161247e-16 -2.0596097064723647e-17 -0.9949944694354467 -0.09993000446663228
12663577333.333334 -0.9959760484701589 -0.0896198129522347 1.0354937489103454e-16 -2.1674805042904416e-17 1.0354937489103454e-16 -2.1674805042904416e-17 -0.9959759890345357 -0.08962047347847119
12664194666.666666 -0.996850742987377 -0.079300669639931 1.0329719665173714e-16 -2.2750727671139387e-17 1.0329719665173714e-16 -2.2750727671139387e-17 -0.9968506903979197 -0.07930133071403715
12664812000.0 -0.9976185254524352 -0.06897302134846661 1.030338468204622e-16 -2.3823748670807302e-17 1.030338468204622e-16 -2.3823748670807302e-17 -0.9976184797141177 -0.0689736828994925
12665429333.333334 -0.9982793135208938 -0.058637975716070156 1.0275935847993636e-16 -2.489375212510035e-17 1.0275935847993636e-16 -2.489375212510035e-17 -0.9982792746379536 -0.05863863767302153
12666046666.666666 -0.9988330363234319 -0.04829664117453082 1.0247376591480143e-16 -2.5960622491488113e-17 1.0247376591480143e-16 -2.5960622491488113e-17 -0.9988330042993694 -0.048297303466376736
12666664000.0 -0.9992796344734632 -0.037950126829921944 1.0217710460739307e-16 -2.7024244614226275e-17 1.0217710460739307e-16 -2.7024244614226275e-17 -0.9992796093110461 -0.03795078938560263
12667281333.333334 -0.9996190600735011 -0.027599542343962224 1.0186941123342177e-16 -2.808450373669909e-17 1.0186941123342177e-16 -2.808450373669909e-17 -0.9996190417747575 -0.0276002050923964
12667898666.666666 -0.9998512767202906 -0.017245997814919138 1.0155072365749426e-16 -2.9141285513829617e-17 1.0155072365749426e-16 -2.9141285513829617e-17 -0.9998512652865138 -0.01724666068501184
12668516000.0 -0.99997625950872 -0.00689060365832401 1.0122108092852693e-16 -3.0194476024364684e-17 1.0122108092852693e-16 -3.0194476024364684e-17 -0.9999762549404683 -0.006891266578974178
12669133333.333334 -0.9999939950344853 0.0034655295116367683 1.0088052327502783e-16 -3.124396178312966e-17 1.0088052327502783e-16 -3.124396178312966e-17 -0.9999939973315796 0.0034648666115287175
12669750666.666666 -0.999904481395534 0.013821291001746484 1.0052909210024776e-16 -3.2289629753238856e-17 1.0052909210024776e-16 -3.2289629753238856e-17 -0.9999044905570583 0.013820628193270994
