! Parameters = {f0=12700.012000; bw=77.238000; Q=6100.000000; N=10; m_0_1=1.341436; m_1_1=1.356801; m_1_2=1.176248; m_2_2=1.356152; m_2_3=0.813211; m_2_8=0.004136; m_2_9=0.040840; m_3_3=1.354215; m_3_4=0.701740; m_3_7=0.004736; m_3_8=-0.092352; m_3_9=0.004136; m_4_4=1.351290; m_4_5=0.538075; m_4_6=0.008253; m_4_7=-0.112901; m_4_8=0.004736; m_5_5=1.351672; m_5_6=0.945430; m_5_7=0.008253; m_6_6=1.351671; m_6_7=0.538417; m_7_7=1.351304; m_7_8=0.701858; m_8_8=1.354213; m_8_9=0.813524; m_9_9=1.356147; m_9_10=1.177326; m_10_10=1.356791; m_10_11=1.342231}
!
! Created with skrf (http://scikit-rf.org).
# Hz S RI R 50.0 
!freq ReS11 ImS11 ReS21 ImS21 ReS12 ImS12 ReS22 ImS22
12607400000.0 -0.02014513631534132 0.9997970661502456 -4.053356393638046e-17 -1.4768568139438297e-16 -4.053356393638046e-17 -1.4768568139438297e-16 -0.02014584278329015 0.9997970519152143
12608017333.333334 -0.007511632310964111 0.9999717872919349 -4.240100524221267e-17 -1.4712920038946162e-16 -4.240100524221267e-17 -1.4712920038946162e-16 -0.007512338867786534 0.9999717819841409
12608634666.666666 0.005123070817123785 0.9999868769864965 -4.4260851411627244e-17 -1.4654911971299144e-16 -4.4260851411627244e-17 -1.4654911971299144e-16 0.005122364284222819 0.9999868806059119
12609252000.0 0.017756956116132126 0.9998423328251769 -4.611280437868694e-17 -1.459455424988654e-16 -4.611280437868694e-17 -1.459455424988654e-16 0.017756249719932816 0.9998423453703521
12609869333.333334 0.030388006763657414 0.9995381778825336 -4.7956567471600295e-17 -1.4531857564336628e-16 -4.7956567471600295e-17 -1.4531857564336628e-16 0.030387300616907052 0.9995381993505903
12610486666.666666 0.04301420638998111 0.999074460712735 -4.9791845460209895e-17 -1.446683297863886e-16 -4.9791845460209895e-17 -1.446683297863886e-16 0.043013500605376224 0.9990744910993744
12611104000.0 0.05563353939978442 0.9984512553418197 -5.161834460323565e-17 -1.4399491929205576e-16 -5.161834460323565e-17 -1.4399491929205576e-16 0.0556328340899526 0.9984512946413172
12611721333.333334 0.06824399129373925 0.9976686612558816 -5.343577269513659e-17 -1.4329846222878769e-16 -5.343577269513659e-17 -1.4329846222878769e-16 0.06824328657122129 0.9976687094610918
12612338666.666666 0.08084354899043544 0.9967268033851772 -5.52438391129021e-17 -1.4257908034870648e-16 -5.52438391129021e-17 -1.4257908034870648e-16 0.08084284496766753 0.9967268604875341
12612956000.0 0.09343020114751407 0.9956258320841912 -5.704225486241271e-17 -1.4183689906650817e-16 -5.704225486241271e-17 -1.4183689906650817e-16 0.09342949793680946 0.9956258980737084
12613573333.333334 0.10600193848286285 0.9943659231076246 -5.883073262452096e-17 -1.4107204743775468e-16 -5.883073262452096e-17 -1.4107204743775468e-16 0.10600123619639432 0.9943659979728988
12614190666.666666 0.11855675409514398 0.9929472775823631 -6.060898680099571e-17 -1.40284658136522e-16 -6.060898680099571e-17 -1.40284658136522e-16 0.11855605284492574 0.9929473613105749
12614808000.0 0.13109264378450697 0.9913701219753354 -6.237673355997684e-17 -1.394748674325497e-16 -6.237673355997684e-17 -1.394748674325497e-16 0.13109194368237692 0.9913702145522526
12615425333.333334 0.14360760637230466 0.989634708057383 -6.413369088124709e-17 -1.3864281516776922e-16 -6.413369088124709e-17 -1.3864281516776922e-16 0.1436069075299064 0.9896348094673609
12616042666.666666 0.15609964402060975 0.9877413128630605 -6.587957860118441e-17 -1.3778864473226494e-16 -6.587957860118441e-17 -1.3778864473226494e-16 0.15609894654937503 0.9877414230890482
12616660000.0 0.168566762551142 0.9856902386464169 -6.761411845732547e-17 -1.3691250303970314e-16 -6.761411845732547e-17 -1.3691250303970314e-16 0.16856606656227266 0.985690357669956
12617277333.333334 0.18100697176366617 0.9834818128327294 -6.933703413268267e-17 -1.3601454050216443e-16 -6.933703413268267e-17 -1.3601454050216443e-16 0.1810062773681166 0.9834819406339601
12617894666.666666 0.19341828575347567 0.981116387966275 -7.104805129968267e-17 -1.3509491100444263e-16 -7.104805129968267e-17 -1.3509491100444263e-16 0.19341759306193523 0.9811165245239383
12618512000.0 0.20579872322880685 0.9785943416539857 -7.274689766381083e-17 -1.3415377187776647e-16 -7.274689766381083e-17 -1.3415377187776647e-16 0.20579803235168156 0.9785944869454253
12619129333.333334 0.21814630782667588 0.9759160765052459 -7.443330300683445e-17 -1.3319128387301646e-16 -7.443330300683445e-17 -1.3319128387301646e-16 0.21814561887407197 0.9759162305064158
12619746666.666666 0.23045906842871428 0.9730820200675651 -7.610699922974091e-17 -1.3220761113336092e-16 -7.610699922974091e-17 -1.3220761113336092e-16 0.23045838151041967 0.9730821827530303
12620364000.0 0.24273503947588246 0.9700926247582993 -7.776772039531615e-17 -1.3120292116635322e-16 -7.776772039531615e-17 -1.3120292116635322e-16 0.24273435470134952 0.9700927961012408
12620981333.333334 0.2549722612817463 0.9669483677925499 -7.941520277028929e-17 -1.3017738481553553e-16 -7.941520277028929e-17 -1.3017738481553553e-16 0.2549715787600749 0.9669485477647706
12621598666.666666 0.2671687803459228 0.9636497511068408 -8.10491848671785e-17 -1.2913117623146855e-16 -8.10491848671785e-17 -1.2913117623146855e-16 0.2671681001858421 0.9636499396787671
12622216000.0 0.2793226496654312 0.9601973012791103 -8.26694074857134e-17 -1.2806447284226647e-16 -8.26694074857134e-17 -1.2806447284226647e-16 0.279321971975283 0.9601974984198007
12622833333.333334 0.29143192904594506 0.9565915694445374 -8.42756137539213e-17 -1.2697745532357816e-16 -8.42756137539213e-17 -1.2697745532357816e-16 0.29143125393366626 0.9565917751216843
12623450666.666666 0.3034946854110787 0.9528331312076811 -8.586754916870508e-17 -1.2587030756813175e-16 -8.586754916870508e-17 -1.2587030756813175e-16 0.3034940129841841 0.952833345387618
12624068000.0 0.31550899311130404 0.9489225865505012 -8.744496163619583e-17 -1.247432166546565e-16 -8.744496163619583e-17 -1.247432166546565e-16 0.3155083234768694 0.9489228091982078
12624685333.333334 0.3274729342314056 0.944860559736556 -8.90076015115614e-17 -1.235963728163901e-16 -8.90076015115614e-17 -1.235963728163901e-16 0.3274722674960501 0.9448607908156624
12625302666.666666 0.33938459889616185 0.9406476992115042 -9.055522163840571e-17 -1.2242996940909198e-16 -9.055522163840571e-17 -1.2242996940909198e-16 0.3393839351660319 0.9406479386842999
12625920000.0 0.3512420855758249 0.9362846774993969 -9.208757738788298e-17 -1.2124420287846675e-16 -9.208757738788298e-17 -1.2124420287846675e-16 0.35124142495657673 0.9362849253268349
12626537333.333334 0.3630435013891889 0.9317721910954857 -9.360442669721937e-17 -1.200392727272223e-16 -9.360442669721937e-17 -1.200392727272223e-16 0.36304284398597203 0.9317724472371894
12627154666.666666 0.37478696240613624 0.9271109603548995 -9.510553010790913e-17 -1.1881538148156942e-16 -9.510553010790913e-17 -1.1881538148156942e-16 0.37478630832357646 0.9271112247691693
12627772000.0 0.38647059394822 0.9223017293777094 -9.659065080347358e-17 -1.1757273465724418e-16 -9.659065080347358e-17 -1.1757273465724418e-16 0.38646994329040224 0.9223020020215272
12628389333.333334 0.3980925308877193 0.9173452658902284 -9.805955464667701e-17 -1.1631154072514158e-16 -9.805955464667701e-17 -1.1631154072514158e-16 0.39809188375817217 0.9173455467192685
12629006666.666666 0.40965091794590736 0.9122423611222406 -9.951201021645515e-17 -1.150320110763533e-16 -9.951201021645515e-17 -1.150320110763533e-16 0.40965027444758606 0.9122426500908744
12629624000.0 0.42114390998874607 0.9069938296808834 -1.0094778884425628e-16 -1.1373435998685593e-16 -1.0094778884425628e-16 -1.1373435998685593e-16 0.4211432702240163 0.9069941267421885
12630241333.333334 0.432569672321544 0.9016005094205725 -1.023666646499627e-16 -1.12418804581714e-16 -1.023666646499627e-16 -1.12418804581714e-16 0.4325690363921655 0.9016008145263388
12630858666.666666 0.44392638098184084 0.8960632613092504 -1.0376841457736795e-16 -1.1108556479881982e-16 -1.0376841457736795e-16 -1.1108556479881982e-16 0.4439257489889505 0.8960635744099874
12631476000.0 0.4552122230309318 0.8903829692907658 -1.0515281842919276e-16 -1.0973486335217768e-16 -1.0515281842919276e-16 -1.0973486335217768e-16 0.45521159507502934 0.8903832903357135
12632093333.333334 0.46642539684266765 0.8845605401440675 -1.0651965890153883e-16 -1.0836692569483798e-16 -1.0651965890153883e-16 -1.0836692569483798e-16 0.4664247730235976 0.8845608690812009
12632710666.666666 0.47756411239136504 0.8785969033383006 -1.0786872161797964e-16 -1.0698197998128979e-16 -1.0786872161797964e-16 -1.0698197998128979e-16 0.4775634928083024 0.8785972401143416
12633328000.0 0.48862659153781 0.8724930108842971 -1.0919979516310042e-16 -1.0558025702948872e-16 -1.0919979516310042e-16 -1.0558025702948872e-16 0.48862597628924387 0.8724933554447205
12633945333.333334 0.49961106831270824 0.8662498371828059 -1.105126711155172e-16 -1.0416199028250146e-16 -1.105126711155172e-16 -1.0416199028250146e-16 0.4996104574964262 0.8662501894718498
12634562666.666666 0.5105157891986529 0.8598683788689291 -1.1180714408048273e-16 -1.0272741576965356e-16 -1.1180714408048273e-16 -1.0272741576965356e-16 0.5105151829117252 0.8598687388296029
12635180000.0 0.5213390134102938 0.8533496546528776 -1.1308301172189948e-16 -1.0127677206736681e-16 -1.1308301172189948e-16 -1.0127677206736681e-16 0.5213384117490582 0.8533500222269718
12635797333.333334 0.5320790131720803 0.8466947051574313 -1.1434007479389183e-16 -9.981030025953187e-17 -1.1434007479389183e-16 -9.981030025953187e-17 0.5320784162321271 0.8466950802855272
12636414666.666666 0.542734073993933 0.8399045927519109 -1.155781371718354e-16 -9.832824389752132e-17 -1.155781371718354e-16 -9.832824389752132e-17 0.5427334818700894 0.839904975373389
12637032000.0 0.5533024949452268 0.8329804013824043 -1.1679700588286908e-16 -9.683084895981907e-17 -1.1679700588286908e-16 -9.683084895981907e-17 0.5533019077315423 0.8329807914354567
12637649333.333334 0.5637825889261293 0.8259232363988527 -1.1799649113591495e-16 -9.531836381124138e-17 -1.1799649113591495e-16 -9.531836381124138e-17 0.5637820067158602 0.8259236338204894
12638266666.666666 0.5741726829370156 0.8187342243785307 -1.1917640635111353e-16 -9.379103916185156e-17 -1.1917640635111353e-16 -9.379103916185156e-17 0.5741721058226098 0.8187346291045922
12638884000.0 0.5844711183453525 0.8114145129463354 -1.2033656818878022e-16 -9.224912802545389e-17 -1.2033656818878022e-16 -9.224912802545389e-17 0.5844705464184361 0.8114149249115024
12639501333.333334 0.5946762511508025 0.8039652705913561 -1.2147679657782889e-16 -9.069288567772193e-17 -1.2147679657782889e-16 -9.069288567772193e-17 0.5946756845021648 0.803965689729161
12640118666.666666 0.6047864522472052 0.7963876864806755 -1.225969147435729e-16 -8.912256961408779e-17 -1.225969147435729e-16 -8.912256961408779e-17 0.6047858909667841 0.7963881127235117
12640736000.0 0.6148001076834158 0.7886829702689571 -1.2369674923514094e-16 -8.753843950707414e-17 -1.2369674923514094e-16 -8.753843950707414e-17 0.6147995518602828 0.78868340354809
12641353333.333334 0.6247156189198585 0.780852351906161 -1.2477612995214184e-16 -8.594075716356922e-17 -1.2477612995214184e-16 -8.594075716356922e-17 0.6247150686422055 0.7808527921517397
12641970666.666666 0.6345314030846636 0.77289708144048 -1.2583489017095222e-16 -8.432978648152817e-17 -1.2583489017095222e-16 -8.432978648152817e-17 0.6345308584397897 0.7728975285815498
12642588000.0 0.6442458932259435 0.7648184288190957 -1.268728665703678e-16 -8.270579340646526e-17 -1.268728665703678e-16 -8.270579340646526e-17 0.644245354300239 0.7648188827836063
12643205333.333334 0.6538575385618042 0.7566176836855609 -1.2788989925667494e-16 -8.106904588766036e-17 -1.2788989925667494e-16 -8.106904588766036e-17 0.653857005440738 0.7566181444003802
12643822666.666666 0.6633648047283419 0.7482961551735604 -1.2888583178822453e-16 -7.941981383395806e-17 -1.2888583178822453e-16 -7.941981383395806e-17 0.6633642774964491 0.7482966225644871
12644440000.0 0.6727661740241913 0.7398551716982559 -1.298605111993684e-16 -7.775836906937565e-17 -1.298605111993684e-16 -7.775836906937565e-17 0.6727656527650575 0.7398556456900289
12645057333.333334 0.6820601456528941 0.7312960807441519 -1.308137880238736e-16 -7.60849852883383e-17 -1.308137880238736e-16 -7.60849852883383e-17 0.6820596304491444 0.7312965612604649
12645674666.666666 0.6912452359624824 0.7226202486499923 -1.3174551631773496e-16 -7.4399938010673e-17 -1.3174551631773496e-16 -7.4399938010673e-17 0.6912447268957664 0.722620735613504
12646292000.0 0.70031997868261 0.7138290603903668 -1.326555536814375e-16 -7.270350453627225e-17 -1.326555536814375e-16 -7.270350453627225e-17 0.7003194758335901 0.7138295537227151
12646909333.333334 0.7092829251580852 0.7049239193551278 -1.335437612815714e-16 -7.099596389960817e-17 -1.335437612815714e-16 -7.099596389960817e-17 0.7092824286064235 0.7049244189769414
12647526666.666666 0.7181326445805828 0.6959062471249292 -1.3441000387196024e-16 -6.927759682380274e-17 -1.3441000387196024e-16 -6.927759682380274e-17 0.7181321544049281 0.6959067529558404
12648144000.0 0.7268677242168445 0.6867774832444857 -1.3525414981411688e-16 -6.754868567459301e-17 -1.3525414981411688e-16 -6.754868567459301e-17 0.7268672404948205 0.6867779952031438
12648761333.333334 0.7354867696342838 0.6775390849926896 -1.3607607109713498e-16 -6.580951441400431e-17 -1.3607607109713498e-16 -6.580951441400431e-17 0.7354862924424761 0.6775396029967732
12649378666.666666 0.7439884049234309 0.668192527150142 -1.3687564335700016e-16 -6.406036855375231e-17 -1.3687564335700016e-16 -6.406036855375231e-17 0.743987934337376 0.6681930511163736
12649996000.0 0.7523712729178127 0.6587393017634784 -1.3765274589528722e-16 -6.230153510844257e-17 -1.3765274589528722e-16 -6.230153510844257e-17 0.7523708090119844 0.6587398316076362
12650613333.333334 0.7606340354104831 0.6491809179073031 -1.3840726169726176e-16 -6.053330254853817e-17 -1.3840726169726176e-16 -6.053330254853817e-17 0.7606335782582823 0.6491814535442356
12651230666.666666 0.7687753733675426 0.6395189014434208 -1.3913907744937551e-16 -5.875596075311786e-17 -1.3913907744937551e-16 -5.875596075311786e-17 0.7687749230412846 0.63951944278706
12651848000.0 0.7767939871389259 0.6297547947769953 -1.398480835561715e-16 -5.69698009623849e-17 -1.398480835561715e-16 -5.69698009623849e-17 0.7767935437098288 0.6297553417403703
12652465333.333334 0.7846885966657565 0.619890156610451 -1.405341741565486e-16 -5.517511573005352e-17 -1.405341741565486e-16 -5.517511573005352e-17 0.7846881602039323 0.6198907091057037
12653082666.666666 0.7924579416845567 0.6099265616948333 -1.4119724713944603e-16 -5.3372198875470574e-17 -1.4119724713944603e-16 -5.3372198875470574e-17 0.7924575122589961 0.609927119633229
12653700000.0 0.8001007819288096 0.5998656005779232 -1.4183720415891242e-16 -5.1561345435549986e-17 -1.4183720415891242e-16 -5.1561345435549986e-17 0.8001003596073756 0.5998661638698692
12654317333.333334 0.8076158973264684 0.5897088793509627 -1.4245395064853365e-16 -4.974285161660172e-17 -1.4245395064853365e-16 -4.974285161660172e-17 0.8076154821758821 0.5897094479060194
12654934666.666666 0.8150020881951017 0.5794580193917664 -1.4304739583527083e-16 -4.791701474591806e-17 -1.4304739583527083e-16 -4.791701474591806e-17 0.8150016802809332 0.5794585931186629
12655552000.0 0.8222581754332662 0.5691146571060711 -1.4361745275267732e-16 -4.608413322319673e-17 -1.4361745275267732e-16 -4.608413322319673e-17 0.8222577748199243 0.56911523591272
12656169333.333334 0.829383000708639 0.5586804436664481 -1.4416403825347115e-16 -4.4244506471883105e-17 -1.4416403825347115e-16 -4.4244506471883105e-17 0.8293826074593608 0.5586810274599597
12656786666.666666 0.8363754266431227 0.5481570447484365 -1.4468707302151072e-16 -4.2398434890283895e-17 -1.4468707302151072e-16 -4.2398434890283895e-17 0.8363750408199638 0.5481576334351352
12657404000.0 0.8432343369942839 0.537546140264829 -1.451864815831314e-16 -4.05462198025917e-17 -1.451864815831314e-16 -4.05462198025917e-17 0.8432339586581085 0.5375467337502666
12658021333.333334 0.8499586368336054 0.5268494240974012 -1.4566219231787084e-16 -3.868816340972053e-17 -1.4566219231787084e-16 -3.868816340972053e-17 0.8499582660440764 0.5268500222863727
12658638666.666666 0.8565472527211587 0.5160686038267014 -1.4611413746853203e-16 -3.682456874015151e-17 -1.4611413746853203e-16 -3.682456874015151e-17 0.856546889536728 0.5160692066232595
12659256000.0 0.8629991328771411 0.5052054004591681 -1.4654225315066958e-16 -3.495573960046475e-17 -1.4654225315066958e-16 -3.495573960046475e-17 0.8629987773550419 0.505206007766641
12659873333.333334 0.8693132473496872 0.49426154815254103 -1.4694647936140373e-16 -3.308198052592211e-17 -1.4694647936140373e-16 -3.308198052592211e-17 0.8693128995459245 0.4942621598735456
12660490666.666666 0.8754885881791763 0.48323879393922553 -1.4732675998760624e-16 -3.1203596730951996e-17 -1.4732675998760624e-16 -3.1203596730951996e-17 0.8754882481485164 0.4832394099756834
12661108000.0 0.8815241695594457 0.4721388974468586 -1.4768304281348779e-16 -2.93208940593845e-17 -1.4768304281348779e-16 -2.93208940593845e-17 0.8815238373554085 0.4721395177000119
12661725333.333334 0.8874190279947701 0.46096363061810275 -1.4801527952750814e-16 -2.7434178934804943e-17 -1.4801527952750814e-16 -2.7434178934804943e-17 0.8874187036696226 0.4609642549885309
12662342666.666666 0.8931722224539779 0.44971477742723504 -1.4832342572867906e-16 -2.554375831070735e-17 -1.4832342572867906e-16 -2.554375831070735e-17 0.8931719060587228 0.44971540581486946
12662960000.0 0.8987828345205562 0.4383941335955573 -1.4860744093222928e-16 -2.3649939620589978e-17 -1.4860744093222928e-16 -2.3649939620589978e-17 0.8987825261049267 0.43839476589969806
12663577333.333334 0.9042499685391954 0.42700350630488954 -1.488672885746197e-16 -2.1753030728068198e-17 -1.488672885746197e-16 -2.1753030728068198e-17 0.904249668151645 0.42700414242422113
12664194666.666666 0.9095727517589137 0.4155447139087718 -1.4910293601793636e-16 -1.9853339876861686e-17 -1.4910293601793636e-16 -1.9853339876861686e-17 0.9095724594466104 0.4155453537413801
12664812000.0 0.9147503344722826 0.40401958564239454 -1.493143545536452e-16 -1.7951175640739336e-17 -1.493143545536452e-16 -1.7951175640739336e-17 0.9147500502811011 0.40402022908578233
12665429333.333334 0.9197818901511164 0.39242996133048313 -1.4950151940569834e-16 -1.6046846873506422e-17 -1.4950151940569834e-16 -1.6046846873506422e-17 0.9197816141256294 0.39243060828158655
12666046666.666666 0.924666615578304 0.3807776910938567 -1.4966440973301527e-16 -1.4140662658889998e-17 -1.4966440973301527e-16 -1.4140662658889998e-17 0.9246663477617779 0.3807783414490626
12666664000.0 0.9294037309762782 0.36906463505350795 -1.4980300863132343e-16 -1.2232932260397639e-17 -1.4980300863132343e-16 -1.2232932260397639e-17 0.9294034714106632 0.3690652887086692
12667281333.333334 0.9339924801312023 0.3572926630343396 -1.499173031343518e-16 -1.0323965071294586e-17 -1.499173031343518e-16 -1.0323965071294586e-17 0.933992228857129 0.35729331988479324
12667898666.666666 0.9384321305138346 0.3454636542663635 -1.5000728421440332e-16 -8.41407056437495e-18 -1.5000728421440332e-16 -8.41407056437495e-18 0.9384318875706052 0.3454643142069462
12668516000.0 0.9427219733965756 0.33357949708438484 -1.5007294678227554e-16 -6.503558241901373e-18 -1.5007294678227554e-16 -6.503558241901373e-18 0.9427217388221585 0.33358016000945
12669133333.333334 0.9468613239663487 0.3216420886272481 -1.5011428968654844e-16 -4.592737585559634e-18 -1.5011428968654844e-16 -4.592737585559634e-18 0.9468610977973736 0.32164275443068374
12669750666.666666 0.9508495214341397 0.30965333453440036 -1.5013131571224042e-16 -2.6819180062739483e-18 -1.5013131571224042e-16 -2.6819180062739483e-18 0.9508493037058903 0.30965400310964497
12670368000.0 0.9546859291403997 0.29761514864189437 -1.5012403157881976e-16 -7.714087942579926e-19 -1.5012403157881976e-16 -7.714087942579926e-19 0.95468571988681 0.29761581988195474
