! Parameters = {f0=12700.012000; bw=77.238000; Q=6100.000000; N=10; m_0_1=1.346842; m_1_1=1.437882; m_1_2=1.181654; m_2_2=1.437233; m_2_3=0.818617; m_2_8=0.004406; m_2_9=0.041110; m_3_3=1.435296; m_3_4=0.707146; m_3_7=0.005006; m_3_8=-0.092082; m_3_9=0.004406; m_4_4=1.432371; m_4_5=0.543481; m_4_6=0.008523; m_4_7=-0.112631; m_4_8=0.005006; m_5_5=1.432753; m_5_6=0.950836; m_5_7=0.008523; m_6_6=1.432752; m_6_7=0.543823; m_7_7=1.432385; m_7_8=0.707264; m_8_8=1.435294; m_8_9=0.818930; m_9_9=1.437228; m_9_10=1.182732; m_10_10=1.437872; m_10_11=1.347637}
!
! Created with skrf (http://scikit-rf.org).
# Hz S RI R 50.0 
!freq ReS11 ImS11 ReS21 ImS21 ReS12 ImS12 ReS22 ImS22
12607400000.0 -0.10367853202904934 -0.9946108595808231 5.989570112472076e-17 1.4493904884045788e-16 5.989570112472076e-17 1.4493904884045788e-16 -0.10367782640401965 -0.9946109331351326
12608017333.333334 -0.11639534111187291 -0.9932029624237195 6.174587776009857e-17 1.441271642875367e-16 6.174587776009857e-17 1.441271642875367e-16 -0.11639463652016316 -0.9932030449959062
12608634666.666666 -0.12909309634339144 -0.9916324785303664 6.358508184170392e-17 1.4329167641122148e-16 6.358508184170392e-17 1.4329167641122148e-16 -0.12909239290023602 -0.991632570106031
12609252000.0 -0.1417697191087226 -0.9898996649881414 6.541301244295047e-17 1.4243273310559373e-16 6.541301244295047e-17 1.4243273310559373e-16 -0.14176901692915675 -0.9898997655514125
12609869333.333334 -0.15442313425218981 -0.9880048054577131 6.722937062573725e-17 1.41550486098896e-16 6.722937062573725e-17 1.41550486098896e-16 -0.15442243345103032 -0.9880049149912481
12610486666.666666 -0.16705127041713624 -0.9859482101265884 6.903385948926044e-17 1.4064509092685997e-16 6.903385948926044e-17 1.4064509092685997e-16 -0.16705057110896357 -0.9859483286115811
12611104000.0 -0.17965206038539844 -0.9837302156582783 7.08261842185158e-17 1.3971670690539e-16 7.08261842185158e-17 1.3971670690539e-16 -0.17965136268453727 -0.9837303430744581
12611721333.333334 -0.19222344141503453 -0.9813511851372893 7.260605213231721e-17 1.387654971026908e-16 7.260605213231721e-17 1.387654971026908e-16 -0.1922227454355351 -0.9813513214629241
12612338666.666666 -0.20476335557838765 -0.9788115080096275 7.437317273109326e-17 1.377916283107069e-16 7.437317273109326e-17 1.377916283107069e-16 -0.20476266143400715 -0.9788116532215296
12612956000.0 -0.21726975009907704 -0.9761116000190174 7.612725774423071e-17 1.3679527101598995e-16 7.612725774423071e-17 1.3679527101598995e-16 -0.21726905790326154 -0.9761117540925481
12613573333.333334 -0.22974057768764802 -0.9732519031389294 7.786802117696088e-17 1.3577659937000583e-16 7.786802117696088e-17 1.3577659937000583e-16 -0.22973988755351327 -0.9732520660480005
12614190666.666666 -0.2421737968771553 -0.9702328855001274 7.959517935698982e-17 1.3473579115876662e-16 7.959517935698982e-17 1.3473579115876662e-16 -0.24217310891746857 -0.9702330572172079
12614808000.0 -0.25456737235690774 -0.9670550413141441 8.130845098064679e-17 1.3367302777191457e-16 8.130845098064679e-17 1.3367302777191457e-16 -0.25456668668406934 -0.9670552218102628
12615425333.333334 -0.26691927530603365 -0.9637188907922806 8.300755715859145e-17 1.3258849417123866e-16 8.300755715859145e-17 1.3258849417123866e-16 -0.2669185920320584 -0.9637190800370329
12616042666.666666 -0.27922748372543144 -0.9602249800604881 8.469222146117201e-17 1.3148237885857094e-16 8.469222146117201e-17 1.3148237885857094e-16 -0.27922680296193103 -0.9602251780220412
12616660000.0 -0.2914899827686068 -0.956573881070019 8.636216996331867e-17 1.3035487384313018e-16 8.636216996331867e-17 1.3035487384313018e-16 -0.29148930462677053 -0.9565740877151143
12617277333.333334 -0.30370476507188326 -0.9527661915036834 8.80171312890196e-17 1.292061746082872e-16 8.80171312890196e-17 1.292061746082872e-16 -0.3037040896624607 -0.9527664067976463
12617894666.666666 -0.31586983108257166 -0.948802534678144 8.965683665531214e-17 1.2803648007779687e-16 8.965683665531214e-17 1.2803648007779687e-16 -0.31586915851585395 -0.9488027585848854
12618512000.0 -0.32798318938672827 -0.944683559441738 9.128101991593645e-17 1.2684599258139655e-16 9.128101991593645e-17 1.2684599258139655e-16 -0.327982519772531 -0.9446837919237647
12619129333.333334 -0.34004285703477155 -0.94040994006839 9.288941760438921e-17 1.2563491781995529e-16 9.288941760438921e-17 1.2563491781995529e-16 -0.34004219048241596 -0.9404101810868077
12619746666.666666 -0.3520468598661974 -0.9359823761471967 9.448176897662418e-17 1.2440346482999976e-16 9.448176897662418e-17 1.2440346482999976e-16 -0.35204619648449287 -0.9359826256617181
12620364000.0 -0.3639932328331214 -0.9314015924677682 9.60578160532415e-17 1.2315184594773217e-16 9.60578160532415e-17 1.2315184594773217e-16 -0.36399257273034785 -0.931401850436719
12620981333.333334 -0.37588002032131634 -0.9266683389018149 9.761730366120931e-17 1.2188027677251013e-16 9.761730366120931e-17 1.2188027677251013e-16 -0.3758793636052061 -0.9266686052821403
12621598666.666666 -0.3877052764707182 -0.921783390280258 9.915997947510261e-17 1.2058897612979807e-16 9.915997947510261e-17 1.2058897612979807e-16 -0.38770462324843874 -0.9217836650275315
12622216000.0 -0.39946706549406646 -0.9167475462663434 1.0068559405785448e-16 1.192781660335994e-16 1.0068559405785448e-16 1.192781660335994e-16 -0.39946641587220294 -0.9167478293347726
12622833333.333334 -0.4111634619934764 -0.9115616312248678 1.0219390090101819e-16 1.1794807164836753e-16 1.0219390090101819e-16 1.1794807164836753e-16 -0.4111628160780144 -0.9115619225673038
12623450666.666666 -0.42279255127578314 -0.9062264940871662 1.0368465646448805e-16 1.1659892125044485e-16 1.0368465646448805e-16 1.1659892125044485e-16 -0.4227919091720911 -0.9062267936551094
12624068000.0 -0.43435242966607984 -0.900743008212096 1.0515762021581246e-16 1.1523094618891256e-16 1.0515762021581246e-16 1.1523094618891256e-16 -0.4343517914788916 -0.900743315955705
12624685333.333334 -0.44584120481924117 -0.8951120712431088 1.066125546688585e-16 1.1384438084606263e-16 1.066125546688585e-16 1.1384438084606263e-16 -0.4458405706526403 -0.8951123871112108
12625302666.666666 -0.4572569960295512 -0.8893346049613917 1.0804922542205124e-16 1.1243946259730203e-16 1.0804922542205124e-16 1.1243946259730203e-16 -0.4572563659869511 -0.8893349289014852
12625920000.0 -0.4685979345389238 -0.8834115551347834 1.0946740119608214e-16 1.1101643177057131e-16 1.0946740119608214e-16 1.1101643177057131e-16 -0.4685973087230548 -0.8834118870930548
12626537333.333334 -0.47986216384246844 -0.8773438913631446 1.1086685387100482e-16 1.0957553160537277e-16 1.1086685387100482e-16 1.0957553160537277e-16 -0.47986154235535783 -0.8773442312844709
12627154666.666666 -0.49104783999254875 -0.8711326069195519 1.1224735852288057e-16 1.081170082112443e-16 1.1224735852288057e-16 1.081170082112443e-16 -0.4910472229355049 -0.8711329547475117
12627772000.0 -0.5021531319007826 -0.864778718587615 1.1360869345987668e-16 1.0664111052577078e-16 1.1360869345987668e-16 1.0664111052577078e-16 -0.5021525193743797 -0.8647790742644994
12628389333.333334 -0.5131762216374456 -0.8582832664952275 1.1495064025773048e-16 1.0514809027223394e-16 1.1495064025773048e-16 1.0514809027223394e-16 -0.5131756137415063 -0.8582836299620481
12629006666.666666 -0.5241153047294097 -0.8516473139441001 1.1627298379474162e-16 1.0363820191672592e-16 1.1627298379474162e-16 1.0363820191672592e-16 -0.5241147015629887 -0.8516476851405993
12629624000.0 -0.5349685904553853 -0.8448719472357813 1.1757551228616202e-16 1.0211170262487076e-16 1.1757551228616202e-16 1.0211170262487076e-16 -0.5349679921167533 -0.8448723261004418
12630241333.333334 -0.5457343021389655 -0.8379582754938927 1.1885801731805814e-16 1.005688522180676e-16 1.1885801731805814e-16 1.005688522180676e-16 -0.5457337087255938 -0.8379586619639482
12630858666.666666 -0.5564106774395187 -0.8309074304825405 1.2012029388050936e-16 9.900991312941804e-17 1.2012029388050936e-16 9.900991312941804e-17 -0.5564100890480627 -0.8309078244939864
12631476000.0 -0.5669959686410122 -0.8237205664208243 1.213621404003772e-16 9.743515035906212e-17 1.213621404003772e-16 9.743515035906212e-17 -0.5669953853672951 -0.823720967908426
12632093333.333334 -0.5774884429375886 -0.8163988597942323 1.2258335877332176e-16 9.58448314293097e-17 1.2258335877332176e-16 9.58448314293097e-17 -0.5774878648765879 -0.8163992686915403
12632710666.666666 -0.5878863827173296 -0.8089435091620042 1.2378375439537606e-16 9.423922633919318e-17 1.2378375439537606e-16 9.423922633919318e-17 -0.5878858099631591 -0.8089439254013608
12633328000.0 -0.5981880858439783 -0.8013557349605239 1.2496313619383765e-16 9.261860751873645e-17 1.2496313619383765e-16 9.261860751873645e-17 -0.5981875184898746 -0.8013561584730774
12633945333.333334 -0.6083918659347936 -0.7936367793040994 1.261213166575915e-16 9.098324978280539e-17 1.261213166575915e-16 9.098324978280539e-17 -0.6083913040731002 -0.7936372100198138
12634562666.666666 -0.6184960526372076 -0.7857879057811944 1.2725811186684965e-16 8.933343028455088e-17 1.2725811186684965e-16 8.933343028455088e-17 -0.6184954963593602 -0.785788343628862
12635180000.0 -0.6284989919018523 -0.7778103992478869 1.283733415222316e-16 8.766942846855379e-17 1.283733415222316e-16 8.766942846855379e-17 -0.6284984412983634 -0.7778108441551389
12635797333.333334 -0.638399046253686 -0.7697055656172603 1.2946682897329042e-16 8.599152602352989e-17 1.2946682897329042e-16 8.599152602352989e-17 -0.6383985014141296 -0.769706017510579
12636414666.666666 -0.6481945950597325 -0.7614747316458715 1.30538401246371e-16 8.430000683475283e-17 1.30538401246371e-16 8.430000683475283e-17 -0.6481940560727313 -0.7614751904506036
12637032000.0 -0.6578840347945155 -0.7531192447164591 1.3158788907190176e-16 8.259515693605066e-17 1.3158788907190176e-16 8.259515693605066e-17 -0.6578835017477259 -0.7531197103568276
12637649333.333334 -0.667465779302641 -0.7446404726173037 1.3261512691101292e-16 8.08772644615387e-17 1.3261512691101292e-16 8.08772644615387e-17 -0.6674652522827369 -0.7446409450164184
12638266666.666666 -0.6769382600583552 -0.7360398033183869 1.3361995298154868e-16 7.914661959698537e-17 1.3361995298154868e-16 7.914661959698537e-17 -0.676937739151017 -0.7360402823982606
12638884000.0 -0.6862999264221944 -0.7273186447443055 1.346022092834382e-16 7.740351453087225e-17 1.346022092834382e-16 7.740351453087225e-17 -0.6862994117120935 -0.7273191304258647
12639501333.333334 -0.6955492458951127 -0.718478424543523 1.355617416234544e-16 7.564824340509484e-17 1.355617416234544e-16 7.564824340509484e-17 -0.6955487374658976 -0.7184789167466212
12640118666.666666 -0.7046847043689793 -0.7095205898550141 1.3649839963926223e-16 7.388110226548105e-17 1.3649839963926223e-16 7.388110226548105e-17 -0.7046842023032622 -0.7095210884984451
12640736000.0 -0.7137048063749672 -0.7004466070708547 1.3741203682293388e-16 7.210238901181331e-17 1.3741203682293388e-16 7.210238901181331e-17 -0.7137043107543105 -0.7004471120723657
12641353333.333334 -0.7226080753276733 -0.6912579615968543 1.3830251054368921e-16 7.031240334779492e-17 1.3830251054368921e-16 7.031240334779492e-17 -0.7226075862325761 -0.6912584728731598
12641970666.666666 -0.7313930537673592 -0.6819561576088741 1.3916968207009054e-16 6.851144673053378e-17 1.3916968207009054e-16 6.851144673053378e-17 -0.7313925712772451 -0.68195667507567
12642588000.0 -0.7400583035984131 -0.6725427178067143 1.4001341659151786e-16 6.669982231988055e-17 1.4001341659151786e-16 6.669982231988055e-17 -0.7400578277916167 -0.6725432413786914
12643205333.333334 -0.7486024063246873 -0.6630191831649298 1.408335832390049e-16 6.487783492746483e-17 1.408335832390049e-16 6.487783492746483e-17 -0.7486019372784414 -0.6630197127557875
12643822666.666666 -0.7570239632817812 -0.6533871126804902 1.4163005510542797e-16 6.304579096544515e-17 1.4163005510542797e-16 6.304579096544515e-17 -0.7570235010722051 -0.6533876482029517
12644440000.0 -0.7653215958658898 -0.6436480831177008 1.4240270926499267e-16 6.120399839509332e-17 1.4240270926499267e-16 6.120399839509332e-17 -0.7653211405679756 -0.6436486244835269
12645057333.333334 -0.773493945759594 -0.6338036887499613 1.4315142679209304e-16 5.935276667505405e-17 1.4315142679209304e-16 5.935276667505405e-17 -0.7734934974471951 -0.6338042358699641
12645674666.666666 -0.7815396751541415 -0.6238555410988689 1.4387609277946085e-16 5.749240670946491e-17 1.4387609277946085e-16 5.749240670946491e-17 -0.7815392338999613 -0.6238560938829281
12646292000.0 -0.7894574669685893 -0.6138052686702368 1.445765963556977e-16 5.562323079571817e-17 1.445765963556977e-16 5.562323079571817e-17 -0.7894570328441685 -0.6138058270273136
12646909333.333334 -0.7972460250651605 -0.6036545166878198 1.4525283070204967e-16 5.374555257221668e-17 1.4525283070204967e-16 5.374555257221668e-17 -0.7972455981408649 -0.6036550805259718
12647526666.666666 -0.8049040744616648 -0.5934049468236788 1.4590469306858023e-16 5.1859686965730745e-17 1.4590469306858023e-16 5.1859686965730745e-17 -0.8049036548066769 -0.5934055160500762
12648144000.0 -0.8124303615400784 -0.5830582369263478 1.4653208478962562e-16 4.996595013865181e-17 1.4653208478962562e-16 4.996595013865181e-17 -0.8124299492223811 -0.5830588114472864
12648761333.333334 -0.8198236542518197 -0.5726160807460745 1.4713491129855623e-16 4.806465943609542e-17 1.4713491129855623e-16 4.806465943609542e-17 -0.8198232493381912 -0.5726166604669943
12649378666.666666 -0.8270827423193448 -0.5620801876577001 1.4771308214187911e-16 4.615613333275396e-17 1.4771308214187911e-16 4.615613333275396e-17 -0.8270823448753423 -0.5620807724831975
12649996000.0 -0.8342064374343305 -0.5514522823807386 1.4826651099263633e-16 4.424069137962386e-17 1.4826651099263633e-16 4.424069137962386e-17 -0.8342060475242836 -0.551452872214585
12650613333.333334 -0.8411935734522955 -0.5407341046969015 1.487951156631203e-16 4.231865415055873e-17 1.487951156631203e-16 4.231865415055873e-17 -0.8411931911392948 -0.5407346994420578
12651230666.666666 -0.8480430065832799 -0.5299274091656284 1.492988181168836e-16 4.039034318872443e-17 1.492988181168836e-16 4.039034318872443e-17 -0.8480426319291641 -0.5299280087242598
12651848000.0 -0.8547536155792931 -0.5190339648365299 1.497775444800881e-16 3.8456080952786605e-17 1.497775444800881e-16 3.8456080952786605e-17 -0.8547532486446445 -0.5190345691100255
12652465333.333334 -0.861324301917807 -0.5080555549598943 1.5023122505211578e-16 3.651619076313757e-17 1.5023122505211578e-16 3.651619076313757e-17 -0.8613239427619347 -0.5080561638488784
12653082666.666666 -0.8677539899813407 -0.49699397669515594 1.5065979431551597e-16 3.457099674787371e-17 1.5065979431551597e-16 3.457099674787371e-17 -0.867753638662278 -0.4969945900995095
12653700000.0 -0.8740416272340421 -0.48585104081587616 1.5106319094523996e-16 3.262082378871052e-17 1.5106319094523996e-16 3.262082378871052e-17 -0.8740412838085317 -0.48585165863474894
12654317333.333334 -0.8801861843934887 -0.47462857141414816 1.5144135781718197e-16 3.066599746678604e-17 1.5144135781718197e-16 3.066599746678604e-17 -0.8801858489169759 -0.4746291935459779
12654934666.666666 -0.8861866555994156 -0.46332840560160604 1.5179424201601485e-16 2.870684400837728e-17 1.5179424201601485e-16 2.870684400837728e-17 -0.8861863281260404 -0.4633290319441347
12655552000.0 -0.8920420585784244 -0.4519523932085874 1.5212179484233606e-16 2.674369023047934e-17 1.5212179484233606e-16 2.674369023047934e-17 -0.8920417391610111 -0.4519530236588774
12656169333.333334 -0.8977514348045955 -0.4405023964816693 1.524239718190875e-16 2.477686348643729e-17 1.524239718190875e-16 2.477686348643729e-17 -0.8977511234946436 -0.4405030309361204
12656786666.666666 -0.9033138496566022 -0.4289802897784141 1.5270073269730285e-16 2.2806691611337444e-17 1.5270073269730285e-16 2.2806691611337444e-17 -0.9033135465042803 -0.42898092813278155
12657404000.0 -0.9087283925705105 -0.4173879592609475 1.529520414611291e-16 2.0833502867469694e-17 1.529520414611291e-16 2.0833502867469694e-17 -0.9087280976246463 -0.4173886014103575
12658021333.333334 -0.9139941771890322 -0.4057273025867835 1.5317786633215204e-16 1.8857625889688276e-17 1.5317786633215204e-16 1.8857625889688276e-17 -0.913993890497105 -0.4057279484257515
12658638666.666666 -0.9191103415064272 -0.39400022859859113 1.533781797730157e-16 1.687938963074955e-17 1.533781797730157e-16 1.687938963074955e-17 -0.9191100631145616 -0.39400087802103906
12659256000.0 -0.9240760480097823 -0.38220865701135676 1.535529584903401e-16 1.4899123306574623e-17 1.535529584903401e-16 1.4899123306574623e-17 -0.9240757779627395 -0.3822093099106306
12659873333.333334 -0.9288904838160369 -0.37035451809828274 1.5370218343692656e-16 1.2917156341568205e-17 1.5370218343692656e-16 1.2917156341568205e-17 -0.9288902221572074 -0.37035517436716914
12660490666.666666 -0.9335528608049899 -0.35843975237496 1.53825839813262e-16 1.0933818313889429e-17 1.53825839813262e-16 1.0933818313889429e-17 -0.9335526075763868 -0.35844041190570497
12661108000.0 -0.9380624157484602 -0.3464663102813388 1.539239170683243e-16 8.949438900622234e-18 1.539239170683243e-16 8.949438900622234e-18 -0.9380621709907142 -0.34646697296566514
12661725333.333334 -0.9424184104350868 -0.3344361518628139 1.5399640889966808e-16 6.964347823160589e-18 1.5399640889966808e-16 6.964347823160589e-18 -0.9424181741874356 -0.33443681759193794
12662342666.666666 -0.9466201317912311 -0.3223512464492058 1.540433132528193e-16 4.978874792388993e-18 1.540433132528193e-16 4.978874792388993e-18 -0.9466199040915163 -0.3223519151138565
12662960000.0 -0.9506668919977439 -0.3102135723322759 1.5406463231995757e-16 2.993349454026089e-18 1.5406463231995757e-16 2.993349454026089e-18 -0.9506666728824068 -0.3102142438227132
12663577333.333334 -0.9545580286025264 -0.2980251164419892 1.5406037253789729e-16 1.0081013339566521e-18 1.5406037253789729e-16 1.0081013339566521e-18 -0.9545578181065962 -0.2980257906480199
12664194666.666666 -0.958292904628915 -0.2857878740214156 1.5403054458536469e-16 -9.765402164302805e-19 1.5403054458536469e-16 -9.765402164302805e-19 -0.9582927027860079 -0.2857885508324131
12664812000.0 -0.9618709086800786 -0.2735038482997316 1.5397516337957234e-16 -2.960246074765437e-18 1.5397516337957234e-16 -2.960246074765437e-18 -0.9618707155223916 -0.2735045276046541
12665429333.333334 -0.9652914550389865 -0.26117505016467335 1.5389424807209154e-16 -4.9426874022604064e-18 1.5389424807209154e-16 -4.9426874022604064e-18 -0.9652912705972911 -0.26117573185208137
12666046666.666666 -0.9685539837643391 -0.2488034978331924 1.5378782204402598e-16 -6.923535698104168e-18 1.5378782204402598e-16 -6.923535698104168e-18 -0.9685538080679773 -0.24880418179126731
12666664000.0 -0.9716579607822745 -0.23639121652090972 1.5365591290048002e-16 -8.902462853931017e-18 1.5365591290048002e-16 -8.902462853931017e-18 -0.9716577938591543 -0.23639190263747223
12667281333.333334 -0.9746028779736924 -0.22394023811097355 1.5349855246433707e-16 -1.0879141207983575e-17 1.5349855246433707e-16 -1.0879141207983575e-17 -0.9746027198502828 -0.22394092627350196
12667898666.666666 -0.9773882532575345 -0.21145260082105666 1.5331577676933296e-16 -1.285324359939045e-17 1.5331577676933296e-16 -1.285324359939045e-17 -0.9773881039588616 -0.21145329091670528
12668516000.0 -0.9800136306696544 -0.1989303488698654 1.5310762605243395e-16 -1.4824443422243286e-17 1.5310762605243395e-16 -1.4824443422243286e-17 -0.980013490219297 -0.19893104078548307
12669133333.333334 -0.9824785804374263 -0.18637553214266991 1.5287414474552814e-16 -1.6792414679526102e-17 1.5287414474552814e-16 -1.6792414679526102e-17 -0.9824784488575129 -0.18637622576481874
12669750666.666666 -0.9847826990501807 -0.17379020585534988 1.5261538146641528e-16 -1.8756832037000924e-17 1.5261538146641528e-16 -1.8756832037000924e-17 -0.9847825763613859 -0.17379090107032363
