! Parameters = {f0=12700.012000; bw=77.238000; Q=6100.000000; N=10; m_0_1=1.307202; m_1_1=0.843287; m_1_2=1.142014; m_2_2=0.842638; m_2_3=0.778977; m_2_8=0.002424; m_2_9=0.039128; m_3_3=0.840701; m_3_4=0.667506; m_3_7=0.003024; m_3_8=-0.094064; m_3_9=0.002424; m_4_4=0.837776; m_4_5=0.503841; m_4_6=0.006541; m_4_7=-0.114613; m_4_8=0.003024; m_5_5=0.838158; m_5_6=0.911196; m_5_7=0.006541; m_6_6=0.838157; m_6_7=0.504183; m_7_7=0.837790; m_7_8=0.667624; m_8_8=0.840699; m_8_9=0.779290; m_9_9=0.842633; m_9_10=1.143092; m_10_10=0.843277; m_10_11=1.307997}
!
! Created with skrf (http://scikit-rf.org).
# Hz S RI R 50.0 
!freq ReS11 ImS11 ReS21 ImS21 ReS12 ImS12 ReS22 ImS22
12607400000.0 -0.9605131947892533 -0.2782344382630511 1.3139147934793663e-16 -7.95398409114546e-19 1.3139147934793663e-16 -7.95398409114546e-19 -0.9605130031850776 -0.2782350997128063
12608017333.333334 -0.9636820928565615 -0.2670520996124348 1.3134742934002159e-16 -2.333633739461173e-18 1.3134742934002159e-16 -2.333633739461173e-18 -0.9636819089620183 -0.26705276321194016
12608634666.666666 -0.9667208103735659 -0.255833685800929 1.3128538124060255e-16 -3.870946657837923e-18 1.3128538124060255e-16 -3.870946657837923e-18 -0.9667206342127401 -0.2558343514603349
12609252000.0 -0.9696289368503164 -0.2445807122860235 1.3120535060669972e-16 -5.4071267002598886e-18 1.3120535060669972e-16 -5.4071267002598886e-18 -0.969628768446246 -0.24458137991521076
12609869333.333334 -0.9724060794379474 -0.23329469919381401 1.3110735545499868e-16 -6.941963640511076e-18 1.3110735545499868e-16 -6.941963640511076e-18 -0.9724059188126224 -0.23329536870240675
12610486666.666666 -0.975051862981743 -0.22197717111371085 1.3099141625841937e-16 -8.475247518832418e-18 1.3099141625841937e-16 -8.475247518832418e-18 -0.9750517101560977 -0.2219778424110876
12611104000.0 -0.9775659300718956 -0.21062965689209778 1.3085755594234352e-16 -1.0006768670655123e-17 1.3085755594234352e-16 -1.0006768670655123e-17 -0.977565785065811 -0.21063032988740477
12611721333.333334 -0.9799479410916666 -0.1992536894263606 1.3070579988051538e-16 -1.1536317755189311e-17 1.3070579988051538e-16 -1.1536317755189311e-17 -0.9799478039239649 -0.19925436402852334
12612338666.666666 -0.982197574263345 -0.18785080545745253 1.3053617589060273e-16 -1.3063685784009097e-17 1.3053617589060273e-16 -1.3063685784009097e-17 -0.9821974449517872 -0.18785148157518855
12612956000.0 -0.9843145256917276 -0.17642254536221721 1.3034871422942343e-16 -1.45886641495967e-17 1.3034871422942343e-16 -1.45886641495967e-17 -0.9843144042530115 -0.17642322290404797
12613573333.333334 -0.986298509405087 -0.16497045294572166 1.3014344758784896e-16 -1.6111044653734246e-17 1.3014344758784896e-16 -1.6111044653734246e-17 -0.9862983958548482 -0.16497113181998585
12614190666.666666 -0.9881492573938808 -0.15349607523234796 1.2992041108536354e-16 -1.763061953593945e-17 1.2992041108536354e-16 -1.763061953593945e-17 -0.988149151746684 -0.15349675534721258
12614808000.0 -0.9898665196469363 -0.14200096225686518 1.2967964226430218e-16 -1.9147181501752444e-17 1.2967964226430218e-16 -1.9147181501752444e-17 -0.9898664219162786 -0.14200164352033884
12615425333.333334 -0.9914500641852001 -0.13048666685518048 1.2942118108375205e-16 -2.0660523750991953e-17 1.2942118108375205e-16 -2.0660523750991953e-17 -0.99144997438351 -0.13048734917512594
12616042666.666666 -0.9928996770930988 -0.11895474445448931 1.2914506991313247e-16 -2.217044000588847e-17 1.2914506991313247e-16 -2.217044000588847e-17 -0.9928995952317294 -0.11895542773863521
12616660000.0 -0.9942151625474357 -0.1074067528630715 1.2885135352543784e-16 -2.3676724539189976e-17 1.2885135352543784e-16 -2.3676724539189976e-17 -0.994215088636668 -0.10740743701902548
12617277333.333334 -0.9953963428438307 -0.0958442520599941 1.2854007909016212e-16 -2.5179172202129738e-17 1.2854007909016212e-16 -2.5179172202129738e-17 -0.9953962768928711 -0.09584493699525516
12617894666.666666 -0.9964430584207234 -0.08426880398443601 1.2821129616589631e-16 -2.667757845231878e-17 1.2821129616589631e-16 -2.667757845231878e-17 -0.9964430004377017 -0.0842694896064068
12618512000.0 -0.9973551678809629 -0.07268197232429437 1.2786505669258777e-16 -2.8171739381602327e-17 1.2786505669258777e-16 -2.8171739381602327e-17 -0.9973551178729313 -0.07268265854029385
12619129333.333334 -0.9981325480108564 -0.06108532230551737 1.2750141498350328e-16 -2.9661451743694794e-17 1.2750141498350328e-16 -2.9661451743694794e-17 -0.9981325059837903 -0.06108600902279342
12619746666.666666 -0.99877509379685 -0.04948042048029548 1.2712042771684391e-16 -3.114651298183333e-17 1.2712042771684391e-16 -3.114651298183333e-17 -0.9987750597556456 -0.049481107606037265
12620364000.0 -0.9992827184397133 -0.03786883451535554 1.2672215392704568e-16 -3.262672125628928e-17 1.2672215392704568e-16 -3.262672125628928e-17 -0.9992826923881872 -0.03786952195670614
12620981333.333334 -0.9996553533662398 -0.026252132980615704 1.2630665499577766e-16 -3.410187547170589e-17 1.2630665499577766e-16 -3.410187547170589e-17 -0.9996553353071308 -0.026252820644684725
12621598666.666666 -0.9998929482385367 -0.014631885136923917 1.2587399464259696e-16 -3.557177530442435e-17 1.2587399464259696e-16 -3.557177530442435e-17 -0.9998929381735018 -0.014632572930799876
12622216000.0 -0.9999954709608132 -0.00300966072412822 1.2542423891529902e-16 -3.703622122963898e-17 1.2542423891529902e-16 -3.703622122963898e-17 -0.9999954688904305 -0.0030103485548912258
12622833333.333334 -0.9999629076837153 0.008612970250860316 1.249574561799558e-16 -3.8495014548425315e-17 1.249574561799558e-16 -3.8495014548425315e-17 -0.9999629136074822 0.00861228247612606
12623450666.666666 -0.9997952628061999 0.020234437726154478 1.2447371711063813e-16 -3.994795741465557e-17 1.2447371711063813e-16 -3.994795741465557e-17 -0.9997952767225349 0.02023375010034811
12624068000.0 -0.9994925589749427 0.0318531717970706 1.239730946788135e-16 -4.139485286181799e-17 1.239730946788135e-16 -4.139485286181799e-17 -0.9994925808811835 0.031852484413062036
12624685333.333334 -0.9990548370812672 0.043467602928343535 1.2345566414244874e-16 -4.28355048296592e-17 1.2345566414244874e-16 -4.28355048296592e-17 -0.9990548669736738 0.04346691587896098
12625302666.666666 -0.9984821562556411 0.05507616216566711 1.2292150303480718e-16 -4.426971819068552e-17 1.2292150303480718e-16 -4.426971819068552e-17 -0.9984821941293951 0.05507547554368449
12625920000.0 -0.9977745938596623 0.06667728134829191 1.2237069115290565e-16 -4.5697298776612883e-17 1.2237069115290565e-16 -4.5697298776612883e-17 -0.9977746397088669 0.06667659524641634
12626537333.333334 -0.9969322454756345 0.07826939332026667 1.2180331054571506e-16 -4.711805340454275e-17 1.2180331054571506e-16 -4.711805340454275e-17 -0.9969322992933168 0.07826870783112588
12627154666.666666 -0.9959552248936447 0.08985093214242394 1.2121944550201927e-16 -4.853178990309361e-17 1.2121944550201927e-16 -4.853178990309361e-17 -0.995955286671756 0.089850247358554
12627772000.0 -0.994843664096177 0.10142033330405917 1.2061918253797034e-16 -4.993831713838314e-17 1.2061918253797034e-16 -4.993831713838314e-17 -0.9948437338255939 0.10141964931789164
12628389333.333334 -0.9935977132403193 0.11297603393385017 1.2000261038438581e-16 -5.133744503975487e-17 1.2000261038438581e-16 -5.133744503975487e-17 -0.9935977909108454 0.11297535083769998
12629006666.666666 -0.9922175406374275 0.1245164730115177 1.1936981997368494e-16 -5.2728984625500174e-17 1.1936981997368494e-16 -5.2728984625500174e-17 -0.9922176262377959 0.12451579089757057
12629624000.0 -0.9907033327304451 0.1360400915781899 1.1872090442658676e-16 -5.4112748028280326e-17 1.1872090442658676e-16 -5.4112748028280326e-17 -0.9907034262483168 0.13603941053848964
12630241333.333334 -0.9890552940686671 0.14754533294739142 1.1805595903847335e-16 -5.5488548520481775e-17 1.1805595903847335e-16 -5.5488548520481775e-17 -0.9890553954906353 0.14754465307382789
12630858666.666666 -0.9872736472801583 0.15903064291496508 1.173750812654872e-16 -5.685620053934415e-17 1.173750812654872e-16 -5.685620053934415e-17 -0.9872737565917518 0.15902996429926178
12631476000.0 -0.9853586330416252 0.17049446996941797 1.1667837071030047e-16 -5.82155197119955e-17 1.1667837071030047e-16 -5.82155197119955e-17 -0.9853587502273062 0.17049379270311926
12632093333.333334 -0.9833105100459419 0.18193526550122838 1.1596592910765192e-16 -5.956632288020189e-17 1.1596592910765192e-16 -5.956632288020189e-17 -0.9833106350891119 0.1819345896756876
12632710666.666666 -0.9811295549672092 0.193351484012043 1.1523786030955083e-16 -6.090842812503346e-17 1.1523786030955083e-16 -6.090842812503346e-17 -0.9811296878502093 0.19335080971840982
12633328000.0 -0.9788160624233379 0.20474158332367653 1.1449427027019695e-16 -6.224165479134734e-17 1.1449427027019695e-16 -6.224165479134734e-17 -0.9788162031274517 0.20474091065288477
12633945333.333334 -0.9763703449362788 0.21610402478627133 1.1373526703066083e-16 -6.356582351200942e-17 1.1373526703066083e-16 -6.356582351200942e-17 -0.9763704934417367 0.21610335382902698
12634562666.666666 -0.9737927328898144 0.2274372734861211 1.1296096070323244e-16 -6.48807562320246e-17 1.1296096070323244e-16 -6.48807562320246e-17 -0.9737928891757931 0.22743660433288948
12635180000.0 -0.9710835744849153 0.23873979845307272 1.1217146345552978e-16 -6.61862762324095e-17 1.1217146345552978e-16 -6.61862762324095e-17 -0.971083738529544 0.23873913119406684
12635797333.333334 -0.9682432356926777 0.2500100728674503 1.1136688949431022e-16 -6.748220815391165e-17 1.1136688949431022e-16 -6.748220815391165e-17 -0.9682434074730393 0.25000940759261847
12636414666.666666 -0.9652721002049506 0.26124657426603176 1.1054735504901761e-16 -6.876837802051662e-17 1.1054735504901761e-16 -6.876837802051662e-17 -0.9652722796970851 0.2612459110650455
12637032000.0 -0.9621705693824395 0.2724477847479901 1.0971297835505693e-16 -7.004461326276004e-17 1.0971297835505693e-16 -7.004461326276004e-17 -0.9621707565613472 0.2724471237102318
12637649333.333334 -0.9589390622005245 0.2836121911797741 1.088638796368019e-16 -7.13107427408338e-17 1.088638796368019e-16 -7.13107427408338e-17 -0.9589392570401711 0.2836115323943256
12638266666.666666 -0.9555780151926313 0.2947382853996521 1.0800018109032789e-16 -7.256659676750382e-17 1.0800018109032789e-16 -7.256659676750382e-17 -0.9555782176659491 0.2947376289552821
12638884000.0 -0.9520878823913005 0.3058245644212776 1.071220068658995e-16 -7.381200713078774e-17 1.071220068658995e-16 -7.381200713078774e-17 -0.9520880924701944 0.3058239104064301
12639501333.333334 -0.94846913526682 0.3168695306368612 1.0622948305017868e-16 -7.504680711645308e-17 1.0622948305017868e-16 -7.504680711645308e-17 -0.9484693529221698 0.31686887913964323
12640118666.666666 -0.9447222626636049 0.3278716920192606 1.0532273764818812e-16 -7.627083153027999e-17 1.0532273764818812e-16 -7.627083153027999e-17 -0.944722487865269 0.3278710431274303
12640736000.0 -0.9408477707339762 0.33882956232407097 1.0440190056498967e-16 -7.748391672014483e-17 1.0440190056498967e-16 -7.748391672014483e-17 -0.9408480034507981 0.33882891612502647
12641353333.333334 -0.9368461828700643 0.34974166128959094 1.0346710358717905e-16 -7.868590059779279e-17 1.0346710358717905e-16 -7.868590059779279e-17 -0.9368464230698751 0.349741017870358
12641970666.666666 -0.9327180396328865 0.3606065148374316 1.0251848036402967e-16 -7.987662266052046e-17 1.0251848036402967e-16 -7.987662266052046e-17 -0.9327182872825082 0.3606058742846515
12642588000.0 -0.9284638986793813 0.37142265527145424 1.0155616638847713e-16 -8.105592401251421e-17 1.0155616638847713e-16 -8.105592401251421e-17 -0.9284641537446341 0.3714220176713729
12643205333.333334 -0.9240843346871435 0.3821886214758789 1.0058029897781432e-16 -8.222364738601925e-17 1.0058029897781432e-16 -8.222364738601925e-17 -0.9240845971328494 0.38218798691433536
12643822666.666666 -0.9195799392766671 0.3929029591129793 9.959101725413621e-17 -8.337963716228535e-17 9.959101725413621e-17 -8.337963716228535e-17 -0.9195802090666545 0.39290232767539324
12644440000.0 -0.9149513209315484 0.4035642208192254 9.858846212458926e-17 -8.452373939222387e-17 9.858846212458926e-17 -8.452373939222387e-17 -0.914951598028657 0.4035635925905866
12645057333.333334 -0.9101991049162411 0.4141709664009379 9.7572776261335e-17 -8.565580181688809e-17 9.7572776261335e-17 -8.565580181688809e-17 -0.9101993892823274 0.4141703414657943
12645674666.666666 -0.9053239331916133 0.4247217630287862 9.654410408131736e-17 -8.677567388766862e-17 9.654410408131736e-17 -8.677567388766862e-17 -0.9053242247875549 0.4247211414712323
12646292000.0 -0.9003264643280946 0.4352151854316284 9.550259172575411e-17 -8.78832067862957e-17 9.550259172575411e-17 -8.78832067862957e-17 -0.900326763113797 0.43521456733529434
12646909333.333334 -0.8952073734169373 0.4456498160885546 9.444838703946531e-17 -8.897825344452606e-17 9.444838703946531e-17 -8.897825344452606e-17 -0.8952076793513388 0.44564920153659515
12647526666.666666 -0.8899673519788708 0.45602424542071346 9.338163954990355e-17 -9.006066856366079e-17 9.338163954990355e-17 -9.006066856366079e-17 -0.8899676650199481 0.4560236344957963
12648144000.0 -0.8846071078706527 0.46633707198177393 9.230250044601646e-17 -9.113030863375334e-17 9.230250044601646e-17 -9.113030863375334e-17 -0.8846074279754264 0.4663364647660688
12648761333.333334 -0.8791273651895744 0.4765869026469882 9.121112255686e-17 -9.21870319525971e-17 9.121112255686e-17 -9.21870319525971e-17 -0.8791276923141162 0.47658629922215634
12649378666.666666 -0.8735288641756155 0.4867723528014646 9.01076603300236e-17 -9.323069864442912e-17 9.01076603300236e-17 -9.323069864442912e-17 -0.8735291982750513 0.48677175324864597
12649996000.0 -0.8678123611113293 0.4968920465274054 8.899226980980242e-17 -9.426117067841497e-17 8.899226980980242e-17 -9.426117067841497e-17 -0.8678127021398488 0.49689145092721
12650613333.333334 -0.8619786282198091 0.5069446167897541 8.786510861518026e-17 -9.527831188685249e-17 8.786510861518026e-17 -9.527831188685249e-17 -0.8619789761306696 0.5069440252222497
12651230666.666666 -0.8560284535603822 0.5169287056208376 8.672633591763201e-17 -9.62819879830881e-17 8.672633591763201e-17 -9.62819879830881e-17 -0.8560288083059167 0.51692811816554
12651848000.0 -0.8499626409219713 0.5268429643041304 8.557611241866027e-17 -9.727206657922604e-17 8.557611241866027e-17 -9.727206657922604e-17 -0.849963002453593 0.5268423810399914
12652465333.333334 -0.843782009714723 0.5366860535560776 8.441460032718191e-17 -9.824841720352259e-17 8.441460032718191e-17 -9.824841720352259e-17 -0.8437823779829354 0.5366854745614759
12653082666.666666 -0.8374873948592855 0.5464566437070935 8.32419633367208e-17 -9.921091131750967e-17 8.32419633367208e-17 -9.921091131750967e-17 -0.837487769813685 0.5464560690598231
12653700000.0 -0.8310796466738138 0.5561534148814896 8.205836660233514e-17 -1.0015942233290579e-16 8.205836660233514e-17 -1.0015942233290579e-16 -0.8310800282630996 0.55615284465875
12654317333.333334 -0.8245596307594165 0.5657750571752969 8.086397671746367e-17 -1.0109382562816079e-16 8.086397671746367e-17 -1.0109382562816079e-16 -0.8245600189313953 0.5657744914536813
12654934666.666666 -0.8179282278830187 0.5753202708335229 7.965896169048779e-17 -1.02013998564805e-16 7.965896169048779e-17 -1.02013998564805e-16 -0.8179286225846153 0.5753197096890109
12655552000.0 -0.8111863338583392 0.5847877664258053 7.844349092113593e-17 -1.0291982050349535e-16 7.844349092113593e-17 -1.0291982050349535e-16 -0.8111867350355993 0.5847872099337492
12656169333.333334 -0.8043348594251105 0.5941762650202399 7.721773517676002e-17 -1.0381117281974164e-16 7.721773517676002e-17 -1.0381117281974164e-16 -0.804335267023212 0.5941757132553572
12656786666.666666 -0.7973747301258495 0.6034844983564561 7.598186656835154e-17 -1.0468793891941322e-16 7.598186656835154e-17 -1.0468793891941322e-16 -0.7973751440891076 0.6034839513928179
12657404000.0 -0.7903068861808527 0.6127112090168905 7.473605852642649e-17 -1.0555000425392729e-16 7.473605852642649e-17 -1.0555000425392729e-16 -0.7903073064527284 0.6127106669279124
12658021333.333334 -0.7831322823612549 0.6218551505965567 7.348048577674499e-17 -1.0639725633514674e-16 7.348048577674499e-17 -1.0639725633514674e-16 -0.7831327088843629 0.6218546134549889
12658638666.666666 -0.775851887860091 0.6309150878713758 7.221532431585749e-17 -1.0722958474999521e-16 7.221532431585749e-17 -1.0722958474999521e-16 -0.7758523205762073 0.6309145557492932
12659256000.0 -0.7684666861611409 0.6398897969653284 7.09407513864401e-17 -1.0804688117481191e-16 7.09407513864401e-17 -1.0804688117481191e-16 -0.7684671250112093 0.6398892699341197
12659873333.333334 -0.760977674906335 0.6487780655154455 6.965694545255407e-17 -1.0884903938935685e-16 6.965694545255407e-17 -1.0884903938935685e-16 -0.7609781198304777 0.648777543645806
12660490666.666666 -0.7533858657609417 0.6575786928356574 6.836408617469305e-17 -1.0963595529056028e-16 6.836408617469305e-17 -1.0963595529056028e-16 -0.7533863166984661 0.6575781761975779
12661108000.0 -0.7456922842766612 0.6662904900792677 6.706235438464451e-17 -1.1040752690599468e-16 6.706235438464451e-17 -1.1040752690599468e-16 -0.7456927411660683 0.6662899787420257
12661725333.333334 -0.7378979697534581 0.6749122803991194 6.575193206030283e-17 -1.1116365440698552e-16 6.575193206030283e-17 -1.1116365440698552e-16 -0.7378984325324517 0.67491177443127
12662342666.666666 -0.7300039750988878 0.6834428991068955 6.443300230022965e-17 -1.1190424012148892e-16 6.443300230022965e-17 -1.1190424012148892e-16 -0.7300044437043806 0.6834423985762607
12662960000.0 -0.7220113666859921 0.6918811938303 6.310574929811978e-17 -1.1262918854663762e-16 6.310574929811978e-17 -1.1262918854663762e-16 -0.7220118410541173 0.6918806988039616
12663577333.333334 -0.713921224209152 0.7002260246688352 6.177035831713717e-17 -1.1333840636097917e-16 6.177035831713717e-17 -1.1333840636097917e-16 -0.7139217042752704 0.7002255352131254
12664194666.666666 -0.7057346405383518 0.7084762643476624 6.042701566408855e-17 -1.140318024364259e-16 6.042701566408855e-17 -1.140318024364259e-16 -0.7057351262370599 0.708475780528153
12664812000.0 -0.6974527215714872 0.7166307983699417 5.907590866346408e-17 -1.1470928784989817e-16 5.907590866346408e-17 -1.1470928784989817e-16 -0.6974532128366288 0.7166303202514384
12665429333.333334 -0.6890765860848955 0.7246885251674686 5.771722563137428e-17 -1.153707758946475e-16 5.771722563137428e-17 -1.153707758946475e-16 -0.6890770828495667 0.7246880528139991
12666046666.666666 -0.6806073655824436 0.7326483562492594 5.635115584935221e-17 -1.1601618209127779e-16 5.635115584935221e-17 -1.1601618209127779e-16 -0.6806078677790061 0.7326478897240677
12666664000.0 -0.6720462041423928 0.7405092163488693 5.497788953797987e-17 -1.166454241984805e-16 5.497788953797987e-17 -1.166454241984805e-16 -0.6720467117024802 0.7405087557144058
12667281333.333334 -0.6633942582630753 0.7482700435694318 5.3597617830509166e-17 -1.1725842222340704e-16 5.3597617830509166e-17 -1.1725842222340704e-16 -0.6633947711176038 0.7482695888873447
12667898666.666666 -0.6546526967065835 0.7559297895271833 5.221053274625839e-17 -1.1785509843177879e-16 5.221053274625839e-17 -1.1785509843177879e-16 -0.6546532147857616 0.755929340858312
12668516000.0 -0.6458227003408246 0.7634874194931446 5.081682716393085e-17 -1.1843537735766916e-16 5.081682716393085e-17 -1.1843537735766916e-16 -0.6458232235741596 0.7634869768975078
12669133333.333334 -0.6369054619801228 0.7709419125327801 4.9416694794889614e-17 -1.1899918581294195e-16 4.9416694794889614e-17 -1.1899918581294195e-16 -0.636905990296435 0.770941476069573
12669750666.666666 -0.6279021862240082 0.778292261643996 4.8010330156214685e-17 -1.1954645289642426e-16 4.8010330156214685e-17 -1.1954645289642426e-16 -0.6279027195514368 0.7782918313715778
