! Parameters = {f0=12700.012000; bw=77.238000; Q=6100.000000; N=10; m_0_1=1.288183; m_1_1=0.558002; m_1_2=1.122995; m_2_2=0.557353; m_2_3=0.759958; m_2_8=0.001473; m_2_9=0.038177; m_3_3=0.555416; m_3_4=0.648487; m_3_7=0.002073; m_3_8=-0.095015; m_3_9=0.001473; m_4_4=0.552491; m_4_5=0.484822; m_4_6=0.005590; m_4_7=-0.115564; m_4_8=0.002073; m_5_5=0.552873; m_5_6=0.892177; m_5_7=0.005590; m_6_6=0.552872; m_6_7=0.485164; m_7_7=0.552505; m_7_8=0.648605; m_8_8=0.555414; m_8_9=0.760271; m_9_9=0.557348; m_9_10=1.124073; m_10_10=0.557992; m_10_11=1.288978}
!
! Created with skrf (http://scikit-rf.org).
# Hz S RI R 50.0 
!freq ReS11 ImS11 ReS21 ImS21 ReS12 ImS12 ReS22 ImS22
12607400000.0 -0.7007662945696332 0.7133909169557489 5.650529939317404e-17 -1.0633004416962512e-16 5.650529939317404e-17 -1.0633004416962512e-16 -0.7007667787178248 0.7133904413750307
12608017333.333334 -0.6928331389915096 0.7210979416937688 5.53054874093428e-17 -1.0693246641887137e-16 5.53054874093428e-17 -1.0693246641887137e-16 -0.6928336283461762 0.7210974715199677
12608634666.666666 -0.6848152269288417 0.728716752220105 5.409927039034324e-17 -1.0752136027738373e-16 5.409927039034324e-17 -1.0752136027738373e-16 -0.6848157214296122 0.7287162875102062
12609252000.0 -0.6767135392384307 0.7362464165014423 5.2886800762895775e-17 -1.0809665785047794e-16 5.2886800762895775e-17 -1.0809665785047794e-16 -0.6767140388243106 0.736245957311758
12609869333.333334 -0.6685290670255952 0.7436860134100313 5.166823167103163e-17 -1.0865829295965569e-16 5.166823167103163e-17 -1.0865829295965569e-16 -0.668529571634974 0.7436855597961928
12610486666.666666 -0.6602628115230315 0.7510346328362758 5.0443716956799184e-17 -1.0920620115014762e-16 5.0443716956799184e-17 -1.0920620115014762e-16 -0.6602633210936892 0.7510341848532259
12611104000.0 -0.6519157839680749 0.7582913758002976 4.9213411140841666e-17 -1.0974031969826282e-16 4.9213411140841666e-17 -1.0974031969826282e-16 -0.6519162984371921 0.7582909335022858
12611721333.333334 -0.6434890054793765 0.765455354561572 4.7977469402975946e-17 -1.1026058761848454e-16 4.7977469402975946e-17 -1.1026058761848454e-16 -0.64348952478354 0.7654549180021467
12612338666.666666 -0.6349835069316644 0.7725256927278095 4.6736047562622064e-17 -1.1076694567038103e-16 4.6736047562622064e-17 -1.1076694567038103e-16 -0.6349840310068761 0.7725252619598127
12612956000.0 -0.6264003288296117 0.7795015253621848 4.548930205919227e-17 -1.1125933636528276e-16 4.548930205919227e-17 -1.1125933636528276e-16 -0.6264008576112952 0.7795011004377433
12613573333.333334 -0.617740521180937 0.7863819990888156 4.4237389932439216e-17 -1.117377039727278e-16 4.4237389932439216e-17 -1.117377039727278e-16 -0.617741054603948 0.7863815800593381
12614190666.666666 -0.6090051433675225 0.7931662721975278 4.298046880267697e-17 -1.1220199452671096e-16 4.298046880267697e-17 -1.1220199452671096e-16 -0.6090056813661536 0.793165859113695
12614808000.0 -0.600195264016029 0.799853514746637 4.171869685098548e-17 -1.126521558316919e-16 4.171869685098548e-17 -1.126521558316919e-16 -0.6001958065240212 0.799853107658399
12615425333.333334 -0.5913119608671283 0.8064429086645198 4.04522327993339e-17 -1.1308813746838896e-16 4.04522327993339e-17 -1.1308813746838896e-16 -0.5913125078176771 0.8064425076210883
12616042666.666666 -0.5823563206436579 0.8129336478496876 3.918123589064753e-17 -1.1350989079934784e-16 3.918123589064753e-17 -1.1350989079934784e-16 -0.5823568719694214 0.8129332528995292
12616660000.0 -0.5733294389176794 0.8193249382694021 3.7905865868818313e-17 -1.1391736897428823e-16 3.7905865868818313e-17 -1.1391736897428823e-16 -0.5733299945507868 0.8193245494602329
12617277333.333334 -0.5642324199764274 0.8256159980568227 3.662628295865696e-17 -1.1431052693522557e-16 3.662628295865696e-17 -1.1431052693522557e-16 -0.5642329798484889 0.8256156154356052
12617894666.666666 -0.5550663766873408 0.831806057606583 3.5342647845813635e-17 -1.1468932142136418e-16 3.5342647845813635e-17 -1.1468932142136418e-16 -0.5550669407294541 0.8318056812195161
12618512000.0 -0.5458324303616594 0.8378943596691065 3.405512165659602e-17 -1.1505371097377872e-16 3.405512165659602e-17 -1.1505371097377872e-16 -0.5458329985044189 0.8378939895616234
12619129333.333334 -0.5365317106175831 0.8438801594430275 3.276386593782308e-17 -1.154036559398477e-16 3.276386593782308e-17 -1.154036559398477e-16 -0.5365322827910877 0.8438797956597867
12619746666.666666 -0.5271653552418427 0.8497627246664569 3.1469042636555486e-17 -1.1573911847748262e-16 3.1469042636555486e-17 -1.1573911847748262e-16 -0.5271659313757061 0.8497623672513412
12620364000.0 -0.5177345100505129 0.8555413357065657 3.0170814079817075e-17 -1.1606006255912137e-16 3.0170814079817075e-17 -1.1606006255912137e-16 -0.5177350900738706 0.8555409847026733
12620981333.333334 -0.5082403287490553 0.8612152856474804 2.886934295430672e-17 -1.1636645397548667e-16 2.886934295430672e-17 -1.1636645397548667e-16 -0.5082409125905744 0.8612149410971215
12621598666.666666 -0.49868397279094223 0.8667838803769145 2.7564792286010843e-17 -1.1665826033913401e-16 2.7564792286010843e-17 -1.1665826033913401e-16 -0.4986845603788298 0.8667835423216065
12622216000.0 -0.4890666112356933 0.8722464386710077 2.6257325419831236e-17 -1.1693545108775861e-16 2.6257325419831236e-17 -1.1693545108775861e-16 -0.48906720249770397 0.872246107151467
12622833333.333334 -0.47938942060578343 0.8776022922776979 2.4947105999158072e-17 -1.171979974872804e-16 2.4947105999158072e-17 -1.171979974872804e-16 -0.47939001546923166 0.8776019673338413
12623450666.666666 -0.46965358474292007 0.8828507859983724 2.3634297945433772e-17 -1.174458726346962e-16 2.3634297945433772e-17 -1.174458726346962e-16 -0.46965418313468504 0.8828504676693051
12624068000.0 -0.4598602946629417 0.8879912777681617 2.2319065437660477e-17 -1.1767905146070994e-16 2.2319065437660477e-17 -1.1767905146070994e-16 -0.4598608965094785 0.8879909660921765
12624685333.333334 -0.4500107484101913 0.893023138734444 2.1001572891893137e-17 -1.1789751073213062e-16 2.1001572891893137e-17 -1.1789751073213062e-16 -0.4500113536375405 0.8930228337490183
12625302666.666666 -0.440106150911186 0.8979457533336639 1.968198494076862e-17 -1.181012290540328e-16 1.968198494076862e-17 -1.181012290540328e-16 -0.4401067594449807 0.89794545507545
12625920000.0 -0.43014771382683015 0.9027585193668188 1.836046641287801e-17 -1.1829018687170997e-16 1.836046641287801e-17 -1.1829018687170997e-16 -0.4301483255923073 0.9027582278716451
12626537333.333334 -0.42013665540454953 0.907460848072961 1.703718231230417e-17 -1.1846436647236982e-16 1.703718231230417e-17 -1.1846436647236982e-16 -0.42013727032655745 0.907460563375824
12627154666.666666 -0.4100742003291045 0.9120521642012938 1.5712297797994274e-17 -1.1862375198662385e-16 1.5712297797994274e-17 -1.1862375198662385e-16 -0.410074818332113 0.912051886336355
12627772000.0 -0.3999615795726155 0.9165319060816145 1.4385978163174755e-17 -1.1876832938973785e-16 1.4385978163174755e-17 -1.1876832938973785e-16 -0.39996220058072435 0.9165316350821955
12628389333.333334 -0.38980003024433557 0.92089952569286 1.3058388814805033e-17 -1.1889808650264779e-16 1.3058388814805033e-17 -1.1889808650264779e-16 -0.38980065418128496 0.9208992615914408
12629006666.666666 -0.37959079543892293 0.9251544887303231 1.1729695252930618e-17 -1.190130129927577e-16 1.1729695252930618e-17 -1.190130129927577e-16 -0.37959142222810216 0.925154231558536
12629624000.0 -0.3693351240846544 0.9292962746708887 1.0400063050120483e-17 -1.19113100374497e-16 1.0400063050120483e-17 -1.19113100374497e-16 -0.3693357536491115 0.9292960244595161
12630241333.333334 -0.35903427079048444 0.93332437683678 9.069657830846044e-18 -1.191983420096547e-16 9.069657830846044e-18 -1.191983420096547e-16 -0.3590349030529351 0.9333241336157488
12630858666.666666 -0.3486894956927222 0.9372383024574776 7.738645250902429e-18 -1.1926873310748117e-16 7.738645250902429e-18 -1.1926873310748117e-16 -0.3486901305755596 0.9372380662558567
12631476000.0 -0.33830206430058346 0.9410375727301132 6.407190976776132e-18 -1.193242707245625e-16 6.407190976776132e-18 -1.193242707245625e-16 -0.3383027017258884 0.941037343576111
12632093333.333334 -0.3278732473416957 0.9447217228779223 5.075460665100929e-18 -1.1936495376446204e-16 5.075460665100929e-18 -1.1936495376446204e-16 -0.32787388723124505 0.9447215007988816
12632710666.666666 -0.31740432060659435 0.9482903022071272 3.743619942058545e-18 -1.1939078297713607e-16 3.743619942058545e-18 -1.1939078297713607e-16 -0.31740496288187153 0.948290087229523
12633328000.0 -0.30689656479235544 0.9517428741621716 2.41183438279454e-18 -1.1940176095811883e-16 2.41183438279454e-18 -1.1940176095811883e-16 -0.3068972093745593 0.951742666311607
12633945333.333334 -0.2963512653462717 0.9550790163790025 1.0802694908960993e-18 -1.193978921474781e-16 1.0802694908960993e-18 -1.193978921474781e-16 -0.2963519121563271 0.9550788156802075
12634562666.666666 -0.28576971230844056 0.9582983207367998 -2.5090932216077374e-19 -1.1937918282854275e-16 -2.5090932216077374e-19 -1.1937918282854275e-16 -0.2857703612670072 0.9582981272136262
12635180000.0 -0.27515320015397493 0.9614003934078909 -1.5815367575242314e-18 -1.1934564112640174e-16 -1.5815367575242314e-18 -1.1934564112640174e-16 -0.2751538511814574 0.9614002070833099
12635797333.333334 -0.26450302763461825 0.9643848549059343 -2.911447649464327e-18 -1.1929727700617476e-16 -2.911447649464327e-18 -1.1929727700617476e-16 -0.2645036806511764 0.9643846758020365
12636414666.666666 -0.25382049761997516 0.9672513401323191 -4.240476985829278e-18 -1.1923410227105557e-16 -4.240476985829278e-18 -1.1923410227105557e-16 -0.25382115254553306 0.9672511682703083
12637032000.0 -0.24310691693796177 0.9699994984208693 -5.568459928508531e-18 -1.191561305601261e-16 -5.568459928508531e-18 -1.191561305601261e-16 -0.2431075736922174 0.9699993338210606
12637649333.333334 -0.23236359621504687 0.9726289935807128 -6.89523183383233e-18 -1.1906337734594517e-16 -6.89523183383233e-18 -1.1906337734594517e-16 -0.2323642547174828 0.972628836262532
12638266666.666666 -0.22159184971589158 0.9751395039374156 -8.2206282729561e-18 -1.1895585993190944e-16 -8.2206282729561e-18 -1.1895585993190944e-16 -0.22159250988578433 0.9751393539193961
12638884000.0 -0.21079299518257164 0.9775307223723354 -9.544485052206788e-18 -1.1883359744938816e-16 -9.544485052206788e-18 -1.1883359744938816e-16 -0.21079365693900143 0.9775305796721151
12639501333.333334 -0.19996835367334487 0.9798023563601953 -1.0866638233395426e-17 -1.1869661085463162e-16 -1.0866638233395426e-17 -1.1869661085463162e-16 -0.19996901693520605 0.9798022209945157
12640118666.666666 -0.18911924940121036 0.9819541280048382 -1.2186924154066407e-17 -1.185449229254565e-16 -1.2186924154066407e-17 -1.185449229254565e-16 -0.1891199140872209 0.9819539999895418
12640736000.0 -0.17824700957143824 0.9839857740733141 -1.3505179447778696e-17 -1.183785582576981e-16 -1.3505179447778696e-17 -1.183785582576981e-16 -0.17824767560014979 0.9839856534233425
12641353333.333334 -0.1673529642199903 0.9858970460279326 -1.482124106420772e-17 -1.181975432614535e-16 -1.482124106420772e-17 -1.181975432614535e-16 -0.16735363150979826 0.985896932757325
12641970666.666666 -0.15643844605005816 0.9876877100568087 -1.6134946289351543e-17 -1.1800190615708325e-16 -1.6134946289351543e-17 -1.1800190615708325e-16 -0.15643911451921189 0.9876876041787019
12642588000.0 -0.14550479026942134 0.9893575471023967 -1.7446132765583032e-17 -1.1779167697100144e-16 -1.7446132765583032e-17 -1.1779167697100144e-16 -0.14550545983603358 0.98935744862902
12643205333.333334 -0.1345533344270785 0.9909063528882908 -1.8754638511687055e-17 -1.175668875312399e-16 -1.8754638511687055e-17 -1.175668875312399e-16 -0.13455400500913595 0.9909062618309673
12643822666.666666 -0.12358541824936807 0.9923339379442533 -2.0060301942852888e-17 -1.1732757146278704e-16 -2.0060301942852888e-17 -1.1732757146278704e-16 -0.12358608976474096 0.9923338543133965
12644440000.0 -0.11260238347649697 0.9936401276293302 -2.1362961890579732e-17 -1.1707376418271142e-16 -2.1362961890579732e-17 -1.1707376418271142e-16 -0.1126030558429497 0.9936400514344462
12645057333.333334 -0.10160557369809242 0.9948247621532653 -2.266245762254595e-17 -1.1680550289506022e-16 -2.266245762254595e-17 -1.1680550289506022e-16 -0.10160624683329321 0.9948246934029492
12645674666.666666 -0.09059633418897688 0.9958876965960267 -2.395862886239317e-17 -1.1652282658554194e-16 -2.395862886239317e-17 -1.1652282658554194e-16 -0.09059700801050777 0.9958876352979604
12646292000.0 -0.07957601174436969 0.9968288009255553 -2.5251315809522178e-17 -1.1622577601597461e-16 -2.5251315809522178e-17 -1.1622577601597461e-16 -0.07957668616973711 0.9968287470865107
12646909333.333334 -0.0685459545154978 0.9976479600136409 -2.6540359158673067e-17 -1.159143937185463e-16 -2.6540359158673067e-17 -1.159143937185463e-16 -0.06854662946214221 0.997647913639476
12647526666.666666 -0.05750751184438874 0.9983450736500318 -2.782560011959168e-17 -1.1558872398982558e-16 -2.782560011959168e-17 -1.1558872398982558e-16 -0.05750818722969489 0.9983450347456904
12648144000.0 -0.04646203409882948 0.9989200565546869 -2.9106880436551404e-17 -1.1524881288456902e-16 -2.9106880436551404e-17 -1.1524881288456902e-16 -0.04646270984013659 0.9989200251241994
12648761333.333334 -0.035410872507285196 0.9993728383882028 -3.038404240778149e-17 -1.1489470820931907e-16 -3.038404240778149e-17 -1.1489470820931907e-16 -0.035411548521896916 0.9993728144346837
12649378666.666666 -0.024355378993599207 0.9997033637604195 -3.165692890484554e-17 -1.1452645951578138e-16 -3.165692890484554e-17 -1.1452645951578138e-16 -0.024356055198793917 0.9997033472860702
12649996000.0 -0.013296906011465949 0.9999115922372047 -3.29253833919734e-17 -1.141441180939772e-16 -3.29253833919734e-17 -1.141441180939772e-16 -0.01329758232450672 0.9999115832433098
12650613333.333334 -0.002236806379037631 0.9999974983453919 -3.4189249945256486e-17 -1.1374773696519827e-16 -3.4189249945256486e-17 -1.1374773696519827e-16 -0.0022374827171824656 0.9999974968323219
12651230666.666666 0.008823566886314445 0.9999610715759004 -3.544837327177303e-17 -1.1333737087474662e-16 -3.544837327177303e-17 -1.1333737087474662e-16 0.008822890605802563 0.9999610775431103
12651848000.0 0.019882860734087213 0.999802316385018 -3.6702598728668983e-17 -1.1291307628444887e-16 -3.6702598728668983e-17 -1.1291307628444887e-16 0.019882184593930187 0.9998023298310486
12652465333.333334 0.03093972224565728 0.9995212521938591 -3.795177234208984e-17 -1.1247491136498063e-16 -3.795177234208984e-17 -1.1247491136498063e-16 0.030939046328551743 0.9995212731163351
12653082666.666666 0.04199279879981629 0.999117913385992 -3.9195740826051004e-17 -1.1202293598797222e-16 -3.9195740826051004e-17 -1.1202293598797222e-16 0.0419921231884235 0.9991179417816238
12653700000.0 0.053040738238667284 0.9985923493032166 -4.043435160124662e-17 -1.1155721171789376e-16 -4.043435160124662e-17 -1.1155721171789376e-16 0.05304006301560313 0.9985923851678026
12654317333.333334 0.0640821890325275 0.9979446242395514 -4.1667452813687695e-17 -1.110778018037621e-16 -4.1667452813687695e-17 -1.110778018037621e-16 0.06408151428035225 0.9979446675679755
12654934666.666666 0.07511580044557753 0.997174817433352 -4.289489335331849e-17 -1.1058477117061293e-16 -4.289489335331849e-17 -1.1058477117061293e-16 0.07511512624678583 0.9971748682195863
12655552000.0 0.08614022270110108 0.9962830230576168 -4.4116522872501494e-17 -1.1007818641077924e-16 -4.4116522872501494e-17 -1.1007818641077924e-16 0.08613954913811175 0.9962830812947205
12656169333.333334 0.09715410714635217 0.9952693502084828 -4.5332191804372576e-17 -1.0955811577497832e-16 -4.5332191804372576e-17 -1.0955811577497832e-16 0.09715343430149821 0.9952694158886044
12656786666.666666 0.10815610641782354 0.9941339228918592 -4.65417513811513e-17 -1.0902462916317188e-16 -4.65417513811513e-17 -1.0902462916317188e-16 0.10815543437334223 0.9941339960062393
12657404000.0 0.11914487460593237 0.9928768800082695 -4.774505365229795e-17 -1.0847779811524382e-16 -4.774505365229795e-17 -1.0847779811524382e-16 0.11914420344395507 0.99287696054724
12658021333.333334 0.13011906741972648 0.9914983753358552 -4.894195150258382e-17 -1.0791769580146917e-16 -4.894195150258382e-17 -1.0791769580146917e-16 0.13011839722226837 0.9914984632888384
12658638666.666666 0.141077342351194 0.989998577511576 -5.013229867002903e-17 -1.0734439701279332e-16 -5.013229867002903e-17 -1.0734439701279332e-16 0.14107667320014441 0.9899986728670901
12659256000.0 0.15201835883977916 0.988377670010548 -5.131594976377344e-17 -1.0675797815089338e-16 -5.131594976377344e-17 -1.0675797815089338e-16 0.15201769081689145 0.9883777727562066
12659873333.333334 0.16294077843612345 0.9866358511236305 -5.2492760281774015e-17 -1.0615851721806913e-16 -5.2492760281774015e-17 -1.0615851721806913e-16 0.16294011162300492 0.986635961246144
12660490666.666666 0.17384326496580255 0.9847733339331689 -5.3662586628413016e-17 -1.0554609380692795e-16 -5.3662586628413016e-17 -1.0554609380692795e-16 0.17384259944390476 0.9847734514183482
12661108000.0 0.18472448469306602 0.9827903462868881 -5.482528613201587e-17 -1.0492078908985927e-16 -5.482528613201587e-17 -1.0492078908985927e-16 0.18472382054367437 0.9827904711196421
12661725333.333334 0.1955831064836319 0.9806871307700704 -5.59807170621761e-17 -1.042826858083546e-16 -5.59807170621761e-17 -1.042826858083546e-16 0.1955824437878561 0.9806872629344127
12662342666.666666 0.20641780196772574 0.9784639446758547 -5.712873864703115e-17 -1.0363186826209798e-16 -5.712873864703115e-17 -1.0363186826209798e-16 0.20641714080648985 0.9784640841549032
12662960000.0 0.21722724570261168 0.9761210599737504 -5.826921109036452e-17 -1.0296842229789175e-16 -5.826921109036452e-17 -1.0296842229789175e-16 0.2172265861566442 0.9761212067497305
12663577333.333334 0.22801011533465426 0.9736587632763842 -5.940199558859775e-17 -1.0229243529838494e-16 -5.940199558859775e-17 -1.0229243529838494e-16 0.22800945748447815 0.9736589173306296
12664194666.666666 0.2387650917611143 0.9710773558044312 -6.052695434765035e-17 -1.0160399617061789e-16 -6.052695434765035e-17 -1.0160399617061789e-16 0.23876443568703726 0.9710775171173878
12664812000.0 0.2494908592915188 0.9683771533497675 -6.164395059966637e-17 -1.0090319533438011e-16 -6.164395059966637e-17 -1.0090319533438011e-16 0.2494902050736233 0.968377321900994
12665429333.333334 0.26018610580864066 0.9655584862368282 -6.275284861961396e-17 -1.0019012471038318e-16 -6.275284861961396e-17 -1.0019012471038318e-16 0.26018545352677436 0.9655586620050004
12666046666.666666 0.27084952292887726 0.9626216992822356 -6.385351374171404e-17 -9.946487770827177e-17 -6.385351374171404e-17 -9.946487770827177e-17 0.27084887266264346 0.9626218822451498
12666664000.0 0.28147980616261126 0.9595671517525381 -6.494581237582186e-17 -9.872754921439754e-17 -6.494581237582186e-17 -9.872754921439754e-17 0.28147915799135864 0.9595673418871111
12667281333.333334 0.29207565507340866 0.9563952173203609 -6.602961202352728e-17 -9.797823557950459e-17 -6.602961202352728e-17 -9.797823557950459e-17 0.2920750090762218 0.9563954146026343
12667898666.666666 0.30263577343737924 0.9531062840186186 -6.71047812942486e-17 -9.721703460615086e-17 -6.71047812942486e-17 -9.721703460615086e-17 0.30263512969306966 0.953106488423764
12668516000.0 0.31315886940174775 0.9497007541930463 -6.817118992112532e-17 -9.644404553598896e-17 -6.817118992112532e-17 -9.644404553598896e-17 0.3131582279888431 0.9497009656953643
12669133333.333334 0.32364365564264447 0.9461790444530492 -6.922870877671671e-17 -9.565936903690982e-17 -6.922870877671671e-17 -9.565936903690982e-17 0.3236430166393802 0.9461792630259773
12669750666.666666 0.3340888495228615 0.9425415856206614 -7.027720988865643e-17 -9.486310718993978e-17 -7.027720988865643e-17 -9.486310718993978e-17 0.33408821300717023 0.9425418112367725
