! Parameters = {f0=12700.012000; bw=77.238000; Q=6100.000000; N=10; m_0_1=1.247743; m_1_1=-0.048605; m_1_2=1.082555; m_2_2=-0.049254; m_2_3=0.719518; m_2_8=-0.000549; m_2_9=0.036155; m_3_3=-0.051191; m_3_4=0.608047; m_3_7=0.000051; m_3_8=-0.097037; m_3_9=-0.000549; m_4_4=-0.054116; m_4_5=0.444382; m_4_6=0.003568; m_4_7=-0.117586; m_4_8=0.000051; m_5_5=-0.053734; m_5_6=0.851737; m_5_7=0.003568; m_6_6=-0.053735; m_6_7=0.444724; m_7_7=-0.054102; m_7_8=0.608165; m_8_8=-0.051193; m_8_9=0.719831; m_9_9=-0.049259; m_9_10=1.083633; m_10_10=-0.048615; m_10_11=1.248538}
!
! Created with skrf (http://scikit-rf.org).
# Hz S RI R 50.0 
!freq ReS11 ImS11 ReS21 ImS21 ReS12 ImS12 ReS22 ImS22
12607400000.0 -0.07521912060874619 0.9971670290852358 -2.099922439787853e-17 -9.722472964533778e-17 -2.099922439787853e-17 -9.722472964533778e-17 -0.07521977617134579 0.9971669796340843
12608017333.333334 -0.06537860329559007 0.9978605304504972 -2.196160743918151e-17 -9.699189912162977e-17 -2.196160743918151e-17 -9.699189912162977e-17 -0.06537925928199562 0.9978604874708521
12608634666.666666 -0.055531723553364755 0.9984569232966549 -2.2921437539194346e-17 -9.674954946370172e-17 -2.2921437539194346e-17 -9.674954946370172e-17 -0.055532379899699516 0.9984568867920663
12609252000.0 -0.045679439648134805 0.9989561495847863 -2.3878620612643127e-17 -9.64977084080303e-17 -2.3878620612643127e-17 -9.64977084080303e-17 -0.04568009629049317 0.998956119558172
12609869333.333334 -0.03582271037185055 0.9993581607318991 -2.4833062873273232e-17 -9.623640462030978e-17 -2.4833062873273232e-17 -9.623640462030978e-17 -0.035823367246304375 0.9993581371855467
12610486666.666666 -0.025962494949268868 0.999662917615653 -2.5784670843022314e-17 -9.596566769224871e-17 -2.5784670843022314e-17 -9.596566769224871e-17 -0.025963151991873677 0.9996629005512189
12611104000.0 -0.016099752944121713 0.9998703905781827 -2.6733351361178086e-17 -9.568552813827082e-17 -2.6733351361178086e-17 -9.568552813827082e-17 -0.016100410090922963 0.9998703799966939
12611721333.333334 -0.006235444166217487 0.9999805594289718 -2.7679011593433187e-17 -9.539601739214475e-17 -2.7679011593433187e-17 -9.539601739214475e-17 -0.006236101353256726 0.9999805553308231
12612338666.666666 0.003629471422163429 0.9999934134468212 -2.862155904099394e-17 -9.509716780349942e-17 -2.862155904099394e-17 -9.509716780349942e-17 0.0036288142588423067 0.9999934158317767
12612956000.0 0.013494033799888 0.9999089513808932 -2.956090154960041e-17 -9.478901263426345e-17 -2.956090154960041e-17 -9.478901263426345e-17 0.013493376724232519 0.9999089602480855
12613573333.333334 0.023357282979913473 0.9997271814508327 -3.049694731848502e-17 -9.44715860550247e-17 -3.049694731848502e-17 -9.44715860550247e-17 0.02335662605585638 0.9997271967987651
12614190666.666666 0.03321825910319334 0.9994481213459667 -3.142960490937055e-17 -9.41449231412762e-17 -3.142960490937055e-17 -9.41449231412762e-17 0.03321760239464637 0.9994481431725112
12614808000.0 0.04307600253186035 0.9990717982235836 -3.235878325534809e-17 -9.380905986959984e-17 -3.235878325534809e-17 -9.380905986959984e-17 0.04307534610270797 0.9990718265259816
12615425333.333334 0.05292955394255841 0.9985982487062914 -3.328439166977106e-17 -9.346403311374357e-17 -3.328439166977106e-17 -9.346403311374357e-17 0.052928897856651703 0.998598283481155
12616042666.666666 0.06277795441997132 0.9980275188784496 -3.420633985507871e-17 -9.310988064062164e-17 -3.420633985507871e-17 -9.310988064062164e-17 0.06277729874112171 0.9980275601217621
12616660000.0 0.07262024555005601 0.9973596642816873 -3.512453791157773e-17 -9.274664110622801e-17 -3.512453791157773e-17 -9.274664110622801e-17 0.07261959034202906 0.9973597119888015
12617277333.333334 0.08245546951325551 0.9965947499094997 -3.603889634620737e-17 -9.237435405145337e-17 -3.603889634620737e-17 -9.237435405145337e-17 0.08245481483976473 0.9965948040751413
12617894666.666666 0.0922826691777677 0.9957328502009245 -3.6949326081221514e-17 -9.199305989783144e-17 -3.6949326081221514e-17 -9.199305989783144e-17 0.09228201510246835 0.9957329108191901
12618512000.0 0.10210088819277509 0.9947740490332857 -3.785573846286792e-17 -9.160279994318289e-17 -3.785573846286792e-17 -9.160279994318289e-17 0.10210023477925793 0.9947741160976447
12619129333.333334 0.11190917108131523 0.9937184397140482 -3.875804526998068e-17 -9.120361635719164e-17 -3.875804526998068e-17 -9.120361635719164e-17 0.11190851839310062 0.9937185132173452
12619746666.666666 0.12170656333346361 0.9925661249717256 -3.96561587225653e-17 -9.079555217688037e-17 -3.96561587225653e-17 -9.079555217688037e-17 0.1217059114339948 0.9925662049061763
12620364000.0 0.1314921114991374 0.9913172169458816 -4.054999149031056e-17 -9.037865130201166e-17 -4.054999149031056e-17 -9.037865130201166e-17 0.13149146045177493 0.9913173033030791
12620981333.333334 0.1412648632808264 0.9899718371762299 -4.14394567010532e-17 -8.995295849040781e-17 -4.14394567010532e-17 -8.995295849040781e-17 0.14126421314884152 0.9899719299471416
12621598666.666666 0.1510238676263238 0.9885301165907978 -4.232446794921887e-17 -8.951851935317374e-17 -4.232446794921887e-17 -8.951851935317374e-17 0.1510232184728927 0.9885302157657693
12622216000.0 0.16076817482133585 0.9869921954931793 -4.320493930417588e-17 -8.907538034985661e-17 -4.320493930417588e-17 -8.907538034985661e-17 0.16076752670953318 0.986992301061933
12622833333.333334 0.17049683658187642 0.9853582235488799 -4.408078531858135e-17 -8.862358878350181e-17 -4.408078531858135e-17 -8.862358878350181e-17 0.17049618957466917 0.9853583355005163
12623450666.666666 0.18020890614635446 0.9836283597707852 -4.495192103662356e-17 -8.816319279565382e-17 -4.495192103662356e-17 -8.816319279565382e-17 0.18020826030659626 0.983628478093787
12624068000.0 0.18990343836801887 0.9818027725036396 -4.581826200227268e-17 -8.769424136124583e-17 -4.581826200227268e-17 -8.769424136124583e-17 0.18990279375844363 0.9818028971858699
12624685333.333334 0.19957948980688026 0.9798816394076668 -4.667972426744342e-17 -8.721678428342608e-17 -4.667972426744342e-17 -8.721678428342608e-17 0.1995788464900955 0.9798817704363687
12625302666.666666 0.20923611882115975 0.9778651474413471 -4.7536224400077093e-17 -8.673087218831919e-17 -4.7536224400077093e-17 -8.673087218831919e-17 0.2092354768596419 0.9778652848031515
12625920000.0 0.21887238565954167 0.9757534928431113 -4.838767949225398e-17 -8.623655651966346e-17 -4.838767949225398e-17 -8.623655651966346e-17 0.21887174511562849 0.9757536365240305
12626537333.333334 0.22848735255201286 0.9735468811123594 -4.9234007168156163e-17 -8.573388953341901e-17 -4.9234007168156163e-17 -8.573388953341901e-17 0.22848671348789848 0.9735470310977944
12627154666.666666 0.23808008380148646 0.9712455269893948 -5.007512559202449e-17 -8.522292429227208e-17 -5.007512559202449e-17 -8.522292429227208e-17 0.23807944627921462 0.9712456832641333
12627772000.0 0.24764964587494215 0.9688496544344984 -5.091095347608012e-17 -8.470371466004743e-17 -5.091095347608012e-17 -8.470371466004743e-17 0.2476490099564006 0.9688498169827175
12628389333.333334 0.2571951074938052 0.9663594966062476 -5.1741410088319076e-17 -8.417631529608587e-17 -5.1741410088319076e-17 -8.417631529608587e-17 0.2571944732407198 0.9663596654115167
12629006666.666666 0.266715539725183 0.9637752958386798 -5.256641526031798e-17 -8.364078164950255e-17 -5.256641526031798e-17 -8.364078164950255e-17 0.2667149071991113 0.9637754708839608
12629624000.0 0.2762100160717416 0.9610973036178381 -5.3385889394940676e-17 -8.309716995339486e-17 -5.3385889394940676e-17 -8.309716995339486e-17 0.276209385334067 0.9610974848854863
12630241333.333334 0.28567761256222685 0.9583257805572045 -5.4199753474004187e-17 -8.254553721896268e-17 -5.4199753474004187e-17 -8.254553721896268e-17 0.2856769836741531 0.9583259680289732
12630858666.666666 0.2951174078411368 0.95546099637241 -5.500792906585609e-17 -8.19859412295725e-17 -5.500792906585609e-17 -8.19859412295725e-17 0.2951167808636811 0.9554611900294476
12631476000.0 0.30452848325860127 0.9525032298549153 -5.581033833295158e-17 -8.141844053470685e-17 -5.581033833295158e-17 -8.141844053470685e-17 0.30452785825258943 0.9525034296777735
12632093333.333334 0.3139099229596203 0.949452768844936 -5.660690403929206e-17 -8.084309444389204e-17 -5.660690403929206e-17 -8.084309444389204e-17 0.3139092999856802 0.9494529748135663
12632710666.666666 0.3232608139731378 0.9463099102034462 -5.739754955784545e-17 -8.025996302052319e-17 -5.739754955784545e-17 -8.025996302052319e-17 0.3232601930916936 0.9463101222972051
12633328000.0 0.33258024630121297 0.9430749597831842 -5.818219887792129e-17 -7.96691070756039e-17 -5.818219887792129e-17 -7.96691070756039e-17 0.3325796275724795 0.9430751779808337
12633945333.333334 0.34186731300725426 0.9397482323989927 -5.89607766124294e-17 -7.907058816145123e-17 -5.89607766124294e-17 -7.907058816145123e-17 0.3418666964912305 0.9397484566787024
12634562666.666666 0.3511211103043337 0.9363300517971652 -5.973320800510613e-17 -7.846446856530798e-17 -5.973320800510613e-17 -7.846446856530798e-17 0.35112049606079826 0.9363302821365169
12635180000.0 0.36034073764327545 0.9328207506238976 -6.0499418937682e-17 -7.785081130287868e-17 -6.0499418937682e-17 -7.785081130287868e-17 0.36034012573177915 0.9328209869998834
12635797333.333334 0.369525297800238 0.9292206703929243 -6.125933593696708e-17 -7.722968011180786e-17 -6.125933593696708e-17 -7.722968011180786e-17 0.3695246882800996 0.9292209127819531
12636414666.666666 0.37867389696384673 0.9255301614523666 -6.201288618185969e-17 -7.660113944509863e-17 -6.201288618185969e-17 -7.660113944509863e-17 0.3786732898941462 0.925530409830263
12637032000.0 0.38778564482251904 0.9217495829504966 -6.275999751033107e-17 -7.596525446442773e-17 -6.275999751033107e-17 -7.596525446442773e-17 0.38778504026209154 0.9217498372925044
12637649333.333334 0.39685965465078865 0.9178793028009115 -6.350059842628751e-17 -7.532209103343688e-17 -6.350059842628751e-17 -7.532209103343688e-17 0.3968590526582206 0.9178795630816989
12638266666.666666 0.4058950433958123 0.9139196976466493 -6.423461810640764e-17 -7.467171571092216e-17 -6.423461810640764e-17 -7.467171571092216e-17 0.4058944440294336 0.9139199638403068
12638884000.0 0.4148909317632234 0.9098711528235603 -6.496198640688625e-17 -7.401419574397665e-17 -6.496198640688625e-17 -7.401419574397665e-17 0.41489033508110335 0.9098714249036073
12639501333.333334 0.42384644430265267 0.9057340623228369 -6.568263387011071e-17 -7.334959906106561e-17 -6.568263387011071e-17 -7.334959906106561e-17 0.42384585036259304 0.9057343402622211
12640118666.666666 0.43276070949292406 0.9015088287526707 -6.639649173127137e-17 -7.267799426503444e-17 -6.639649173127137e-17 -7.267799426503444e-17 0.43276011835245437 0.9015091125237725
12640736000.0 0.4416328598272008 0.897195863298911 -6.710349192492661e-17 -7.199945062602604e-17 -6.710349192492661e-17 -7.199945062602604e-17 0.44163227154357304 0.8971961528735475
12641353333.333334 0.45046203189671813 0.8927955856853858 -6.780356709141503e-17 -7.131403807441274e-17 -6.780356709141503e-17 -7.131403807441274e-17 0.4504614465269001 0.8927958810348102
12641970666.666666 0.4592473664755222 0.8883084241327043 -6.8496650583305e-17 -7.062182719356142e-17 -6.8496650583305e-17 -7.062182719356142e-17 0.459246784076193 0.8883087252276123
12642588000.0 0.4679880086036291 0.8837348153168125 -6.918267647168992e-17 -6.992288921261385e-17 -6.918267647168992e-17 -6.992288921261385e-17 0.46798742923117276 0.8837351221273425
12643205333.333334 0.4766831076704291 0.8790752043263947 -6.986157955243224e-17 -6.921729599918483e-17 -6.986157955243224e-17 -6.921729599918483e-17 0.47668253138093025 0.8790755168221324
12643822666.666666 0.48533181749749027 0.8743300446195437 -7.053329535235716e-17 -6.850512005197618e-17 -7.053329535235716e-17 -6.850512005197618e-17 0.4853312443467274 0.874330362769524
12644440000.0 0.4939332964207049 0.8694997979797388 -7.119776013533592e-17 -6.778643449336708e-17 -7.119776013533592e-17 -6.778643449336708e-17 0.49393272646414627 0.8695001217524502
12645057333.333334 0.5024867073723982 0.8645849344707998 -7.185491090830563e-17 -6.706131306193325e-17 -7.185491090830563e-17 -6.706131306193325e-17 0.5024861406651951 0.8645852638341858
12645674666.666666 0.5109912179625903 0.8595859323912531 -7.250468542722897e-17 -6.632983010489257e-17 -7.250468542722897e-17 -6.632983010489257e-17 0.510990654559573 0.8595862673127171
12646292000.0 0.519446000560347 0.854503278227586 -7.314702220297231e-17 -6.559206057049597e-17 -7.314702220297231e-17 -6.559206057049597e-17 0.5194454405160188 0.8545036186739935
12646909333.333334 0.527850232373928 0.8493374666071323 -7.378186050707041e-17 -6.484808000040471e-17 -7.378186050707041e-17 -6.484808000040471e-17 0.5278496757424602 0.8493378125448141
12647526666.666666 0.5362030955310318 0.8440890002498369 -7.440914037747478e-17 -6.40979645219423e-17 -7.440914037747478e-17 -6.40979645219423e-17 0.5362025423662582 0.844089351644594
12648144000.0 0.5445037771585086 0.8387583899192594 -7.502880262417536e-17 -6.334179084034609e-17 -7.502880262417536e-17 -6.334179084034609e-17 0.54450322751392 0.8387587467363632
12648761333.333334 0.5527514694612942 0.8333461543729662 -7.564078883476605e-17 -6.257963623093941e-17 -7.564078883476605e-17 -6.257963623093941e-17 0.5527509233900341 0.8333465165771653
12649378666.666666 0.5609453698009552 0.827852820312102 -7.624504137992013e-17 -6.181157853126317e-17 -7.624504137992013e-17 -6.181157853126317e-17 0.560944827355814 0.8278531878676234
12649996000.0 0.5690846807740828 0.8222789223299426 -7.684150341879496e-17 -6.103769613314415e-17 -7.684150341879496e-17 -6.103769613314415e-17 0.5690841420074931 0.8222792952004967
12650613333.333334 0.5771686102896331 0.8166250028600431 -7.743011890435797e-17 -6.0258067974709e-17 -7.743011890435797e-17 -6.0258067974709e-17 0.5771680752536643 0.8166253810088265
12651230666.666666 0.5851963716460818 0.8108916121234039 -7.801083258861506e-17 -5.94727735323696e-17 -7.801083258861506e-17 -5.94727735323696e-17 0.5851958403924353 0.8108919955131025
12651848000.0 0.5931671836081457 0.8050793080748078 -7.858359002778152e-17 -5.868189281272711e-17 -7.858359002778152e-17 -5.868189281272711e-17 0.5931666561881498 0.8050796966676028
12652465333.333334 0.6010802704825323 0.7991886563487225 -7.914833758735432e-17 -5.788550634444879e-17 -7.914833758735432e-17 -5.788550634444879e-17 0.6010797469471373 0.7991890501062908
12653082666.666666 0.6089348621935904 0.7932202302041375 -7.970502244710279e-17 -5.708369517009677e-17 -7.970502244710279e-17 -5.708369517009677e-17 0.6089343425933628 0.7932206290876576
12653700000.0 0.6167301943582931 0.78717461046874 -8.025359260599235e-17 -5.62765408378859e-17 -8.025359260599235e-17 -5.62765408378859e-17 0.6167296787434132 0.7871750144388961
12654317333.333334 0.6244655083604718 0.7810523854825153 -8.079399688700215e-17 -5.546412539342974e-17 -8.079399688700215e-17 -5.546412539342974e-17 0.6244649967807256 0.7810527944994998
12654934666.666666 0.6321400514247958 0.7748541510403667 -8.132618494188185e-17 -5.4646531371405207e-17 -8.132618494188185e-17 -5.4646531371405207e-17 0.6321395439295725 0.7748545650638847
12655552000.0 0.6397530766899621 0.7685805103341856 -8.185010725580931e-17 -5.382384178719565e-17 -8.185010725580931e-17 -5.382384178719565e-17 0.6397525733282493 0.76858092932346
12656169333.333334 0.647303843281316 0.7622320738942101 -8.236571515196457e-17 -5.2996140128489717e-17 -8.236571515196457e-17 -5.2996140128489717e-17 0.6473033441016922 0.7622324978079824
12656786666.666666 0.654791616383098 0.7558094595294775 -8.287296079603319e-17 -5.2163510346813024e-17 -8.287296079603319e-17 -5.2163510346813024e-17 0.6547911214337323 0.7558098883260161
12657404000.0 0.6622156673097845 0.7493132922678519 -8.337179720060277e-17 -5.132603684905256e-17 -8.337179720060277e-17 -5.132603684905256e-17 0.6622151766384289 0.7493137259049538
12658021333.333334 0.6695752735771936 0.7427442042950305 -8.386217822949864e-17 -5.048380448889932e-17 -8.386217822949864e-17 -5.048380448889932e-17 0.6695747872311787 0.7427446427300253
12658638666.666666 0.6768697189725155 0.7361028348932632 -8.434405860200155e-17 -4.9636898558302e-17 -8.434405860200155e-17 -4.9636898558302e-17 0.6768692369987467 0.736103278083018
12659256000.0 0.6840982936243756 0.7293898303788227 -8.481739389702264e-17 -4.8785404778809523e-17 -8.481739389702264e-17 -4.8785404778809523e-17 0.684097816069329 0.7293902782797466
12659873333.333334 0.6912602940716605 0.7226058440393295 -8.528214055714912e-17 -4.792940929294298e-17 -8.528214055714912e-17 -4.792940929294298e-17 0.691259820981376 0.7226062966073757
12660490666.666666 0.6983550233319173 0.7157515360702402 -8.573825589261767e-17 -4.7068998655508954e-17 -8.573825589261767e-17 -4.7068998655508954e-17 0.698354554751997 0.7157519932609137
12661108000.0 0.7053817909695302 0.7088275735102636 -8.618569808522438e-17 -4.6204259824828155e-17 -8.618569808522438e-17 -4.6204259824828155e-17 0.705381326945133 0.7088280352786239
12661725333.333334 0.7123399131624648 0.701834630176884 -8.662442619210357e-17 -4.5335280154008544e-17 -8.662442619210357e-17 -4.5335280154008544e-17 0.7123394537383013 0.7018350964775486
12662342666.666666 0.7192287127691759 0.6947733866004259 -8.705440014945113e-17 -4.446214738212138e-17 -8.705440014945113e-17 -4.446214738212138e-17 0.7192282579895051 0.6947738573875764
12662960000.0 0.7260475193943481 0.6876445299579901 -8.747558077615057e-17 -4.3584949625359837e-17 -8.747558077615057e-17 -4.3584949625359837e-17 0.7260470693029727 0.6876450051853757
12663577333.333334 0.732795669454093 0.6804487540066183 -8.78879297773059e-17 -4.270377536817088e-17 -8.78879297773059e-17 -4.270377536817088e-17 0.7327952240943552 0.6804492336275612
12664194666.666666 0.7394725062406481 0.673186759015658 -8.829140974768466e-17 -4.1818713454356914e-17 -8.829140974768466e-17 -4.1818713454356914e-17 0.7394720656554256 0.6731872429830569
12664812000.0 0.7460773799862254 0.6658592516986757 -8.868598417508264e-17 -4.0929853078122793e-17 -8.868598417508264e-17 -4.0929853078122793e-17 0.7460769442179269 0.6658597399650109
12665429333.333334 0.752609647926206 0.658466945144723 -8.907161744358837e-17 -4.0037283775111453e-17 -8.907161744358837e-17 -4.0037283775111453e-17 0.7526092170167669 0.6584674376620608
12666046666.666666 0.7590686743617311 0.6510105587489001 -8.944827483675194e-17 -3.914109541342477e-17 -8.944827483675194e-17 -3.914109541342477e-17 0.759068248352611 0.6510110554688991
12666664000.0 0.765453830721622 0.6434908181422829 -8.98159225406909e-17 -3.824137818455137e-17 -8.98159225406909e-17 -3.824137818455137e-17 0.7654534096537992 0.6434913190161965
12667281333.333334 0.7717644956234209 0.6359084551214569 -9.01745276470684e-17 -3.733822259435257e-17 -9.01745276470684e-17 -3.733822259435257e-17 0.7717640795373879 0.6359089601001385
12667898666.666666 0.7780000549339883 0.6282642075771477 -9.052405815600632e-17 -3.6431719453959356e-17 -9.052405815600632e-17 -3.6431719453959356e-17 0.7779996438697507 0.6282647166110576
12668516000.0 0.7841599018292172 0.6205588194224807 -9.086448297890611e-17 -3.5521959870645233e-17 -9.086448297890611e-17 -3.5521959870645233e-17 0.7841594958262862 0.6205593324616879
12669133333.333334 0.7902434368530473 0.6127930405206268 -9.119577194116013e-17 -3.460903523871979e-17 -9.119577194116013e-17 -3.460903523871979e-17 0.7902430359504387 0.6127935575148162
12669750666.666666 0.7962500679758425 0.6049676266117864 -9.151789578479037e-17 -3.369303723034816e-17 -9.151789578479037e-17 -3.369303723034816e-17 0.7962496722120717 0.6049681475102628
12670368000.0 0.802179210652053 0.5970833392395741 -9.183082617099136e-17 -3.277405778635697e-17 -9.183082617099136e-17 -3.277405778635697e-17 0.8021788200651324 0.5970838639912678
