! Parameters = {f0=12700.012000; bw=77.238000; Q=6100.000000; N=10; m_0_1=1.240736; m_1_1=-0.153710; m_1_2=1.075548; m_2_2=-0.154359; m_2_3=0.712511; m_2_8=-0.000900; m_2_9=0.035804; m_3_3=-0.156296; m_3_4=0.601040; m_3_7=-0.000300; m_3_8=-0.097388; m_3_9=-0.000900; m_4_4=-0.159221; m_4_5=0.437375; m_4_6=0.003217; m_4_7=-0.117937; m_4_8=-0.000300; m_5_5=-0.158839; m_5_6=0.844730; m_5_7=0.003217; m_6_6=-0.158840; m_6_7=0.437717; m_7_7=-0.159207; m_7_8=0.601158; m_8_8=-0.156298; m_8_9=0.712824; m_9_9=-0.154364; m_9_10=1.076626; m_10_10=-0.153720; m_10_11=1.241531}
!
! Created with skrf (http://scikit-rf.org).
# Hz S RI R 50.0 
!freq ReS11 ImS11 ReS21 ImS21 ReS12 ImS12 ReS22 ImS22
12607400000.0 0.9195323200035637 -0.3930143921902793 -7.403838302527702e-17 6.134548611139711e-17 -7.403838302527702e-17 6.134548611139711e-17 0.9195325769348369 -0.3930137910498936
12608017333.333334 0.9156938337262862 -0.4018766015526233 -7.342258947052618e-17 6.205202156531921e-17 -7.342258947052618e-17 6.205202156531921e-17 0.915694096438328 -0.40187600295094184
12608634666.666666 0.9117699381847574 -0.41070132678431215 -7.28000616622179e-17 6.275238513247315e-17 -7.28000616622179e-17 6.275238513247315e-17 0.9117702066524974 -0.41070073077691616
12609252000.0 0.907760999371496 -0.41948774477914585 -7.217086136848261e-17 6.34465127063868e-17 -7.217086136848261e-17 6.34465127063868e-17 0.9077612735693319 -0.41948715142136994
12609869333.333334 0.9036673912112165 -0.4282350360039985 -7.153505096691216e-17 6.413434079790218e-17 -7.153505096691216e-17 6.413434079790218e-17 0.9036676711130134 -0.42823444535092486
12610486666.666666 0.89948949552607 -0.43694238457499973 -7.089269343840964e-17 6.481580654094957e-17 -7.089269343840964e-17 6.481580654094957e-17 0.8994897811051635 -0.43694179668145267
12611104000.0 0.895227701999765 -0.4456089783342007 -7.024385236094562e-17 6.549084769830268e-17 -7.024385236094562e-17 6.549084769830268e-17 0.8952279932289642 -0.44560839325474194
12611721333.333334 0.8908824081415634 -0.4542340089246078 -6.958859190332491e-17 6.615940266720147e-17 -6.958859190332491e-17 6.615940266720147e-17 0.8908827049931515 -0.4542334267135305
12612338666.666666 0.886454019248955 -0.46281667186609143 -6.89269768188366e-17 6.682141048498057e-17 -6.89269768188366e-17 6.682141048498057e-17 0.8864543216946958 -0.46281609257741707
12612956000.0 0.8819429483698513 -0.47135616663042096 -6.825907243887857e-17 6.74768108346045e-17 -6.825907243887857e-17 6.74768108346045e-17 0.8819432563809888 -0.4713555903178927
12613573333.333334 0.8773496162642964 -0.4798516967154782 -6.7584944666546e-17 6.812554405012487e-17 -6.7584944666546e-17 6.812554405012487e-17 0.8773499298115575 -0.479851123432556
12614190666.666666 0.8726744513649568 -0.48830246972005287 -6.690465997013036e-17 6.876755112210915e-17 -6.690465997013036e-17 6.876755112210915e-17 0.8726747704185561 -0.4883018995199095
12614808000.0 0.8679178897372933 -0.4967076974175005 -6.621828537659732e-17 6.940277370297714e-17 -6.621828537659732e-17 6.940277370297714e-17 0.8679182142669338 -0.49670713035301556
12615425333.333334 0.8630803750388613 -0.505066595829313 -6.552588846500204e-17 7.003115411228377e-17 -6.552588846500204e-17 7.003115411228377e-17 0.863080705013739 -0.5050660319530687
12616042666.666666 0.8581623584779584 -0.5133783852981931 -6.482753735985652e-17 7.065263534193408e-17 -6.482753735985652e-17 7.065263534193408e-17 0.8581626938667644 -0.5133778246624692
12616660000.0 0.8531642987714233 -0.5216422905609711 -6.41233007244481e-17 7.126716106133307e-17 -6.41233007244481e-17 7.126716106133307e-17 0.8531646395423472 -0.5216417332177402
12617277333.333334 0.8480866621019941 -0.5298575408206704 -6.341324775410906e-17 7.18746756224687e-17 -6.341324775410906e-17 7.18746756224687e-17 0.8480870082227258 -0.5298569868215924
12617894666.666666 0.8429299220748606 -0.5380233698183567 -6.269744816944087e-17 7.247512406492677e-17 -6.269744816944087e-17 7.247512406492677e-17 0.8429302735125943 -0.538022819214775
12618512000.0 0.8376945596731857 -0.5461390159050897 -6.197597220947806e-17 7.30684521208485e-17 -6.197597220947806e-17 7.30684521208485e-17 0.8376949163946227 -0.5461384687480253
12619129333.333334 0.8323810632136674 -0.5542037221122896 -6.124889062483759e-17 7.365460621979468e-17 -6.124889062483759e-17 7.365460621979468e-17 0.8323814251850205 -0.554203178452438
12619746666.666666 0.8269899283006926 -0.5622167362228264 -6.051627467078236e-17 7.423353349357511e-17 -6.051627467078236e-17 7.423353349357511e-17 0.8269902954876877 -0.5622161961105515
12620364000.0 0.8215216577800984 -0.5701773108411724 -5.977819610025777e-17 7.480518178099254e-17 -5.977819610025777e-17 7.480518178099254e-17 0.8215220301479784 -0.5701767743265027
12620981333.333334 0.8159767616925626 -0.5780847034626939 -5.903472715690397e-17 7.536949963250397e-17 -5.903472715690397e-17 7.536949963250397e-17 0.815977139206091 -0.5780841705953172
12621598666.666666 0.8103557572257102 -0.5859381765433763 -5.828594056798283e-17 7.592643631484364e-17 -5.828594056798283e-17 7.592643631484364e-17 0.8103561398491735 -0.5859376473726355
12622216000.0 0.8046591686660354 -0.5937369975683825 -5.753190953729459e-17 7.647594181555151e-17 -5.753190953729459e-17 7.647594181555151e-17 0.8046595563632464 -0.59373647214327
12622833333.333334 0.7988875273499629 -0.6014804391204207 -5.677270773803618e-17 7.701796684744269e-17 -5.677270773803618e-17 7.701796684744269e-17 0.798887920084266 -0.6014799174895761
12623450666.666666 0.7930413716142959 -0.6091677789475969 -5.600840930563181e-17 7.75524628529973e-17 -5.600840930563181e-17 7.75524628529973e-17 0.793041769348569 -0.6091672611593005
12624068000.0 0.7871212467459983 -0.6167983000307775 -5.5239088830504374e-17 7.807938200869174e-17 -5.5239088830504374e-17 7.807938200869174e-17 0.7871216494426562 -0.616797786132947
12624685333.333334 0.7811277049313369 -0.6243712906504706 -5.4464821350803817e-17 7.859867722925954e-17 -5.4464821350803817e-17 7.859867722925954e-17 0.7811281125523354 -0.6243707806906552
12625302666.666666 0.7750613052043767 -0.6318860444532071 -5.368568234514359e-17 7.911030217184878e-17 -5.368568234514359e-17 7.911030217184878e-17 0.7750617177112163 -0.6318855384785851
12625920000.0 0.7689226133948384 -0.6393418605174267 -5.290174772521899e-17 7.961421124016063e-17 -5.290174772521899e-17 7.961421124016063e-17 0.7689230307485672 -0.6393413585747993
12626537333.333334 0.7627122020752846 -0.6467380434188965 -5.2113093828464193e-17 8.011035958846404e-17 -5.2113093828464193e-17 8.011035958846404e-17 0.7627126242365035 -0.6467375455546854
12627154666.666666 0.7564306505078995 -0.6540739032953595 -5.131979741062443e-17 8.059870312556928e-17 -5.131979741062443e-17 8.059870312556928e-17 0.7564310774367642 -0.6540734095556006
12627772000.0 0.7500785445900919 -0.6613487559113134 -5.0521935638290385e-17 8.107919851872723e-17 -5.0521935638290385e-17 8.107919851872723e-17 0.7500789762463166 -0.661348266341653
12628389333.333334 0.7436564768002114 -0.6685619227213953 -4.9719586081443614e-17 8.155180319742765e-17 -4.9719586081443614e-17 8.155180319742765e-17 0.7436569131430747 -0.6685614373670874
12629006666.666666 0.7371650461421069 -0.6757127309338915 -4.8912826705898635e-17 8.201647535716357e-17 -4.8912826705898635e-17 8.201647535716357e-17 0.7371654871304533 -0.6757122498397921
12629624000.0 0.7306048580892894 -0.6828005135734453 -4.810173586577146e-17 8.247317396308604e-17 -4.810173586577146e-17 8.247317396308604e-17 0.7306053036815353 -0.682800036784009
12630241333.333334 0.7239765245284606 -0.6898246095432687 -4.728639229587419e-17 8.292185875360742e-17 -4.728639229587419e-17 8.292185875360742e-17 0.7239769746825956 -0.6898241371025435
12630858666.666666 0.7172806637024369 -0.6967843636868026 -4.6466875104107005e-17 8.336249024391223e-17 -4.6466875104107005e-17 8.336249024391223e-17 0.7172811183760306 -0.6967838956384276
12631476000.0 0.7105179001524888 -0.7036791268488288 -4.564326376376593e-17 8.379502972942237e-17 -4.564326376376593e-17 8.379502972942237e-17 0.710518359302692 -0.7036786632360278
12632093333.333334 0.7036888646600425 -0.7105082559360536 -4.4815638105899117e-17 8.421943928914177e-17 -4.4815638105899117e-17 8.421943928914177e-17 0.703689328243594 -0.7105077968016336
12632710666.666666 0.6967941941880519 -0.7172711139768949 -4.3984078311563873e-17 8.463568178896401e-17 -4.3984078311563873e-17 8.463568178896401e-17 0.6967946621612809 -0.7172706593632411
12633328000.0 0.6898345318211807 -0.7239670701812926 -4.314866490406696e-17 8.504372088489484e-17 -4.314866490406696e-17 8.504372088489484e-17 0.6898350041400111 -0.7239666201303642
12633945333.333334 0.682810526706225 -0.7305954999991441 -4.230947874120728e-17 8.544352102618322e-17 -4.230947874120728e-17 8.544352102618322e-17 0.6828110033261799 -0.7305950545524706
12634562666.666666 0.6757228339913637 -0.7371557851787585 -4.146660100745583e-17 8.583504745839274e-17 -4.146660100745583e-17 8.583504745839274e-17 0.6757233148675692 -0.7371553443774358
12635180000.0 0.6685721147650908 -0.7436473138244816 -4.0620113206122196e-17 8.621826622638878e-17 -4.0620113206122196e-17 8.621826622638878e-17 0.6685725998522805 -0.7436468777091684
12635797333.333334 0.6613590359945111 -0.7500694804538064 -3.9770097151489083e-17 8.659314417725126e-17 -3.9770097151489083e-17 8.659314417725126e-17 0.6613595252470305 -0.7500690490647208
12636414666.666666 0.6540842704633022 -0.7564216860537 -3.891663496093277e-17 8.695964896310467e-17 -3.891663496093277e-17 8.695964896310467e-17 0.6540847638351124 -0.7564212594306149
12637032000.0 0.6467484967087054 -0.7627033381366985 -3.805980904699285e-17 8.731774904388079e-17 -3.805980904699285e-17 8.731774904388079e-17 0.6467489941533879 -0.7627029163189383
12637649333.333334 0.6393523989584067 -0.7689138507960197 -3.719970210944218e-17 8.766741368999373e-17 -3.719970210944218e-17 8.766741368999373e-17 0.6393529004291681 -0.7689134338224576
12638266666.666666 0.6318966670667191 -0.775052644760215 -3.633639712732253e-17 8.800861298494076e-17 -3.633639712732253e-17 8.800861298494076e-17 0.6318971725163951 -0.775052232669268
12638884000.0 0.6243819964500634 -0.7811191474473439 -3.546997735094697e-17 8.834131782782911e-17 -3.546997735094697e-17 8.834131782782911e-17 0.6243825058311226 -0.7811187402769698
12639501333.333334 0.6168090880223203 -0.7871127930181964 -3.460052629390184e-17 8.866549993581511e-17 -3.460052629390184e-17 8.866549993581511e-17 0.6168096012868695 -0.7871123908058905
12640118666.666666 0.6091786481295051 -0.793033022429042 -3.372812772502005e-17 8.898113184646853e-17 -3.372812772502005e-17 8.898113184646853e-17 0.609179165229294 -0.7930326252118339
12640736000.0 0.601491388483435 -0.7988792834841207 -3.285286566028934e-17 8.928818692007296e-17 -3.285286566028934e-17 8.928818692007296e-17 0.6014919093698599 -0.7988788912985703
12641353333.333334 0.5937480260959748 -0.8046510308866615 -3.1974824354840055e-17 8.958663934181221e-17 -3.1974824354840055e-17 8.958663934181221e-17 0.5937485507200835 -0.8046506437688552
12641970666.666666 0.5859492832116632 -0.8103477262901219 -3.109408829479827e-17 8.987646412391765e-17 -3.109408829479827e-17 8.987646412391765e-17 0.5859498115241601 -0.8103473442756711
12642588000.0 0.5780958872405747 -0.8159688383482337 -3.02107421891996e-17 9.015763710770914e-17 -3.02107421891996e-17 9.015763710770914e-17 0.5780964191918249 -0.8159684614722693
12643205333.333334 0.5701885706904699 -0.8215138427645579 -2.93248709618566e-17 9.043013496556547e-17 -2.93248709618566e-17 9.043013496556547e-17 0.5701891062305042 -0.8215134710617293
12643822666.666666 0.5622280710982912 -0.8269822223415254 -2.843655974320137e-17 9.069393520281797e-17 -2.843655974320137e-17 9.069393520281797e-17 0.5622286101768096 -0.8269818558459944
12644440000.0 0.5542151309615966 -0.8323734670285051 -2.7545893862135002e-17 9.094901615955697e-17 -2.7545893862135002e-17 9.094901615955697e-17 0.5542156735279749 -0.8323731057739462
12645057333.333334 0.5461504976693123 -0.837687073969388 -2.665295883784572e-17 9.119535701236315e-17 -2.665295883784572e-17 9.119535701236315e-17 0.5461510436726064 -0.8376867179889836
12645674666.666666 0.5380349234317849 -0.8429225475496462 -2.575784037161753e-17 9.143293777595741e-17 -2.575784037161753e-17 9.143293777595741e-17 0.538035472820734 -0.8429221968760828
12646292000.0 0.5298691652108072 -0.8480793994424318 -2.486062433859335e-17 9.166173930477876e-17 -2.486062433859335e-17 9.166173930477876e-17 0.5298697179338399 -0.8480790541078967
12646909333.333334 0.5216539846489673 -0.8531571486541549 -2.3961396779603082e-17 9.18817432944607e-17 -2.3961396779603082e-17 9.18817432944607e-17 0.5216545406542074 -0.8531568086903372
12647526666.666666 0.5133901479986106 -0.8581553215693521 -2.3060243892893166e-17 9.209293228325067e-17 -2.3060243892893166e-17 9.209293228325067e-17 0.5133907072338795 -0.8581549870074341
12648144000.0 0.5050784260503661 -0.8630734519948565 -2.215725202588605e-17 9.229528965333721e-17 -2.215725202588605e-17 9.229528965333721e-17 0.5050789884631901 -0.8630731228655155
12648761333.333334 0.4967195940612555 -0.8679110812032844 -2.1252507666934032e-17 9.248879963209584e-17 -2.1252507666934032e-17 9.248879963209584e-17 0.4967201595988687 -0.8679107575366873
12649378666.666666 0.48831443168238087 -0.8726677579758212 -2.0346097437052607e-17 9.267344729325694e-17 -2.0346097437052607e-17 9.267344729325694e-17 0.48831500029173186 -0.8726674398016222
12649996000.0 0.47986372288620494 -0.8773430386443056 -1.943810808163093e-17 9.284921855799478e-17 -1.943810808163093e-17 9.284921855799478e-17 0.47986429451396084 -0.8773427259916448
12650613333.333334 0.4713682558934292 -0.8819364871326165 -1.8528626462155223e-17 9.301610019593248e-17 -1.8528626462155223e-17 9.301610019593248e-17 0.47136883048598055 -0.8819361800301151
12651230666.666666 0.46282882309947165 -0.8864476749973406 -1.761773954792666e-17 9.317407982606425e-17 -1.761773954792666e-17 9.317407982606425e-17 0.46282940060293803 -0.8864473734731
12651848000.0 0.45424622100056083 -0.8908761814677406 -1.670553440773814e-17 9.332314591760437e-17 -1.670553440773814e-17 9.332314591760437e-17 0.45424680136079537 -0.8908758855493388
12652465333.333334 0.44562125011944254 -0.8952215934849976 -1.5792098201581706e-17 9.346328779074709e-17 -1.5792098201581706e-17 9.346328779074709e-17 0.44562183328203736 -0.8952213031994876
12653082666.666666 0.4369547149307135 -0.89948350574074 -1.4877518172353488e-17 9.35944956173466e-17 -1.4877518172353488e-17 9.35944956173466e-17 0.43695530084100453 -0.8994832211146461
12653700000.0 0.4282474237857861 -0.9036615207148476 -1.3961881637500547e-17 9.37167604215228e-17 -1.3961881637500547e-17 9.37167604215228e-17 0.42824801238885857 -0.9036612417741643
12654317333.333334 0.4195001888374904 -0.9077552487125274 -1.3045275980741362e-17 9.383007408017567e-17 -1.3045275980741362e-17 9.383007408017567e-17 0.4195007800781839 -0.9077549754827171
12654934666.666666 0.41071382596432365 -0.911764307900666 -1.212778864371649e-17 9.393442932342731e-17 -1.212778864371649e-17 9.393442932342731e-17 0.4107144197872365 -0.911764040406654
12655552000.0 0.4018891546943498 -0.9156883243434387 -1.1209507117663642e-17 9.40298197349789e-17 -1.1209507117663642e-17 9.40298197349789e-17 0.4018897510438453 -0.9156880626096144
12656169333.333334 0.39302699812876013 -0.91952693203719 -1.0290518935115409e-17 9.411623975238403e-17 -1.0290518935115409e-17 9.411623975238403e-17 0.3930275969489719 -0.9195266760874041
12656786666.666666 0.3841281828651023 -0.9232797729445756 -9.370911661545518e-18 9.419368466724694e-17 -9.370911661545518e-18 9.419368466724694e-17 0.3841287840999378 -0.9232795228021344
12657404000.0 0.37519353892017776 -0.9269464970279493 -8.450772887055273e-18 9.426215062533446e-17 -8.450772887055273e-18 9.426215062533446e-17 0.37519414251332533 -0.9269462527156165
12658021333.333334 0.3662238996525736 -0.930526762282039 -7.530190218042255e-18 9.432163462660956e-17 -7.530190218042255e-18 9.432163462660956e-17 0.3662245055475075 -0.9305265238220328
12658638666.666666 0.357220101685197 -0.9340202347657408 -6.609251268889419e-18 9.43721345251818e-17 -6.609251268889419e-18 9.43721345251818e-17 0.3572207098251821 -0.9340200021797319
12659256000.0 0.3481829848267117 -0.9374265886334752 -5.688043653619158e-18 9.441364902917936e-17 -5.688043653619158e-18 9.441364902917936e-17 0.34818359515480857 -0.9374263619425826
12659873333.333334 0.3391133919936818 -0.940745506165388 -4.7666549775882065e-18 9.444617770053775e-17 -4.7666549775882065e-18 9.444617770053775e-17 0.339114004452753 -0.9407452853901802
12660490666.666666 0.33001216913195475 -0.9439766777969967 -3.845172829189312e-18 9.446972095470762e-17 -3.845172829189312e-18 9.446972095470762e-17 0.3300127836646694 -0.9439764629574876
12661108000.0 0.3208801651372746 -0.947119802148233 -2.9236847715040265e-18 9.44842800602839e-17 -2.9236847715040265e-18 9.44842800602839e-17 0.32088078168611434 -0.9471195932638822
12661725333.333334 0.3117182317766389 -0.9501745860513626 -2.0022783340390624e-18 9.448985713855123e-17 -2.0022783340390624e-18 9.448985713855123e-17 0.3117188502839026 -0.950174383141071
12662342666.666666 0.30252722360858425 -0.9531407445784255 -1.0810410043992114e-18 9.448645516295076e-17 -1.0810410043992114e-18 9.448645516295076e-17 0.3025278440163939 -0.9531405476605358
12662960000.0 0.2933079979035321 -0.9560180010677912 -1.6006022001046796e-19 9.44740779584652e-17 -1.6006022001046796e-19 9.44740779584652e-17 0.29330862015383813 -0.9560178101600854
12663577333.333334 0.2840614145638302 -0.9588060871499662 7.605766401649712e-19 9.445273020092348e-17 7.605766401649712e-19 9.445273020092348e-17 0.28406203859841694 -0.9588059022696642
12664194666.666666 0.2747883360435463 -0.9615047427726249 1.680782263902242e-18 9.442241741622526e-17 1.680782263902242e-18 9.442241741622526e-17 0.27478896180403706 -0.9615045639363822
12664812000.0 0.26548962726802494 -0.9641137162248649 2.600469413977786e-18 9.438314597948442e-17 2.600469413977786e-18 9.438314597948442e-17 0.2654902546958877 -0.9641135434487712
12665429333.333334 0.2561661555531574 -0.9666327641606964 3.51955093642566e-18 9.433492311409263e-17 3.51955093642566e-18 9.433492311409263e-17 0.25616678458971104 -0.9666325974602771
12666046666.666666 0.2468187905247619 -0.9690616516216739 4.4379397687639675e-18 9.427775689070368e-17 4.4379397687639675e-18 9.427775689070368e-17 0.24681942111118027 -0.9690614910118837
12666664000.0 0.2374484040368645 -0.9714001520589636 5.355548948265664e-18 9.421165622613458e-17 5.355548948265664e-18 9.421165622613458e-17 0.23744903611418297 -0.9713999975541889
12667281333.333334 0.22805587009115022 -0.9736480473542792 6.2722916201229096e-18 9.41366308821921e-17 6.2722916201229096e-18 9.41366308821921e-17 0.22805650360027052 -0.9736478989683348
12667898666.666666 0.21864206475489129 -0.9758051278403649 7.188081045689054e-18 9.405269146441414e-17 7.188081045689054e-18 9.405269146441414e-17 0.21864269963658772 -0.975804985586494
12668516000.0 0.20920786607923308 -0.9778711923205471 8.102830610666185e-18 9.395984942073394e-17 8.102830610666185e-18 9.395984942073394e-17 0.20920850227415758 -0.9778710562114195
12669133333.333334 0.19975415401779467 -0.9798460480873862 9.016453833256363e-18 9.385811704006676e-17 9.016453833256363e-18 9.385811704006676e-17 0.19975479146648273 -0.9798459181350991
12669750666.666666 0.1902818103440395 -0.9817295109407825 9.928864372347842e-18 9.374750745081312e-17 9.928864372347842e-18 9.374750745081312e-17 0.19028244898691507 -0.9817293871568555
12670368000.0 0.18079171856930618 -0.9835214052050872 1.083997603564729e-17 9.362803461928545e-17 1.083997603564729e-17 9.362803461928545e-17 0.18079235834668797 -0.9835212876004649
12670985333.333334 0.17128476386034636 -0.9852215637455055 1.1749702787797555e-17 9.349971334805719e-17 1.1749702787797555e-17 9.349971334805719e-17 0.1712854047124527 -0.9852214523305532
