! Parameters = {f0=12700.012000; bw=77.238000; Q=6100.000000; N=10; m_0_1=1.332027; m_1_1=1.215660; m_1_2=1.166839; m_2_2=1.215011; m_2_3=0.803802; m_2_8=0.003665; m_2_9=0.040369; m_3_3=1.213074; m_3_4=0.692331; m_3_7=0.004265; m_3_8=-0.092823; m_3_9=0.003665; m_4_4=1.210149; m_4_5=0.528666; m_4_6=0.007782; m_4_7=-0.113372; m_4_8=0.004265; m_5_5=1.210531; m_5_6=0.936021; m_5_7=0.007782; m_6_6=1.210530; m_6_7=0.529008; m_7_7=1.210163; m_7_8=0.692449; m_8_8=1.213072; m_8_9=0.804115; m_9_9=1.215006; m_9_10=1.167917; m_10_10=1.215650; m_10_11=1.332822}
!
! Created with skrf (http://scikit-rf.org).
# Hz S RI R 50.0 
!freq ReS11 ImS11 ReS21 ImS21 ReS12 ImS12 ReS22 ImS22
12607400000.0 0.5467420479190079 0.8373011005827801 -1.1194849287168518e-16 -9.512247068911651e-17 -1.1194849287168518e-16 -9.512247068911651e-17 0.5467414604075186 0.8373014842165629
12608017333.333334 0.5570462644378844 0.830481462331101 -1.1310147258911928e-16 -9.370355501931427e-17 -1.1310147258911928e-16 -9.370355501931427e-17 0.5570456817400737 0.8304818531759391
12608634666.666666 0.567265428710982 0.8235350225637957 -1.1423648343523718e-16 -9.227068190077726e-17 -1.1423648343523718e-16 -9.227068190077726e-17 0.5672648509153426 0.8235354205593101
12609252000.0 0.5773979804320144 0.8164628418935168 -1.1535335667452893e-16 -9.082407869798057e-17 -1.1535335667452893e-16 -9.082407869798057e-17 0.5773974076262823 0.8164632469782421
12609869333.333334 0.5874423725190295 0.8092660001316125 -1.1645192644606674e-16 -8.936397481237796e-17 -1.1645192644606674e-16 -8.936397481237796e-17 0.5874418047901713 0.8092664122430089
12610486666.666666 0.5973970713505843 0.8019455961232979 -1.1753202978802604e-16 -8.789060164613067e-17 -1.1753202978802604e-16 -8.789060164613067e-17 0.5973965087847811 0.8019460151977563
12611104000.0 0.607260557000219 0.7945027475796351 -1.1859350666182864e-16 -8.640419256543376e-17 -1.1859350666182864e-16 -8.640419256543376e-17 0.607259999682857 0.7945031735524924
12611721333.333334 0.6170313234680526 0.7869385909072387 -1.196361999757235e-16 -8.490498286368637e-17 -1.196361999757235e-16 -8.490498286368637e-17 0.6170307714837068 0.7869390237127822
12612338666.666666 0.6267078789111068 0.7792542810344687 -1.2065995560798792e-16 -8.339320972426503e-17 -1.2065995560798792e-16 -8.339320972426503e-17 0.6267073323435315 0.7792547206059515
12612956000.0 0.6362887458710227 0.7714509912351453 -1.2166462242963025e-16 -8.186911218305413e-17 -1.2166462242963025e-16 -8.186911218305413e-17 0.6362882048031347 0.7714514375047915
12613573333.333334 0.6457724614993946 0.763529912949597 -1.2265005232659138e-16 -8.033293109075015e-17 -1.2265005232659138e-16 -8.033293109075015e-17 0.6457719260132654 0.7635303658486173
12614190666.666666 0.6551575777813985 0.7554922556025423 -1.2361610022151284e-16 -7.878490907483756e-17 -1.2361610022151284e-16 -7.878490907483756e-17 0.6551570479582377 0.7554927150611399
12614808000.0 0.6644426617568294 0.7473392464184561 -1.2456262409501425e-16 -7.722529050132157e-17 -1.2456262409501425e-16 -7.722529050132157e-17 0.6644421376769749 0.747339712365841
12615425333.333334 0.6736262957387656 0.7390721302343061 -1.2548948500646847e-16 -7.565432143623807e-17 -1.2548948500646847e-16 -7.565432143623807e-17 0.6736257774816703 0.7390726025987039
12616042666.666666 0.682707077530198 0.7306921693093361 -1.2639654711432662e-16 -7.407224960686332e-17 -1.2639654711432662e-16 -7.407224960686332e-17 0.6827065651744173 0.7306926480179992
12616660000.0 0.6916836206379522 0.7222006431324882 -1.2728367769591856e-16 -7.24793243627374e-17 -1.2728367769591856e-16 -7.24793243627374e-17 0.6916831142611344 0.7222011281117088
12617277333.333334 0.7005545544845766 0.7135988482268759 -1.281507471668012e-16 -7.08757966363921e-17 -1.281507471668012e-16 -7.08757966363921e-17 0.7005540541634482 0.7135993394019946
12617894666.666666 0.7093185246173359 0.7048880979520743 -1.2899762909956602e-16 -6.926191890392766e-17 -1.2899762909956602e-16 -6.926191890392766e-17 0.709318030427692 0.7048885952474944
12618512000.0 0.7179741929154045 0.6960697223032186 -1.2982420024221589e-16 -6.763794514524974e-17 -1.2982420024221589e-16 -6.763794514524974e-17 0.7179737049320973 0.6960702256424163
12619129333.333334 0.7265202377937323 0.6871450677083731 -1.306303405359624e-16 -6.600413080423972e-17 -1.306303405359624e-16 -6.600413080423972e-17 0.726519756090658 0.6871455770139085
12619746666.666666 0.7349553544051897 0.6781154968225899 -1.3141593313259914e-16 -6.43607327485663e-17 -1.3141593313259914e-16 -6.43607327485663e-17 0.7349548790552788 0.6781160120161202
12620364000.0 0.7432782548396374 0.6689823883200134 -1.3218086441132066e-16 -6.270800922938817e-17 -1.3218086441132066e-16 -6.270800922938817e-17 0.7432777859148435 0.6689829093223045
12620981333.333334 0.7514876683205517 0.6597471366834012 -1.3292502399505065e-16 -6.104621984083349e-17 -1.3292502399505065e-16 -6.104621984083349e-17 0.7514872058918404 0.65974766341434
12621598666.666666 0.7595823413990925 0.6504111519911675 -1.3364830476626497e-16 -5.937562547927501e-17 -1.3364830476626497e-16 -5.937562547927501e-17 0.759581885536431 0.6504116843697744
12622216000.0 0.767561038145541 0.6409758597020216 -1.3435060288230647e-16 -5.769648830241602e-17 -1.3435060288230647e-16 -5.769648830241602e-17 0.7675605889178858 0.6409763976464615
12622833333.333334 0.7754225403379091 0.6314427004374269 -1.3503181779017254e-16 -5.600907168822742e-17 -1.3503181779017254e-16 -5.600907168822742e-17 0.7754220978131986 0.6314432438650244
12623450666.666666 0.7831656476479323 0.6218131297616676 -1.3569185224079567e-16 -5.4313640193697066e-17 -1.3569185224079567e-16 -5.4313640193697066e-17 0.7831652118930746 0.6218136785889178
12624068000.0 0.7907891778244657 0.6120886179594531 -1.36330612302819e-16 -5.261045951338158e-17 -1.36330612302819e-16 -5.261045951338158e-17 0.7907887489053274 0.6120891721020338
12624685333.333334 0.7982919668739686 0.6022706498114422 -1.369480073758385e-16 -5.089979643782879e-17 -1.369480073758385e-16 -5.089979643782879e-17 0.7982915448553689 0.6022712091842303
12625302666.666666 0.8056728692380125 0.5923607243678419 -1.3754395020311e-16 -4.918191881189415e-17 -1.3754395020311e-16 -4.918191881189415e-17 0.8056724541837085 0.5923612888849221
12625920000.0 0.8129307579685622 0.5823603547190231 -1.38118356883782e-16 -4.745709549277353e-17 -1.38118356883782e-16 -4.745709549277353e-17 0.8129303499412417 0.5823609242937037
12626537333.333334 0.8200645248996844 0.5722710677649725 -1.3867114688454345e-16 -4.572559630806344e-17 -1.3867114688454345e-16 -4.572559630806344e-17 0.8200641239609575 0.5722716423097983
12627154666.666666 0.8270730808169083 0.5620944039819594 -1.3920224305078975e-16 -4.398769201357086e-17 -1.3920224305078975e-16 -4.398769201357086e-17 0.8270726870272959 0.5620949834087248
12627772000.0 0.8339553556236694 0.5518319171871133 -1.3971157161725619e-16 -4.224365425099426e-17 -1.3971157161725619e-16 -4.224365425099426e-17 0.8339549690425954 0.5518325014068761
12628389333.333334 0.8407102985043609 0.5414851743016744 -1.4019906221808933e-16 -4.049375550560401e-17 -1.4019906221808933e-16 -4.049375550560401e-17 0.8407099191901425 0.5414857632247693
12629006666.666666 0.8473368780851414 0.5310557551112061 -1.406646478964373e-16 -3.87382690636373e-17 -1.406646478964373e-16 -3.87382690636373e-17 0.8473365060949801 0.5310563486472577
12629624000.0 0.8538340825911114 0.5205452520248373 -1.4110826511346816e-16 -3.697746896972941e-17 -1.4110826511346816e-16 -3.697746896972941e-17 0.853833717981087 0.5205458500827764
12630241333.333334 0.8602009200010131 0.5099552698317926 -1.415298537568739e-16 -3.521162998417617e-17 -1.415298537568739e-16 -3.521162998417617e-17 0.8602005628260709 0.5099558723198673
12630858666.666666 0.8664364181984859 0.49928742545670457 -1.4192935714883927e-16 -3.344102754011477e-17 -1.4192935714883927e-16 -3.344102754011477e-17 0.8664360685124318 0.49928803228249585
12631476000.0 0.8725396251207708 0.48854334771227054 -1.4230672205348068e-16 -3.1665937700584214e-17 -1.4230672205348068e-16 -3.1665937700584214e-17 0.8725392829762613 0.4885439587827059
12632093333.333334 0.8785096089037837 0.4777246770510472 -1.4266189868372926e-16 -2.988663711559831e-17 -1.4266189868372926e-16 -2.988663711559831e-17 0.8785092743523206 0.4777252922724162
12632710666.666666 0.8843454580245375 0.46683306531476415 -1.4299484070769984e-16 -2.810340297905179e-17 -1.4299484070769984e-16 -2.810340297905179e-17 0.8843451311164559 0.4668336845927304
12633328000.0 0.8900462814403981 0.45587017548193154 -1.433055052545189e-16 -2.6316512985558482e-17 -1.433055052545189e-16 -2.6316512985558482e-17 0.8900459622248632 0.45587079872154973
12633945333.333334 0.8956112087249908 0.44483768141420765 -1.4359385291959702e-16 -2.4526245287326566e-17 -1.4359385291959702e-16 -2.4526245287326566e-17 0.8956108972499878 0.4448383085199363
12634562666.666666 0.9010393902011267 0.43373726760077597 -1.4385984776938558e-16 -2.273287845086208e-17 -1.4385984776938558e-16 -2.273287845086208e-17 0.9010390865134551 0.43373789847649324
12635180000.0 0.9063299970706148 0.4225706289009991 -1.4410345734557664e-16 -2.093669141371452e-17 -1.4410345734557664e-16 -2.093669141371452e-17 0.9063297012158785 0.4225712634500157
12635797333.333334 0.911482221540724 0.41133947028578993 -1.4432465266877644e-16 -1.913796344110859e-17 -1.4432465266877644e-16 -1.913796344110859e-17 0.9114819335633282 0.4113401084108663
12636414666.666666 0.9164952769475158 0.4000455065773187 -1.4452340824162592e-16 -1.7336974082628108e-17 -1.4452340824162592e-16 -1.7336974082628108e-17 0.916494996890659 0.4000461481806788
12637032000.0 0.9213683978760611 0.3886904621869532 -1.446997020513953e-16 -1.5534003128766173e-17 -1.446997020513953e-16 -1.5534003128766173e-17 0.9213681257817276 0.38869110717029903
12637649333.333334 0.9261008402771771 0.3772760708522524 -1.4485351557202477e-16 -1.3729330567561764e-17 -1.4485351557202477e-16 -1.3729330567561764e-17 0.9261005761861315 0.3772767191167799
12638266666.666666 0.9306918815811333 0.3658040753720174 -1.4498483376563434e-16 -1.1923236541136355e-17 -1.4498483376563434e-16 -1.1923236541136355e-17 0.930691625532915 0.3658047268184313
12638884000.0 0.9351408208078916 0.35427622734040426 -1.4509364508348684e-16 -1.0116001302293698e-17 -1.4509364508348684e-16 -1.0116001302293698e-17 0.9351405728408069 0.3542768818689325
12639501333.333334 0.9394469786742276 0.34269428687924397 -1.4517994146641537e-16 -8.307905171049295e-18 -1.4517994146641537e-16 -8.307905171049295e-18 0.9394467388253464 0.3426949443896543
12640118666.666666 0.9436096976973049 0.33106002236967197 -1.4524371834470473e-16 -6.4992284912613625e-18 -1.4524371834470473e-16 -6.4992284912613625e-18 0.9436094660024541 0.3310606827612868
12640736000.0 0.9476283422953002 0.3193752101814844 -1.452849746374405e-16 -4.690251587118195e-18 -1.452849746374405e-16 -4.690251587118195e-18 0.9476281187890586 0.3193758733531959
12641353333.333334 0.9515022988841383 0.30764163440276954 -1.453037127513086e-16 -2.881254719876752e-18 -1.453037127513086e-16 -2.881254719876752e-18 0.9515020835998288 0.30764230025305467
12641970666.666666 0.9552309759714465 0.2958610865667273 -1.4529993857886434e-16 -1.0725180443760291e-18 -1.4529993857886434e-16 -1.0725180443760291e-18 0.9552307689411363 0.29586175499366507
12642588000.0 0.9588138042467068 0.284035365378616 -1.4527366149625733e-16 7.35678434222043e-19 -1.4527366149625733e-16 7.35678434222043e-19 0.9588136055011991 0.28403603627990137
12643205333.333334 0.9622502366682569 0.27216627644087366 -1.452248943604193e-16 2.5430549037590104e-18 -1.452248943604193e-16 2.5430549037590104e-18 0.9622500462370859 0.2721669497138339
12643822666.666666 0.9655397485467797 0.2602556319775395 -1.4515365350571387e-16 4.349331788330571e-18 -1.4515365350571387e-16 4.349331788330571e-18 0.9655395664582083 0.2602563075191497
12644440000.0 0.9686818376254387 0.24830525055747338 -1.4505995874005048e-16 6.1542297914507946e-18 -1.4505995874005048e-16 6.1542297914507946e-18 0.9686816639064535 0.24830592826437273
12645057333.333334 0.9716760241565228 0.23631695681685455 -1.4494383334046167e-16 7.957469939197532e-18 -1.4494383334046167e-16 7.957469939197532e-18 0.9716758588328294 0.23631763658536134
12645674666.666666 0.9745218509747192 0.22429258118050563 -1.4480530404814395e-16 9.758773623286868e-18 -1.4480530404814395e-16 9.758773623286868e-18 0.9745216940707392 0.22429326290663368
12646292000.0 0.9772188835669793 0.21223395958213873 -1.4464440106296307e-16 1.1557862644086456e-17 -1.4464440106296307e-16 1.1557862644086456e-17 0.9772187351058463 0.2122346431616131
12646909333.333334 0.9797667101387332 0.20014293318459078 -1.4446115803743313e-16 1.3354459253466583e-17 -1.4446115803743313e-16 1.3354459253466583e-17 0.979766570142289 0.20014361851286366
12647526666.666666 0.9821649416768697 0.1880213480982351 -1.4425561207015438e-16 1.514828619767563e-17 -1.4425561207015438e-16 1.514828619767563e-17 0.9821648101656637 0.18802203507050227
12648144000.0 0.9844132120091108 0.175871055099221 -1.440278036987236e-16 1.6939066760077002e-17 -1.440278036987236e-16 1.6939066760077002e-17 0.9844130890023924 0.17587174361043703
12648761333.333334 0.9865111778598783 0.16369390934705477 -1.4377777689211737e-16 1.872652480375747e-17 -1.4377777689211737e-16 1.872652480375747e-17 0.9865110633755992 0.16369459929194993
12649378666.666666 0.9884585189027331 0.15149177010129278 -1.4350557904254721e-16 2.0510384814045767e-17 -1.4350557904254721e-16 2.0510384814045767e-17 0.9884584129575389 0.15149246137438824
12649996000.0 0.9902549378093085 0.1392665004374354 -1.4321126095678184e-16 2.229037194095483e-17 -1.4321126095678184e-16 2.229037194095483e-17 0.9902548404185427 0.1392671929330604
12650613333.333334 0.9919001602946684 0.12701996696274603 -1.4289487684694803e-16 2.4066212041476084e-17 -1.4289487684694803e-16 2.4066212041476084e-17 0.9919000714723658 0.12702066057505312
12651230666.666666 0.9933939351592063 0.11475403953113726 -1.4255648432081562e-16 2.583763172170297e-17 -1.4255648432081562e-16 2.583763172170297e-17 0.9933938549180908 0.11475473415411877
12651848000.0 0.9947360343269986 0.10247059095761614 -1.4219614437154114e-16 2.7604358378935905e-17 -1.4219614437154114e-16 2.7604358378935905e-17 0.9947359626784847 0.10247128648512072
12652465333.333334 0.9959262528806306 0.09017149673236356 -1.41813921366912e-16 2.9366120243530506e-17 -1.41813921366912e-16 2.9366120243530506e-17 0.9959261898348182 0.09017219305811187
12653082666.666666 0.9969644090924568 0.07785863473460201 -1.4140988303806705e-16 3.1122646420637404e-17 -1.4140988303806705e-16 3.1122646420637404e-17 0.9969643546581328 0.07785933175220343
12653700000.0 0.9978503444524003 0.06553388494536405 -1.409841004676826e-16 3.2873666931870546e-17 -1.409841004676826e-16 3.2873666931870546e-17 0.9978502986370363 0.06553458254833262
12654317333.333334 0.9985839236921007 0.053199129161071265 -1.4053664807767875e-16 3.4618912756664765e-17 -1.4053664807767875e-16 3.4618912756664765e-17 0.9985838865018497 0.053199827242841946
12654934666.666666 0.9991650348056021 0.040856250705703194 -1.4006760361638142e-16 3.6358115873605306e-17 -1.4006760361638142e-16 3.6358115873605306e-17 0.9991650062453016 0.04085694915964838
12655552000.0 0.9995935890664435 0.02850713414347049 -1.3957704814518535e-16 3.8091009301542354e-17 -1.3957704814518535e-16 3.8091009301542354e-17 0.9995935691396114 0.028507832862916072
12656169333.333334 0.999869521041202 0.016153664991099517 -1.3906506602472264e-16 3.98173271404769e-17 -1.3906506602472264e-16 3.98173271404769e-17 0.9998695097500394 0.01615436386934131
12656786666.666666 0.9999927885994904 0.003797729429886995 -1.3853174490050685e-16 4.153680461233474e-17 -1.3853174490050685e-16 4.153680461233474e-17 0.9999927859448783 0.003798428360206941
12657404000.0 0.9999633729203862 -0.00855878598237578 -1.379771756880798e-16 4.324917810153102e-17 -1.379771756880798e-16 4.324917810153102e-17 0.9999633789018884 -0.008558087106693266
12658021333.333334 0.9997812784953052 -0.020913994599308615 -1.374014525576655e-16 4.4954185195311336e-17 -1.374014525576655e-16 4.4954185195311336e-17 0.9997812931111657 -0.020913295884960374
12658638666.666666 0.9994465331273201 -0.03326600997394696 -1.3680467291832394e-16 4.665156472390311e-17 -1.3680467291832394e-16 4.665156472390311e-17 0.9994465563744662 -0.033265311527594814
12659256000.0 0.9989591879269083 -0.045612946147113864 -1.3618693740159065e-16 4.8341056800513055e-17 -1.3618693740159065e-16 4.8341056800513055e-17 0.9989592198009476 -0.04561224807536825
12659873333.333334 0.9983193173041477 -0.05795291793506357 -1.3554834984465365e-16 5.0022402861020926e-17 -1.3554834984465365e-16 5.0022402861020926e-17 0.9983193577993733 -0.05795222034446742
12660490666.666666 0.9975270189573728 -0.07028404121723487 -1.3488901727303196e-16 5.1695345703484746e-17 -1.3488901727303196e-16 5.1695345703484746e-17 0.997527068066761 -0.0702833442142472
12661108000.0 0.996582413858223 -0.0826044332244089 -1.3420904988273668e-16 5.335962952749593e-17 -1.3420904988273668e-16 5.335962952749593e-17 0.9965824715734368 -0.08260373691538872
12661725333.333334 0.9954856462332138 -0.09491221282558295 -1.335085610220066e-16 5.501499997315314e-17 -1.335085610220066e-16 5.501499997315314e-17 0.9954857125446024 -0.09491151731677289
12662342666.666666 0.9942368835416878 -0.1072055008155869 -1.3278766717250068e-16 5.666120415995419e-17 -1.3278766717250068e-16 5.666120415995419e-17 0.9942369584382886 -0.10720480621309707
12662960000.0 0.9928363164502451 -0.119482420201951 -1.3204648793006247e-16 5.829799072532214e-17 -1.3204648793006247e-16 5.829799072532214e-17 0.9928363999197871 -0.11948172661174288
12663577333.333334 0.9912841588036552 -0.1317410964913244 -1.31285145984975e-16 5.992510986296484e-17 -1.31285145984975e-16 5.992510986296484e-17 0.9912842508325583 -0.13174040401919446
12664194666.666666 0.9895806475921748 -0.1439796579759061 -1.305037671017715e-16 6.154231336091414e-17 -1.305037671017715e-16 6.154231336091414e-17 0.9895807481655537 -0.1439789667274698
12664812000.0 0.9877260429153949 -0.15619623601900023 -1.2970248009855246e-16 6.314935463936405e-17 -1.2970248009855246e-16 6.314935463936405e-17 0.9877261520170613 -0.15619554609967595
12665429333.333334 0.9857206279424897 -0.16838896534058062 -1.2888141682586242e-16 6.474598878818477e-17 -1.2888141682586242e-16 6.474598878818477e-17 0.9857207455549557 -0.16838827685557364
12666046666.666666 0.9835647088690413 -0.18055598430172531 -1.2804071214508968e-16 6.633197260420182e-17 -1.2804071214508968e-16 6.633197260420182e-17 0.983564834973521 -0.1805552973560116
12666664000.0 0.9812586148701978 -0.1926954351893918 -1.2718050390640593e-16 6.790706462819487e-17 -1.2718050390640593e-16 6.790706462819487e-17 0.9812587494466091 -0.192694749887702
12667281333.333334 0.9788026980505183 -0.20480546449944478 -1.2630093292627103e-16 6.947102518158069e-17 -1.2630093292627103e-16 6.947102518158069e-17 0.97880284107749 -0.20480478094624852
12667898666.666666 0.9761973333901265 -0.21688422322016096 -1.2540214296447044e-16 7.102361640283443e-17 -1.2540214296447044e-16 7.102361640283443e-17 0.9761974848449985 -0.2168835415196507
12668516000.0 0.9734429186874942 -0.2289298671143205 -1.2448428070069458e-16 7.256460228363702e-17 -1.2448428070069458e-16 7.256460228363702e-17 0.9734430785463203 -0.2289291873703954
12669133333.333334 0.9705398744987084 -0.24094055700076442 -1.2354749571072568e-16 7.409374870463248e-17 -1.2354749571072568e-16 7.409374870463248e-17 0.970540042736264 -0.24093987931701522
12669750666.666666 0.9674886440732553 -0.2529144590352666 -1.2259194044211392e-16 7.561082347100306e-17 -1.2259194044211392e-16 7.561082347100306e-17 0.9674888206630379 -0.2529137835149592
12670368000.0 0.9642896932863066 -0.2648497449906414 -1.216177701894806e-16 7.71155963476267e-17 -1.216177701894806e-16 7.71155963476267e-17 0.9642898782005414 -0.2648490717367013
