! Parameters = {f0=12700.012000; bw=77.238000; Q=6100.000000; N=10; m_0_1=1.221116; m_1_1=-0.448004; m_1_2=1.055928; m_2_2=-0.448653; m_2_3=0.692891; m_2_8=-0.001880; m_2_9=0.034824; m_3_3=-0.450590; m_3_4=0.581420; m_3_7=-0.001280; m_3_8=-0.098368; m_3_9=-0.001880; m_4_4=-0.453515; m_4_5=0.417755; m_4_6=0.002237; m_4_7=-0.118917; m_4_8=-0.001280; m_5_5=-0.453133; m_5_6=0.825110; m_5_7=0.002237; m_6_6=-0.453134; m_6_7=0.418097; m_7_7=-0.453501; m_7_8=0.581538; m_8_8=-0.450592; m_8_9=0.693204; m_9_9=-0.448658; m_9_10=1.057006; m_10_10=-0.448014; m_10_11=1.221911}
!
! Created with skrf (http://scikit-rf.org).
# Hz S RI R 50.0 
!freq ReS11 ImS11 ReS21 ImS21 ReS12 ImS12 ReS22 ImS22
12607400000.0 0.4380730202138373 -0.8989393911496835 -1.4382098801319765e-17 8.613526236935328e-17 -1.4382098801319765e-17 8.613526236935328e-17 0.4380735986297857 -0.8989391092745861
12608017333.333334 0.42989468057944985 -0.9028790415162654 -1.3589284820040257e-17 8.624658016194451e-17 -1.3589284820040257e-17 8.624658016194451e-17 0.42989526150189156 -0.9028787649170054
12608634666.666666 0.421680915009945 -0.9067442891555545 -1.2795639359217807e-17 8.635060650159902e-17 -1.2795639359217807e-17 8.635060650159902e-17 0.42168149839076585 -0.9067440178544082
12609252000.0 0.41343240036963297 -0.9105348155476759 -1.2001229424447391e-17 8.644733550427419e-17 -1.2001229424447391e-17 8.644733550427419e-17 0.41343298616052016 -0.9105345495664795
12609869333.333334 0.4051498163863311 -0.9142503083302509 -1.1206122059283135e-17 8.65367619011956e-17 -1.1206122059283135e-17 8.65367619011956e-17 0.4051504045387784 -0.9142500476904011
12610486666.666666 0.3968338455954036 -0.9178904613241168 -1.0410384339620306e-17 8.661888103905533e-17 -1.0410384339620306e-17 8.661888103905533e-17 0.39683443606071495 -0.9178902060465681
12611104000.0 0.3884851732833853 -0.9214549745586129 -9.614083368015164e-18 8.669368888016555e-17 -9.614083368015164e-18 8.669368888016555e-17 0.38848576601267865 -0.9214547246638757
12611721333.333334 0.3801044874317715 -0.9249435542961891 -8.81728626806647e-18 8.676118200255361e-17 -8.81728626806647e-18 8.676118200255361e-17 0.3801050823759827 -0.9249433098043275
12612338666.666666 0.3716924786601145 -0.928355913056699 -8.020060178760388e-18 8.682135760000932e-17 -8.020060178760388e-18 8.682135760000932e-17 0.37169307577000227 -0.9283556739873311
12612956000.0 0.36324984016900685 -0.9316917696411335 -7.222472248818806e-18 8.687421348208005e-17 -7.222472248818806e-18 8.687421348208005e-17 0.3632504393951564 -0.931691536013429
12613573333.333334 0.354777267683353 -0.9349508491546334 -6.4245896310712695e-18 8.691974807401243e-17 -6.4245896310712695e-18 8.691974807401243e-17 0.35477786897617947 -0.9349506209873104
12614190666.666666 0.34627545939469445 -0.9381328830292809 -5.6264794768040705e-18 8.695796041664439e-17 -5.6264794768040705e-18 8.695796041664439e-17 0.34627606270444766 -0.9381326603406058
12614808000.0 0.33774511590372563 -0.9412376090462046 -4.8282089301264755e-18 8.6988850166244e-17 -4.8282089301264755e-18 8.6988850166244e-17 0.33774572118049423 -0.9412373918539916
12615425333.333334 0.32918694016269484 -0.9442647713571438 -4.029845122324995e-18 8.701241759429834e-17 -4.029845122324995e-18 8.701241759429834e-17 0.3291875473564105 -0.9442645596787523
12616042666.666666 0.32060163741736947 -0.9472141205055687 -3.2314551662455973e-18 8.702866358724869e-17 -3.2314551662455973e-18 8.702866358724869e-17 0.3206022464778103 -0.9472139143579014
12616660000.0 0.3119899151489734 -0.9500854134472194 -2.4331061506574645e-18 8.703758964617615e-17 -2.4331061506574645e-18 8.703758964617615e-17 0.3119905260257689 -0.9500852128467219
12617277333.333334 0.30335248301575013 -0.9528784135701767 -1.6348651346184673e-18 8.703919788643499e-17 -1.6348651346184673e-18 8.703919788643499e-17 0.3033530956583852 -0.9528782185328363
12617894666.666666 0.2946900527947818 -0.955592890714266 -8.367991418824566e-19 8.703349103723385e-17 -8.367991418824566e-19 8.703349103723385e-17 0.2946906671526003 -0.9555927012556091
12618512000.0 0.28600333832295355 -0.9582286211901436 -3.8975155249874494e-20 8.702047244116696e-17 -3.8975155249874494e-20 8.702047244116696e-17 0.28600395434516374 -0.9582284373252373
12619129333.333334 0.2772930554384291 -0.9607853877976377 7.585398890141559e-19 8.70001460536932e-17 7.585398890141559e-19 8.70001460536932e-17 0.2772936730741065 -0.9607852095410853
12619746666.666666 0.2685599219215515 -0.9632629798436808 1.5556791067927505e-18 8.697251644256391e-17 1.5556791067927505e-18 8.697251644256391e-17 0.2685605411196437 -0.9632628072096218
12620364000.0 0.2598046574355845 -0.9656611931597007 2.352375671723594e-18 8.693758878719947e-17 2.352375671723594e-18 8.693758878719947e-17 0.2598052781449154 -0.96566102616181
12620981333.333334 0.2510279834677088 -0.9679798301183622 3.148562820761171e-18 8.689536887801584e-17 3.148562820761171e-18 8.689536887801584e-17 0.25102860563698304 -0.9679796687698502
12621598666.666666 0.24223062326918468 -0.9702186996499605 3.944173859793261e-18 8.684586311569801e-17 3.944173859793261e-18 8.684586311569801e-17 0.2422312468469912 -0.9702185439635694
12622216000.0 0.2334133017960514 -0.9723776172580805 4.739142169187692e-18 8.678907851042443e-17 4.739142169187692e-18 8.678907851042443e-17 0.23341392673086858 -0.9723774672460863
12622833333.333334 0.2245767456492513 -0.9744564050348419 5.533401209370209e-18 8.672502268103975e-17 5.533401209370209e-18 8.672502268103975e-17 0.22457737188945032 -0.9744562607090501
12623450666.666666 0.21572168301477945 -0.9764548916755494 6.326884526378597e-18 8.665370385417671e-17 6.326884526378597e-18 8.665370385417671e-17 0.215722310508629 -0.9764547530472961
12624068000.0 0.20684884360370442 -0.9783729124928019 7.119525757407452e-18 8.657513086332762e-17 7.119525757407452e-18 8.657513086332762e-17 0.20684947229937536 -0.978372779572954
12624685333.333334 0.19795895859189794 -0.9802103094300981 7.911258636355441e-18 8.648931314786428e-17 7.911258636355441e-18 8.648931314786428e-17 0.19795958843746672 -0.9802101822290494
12625302666.666666 0.1890527605601142 -0.9819669310747879 8.702016999335244e-18 8.639626075201018e-17 8.702016999335244e-18 8.639626075201018e-17 0.18905339150356787 -0.9819668096024611
12625920000.0 0.18013098343309214 -0.9836426326706585 9.491734790212003e-18 8.629598432375754e-17 9.491734790212003e-18 8.629598432375754e-17 0.18013161542233236 -0.9836425169365032
12626537333.333334 0.17119436241963282 -0.9852372761297516 1.0280346066081548e-17 8.618849511374035e-17 1.0280346066081548e-17 8.618849511374035e-17 0.17119499540247987 -0.9852371661427424
12627154666.666666 0.1622436339517633 -0.9867507300437957 1.1067785002786007e-17 8.607380497405131e-17 1.1067785002786007e-17 8.607380497405131e-17 0.1622442678759611 -0.9867506258124343
12627772000.0 0.15327953562379767 -0.9881828696950739 1.1853985900395127e-17 8.595192635701078e-17 1.1853985900395127e-17 8.595192635701078e-17 0.15328017043701747 -0.9881827712273861
12628389333.333334 0.1443028061321149 -0.9895335770666069 1.2638883188648291e-17 8.582287231389034e-17 1.2638883188648291e-17 8.582287231389034e-17 0.14430344178195995 -0.9895334843701438
12629006666.666666 0.13531418521375363 -0.9908027408519692 1.3422411432454229e-17 8.568665649357603e-17 1.3422411432454229e-17 8.568665649357603e-17 0.13531482164776334 -0.990802653933805
12629624000.0 0.12631441358581796 -0.9919902564644013 1.4204505337291874e-17 8.554329314119465e-17 1.4204505337291874e-17 8.554329314119465e-17 0.12631505075147198 -0.9919901753311322
12630241333.333334 0.11730423288415603 -0.9930960260454664 1.49850997546607e-17 8.539279709668082e-17 1.49850997546607e-17 8.539279709668082e-17 0.11730487072887914 -0.993095950703213
12630858666.666666 0.10828438560258374 -0.9941199584730757 1.576412968748747e-17 8.523518379329975e-17 1.576412968748747e-17 8.523518379329975e-17 0.10828502407374985 -0.9941198889274798
12631476000.0 0.09925561503130331 -0.9950619693690411 1.6541530295537434e-17 8.507046925611623e-17 1.6541530295537434e-17 8.507046925611623e-17 0.09925625407623996 -0.9950619056252684
12632093333.333334 0.09021866519593427 -0.9959219811060003 1.7317236900774118e-17 8.48986701004228e-17 1.7317236900774118e-17 8.48986701004228e-17 0.09021930476192666 -0.9959219231687352
12632710666.666666 0.08117428079620104 -0.9966999228138108 1.809118499274926e-17 8.471980353010904e-17 1.809118499274926e-17 8.471980353010904e-17 0.08117492083049667 -0.9966998706872596
12633328000.0 0.07212320714431052 -0.9973957303854154 1.8863310233952305e-17 8.453388733598707e-17 1.8863310233952305e-17 8.453388733598707e-17 0.07212384759412348 -0.9973956840733055
12633945333.333334 0.0630661901038454 -0.9980093464820974 1.9633548465133813e-17 8.434093989407065e-17 1.9633548465133813e-17 8.434093989407065e-17 0.06306683091636073 -0.9980093059876768
12634562666.666666 0.05400397602804539 -0.9985407205382258 2.0401835710631065e-17 8.414098016380187e-17 2.0401835710631065e-17 8.414098016380187e-17 0.05400461715042338 -0.9985406858642635
12635180000.0 0.04493731169850157 -0.998989808765409 2.1168108183676022e-17 8.393402768622896e-17 2.1168108183676022e-17 8.393402768622896e-17 0.04493795307788212 -0.9989897799141927
12635797333.333334 0.03586694426350372 -0.9993565741561098 2.1932302291666295e-17 8.372010258214069e-17 2.1932302291666295e-17 8.372010258214069e-17 0.03586758584701074 -0.999356551129448
12636414666.666666 0.026793621176499006 -0.999640986486692 2.2694354641427402e-17 8.34992255501512e-17 2.2694354641427402e-17 8.34992255501512e-17 0.02679426291124475 -0.9996409692859132
12637032000.0 0.017718090134497398 -0.9998430223199153 2.3454202044479825e-17 8.327141786472972e-17 2.3454202044479825e-17 8.327141786472972e-17 0.017718731967586818 -0.9998430109458676
12637649333.333334 0.00864109901645676 -0.9999626650068618 2.421178152224183e-17 8.303670137419555e-17 2.421178152224183e-17 8.303670137419555e-17 0.008641740894991881 -0.9999626594599128
12638266666.666666 -0.0004366041783184253 -0.9999999046883097 2.4967030311245782e-17 8.279509849865636e-17 2.4967030311245782e-17 8.279509849865636e-17 -0.0004359623072341511 -0.9999999049683473
12638884000.0 -0.009514271391930444 -0.9999547382955475 2.5719885868332026e-17 8.254663222789999e-17 2.5719885868332026e-17 8.254663222789999e-17 -0.009513629581187788 -0.99995474440198
12639501333.333334 -0.0185911545693908 -0.9998271695506252 2.6470285875803197e-17 8.229132611924424e-17 2.6470285875803197e-17 8.229132611924424e-17 -0.018590512871870385 -0.999827181482379
12640118666.666666 -0.02766650572017921 -0.9996172089660487 2.7218168246562792e-17 8.202920429533993e-17 2.7218168246562792e-17 8.202920429533993e-17 -0.02766586418874717 -0.9996172267215722
12640736000.0 -0.036739576980422455 -0.9993248738439049 2.796347112928297e-17 8.176029144190844e-17 2.796347112928297e-17 8.176029144190844e-17 -0.0367389356679261 -0.9993248974211666
12641353333.333334 -0.045809620673670615 -0.9989501882744565 2.87061329134373e-17 8.148461280547333e-17 2.87061329134373e-17 8.148461280547333e-17 -0.04580897963293399 -0.998950217670944
12641970666.666666 -0.05487588937322026 -0.9984931831341339 2.9446092234436106e-17 8.120219419100121e-17 2.9446092234436106e-17 8.120219419100121e-17 -0.054875248657039945 -0.9984932183468577
12642588000.0 -0.0639376359633663 -0.9979538960830073 3.0183287978667625e-17 8.091306195952237e-17 3.0183287978667625e-17 8.091306195952237e-17 -0.06393699562450689 -0.9979539371084966
12643205333.333334 -0.07299411370111057 -0.9973323715616711 3.0917659288520607e-17 8.061724302570383e-17 3.0917659288520607e-17 8.061724302570383e-17 -0.07299347379230044 -0.9973324183959777
12643822666.666666 -0.08204457627764132 -0.9966286607875873 3.1649145567411274e-17 8.0314764855367e-17 3.1649145567411274e-17 8.0314764855367e-17 -0.08204393685156834 -0.9966287134262857
12644440000.0 -0.09108827787977707 -0.9958428217508697 3.237768648476548e-17 8.000565546296724e-17 3.237768648476548e-17 8.000565546296724e-17 -0.09108763898908402 -0.9958428801890543
12645057333.333334 -0.10012447325153914 -0.9949749192094945 3.310322198097007e-17 7.968994340903194e-17 3.310322198097007e-17 7.968994340903194e-17 -0.10012383494881974 -0.9949749834417841
12645674666.666666 -0.10915241775539586 -0.9940250246839812 3.382569227231759e-17 7.936765779754576e-17 3.382569227231759e-17 7.936765779754576e-17 -0.10915178009319014 -0.9940250947045176
12646292000.0 -0.11817136743393608 -0.9929932164514678 3.454503785594167e-17 7.903882827328472e-17 3.454503785594167e-17 7.903882827328472e-17 -0.1181707304647262 -0.9929932922539157
12646909333.333334 -0.12718057907075195 -0.9918795795393036 3.526119951466151e-17 7.870348501913376e-17 3.526119951466151e-17 7.870348501913376e-17 -0.1271799428469578 -0.9918796611168526
12647526666.666666 -0.13617931025207983 -0.9906842057180006 3.5974118321874876e-17 7.836165875332843e-17 3.5974118321874876e-17 7.836165875332843e-17 -0.13617867482605478 -0.9906842930633641
12648144000.0 -0.14516681942778192 -0.9894071934936894 3.6683735646386325e-17 7.801338072666858e-17 3.6683735646386325e-17 7.801338072666858e-17 -0.14516618485180852 -0.9894072865991074
12648761333.333334 -0.15414236597242673 -0.9880486481000114 3.738999315721582e-17 7.765868271968651e-17 3.738999315721582e-17 7.765868271968651e-17 -0.15414173229871234 -0.9880487469572489
12649378666.666666 -0.16310521024640523 -0.9866086814894313 3.80928328283667e-17 7.729759703977715e-17 3.80928328283667e-17 7.729759703977715e-17 -0.16310457752707777 -0.9866087860897808
12649996000.0 -0.17205461365685382 -0.9850874123240174 3.87921969435973e-17 7.693015651827098e-17 3.87921969435973e-17 7.693015651827098e-17 -0.17205398194395755 -0.9850875226582994
12650613333.333334 -0.18098983871854676 -0.9834849659656589 3.948802810114689e-17 7.65563945074721e-17 3.948802810114689e-17 7.65563945074721e-17 -0.18098920806403782 -0.9834850820242217
12651230666.666666 -0.18991014911450146 -0.981801474465763 4.0180269218411685e-17 7.61763448776651e-17 4.0180269218411685e-17 7.61763448776651e-17 -0.18990951957024382 -0.9818015962384846
12651848000.0 -0.19881480975704705 -0.980037076554304 4.086886353664219e-17 7.579004201405377e-17 4.086886353664219e-17 7.579004201405377e-17 -0.19881418137480825 -0.980037204030593
12652465333.333334 -0.20770308684798086 -0.978191917628467 4.155375462557036e-17 7.539752081367931e-17 4.155375462557036e-17 7.539752081367931e-17 -0.2077024596794274 -0.9781920507972621
12653082666.666666 -0.21657424793912225 -0.9762661497406546 4.22348863880074e-17 7.499881668229691e-17 4.22348863880074e-17 7.499881668229691e-17 -0.21657362203581543 -0.9762662885904259
12653700000.0 -0.22542756199303132 -0.9742599315858758 4.291220306445271e-17 7.459396553118851e-17 4.291220306445271e-17 7.459396553118851e-17 -0.22542693740642375 -0.9742600761046288
12654317333.333334 -0.23426229944269683 -0.9721734284887956 4.358564923762113e-17 7.418300377396283e-17 4.358564923762113e-17 7.418300377396283e-17 -0.23426167622412694 -0.9721735786640673
12654934666.666666 -0.24307773225204365 -0.9700068123900171 4.425516983697193e-17 7.376596832329666e-17 4.425516983697193e-17 7.376596832329666e-17 -0.2430771104527327 -0.970006968208882
12655552000.0 -0.25187313397587324 -0.9677602618319318 4.4920710143204324e-17 7.334289658763603e-17 4.4920710143204324e-17 7.334289658763603e-17 -0.2518725136469204 -0.9677604232809996
12656169333.333334 -0.26064777981958837 -0.9654339619440357 4.558221579270333e-17 7.291382646786918e-17 4.558221579270333e-17 7.291382646786918e-17 -0.2606471610119663 -0.9654341290094522
12656786666.666666 -0.2694009466990306 -0.9630281044276459 4.6239632781974644e-17 7.247879635394628e-17 4.6239632781974644e-17 7.247879635394628e-17 -0.2694003294635819 -0.9630282770950969
12657404000.0 -0.27813191330001275 -0.9605428875401208 4.689290747203514e-17 7.203784512146714e-17 4.689290747203514e-17 7.203784512146714e-17 -0.27813129768744566 -0.9605430657948322
12658021333.333334 -0.2868399601378955 -0.9579785160784817 4.7541986592785354e-17 7.159101212822028e-17 4.7541986592785354e-17 7.159101212822028e-17 -0.2868393461987794 -0.9579786999052197
12658638666.666666 -0.29552436961657746 -0.9553352013626227 4.818681724731701e-17 7.113833721070482e-17 4.818681724731701e-17 7.113833721070482e-17 -0.2955237574013392 -0.9553353907456965
12659256000.0 -0.3041844260880111 -0.9526131612177867 4.882734691623563e-17 7.067986068057987e-17 4.882734691623563e-17 7.067986068057987e-17 -0.30418381564693026 -0.9526133561410489
12659873333.333334 -0.3128194159108768 -0.9498126199567023 4.946352346191187e-17 7.021562332110252e-17 4.946352346191187e-17 7.021562332110252e-17 -0.3128188072940819 -0.9498128204035503
12660490666.666666 -0.3214286275095005 -0.9469338083610683 5.009529513269911e-17 6.974566638352731e-17 5.009529513269911e-17 6.974566638352731e-17 -0.3214280207669646 -0.946934014314445
12661108000.0 -0.33001135143259863 -0.9439769636624973 5.0722610567156644e-17 6.927003158343931e-17 5.0722610567156644e-17 6.927003158343931e-17 -0.33001074661413615 -0.9439771751048959
12661725333.333334 -0.3385668804114463 -0.9409423295230684 5.1345418798179277e-17 6.8788761097093e-17 5.1345418798179277e-17 6.8788761097093e-17 -0.3385662775667077 -0.9409425464365301
12662342666.666666 -0.3470945094185362 -0.9378301560151195 5.196366925715317e-17 6.830189755766891e-17 5.196366925715317e-17 6.830189755766891e-17 -0.34709390859700456 -0.9378303783812361
12662960000.0 -0.3555935357253816 -0.9346406996007389 5.257731177802537e-17 6.780948405153078e-17 5.257731177802537e-17 6.780948405153078e-17 -0.3555929369763688 -0.934640927400656
12663577333.333334 -0.3640632589605608 -0.9313742231105898 5.318629660136779e-17 6.731156411442501e-17 5.318629660136779e-17 6.731156411442501e-17 -0.3640626623332026 -0.9313744563250052
12664194666.666666 -0.37250298116737635 -0.928030995722263 5.379057437840304e-17 6.680818172764463e-17 5.379057437840304e-17 6.680818172764463e-17 -0.3725023867106295 -0.9280312343314326
12664812000.0 -0.38091200686147964 -0.9246112929380638 5.4390096174976927e-17 6.629938131417099e-17 5.4390096174976927e-17 6.629938131417099e-17 -0.38091141462411693 -0.9246115369217995
12665429333.333334 -0.38928964308804814 -0.9211153965623514 5.4984813475514015e-17 6.578520773476495e-17 5.4984813475514015e-17 6.578520773476495e-17 -0.38928905311865497 -0.9211156459000246
12666046666.666666 -0.3976351994788395 -0.9175435946783466 5.55746781869251e-17 6.526570628403212e-17 5.55746781869251e-17 6.526570628403212e-17 -0.39763461182580917 -0.9175438493488889
12666664000.0 -0.40594798830944645 -0.9138961816242321 5.615964264248992e-17 6.474092268644125e-17 5.615964264248992e-17 6.474092268644125e-17 -0.4059474030209771 -0.9138964416061388
12667281333.333334 -0.41422732455544836 -0.9101734579691245 5.673965960567441e-17 6.421090309233505e-17 5.673965960567441e-17 6.421090309233505e-17 -0.4142267416795383 -0.9101737232404543
12667898666.666666 -0.4224725259492255 -0.9063757304881449 5.73146822739532e-17 6.367569407386724e-17 5.73146822739532e-17 6.367569407386724e-17 -0.4224719455336702 -0.9063760010265243
12668516000.0 -0.4306829130361312 -0.9025033121371628 5.788466428256004e-17 6.31353426209366e-17 5.788466428256004e-17 6.31353426209366e-17 -0.4306823351285181 -0.9025035879197852
12669133333.333334 -0.43885780923035206 -0.8985565220270647 5.844955970820005e-17 6.2589896137088e-17 5.844955970820005e-17 6.2589896137088e-17 -0.4388572338780569 -0.8985568030306925
12669750666.666666 -0.4469965408707653 -0.8945356853974065 5.900932307275751e-17 6.203940243534867e-17 5.900932307275751e-17 6.203940243534867e-17 -0.4469959681209502 -0.8945359715983774
12670368000.0 -0.45509843727643073 -0.8904411335896321 5.956390934692353e-17 6.148390973406976e-17 5.956390934692353e-17 6.148390973406976e-17 -0.45509786717603706 -0.8904414249638546
