! Parameters = {f0=12700.012000; bw=77.238000; Q=6100.000000; N=10; m_0_1=1.341837; m_1_1=1.362807; m_1_2=1.176649; m_2_2=1.362158; m_2_3=0.813612; m_2_8=0.004156; m_2_9=0.040860; m_3_3=1.360221; m_3_4=0.702141; m_3_7=0.004756; m_3_8=-0.092332; m_3_9=0.004156; m_4_4=1.357296; m_4_5=0.538476; m_4_6=0.008273; m_4_7=-0.112881; m_4_8=0.004756; m_5_5=1.357678; m_5_6=0.945831; m_5_7=0.008273; m_6_6=1.357677; m_6_7=0.538818; m_7_7=1.357310; m_7_8=0.702259; m_8_8=1.360219; m_8_9=0.813925; m_9_9=1.362153; m_9_10=1.177727; m_10_10=1.362797; m_10_11=1.342632}
!
! Created with skrf (http://scikit-rf.org).
# Hz S RI R 50.0 
!freq ReS11 ImS11 ReS21 ImS21 ReS12 ImS12 ReS22 ImS22
12607400000.0 0.21993722447161246 0.9755140272141276 -7.48626030635882e-17 -1.3391216947621183e-16 -7.48626030635882e-17 -1.3391216947621183e-16 0.2199365349572717 0.9755141826702426
12608017333.333334 0.23225627572585048 0.9726546264660239 -7.654691018478978e-17 -1.3292190617477896e-16 -7.654691018478978e-17 -1.3292190617477896e-16 0.2322555882662471 0.9726547906214735
12608634666.666666 0.24453818102423408 0.9696396640098641 -7.821814320783083e-17 -1.3191047290160514e-16 -7.821814320783083e-17 -1.3191047290160514e-16 0.24453749572911046 0.9696398368375434
12609252000.0 0.25678097605785377 0.9664696220443657 -7.987603623797678e-17 -1.3087804196387342e-16 -7.987603623797678e-17 -1.3087804196387342e-16 0.2567802930365956 0.9664698035157863
12609869333.333334 0.26898270277296504 0.9631450075709025 -8.152032564759157e-17 -1.298247890059773e-16 -8.152032564759157e-17 -1.298247890059773e-16 0.2689820221345834 0.9631451976561959
12610486666.666666 0.2811414096839305 0.9596663523124769 -8.315075011801439e-17 -1.2875089297972536e-16 -8.315075011801439e-17 -1.2875089297972536e-16 0.281140731537045 0.9596665509804005
12611104000.0 0.2932551521856606 0.9560342126285896 -8.476705068104321e-17 -1.2765653611401874e-16 -8.476705068104321e-17 -1.2765653611401874e-16 0.2932544766384817 0.9560344198465309
12611721333.333334 0.3053219928644047 0.9522491694263172 -8.636897075994939e-17 -1.2654190388405758e-16 -8.636897075994939e-17 -1.2654190388405758e-16 0.3053213200247161 0.952249385160299
12612338666.666666 0.3173400018076662 0.9483118280673888 -8.79562562101899e-17 -1.2540718497996677e-16 -8.79562562101899e-17 -1.2540718497996677e-16 0.31733933178280865 0.9483120522820762
12612956000.0 0.32930725691286444 0.9442228182713697 -8.952865535964361e-17 -1.2425257127495416e-16 -8.952865535964361e-17 -1.2425257127495416e-16 0.3293065898097176 0.9442230509300741
12613573333.333334 0.3412218441947452 0.9399827940149437 -9.108591904839684e-17 -1.2307825779299358e-16 -9.108591904839684e-17 -1.2307825779299358e-16 0.34122118011971125 0.9399830350796304
12614190666.666666 0.3530818580914959 0.9355924334273235 -9.262780066824713e-17 -1.2188444267590665e-16 -9.262780066824713e-17 -1.2188444267590665e-16 0.35308119715048214 0.935592682858617
12614808000.0 0.36488540176956313 0.9310524386817682 -9.415405620160157e-17 -1.2067132715008034e-16 -9.415405620160157e-17 -1.2067132715008034e-16 0.36488474406796584 0.9310526964389598
12615425333.333334 0.3766305874268128 0.9263635358833685 -9.566444426008717e-17 -1.194391154925887e-16 -9.566444426008717e-17 -1.194391154925887e-16 0.37662993306949927 0.9263638019244205
12616042666.666666 0.38831553659477347 0.9215264749527903 -9.715872612260205e-17 -1.1818801499692277e-16 -9.715872612260205e-17 -1.1818801499692277e-16 0.3883148856860663 0.9215267492343453
12616660000.0 0.3999383804388574 0.9165420295064196 -9.86366657730289e-17 -1.1691823593815954e-16 -9.86366657730289e-17 -1.1691823593815954e-16 0.3999377330825171 0.9165423119838058
12617277333.333334 0.41149726005730586 0.911410996732612 -1.000980299373935e-16 -1.1562999153774219e-16 -1.000980299373935e-16 -1.1562999153774219e-16 0.4114966163565148 0.9114112873598516
12617894666.666666 0.422990326778493 0.9061341972641949 -1.0154258812063204e-16 -1.1432349792774263e-16 -1.0154258812063204e-16 -1.1432349792774263e-16 0.4229896868358392 0.9061344959940117
12618512000.0 0.43441574245664527 0.9007124750471954 -1.0297011264289193e-16 -1.1299897411466412e-16 -1.0297011264289193e-16 -1.1299897411466412e-16 0.43441510637410513 0.9007127818310214
12619129333.333334 0.4457716797656196 0.8951466972059612 -1.0438037867530444e-16 -1.11656641942845e-16 -1.0438037867530444e-16 -1.11656641942845e-16 0.4457710476445429 0.8951470119939458
12619746666.666666 0.45705632249141553 0.8894377539043562 -1.0577316427533297e-16 -1.1029672605737022e-16 -1.0577316427533297e-16 -1.1029672605737022e-16 0.4570556944325082 0.8894380766453732
12620364000.0 0.46826786582269847 0.8835865582033595 -1.0714825042167647e-16 -1.0891945386650681e-16 -1.0714825042167647e-16 -1.0891945386650681e-16 0.46826724192600666 0.8835868888450154
12620981333.333334 0.4794045166389979 0.8775940459152701 -1.0850542104852935e-16 -1.0752505550385648e-16 -1.0850542104852935e-16 -1.0752505550385648e-16 0.47940389700389296 0.877594384403914
12621598666.666666 0.49046449379799656 0.871461175453777 -1.0984446307956724e-16 -1.061137637898701e-16 -1.0984446307956724e-16 -1.061137637898701e-16 0.4904638785231584 0.871461521734508
12622216000.0 0.5014460284201454 0.8651889276808072 -1.1116516646124263e-16 -1.046858141931298e-16 -1.1116516646124263e-16 -1.046858141931298e-16 0.501445417603547 0.8651892816974838
12622833333.333334 0.512347364171669 0.8587783057495961 -1.124673241957118e-16 -1.0324144479108162e-16 -1.124673241957118e-16 -1.0324144479108162e-16 0.5123467579105602 0.8587786674448434
12623450666.666666 0.5231667575452676 0.8522303349443587 -1.1375073237315833e-16 -1.0178089623046111e-16 -1.1375073237315833e-16 -1.0178089623046111e-16 0.5231661559361612 0.8522307042595825
12624068000.0 0.5339024781392141 0.8455460625161757 -1.1501519020366152e-16 -1.0030441168725403e-16 -1.1501519020366152e-16 -1.0030441168725403e-16 0.5339018812778688 0.8455464393915666
12624685333.333334 0.5445528089341479 0.838726557515459 -1.1626050004854697e-16 -9.881223682626268e-17 -1.1626050004854697e-16 -9.881223682626268e-17 0.5445522169155536 0.8387269418900045
12625302666.666666 0.5551160465672093 0.8317729106212799 -1.1748646745115655e-16 -9.730461976034989e-17 -1.1748646745115655e-16 -9.730461976034989e-17 0.5551154594855726 0.8317733024327754
12625920000.0 0.5655905016051829 0.8246862339664712 -1.1869290116717526e-16 -9.578181100920294e-17 -1.1869290116717526e-16 -9.578181100920294e-17 0.5655899195539118 0.8246866331515285
12626537333.333334 0.5759744988140323 0.8174676609601931 -1.1987961319434246e-16 -9.424406345782398e-17 -1.1987961319434246e-16 -9.424406345782398e-17 0.5759739218857205 0.8174680674542497
12627154666.666666 0.5862663774271157 0.8101183461064754 -1.2104641880168044e-16 -9.269163231458548e-17 -1.2104641880168044e-16 -9.269163231458548e-17 0.5862658057135296 0.8101187598438081
12627772000.0 0.596464491411077 0.8026394648193726 -1.221931365581808e-16 -9.112477506892552e-17 -1.221931365581808e-16 -9.112477506892552e-17 0.5964639250031396 0.8026398857331057
12628389333.333334 0.6065672097284573 0.795032213235437 -1.2331958836089234e-16 -8.95437514487583e-17 -1.2331958836089234e-16 -8.95437514487583e-17 0.6065666487162336 0.7950326412575527
12629006666.666666 0.616572916599244 0.787297808021911 -1.2442559946253616e-16 -8.794882337743505e-17 -1.2442559946253616e-16 -8.794882337743505e-17 0.6165723610719281 0.7872982430832626
12629624000.0 0.6264800117587882 0.7794374861825116 -1.2551099849848433e-16 -8.634025493047694e-17 -1.2551099849848433e-16 -8.634025493047694e-17 0.6264794618046878 0.7794379282128323
12630241333.333334 0.6362869107140153 0.7714525048593842 -1.265756175132648e-16 -8.471831229185689e-17 -1.265756175132648e-16 -8.471831229185689e-17 0.6362863664205392 0.7714529537873009
12630858666.666666 0.6459920449965776 0.7633441411322573 -1.276192919863959e-16 -8.308326371011296e-17 -1.276192919863959e-16 -8.308326371011296e-17 0.6459915064502191 0.7633445968852997
12631476000.0 0.655593862414186 0.7551136918137911 -1.2864186085780724e-16 -8.14353794539145e-17 -1.2864186085780724e-16 -8.14353794539145e-17 0.6555933297005123 0.7551141543184046
12632093333.333334 0.6650908272982953 0.7467624732426452 -1.2964316655249948e-16 -7.977493176760672e-17 -1.2964316655249948e-16 -7.977493176760672e-17 0.6650903005019317 0.746762942424203
12632710666.666666 0.6744814207499752 0.7382918210727368 -1.3062305500479633e-16 -7.810219482619974e-17 -1.3062305500479633e-16 -7.810219482619974e-17 0.6744808999545929 0.7382922968555518
12633328000.0 0.6837641408830447 0.7297030900594268 -1.3158137568193496e-16 -7.641744469018402e-17 -1.3158137568193496e-16 -7.641744469018402e-17 0.6837636261713462 0.7297035723667626
12633945333.333334 0.6929375030638935 0.7209976538431876 -1.325179816070872e-16 -7.47209592600447e-17 -1.325179816070872e-16 -7.47209592600447e-17 0.6929369945176012 0.7209981425972728
12634562666.666666 0.7020000401491413 0.712176904729722 -1.3343272938178542e-16 -7.301301823051023e-17 -1.3343272938178542e-16 -7.301301823051023e-17 0.701999537848984 0.7121773998517622
12635180000.0 0.7109503027202438 0.7032422534673229 -1.3432547920780296e-16 -7.12939030444529e-17 -1.3432547920780296e-16 -7.12939030444529e-17 0.7109498067459419 0.7032427548775118
12635797333.333334 0.7197868593153417 0.6941951290212005 -1.3519609490838238e-16 -6.956389684662918e-17 -1.3519609490838238e-16 -6.956389684662918e-17 0.7197863697455973 0.6941956366387348
12636414666.666666 0.7285082966580465 0.6850369783451078 -1.3604444394891557e-16 -6.782328443707984e-17 -1.3604444394891557e-16 -6.782328443707984e-17 0.7285078135705298 0.6850374920881992
12637032000.0 0.7371132198837114 0.6757692661496757 -1.3687039745699943e-16 -6.607235222432461e-17 -1.3687039745699943e-16 -6.607235222432461e-17 0.7371127433550483 0.6757697859355646
12637649333.333334 0.7456002527623582 0.6663934746683163 -1.3767383024191436e-16 -6.431138817826881e-17 -1.3767383024191436e-16 -6.431138817826881e-17 0.7455997828681176 0.666394000413284
12638266666.666666 0.7539680379188255 0.6569111034201216 -1.384546208134556e-16 -6.25406817829602e-17 -1.384546208134556e-16 -6.25406817829602e-17 0.7539675747335082 0.6569116350395048
12638884000.0 0.7622152370498602 0.6473236689700362 -1.3921265140021446e-16 -6.076052398900227e-17 -1.3921265140021446e-16 -6.076052398900227e-17 0.762214780646888 0.6473242063782417
12639501333.333334 0.7703405311381989 0.637632704686266 -1.399478079671938e-16 -5.897120716586552e-17 -1.399478079671938e-16 -5.897120716586552e-17 0.7703400815898992 0.6376332477967807
12640118666.666666 0.778342620663337 0.6278397604952498 -1.4065998023284465e-16 -5.717302505391735e-17 -1.4065998023284465e-16 -5.717302505391735e-17 0.7783421780409372 0.62784030922066
12640736000.0 0.7862202258097739 0.6179464026332973 -1.4134906168550468e-16 -5.5366272716199145e-17 -1.4134906168550468e-16 -5.5366272716199145e-17 0.7862197901833838 0.6179469568852974
12641353333.333334 0.793972086671189 0.6079542133967022 -1.4201494959914305e-16 -5.355124649020073e-17 -1.4201494959914305e-16 -5.355124649020073e-17 0.7939716581097948 0.6079547730861131
12641970666.666666 0.801596963452344 0.5978647908881958 -1.4265754504857833e-16 -5.172824393921448e-17 -1.4265754504857833e-16 -5.172824393921448e-17 0.8015965420237944 0.597865355924977
12642588000.0 0.8090936366671893 0.5876797487615734 -1.432767529240248e-16 -4.9897563803629484e-17 -1.432767529240248e-16 -4.9897563803629484e-17 0.8090932224381859 0.5876803190548379
12643205333.333334 0.8164609073339393 0.5774007159635712 -1.4387248194500273e-16 -4.8059505952095395e-17 -1.4387248194500273e-16 -4.8059505952095395e-17 0.8164605003700256 0.5774012914216001
12643822666.666666 0.82369759716683 0.5670293364733388 -1.4444464467367503e-16 -4.6214371332367326e-17 -1.4444464467367503e-16 -4.6214371332367326e-17 0.8236971975323811 0.5670299170035961
12644440000.0 0.8308025487645703 0.5565672690395101 -1.4499315752748733e-16 -4.436246192219945e-17 -1.4499315752748733e-16 -4.436246192219945e-17 0.8308021565227834 0.5565678545486584
12645057333.333334 0.8377746257954802 0.5460161869148634 -1.4551794079123547e-16 -4.250408067991889e-17 -1.4551794079123547e-16 -4.250408067991889e-17 0.8377742410083642 0.5460167773087775
12645674666.666666 0.8446127131791087 0.5353777775888993 -1.4601891862847184e-16 -4.063953149495027e-17 -1.4601891862847184e-16 -4.063953149495027e-17 0.8446123359074735 0.5353783727726823
12646292000.0 0.8513157172647584 0.5246537425176668 -1.4649601909229662e-16 -3.8769119138141966e-17 -1.4649601909229662e-16 -3.8769119138141966e-17 0.8513153475682065 0.5246543423956649
12646909333.333334 0.8578825660062753 0.5138457968518307 -1.469491741354801e-16 -3.6893149212102516e-17 -1.469491741354801e-16 -3.6893149212102516e-17 0.8578822039431921 0.5138464013276488
12647526666.666666 0.8643122091335381 0.5029556691623105 -1.4737831962000094e-16 -3.501192810122154e-17 -1.4737831962000094e-16 -3.501192810122154e-17 0.8643118547610823 0.5029562781388276
12648144000.0 0.8706036183204325 0.4919851011638217 -1.4778339532590056e-16 -3.3125762921758105e-17 -1.4778339532590056e-16 -3.3125762921758105e-17 0.8706032716945272 0.4919857145432065
12648761333.333334 0.8767557873493164 0.48093584743631373 -1.4816434495952523e-16 -3.123496147173016e-17 -1.4816434495952523e-16 -3.123496147173016e-17 0.8767554485246407 0.48093646512004046
12649378666.666666 0.8827677322719784 0.4698096751443016 -1.4852111616110656e-16 -2.9339832180813916e-17 -1.4852111616110656e-16 -2.9339832180813916e-17 0.8827674013019589 0.4698102970331659
12649996000.0 0.8886384915668948 0.45860836375443326 -1.4885366051173666e-16 -2.7440684059982978e-17 -1.4885366051173666e-16 -2.7440684059982978e-17 0.8886381685036958 0.45860898974856745
12650613333.333334 0.8943671262931767 0.4473337047505912 -1.491619335396621e-16 -2.553782665127575e-17 -1.491619335396621e-16 -2.553782665127575e-17 0.8943668111876938 0.44733433474948153
12651230666.666666 0.8999527202406279 0.43598750134757047 -1.4944589472596002e-16 -2.363156997736961e-17 -1.4944589472596002e-16 -2.363156997736961e-17 0.8999524131424782 0.43598813525007174
12651848000.0 0.9053943800763085 0.4245715682026315 -1.4970550750956717e-16 -2.1722224491113508e-17 -1.4970550750956717e-16 -2.1722224491113508e-17 0.9053940810338237 0.4245722059069842
12652465333.333334 0.9106912354874072 0.413087731125271 -1.4994073929166118e-16 -1.981010102503612e-17 -1.4994073929166118e-16 -1.981010102503612e-17 0.9106909445476271 0.41308837252911823
12653082666.666666 0.9158424393204395 0.4015378267852137 -1.501515614393908e-16 -1.7895510740871843e-17 -1.501515614393908e-16 -1.7895510740871843e-17 0.9158421565291018 0.4015384717856161
12653700000.0 0.9208471677167545 0.38992370241860885 -1.5033794928899014e-16 -1.5978765078831453e-17 -1.5033794928899014e-16 -1.5978765078831453e-17 0.9208468931182918 0.38992435091206284
12654317333.333334 0.925704620244214 0.3782472155328037 -1.5049988214820576e-16 -1.406017570718859e-17 -1.5049988214820576e-16 -1.406017570718859e-17 0.9257043538817428 0.37824786741525657
12654934666.666666 0.9304140200253221 0.366510233609001 -1.5063734329812014e-16 -1.2140054471507622e-17 -1.5063734329812014e-16 -1.2140054471507622e-17 0.9304137619406367 0.366510888775868
12655552000.0 0.9349746138614863 0.3547146338035265 -1.5075031999430317e-16 -1.0218713344084403e-17 -1.5075031999430317e-16 -1.0218713344084403e-17 0.9349743640950544 0.35471529214970826
12656169333.333334 0.9393856723532986 0.3428623026480842 -1.5083880346732872e-16 -8.29646437332669e-18 -1.5083880346732872e-16 -8.29646437332669e-18 0.9393854309442538 0.34286296406798317
12656786666.666666 0.9436464900173985 0.33095513574750324 -1.5090278892264676e-16 -6.373619633116128e-18 -1.5090278892264676e-16 -6.373619633116128e-18 0.943646257003534 0.33095580013504067
12657404000.0 0.9477563853992022 0.3189950374768294 -1.5094227553981183e-16 -4.450491172177324e-18 -1.5094227553981183e-16 -4.450491172177324e-18 0.9477561608169637 0.3189957047254618
12658021333.333334 0.951714701181926 0.30698392067664043 -1.5095726647106219e-16 -2.527390963547807e-18 -1.5095726647106219e-16 -2.527390963547807e-18 0.9517144850664087 0.30698459067937756
12658638666.666666 0.9555208042916309 0.2949237063473868 -1.509477688392626e-16 -6.04630854002951e-19 -1.509477688392626e-16 -6.04630854002951e-19 0.9555205966765715 0.2949243789968083
12659256000.0 0.9591740859986446 0.28281632334161483 -1.5091379373519883e-16 1.3174774864704817e-18 -1.5091379373519883e-16 1.3174774864704817e-18 0.9591738869164184 0.2828169985298877
12659873333.333334 0.962673962014763 0.2706637080559619 -1.5085535621423267e-16 3.2386226151265982e-18 -1.5085535621423267e-16 3.2386226151265982e-18 0.9626737714963759 0.2706643856748573
12660490666.666666 0.9660198725867059 0.25846780412146114 -1.5077247529231616e-16 5.15849336680474e-18 -1.5077247529231616e-16 5.15849336680474e-18 0.9660196906617916 0.2584684840623721
12661108000.0 0.9692112825857915 0.24623056209213787 -1.506651739413611e-16 7.076778904380648e-18 -1.506651739413611e-16 7.076778904380648e-18 0.969211109282608 0.2462312442460971
12661725333.333334 0.9722476815933151 0.23395393913381604 -1.5053347908397614e-16 8.99316876893053e-18 -1.5053347908397614e-16 8.99316876893053e-18 0.9722475169387373 0.23395462339151263
12662342666.666666 0.9751285839823415 0.2216398987104936 -1.5037742158755685e-16 1.0907352929994119e-17 -1.5037742158755685e-16 1.0907352929994119e-17 0.9751284280018598 0.22164058496229103
12662960000.0 0.977853528995305 0.2092904102705911 -1.5019703625774824e-16 1.2819021835603211e-17 -1.5019703625774824e-16 1.2819021835603211e-17 0.9778533817130186 0.20929109840654433
12663577333.333334 0.9804220808177115 0.1969074489319118 -1.49992361831261e-16 1.4727866462349926e-17 -1.49992361831261e-16 1.4727866462349926e-17 0.980421942256327 0.1969081388417854
12664194666.666666 0.9828338286478416 0.1844929951657511 -1.4976344096806433e-16 1.6633578365213065e-17 -1.4976344096806433e-16 1.6633578365213065e-17 0.9828336988286688 0.18449368673903668
12664812000.0 0.9850883867624534 0.17204903448014977 -1.4951032024293403e-16 1.8535849727407875e-17 -1.4951032024293403e-16 1.8535849727407875e-17 0.9850882657054021 0.1720497276060838
12665429333.333334 0.9871853945784819 0.15957755710228508 -1.4923305013638104e-16 2.0434373409986576e-17 -1.4923305013638104e-16 2.0434373409986576e-17 0.9871852823020578 0.15957825166986622
12666046666.666666 0.9891245167106602 0.14708055766044337 -1.4893168502494292e-16 2.232884300139504e-17 -1.4893168502494292e-16 2.232884300139504e-17 0.9891244132319651 0.14708125355845098
12666664000.0 0.9909054430252661 0.13456003486439277 -1.4860628317084477e-16 2.4218952866891854e-17 -1.4860628317084477e-16 2.4218952866891854e-17 0.9909053483599899 0.1345607319814038
12667281333.333334 0.9925278886895904 0.12201799118650394 -1.4825690671104663e-16 2.6104398197746135e-17 -1.4825690671104663e-16 2.6104398197746135e-17 0.9925278028520147 0.12201868941091162
12667898666.666666 0.9939915942175864 0.10945643254092345 -1.478836216456558e-16 2.7984875060358507e-17 -1.478836216456558e-16 2.7984875060358507e-17 0.9939915172205797 0.10945713176095472
12668516000.0 0.9952963255113589 0.09687736796275594 -1.4748649782571546e-16 2.986008044522071e-17 -1.4748649782571546e-16 2.986008044522071e-17 0.9952962573663728 0.09687806806648928
12669133333.333334 0.9964418738985493 0.08428280928725751 -1.4706560894039125e-16 3.172971231562254e-17 -1.4706560894039125e-16 3.172971231562254e-17 0.9964418146156194 0.08428351016264102
12669750666.666666 0.9974280561657716 0.07167477082750724 -1.4662103250351442e-16 3.359346965630772e-17 -1.4662103250351442e-16 3.359346965630772e-17 0.9974280057535153 0.07167547236237655
12670368000.0 0.998254714587888 0.05905526905247366 -1.4615284983953664e-16 3.5451052521819705e-17 -1.4615284983953664e-16 3.5451052521819705e-17 0.9982546730535037 0.059055971134569916
