! Parameters = {f0=12700.012000; bw=77.238000; Q=6100.000000; N=10; m_0_1=1.206301; m_1_1=-0.670226; m_1_2=1.041113; m_2_2=-0.670875; m_2_3=0.678076; m_2_8=-0.002621; m_2_9=0.034083; m_3_3=-0.672812; m_3_4=0.566605; m_3_7=-0.002021; m_3_8=-0.099109; m_3_9=-0.002621; m_4_4=-0.675737; m_4_5=0.402940; m_4_6=0.001496; m_4_7=-0.119658; m_4_8=-0.002021; m_5_5=-0.675355; m_5_6=0.810295; m_5_7=0.001496; m_6_6=-0.675356; m_6_7=0.403282; m_7_7=-0.675723; m_7_8=0.566723; m_8_8=-0.672814; m_8_9=0.678389; m_9_9=-0.670880; m_9_10=1.042191; m_10_10=-0.670236; m_10_11=1.207096}
!
! Created with skrf (http://scikit-rf.org).
# Hz S RI R 50.0 
!freq ReS11 ImS11 ReS21 ImS21 ReS12 ImS12 ReS22 ImS22
12607400000.0 0.02114633710732943 0.999776391212947 -2.467481461535567e-17 -7.725406994104206e-17 -2.467481461535567e-17 -7.725406994104206e-17 0.021145701587150314 0.9997764046546748
12608017333.333334 0.02978335442886617 0.9995563774989407 -2.5343216107230877e-17 -7.70206664424563e-17 -2.5343216107230877e-17 -7.70206664424563e-17 0.02978271907965371 0.9995563964299679
12608634666.666666 0.038418148525721646 0.9992617504256311 -2.6009424631533676e-17 -7.678148533655109e-17 -2.6009424631533676e-17 -7.678148533655109e-17 0.038417513394883356 0.999261774844007
12609252000.0 0.04705007484090655 0.9988925319859512 -2.6673390294497914e-17 -7.653654710761914e-17 -2.6673390294497914e-17 -7.653654710761914e-17 0.04704943997582904 0.9988925618893166
12609869333.333334 0.05567848903161593 0.9984487497408149 -2.733506339272499e-17 -7.62858726704045e-17 -2.733506339272499e-17 -7.62858726704045e-17 0.05567785447966123 0.9984487851263992
12610486666.666666 0.06430274701709979 0.9979304368170637 -2.7994394416876506e-17 -7.602948336834762e-17 -2.7994394416876506e-17 -7.602948336834762e-17 0.06430211282560201 0.9979304776816896
12611104000.0 0.07292220502696854 0.9973376319049864 -2.8651334055404715e-17 -7.576740097177852e-17 -2.8651334055404715e-17 -7.576740097177852e-17 0.0729215712432302 0.9973376782450666
12611721333.333334 0.08153621964902119 0.996670379255442 -2.9305833198193214e-17 -7.549964767610604e-17 -2.9305833198193214e-17 -7.549964767610604e-17 0.08153558632030986 0.9966704310669823
12612338666.666666 0.09014414787747271 0.9959287286765485 -2.9957842940232596e-17 -7.522624609995554e-17 -2.9957842940232596e-17 -7.522624609995554e-17 0.09014351505101716 0.9959287859551447
12612956000.0 0.09874534716086615 0.9951127355299599 -3.0607314585276534e-17 -7.494721928327555e-17 -3.0607314585276534e-17 -7.494721928327555e-17 0.09874471488385331 0.995112798270803
12613573333.333334 0.10733917544995314 0.9942224607267555 -3.125419964944251e-17 -7.46625906854291e-17 -3.125419964944251e-17 -7.46625906854291e-17 0.10733854376952402 0.994222528924626
12614190666.666666 0.1159249912458176 0.9932579707228621 -3.1898449864835173e-17 -7.437238418323696e-17 -3.1898449864835173e-17 -7.437238418323696e-17 0.11592436020906427 0.9932580443721364
12614808000.0 0.12450215364753582 0.992219337514124 -3.2540017183139156e-17 -7.407662406899511e-17 -3.2540017183139156e-17 -7.407662406899511e-17 0.12450152330149757 0.9922194166087699
12615425333.333334 0.13307002240021498 0.9911066386309031 -3.317885377918746e-17 -7.377533504846442e-17 -3.317885377918746e-17 -7.377533504846442e-17 0.13306939279187505 0.9911067231644846
12616042666.666666 0.14162795794270114 0.9899199571323031 -3.3814912054509285e-17 -7.34685422388302e-17 -3.3814912054509285e-17 -7.34685422388302e-17 0.14162732911898315 0.9899200470979784
12616660000.0 0.1501753214552361 0.9886593815999813 -3.44481446408783e-17 -7.315627116662317e-17 -3.44481446408783e-17 -7.315627116662317e-17 0.15017469346300039 0.9886594769905032
12617277333.333334 0.1587114749073394 0.9873250061315056 -3.507850440382479e-17 -7.283854776561698e-17 -3.507850440382479e-17 -7.283854776561698e-17 0.15871084779337963 0.9873251069392226
12617894666.666666 0.1672357811052108 0.9859169303333679 -3.570594444611688e-17 -7.25153983747027e-17 -3.570594444611688e-17 -7.25153983747027e-17 0.16723515491625068 0.9859170365502254
12618512000.0 0.1757476037395189 0.9844352593135103 -3.633041811127347e-17 -7.218684973570714e-17 -3.633041811127347e-17 -7.218684973570714e-17 0.17574697852220833 0.9844353709310506
12619129333.333334 0.18424630743270282 0.9828801036735126 -3.6951878986987685e-17 -7.18529289912164e-17 -3.6951878986987685e-17 -7.18529289912164e-17 0.18424568323361473 0.9828802206828761
12619746666.666666 0.19273125778645755 0.9812515795003287 -3.757028090857958e-17 -7.151366368234513e-17 -3.757028090857958e-17 -7.151366368234513e-17 0.19273063465208445 0.9812517018922543
12620364000.0 0.20120182142928503 0.979549808357584 -3.818557796242662e-17 -7.116908174647703e-17 -3.818557796242662e-17 -7.116908174647703e-17 0.201201199406035 0.9795499361224081
12620981333.333334 0.2096573660634369 0.9777749172765591 -3.8797724489337043e-17 -7.081921151499542e-17 -3.8797724489337043e-17 -7.081921151499542e-17 0.2096567451976311 0.9777750504042209
12621598666.666666 0.218097260512311 0.9759270387466817 -3.94066750879411e-17 -7.04640817109642e-17 -3.94066750879411e-17 -7.04640817109642e-17 0.21809664085017894 0.9759271772267175
12622216000.0 0.22652087476759128 0.9740063107056164 -4.001238461804924e-17 -7.010372144678658e-17 -4.001238461804924e-17 -7.010372144678658e-17 0.22652025635526898 0.974006454527168
12622833333.333334 0.23492758003625044 0.9720128765289854 -4.061480820398285e-17 -6.973816022183784e-17 -4.061480820398285e-17 -6.973816022183784e-17 0.23492696291977533 0.9720130256807935
12623450666.666666 0.24331674878729123 0.969946885019702 -4.121390123788392e-17 -6.936742792007042e-17 -4.121390123788392e-17 -6.936742792007042e-17 0.24331613301260008 0.9699470394901133
12624068000.0 0.25168775479889544 0.9678084903967992 -4.180961938300878e-17 -6.899155480758667e-17 -4.180961938300878e-17 -6.899155480758667e-17 0.25168714041182016 0.9678086501737629
12624685333.333334 0.26003997320511246 0.9655978522839234 -4.24019185770117e-17 -6.861057153017661e-17 -4.24019185770117e-17 -6.861057153017661e-17 0.2600393602513769 0.9655980173549942
12625302666.666666 0.26837278054214575 0.9633151356975139 -4.299075503516718e-17 -6.822450911085129e-17 -4.299075503516718e-17 -6.822450911085129e-17 0.26837216906736205 0.9633153060498522
12625920000.0 0.27668555479549645 0.9609605110343243 -4.357608525361854e-17 -6.783339894731847e-17 -4.357608525361854e-17 -6.783339894731847e-17 0.27668494484516254 0.9609606866546989
12626537333.333334 0.28497767544579217 0.9585341540588699 -4.415786601256519e-17 -6.743727280945544e-17 -4.415786601256519e-17 -6.743727280945544e-17 0.2849770670652874 0.9585343349336567
12627154666.666666 0.29324852351546266 0.9560362458902077 -4.4736054379448253e-17 -6.703616283674056e-17 -4.4736054379448253e-17 -6.703616283674056e-17 0.2932479167500445 0.9560364320053915
12627772000.0 0.30149748161502415 0.9534669729883882 -4.531060771211266e-17 -6.663010153565731e-17 -4.531060771211266e-17 -6.663010153565731e-17 0.30149687650982543 0.953467164329564
12628389333.333334 0.3097239339887038 0.9508265271406781 -4.588148366192566e-17 -6.621912177708642e-17 -4.588148366192566e-17 -6.621912177708642e-17 0.3097233305887289 0.9508267236930532
12629006666.666666 0.3179272665609745 0.9481151054470707 -4.644864017690895e-17 -6.580325679364441e-17 -4.644864017690895e-17 -6.580325679364441e-17 0.317926664911096 0.9481153071954636
12629624000.0 0.32610686698201197 0.9453329103056857 -4.7012035504798394e-17 -6.538254017703021e-17 -4.7012035504798394e-17 -6.538254017703021e-17 0.32610626712696816 0.9453331172345311
12630241333.333334 0.33426212467348837 0.9424801493976442 -4.757162819612855e-17 -6.495700587531117e-17 -4.757162819612855e-17 -6.495700587531117e-17 0.3342615266578784 0.9424803614909889
12630858666.666666 0.342392430874149 0.9395570356715617 -4.812737710725353e-17 -6.452668819021078e-17 -4.812737710725353e-17 -6.452668819021078e-17 0.34239183474243046 0.939557252913069
12631476000.0 0.3504971786854671 0.9365637873275735 -4.8679241403374754e-17 -6.40916217743474e-17 -4.8679241403374754e-17 -6.40916217743474e-17 0.3504965844819531 0.9365640097005257
12632093333.333334 0.35857576311652045 0.9335006278012062 -4.9227180561517155e-17 -6.365184162846858e-17 -4.9227180561517155e-17 -6.365184162846858e-17 0.35857517088537516 0.933500855288502
12632710666.666666 0.3666275811294721 0.9303677857465799 -4.9771154373497905e-17 -6.320738309864546e-17 -4.9771154373497905e-17 -6.320738309864546e-17 0.3666269909147087 0.9303680183307395
12633328000.0 0.3746520316846365 0.9271654950193167 -5.0311122948868554e-17 -6.275828187344346e-17 -5.0311122948868554e-17 -6.275828187344346e-17 0.37465144353011337 0.9271657326824819
12633945333.333334 0.38264851578502873 0.9238939946592118 -5.084704671782293e-17 -6.230457398107543e-17 -5.084704671782293e-17 -6.230457398107543e-17 0.38264792973444567 0.9238942373831452
12634562666.666666 0.39061643652139255 0.9205535288722593 -5.137888643408826e-17 -6.184629578652252e-17 -5.137888643408826e-17 -6.184629578652252e-17 0.39061585261828863 0.9205537766383493
12635180000.0 0.39855519911652304 0.9171443470125246 -5.190660317777994e-17 -6.138348398863947e-17 -5.190660317777994e-17 -6.138348398863947e-17 0.3985546174042724 0.9171445998017842
12635797333.333334 0.4064642109698719 0.9136667035634385 -5.2430158358249775e-17 -6.09161756172194e-17 -5.2430158358249775e-17 -6.09161756172194e-17 0.40646363149168135 0.9136669613565084
12636414666.666666 0.41434288170160233 0.9101208581188833 -5.294951371688353e-17 -6.044440803005537e-17 -5.294951371688353e-17 -6.044440803005537e-17 0.4143423045005073 0.9101211208960319
12637032000.0 0.4221906231967356 0.9065070753637793 -5.34646313298894e-17 -5.996821890996304e-17 -5.34646313298894e-17 -5.996821890996304e-17 0.42219004831559764 0.9065073431049052
12637649333.333334 0.43000684964910435 0.9028256250543034 -5.3975473611058285e-17 -5.948764626178134e-17 -5.3975473611058285e-17 -5.948764626178134e-17 0.43000627713060724 0.9028258977389364
12638266666.666666 0.43779097760502783 0.8990767819977752 -5.4482003314490346e-17 -5.900272840935592e-17 -5.4482003314490346e-17 -5.900272840935592e-17 0.4377904074916754 0.8990770596050786
12638884000.0 0.44554242600678945 0.8952608260321826 -5.4984183537292914e-17 -5.851350399250077e-17 -5.4984183537292914e-17 -5.851350399250077e-17 0.4455418583409012 0.8952611085409536
12639501333.333334 0.4532606162361883 0.8913780420052042 -5.548197772226819e-17 -5.802001196392203e-17 -5.548197772226819e-17 -5.802001196392203e-17 0.4532600510598979 0.8913783293938775
12640118666.666666 0.4609449721575033 0.8874287197530624 -5.597534966054694e-17 -5.752229158614378e-17 -5.597534966054694e-17 -5.752229158614378e-17 0.4609444095127536 0.8874290119997092
12640736000.0 0.4685949201608277 0.8834131540787183 -5.646426349423022e-17 -5.702038242837637e-17 -5.646426349423022e-17 -5.702038242837637e-17 0.4685943600893686 0.8834134511610497
12641353333.333334 0.4762098892044322 0.8793316447300998 -5.694868371895403e-17 -5.651432436341304e-17 -5.694868371895403e-17 -5.651432436341304e-17 0.47620933174781815 0.8793319466254693
12641970666.666666 0.48378931085784754 0.8751844963774955 -5.742857518648329e-17 -5.600415756444604e-17 -5.742857518648329e-17 -5.600415756444604e-17 0.4837887560574327 0.8751848030628977
12642588000.0 0.4913326193439649 0.8709720185909762 -5.790390310722805e-17 -5.5489922501911205e-17 -5.790390310722805e-17 -5.5489922501911205e-17 0.49133206724090195 0.8709723300430515
12643205333.333334 0.4988392515814735 0.8666945258171865 -5.837463305276389e-17 -5.497165994027927e-17 -5.837463305276389e-17 -5.497165994027927e-17 0.4988387022167095 0.866694842012222
12643822666.666666 0.5063086472267893 0.8623523373559211 -5.884073095831346e-17 -5.444941093483494e-17 -5.884073095831346e-17 -5.444941093483494e-17 0.5063081006410632 0.8623526582698523
12644440000.0 0.5137402487159348 0.8579457773362668 -5.930216312518593e-17 -5.3923216828450757e-17 -5.930216312518593e-17 -5.3923216828450757e-17 0.5137397049497741 0.8579461029446788
12645057333.333334 0.5211335013061084 0.8534751746924318 -5.975889622321086e-17 -5.3393119248315055e-17 -5.975889622321086e-17 -5.3393119248315055e-17 0.5211329603998257 0.8534755049705619
12645674666.666666 0.5284878531170233 0.848940863139242 -6.021089729312761e-17 -5.2859160102656486e-17 -6.021089729312761e-17 -5.2859160102656486e-17 0.5284873151107139 0.8489411980619807
12646292000.0 0.5358027551724162 0.8443431811470318 -6.065813374895568e-17 -5.2321381577435956e-17 -6.065813374895568e-17 -5.2321381577435956e-17 0.5358022201059552 0.8443435206889262
12646909333.333334 0.5430776614406408 0.8396824719166205 -6.110057338032016e-17 -5.1779826133038435e-17 -6.110057338032016e-17 -5.1779826133038435e-17 0.5430771293536806 0.8396828160518753
12647526666.666666 0.5503120288755972 0.834959083353589 -6.153818435476785e-17 -5.1234536500920475e-17 -6.153818435476785e-17 -5.1234536500920475e-17 0.5503114998075628 0.8349594320560686
12648144000.0 0.5575053174573851 0.8301733680422311 -6.197093522003741e-17 -5.0685555680257404e-17 -6.197093522003741e-17 -5.0685555680257404e-17 0.5575047914474733 0.8301737212854617
12648761333.333334 0.5646569902324489 0.8253256832193423 -6.239879490630885e-17 -5.013292693456128e-17 -6.239879490630885e-17 -5.013292693456128e-17 0.5646564673196236 0.8253260409765127
12649378666.666666 0.5717665133535885 0.8204163907476016 -6.282173272841443e-17 -4.9576693788290785e-17 -6.282173272841443e-17 -4.9576693788290785e-17 0.5717659935765798 0.8204167529915685
12649996000.0 0.5788333561200707 0.8154458570883891 -6.323971838803457e-17 -4.901690002342243e-17 -6.323971838803457e-17 -4.901690002342243e-17 0.5788328395173693 0.8154462237916741
12650613333.333334 0.5858569910170978 0.8104144532745177 -6.3652721975844e-17 -4.845358967602888e-17 -6.3652721975844e-17 -4.845358967602888e-17 0.5858564776269546 0.8104148244093143
12651230666.666666 0.5928368937550265 0.8053225548826592 -6.406071397364041e-17 -4.788680703282335e-17 -6.406071397364041e-17 -4.788680703282335e-17 0.5928363836154493 0.8053229304208328
12651848000.0 0.5997725433088973 0.8001705420050271 -6.446366525644857e-17 -4.731659662767667e-17 -6.446366525644857e-17 -4.731659662767667e-17 0.599772036457647 0.8001709219181167
12652465333.333334 0.6066634219569332 0.7949587992212842 -6.486154709456823e-17 -4.6743003238151686e-17 -6.486154709456823e-17 -4.6743003238151686e-17 0.6066629184315216 0.7949591834805044
12653082666.666666 0.61350901531935 0.7896877155697206 -6.525433115561591e-17 -4.616607188198794e-17 -6.525433115561591e-17 -4.616607188198794e-17 0.6135085151570372 0.7896881041459656
12653700000.0 0.6203088123969069 0.7843576845180906 -6.564198950653576e-17 -4.558584781356676e-17 -6.564198950653576e-17 -4.558584781356676e-17 0.6203083156346987 0.7843580773819349
12654317333.333334 0.6270623056086725 0.7789691039345391 -6.602449461554879e-17 -4.500237652040494e-17 -6.602449461554879e-17 -4.500237652040494e-17 0.6270618122833157 0.7789695010562389
12654934666.666666 0.633768990830268 0.7735223760576192 -6.64018193541133e-17 -4.4415703719570306e-17 -6.64018193541133e-17 -4.4415703719570306e-17 0.6337685009782515 0.773522777407118
12655552000.0 0.6404283674314354 0.768017907466322 -6.677393699882899e-17 -4.382587535411642e-17 -6.677393699882899e-17 -4.382587535411642e-17 0.6404278810889839 0.7680183130132486
12656169333.333334 0.6470399383131382 0.7624561090499383 -6.714082123329878e-17 -4.3232937589519014e-17 -6.714082123329878e-17 -4.3232937589519014e-17 0.6470394555162112 0.7624565187636124
12656786666.666666 0.6536032099450246 0.7568373959771036 -6.75024461499939e-17 -4.26369368100437e-17 -6.75024461499939e-17 -4.26369368100437e-17 0.653602730729313 0.7568378098265355
12657404000.0 0.6601176924020871 0.7511621876649448 -6.785878625205656e-17 -4.2037919615143656e-17 -6.785878625205656e-17 -4.2037919615143656e-17 0.6601172168030122 0.7511626056188411
12658021333.333334 0.6665828994012182 0.7454309077477994 -6.820981645508064e-17 -4.143593281582969e-17 -6.820981645508064e-17 -4.143593281582969e-17 0.666582427453927 0.7454313297745622
12658638666.666666 0.672998348337528 0.7396439840455699 -6.855551208886163e-17 -4.083102343102135e-17 -6.855551208886163e-17 -4.083102343102135e-17 0.6729978800768915 0.7396444101133002
12659256000.0 0.679363560320517 0.7338018485316548 -6.889584889912154e-17 -4.0223238683871756e-17 -6.889584889912154e-17 -4.0223238683871756e-17 0.679363095781129 0.7338022786081566
12659873333.333334 0.6856780602095729 0.7279049373009356 -6.923080304917969e-17 -3.9612625998115887e-17 -6.923080304917969e-17 -3.9612625998115887e-17 0.6856775994257442 0.7279053713537154
12660490666.666666 0.6919413766495833 0.7219536905370878 -6.956035112161192e-17 -3.899923299436954e-17 -6.956035112161192e-17 -3.899923299436954e-17 0.6919409196553421 0.7219541285333587
12661108000.0 0.6981530421061626 0.7159485524796833 -6.988447011987747e-17 -3.838310748641258e-17 -6.988447011987747e-17 -3.838310748641258e-17 0.6981525889352497 0.7159489943863667
12661725333.333334 0.7043125929004055 0.709889971391165 -7.020313746988722e-17 -3.776429747750655e-17 -7.020313746988722e-17 -3.776429747750655e-17 0.7043121435862756 0.7098904171748959
12662342666.666666 0.7104195692436672 0.703778399523233 -7.051633102157664e-17 -3.7142851156632065e-17 -7.051633102157664e-17 -3.7142851156632065e-17 0.7104191238194811 0.7037788491503577
12662960000.0 0.7164735152717188 0.6976142930832399 -7.082402905041799e-17 -3.651881689476285e-17 -7.082402905041799e-17 -3.651881689476285e-17 0.7164730737703451 0.6976147465198222
12663577333.333334 0.7224739790789163 0.6913981121999959 -7.112621025890616e-17 -3.589224324111548e-17 -7.112621025890616e-17 -3.589224324111548e-17 0.722473541532928 0.6913985694118194
12664194666.666666 0.7284205127518786 0.6851303208894878 -7.14228537780209e-17 -3.526317891937158e-17 -7.14228537780209e-17 -3.526317891937158e-17 0.7284200791935488 0.6851307818420556
12664812000.0 0.734312672402857 0.6788113870202953 -7.171393916864473e-17 -3.4631672823905285e-17 -7.171393916864473e-17 -3.4631672823905285e-17 0.7343122428641591 0.6788118516788364
12665429333.333334 0.7401500182030115 0.6724417822785287 -7.199944642295006e-17 -3.39977740159981e-17 -7.199944642295006e-17 -3.39977740159981e-17 0.7401495927156161 0.6724422506079982
12666046666.666666 0.745932114415087 0.6660219821327824 -7.227935596575573e-17 -3.336153172003611e-17 -7.227935596575573e-17 -3.336153172003611e-17 0.745931693010358 0.666022454097865
12666664000.0 0.7516585294260902 0.6595524657984755 -7.255364865585582e-17 -3.2722995319681594e-17 -7.255364865585582e-17 -3.2722995319681594e-17 0.7516581121350853 0.6595529413635884
12667281333.333334 0.7573288357793605 0.6530337162022507 -7.282230578729226e-17 -3.2082214354085834e-17 -7.282230578729226e-17 -3.2082214354085834e-17 0.7573284226328254 0.6530341953315448
12667898666.666666 0.7629426102066035 0.6464662199457724 -7.308530909062456e-17 -3.1439238514023465e-17 -7.308530909062456e-17 -3.1439238514023465e-17 0.7629422012349745 0.646466702603138
12668516000.0 0.7684994336594384 0.6398504672694737 -7.334264073414724e-17 -3.0794117638055664e-17 -7.334264073414724e-17 -3.0794117638055664e-17 0.7684990288928338 0.6398509534185387
12669133333.333334 0.7739988913406163 0.6331869520160213 -7.359428332506697e-17 -3.0146901708702843e-17 -7.359428332506697e-17 -3.0146901708702843e-17 0.7739984908088392 0.6331874416201579
12669750666.666666 0.7794405727351138 0.626476171593302 -7.384021991066938e-17 -2.949764084854922e-17 -7.384021991066938e-17 -2.949764084854922e-17 0.7794401764676488 0.6264766646156286
12670368000.0 0.7848240716406503 0.6197186269374456 -7.408043397943151e-17 -2.8846385316388407e-17 -7.408043397943151e-17 -2.8846385316388407e-17 0.7848236796666604 0.6197191233408285
