! Parameters = {f0=12700.012000; bw=77.238000; Q=6100.000000; N=10; m_0_1=1.252948; m_1_1=0.029474; m_1_2=1.087760; m_2_2=0.028825; m_2_3=0.724723; m_2_8=-0.000289; m_2_9=0.036415; m_3_3=0.026888; m_3_4=0.613252; m_3_7=0.000311; m_3_8=-0.096777; m_3_9=-0.000289; m_4_4=0.023963; m_4_5=0.449587; m_4_6=0.003828; m_4_7=-0.117326; m_4_8=0.000311; m_5_5=0.024345; m_5_6=0.856942; m_5_7=0.003828; m_6_6=0.024344; m_6_7=0.449929; m_7_7=0.023977; m_7_8=0.613370; m_8_8=0.026886; m_8_9=0.725036; m_9_9=0.028820; m_9_10=1.088838; m_10_10=0.029464; m_10_11=1.253743}
!
! Created with skrf (http://scikit-rf.org).
# Hz S RI R 50.0 
!freq ReS11 ImS11 ReS21 ImS21 ReS12 ImS12 ReS22 ImS22
12607400000.0 0.07216375938934735 -0.9973927971619927 2.1836812834749284e-17 9.962267899333995e-17 2.1836812834749284e-17 9.962267899333995e-17 0.0721644178264181 -0.9973927495222742
12608017333.333334 0.062167582409881524 -0.99806572513895 2.2838146124477854e-17 9.937741190657252e-17 2.2838146124477854e-17 9.937741190657252e-17 0.062168241258932354 -0.9980656841002996
12608634666.666666 0.0521651652756405 -0.9986384708850312 2.3836753886641825e-17 9.9122087476004e-17 2.3836753886641825e-17 9.9122087476004e-17 0.05216582447050138 -0.998638436450921
12609252000.0 0.042157511993113475 -0.9991109769101617 2.4832535179997555e-17 9.885673572220339e-17 2.4832535179997555e-17 9.885673572220339e-17 0.04215817146758626 -0.9991109490834023
12609869333.333334 0.03214562709434585 -0.999483195785972 2.5825389391509953e-17 9.858138767808966e-17 2.5825389391509953e-17 9.858138767808966e-17 0.032146286782210674 -0.9994831745687085
12610486666.666666 0.02213051553624951 -0.9997550901505469 2.6815216246480924e-17 9.829607538537051e-17 2.6815216246480924e-17 9.829607538537051e-17 0.022131175371271673 -0.999755075544262
12611104000.0 0.012113182599416792 -0.9999266327121913 2.7801915818700916e-17 9.800083189086343e-17 2.7801915818700916e-17 9.800083189086343e-17 0.012113842515353275 -0.9999266247177041
12611721333.333334 0.002094633787611579 -0.9999978062521562 2.878538854044641e-17 9.769569124274692e-17 2.878538854044641e-17 9.769569124274692e-17 0.0020952937182177256 -0.9999978048696221
12612338666.666666 -0.007924125273443591 -0.9999686036263735 2.97655352125736e-17 9.738068848667295e-17 2.97655352125736e-17 9.738068848667295e-17 -0.00792346539440743 -0.9999686088552839
12612956000.0 -0.01794208893700864 -0.9998390277661726 3.0742257014472705e-17 9.705585966180585e-17 3.0742257014472705e-17 9.705585966180585e-17 -0.017941429175770445 -0.9998390396053554
12613573333.333334 -0.027958251636013325 -0.9996090916779848 3.171545551399988e-17 9.672124179675775e-17 3.171545551399988e-17 9.672124179675775e-17 -0.027957592058782788 -0.9996091101256047
12614190666.666666 -0.03797160798427668 -0.9992788184420385 3.26850326774009e-17 9.637687290541163e-17 3.26850326774009e-17 9.637687290541163e-17 -0.03797094865723851 -0.9992788434955971
12614808000.0 -0.047981152877281864 -0.9988482412100422 3.3650890879152016e-17 9.602279198265863e-17 3.3650890879152016e-17 9.602279198265863e-17 -0.04798049386658922 -0.998848272866378
12615425333.333334 -0.057985881593093466 -0.9983174032018572 3.461293291177158e-17 9.565903900003097e-17 3.461293291177158e-17 9.565903900003097e-17 -0.05798522296486127 -0.998317441457147
12616042666.666666 -0.06798478989320772 -0.9976863577011584 3.557106199558261e-17 9.528565490123827e-17 3.557106199558261e-17 9.528565490123827e-17 -0.06798413171350601 -0.9976864025509166
12616660000.0 -0.07797687412335438 -0.9969551680500875 3.652518178842768e-17 9.4902681597606e-17 3.652518178842768e-17 9.4902681597606e-17 -0.07797621645820173 -0.9969552194891665
12617277333.333334 -0.08796113131426833 -0.996123907642891 3.747519639533815e-17 9.451016196341616e-17 3.747519639533815e-17 9.451016196341616e-17 -0.08796047422962515 -0.9961239656654827
12617894666.666666 -0.09793655928222215 -0.9951926599185643 3.8421010378137776e-17 9.410813983115743e-17 3.8421010378137776e-17 9.410813983115743e-17 -0.09793590284398433 -0.9951927245182021
12618512000.0 -0.10790215672993363 -0.9941615183524541 3.9362528765038827e-17 9.369665998666268e-17 3.9362528765038827e-17 9.369665998666268e-17 -0.10790150100392545 -0.9941615895220092
12619129333.333334 -0.11785692334667545 -0.9930305864469047 4.029965706012005e-17 9.327576816417806e-17 4.029965706012005e-17 9.327576816417806e-17 -0.11785626839864352 -0.9930306641785918
12619746666.666666 -0.12779985990896645 -0.9917999777208489 4.1232301252816245e-17 9.284551104131044e-17 4.1232301252816245e-17 9.284551104131044e-17 -0.1277992058045727 -0.9918000620062235
12620364000.0 -0.13772996838086926 -0.9904698156984063 4.21603678273278e-17 9.240593623389162e-17 4.21603678273278e-17 9.240593623389162e-17 -0.13772931518568443 -0.9904699065283662
12620981333.333334 -0.14764625201391549 -0.9890402338965146 4.3083763771952873e-17 9.195709229076028e-17 4.3083763771952873e-17 9.195709229076028e-17 -0.14764559979341305 -0.9890403312613048
12621598666.666666 -0.15754771544743865 -0.9875113758114997 4.400239658841374e-17 9.149902868842678e-17 4.400239658841374e-17 9.149902868842678e-17 -0.15754706426698759 -0.9875114797007082
12622216000.0 -0.1674333648083433 -0.985883394904684 4.49161743010883e-17 9.103179582566463e-17 4.49161743010883e-17 9.103179582566463e-17 -0.1674327147332017 -0.985883505307244
12622833333.333334 -0.17730220781092232 -0.9841564545869731 4.582500546620247e-17 9.055544501800036e-17 4.582500546620247e-17 9.055544501800036e-17 -0.17730155890623114 -0.9841565714911672
12623450666.666666 -0.1871532538563476 -0.9823307282024775 4.672879918094956e-17 9.007002849212054e-17 4.672879918094956e-17 9.007002849212054e-17 -0.18715260618712384 -0.9823308515959354
12624068000.0 -0.19698551413224263 -0.9804063990110862 4.762746509257373e-17 8.957559938017547e-17 4.762746509257373e-17 8.957559938017547e-17 -0.1969848677633729 -0.9804065288807876
12624685333.333334 -0.20679800171196294 -0.9783836601700622 4.852091340738321e-17 8.907221171399779e-17 4.852091340738321e-17 8.907221171399779e-17 -0.20679735670819724 -0.9783837965023394
12625302666.666666 -0.21658973165338233 -0.9762627147147145 4.940905489967597e-17 8.855992041924786e-17 4.940905489967597e-17 8.855992041924786e-17 -0.21658908807932709 -0.9762628574952515
12625920000.0 -0.22635972109817515 -0.9740437755379303 5.0291800920665717e-17 8.803878130943348e-17 5.0291800920665717e-17 8.803878130943348e-17 -0.22635907901828686 -0.9740439247517646
12626537333.333334 -0.23610698937008215 -0.971727065368885 5.116906340727386e-17 8.750885107988416e-17 5.116906340727386e-17 8.750885107988416e-17 -0.2361063488486614 -0.9717272210004116
12627154666.666666 -0.24583055807351534 -0.969312816750657 5.204075489090506e-17 8.69701873016093e-17 5.204075489090506e-17 8.69701873016093e-17 -0.24582991917469987 -0.9693129787836273
12627772000.0 -0.2555294511919304 -0.9668012720168396 5.290678850617357e-17 8.64228484150608e-17 5.290678850617357e-17 8.64228484150608e-17 -0.2555288139796888 -0.9668014404343647
12628389333.333334 -0.26520269518540973 -0.9641926832673132 5.37670779994759e-17 8.586689372386294e-17 5.37670779994759e-17 8.586689372386294e-17 -0.26520205972353506 -0.9641928580518644
12629006666.666666 -0.27484931908879634 -0.9614873123428376 5.462153773763017e-17 8.530238338837528e-17 5.462153773763017e-17 8.530238338837528e-17 -0.27484868544089947 -0.9614874934762483
12629624000.0 -0.28446835460885195 -0.958685430798842 5.5470082716324046e-17 8.472937841924801e-17 5.5470082716324046e-17 8.472937841924801e-17 -0.2844677228383557 -0.9586856182623106
12630241333.333334 -0.294058836221617 -0.9557873198781294 5.631262856857559e-17 8.414794067084278e-17 5.631262856857559e-17 8.414794067084278e-17 -0.29405820639174973 -0.9557875136522217
12630858666.666666 -0.30361980126916194 -0.9527932704826907 5.714909157308228e-17 8.355813283459757e-17 5.714909157308228e-17 8.355813283459757e-17 -0.30361917344295125 -0.9527934705473415
12631476000.0 -0.3131502900565156 -0.9497035831444193 5.79793886625437e-17 8.296001843228022e-17 5.79793886625437e-17 8.296001843228022e-17 -0.313149664296781 -0.9497037894789313
12632093333.333334 -0.32264934594764055 -0.9465185679950439 5.880343743185706e-17 8.235366180919839e-17 5.880343743185706e-17 8.235366180919839e-17 -0.32264872231698855 -0.9465187805780948
12632710666.666666 -0.3321160154616225 -0.9432385447349593 5.962115614628764e-17 8.173912812729772e-17 5.962115614628764e-17 8.173912812729772e-17 -0.3321153940224399 -0.9432387635446012
12633328000.0 -0.3415493483685101 -0.9398638426010841 6.0432463749564e-17 8.111648335817986e-17 6.0432463749564e-17 8.111648335817986e-17 -0.34154872918295726 -0.9398640676147457
12633945333.333334 -0.3509483977844532 -0.9363948003338944 6.123727987186887e-17 8.048579427606477e-17 6.123727987186887e-17 8.048579427606477e-17 -0.3509477809144588 -0.9363950315283853
12634562666.666666 -0.3603122202668832 -0.93283176614338 6.203552483778928e-17 7.98471284506501e-17 6.203552483778928e-17 7.98471284506501e-17 -0.36031160577413696 -0.9328320034948908
12635180000.0 -0.3696398759091845 -0.9291750976740996 6.282711967417863e-17 7.920055423990217e-17 6.282711967417863e-17 7.920055423990217e-17 -0.3696392638551314 -0.9291753411582041
12635797333.333334 -0.3789304284350654 -0.9254251619692687 6.361198611794864e-17 7.854614078276585e-17 6.361198611794864e-17 7.854614078276585e-17 -0.37892981888090016 -0.9254254115609298
12636414666.666666 -0.388182945292433 -0.921582335433964 6.439004662377461e-17 7.788395799180673e-17 6.439004662377461e-17 7.788395799180673e-17 -0.3881823382990937 -0.9215825911075342
12637032000.0 -0.3973964977471588 -0.9176470037972776 6.51612243717465e-17 7.721407654575869e-17 6.51612243717465e-17 7.721407654575869e-17 -0.39739589337531944 -0.9176472655264988
12637649333.333334 -0.4065701609761932 -0.9136195620736357 6.592544327492096e-17 7.653656788201475e-17 6.592544327492096e-17 7.653656788201475e-17 -0.4065695592862593 -0.9136198298316459
12638266666.666666 -0.41570301416042416 -0.9095004145231416 6.668262798680653e-17 7.585150418903409e-17 6.668262798680653e-17 7.585150418903409e-17 -0.4157024152125267 -0.9095006882824778
12638884000.0 -0.42479414057710696 -0.9052899746110008 6.743270390876824e-17 7.515895839867725e-17 6.743270390876824e-17 7.515895839867725e-17 -0.42479354443109485 -0.9052902543435979
12639501333.333334 -0.43384262769190374 -0.9009886649659989 6.817559719735474e-17 7.445900417846621e-17 6.817559719735474e-17 7.445900417846621e-17 -0.43384203440733965 -0.900988950643197
12640118666.666666 -0.4428475672503299 -0.8965969173381608 6.891123477153142e-17 7.375171592378681e-17 6.891123477153142e-17 7.375171592378681e-17 -0.44284697688648333 -0.8965972089307055
12640736000.0 -0.4518080553693294 -0.892115172555211 6.963954431987784e-17 7.303716874997545e-17 6.963954431987784e-17 7.303716874997545e-17 -0.45180746798517024 -0.8921154700332562
12641353333.333334 -0.4607231926273893 -0.8875438804786243 7.036045430762178e-17 7.231543848441578e-17 7.036045430762178e-17 7.231543848441578e-17 -0.46072260828158357 -0.8875441838117373
12641970666.666666 -0.46959208415535814 -0.8828834999582088 7.107389398368342e-17 7.158660165847541e-17 7.107389398368342e-17 7.158660165847541e-17 -0.46959150290626056 -0.8828838091153717
12642588000.0 -0.478413839726013 -0.878134498786172 7.17797933875734e-17 7.085073549943618e-17 7.17797933875734e-17 7.085073549943618e-17 -0.47841326163166215 -0.8781348137357856
12643205333.333334 -0.48718757384344497 -0.8732973536501571 7.24780833562279e-17 7.01079179223366e-17 7.24780833562279e-17 7.01079179223366e-17 -0.4871869989615569 -0.8732976743600437
12643822666.666666 -0.49591240583203977 -0.8683725500853352 7.316869553077555e-17 6.935822752173047e-17 7.316869553077555e-17 6.935822752173047e-17 -0.49591183422000235 -0.868372876522742
12644440000.0 -0.504587459924753 -0.8633605824257411 7.38515623631817e-17 6.860174356341872e-17 7.38515623631817e-17 6.860174356341872e-17 -0.5045868916396211 -0.863360914557345
12645057333.333334 -0.5132118653510428 -0.8582619537546403 7.452661712284116e-17 6.783854597608072e-17 7.452661712284116e-17 6.783854597608072e-17 -0.5132113004495309 -0.8582622915465478
12645674666.666666 -0.521784756424274 -0.853077175854032 7.51937939030618e-17 6.706871534286674e-17 7.51937939030618e-17 6.706871534286674e-17 -0.5217841949627513 -0.8530775192717851
12646292000.0 -0.5303052726287825 -0.8478067691531735 7.585302762750473e-17 6.629233289287712e-17 7.585302762750473e-17 6.629233289287712e-17 -0.5303047146632683 -0.8478071181617547
12646909333.333334 -0.5387725587059359 -0.8424512626765353 7.650425405646167e-17 6.550948049266488e-17 7.650425405646167e-17 6.550948049266488e-17 -0.5387720042920926 -0.8424516172403678
12647526666.666666 -0.5471857647402231 -0.8370111939905506 7.714740979311624e-17 6.472024063759492e-17 7.714740979311624e-17 6.472024063759492e-17 -0.5471852139333512 -0.8370115540735038
12648144000.0 -0.5555440462445405 -0.8314871091496692 7.778243228968466e-17 6.392469644317895e-17 7.778243228968466e-17 6.392469644317895e-17 -0.5555434990995735 -0.8314874747150628
12648761333.333334 -0.5638465642448629 -0.8258795626416074 7.840925985346364e-17 6.312293163635484e-17 7.840925985346364e-17 6.312293163635484e-17 -0.5638460208163609 -0.8258799336522137
12649378666.666666 -0.572092485364459 -0.8201891173316951 7.902783165279665e-17 6.231503054669862e-17 7.902783165279665e-17 6.231503054669862e-17 -0.5720919457066042 -0.8201894937497438
12649996000.0 -0.5802809819076585 -0.8144163444062944 7.9638087722958e-17 6.15010780975667e-17 7.9638087722958e-17 6.15010780975667e-17 -0.580280446074249 -0.8144167261934763
12650613333.333334 -0.5884112319428644 -0.808561823315516 8.023996897193239e-17 6.06811597971991e-17 8.023996897193239e-17 6.06811597971991e-17 -0.5884106999873085 -0.8085622104329849
12651230666.666666 -0.5964824193849588 -0.8026261417151173 8.083341718610133e-17 5.985536172976874e-17 8.083341718610133e-17 5.985536172976874e-17 -0.5964818913602727 -0.8026265341234996
12651848000.0 -0.6044937340774568 -0.7966098954073584 8.141837503586185e-17 5.90237705463435e-17 8.141837503586185e-17 5.90237705463435e-17 -0.6044932100362547 -0.7966102930667502
12652465333.333334 -0.612444371873612 -0.7905136882813392 8.199478608111993e-17 5.818647345583725e-17 8.199478608111993e-17 5.818647345583725e-17 -0.6124438518681042 -0.7905140911513145
12653082666.666666 -0.6203335347171409 -0.7843381322523902 8.256259477670715e-17 5.734355821588738e-17 8.256259477670715e-17 5.734355821588738e-17 -0.6203330187991271 -0.7843385402920039
12653700000.0 -0.62816043072255 -0.7780838472004739 8.312174647771921e-17 5.649511312365569e-17 8.312174647771921e-17 5.649511312365569e-17 -0.6281599189434149 -0.7780842603682661
12654317333.333334 -0.6359242742543114 -0.7717514609082103 8.367218744472213e-17 5.564122700663477e-17 8.367218744472213e-17 5.564122700663477e-17 -0.6359237666650195 -0.7717518791622106
12654934666.666666 -0.6436242860059443 -0.7653416089976861 8.421386484890241e-17 5.478198921334686e-17 8.421386484890241e-17 5.478198921334686e-17 -0.6436237826570345 -0.7653420322954176
12655552000.0 -0.651259693078238 -0.7588549348666512 8.474672677710566e-17 5.391748960401669e-17 8.474672677710566e-17 5.391748960401669e-17 -0.6512591940198174 -0.7588553631651338
12656169333.333334 -0.6588297290566335 -0.7522920896240988 8.527072223676702e-17 5.304781854121785e-17 8.527072223676702e-17 5.304781854121785e-17 -0.6588292343383755 -0.7522925228798564
12656786666.666666 -0.666333634088376 -0.7456537320247301 8.578580116077378e-17 5.2173066880425226e-17 8.578580116077378e-17 5.2173066880425226e-17 -0.6663331437595129 -0.7456541701937929
12657404000.0 -0.6737706549586742 -0.7389405284029215 8.629191441220938e-17 5.129332596055735e-17 8.629191441220938e-17 5.129332596055735e-17 -0.6737701690679928 -0.73894097144083
12658021333.333334 -0.6811400451663487 -0.7321531526058008 8.67890137890109e-17 5.040868759445607e-17 8.67890137890109e-17 5.040868759445607e-17 -0.6811395637621862 -0.7321536004676127
12658638666.666666 -0.6884410649986601 -0.725292285925709 8.727705202851938e-17 4.951924405933871e-17 8.727705202851938e-17 4.951924405933871e-17 -0.688440588128897 -0.7252927385659999
12659256000.0 -0.6956729816057636 -0.7183586170316167 8.775598281195347e-17 4.8625088087169396e-17 8.775598281195347e-17 4.8625088087169396e-17 -0.6956725093178224 -0.718359074404489
12659873333.333334 -0.702835069074085 -0.711352841900175 8.822576076875811e-17 4.772631285503482e-17 8.822576076875811e-17 4.772631285503482e-17 -0.7028346014149233 -0.7113533039592601
12660490666.666666 -0.709926608499188 -0.7042756637458585 8.868634148086693e-17 4.682301197545885e-17 8.868634148086693e-17 4.682301197545885e-17 -0.7099261455152941 -0.7042761304443219
12661108000.0 -0.7169468880581349 -0.6971277929501771 8.913768148688455e-17 4.591527948663813e-17 8.913768148688455e-17 4.591527948663813e-17 -0.7169464297955228 -0.6971282642407228
12661725333.333334 -0.7238952030806565 -0.6899099469906532 8.957973828612531e-17 4.5003209842724197e-17 8.957973828612531e-17 4.5003209842724197e-17 -0.7238947495848618 -0.6899104228255287
12662342666.666666 -0.730770856120102 -0.6826228503685785 9.001247034259758e-17 4.408689790397813e-17 9.001247034259758e-17 4.408689790397813e-17 -0.7307704074361792 -0.6826233306995818
12662960000.0 -0.7375731570233516 -0.6752672345363986 9.043583708886184e-17 4.316643892694117e-17 9.043583708886184e-17 4.316643892694117e-17 -0.737572713195866 -0.6752677193148791
12663577333.333334 -0.7443014230001074 -0.6678438378242674 9.084979892979597e-17 4.2241928554550474e-17 9.084979892979597e-17 4.2241928554550474e-17 -0.7443009840731328 -0.6678443270011329
12664194666.666666 -0.750954978691428 -0.6603534053659349 9.125431724625974e-17 4.1313462806222225e-17 9.125431724625974e-17 4.1313462806222225e-17 -0.7509545447085433 -0.6603538988916583
12664812000.0 -0.7575331562375245 -0.6527966890239596 9.164935439865745e-17 4.038113806789989e-17 9.164935439865745e-17 4.038113806789989e-17 -0.7575327272418064 -0.6527971868485805
12665429333.333334 -0.7640352953448106 -0.6451744473142116 9.203487373040071e-17 3.9445051082066486e-17 9.203487373040071e-17 3.9445051082066486e-17 -0.764034871378832 -0.6451749493873433
12666046666.666666 -0.7704607433520906 -0.6374874453298459 9.241083957126289e-17 3.850529893774012e-17 9.241083957126289e-17 3.850529893774012e-17 -0.7704603244579159 -0.6374879516006812
12666664000.0 -0.7768088552962742 -0.6297364546642681 9.277721724064843e-17 3.7561979060395653e-17 9.277721724064843e-17 3.7561979060395653e-17 -0.7768084415154535 -0.6297369650815823
12667281333.333334 -0.7830789939768568 -0.6219222533339862 9.313397305073397e-17 3.661518920192234e-17 9.313397305073397e-17 3.661518920192234e-17 -0.7830785853504239 -0.6219227678461438
12667898666.666666 -0.7892705300200659 -0.6140456257003012 9.348107430953141e-17 3.5665027430488206e-17 9.348107430953141e-17 3.5665027430488206e-17 -0.7892701265885321 -0.6140461442552603
12668516000.0 -0.7953828419420266 -0.6061073623905702 9.381848932383774e-17 3.471159212040272e-17 9.381848932383774e-17 3.471159212040272e-17 -0.7953824437453799 -0.6061078849358893
12669133333.333334 -0.8014153162109946 -0.5981082602190518 9.41461874020736e-17 3.375498194197625e-17 9.41461874020736e-17 3.375498194197625e-17 -0.8014149232886913 -0.5981087867018929
12669750666.666666 -0.807367347309108 -0.5900491221066978 9.446413885703621e-17 3.279529585130241e-17 9.446413885703621e-17 3.279529585130241e-17 -0.8073669597000722 -0.5900496524738331
12670368000.0 -0.813238337793099 -0.5819307570006478 9.47723150085353e-17 3.183263308005256e-17 9.47723150085353e-17 3.183263308005256e-17 -0.8132379555357189 -0.581931291198466
12670985333.333334 -0.8190276983542166 -0.5737539797931033 9.507068818592721e-17 3.086709312524389e-17 9.507068818592721e-17 3.086709312524389e-17 -0.8190273214863378 -0.5737545177676121
