! Parameters = {f0=12700.012000; bw=77.238000; Q=6100.000000; N=10; m_0_1=1.271767; m_1_1=0.311756; m_1_2=1.106579; m_2_2=0.311107; m_2_3=0.743542; m_2_8=0.000652; m_2_9=0.037356; m_3_3=0.309170; m_3_4=0.632071; m_3_7=0.001252; m_3_8=-0.095836; m_3_9=0.000652; m_4_4=0.306245; m_4_5=0.468406; m_4_6=0.004769; m_4_7=-0.116385; m_4_8=0.001252; m_5_5=0.306627; m_5_6=0.875761; m_5_7=0.004769; m_6_6=0.306626; m_6_7=0.468748; m_7_7=0.306259; m_7_8=0.632189; m_8_8=0.309168; m_8_9=0.743855; m_9_9=0.311102; m_9_10=1.107657; m_10_10=0.311746; m_10_11=1.272562}
!
! Created with skrf (http://scikit-rf.org).
# Hz S RI R 50.0 
!freq ReS11 ImS11 ReS21 ImS21 ReS12 ImS12 ReS22 ImS22
12607400000.0 0.954939279108686 -0.296801235198249 -9.2712604168136e-17 6.198904090188605e-17 -9.2712604168136e-17 6.198904090188605e-17 0.9549394779769125 -0.29680059535150083
12608017333.333334 0.9517472148929443 -0.3068831030593692 -9.202827704529009e-17 6.296184006615188e-17 -9.202827704529009e-17 6.296184006615188e-17 0.9517474205063496 -0.30688246538264957
12608634666.666666 0.9484487136143088 -0.3169306511576081 -9.133375214099203e-17 6.392709803455291e-17 -9.133375214099203e-17 6.392709803455291e-17 0.9484489259492402 -0.3169300157220147
12609252000.0 0.9450441441552337 -0.3269427558422486 -9.062911241941716e-17 6.488470800647012e-17 -9.062911241941716e-17 6.488470800647012e-17 0.9450443631872871 -0.32694212271862116
12609869333.333334 0.9415338872601473 -0.3369182974262759 -8.991444196215019e-17 6.583456409257889e-17 -8.991444196215019e-17 6.583456409257889e-17 0.9415341129641729 -0.3369176666851888
12610486666.666666 0.9379183354928815 -0.34685616031156863 -8.918982595820328e-17 6.677656132650991e-17 -8.918982595820328e-17 6.677656132650991e-17 0.9379185678429873 -0.34685553202332353
12611104000.0 0.9341978931926834 -0.35675523311393065 -8.845535069387134e-17 6.771059567645744e-17 -8.845535069387134e-17 6.771059567645744e-17 0.9341981321622342 -0.3567546073485471
12611721333.333334 0.9303729764291304 -0.36661440878697615 -8.771110354253235e-17 6.863656405658724e-17 -8.771110354253235e-17 6.863656405658724e-17 0.9303732219907555 -0.36661378561418534
12612338666.666666 0.9264440129554694 -0.3764325847463101 -8.695717295426567e-17 6.95543643384166e-17 -8.695717295426567e-17 6.95543643384166e-17 0.9264442650810635 -0.3764319642355466
12612956000.0 0.9224114421608365 -0.38620866299267304 -8.619364844537028e-17 7.0463895362055e-17 -8.619364844537028e-17 7.0463895362055e-17 0.9224117008215615 -0.3862080452130664
12613573333.333334 0.9182757150211821 -0.39594155023457617 -8.54206205878025e-17 7.136505694728667e-17 -8.54206205878025e-17 7.136505694728667e-17 0.9182759801874728 -0.39594093525494395
12614190666.666666 0.9140372940486989 -0.40563015801091024 -8.46381809984417e-17 7.225774990460587e-17 -8.46381809984417e-17 7.225774990460587e-17 0.9140375656902655 -0.40562954589975014
12614808000.0 0.9096966532402153 -0.4152734028123816 -8.384642232827123e-17 7.314187604609855e-17 -8.384642232827123e-17 7.314187604609855e-17 0.9096969313260471 -0.4152727936378642
12615425333.333334 0.9052542780241347 -0.42487020620281835 -8.30454382514531e-17 7.401733819619897e-17 -8.30454382514531e-17 7.401733819619897e-17 0.9052545625225038 -0.4248696000327789
12616042666.666666 0.9007106652061704 -0.4344194949397214 -8.223532345427124e-17 7.48840402023486e-17 -8.223532345427124e-17 7.48840402023486e-17 0.9007109560846329 -0.4344188918416521
12616660000.0 0.8960663229137331 -0.44392020109439073 -8.141617362397702e-17 7.574188694551998e-17 -8.141617362397702e-17 7.574188694551998e-17 0.8960666201391385 -0.44391960113543505
12617277333.333334 0.8913217705391739 -0.4533712621712301 -8.058808543751052e-17 7.6590784350636e-17 -8.058808543751052e-17 7.6590784350636e-17 0.8913220740776626 -0.4533706654181728
12617894666.666666 0.8864775386817091 -0.4627716212265427 -7.975115655014813e-17 7.743063939682888e-17 -7.975115655014813e-17 7.743063939682888e-17 0.8864778484987179 -0.462771027745803
12618512000.0 0.8815341690879624 -0.47212022698695966 -7.890548558398845e-17 7.826136012763264e-17 -7.890548558398845e-17 7.826136012763264e-17 0.8815344851482327 -0.47211963684458597
12619129333.333334 0.8764922145915162 -0.48141603396675736 -7.805117211638917e-17 7.908285566099466e-17 -7.805117211638917e-17 7.908285566099466e-17 0.8764925368590918 -0.48141544722841706
12619746666.666666 0.8713522390510288 -0.49065800258487663 -7.718831666826503e-17 7.989503619919377e-17 -7.718831666826503e-17 7.989503619919377e-17 0.8713525674892643 -0.49065741931585044
12620364000.0 0.8661148172871239 -0.4998450992812827 -7.63170206922839e-17 8.069781303863181e-17 -7.63170206922839e-17 8.069781303863181e-17 0.8661151518586864 -0.4998445195464565
12620981333.333334 0.8607805350182558 -0.5089762966322772 -7.54373865609959e-17 8.149109857946447e-17 -7.54373865609959e-17 8.149109857946447e-17 0.8607808756851315 -0.5089757204961363
12621598666.666666 0.8553499887950154 -0.518050573465748 -7.454951755480477e-17 8.227480633515657e-17 -7.454951755480477e-17 8.227480633515657e-17 0.8553503355185115 -0.5180500009923681
12622216000.0 0.8498237859335666 -0.5270669149750953 -7.365351784989847e-17 8.304885094185327e-17 -7.365351784989847e-17 8.304885094185327e-17 0.8498241386743172 -0.5270663462281365
12622833333.333334 0.8442025444476428 -0.5360243128328694 -7.274949250604619e-17 8.381314816765471e-17 -7.274949250604619e-17 8.381314816765471e-17 0.844202903165614 -0.5360237478755694
12623450666.666666 0.8384868929795257 -0.5449217653033916 -7.183754745431306e-17 8.456761492174539e-17 -7.183754745431306e-17 8.456761492174539e-17 0.8384872576340182 -0.544921204198558
12624068000.0 0.8326774707296027 -0.5537582773549969 -7.091778948468118e-17 8.531216926339047e-17 -7.091778948468118e-17 8.531216926339047e-17 0.8326778412792575 -0.553757720165
12624685333.333334 0.8267749273849584 -0.562532860771191 -6.999032623356272e-17 8.604673041080927e-17 -6.999032623356272e-17 8.604673041080927e-17 0.8267753037877604 -0.5625323075579567
12625302666.666666 0.820779923046828 -0.5712445342609995 -6.905526617126405e-17 8.6771218749881e-17 -6.905526617126405e-17 8.6771218749881e-17 0.820780305260113 -0.571243985086004
12625920000.0 0.8146931281564931 -0.5798923235691368 -6.811271858928298e-17 8.748555584277412e-17 -6.811271858928298e-17 8.748555584277412e-17 0.8146935161369502 -0.5798917784933977
12626537333.333334 0.8085152234206197 -0.5884752615844856 -6.716279358761458e-17 8.818966443636341e-17 -6.716279358761458e-17 8.818966443636341e-17 0.808515617124299 -0.5884747206685577
12627154666.666666 0.8022468997349799 -0.5969923884484936 -6.62056020618983e-17 8.888346847056544e-17 -6.62056020618983e-17 8.888346847056544e-17 0.802247299117294 -0.596991851752459
12627772000.0 0.7958888581070936 -0.6054427516626253 -6.524125569047841e-17 8.956689308653374e-17 -6.524125569047841e-17 8.956689308653374e-17 0.7958892631228255 -0.605442219246089
12628389333.333334 0.7894418095780894 -0.6138254061945424 -6.426986692145505e-17 9.023986463466096e-17 -6.426986692145505e-17 9.023986463466096e-17 0.7894422201813969 -0.6138248781166258
12629006666.666666 0.7829064751428627 -0.622139414584224 -6.329154895955553e-17 9.090231068251065e-17 -6.329154895955553e-17 9.090231068251065e-17 0.7829068912872822 -0.6221388909035561
12629624000.0 0.7762835856697352 -0.6303838470484165 -6.230641575299171e-17 9.155416002255981e-17 -6.230641575299171e-17 9.155416002255981e-17 0.7762840073081883 -0.6303833278231297
12630241333.333334 0.7695738818185462 -0.6385577815848433 -6.131458198021683e-17 9.219534267981374e-17 -6.131458198021683e-17 9.219534267981374e-17 0.7695743089033452 -0.6385572668725659
12630858666.666666 0.7627781139579667 -0.6466603040751376 -6.031616303661086e-17 9.282578991927483e-17 -6.031616303661086e-17 9.282578991927483e-17 0.7627785464408192 -0.6466597939329879
12631476000.0 0.7558970420813096 -0.6546905083873991 -5.931127502105937e-17 9.344543425328564e-17 -5.931127502105937e-17 9.344543425328564e-17 0.7558974799133233 -0.6546900028719773
12632093333.333334 0.7489314357218807 -0.6626474964771127 -5.830003472250623e-17 9.405420944869743e-17 -5.830003472250623e-17 9.405420944869743e-17 0.7489318788535728 -0.6626469956444991
12632710666.666666 0.741882073866745 -0.6705303784878056 -5.72825596064088e-17 9.46520505339081e-17 -5.72825596064088e-17 9.46520505339081e-17 0.7418825222480422 -0.6705298823935487
12633328000.0 0.7347497448695457 -0.6783382728506187 -5.625896780109738e-17 9.523889380576873e-17 -5.625896780109738e-17 9.523889380576873e-17 0.7347501984497933 -0.6783377815497326
12633945333.333334 0.7275352463624344 -0.6860703063827905 -5.5229378084118776e-17 9.581467683631109e-17 -5.5229378084118776e-17 9.581467683631109e-17 0.727535705090401 -0.6860698199297476
12634562666.666666 0.7202393851668893 -0.6937256143852872 -5.4193909868457053e-17 9.637933847935931e-17 -5.4193909868457053e-17 9.637933847935931e-17 0.7202398489907744 -0.6937251328340135
12635180000.0 0.7128629772034514 -0.7013033407395508 -5.31526831887311e-17 9.693281887696836e-17 -5.31526831887311e-17 9.693281887696836e-17 0.7128634460708883 -0.7013028641434179
12635797333.333334 0.7054068474003932 -0.7088026380033177 -5.210581868729673e-17 9.747505946573021e-17 -5.210581868729673e-17 9.747505946573021e-17 0.7054073212584561 -0.7088021664151377
12636414666.666666 0.6978718296016635 -0.7162226675051898 -5.105343760029931e-17 9.800600298292372e-17 -5.105343760029931e-17 9.800600298292372e-17 0.697872308396875 -0.7162222009772109
12637032000.0 0.69025876647344 -0.7235625994386312 -4.99956617436609e-17 9.85255934725145e-17 -4.99956617436609e-17 9.85255934725145e-17 0.6902592501517743 -0.7235621380225291
12637649333.333334 0.6825685094099857 -0.7308216129546615 -4.8932613499007545e-17 9.903377629100494e-17 -4.8932613499007545e-17 9.903377629100494e-17 0.6825689979168782 -0.730821156701537
12638266666.666666 0.6748019184384418 -0.7379988962536617 -4.786441579954046e-17 9.953049811313118e-17 -4.786441579954046e-17 9.953049811313118e-17 0.6748024117187907 -0.7379984452140311
12638884000.0 0.6669598621225573 -0.7450936466762301 -4.679119211583575e-17 1.0001570693741453e-16 -4.679119211583575e-17 1.0001570693741453e-16 0.6669603601207352 -0.7450932009000241
12639501333.333334 0.6590432174656656 -0.7521050707928573 -4.571306644161413e-17 1.0048935209154815e-16 -4.571306644161413e-17 1.0048935209154815e-16 0.6590437201255199 -0.7521046303294102
12640118666.666666 0.6510528698126656 -0.7590323844925959 -4.463016327945157e-17 1.0095138423763433e-16 -4.463016327945157e-17 1.0095138423763433e-16 0.6510533770775313 -0.7590319493906469
12640736000.0 0.6429897127506102 -0.7658748130711135 -4.354260762637391e-17 1.0140175537729472e-16 -4.354260762637391e-17 1.0140175537729472e-16 0.6429902245633103 -0.7658743833787941
12641353333.333334 0.6348546480094106 -0.7726315913167617 -4.2450524959542346e-17 1.0184041885656554e-16 -4.2450524959542346e-17 1.0184041885656554e-16 0.6348551643122665 -0.7726311670815962
12641970666.666666 0.6266485853604605 -0.7793019635966268 -4.135404122173123e-17 1.0226732937070644e-16 -4.135404122173123e-17 1.0226732937070644e-16 0.6266491060952963 -0.7793015448655226
12642588000.0 0.6183724425151272 -0.7858851839408226 -4.025328280686533e-17 1.0268244296880814e-16 -4.025328280686533e-17 1.0268244296880814e-16 0.6183729676232775 -0.7858847707600686
12643205333.333334 0.6100271450221234 -0.7923805161259211 -3.9148376545462553e-17 1.0308571705826557e-16 -3.9148376545462553e-17 1.0308571705826557e-16 0.6100276744444398 -0.7923801085411806
12643822666.666666 0.6016136261638219 -0.7987872337574269 -3.803944969005276e-17 1.0347711040908607e-16 -3.803944969005276e-17 1.0347711040908607e-16 0.6016141598406781 -0.798786831813732
12644440000.0 0.5931328268521258 -0.8051046203508148 -3.692662990055449e-17 1.0385658315804139e-16 -3.692662990055449e-17 1.0385658315804139e-16 0.5931333647234275 -0.8051042240925641
12645057333.333334 0.5845856955231381 -0.8113319694117523 -3.5810045229593733e-17 1.0422409681266984e-16 -3.5810045229593733e-17 1.0422409681266984e-16 0.5845862375283261 -0.811331578882703
12645674666.666666 0.5759731880311363 -0.8174685845150717 -3.468982410781291e-17 1.0457961425511004e-16 -3.468982410781291e-17 1.0457961425511004e-16 0.5759737341091955 -0.8174681997583358
12646292000.0 0.5672962675414214 -0.8235137793828323 -3.3566095329092225e-17 1.0492309974579325e-16 -3.3566095329092225e-17 1.0492309974579325e-16 0.5672968176308877 -0.8235134004408737
12646909333.333334 0.5585559044230473 -0.8294668779607636 -3.243898803581335e-17 1.0525451892695438e-16 -3.243898803581335e-17 1.0525451892695438e-16 0.558556458462014 -0.8294665048753908
12647526666.666666 0.5497530761399966 -0.8353272144940779 -3.130863170400218e-17 1.0557383882601001e-16 -3.130863170400218e-17 1.0557383882601001e-16 0.5497536340661212 -0.8353268473064408
12648144000.0 0.5408887671418204 -0.8410941336019564 -3.017515612850243e-17 1.0588102785875903e-16 -3.017515612850243e-17 1.0588102785875903e-16 0.5408893288923315 -0.8410937723525407
12648761333.333334 0.5319639687537787 -0.8467669903506819 -2.903869140810099e-17 1.0617605583242997e-16 -2.903869140810099e-17 1.0617605583242997e-16 0.5319645342654838 -0.846766635079306
12649378666.666666 0.5229796790658862 -0.8523451503258331 -2.7899367930612474e-17 1.0645889394857256e-16 -2.7899367930612474e-17 1.0645889394857256e-16 0.5229802482751779 -0.8523448010716421
12649996000.0 0.5139369028211932 -0.8578279897032883 -2.6757316357948563e-17 1.0672951480578539e-16 -2.6757316357948563e-17 1.0672951480578539e-16 0.5139374756640572 -0.8578276465047515
12650613333.333334 0.5048366513035191 -0.863214895318931 -2.5612667611156226e-17 1.0698789240228623e-16 -2.5612667611156226e-17 1.0698789240228623e-16 0.5048372277155414 -0.8632145582138374
12651230666.666666 0.4956799422243601 -0.8685052647372271 -2.4465552855453587e-17 1.0723400213831717e-16 -2.4465552855453587e-17 1.0723400213831717e-16 0.4956805221407331 -0.8685049337626786
12651848000.0 0.4864677996089712 -0.8736985063186442 -2.331610348518272e-17 1.0746782081840263e-16 -2.331610348518272e-17 1.0746782081840263e-16 0.4864683829645025 -0.8736981815110558
12652465333.333334 0.4772012536819748 -0.8787940392857571 -2.216445110883108e-17 1.0768932665342818e-16 -2.216445110883108e-17 1.0768932665342818e-16 0.47720184041109304 -0.8787937206808488
12653082666.666666 0.46788134075219395 -0.8837912937881623 -2.101072753397926e-17 1.0789849926257021e-16 -2.101072753397926e-17 1.0789849926257021e-16 0.4678819307889576 -0.8837909814209587
12653700000.0 0.45850910309641096 -0.8886897109664037 -1.9855064752201347e-17 1.0809531967507068e-16 -1.9855064752201347e-17 1.0809531967507068e-16 0.45850969637451433 -0.8886894048712264
12654317333.333334 0.44908558884330463 -0.8934887430141951 -1.869759492405162e-17 1.0827977033183186e-16 -1.869759492405162e-17 1.0827977033183186e-16 0.4490861852960872 -0.8934884432246637
12654934666.666666 0.4396118518559123 -0.8981878532398663 -1.75384503639364e-17 1.0845183508686831e-16 -1.75384503639364e-17 1.0845183508686831e-16 0.4396124514163636 -0.8981875597888892
12655552000.0 0.4300889516136906 -0.9027865161264094 -1.6377763525005086e-17 1.0861149920859225e-16 -1.6377763525005086e-17 1.0861149920859225e-16 0.4300895542144603 -0.902786229046185
12656169333.333334 0.42051795309441625 -0.907284217390067 -1.521566698408685e-17 1.0875874938092869e-16 -1.521566698408685e-17 1.0875874938092869e-16 0.4205185586678199 -0.9072839367120767
12656786666.666666 0.41089992665472613 -0.9116804540380168 -1.405229342652963e-17 1.0889357370428349e-16 -1.405229342652963e-17 1.0889357370428349e-16 0.41090053513275404 -0.9116801797930243
12657404000.0 0.40123594791059775 -0.915974734424541 -1.2887775631097645e-17 1.0901596169634016e-16 -1.2887775631097645e-17 1.0901596169634016e-16 0.40123655922492146 -0.9159744666425864
12658021333.333334 0.39152709761690146 -0.9201665783060754 -1.1722246454823845e-17 1.0912590429270064e-16 -1.1722246454823845e-17 1.0912590429270064e-16 0.3915277116988821 -0.9201663170164733
12658638666.666666 0.38177446154682326 -0.9242555168947912 -1.0555838817912141e-17 1.0922339384735857e-16 -1.0555838817912141e-17 1.0922339384735857e-16 0.3817750783275202 -0.9242552621261295
12659256000.0 0.37197913037007535 -0.9282410929111828 -9.388685688563909e-18 1.0930842413301944e-16 -9.388685688563909e-18 1.0930842413301944e-16 0.37197974978025167 -0.9282408446913147
12659873333.333334 0.36214219953118176 -0.9321228606350894 -8.22092006786386e-18 1.0938099034125288e-16 -8.22092006786386e-18 1.0938099034125288e-16 0.3621428215013138 -0.9321226189911346
12660490666.666666 0.35226476912700067 -0.9359003859555387 -7.05267497466819e-18 1.094410890824848e-16 -7.05267497466819e-18 1.094410890824848e-16 0.352265393587285 -0.9359001509138778
12661108000.0 0.3423479437833242 -0.939573246419434 -5.884083430434294e-18 1.0948871838583166e-16 -5.884083430434294e-18 1.0948871838583166e-16 0.34234857066368635 -0.9395730180057085
12661725333.333334 0.3323928325318769 -0.9431410312785997 -4.7152784441495365e-18 1.0952387769876891e-16 -4.7152784441495365e-18 1.0952387769876891e-16 0.33239346176197787 -0.9431408095177054
12662342666.666666 0.32240054868591583 -0.9466033415358543 -3.546392997170779e-18 1.0954656788664267e-16 -3.546392997170779e-18 1.0954656788664267e-16 0.3224011801951611 -0.9466031264519422
12662960000.0 0.3123722097157776 -0.9499597899896112 -2.3775600281538905e-18 1.0955679123201655e-16 -2.3775600281538905e-18 1.0955679123201655e-16 0.31237284343332494 -0.9499595816060828
12663577333.333334 0.3023089371240432 -0.9532100012771348 -1.2089124179442206e-18 1.0955455143386084e-16 -1.2089124179442206e-18 1.0955455143386084e-16 0.3023095729788096 -0.9532097996166394
12664194666.666666 0.292211856320008 -0.9563536119165541 -4.0582974501283683e-20 1.0953985360657905e-16 -4.0582974501283683e-20 1.0953985360657905e-16 0.292212494240679 -0.9563534170009879
12664812000.0 0.28208209649387855 -0.9593902703474968 1.1272955821810499e-18 1.095127042788751e-16 1.1272955821810499e-18 1.095127042788751e-16 0.2820827364089153 -0.9593900821979987
12665429333.333334 0.2719207904903544 -0.9623196369704429 2.2945906351104734e-18 1.0947311139245912e-16 2.2945906351104734e-18 1.0947311139245912e-16 0.27192143232800237 -0.9623194556073944
12666046666.666666 0.2617290746822394 -0.9651413841846196 3.4611696853239566e-18 1.0942108430059508e-16 3.4611696853239566e-18 1.0942108430059508e-16 0.2617297183705356 -0.96514120962764
12666664000.0 0.25150808884294634 -0.9678551964247514 4.626900366945923e-18 1.0935663376648533e-16 4.626900366945923e-18 1.0935663376648533e-16 0.25150873430972825 -0.967855028692698
12667281333.333334 0.24125897601947136 -0.9704607701962308 5.79165046211971e-18 1.0927977196149967e-16 5.79165046211971e-18 1.0927977196149967e-16 0.24125962319238442 -0.9704606093071957
12667898666.666666 0.23098288240417864 -0.9729578141091639 6.955287916019016e-18 1.0919051246324199e-16 6.955287916019016e-18 1.0919051246324199e-16 0.23098353121068463 -0.9729576600804718
12668516000.0 0.2206809572067823 -0.9753460489109099 8.117680851803798e-18 1.0908887025345724e-16 8.117680851803798e-18 1.0908887025345724e-16 0.22068160757416738 -0.9753459017591173
12669133333.333334 0.21035435252596513 -0.9776252075172809 9.278697585494297e-18 1.0897486171578457e-16 9.278697585494297e-18 1.0897486171578457e-16 0.21035500438134794 -0.9776250672581731
12669750666.666666 0.20000422322031483 -0.979795035042465 1.0438206640907368e-17 1.0884850463334583e-16 1.0438206640907368e-17 1.0884850463334583e-16 0.2000048764906546 -0.9797949016910542
12670368000.0 0.1896317267791703 -0.9818552888275215 1.1596076764504318e-17 1.0870981818617932e-16 1.1596076764504318e-17 1.0870981818617932e-16 0.18963238139127572 -0.981855162398049
