! Parameters = {f0=12700.012000; bw=77.238000; Q=6100.000000; N=10; m_0_1=1.179074; m_1_1=-1.078635; m_1_2=1.013886; m_2_2=-1.079284; m_2_3=0.650849; m_2_8=-0.003983; m_2_9=0.032721; m_3_3=-1.081221; m_3_4=0.539378; m_3_7=-0.003383; m_3_8=-0.100471; m_3_9=-0.003983; m_4_4=-1.084146; m_4_5=0.375713; m_4_6=0.000134; m_4_7=-0.121020; m_4_8=-0.003383; m_5_5=-1.083764; m_5_6=0.783068; m_5_7=0.000134; m_6_6=-1.083765; m_6_7=0.376055; m_7_7=-1.084132; m_7_8=0.539496; m_8_8=-1.081223; m_8_9=0.651162; m_9_9=-1.079289; m_9_10=1.014964; m_10_10=-1.078645; m_10_11=1.179869}
!
! Created with skrf (http://scikit-rf.org).
# Hz S RI R 50.0 
!freq ReS11 ImS11 ReS21 ImS21 ReS12 ImS12 ReS22 ImS22
12607400000.0 0.6592805466663174 -0.7518970413475565 -2.953633777610188e-17 6.408891779359284e-17 -2.953633777610188e-17 6.408891779359284e-17 0.6592810138661628 -0.7518966316957747
12608017333.333334 0.6533693052858126 -0.7570393324723508 -2.90219135050188e-17 6.430833942031669e-17 -2.90219135050188e-17 6.430833942031669e-17 0.6533697756578452 -0.7570389265134683
12608634666.666666 0.6474179562228078 -0.7621351520302221 -2.850586816046649e-17 6.452363653569184e-17 -2.850586816046649e-17 6.452363653569184e-17 0.6474184297378442 -0.7621347497887963
12609252000.0 0.6414268648064501 -0.7671841872095747 -2.798823477523524e-17 6.47347972389263e-17 -2.798823477523524e-17 6.47347972389263e-17 0.6414273414351168 -0.7671837887099325
12609869333.333334 0.6353963988054839 -0.7721861280707332 -2.7469046468841055e-17 6.494180989349884e-17 -2.7469046468841055e-17 6.494180989349884e-17 0.6353968785182187 -0.7721857333369685
12610486666.666666 0.6293269284057869 -0.7771406675648781 -2.694833644542114e-17 6.51446631277828e-17 -2.694833644542114e-17 6.51446631277828e-17 0.6293274111728423 -0.777140276620853
12611104000.0 0.6232188261874058 -0.782047501553097 -2.642613799160435e-17 6.53433458356608e-17 -2.642613799160435e-17 6.53433458356608e-17 0.6232193119788481 -0.7820471144224365
12611721333.333334 0.617072467101987 -0.7869063288247937 -2.590248447440534e-17 6.553784717711177e-17 -2.590248447440534e-17 6.553784717711177e-17 0.617072955887702 -0.786905945530889
12612338666.666666 0.6108882284495485 -0.7917168511163691 -2.537740933908839e-17 6.572815657879129e-17 -2.537740933908839e-17 6.572815657879129e-17 0.610888720199239 -0.7917164716823715
12612956000.0 0.6046664898553105 -0.7964787731295205 -2.4850946107036382e-17 6.591426373459118e-17 -2.4850946107036382e-17 6.591426373459118e-17 0.6046669845385012 -0.7964783975783425
12613573333.333334 0.5984076332465951 -0.8011918025492126 -2.4323128373634657e-17 6.609615860617501e-17 -2.4323128373634657e-17 6.609615860617501e-17 0.5984081308326339 -0.801191430903527
12614190666.666666 0.5921120428291373 -0.8058556500618175 -2.379398980611543e-17 6.627383142351027e-17 -2.379398980611543e-17 6.627383142351027e-17 0.592112543287197 -0.8058552823440543
12614808000.0 0.5857801050637 -0.8104700293727143 -2.326356414142668e-17 6.644727268537265e-17 -2.326356414142668e-17 6.644727268537265e-17 0.58578060836278 -0.8104696656050613
12615425333.333334 0.5794122086421946 -0.8150346572239872 -2.2731885184086237e-17 6.661647315983778e-17 -2.2731885184086237e-17 6.661647315983778e-17 0.5794127147511222 -0.8150342974283858
12616042666.666666 0.5730087444639086 -0.819549253411742 -2.219898680403431e-17 6.678142388475485e-17 -2.219898680403431e-17 6.678142388475485e-17 0.5730092533513427 -0.8195488976098892
12616660000.0 0.5665701056114893 -0.8240135408033249 -2.166490293448282e-17 6.694211616820331e-17 -2.166490293448282e-17 6.694211616820331e-17 0.5665706172459214 -0.824013189016671
12617277333.333334 0.5600966873267921 -0.8284272453543539 -2.1129667569759696e-17 6.709854158893325e-17 -2.1129667569759696e-17 6.709854158893325e-17 0.5600972016765464 -0.8284268976040977
12617894666.666666 0.5535888869867303 -0.8327900961254534 -2.059331476316153e-17 6.725069199678455e-17 -2.059331476316153e-17 6.725069199678455e-17 0.5535894040199697 -0.8327897524325467
12618512000.0 0.5470471040786287 -0.8371018252990701 -2.0055878624772952e-17 6.739855951309873e-17 -2.0055878624772952e-17 6.739855951309873e-17 0.5470476237633536 -0.837101485684213
12619129333.333334 0.5404717401760274 -0.8413621681956849 -1.9517393319330977e-17 6.754213653109876e-17 -1.9517393319330977e-17 6.754213653109876e-17 0.5404722624800788 -0.8413618326793254
12619746666.666666 0.5338631989137976 -0.8455708632902248 -1.8977893064040955e-17 6.768141571626594e-17 -1.8977893064040955e-17 6.768141571626594e-17 0.5338637238048578 -0.845570531892555
12620364000.0 0.527221885963358 -0.8497276522281051 -1.843741212640902e-17 6.78163900066929e-17 -1.843741212640902e-17 6.78163900066929e-17 0.5272224134089553 -0.8497273249690661
12620981333.333334 0.5205482090079938 -0.8538322798409638 -1.789598482208984e-17 6.794705261341574e-17 -1.789598482208984e-17 6.794705261341574e-17 0.5205487389755016 -0.8538319567402375
12621598666.666666 0.5138425777175627 -0.8578844941624831 -1.7353645512695368e-17 6.807339702073809e-17 -1.7353645512695368e-17 6.807339702073809e-17 0.5138431101742034 -0.8578841752394958
12622216000.0 0.5071054037235649 -0.8618840464437244 -1.681042860363054e-17 6.819541698653039e-17 -1.681042860363054e-17 6.819541698653039e-17 0.5071059386364113 -0.8618837317176441
12622833333.333334 0.5003371005936826 -0.8658306911685191 -1.626636854191368e-17 6.831310654251564e-17 -1.626636854191368e-17 6.831310654251564e-17 0.5003376379296598 -0.8658303806582536
12623450666.666666 0.4935380838065847 -0.8697241860684187 -1.572149981400665e-17 6.842645999453489e-17 -1.572149981400665e-17 6.842645999453489e-17 0.49353862353247235 -0.8697238797926158
12624068000.0 0.48670877072627766 -0.873564292137656 -1.5175856943623917e-17 6.853547192279954e-17 -1.5175856943623917e-17 6.853547192279954e-17 0.4867093128087125 -0.873563990114702
12624685333.333334 0.479849580576459 -0.8773507736478288 -1.4629474489557797e-17 6.864013718212308e-17 -1.4629474489557797e-17 6.864013718212308e-17 0.4798501249819358 -0.8773504758958468
12625302666.666666 0.47296093441503195 -0.8810833981622331 -1.4082387043504218e-17 6.874045090213486e-17 -1.4082387043504218e-17 6.874045090213486e-17 0.47296148110990566 -0.8810831046990812
12625920000.0 0.4660432551078825 -0.8847619365503333 -1.3534629227857949e-17 6.883640848748234e-17 -1.3534629227857949e-17 6.883640848748234e-17 0.46604380405837226 -0.884761647393607
12626537333.333334 0.4590969673032749 -0.8883861630016439 -1.2986235693553728e-17 6.892800561800679e-17 -1.2986235693553728e-17 6.892800561800679e-17 0.4590975184754635 -0.8883858781686703
12627154666.666666 0.4521224974056314 -0.8919558550396667 -1.2437241117869312e-17 6.901523824890922e-17 -1.2437241117869312e-17 6.901523824890922e-17 0.45212305076546866 -0.8919555745475071
12627772000.0 0.44512027354920564 -0.8954707935356285 -1.1887680202227575e-17 6.909810261089813e-17 -1.1887680202227575e-17 6.909810261089813e-17 0.4451208290625113 -0.8954705174010761
12628389333.333334 0.4380907255721572 -0.8989307627217511 -1.1337587670037404e-17 6.917659521031403e-17 -1.1337587670037404e-17 6.917659521031403e-17 0.4380912832046213 -0.898930490961329
12629006666.666666 0.4310342849897572 -0.9023355502046992 -1.078699826447686e-17 6.925071282924504e-17 -1.078699826447686e-17 6.925071282924504e-17 0.43103484470694364 -0.9023352828346617
12629624000.0 0.4239513849682828 -0.9056849469784315 -1.0235946746327325e-17 6.932045252561816e-17 -1.0235946746327325e-17 6.932045252561816e-17 0.42395194673563047 -0.9056846840147609
12630241333.333334 0.41684246029811917 -0.9089787474371773 -9.684467891773718e-18 6.938581163327709e-17 -9.684467891773718e-18 6.938581163327709e-17 0.416843024080945 -0.9089784888955849
12630858666.666666 0.4097079473673281 -0.91221674938794 -9.132596490228464e-18 6.944678776204078e-17 -9.132596490228464e-18 6.944678776204078e-17 0.40970851313082823 -0.9122164952838633
12631476000.0 0.4025482841345481 -0.9153987540630472 -8.580367342121724e-18 6.950337879774746e-17 -8.580367342121724e-18 6.950337879774746e-17 0.4025488518438008 -0.9153985044116503
12632093333.333334 0.3953639101024477 -0.9185245661322032 -8.027815256739389e-18 6.955558290227685e-17 -8.027815256739389e-18 6.955558290227685e-17 0.39536447972241484 -0.9185243209483744
12632710666.666666 0.3881552662905899 -0.9215939937145471 -7.474975050023669e-18 6.96033985135585e-17 -7.474975050023669e-18 6.96033985135585e-17 0.3881558377861202 -0.9215937530129006
12633328000.0 0.3809227952082307 -0.9246068483904907 -6.921881542376206e-18 6.964682434556325e-17 -6.921881542376206e-18 6.964682434556325e-17 0.38092336854406034 -0.9246066121853628
12633945333.333334 0.37366694082738816 -0.9275629452131801 -6.368569556489377e-18 6.968585938827385e-17 -6.368569556489377e-18 6.968585938827385e-17 0.37366751596814435 -0.9275627135186305
12634562666.666666 0.3663881485554593 -0.9304621027199069 -5.8150739151506545e-18 6.972050290764155e-17 -5.8150739151506545e-18 6.972050290764155e-17 0.36638872546566176 -0.9304618755497165
12635180000.0 0.3590868652079047 -0.9333041429432363 -5.2614294390596845e-18 6.975075444552405e-17 -5.2614294390596845e-18 6.975075444552405e-17 0.359087443851968 -0.9333039203109071
12635797333.333334 0.3517635389807927 -0.9360888914219397 -4.707670944642362e-18 6.977661381960649e-17 -4.707670944642362e-18 6.977661381960649e-17 0.3517641193230287 -0.9360886733406949
12636414666.666666 0.344418619423394 -0.9388161772116682 -4.153833241875987e-18 6.979808112330478e-17 -4.153833241875987e-18 6.979808112330478e-17 0.3444192014280137 -0.9388159636944493
12637032000.0 0.3370525574104258 -0.9414858328955035 -3.599951132095792e-18 6.981515672565226e-17 -3.599951132095792e-18 6.981515672565226e-17 0.33705314104154116 -0.9414856239549697
12637649333.333334 0.3296658051144531 -0.9440976945942028 -3.04605940582075e-18 6.982784127116884e-17 -3.04605940582075e-18 6.982784127116884e-17 0.32966639033608025 -0.9440974902427326
12638266666.666666 0.32225881597821304 -0.9466516019762337 -2.492192840580917e-18 6.983613567971233e-17 -2.492192840580917e-18 6.983613567971233e-17 0.3222594027542743 -0.946651402225923
12638884000.0 0.3148320446866192 -0.9491473982676719 -1.938386198728562e-18 6.984004114631392e-17 -1.938386198728562e-18 6.984004114631392e-17 0.3148326329809447 -0.949147203130333
12639501333.333334 0.3073859471389308 -0.9515849302617978 -1.3846742252689717e-18 6.983955914099503e-17 -1.3846742252689717e-18 6.983955914099503e-17 0.3073865369152608 -0.9515847397489573
12640118666.666666 0.2999209804209013 -0.9539640483284549 -8.310916456971686e-19 6.983469140856797e-17 -8.310916456971686e-19 6.983469140856797e-17 0.2999215716428888 -0.9539638624513551
12640736000.0 0.2924376027762869 -0.9562846064233738 -2.7767316379499935e-19 6.982543996841876e-17 -2.7767316379499935e-19 6.982543996841876e-17 0.29243819540749993 -0.9562844251929722
12641353333.333334 0.28493627357936846 -0.9585464620969358 2.755465404901437e-19 6.98118071142736e-17 2.755465404901437e-19 6.98118071142736e-17 0.2849368675832915 -0.9585462855239019
12641970666.666666 0.2774174533061809 -0.96074947650309 8.285328132536018e-19 6.979379541394717e-17 8.285328132536018e-19 6.979379541394717e-17 0.27741804864621855 -0.9607493045978086
12642588000.0 0.26988160350651924 -0.962893514407797 1.3812510287777038e-18 6.977140770907495e-17 1.3812510287777038e-18 6.977140770907495e-17 0.26988220014599706 -0.9628933471803635
12643205333.333334 0.2623291867755787 -0.9649784441973366 1.933666591695253e-18 6.974464711482783e-17 1.933666591695253e-18 6.974464711482783e-17 0.2623297846777465 -0.9649782816575591
12643822666.666666 0.25476066672544806 -0.9670041378864177 2.48574493915619e-18 6.971351701960918e-17 2.48574493915619e-18 6.971351701960918e-17 0.25476126585348124 -0.9670039800438157
12644440000.0 0.24717650795678692 -0.9689704711259972 3.037451542973556e-18 6.967802108473639e-17 3.037451542973556e-18 6.967802108473639e-17 0.2471771082737897 -0.9689703179898006
12645057333.333334 0.23957717603027978 -0.970877323210922 3.58875191177832e-18 6.963816324410421e-17 3.58875191177832e-18 6.963816324410421e-17 0.23957777749928674 -0.970877174790071
12645674666.666666 0.23196313743802852 -0.9727245770873454 4.139611593169086e-18 6.959394770383164e-17 4.139611593169086e-18 6.959394770383164e-17 0.23196374002200731 -0.9727244333904903
12646292000.0 0.22433485957483415 -0.9745121193599325 4.689996175872334e-18 6.954537894189051e-17 4.689996175872334e-18 6.954537894189051e-17 0.22433546323668777 -0.9745119803954336
12646909333.333334 0.2166928107096985 -0.9762398402987753 5.239871291859718e-18 6.949246170772035e-17 5.239871291859718e-18 6.949246170772035e-17 0.21669341541226686 -0.9762397060746993
12647526666.666666 0.2090374599569135 -0.9779076338461681 5.789202618507295e-18 6.943520102182292e-17 5.789202618507295e-18 6.943520102182292e-17 0.20903806566297645 -0.9779075043702907
12648144000.0 0.2013692772472627 -0.9795153976231122 6.337955880729256e-18 6.93736021753412e-17 6.337955880729256e-18 6.93736021753412e-17 0.20136988391954244 -0.9795152729029184
12648761333.333334 0.19368873329928699 -0.9810630329355841 6.8860968531020275e-18 6.930767072962264e-17 6.8860968531020275e-18 6.930767072962264e-17 0.1936893409004498 -0.9810629129782648
12649378666.666666 0.18599629959038796 -0.9825504447805886 7.43359136199227e-18 6.923741251576487e-17 7.43359136199227e-18 6.923741251576487e-17 0.1859969080830468 -0.982550329593042
12649996000.0 0.1782924483277471 -0.9839775418520211 7.980405287690619e-18 6.916283363414311e-17 7.980405287690619e-18 6.916283363414311e-17 0.17829305767446402 -0.9839774314408531
12650613333.333334 0.17057765241942258 -0.9853442365462578 8.526504566525498e-18 6.908394045392316e-17 8.526504566525498e-18 6.908394045392316e-17 0.1705782625827106 -0.9853441309177788
12651230666.666666 0.16285238544543076 -0.9866504449675083 9.071855192972614e-18 6.900073961255761e-17 9.071855192972614e-18 6.900073961255761e-17 0.16285299638775658 -0.9866503441277353
12651848000.0 0.15511712162839555 -0.9878960869330187 9.616423221777583e-18 6.891323801526282e-17 9.616423221777583e-18 6.891323801526282e-17 0.15511773331218176 -0.9878959908876745
12652465333.333334 0.14737233580468975 -0.9890810859779486 1.0160174770056358e-17 6.882144283448219e-17 1.0160174770056358e-17 6.882144283448219e-17 0.14737294819231697 -0.9890809947324606
12653082666.666666 0.1396185033952589 -0.9902053693600722 1.0703076019388988e-17 6.872536150933302e-17 1.0703076019388988e-17 6.872536150933302e-17 0.13961911644906827 -0.9902052829195725
12653700000.0 0.1318561003762686 -0.991268868064267 1.1245093217937728e-17 6.8625001745032e-17 1.1245093217937728e-17 6.8625001745032e-17 0.13185671405856403 -0.9912687864335923
12654317333.333334 0.12408560325011084 -0.9922715168067175 1.1786192682511472e-17 6.852037151231259e-17 1.1786192682511472e-17 6.852037151231259e-17 0.1240862175231616 -0.9922714399904111
12654934666.666666 0.11630748901598567 -0.9932132540389526 1.2326340800671838e-17 6.841147904681811e-17 1.2326340800671838e-17 6.841147904681811e-17 0.11630810384202797 -0.9932131820412579
12655552000.0 0.10852223514059045 -0.9940940219516161 1.2865504032814373e-17 6.829833284848103e-17 1.2865504032814373e-17 6.829833284848103e-17 0.1085228504818306 -0.9940939547764827
12656169333.333334 0.10073031952906471 -0.9949137664779898 1.3403648914227131e-17 6.818094168089033e-17 1.3403648914227131e-17 6.818094168089033e-17 0.1007309353476811 -0.9949137041290721
12656786666.666666 0.09293222049537177 -0.995672437297351 1.394074205718044e-17 6.805931457063473e-17 1.394074205718044e-17 6.805931457063473e-17 0.09293283675351692 -0.9956723797780036
12657404000.0 0.08512841673307722 -0.9963699878380361 1.4476750152982045e-17 6.793346080663583e-17 1.4476750152982045e-17 6.793346080663583e-17 0.08512903339288048 -0.9963699351513184
12658021333.333334 0.07731938728590773 -0.9970063752803093 1.501163997403995e-17 6.780338993946172e-17 1.501163997403995e-17 6.780338993946172e-17 0.07732000430947761 -0.9970063274289844
12658638666.666666 0.06950561151848623 -0.9975815605589796 1.5545378375905998e-17 6.766911178062825e-17 1.5545378375905998e-17 6.766911178062825e-17 0.06950622886791256 -0.9975815175455136
12659256000.0 0.061687569086622415 -0.9980955083658234 1.60779322993422e-17 6.753063640187697e-17 1.60779322993422e-17 6.753063640187697e-17 0.06168818672397862 -0.998095470192384
12659873333.333334 0.053865739908123225 -0.9985481871517263 1.6609268772344383e-17 6.738797413444559e-17 1.6609268772344383e-17 6.738797413444559e-17 0.05386635779546885 -0.9985481538201849
12660490666.666666 0.04604060413330472 -0.9989395691286277 1.713935491217701e-17 6.724113556831888e-17 1.713935491217701e-17 6.724113556831888e-17 0.046041222232687654 -0.998939540640558
12661108000.0 0.03821264211537579 -0.9992696302712353 1.7668157927420537e-17 6.709013155145819e-17 1.7668157927420537e-17 6.709013155145819e-17 0.03821326038883457 -0.999269606627913
12661725333.333334 0.030382334381036005 -0.9995383503184895 1.8195645119966558e-17 6.693497318902722e-17 1.8195645119966558e-17 6.693497318902722e-17 0.03038295279060224 -0.9995383315208944
12662342666.666666 0.022550161601063608 -0.9997457127748108 1.872178388705386e-17 6.677567184258927e-17 1.872178388705386e-17 6.677567184258927e-17 0.02255078010876421 -0.9997456988236236
12662960000.0 0.01471660456063844 -0.9998917049111147 1.924654172326737e-17 6.661223912929702e-17 1.924654172326737e-17 6.661223912929702e-17 0.014717223128498012 -0.9998916958067183
12663577333.333334 0.006882144129942199 -0.9999763177655869 1.976988622254152e-17 6.644468692106333e-17 1.976988622254152e-17 6.644468692106333e-17 0.006882762719985387 -0.9999763135080695
12664194666.666666 -0.0009527387653885892 -0.9999995461442437 2.029178508015663e-17 6.627302734371656e-17 2.029178508015663e-17 6.627302734371656e-17 -0.0009521201911348342 -0.9999995467333925
12664812000.0 -0.008787563173784738 -0.9999613886212388 2.0812206094718736e-17 6.60972727761428e-17 2.0812206094718736e-17 6.60972727761428e-17 -0.008786944653288777 -0.9999613940565452
12665429333.333334 -0.016621848147296392 -0.9998618475389573 2.133111717015284e-17 6.591743584940656e-17 2.133111717015284e-17 6.591743584940656e-17 -0.016621229718519592 -0.9998618578196156
12666046666.666666 -0.024455112770974417 -0.9997009290078748 2.184848631765885e-17 6.573352944586542e-17 2.184848631765885e-17 6.573352944586542e-17 -0.024454494471868808 -0.9997009441327814
12666664000.0 -0.032286876192704386 -0.9994786429061735 2.236428165769907e-17 6.554556669825604e-17 2.236428165769907e-17 6.554556669825604e-17 -0.032286258061210334 -0.9994786628739274
12667281333.333334 -0.04011665765232632 -0.9991950028791458 2.2878471421929852e-17 6.535356098878161e-17 2.2878471421929852e-17 6.535356098878161e-17 -0.0401160397263702 -0.9991950276880491
12667898666.666666 -0.04794397651145906 -0.9988500263383474 2.3391023955169998e-17 6.515752594816847e-17 2.3391023955169998e-17 6.515752594816847e-17 -0.04794335882895101 -0.9988500559864067
12668516000.0 -0.055768352282862935 -0.9984437344605374 2.3901907717342737e-17 6.495747545471376e-17 2.3901907717342737e-17 6.495747545471376e-17 -0.05576773488169432 -0.9984437689454596
12669133333.333334 -0.06358930465999127 -0.9979761521863681 2.4411091285393236e-17 6.475342363332459e-17 2.4411091285393236e-17 6.475342363332459e-17 -0.06358868757803257 -0.9979761915055653
12669750666.666666 -0.0714063535463612 -0.9974473082188657 2.4918543355232812e-17 6.454538485452827e-17 2.4918543355232812e-17 6.454538485452827e-17 -0.07140573682145966 -0.9974473523694539
12670368000.0 -0.0792190190852236 -0.9968572350216576 2.5424232743649417e-17 6.433337373347812e-17 2.5424232743649417e-17 6.433337373347812e-17 -0.07921840275520074 -0.9968572840004549
