! Parameters = {f0=12700.012000; bw=77.238000; Q=6100.000000; N=10; m_0_1=1.304600; m_1_1=0.804248; m_1_2=1.139412; m_2_2=0.803599; m_2_3=0.776375; m_2_8=0.002294; m_2_9=0.038998; m_3_3=0.801662; m_3_4=0.664904; m_3_7=0.002894; m_3_8=-0.094194; m_3_9=0.002294; m_4_4=0.798737; m_4_5=0.501239; m_4_6=0.006411; m_4_7=-0.114743; m_4_8=0.002894; m_5_5=0.799119; m_5_6=0.908594; m_5_7=0.006411; m_6_6=0.799118; m_6_7=0.501581; m_7_7=0.798751; m_7_8=0.665022; m_8_8=0.801660; m_8_9=0.776688; m_9_9=0.803594; m_9_10=1.140490; m_10_10=0.804238; m_10_11=1.305395}
!
! Created with skrf (http://scikit-rf.org).
# Hz S RI R 50.0 
!freq ReS11 ImS11 ReS21 ImS21 ReS12 ImS12 ReS22 ImS22
12607400000.0 0.27970537831696185 -0.9600858822732365 5.871394730710376e-19 1.298446973180088e-16 5.871394730710376e-19 1.298446973180088e-16 0.2797060381607744 -0.9600856900382473
12608017333.333334 0.2686020198832968 -0.9632512418442167 2.0973317321711826e-18 1.2980365630183762e-16 2.0973317321711826e-18 1.2980365630183762e-16 0.2686026818701768 -0.9632510572493351
12608634666.666666 0.2574628557098301 -0.9662881961038083 3.606648733496051e-18 1.2974506086297704e-16 3.606648733496051e-18 1.2974506086297704e-16 0.25746351975132636 -0.9662880191728921
12609252000.0 0.2462893706925575 -0.9691963402137243 5.114886544419123e-18 1.2966892580604133e-16 5.114886544419123e-18 1.2966892580604133e-16 0.24629003669995392 -0.9691961709696078
12609869333.333334 0.23508305430244408 -0.9719752865066313 6.621841458204137e-18 1.295752683033747e-16 6.621841458204137e-18 1.295752683033747e-16 0.23508372218677082 -0.9719751249711212
12610486666.666666 0.22384540038722903 -0.9746246645377362 8.1273100214828e-18 1.2946410789180082e-16 8.1273100214828e-18 1.2946410789180082e-16 0.2238460700592752 -0.9746245107316108
12611104000.0 0.21257790697176576 -0.9771441211342964 9.63108906171316e-18 1.293354664690514e-16 9.63108906171316e-18 1.293354664690514e-16 0.2125785783420908 -0.9771439750773012
12611721333.333334 0.20128207605893725 -0.9795333204425545 1.1132975714497318e-17 1.2918936828988307e-16 1.1132975714497318e-17 1.2918936828988307e-16 0.20128274903788282 -0.9795331821534
12612338666.666666 0.18995941342896255 -0.9817919439726212 1.2632767450968143e-17 1.2902583996186945e-16 1.2632767450968143e-17 1.2902583996186945e-16 0.18996008792666455 -0.9817918134689796
12612956000.0 0.17861142843875114 -0.9839196906408996 1.4130262105049805e-17 1.2884491044087865e-16 1.4130262105049805e-17 1.2884491044087865e-16 0.17861210436515215 -0.983919567939405
12613573333.333334 0.16723963382103627 -0.9859162768101662 1.562525790062593e-17 1.2864661102624241e-16 1.562525790062593e-17 1.2864661102624241e-16 0.16724031108589715 -0.9859161619264112
12614190666.666666 0.15584554548227394 -0.9877814363274632 1.711755347874672e-17 1.2843097535559682e-16 1.711755347874672e-17 1.2843097535559682e-16 0.15584622399518608 -0.9877813292759969
12614808000.0 0.14443068230079023 -0.9895149205595347 1.860694792468114e-17 1.2819803939941867e-16 1.860694792468114e-17 1.2819803939941867e-16 0.14443136197118725 -0.9895148213538599
12615425333.333334 0.1329965659243644 -0.9911164984259624 2.0093240794920515e-17 1.2794784145524695e-16 2.0093240794920515e-17 1.2794784145524695e-16 0.13299724666153465 -0.9911164070785351
12616042666.666666 0.12154472056721889 -0.9925859564299966 2.1576232144136863e-17 1.27680422141587e-16 2.1576232144136863e-17 1.27680422141587e-16 0.12154540228031749 -0.9925858729522246
12616660000.0 0.11007667280691977 -0.9939230986870025 2.30557225520305e-17 1.273958243915076e-16 2.30557225520305e-17 1.273958243915076e-16 0.11007735540498043 -0.9939230230892425
12617277333.333334 0.09859395138093366 -0.9951277469505647 2.4531513150099767e-17 1.2709409344592722e-16 2.4531513150099767e-17 1.2709409344592722e-16 0.09859463477288123 -0.9951276792421239
12617894666.666666 0.08709808698281356 -0.9961997406362586 2.6003405648336746e-17 1.2677527684659009e-16 2.6003405648336746e-17 1.2677527684659009e-16 0.0870987710774758 -0.9961996808253888
12618512000.0 0.07559061205792379 -0.9971389368430673 2.7471202361859034e-17 1.2643942442872596e-16 2.7471202361859034e-17 1.2643942442872596e-16 0.07559129676404394 -0.9971388849369702
12619129333.333334 0.06407306059964074 -0.9979452103723978 2.893470623735956e-17 1.2608658831342326e-16 2.893470623735956e-17 1.2608658831342326e-16 0.06407374582588923 -0.9979451663772182
12619746666.666666 0.05254696794441192 -0.998618453744804 3.039372087957928e-17 1.257168228996704e-16 3.039372087957928e-17 1.257168228996704e-16 0.05254765359939893 -0.9986184176656326
12620364000.0 0.04101387056717412 -0.9991585772143045 3.1848050577611833e-17 1.2533018485610497e-16 3.1848050577611833e-17 1.2533018485610497e-16 0.041014556559461596 -0.9991585490551764
12620981333.333334 0.029475305876875735 -0.9995655087803296 3.329750033107379e-17 1.2492673311247e-16 3.329750033107379e-17 1.2492673311247e-16 0.029475992114989545 -0.999565488544223
12621598666.666666 0.0179328120110513 -0.9998391941973421 3.4741875876271624e-17 1.2450652885074014e-16 3.4741875876271624e-17 1.2450652885074014e-16 0.017933498403493578 -0.9998391818861805
12622216000.0 0.0063879276311506975 -0.9999795969820553 3.618098371215205e-17 1.2406963549597428e-16 3.618098371215205e-17 1.2406963549597428e-16 0.006388614086411899 -0.9999795925967038
12622833333.333334 -0.005157808282854854 -0.9999866984182999 3.7614631126217235e-17 1.2361611870684799e-16 3.7614631126217235e-17 1.2361611870684799e-16 -0.005157121856283672 -0.999986701958568
12623450666.666666 -0.016702856637284016 -0.999860497559519 3.904262622026653e-17 1.2314604636590278e-16 3.904262622026653e-17 1.2314604636590278e-16 -0.016702170330899026 -0.99986050902416
12624068000.0 -0.028245678430253846 -0.9996010112288951 4.046477793604968e-17 1.2265948856948947e-16 4.046477793604968e-17 1.2265948856948947e-16 -0.028244992335526263 -0.9996010306156057
12624685333.333334 -0.03978473495677808 -0.9992082740171004 4.1880896080813816e-17 1.2215651761740968e-16 4.1880896080813816e-17 1.2215651761740968e-16 -0.03978404916514196 -0.999208301322522
12625302666.666666 -0.05131848801351363 -0.9986823382777038 4.3290791352650374e-17 1.2163720800228864e-16 4.3290791352650374e-17 1.2163720800228864e-16 -0.05131780261635364 -0.9986823734974216
12625920000.0 -0.06284540010440551 -0.9980232741201641 4.469427536581856e-17 1.2110163639861643e-16 4.469427536581856e-17 1.2110163639861643e-16 -0.06284471519304485 -0.9980233172487101
12626537333.333334 -0.07436393464515877 -0.9972311694005082 4.609116067581836e-17 1.2054988165154287e-16 4.609116067581836e-17 1.2054988165154287e-16 -0.074363250310847 -0.9972312204313604
12627154666.666666 -0.08587255616815692 -0.9963061297096194 4.748126080441211e-17 1.1998202476535037e-16 4.748126080441211e-17 1.1998202476535037e-16 -0.08587187250205773 -0.9963061886352031
12627772000.0 -0.09736973052751412 -0.9952482783591307 4.886439026450497e-17 1.1939814889163748e-16 4.886439026450497e-17 1.1939814889163748e-16 -0.09736904762069315 -0.9952483451708193
12628389333.333334 -0.10885392510295999 -0.9940577563650382 5.024036458479712e-17 1.1879833931725277e-16 5.024036458479712e-17 1.1879833931725277e-16 -0.10885324304637277 -0.9940578310531543
12629006666.666666 -0.12032360900476691 -0.9927347224288483 5.160900033440385e-17 1.1818268345189589e-16 5.160900033440385e-17 1.1818268345189589e-16 -0.12032292788924688 -0.9927348049826668
12629624000.0 -0.13177725327742756 -0.9912793529164574 5.2970115147217196e-17 1.1755127081548213e-16 5.2970115147217196e-17 1.1755127081548213e-16 -0.13177657319367383 -0.9912794433242056
12630241333.333334 -0.14321333110355627 -0.9896918418346381 5.432352774620845e-17 1.1690419302518594e-16 5.432352774620845e-17 1.1690419302518594e-16 -0.14321265214212128 -0.9896919400834958
12630858666.666666 -0.15463031800741964 -0.9879724008051738 5.566905796748332e-17 1.1624154378224642e-16 5.566905796748332e-17 1.1624154378224642e-16 -0.15462964025869774 -0.9879725068812797
12631476000.0 -0.16602669205838036 -0.9861212590366183 5.700652678428338e-17 1.1556341885844567e-16 5.700652678428338e-17 1.1556341885844567e-16 -0.16602601561259536 -0.9861213729250677
12632093333.333334 -0.17740093407332763 -0.9841386632938095 5.833575633071201e-17 1.148699160823669e-16 5.833575633071201e-17 1.148699160823669e-16 -0.17740025902052053 -0.9841387849786566
12632710666.666666 -0.18875152781955445 -0.9820248778649131 5.965656992535668e-17 1.1416113532534917e-16 5.965656992535668e-17 1.1416113532534917e-16 -0.1887508542495723 -0.9820250073291774
12633328000.0 -0.2000769602167951 -0.9797801845262142 6.09687920947675e-17 1.1343717848715699e-16 6.09687920947675e-17 1.1343717848715699e-16 -0.20007628821927792 -0.9797803217518766
12633945333.333334 -0.21137572153886655 -0.9774048825045532 6.227224859668546e-17 1.1269814948142254e-16 6.227224859668546e-17 1.1269814948142254e-16 -0.21137505120323644 -0.977405027472564
12634562666.666666 -0.22264630561497847 -0.9748992884374346 6.356676644315946e-17 1.1194415422078597e-16 6.356676644315946e-17 1.1194415422078597e-16 -0.22264563703042733 -0.9748994411277144
12635180000.0 -0.23388721003040097 -0.9722637363308425 6.485217392344624e-17 1.1117530060179292e-16 6.485217392344624e-17 1.1117530060179292e-16 -0.23388654328587818 -0.9722638967222825
12635797333.333334 -0.245096936326963 -0.9694985775146603 6.612830062677033e-17 1.1039169848950614e-16 6.612830062677033e-17 1.1039169848950614e-16 -0.24509627151116453 -0.9694987455851297
12636414666.666666 -0.25627399020247305 -0.9666041805959238 6.739497746483507e-17 1.0959345970189259e-16 6.739497746483507e-17 1.0959345970189259e-16 -0.25627332740382835 -0.9666043563222673
12637032000.0 -0.26741688171027245 -0.9635809314095881 6.865203669422527e-17 1.0878069799390644e-16 6.865203669422527e-17 1.0878069799390644e-16 -0.267416221016934 -0.9635811147676341
12637649333.333334 -0.27852412545765937 -0.960429232967146 6.989931193855658e-17 1.0795352904135455e-16 6.989931193855658e-17 1.0795352904135455e-16 -0.2785234669574906 -0.960429423931709
12638266666.666666 -0.2895942408038432 -0.9571495054029227 7.113663821044629e-17 1.0711207042449764e-16 7.113663821044629e-17 1.0711207042449764e-16 -0.28959358458440626 -0.9571497039478042
12638884000.0 -0.3006257520574842 -0.953742185918022 7.23638519333132e-17 1.06256441611386e-16 7.23638519333132e-17 1.06256441611386e-16 -0.3006250982060286 -0.9537423920160153
12639501333.333334 -0.31161718867335303 -0.9502077287220578 7.35807909629524e-17 1.0538676394096041e-16 7.35807909629524e-17 1.0538676394096041e-16 -0.311616537276804 -0.9502079423449524
12640118666.666666 -0.32256708544811785 -0.9465466049726878 7.47872946088882e-17 1.045031606059233e-16 7.47872946088882e-17 1.045031606059233e-16 -0.32256643659306583 -0.9465468260912749
12640736000.0 -0.3334739827162838 -0.9427593027126034 7.598320365561345e-17 1.0360575663529863e-16 7.598320365561345e-17 1.0360575663529863e-16 -0.33347333648897115 -0.942759531296676
12641353333.333334 -0.3443364265439085 -0.9388463268047577 7.716836038347646e-17 1.0269467887685594e-16 7.716836038347646e-17 1.0269467887685594e-16 -0.3443357830302191 -0.9388465628231166
12641970666.666666 -0.3551529689231717 -0.9348081988648104 7.834260858948995e-17 1.0177005597919798e-16 7.834260858948995e-17 1.0177005597919798e-16 -0.3551523282086194 -0.9348084422852695
12642588000.0 -0.36592216796505006 -0.9306454571917125 7.950579360786168e-17 1.0083201837365877e-16 7.950579360786168e-17 1.0083201837365877e-16 -0.3659215301347672 -0.9306457079811014
12643205333.333334 -0.37664258809147605 -0.9263586566959743 8.065776233031273e-17 9.988069825596669e-17 8.065776233031273e-17 9.988069825596669e-17 -0.3766419532302019 -0.9263589148201428
12643822666.666666 -0.3873128002269693 -0.921948368825586 8.179836322620229e-17 9.891622956765424e-17 8.179836322620229e-17 9.891622956765424e-17 -0.3873121684190397 -0.9219486342494116
12644440000.0 -0.3979313819889276 -0.9174151814899281 8.292744636238909e-17 9.793874797727466e-17 8.292744636238909e-17 9.793874797727466e-17 -0.3979307533182629 -0.9174154541773176
12645057333.333334 -0.40849691787718423 -0.9127596989814215 8.404486342291684e-17 9.694839086135221e-17 8.404486342291684e-17 9.694839086135221e-17 -0.4084962924272787 -0.912759978895318
12645674666.666666 -0.41900799946285894 -0.9079825418949132 8.515046772842863e-17 9.594529728514673e-17 8.515046772842863e-17 9.594529728514673e-17 -0.4190073773167687 -0.9079828289972984
12646292000.0 -0.4294632255762064 -0.9030843470448904 8.624411425541478e-17 9.492960798314132e-17 8.624411425541478e-17 9.492960798314132e-17 -0.4294626068165394 -0.9030846412967924
12646909333.333334 -0.43986120249298716 -0.8980657673807856 8.732565965513219e-17 9.390146533940016e-17 8.732565965513219e-17 9.390146533940016e-17 -0.4398605872018922 -0.898066068742284
12647526666.666666 -0.4502005441206684 -0.8929274718997444 8.839496227239193e-17 9.28610133676174e-17 8.839496227239193e-17 9.28610133676174e-17 -0.4501999323798241 -0.8929277803299751
12648144000.0 -0.4604798721830924 -0.8876701455574909 8.945188216405116e-17 9.180839769100724e-17 8.945188216405116e-17 9.180839769100724e-17 -0.46047926407369544 -0.8876704610146505
12648761333.333334 -0.47069781640402747 -0.8822944891771088 9.049628111727442e-17 9.074376552197725e-17 9.049628111727442e-17 9.074376552197725e-17 -0.470697212006783 -0.8822948116184615
12649378666.666666 -0.48085301469000974 -0.8768012193555296 9.152802266754893e-17 8.966726564159986e-17 9.152802266754893e-17 8.966726564159986e-17 -0.4808524140851203 -0.8768015487374138
12649996000.0 -0.49094411331184123 -0.8711910683680503 9.254697211649489e-17 8.857904837884094e-17 9.254697211649489e-17 8.857904837884094e-17 -0.49094351657899554 -0.871191404645882
12650613333.333334 -0.50096976708517 -0.8654647840706442 9.35529965493855e-17 8.747926558963051e-17 9.35529965493855e-17 8.747926558963051e-17 -0.500969174303533 -0.8654651271989251
12651230666.666666 -0.510928639549512 -0.8596231298004383 9.454596485241796e-17 8.636807063573892e-17 9.454596485241796e-17 8.636807063573892e-17 -0.5109280507977149 -0.8596234797327624
12651848000.0 -0.520819403146827 -0.8536668842737186 9.552574772979031e-17 8.52456183633957e-17 9.552574772979031e-17 8.52456183633957e-17 -0.520818818502956 -0.8536672409627772
12652465333.333334 -0.5306407393981906 -0.8475968414822919 9.649221772045656e-17 8.411206508179082e-17 9.649221772045656e-17 8.411206508179082e-17 -0.5306401589397759 -0.8475972048798793
12653082666.666666 -0.5403913390794823 -0.8414138105876913 9.744524921464986e-17 8.296756854136282e-17 9.744524921464986e-17 8.296756854136282e-17 -0.5403907628834899 -0.8414141806447137
12653700000.0 -0.5500699023963208 -0.8351186158130575 9.838471847019644e-17 8.181228791184541e-17 9.838471847019644e-17 8.181228791184541e-17 -0.5500693305391402 -0.8351189924795375
12654317333.333334 -0.5596751391568029 -0.8287120963335994 9.931050362847738e-17 8.064638376023776e-17 9.931050362847738e-17 8.064638376023776e-17 -0.5596745717142373 -0.8287124795586825
12654934666.666666 -0.5692057689438983 -0.8221951061644682 1.0022248473022206e-16 7.947001802848693e-17 1.0022248473022206e-16 7.947001802848693e-17 -0.5692052059911564 -0.8221954958964325
12655552000.0 -0.5786605212860602 -0.8155685140469565 1.0112054373098994e-16 7.828335401104719e-17 1.0112054373098994e-16 7.828335401104719e-17 -0.5786599628977441 -0.8155689102332166
12656169333.333334 -0.5880381358263054 -0.8088332033328871 1.0200456451636979e-16 7.708655633229323e-17 1.0200456451636979e-16 7.708655633229323e-17 -0.5880375820764016 -0.8088336059200028
12656786666.666666 -0.5973373624905974 -0.8019900718665987 1.0287443291697251e-16 7.587979092368019e-17 1.0287443291697251e-16 7.587979092368019e-17 -0.5973368134524674 -0.8019904808002817
12657404000.0 -0.6065569616543002 -0.7950400318653887 1.0373003672310232e-16 7.466322500080554e-17 1.0373003672310232e-16 7.466322500080554e-17 -0.60655641740067 -0.795040447090511
12658021333.333334 -0.6156957043074035 -0.7879840097979313 1.0457126569917268e-16 7.343702704028605e-17 1.0457126569917268e-16 7.343702704028605e-17 -0.6156951649103534 -0.7879844312585296
12658638666.666666 -0.6247523722183764 -0.7808229462607548 1.0539801159785441e-16 7.220136675646763e-17 1.0539801159785441e-16 7.220136675646763e-17 -0.6247518377493338 -0.7808233739000424
12659256000.0 -0.6337257580967226 -0.7735577958527395 1.0621016817396049e-16 7.095641507795804e-17 1.0621016817396049e-16 7.095641507795804e-17 -0.6337252286264501 -0.77355822961311
12659873333.333334 -0.6426146657536448 -0.766189527048071 1.0700763119801558e-16 6.970234412406161e-17 1.0700763119801558e-16 6.970234412406161e-17 -0.6426141413522314 -0.7661899668711077
12660490666.666666 -0.651417910261639 -0.7587191220670363 1.0779029846958633e-16 6.843932718100909e-17 1.0779029846958633e-16 6.843932718100909e-17 -0.6514173909984926 -0.7587195678935215
12661108000.0 -0.6601343181126007 -0.7511475767449614 1.0855806983033035e-16 6.716753867803364e-17 1.0855806983033035e-16 6.716753867803364e-17 -0.6601338040564364 -0.7511480285148818
12661725333.333334 -0.6687627273738891 -0.7434759003997726 1.0931084717671943e-16 6.588715416337655e-17 1.0931084717671943e-16 6.588715416337655e-17 -0.668762218592722 -0.7434763580523291
12662342666.666666 -0.6773019878436073 -0.7357051156971204 1.1004853447254519e-16 6.459835028004621e-17 1.1004853447254519e-16 6.459835028004621e-17 -0.6773014844047425 -0.7357055791707358
12662960000.0 -0.6857509612036493 -0.7278362585142945 1.1077103776109068e-16 6.330130474151454e-17 1.1077103776109068e-16 6.330130474151454e-17 -0.6857504631736726 -0.7278367277466207
12663577333.333334 -0.6941085211716118 -0.7198703778019857 1.1147826517702996e-16 6.199619630726109e-17 1.1147826517702996e-16 6.199619630726109e-17 -0.6941080286163829 -0.7198708527299145
12664194666.666666 -0.7023735536508692 -0.7118085354445143 1.121701269580526e-16 6.068320475815891e-17 1.121701269580526e-16 6.068320475815891e-17 -0.7023730666355105 -0.7118090160041834
12664812000.0 -0.7105449568790267 -0.7036518061183363 1.1284653545618404e-16 5.93625108717607e-17 1.1284653545618404e-16 5.93625108717607e-17 -0.7105444754679159 -0.7036522922451393
12665429333.333334 -0.7186216415749508 -0.6954012771486247 1.1350740514881658e-16 5.803429639745631e-17 1.1350740514881658e-16 5.803429639745631e-17 -0.7186211658317128 -0.6954017687772196
12666046666.666666 -0.7266025310837146 -0.6870580483645862 1.1415265264945478e-16 5.669874403149942e-17 1.1415265264945478e-16 5.669874403149942e-17 -0.7266020610712127 -0.687058545428904
12666664000.0 -0.73448656152048 -0.6786232319524863 1.1478219671817794e-16 5.535603739189257e-17 1.1478219671817794e-16 5.535603739189257e-17 -0.7344860973008062 -0.678623734385739
12667281333.333334 -0.7422726819119772 -0.6700979523077325 1.1539595827176826e-16 5.4006360993238715e-17 1.1539595827176826e-16 5.4006360993238715e-17 -0.7422722235464471 -0.6700984600424243
12667898666.666666 -0.7499598543367484 -0.6614833458848517 1.1599386039359626e-16 5.264990022137398e-17 1.1599386039359626e-16 5.264990022137398e-17 -0.7499594018858905 -0.6614838588527863
12668516000.0 -0.7575470540636162 -0.652780561045864 1.1657582834317753e-16 5.128684130795377e-17 1.1657582834317753e-16 5.128684130795377e-17 -0.7575466075871642 -0.6527810791781534
12669133333.333334 -0.7650332696880556 -0.6439907579074549 1.171417895654209e-16 4.99173713049652e-17 1.171417895654209e-16 4.99173713049652e-17 -0.7650328292449422 -0.6439912811345305
12669750666.666666 -0.7724175032671567 -0.635115108186183 1.1769167369961626e-16 4.8541678059044944e-17 1.1769167369961626e-16 4.8541678059044944e-17 -0.772417068915504 -0.6351156364378039
12670368000.0 -0.7796987704527031 -0.6261547950422159 1.1822541258808928e-16 4.7159950185776245e-17 1.1822541258808928e-16 4.7159950185776245e-17 -0.7796983422498148 -0.6261553282474772
