! Parameters = {f0=12700.012000; bw=77.238000; Q=6100.000000; N=10; m_0_1=1.219114; m_1_1=-0.478034; m_1_2=1.053926; m_2_2=-0.478683; m_2_3=0.690889; m_2_8=-0.001981; m_2_9=0.034723; m_3_3=-0.480620; m_3_4=0.579418; m_3_7=-0.001381; m_3_8=-0.098469; m_3_9=-0.001981; m_4_4=-0.483545; m_4_5=0.415753; m_4_6=0.002136; m_4_7=-0.119018; m_4_8=-0.001381; m_5_5=-0.483163; m_5_6=0.823108; m_5_7=0.002136; m_6_6=-0.483164; m_6_7=0.416095; m_7_7=-0.483531; m_7_8=0.579536; m_8_8=-0.480622; m_8_9=0.691202; m_9_9=-0.478688; m_9_10=1.055004; m_10_10=-0.478044; m_10_11=1.219909}
!
! Created with skrf (http://scikit-rf.org).
# Hz S RI R 50.0 
!freq ReS11 ImS11 ReS21 ImS21 ReS12 ImS12 ReS22 ImS22
12607400000.0 0.995758033479985 0.09201053613532897 -8.481135270459393e-17 1.6827594145874172e-17 -8.481135270459393e-17 1.6827594145874172e-17 0.9957579743730044 0.09201117580168536
12608017333.333334 0.9965473358580571 0.08302654632131518 -8.463800329207885e-17 1.759584231739651e-17 -8.463800329207885e-17 1.759584231739651e-17 0.9965472825249261 0.08302718646336682
12608634666.666666 0.9972555839874169 0.07403580353959778 -8.445770061835962e-17 1.83623299282853e-17 -8.445770061835962e-17 1.83623299282853e-17 0.9972555364319066 0.07403644410523455
12609252000.0 0.9978827202627136 0.06503903905288536 -8.427046236052784e-17 1.912699409874983e-17 -8.427046236052784e-17 1.912699409874983e-17 0.9978826784881275 0.06503967998996799
12609869333.333334 0.9984286936758424 0.05603698461363339 -8.407630676382717e-17 1.9889772124825136e-17 -8.407630676382717e-17 1.9889772124825136e-17 0.9984286576850105 0.056037625869997276
12610486666.666666 0.9988934598200726 0.04703037240466814 -8.38752526399207e-17 2.0650601483489084e-17 -8.38752526399207e-17 2.0650601483489084e-17 0.9988934296153568 0.04703101392812801
12611104000.0 0.9992769808936885 0.038019934979323086 -8.366731936510348e-17 2.140941983780081e-17 -8.366731936510348e-17 2.140941983780081e-17 0.9992769564769781 0.03802057671767696
12611721333.333334 0.9995792257030353 0.029006405202253546 -8.34525268784835e-17 2.216616504196207e-17 -8.34525268784835e-17 2.216616504196207e-17 0.9995792070757501 0.029007047103287123
12612338666.666666 0.9998001696650757 0.019990516189545445 -8.323089568010224e-17 2.2920775146417912e-17 -8.323089568010224e-17 2.2920775146417912e-17 0.9998001568281625 0.01999115820103626
12612956000.0 0.9999397948093794 0.01097300124908699 -8.300244682901535e-17 2.3673188402915204e-17 -8.300244682901535e-17 2.3673188402915204e-17 0.9999397877633177 0.010973643318808776
12613573333.333334 0.9999980897795914 0.001954593821180994 -8.276720194133431e-17 2.4423343269521456e-17 -8.276720194133431e-17 2.4423343269521456e-17 0.9999980885243858 0.001955235896907794
12614190666.666666 0.9999750498343477 -0.0070639725813939165 -8.252518318820933e-17 2.5171178415669182e-17 -8.252518318820933e-17 2.5171178415669182e-17 0.9999750543695338 -0.007063330551883404
12614808000.0 0.9998706768476694 -0.016081964432901417 -8.227641329377781e-17 2.5916632727145617e-17 -8.227641329377781e-17 2.5916632727145617e-17 0.9998706871723111 -0.01608132250181962
12615425333.333334 0.9996849793088037 -0.025098648254337278 -8.202091553306308e-17 2.665964531107651e-17 -8.202091553306308e-17 2.665964531107651e-17 0.9996849954214948 -0.025098006473883522
12616042666.666666 0.999417972321536 -0.034113290673086945 -8.175871372982945e-17 2.7400155500887382e-17 -8.175871372982945e-17 2.7400155500887382e-17 0.9994179942204006 -0.034112649095443204
12616660000.0 0.9990696776029641 -0.04312515848257449 -8.14898322543925e-17 2.8138102861244075e-17 -8.14898322543925e-17 2.8138102861244075e-17 0.9990697052856535 -0.04312451715990111
12617277333.333334 0.9986401234817242 -0.05213351870192632 -8.121429602138388e-17 2.887342719297441e-17 -8.121429602138388e-17 2.887342719297441e-17 0.9986401569454217 -0.05213287768635784
12617894666.666666 0.9981293448956982 -0.061137638635474785 -8.093213048747725e-17 2.9606068537954695e-17 -8.093213048747725e-17 2.9606068537954695e-17 0.998129384137116 -0.061136997979115607
12618512000.0 0.9975373833891585 -0.07013678593255057 -8.064336164905635e-17 3.033596718401094e-17 -8.064336164905635e-17 3.033596718401094e-17 0.9975374284045404 -0.07013614568747088
12619129333.333334 0.9968642871094036 -0.07913022864682169 -8.034801603986078e-17 3.106306366974055e-17 -8.034801603986078e-17 3.106306366974055e-17 0.9968643378945227 -0.07912958886505304
12619746666.666666 0.9961101108028306 -0.08811723529599648 -8.004612072856761e-17 3.17872987893663e-17 -8.004612072856761e-17 3.17872987893663e-17 0.9961101673529922 -0.08811659602952768
12620364000.0 0.9952749158104789 -0.09709707492134691 -7.973770331633762e-17 3.250861359754419e-17 -7.973770331633762e-17 3.250861359754419e-17 0.9952749781205199 -0.0970964362221198
12620981333.333334 0.9943587700630625 -0.1060690171469064 -7.942279193432819e-17 3.322694941412526e-17 -7.942279193432819e-17 3.322694941412526e-17 0.9943588381273513 -0.10606837906681159
12621598666.666666 0.9933617480754217 -0.11503233223915824 -7.910141524114127e-17 3.394224782894817e-17 -7.910141524114127e-17 3.394224782894817e-17 0.9933618218878597 -0.11503169483003092
12622216000.0 0.9922839309404727 -0.1239862911662468 -7.877360242025079e-17 3.465445070655044e-17 -7.877360242025079e-17 3.465445070655044e-17 0.9922840104944943 -0.12398565447986247
12622833333.333334 0.9911254063226073 -0.1329301656573298 -7.843938317737297e-17 3.536350019089396e-17 -7.843938317737297e-17 3.536350019089396e-17 0.9911254916111807 -0.1329295297454002
12623450666.666666 0.9898862684505763 -0.14186322826169975 -7.809878773780423e-17 3.6069338710040653e-17 -7.809878773780423e-17 3.6069338710040653e-17 0.9898863594662041 -0.14186259317586855
12624068000.0 0.9885666181098101 -0.15078475240809228 -7.775184684370735e-17 3.6771908980825014e-17 -7.775184684370735e-17 3.6771908980825014e-17 0.98856671484453 -0.15078411819993093
12624685333.333334 0.9871665626342124 -0.15969401246380943 -7.739859175135927e-17 3.7471154013491755e-17 -7.739859175135927e-17 3.7471154013491755e-17 0.9871666650795972 -0.15969337918481286
12625302666.666666 0.9856862158974729 -0.16859028379345803 -7.703905422837007e-17 3.8167017116283635e-17 -7.703905422837007e-17 3.8167017116283635e-17 0.9856863240446315 -0.16858965149504063
12625920000.0 0.9841256983037404 -0.17747284281830927 -7.667326655083266e-17 3.8859441900057027e-17 -7.667326655083266e-17 3.8859441900057027e-17 0.9841258121433205 -0.17747221155180076
12626537333.333334 0.982485136777896 -0.1863409670747586 -7.63012615004644e-17 3.9548372282807944e-17 -7.63012615004644e-17 3.9548372282807944e-17 0.9824852563000815 -0.1863403368913996
12627154666.666666 0.9807646647551992 -0.19519393527325554 -7.592307236168464e-17 4.023375249421374e-17 -7.592307236168464e-17 4.023375249421374e-17 0.9807647899497137 -0.1951933062241936
12627772000.0 0.9789644221704021 -0.2040310273571366 -7.553873291865188e-17 4.091552708014733e-17 -7.553873291865188e-17 4.091552708014733e-17 0.9789645530265088 -0.20403039949342205
12628389333.333334 0.9770845554464461 -0.21285152456080142 -7.514827745228445e-17 4.1593640907120694e-17 -7.514827745228445e-17 4.1593640907120694e-17 0.9770846919529496 -0.2128508979333834
12629006666.666666 0.9751252174824685 -0.2216547094685914 -7.475174073720622e-17 4.226803916676178e-17 -7.475174073720622e-17 4.226803916676178e-17 0.9751253596277126 -0.2216540841283131
12629624000.0 0.973086567641426 -0.23043986607283398 -7.434915803868426e-17 4.293866738020751e-17 -7.434915803868426e-17 4.293866738020751e-17 0.9730867154132994 -0.23043924207042923
12630241333.333334 0.9709687717371009 -0.2392062798322464 -7.394056510950608e-17 4.360547140250379e-17 -7.394056510950608e-17 4.360547140250379e-17 0.970968925123035 -0.23920565721833523
12630858666.666666 0.9687720020206528 -0.24795323772988714 -7.352599818683282e-17 4.426839742695085e-17 -7.352599818683282e-17 4.426839742695085e-17 0.9687721610076235 -0.2479526165549716
12631476000.0 0.9664964371665332 -0.25668002833145226 -7.310549398899186e-17 4.492739198945444e-17 -7.310549398899186e-17 4.492739198945444e-17 0.9664966017410627 -0.25667940864591265
12632093333.333334 0.9641422622580428 -0.2653859418427819 -7.267908971226129e-17 4.5582401972796706e-17 -7.267908971226129e-17 4.5582401972796706e-17 0.9641424324062 -0.26538532369687234
12632710666.666666 0.9617096687722394 -0.2740702701677575 -7.224682302759236e-17 4.6233374610916666e-17 -7.224682302759236e-17 4.6233374610916666e-17 0.9617098444796404 -0.27406965361160174
12633328000.0 0.9591988545643203 -0.2827323069660303 -7.180873207729377e-17 4.6880257493157e-17 -7.180873207729377e-17 4.6880257493157e-17 0.9591990358161319 -0.28273169204961834
12633945333.333334 0.9566100238516025 -0.2913713477102262 -7.136485547169788e-17 4.7522998568451566e-17 -7.136485547169788e-17 4.7522998568451566e-17 0.9566102106325418 -0.29137073448340983
12634562666.666666 0.9539433871968728 -0.299986689743385 -7.091523228577019e-17 4.816154614950996e-17 -7.091523228577019e-17 4.816154614950996e-17 0.9539435794912078 -0.2999860782558732
12635180000.0 0.9511991614912698 -0.3085776323360839 -7.045990205568984e-17 4.879584891695795e-17 -7.045990205568984e-17 4.879584891695795e-17 0.9511993592828218 -0.3085770226374395
12635797333.333334 0.9483775699366316 -0.31714347674345744 -6.999890477539049e-17 4.9425855923449984e-17 -6.999890477539049e-17 4.9425855923449984e-17 0.9483777732087773 -0.31714286888309334
12636414666.666666 0.9454788420273805 -0.32568352626192315 -6.953228089307163e-17 5.005151659773925e-17 -6.953228089307163e-17 5.005151659773925e-17 0.9454790507630524 -0.32568292028909773
12637032000.0 0.9425032135318049 -0.33419708628601025 -6.906007130765961e-17 5.0672780748734895e-17 -6.906007130765961e-17 5.0672780748734895e-17 0.9425034277134919 -0.33419648224982346
12637649333.333334 0.9394509264729132 -0.34268346436474567 -6.858231736524638e-17 5.128959856950598e-17 -6.858231736524638e-17 5.128959856950598e-17 0.9394511460826634 -0.3426828623141351
12638266666.666666 0.9363222291087433 -0.3511419702580028 -6.809906085548624e-17 5.190192064126258e-17 -6.809906085548624e-17 5.190192064126258e-17 0.936322454128166 -0.3511413702417401
12638884000.0 0.9331173759121715 -0.3595719159926426 -6.761034400795781e-17 5.250969793730049e-17 -6.761034400795781e-17 5.250969793730049e-17 0.9331176063224372 -0.35957131805932896
12639501333.333334 0.9298366275502039 -0.3679726159184958 -6.711620948849024e-17 5.311288182691429e-17 -6.711620948849024e-17 5.311288182691429e-17 0.929836863332046 -0.3679720201165582
12640118666.666666 0.9264802508628348 -0.37634338676397094 -6.661670039546483e-17 5.371142407926266e-17 -6.661670039546483e-17 5.371142407926266e-17 0.926480491996552 -0.3763427931416585
12640736000.0 0.9230485188411787 -0.38468354769205254 -6.611186025604854e-17 5.430527686724029e-17 -6.611186025604854e-17 5.430527686724029e-17 0.9230487653066367 -0.38468295629743227
12641353333.333334 0.9195417106055187 -0.3929924203550425 -6.560173302245551e-17 5.4894392771240135e-17 -6.560173302245551e-17 5.4894392771240135e-17 0.919541962382151 -0.3929918312359953
12641970666.666666 0.9159601113823815 -0.4012693289502878 -6.508636306810475e-17 5.547872478296431e-17 -6.508636306810475e-17 5.547872478296431e-17 0.9159603684491922 -0.40126874215450514
12642588000.0 0.9123040124814434 -0.4095136002748826 -6.456579518379257e-17 5.605822630914162e-17 -6.456579518379257e-17 5.605822630914162e-17 0.912304274817009 -0.40951301584986277
12643205333.333334 0.9085737112718314 -0.4177245637804518 -6.404007457381516e-17 5.66328511752299e-17 -6.404007457381516e-17 5.66328511752299e-17 0.9085739788543009 -0.417723981773495
12643822666.666666 0.9047695111578843 -0.42590155162779186 -6.350924685205314e-17 5.720255362908738e-17 -6.350924685205314e-17 5.720255362908738e-17 0.9047697839649826 -0.4259009720859972
12644440000.0 0.9008917215545376 -0.43404389874106103 -6.297335803803834e-17 5.776728834459135e-17 -6.297335803803834e-17 5.776728834459135e-17 0.900891999563566 -0.43404332171132226
12645057333.333334 0.8969406578621423 -0.4421509428618982 -6.243245455297893e-17 5.832701042523113e-17 -6.243245455297893e-17 5.832701042523113e-17 0.896940941049983 -0.4421503683909008
12645674666.666666 0.8929166414408187 -0.45022202460329097 -6.188658321575447e-17 5.888167540766228e-17 -6.188658321575447e-17 5.888167540766228e-17 0.8929169297839339 -0.4502214527375074
12646292000.0 0.8888199995842239 -0.45825648750338177 -6.133579123886739e-17 5.943123926523523e-17 -6.133579123886739e-17 5.943123926523523e-17 0.8888202930586594 -0.4582559182890685
12646909333.333334 0.8846510654931004 -0.4662536780785335 -6.078012622439747e-17 5.997565841145186e-17 -6.078012622439747e-17 5.997565841145186e-17 0.8846513640744853 -0.4662531115617255
12647526666.666666 0.8804101782480431 -0.47421294587673113 -6.021963615988682e-17 6.051488970342457e-17 -6.021963615988682e-17 6.051488970342457e-17 0.8804104819115957 -0.4742123821032411
12648144000.0 0.8760976827819364 -0.48213364353046384 -5.96543694142126e-17 6.104889044527711e-17 -5.96543694142126e-17 6.104889044527711e-17 0.8760979915024631 -0.4821330825458763
12648761333.333334 0.8717139298519487 -0.49001512680927567 -5.908437473343556e-17 6.157761839150307e-17 -5.908437473343556e-17 6.157761839150307e-17 0.8717142436038475 -0.4900145686589438
12649378666.666666 0.8672592760110075 -0.4978567546721663 -5.850970123661195e-17 6.210103175029195e-17 -5.850970123661195e-17 6.210103175029195e-17 0.8672595947682695 -0.49785619940120857
12649996000.0 0.8627340835787287 -0.5056578893198538 -5.793039841156711e-17 6.261908918682493e-17 -5.793039841156711e-17 6.261908918682493e-17 0.8627344073149402 -0.5056573369731499
12650613333.333334 0.8581387206119883 -0.5134178962465749 -5.734651611065435e-17 6.313174982651791e-17 -5.734651611065435e-17 6.313174982651791e-17 0.8581390493003334 -0.513417346868762
12651230666.666666 0.8534735608750442 -0.5211361442915953 -5.675810454648716e-17 6.363897325822374e-17 -5.675810454648716e-17 6.363897325822374e-17 0.8534738944883072 -0.5211355979270654
12651848000.0 0.8487389838089933 -0.52881200569079 -5.616521428761807e-17 6.414071953741754e-17 -5.616521428761807e-17 6.414071953741754e-17 0.8487393223195605 -0.5288114623836856
12652465333.333334 0.8439353745010362 -0.5364448561274812 -5.556789625422384e-17 6.463694918931126e-17 -5.556789625422384e-17 6.463694918931126e-17 0.8439357178808979 -0.5364443159216915
12653082666.666666 0.8390631236531481 -0.5440340747832447 -5.4966201713747435e-17 6.512762321194308e-17 -5.4966201713747435e-17 6.512762321194308e-17 0.8390634718739017 -0.5440335377224024
12653700000.0 0.8341226275502048 -0.5515790443885458 -5.4360182276493576e-17 6.561270307924118e-17 -5.4360182276493576e-17 6.561270307924118e-17 0.834122980583057 -0.551578510516024
12654317333.333334 0.8291142880278778 -0.5590791512727553 -5.374988989124288e-17 6.609215074401044e-17 -5.374988989124288e-17 6.609215074401044e-17 0.8291146458436465 -0.5590786206316634
12654934666.666666 0.8240385124398555 -0.5665337854142054 -5.3135376840794596e-17 6.656592864091479e-17 -5.3135376840794596e-17 6.656592864091479e-17 0.8240388750089725 -0.5665332580473857
12655552000.0 0.8188957136246944 -0.5739423404898273 -5.2516695737501855e-17 6.703399968940312e-17 -5.2516695737501855e-17 6.703399968940312e-17 0.8188960809172078 -0.5739418164398518
12656169333.333334 0.8136863098723858 -0.5813042139242565 -5.1893899518798876e-17 6.749632729658048e-17 -5.1893899518798876e-17 6.749632729658048e-17 0.8136866818579624 -0.5813036932334229
12656786666.666666 0.808410724890173 -0.5886188069390775 -5.126704144266678e-17 6.795287536006645e-17 -5.126704144266678e-17 6.795287536006645e-17 0.8084111015381011 -0.5886182896494067
12657404000.0 0.8030693877681696 -0.5958855246014081 -5.063617508310265e-17 6.840360827078862e-17 -5.063617508310265e-17 6.840360827078862e-17 0.8030697690473607 -0.5958850107546397
12658021333.333334 0.7976627329444268 -0.603103775872335 -5.0001354325551636e-17 6.884849091574535e-17 -5.0001354325551636e-17 6.884849091574535e-17 0.7976631188234191 -0.6031032655099247
12658638666.666666 0.7921912001696814 -0.6102729736548708 -4.936263336232814e-17 6.928748868071588e-17 -4.936263336232814e-17 6.928748868071588e-17 0.792191590616643 -0.6102724668179876
12659256000.0 0.7866552344714219 -0.6173925348419355 -4.872006668798372e-17 6.972056745294896e-17 -4.872006668798372e-17 6.972056745294896e-17 0.7866556294541518 -0.6173920315714571
12659873333.333334 0.7810552861178425 -0.6244618803635763 -4.807370909468972e-17 7.014769362378261e-17 -4.807370909468972e-17 7.014769362378261e-17 0.7810556856037735 -0.6244613807000863
12660490666.666666 0.7753918105812234 -0.6314804352340697 -4.742361566757913e-17 7.056883409123399e-17 -4.742361566757913e-17 7.056883409123399e-17 0.7753922145374259 -0.6314799392178544
12661108000.0 0.7696652685007086 -0.6384476285989092 -4.676984178004753e-17 7.09839562625575e-17 -4.676984178004753e-17 7.09839562625575e-17 0.7696656768938919 -0.6384471362699543
12661725333.333334 0.7638761256450869 -0.6453628937809257 -4.6112443089070593e-17 7.139302805673476e-17 -4.6112443089070593e-17 7.139302805673476e-17 0.7638765384416034 -0.6453624051789131
12662342666.666666 0.7580248528747137 -0.6522256683266212 -4.5451475530469624e-17 7.179601790694131e-17 -4.5451475530469624e-17 7.179601790694131e-17 0.7580252700405613 -0.6522251834909265
12662960000.0 0.7521119261033028 -0.6590353940518062 -4.478699531416761e-17 7.219289476296119e-17 -4.478699531416761e-17 7.219289476296119e-17 0.7521123476041265 -0.6590349130214942
12663577333.333334 0.7461378262591987 -0.6657915170870204 -4.411905891942285e-17 7.258362809355978e-17 -4.411905891942285e-17 7.258362809355978e-17 0.7461382520602954 -0.6657910399008432
12664194666.666666 0.7401030392462632 -0.6724934879225845 -4.3447723090041715e-17 7.296818788881201e-17 -4.3447723090041715e-17 7.296818788881201e-17 0.7401034693125819 -0.6724930146189767
12664812000.0 0.7340080559043505 -0.6791407614532907 -4.277304482957176e-17 7.334654466238728e-17 -4.277304482957176e-17 7.334654466238728e-17 0.7340084902004976 -0.6791402920703681
12665429333.333334 0.7278533719693671 -0.685732797022762 -4.209508139647267e-17 7.371866945379038e-17 -4.209508139647267e-17 7.371866945379038e-17 0.7278538104596091 -0.6857323315983184
12666046666.666666 0.7216394880330508 -0.6922690584673244 -4.141389029928083e-17 7.40845338305516e-17 -4.141389029928083e-17 7.40845338305516e-17 0.7216399306813152 -0.6922685970388264
12666664000.0 0.715366909502035 -0.6987490141598378 -4.072952929172127e-17 7.444410989039047e-17 -4.072952929172127e-17 7.444410989039047e-17 0.7153673562719163 -0.6987485567644258
12667281333.333334 0.7090361465570216 -0.705172137052655 -4.004205636785404e-17 7.479737026330607e-17 -4.004205636785404e-17 7.479737026330607e-17 0.7090365974117808 -0.7051716837271351
12667898666.666666 0.7026477141110844 -0.7115379047206885 -3.9351529757151706e-17 7.514428811364982e-17 -3.9351529757151706e-17 7.514428811364982e-17 0.7026481690136549 -0.7115374555015334
12668516000.0 0.6962021317677886 -0.7178457994039017 -3.865800791958033e-17 7.548483714214148e-17 -3.865800791958033e-17 7.548483714214148e-17 0.6962025906807784 -0.7178453543272472
12669133333.333334 0.6896999237791107 -0.7240953080492432 -3.796154954068278e-17 7.581899158783052e-17 -3.796154954068278e-17 7.581899158783052e-17 0.6897003866648053 -0.7240948671508841
12669750666.666666 0.6831416190025964 -0.7302859223525737 -3.7262213526604406e-17 7.614672623003262e-17 -3.7262213526604406e-17 7.614672623003262e-17 0.6831420858229619 -0.730285485667962
12670368000.0 0.6765277508584275 -0.7364171387999306 -3.656005899913243e-17 7.646801639020557e-17 -3.656005899913243e-17 7.646801639020557e-17 0.6765282215751126 -0.736416706364171
