! Parameters = {f0=12700.012000; bw=77.238000; Q=6100.000000; N=10; m_0_1=1.269965; m_1_1=0.284729; m_1_2=1.104777; m_2_2=0.284080; m_2_3=0.741740; m_2_8=0.000562; m_2_9=0.037266; m_3_3=0.282143; m_3_4=0.630269; m_3_7=0.001162; m_3_8=-0.095926; m_3_9=0.000562; m_4_4=0.279218; m_4_5=0.466604; m_4_6=0.004679; m_4_7=-0.116475; m_4_8=0.001162; m_5_5=0.279600; m_5_6=0.873959; m_5_7=0.004679; m_6_6=0.279599; m_6_7=0.466946; m_7_7=0.279232; m_7_8=0.630387; m_8_8=0.282141; m_8_9=0.742053; m_9_9=0.284075; m_9_10=1.105855; m_10_10=0.284719; m_10_11=1.270760}
!
! Created with skrf (http://scikit-rf.org).
# Hz S RI R 50.0 
!freq ReS11 ImS11 ReS21 ImS21 ReS12 ImS12 ReS22 ImS22
12607400000.0 0.7058360290585921 0.7083752537198212 -9.709006176885828e-17 -5.2937794352559175e-17 -9.709006176885828e-17 -5.2937794352559175e-17 0.7058355550894211 0.7083757259896983
12608017333.333334 0.7132502817318029 0.7009094346699347 -9.762716544759334e-17 -5.1894485481032506e-17 -9.762716544759334e-17 -5.1894485481032506e-17 0.7132498127809197 0.7009099118772727
12608634666.666666 0.7205855707521576 0.6933660182209755 -9.815306690082189e-17 -5.08457423583688e-17 -9.815306690082189e-17 -5.08457423583688e-17 0.7205851068709863 0.693366500312463
12609252000.0 0.7278410840328057 0.685745839501614 -9.866771131424683e-17 -4.9791685171163e-17 -9.866771131424683e-17 -4.9791685171163e-17 0.7278406252722031 0.6857463264234026
12609869333.333334 0.7350160183188763 0.6780497421387972 -9.91710451620431e-17 -4.87324346570481e-17 -9.91710451620431e-17 -4.87324346570481e-17 0.7350155647291273 0.6780502338365094
12610486666.666666 0.742109579276289 0.670278578164476 -9.96630162123685e-17 -4.766811209090933e-17 -9.96630162123685e-17 -4.766811209090933e-17 0.7421091309071031 0.6702790745832126
12611104000.0 0.7491209815799104 0.662433207921051 -1.0014357353275479e-16 -4.659883927098381e-17 -1.0014357353275479e-16 -4.659883927098381e-17 0.7491205384804116 0.6624337090053929
12611721333.333334 0.7560494490002226 0.6545144999664121 -1.006126674953039e-16 -4.5524738505006145e-17 -1.006126674953039e-16 -4.5524738505006145e-17 0.7560490112189482 0.6545150056604306
12612338666.666666 0.7628942144894557 0.6465233309775753 -1.0107024978178035e-16 -4.4445932596205377e-17 -1.0107024978178035e-16 -4.4445932596205377e-17 0.7628937820743493 0.646523841224837
12612956000.0 0.7696545202665014 0.6384605856536216 -1.015162733885345e-16 -4.3362544829294464e-17 -1.015162733885345e-16 -4.3362544829294464e-17 0.7696540932649079 0.6384611003971942
12613573333.333334 0.7763296179006419 0.6303271566179472 -1.0195069263126579e-16 -4.227469895643387e-17 -1.0195069263126579e-16 -4.227469895643387e-17 0.7763291963593026 0.6303276758004065
12614190666.666666 0.7829187683945956 0.6221239443192277 -1.0237346314966014e-16 -4.118251918309385e-17 -1.0237346314966014e-16 -4.118251918309385e-17 0.7829183523596419 0.6221244678826631
12614808000.0 0.789421242266234 0.6138518569318342 -1.0278454191185701e-16 -4.0086130153913926e-17 -1.0278454191185701e-16 -4.0086130153913926e-17 0.7894208317831836 0.6138523848178562
12615425333.333334 0.795836319629346 0.6055118102552925 -1.0318388721877317e-16 -3.898565693850154e-17 -1.0318388721877317e-16 -3.898565693850154e-17 0.7958359147430989 0.6055123424050398
12616042666.666666 0.8021632902734073 0.5971047276128066 -1.0357145870827274e-16 -3.7881225017194296e-17 -1.0357145870827274e-16 -3.7881225017194296e-17 0.8021628910282382 0.5971052639669506
12616660000.0 0.8084014537421014 0.5886315397491715 -1.0394721735919007e-16 -3.6772960266766616e-17 -1.0394721735919007e-16 -3.6772960266766616e-17 0.808401060181656 0.5886320802479236
12617277333.333334 0.8145501194109519 0.5800931847276165 -1.0431112549519036e-16 -3.566098894612397e-17 -1.0431112549519036e-16 -3.566098894612397e-17 0.8145497315782423 0.5800937293107356
12617894666.666666 0.8206086065636823 0.5714906078260921 -1.0466314678848285e-16 -3.4545437681948177e-17 -1.0466314678848285e-16 -3.4545437681948177e-17 0.8206082245010832 0.5714911564328911
12618512000.0 0.8265762444677599 0.5628247614323645 -1.0500324626339066e-16 -3.342643345427398e-17 -1.0500324626339066e-16 -3.342643345427398e-17 0.8265758682170029 0.5628253140017171
12619129333.333334 0.8324523724484221 0.5540966049389016 -1.0533139029974419e-16 -3.230410358210304e-17 -1.0533139029974419e-16 -3.230410358210304e-17 0.8324520020505911 0.5540971614092479
12619746666.666666 0.8382363399619831 0.545307104636426 -1.0564754663614346e-16 -3.1178575708913846e-17 -1.0564754663614346e-16 -3.1178575708913846e-17 0.8382359754575098 0.545307664945781
12620364000.0 0.843927506667852 0.5364572336069362 -1.059516843730566e-16 -3.004997778817059e-17 -1.059516843730566e-16 -3.004997778817059e-17 0.8439271480965124 0.5364577976928957
12620981333.333334 0.8495252424992843 0.5275479716161898 -1.0624377397575653e-16 -2.8918438068829937e-17 -1.0624377397575653e-16 -2.8918438068829937e-17 0.849524889900193 0.5275485394159377
12621598666.666666 0.8550289277332941 0.518580305004999 -1.0652378727711848e-16 -2.7784085080766146e-17 -1.0652378727711848e-16 -2.7784085080766146e-17 0.8550285811449012 0.5185808764553141
12622216000.0 0.8604379530591835 0.5095552265801493 -1.0679169748025323e-16 -2.664704762020018e-17 -1.0679169748025323e-16 -2.664704762020018e-17 0.8604376125192693 0.5095558016174122
12622833333.333334 0.8657517196460293 0.5004737355044392 -1.0704747916098379e-16 -2.5507454735113854e-17 -1.0704747916098379e-16 -2.5507454735113854e-17 0.8657513851917025 0.5004743140646408
12623450666.666666 0.8709696392089099 0.49133683718618676 -1.0729110827016938e-16 -2.4365435710629194e-17 -1.0729110827016938e-16 -2.4365435710629194e-17 0.8709693108766005 0.49133741920493323
12624068000.0 0.8760911340741611 0.4821455431676993 -1.0752256213587698e-16 -2.3221120054354695e-17 -1.0752256213587698e-16 -2.3221120054354695e-17 0.8760908118996171 0.48214612858022016
12624685333.333334 0.8811156372432543 0.47290087101340683 -1.0774181946539401e-16 -2.2074637481721194e-17 -1.0774181946539401e-16 -2.2074637481721194e-17 0.8811153212615405 0.47290145975456277
12625302666.666666 0.8860425924554942 0.4636038441973607 -1.0794886034707922e-16 -2.0926117901334072e-17 -1.0794886034707922e-16 -2.0926117901334072e-17 0.886042282700986 0.46360443620165054
12625920000.0 0.8908714542497892 0.4542554919895749 -1.0814366625207187e-16 -1.9775691400232603e-17 -1.0814366625207187e-16 -1.9775691400232603e-17 0.8908711507561674 0.45425608719114147
12626537333.333334 0.8956016880248475 0.4448568493424239 -1.0832622003582803e-16 -1.8623488229224064e-17 -1.0832622003582803e-16 -1.8623488229224064e-17 0.8956013908250992 0.44485744767506386
12627154666.666666 0.9002327700984513 0.43540895677591807 -1.0849650593951183e-16 -1.7469638788146898e-17 -1.0849650593951183e-16 -1.7469638788146898e-17 0.9002324792248617 0.4354095581730871
12627772000.0 0.9047641877655015 0.4259128602623512 -1.086545095912311e-16 -1.6314273611107172e-17 -1.086545095912311e-16 -1.6314273611107172e-17 0.904763903249653 0.42591346465717234
12628389333.333334 0.9091954393546066 0.4163696111108596 -1.0880021800710337e-16 -1.515752335179848e-17 -1.0880021800710337e-16 -1.515752335179848e-17 0.9091951612273751 0.41637021843613103
12629006666.666666 0.9135260342838075 0.4067802658506487 -1.0893361959218245e-16 -1.399951876869357e-17 -1.0893361959218245e-16 -1.399951876869357e-17 0.9135257625753583 0.4067808760388505
12629624000.0 0.9177554931147547 0.3971458861143063 -1.0905470414121513e-16 -1.2840390710325843e-17 -1.0905470414121513e-16 -1.2840390710325843e-17 0.9177552278545394 0.39714649909760813
12630241333.333334 0.9218833476058598 0.3874675385201165 -1.0916346283924882e-16 -1.1680270100510814e-17 -1.0916346283924882e-16 -1.1680270100510814e-17 0.9218830888226133 0.3874681542303852
12630858666.666666 0.925909140764054 0.377746294554156 -1.0925988826207777e-16 -1.0519287923601977e-17 -1.0925988826207777e-16 -1.0519287923601977e-17 0.9259088884857923 0.37774691292296353
12631476000.0 0.9298324268955485 0.36798323045127823 -1.0934397437653784e-16 -9.357575209692915e-18 -1.0934397437653784e-16 -9.357575209692915e-18 0.9298321811495636 0.36798385140990864
12632093333.333334 0.9336527716549669 0.35817942707646183 -1.0941571654063859e-16 -8.19526301989462e-18 -1.0941571654063859e-16 -8.19526301989462e-18 0.9336525324678253 0.3581800505559193
12632710666.666666 0.9373697520935451 0.34833596980488707 -1.0947511150354293e-16 -7.032482431559097e-18 -1.0947511150354293e-16 -7.032482431559097e-18 0.9373695194910845 0.3483365957359032
12633328000.0 0.9409829567059895 0.3384539484016662 -1.0952215740539069e-16 -5.8693645234944634e-18 -1.0952215740539069e-16 -5.8693645234944634e-18 0.9409827307133176 0.33845457671470863
12633945333.333334 0.9444919854759501 0.32853445690143707 -1.0955685377696172e-16 -4.706040361260365e-18 -1.0955685377696172e-16 -4.706040361260365e-18 0.9444917661174382 0.32853508752671573
12634562666.666666 0.9478964499203488 0.31857859348710726 -1.0957920153918642e-16 -3.542640982395923e-18 -1.0957920153918642e-16 -3.542640982395923e-18 0.9478962372196333 0.31857922635458374
12635180000.0 0.9511959731323846 0.30858746036830437 -1.0958920300249862e-16 -2.3792973816908448e-18 -1.0958920300249862e-16 -2.3792973816908448e-18 0.9511957671123613 0.30858809540769827
12635797333.333334 0.9543901898232655 0.29856216365932114 -1.0958686186603262e-16 -1.2161404964577785e-18 -1.0958686186603262e-16 -1.2161404964577785e-18 0.9543899905060892 0.29856280080011877
12636414666.666666 0.9574787463626172 0.28850381325676816 -1.0957218321666385e-16 -5.330119183243778e-20 -1.0957218321666385e-16 -5.330119183243778e-20 0.9574785537696976 0.28850445242823
12637032000.0 0.9604613008176824 0.2784135227165338 -1.0954517352789443e-16 1.109089753943535e-18 -1.0954517352789443e-16 1.109089753943535e-18 0.960461114969684 0.27841416384770246
12637649333.333334 0.963337522991146 0.2682924091306124 -1.0950584065858307e-16 2.2709016641930466e-18 -1.0950584065858307e-16 2.2709016641930466e-18 0.963337343907984 0.2682930521503207
12638266666.666666 0.966107094457688 0.2581415930034311 -1.0945419385151863e-16 3.432003978469317e-18 -1.0945419385151863e-16 3.432003978469317e-18 0.9661069221585268 0.2581422378403095
12638884000.0 0.9687697085992676 0.24796219812768955 -1.0939024373183949e-16 4.5922662672152874e-18 -1.0939024373183949e-16 4.5922662672152874e-18 0.9687695431025183 0.24796284471017427
12639501333.333334 0.9713250706390303 0.2377553514600822 -1.0931400230529826e-16 5.751558246374572e-18 -1.0931400230529826e-16 5.751558246374572e-18 0.9713249119623504 0.2377559997164236
12640118666.666666 0.9737728976739344 0.2275221829965901 -1.0922548295637195e-16 6.9097497919897135e-18 -1.0922548295637195e-16 6.9097497919897135e-18 0.9737727458342237 0.2275228328548599
12640736000.0 0.9761129187061659 0.21726382564696373 -1.0912470044621338e-16 8.066710954829388e-18 -1.0912470044621338e-16 8.066710954829388e-18 0.976112773719566 0.21726447703506344
12641353333.333334 0.9783448746729864 0.20698141510996326 -1.0901167091045857e-16 9.222311974869358e-18 -1.0901167091045857e-16 9.222311974869358e-18 0.9783447365548783 0.20698206795563204
12641970666.666666 0.9804685184755485 0.1966760897470449 -1.0888641185686839e-16 1.0376423295885955e-17 -1.0888641185686839e-16 1.0376423295885955e-17 0.9804683872405517 0.19667674397786764
12642588000.0 0.9824836150061881 0.18634899045660958 -1.0874894216282498e-16 1.1528915579924834e-17 -1.0874894216282498e-16 1.1528915579924834e-17 0.9824834906681584 0.18634964600002488
12643205333.333334 0.9843899411744594 0.1760012605476676 -1.0859928207267296e-16 1.267965972177057e-17 -1.0859928207267296e-16 1.267965972177057e-17 0.9843898237464894 0.1760019173309761
12643822666.666666 0.9861872859318586 0.16563404561315176 -1.0843745319490404e-16 1.382852686340906e-17 -1.0843745319490404e-16 1.382852686340906e-17 0.9861871754262718 0.16563470356352344
12644440000.0 0.9878754502951538 0.1552484934032279 -1.0826347849919649e-16 1.497538840839778e-17 -1.0826347849919649e-16 1.497538840839778e-17 0.9878753467235081 0.15524915244771106
12645057333.333334 0.9894542473684292 0.1448457536982013 -1.0807738231329758e-16 1.6120116036250537e-17 -1.0807738231329758e-16 1.6120116036250537e-17 0.9894541507415138 0.14484641376373017
12645674666.666666 0.9909235023637699 0.13442697818125277 -1.0787919031975573e-16 1.72625817167669e-17 -1.0787919031975573e-16 1.72625817167669e-17 0.9909234126916046 0.13442763919465578
12646292000.0 0.9922830526206611 0.12399332031059872 -1.0766892955249734e-16 1.840265772434787e-17 -1.0766892955249734e-16 1.840265772434787e-17 0.9922829699124921 0.12399398219860609
12646909333.333334 0.9935327476238984 0.11354593519246733 -1.0744662839326399e-16 1.9540216652210584e-17 -1.0744662839326399e-16 1.9540216652210584e-17 0.993532671888203 0.11354659788172006
12647526666.666666 0.9946724490203472 0.10308597945254187 -1.0721231656788722e-16 2.0675131426631922e-17 -1.0721231656788722e-16 2.0675131426631922e-17 0.9946723802648287 0.1030866428695992
12648144000.0 0.995702030634211 0.09261461110824878 -1.0696602514241815e-16 2.1807275321115262e-17 -1.0696602514241815e-16 2.1807275321115262e-17 0.9957019688658006 0.09261527517959674
12648761333.333334 0.9966213784810092 0.08213298944052633 -1.067077865191116e-16 2.2936521970503837e-17 -1.067077865191116e-16 2.2936521970503837e-17 0.9966213237058617 0.08213365409258545
12649378666.666666 0.9974303907801888 0.07164227486550903 -1.0643763443225835e-16 2.406274538505684e-17 -1.0643763443225835e-16 2.406274538505684e-17 0.9974303430036852 0.07164294002464286
12649996000.0 0.9981289779664094 0.0611436288059173 -1.0615560394386308e-16 2.5185819964508186e-17 -1.0615560394386308e-16 2.5185819964508186e-17 0.998128937193157 0.06114429439844054
12650613333.333334 0.9987170626994499 0.05063821356256151 -1.0586173143918637e-16 2.6305620512021423e-17 -1.0586173143918637e-16 2.6305620512021423e-17 0.9987170289332783 0.05063887951474794
12651230666.666666 0.9991945798727646 0.04012719218577777 -1.0555605462213405e-16 2.7422022248121144e-17 -1.0555605462213405e-16 2.7422022248121144e-17 0.9991945531167279 0.040127858423868575
12651848000.0 0.9995614766207058 0.02961172834638314 -1.0523861251049252e-16 2.8534900824598896e-17 -1.0523861251049252e-16 2.8534900824598896e-17 0.9995614568770819 0.029612394796595092
12652465333.333334 0.9998177123243612 0.019092986207101665 -1.0490944543103179e-16 2.96441323383111e-17 -1.0490944543103179e-16 2.96441323383111e-17 0.9998176995946535 0.019093652795635265
12653082666.666666 0.9999632586160618 0.008572130293709004 -1.0456859501445756e-16 3.074959334494881e-17 -1.0456859501445756e-16 3.074959334494881e-17 0.9999632529009924 0.00857279694675656
12653700000.0 0.9999980993825157 -0.0019496746343182151 -1.0421610419020784e-16 3.185116087277977e-17 -1.0421610419020784e-16 3.185116087277977e-17 0.9999981006820349 -0.0019490079905642704
12654317333.333334 0.9999222307665977 -0.012471263712041818 -1.0385201718112842e-16 3.2948712436261027e-17 -1.0385201718112842e-16 3.2948712436261027e-17 0.9999222390798763 -0.012470597151380845
12654934666.666666 0.999735661167771 -0.022991472098705976 -1.0347637949798274e-16 3.404212604965937e-17 -1.0347637949798274e-16 3.404212604965937e-17 0.9997356764932034 -0.0229908056949209
12655552000.0 0.9994384112411568 -0.03350913510638351 -1.0308923793382427e-16 3.51312802405956e-17 -1.0308923793382427e-16 3.51312802405956e-17 0.9994384335763634 -0.033508468933232734
12656169333.333334 0.9990305138952555 -0.04402308832880445 -1.0269064055824485e-16 3.621605406346976e-17 -1.0269064055824485e-16 3.621605406346976e-17 0.9990305432370808 -0.04402242246001368
12656786666.666666 0.9985120142882967 -0.054532167770522784 -1.0228063671145353e-16 3.729632711290717e-17 -1.0228063671145353e-16 3.729632711290717e-17 0.9985120506328081 -0.05453150227977677
12657404000.0 0.9978829698232401 -0.06503520997563972 -1.0185927699823433e-16 3.8371979537079586e-17 -1.0185927699823433e-16 3.8371979537079586e-17 0.9978830131657302 -0.06503454493657415
12658021333.333334 0.9971434501414185 -0.0755310521566661 -1.014266132817558e-16 3.944289205098235e-17 -1.014266132817558e-16 3.944289205098235e-17 0.9971435004764078 -0.07553038764285959
12658638666.666666 0.9962935371148411 -0.08601853232311266 -1.0098269867725009e-16 4.050894594962258e-17 -1.0098269867725009e-16 4.050894594962258e-17 0.9962935944360757 -0.08601786840807848
12659256000.0 0.9953333248371065 -0.09649648941041679 -1.0052758754553496e-16 4.1570023121179656e-17 -1.0052758754553496e-16 4.1570023121179656e-17 0.9953333891375586 -0.09649582616759472
12659873333.333334 0.9942629196130031 -0.10696376340822841 -1.000613354864215e-16 4.2626006060039644e-17 -1.000613354864215e-16 4.2626006060039644e-17 0.9942629908848732 -0.10696310091097656
12660490666.666666 0.9930824399467483 -0.1174191954888063 -9.958399933197532e-17 4.36767778797794e-17 -9.958399933197532e-17 4.36767778797794e-17 0.9930825181814662 -0.11741853381039316
12661108000.0 0.9917920165288201 -0.127861628135735 -9.909563713962293e-17 4.4722222326118265e-17 -9.909563713962293e-17 4.4722222326118265e-17 0.9917921017170476 -0.1278609673493315
12661725333.333334 0.9903917922215737 -0.13828990527136767 -9.859630818516557e-17 4.576222378969748e-17 -9.859630818516557e-17 4.576222378969748e-17 0.9903918843532008 -0.13828924545003848
12662342666.666666 0.9888819220433357 -0.1487028723855197 -9.80860729556146e-17 4.6796667318880876e-17 -9.80860729556146e-17 4.6796667318880876e-17 0.9888820211074858 -0.1487022136022157
12662960000.0 0.9872625731512985 -0.1590993766628331 -9.756499314191989e-17 4.7825438632417355e-17 -9.756499314191989e-17 4.7825438632417355e-17 0.9872626791363301 -0.1590987189903833
12663577333.333334 0.9855339248229975 -0.16947826711057365 -9.703313163155666e-17 4.8848424132042645e-17 -9.703313163155666e-17 4.8848424132042645e-17 0.9855340377165022 -0.16947761062167677
12664194666.666666 0.9836961684364626 -0.1798383946860283 -9.649055250098245e-17 4.9865510914996786e-17 -9.649055250098245e-17 4.9865510914996786e-17 0.9836962882252692 -0.17983773945324505
12664812000.0 0.9817495074490312 -0.19017861242371514 -9.593732100796206e-17 5.087658678645793e-17 -9.593732100796206e-17 5.087658678645793e-17 0.9817496341192065 -0.19017795851946012
12665429333.333334 0.979694157374819 -0.20049777556239162 -9.537350358376218e-17 5.188154027189483e-17 -9.537350358376218e-17 5.188154027189483e-17 0.9796942909116697 -0.20049712305892534
12666046666.666666 0.9775303457608909 -0.21079474167165155 -9.479916782522737e-17 5.28802606293146e-17 -9.479916782522737e-17 5.28802606293146e-17 0.9775304861489631 -0.21079409064107205
12666664000.0 0.975258312162 -0.22106837077870833 -9.421438248669547e-17 5.387263786147926e-17 -9.421438248669547e-17 5.387263786147926e-17 0.9752584593850856 -0.2210677212929441
12667281333.333334 0.9728783081141547 -0.23131752549421258 -9.361921747184008e-17 5.4858562727940316e-17 -9.361921747184008e-17 5.4858562727940316e-17 0.9728784621552886 -0.23131687762501368
12667898666.666666 0.970390597106709 -0.2415410711384493 -9.301374382533432e-17 5.583792675707436e-17 -9.301374382533432e-17 5.583792675707436e-17 0.9703907579481745 -0.2415404249573803
12668516000.0 0.967795454553191 -0.25173787586695806 -9.239803372441276e-17 5.681062225798728e-17 -9.239803372441276e-17 5.681062225798728e-17 0.9677956221765192 -0.2517372314453891
12669133333.333334 0.9650931677608766 -0.2619068107955617 -9.177216047032187e-17 5.777654233230496e-17 -9.177216047032187e-17 5.777654233230496e-17 0.9650933421468499 -0.26190616820466167
12669750666.666666 0.9622840358988884 -0.2720467501257318 -9.1136198479617e-17 5.873558088592048e-17 -9.1136198479617e-17 5.873558088592048e-17 0.9622842170275425 -0.27204610943645974
