! Parameters = {f0=12700.012000; bw=77.238000; Q=6100.000000; N=10; m_0_1=1.295791; m_1_1=0.672116; m_1_2=1.130603; m_2_2=0.671467; m_2_3=0.767566; m_2_8=0.001853; m_2_9=0.038557; m_3_3=0.669530; m_3_4=0.656095; m_3_7=0.002453; m_3_8=-0.094635; m_3_9=0.001853; m_4_4=0.666605; m_4_5=0.492430; m_4_6=0.005970; m_4_7=-0.115184; m_4_8=0.002453; m_5_5=0.666987; m_5_6=0.899785; m_5_7=0.005970; m_6_6=0.666986; m_6_7=0.492772; m_7_7=0.666619; m_7_8=0.656213; m_8_8=0.669528; m_8_9=0.767879; m_9_9=0.671462; m_9_10=1.131681; m_10_10=0.672106; m_10_11=1.296586}
!
! Created with skrf (http://scikit-rf.org).
# Hz S RI R 50.0 
!freq ReS11 ImS11 ReS21 ImS21 ReS12 ImS12 ReS22 ImS22
12607400000.0 -0.6272150069746775 -0.7788461561987521 1.0259041281726094e-16 7.091345694452725e-17 1.0259041281726094e-16 7.091345694452725e-17 -0.6272144752939037 -0.7788465843679416
12608017333.333334 -0.6359644629415186 -0.771718343617231 1.0337008904950134e-16 6.972836701446057e-17 1.0337008904950134e-16 6.972836701446057e-17 -0.6359639361523474 -0.7717187777379975
12608634666.666666 -0.6446329233042177 -0.7644922459986593 1.0413608680711406e-16 6.853472027356338e-17 1.0413608680711406e-16 6.853472027356338e-17 -0.6446324014732588 -0.7644926860151349
12609252000.0 -0.6532192840590615 -0.7571687836494473 1.0488831236284197e-16 6.733267447390357e-17 1.0488831236284197e-16 6.733267447390357e-17 -0.6532187672522853 -0.7571692295050166
12609869333.333334 -0.6617224516584569 -0.7497488892762284 1.0562667380733251e-16 6.612238839205802e-17 1.0562667380733251e-16 6.612238839205802e-17 -0.6617219399411881 -0.7497493409135391
12610486666.666666 -0.6701413431500981 -0.7422335078671666 1.063510810603136e-16 6.490402180817671e-17 1.063510810603136e-16 6.490402180817671e-17 -0.6701408365870076 -0.742233965228136
12611104000.0 -0.6784748863151463 -0.7346235965713779 1.0706144588153797e-16 6.367773548490629e-17 1.0706144588153797e-16 6.367773548490629e-17 -0.678474384970241 -0.7346240595971992
12611721333.333334 -0.6867220198044026 -0.7269201245773697 1.0775768188145083e-16 6.24436911462564e-17 1.0775768188145083e-16 6.24436911462564e-17 -0.6867215237410192 -0.7269205932085211
12612338666.666666 -0.6948816932738004 -0.719124072989323 1.0843970453165381e-16 6.120205145627921e-17 1.0843970453165381e-16 6.120205145627921e-17 -0.6948812025545973 -0.7191245471655748
12612956000.0 -0.7029528675181885 -0.7112364347021131 1.0910743117510718e-16 5.99529799976667e-17 1.0910743117510718e-16 5.99529799976667e-17 -0.7029523822051366 -0.7112369143625348
12613573333.333334 -0.7109345146033175 -0.7032582142752135 1.0976078103607072e-16 5.869664125026538e-17 1.0976078103607072e-16 5.869664125026538e-17 -0.7109340347576936 -0.7032586993581824
12614190666.666666 -0.718825617997165 -0.6951904278043614 1.1039967522982944e-16 5.743320056942429e-17 1.1039967522982944e-16 5.743320056942429e-17 -0.7188251436795435 -0.6951909182475704
12614808000.0 -0.7266251726991938 -0.6870341027923457 1.1102403677214594e-16 5.616282416428524e-17 1.1102403677214594e-16 5.616282416428524e-17 -0.7266247039694393 -0.687034598532811
12615425333.333334 -0.7343321853683907 -0.6787902780181081 1.1163379058847338e-16 5.488567907595216e-17 1.1163379058847338e-16 5.488567907595216e-17 -0.73433172228565 -0.6787907789921774
12616042666.666666 -0.7419456744497748 -0.6704600034044429 1.122288635229161e-16 5.3601933155564676e-17 1.122288635229161e-16 5.3601933155564676e-17 -0.7419452170724701 -0.670460509547804
12616660000.0 -0.7494646702994089 -0.6620443398842826 1.1280918434693894e-16 5.2311755042275646e-17 1.1280918434693894e-16 5.2311755042275646e-17 -0.7494642186852304 -0.662044851131971
12617277333.333334 -0.7568882153079278 -0.6535443592655342 1.1337468376782638e-16 5.1015314141128664e-17 1.1337468376782638e-16 5.1015314141128664e-17 -0.7568877695138252 -0.6535448755519416
12617894666.666666 -0.7642153640223128 -0.6449611440947906 1.1392529443687302e-16 4.971278060088109e-17 1.1392529443687302e-16 4.971278060088109e-17 -0.7642149241044902 -0.6449616653536739
12618512000.0 -0.7714451832667122 -0.6362957875189856 1.1446095095735582e-16 4.840432529165536e-17 1.1446095095735582e-16 4.840432529165536e-17 -0.771444749280619 -0.6362963136834748
12619129333.333334 -0.7785767522607708 -0.6275493931467766 1.1498158989220172e-16 4.709011978261892e-17 1.1498158989220172e-16 4.709011978261892e-17 -0.7785763242610959 -0.6275499241493832
12619746666.666666 -0.7856091627372873 -0.6187230749075359 1.1548714977143988e-16 4.5770336319488955e-17 1.1548714977143988e-16 4.5770336319488955e-17 -0.7856087407779521 -0.6187236106801622
12620364000.0 -0.7925415190577931 -0.609817956909587 1.159775710993796e-16 4.444514780199328e-17 1.159775710993796e-16 4.444514780199328e-17 -0.7925411031919444 -0.6098184973835348
12620981333.333334 -0.7993729383264828 -0.6008351732972211 1.1645279636152123e-16 4.311472776128612e-17 1.1645279636152123e-16 4.311472776128612e-17 -0.799372528606486 -0.6008357184031996
12621598666.666666 -0.8061025505028324 -0.5917758681060294 1.1691277003123047e-16 4.177925033722785e-17 1.1691277003123047e-16 4.177925033722785e-17 -0.8061021469802652 -0.5917764177741649
12622216000.0 -0.8127294985123199 -0.5826411951173123 1.1735743857613492e-16 4.043889025564457e-17 1.1735743857613492e-16 4.043889025564457e-17 -0.8127291012379652 -0.5826417492771567
12622833333.333334 -0.8192529383556294 -0.5734323177110656 1.177867504642689e-16 3.909382280549778e-17 1.177867504642689e-16 3.909382280549778e-17 -0.8192525473794706 -0.5734328762916064
12623450666.666666 -0.8256720392160133 -0.5641504087180007 1.1820065616995025e-16 3.774422381601012e-17 1.1820065616995025e-16 3.774422381601012e-17 -0.8256716545872259 -0.564150971647669
12624068000.0 -0.8319859835652835 -0.5547966502699201 1.1859910817940555e-16 3.6390269633699993e-17 1.1859910817940555e-16 3.6390269633699993e-17 -0.8319856053322311 -0.5547972174766003
12624685333.333334 -0.83819396726788 -0.5453722336492289 1.1898206099612867e-16 3.5032137099368234e-17 1.1898206099612867e-16 3.5032137099368234e-17 -0.8381935954781049 -0.545372805060267
12625302666.666666 -0.8442951996831407 -0.5358783591374284 1.1934947114596133e-16 3.3670003525087744e-17 1.1934947114596133e-16 3.3670003525087744e-17 -0.8442948343833615 -0.5358789346796429
12625920000.0 -0.8502889037662343 -0.5263162358618945 1.1970129718194804e-16 3.2304046671001816e-17 1.1970129718194804e-16 3.2304046671001816e-17 -0.8502885450023385 -0.5263168154615846
12626537333.333334 -0.8561743161669041 -0.5166870816422172 1.2003749968887706e-16 3.09344447222571e-17 1.2003749968887706e-16 3.09344447222571e-17 -0.8561739639839422 -0.516687665225173
12627154666.666666 -0.8619506873267847 -0.506992122834961 1.2035804128759896e-16 2.9561376265737903e-17 1.2035804128759896e-16 2.9561376265737903e-17 -0.8619503417689646 -0.5069927103264724
12627772000.0 -0.8676172815749619 -0.49723259417730314 1.2066288663906393e-16 2.8185020266811535e-17 1.2066288663906393e-16 2.8185020266811535e-17 -0.8676169426856429 -0.49723318550216916
12628389333.333334 -0.8731733772213929 -0.4874097386302449 1.2095200244808344e-16 2.6805556046082122e-17 1.2095200244808344e-16 2.6805556046082122e-17 -0.8731730450430827 -0.48741033371278464
12629006666.666666 -0.8786182666491928 -0.4775248072196717 1.2122535746684866e-16 2.5423163256011547e-17 1.2122535746684866e-16 2.5423163256011547e-17 -0.8786179412235382 -0.47752540598373217
12629624000.0 -0.8839512564044008 -0.46757905887763934 1.2148292249816207e-16 2.4038021857595858e-17 1.2148292249816207e-16 2.4038021857595858e-17 -0.8839509377721853 -0.46757966124660655
12630241333.333334 -0.8891716672845332 -0.4575737602816173 1.2172467039841596e-16 2.2650312096952436e-17 1.2172467039841596e-16 2.2650312096952436e-17 -0.8891713554856729 -0.4575743661784264
12630858666.666666 -0.894278834424944 -0.4475101856934434 1.2195057608029584e-16 2.1260214481920908e-17 1.2195057608029584e-16 2.1260214481920908e-17 -0.8942785294984776 -0.44751079504058633
12631476000.0 -0.8992721073836486 -0.43738961679672944 1.221606165152271e-16 1.9867909758580414e-17 1.221606165152271e-16 1.9867909758580414e-17 -0.8992718093677374 -0.43739022951626694
12632093333.333334 -0.9041508502239995 -0.42721334253395765 1.2235477073554094e-16 1.8473578887825023e-17 1.2235477073554094e-16 1.8473578887825023e-17 -0.9041505591559226 -0.4272139585475294
12632710666.666666 -0.9089144415957603 -0.4169826589421734 1.225330198363825e-16 1.7077403021872165e-17 1.225330198363825e-16 1.7077403021872165e-17 -0.9089141575119062 -0.41698327817100656
12633328000.0 -0.9135622748142942 -0.4066988689877924 1.226953469773535e-16 1.5679563480723773e-17 1.226953469773535e-16 1.5679563480723773e-17 -0.9135619977501593 -0.4066994913527123
12633945333.333334 -0.9180937579377233 -0.3963632824008877 1.2284173738387773e-16 1.4280241728698862e-17 1.2284173738387773e-16 1.4280241728698862e-17 -0.9180934879279071 -0.3963639078223286
12634562666.666666 -0.9225083138423901 -0.3859772155082313 1.2297217834830617e-16 1.2879619350890157e-17 1.2297217834830617e-16 1.2879619350890157e-17 -0.9225080509205886 -0.38597784390624507
12635180000.0 -0.9268053802963007 -0.3755419910657765 1.2308665923075277e-16 1.1477878029638923e-17 1.2308665923075277e-16 1.1477878029638923e-17 -0.9268051244953055 -0.37554262236004443
12635797333.333334 -0.9309844100308075 -0.36505893809001166 1.2318517145966182e-16 1.0075199520999235e-17 1.2318517145966182e-16 1.0075199520999235e-17 -0.9309841613825 -0.3650595721998539
12636414666.666666 -0.9350448708102244 -0.35452939168890857 1.2326770853210774e-16 8.671765631219588e-18 1.2326770853210774e-16 8.671765631219588e-18 -0.9350446293455723 -0.35453002853329485
12637032000.0 -0.9389862454996845 -0.3439546928917001 1.2333426601382894e-16 7.267758193192082e-18 1.2333426601382894e-16 7.267758193192082e-18 -0.938986011248736 -0.3439553323892591
12637649333.333334 -0.9428080321309574 -0.3333361884781934 1.2338484153899183e-16 5.863359042942405e-18 1.2338484153899183e-16 5.863359042942405e-18 -0.9428078051228407 -0.3333368305472246
12638266666.666666 -0.9465097439663915 -0.3226752308072196 1.234194348096886e-16 4.4587499961110986e-18 1.234194348096886e-16 4.4587499961110986e-18 -0.9465095242293098 -0.32267587536570286
12638884000.0 -0.9500909095609071 -0.3119731776444005 1.2343804759516862e-16 3.0541128244501736e-18 1.2343804759516862e-16 3.0541128244501736e-18 -0.9500906971221339 -0.31197382461000656
12639501333.333334 -0.953551072822051 -0.3012313919891695 1.234406837308011e-16 1.6496292323275095e-18 1.234406837308011e-16 1.6496292323275095e-18 -0.9535508677079272 -0.30123204127927017
12640118666.666666 -0.9568897930679924 -0.29045124190148025 1.2342734911677252e-16 2.4548083329479706e-19 1.2342734911677252e-16 2.4548083329479706e-19 -0.9568895953039249 -0.2904518934331601
12640736000.0 -0.9601066450838761 -0.2796341003268402 1.2339805171651668e-16 -1.1581508734569448e-18 1.2339805171651668e-16 -1.1581508734569448e-18 -0.9601064546943333 -0.2796347540169062
12641353333.333334 -0.9632012191756594 -0.26878134492248634 1.2335280155487964e-16 -2.5610845263898664e-18 1.2335280155487964e-16 -2.5610845263898664e-18 -0.9632010361841675 -0.26878200068747854
12641970666.666666 -0.966173121222555 -0.2578943578810581 1.2329161071601747e-16 -3.963138925130412e-18 1.2329161071601747e-16 -3.963138925130412e-18 -0.9661729456516956 -0.2578950156372605
12642588000.0 -0.9690219727271024 -0.24697452575497117 1.2321449334102942e-16 -5.364133053785576e-18 1.2321449334102942e-16 -5.364133053785576e-18 -0.9690218045985101 -0.2469751854184225
12643205333.333334 -0.9717474108633891 -0.23602323927977406 1.2312146562532607e-16 -6.763886104285826e-18 1.2312146562532607e-16 -6.763886104285826e-18 -0.9717472501977494 -0.2360239007662785
12643822666.666666 -0.9743490885232893 -0.2250418931969158 1.230125458157323e-16 -8.162217499699049e-18 1.230125458157323e-16 -8.162217499699049e-18 -0.9743489353403351 -0.22504255642205345
12644440000.0 -0.9768266743606356 -0.21403188607625107 1.2288775420732682e-16 -9.55894691747394e-18 1.2288775420732682e-16 -9.55894691747394e-18 -0.9768265286791438 -0.2140325509553886
12645057333.333334 -0.9791798528334316 -0.20299462013786465 1.2274711314001858e-16 -1.0953894312662519e-17 1.2274711314001858e-16 -1.0953894312662519e-17 -0.9791797146712228 -0.2029952865861666
12645674666.666666 -0.9814083242440185 -0.19193150107359877 1.2259064699485915e-16 -1.2346879941094164e-17 1.2259064699485915e-16 -1.2346879941094164e-17 -0.9814081936179536 -0.19193216900603813
12646292000.0 -0.9835118047773158 -0.18084393786766345 1.224183821900902e-16 -1.3737724382525977e-17 1.224183821900902e-16 -1.3737724382525977e-17 -0.9835116817032957 -0.1808446071990326
12646909333.333334 -0.9854900265368755 -0.1697333426176641 1.2223034717693683e-16 -1.5126248563672758e-17 1.2223034717693683e-16 -1.5126248563672758e-17 -0.9854899110298357 -0.16973401326258536
12647526666.666666 -0.987342737579058 -0.1586011303544517 1.2202657243513084e-16 -1.651227378126305e-17 1.2202657243513084e-16 -1.651227378126305e-17 -0.9873426296529698 -0.15860180222738843
12648144000.0 -0.989069701945112 -0.14744871886193348 1.2180709046817727e-16 -1.789562172500008e-17 1.2180709046817727e-16 -1.789562172500008e-17 -0.9890696016129809 -0.1474493918772013
12648761333.333334 -0.990670699691209 -0.13627752849661853 1.215719357983624e-16 -1.9276114500456003e-17 1.215719357983624e-16 -1.9276114500456003e-17 -0.9906706069650719 -0.13627820256839593
12649378666.666666 -0.9921455269164592 -0.12508898200672364 1.213211449615047e-16 -2.0653574651900187e-17 1.213211449615047e-16 -2.0653574651900187e-17 -0.9921454418073816 -0.1250896570490626
12649996000.0 -0.9934939957888941 -0.11388450435083232 1.210547565014372e-16 -2.2027825185113488e-17 1.210547565014372e-16 -2.2027825185113488e-17 -0.9934939183069713 -0.1138851802776698
12650613333.333334 -0.9947159345693811 -0.10266552251647036 1.2077281096424332e-16 -2.3398689590071725e-17 1.2077281096424332e-16 -2.3398689590071725e-17 -0.9947158647237376 -0.10266619924163924
12651230666.666666 -0.9958111876334758 -0.09143346533859321 1.2047535089223498e-16 -2.4765991863571924e-17 1.2047535089223498e-16 -2.4765991863571924e-17 -0.9958111254322605 -0.09143414277583288
12651848000.0 -0.9967796154912859 -0.08018976331715869 1.2016242081766456e-16 -2.612955653182837e-17 1.2016242081766456e-16 -2.612955653182837e-17 -0.9967795609416746 -0.08019044138012635
12652465333.333334 -0.9976210948051978 -0.06893584843530785 1.198340672561961e-16 -2.74892086729265e-17 1.198340672561961e-16 -2.74892086729265e-17 -0.9976210479133911 -0.06893652703758946
12653082666.666666 -0.9983355184055941 -0.057673153976961794 1.1949033870011686e-16 -2.884477393922764e-17 1.1949033870011686e-16 -2.884477393922764e-17 -0.9983354791768169 -0.05767383303208309
12653700000.0 -0.9989227953045199 -0.046403114343996826 1.1913128561128628e-16 -3.0196078579724386e-17 1.1913128561128628e-16 -3.0196078579724386e-17 -0.9989227637430192 -0.04640379376543421
12654317333.333334 -0.9993828507072433 -0.03512716487395781 1.1875696041385414e-16 -3.1542949462228876e-17 1.1875696041385414e-16 -3.1542949462228876e-17 -0.9993828268162913 -0.035127844575149565
12654934666.666666 -0.9997156260218022 -0.023846741656971995 1.1836741748670736e-16 -3.28852140955538e-17 1.1836741748670736e-16 -3.28852140955538e-17 -0.9997156098036935 -0.023847421551329226
12655552000.0 -0.9999210788664608 -0.012563281352850255 1.1796271315567392e-16 -3.422270065156752e-17 1.1796271315567392e-16 -3.422270065156752e-17 -0.9999210703225123 -0.012563961353767878
12656169333.333334 -0.999999183075102 -0.0012782210083716618 1.1754290568548867e-16 -3.555523798712878e-17 1.1754290568548867e-16 -3.555523798712878e-17 -0.9999991822056533 -0.001278901029239477
12656786666.666666 -0.999949928700566 0.010007002126049424 1.1710805527149548e-16 -3.6882655665970555e-17 1.1710805527149548e-16 -3.6882655665970555e-17 -0.999949935504979 0.010006322171835707
12657404000.0 -0.9997733220159144 0.021290950779153932 1.1665822403110933e-16 -3.820478398046761e-17 1.1665822403110933e-16 -3.820478398046761e-17 -0.9997733364925742 0.021290270978181664
12658021333.333334 -0.9994693855136307 0.03257218784211439 1.1619347599503558e-16 -3.9521453973291186e-17 1.1619347599503558e-16 -3.9521453973291186e-17 -0.9994694076599453 0.03257150828094296
12658638666.666666 -0.9990381579027622 0.043849276551307555 1.1571387709824858e-16 -4.083249745895188e-17 1.1571387709824858e-16 -4.083249745895188e-17 -0.9990381877151626 0.04384859731645738
12659256000.0 -0.9984796941039764 0.055120780671611184 1.1521949517071023e-16 -4.2137747045280105e-17 1.1521949517071023e-16 -4.2137747045280105e-17 -0.9984797315779189 0.05512010184955267
12659873333.333334 -0.9977940652425772 0.06638526467906525 1.1471039992787033e-16 -4.343703615473339e-17 1.1471039992787033e-16 -4.343703615473339e-17 -0.9977941103725423 0.06638458635620784
12660490666.666666 -0.9969813586394516 0.0776412939436989 1.1418666296091673e-16 -4.4730199045619846e-17 1.1418666296091673e-16 -4.4730199045619846e-17 -0.9969814114189449 0.07764061620637995
12661108000.0 -0.9960416777999253 0.08888743491252618 1.1364835772677218e-16 -4.6017070833237003e-17 1.1364835772677218e-16 -4.6017070833237003e-17 -0.9960417382214797 0.08888675784700018
12661725333.333334 -0.9949751424006087 0.10012225529175318 1.1309555953788668e-16 -4.7297487510814773e-17 1.1309555953788668e-16 -4.7297487510814773e-17 -0.9949752104557841 0.10012157898418057
12662342666.666666 -0.9937818882741414 0.1113443242293915 1.1252834555175982e-16 -4.857128597041654e-17 1.1252834555175982e-16 -4.857128597041654e-17 -0.9937819639535275 0.11134364876582789
12662960000.0 -0.9924620673918881 0.12255221249751788 1.119467947602507e-16 -4.983830402366512e-17 1.119467947602507e-16 -4.983830402366512e-17 -0.9924621506851028 0.1225515379639029
12663577333.333334 -0.991015847844592 0.13374449267421387 1.113509879786465e-16 -5.10983804223606e-17 1.113509879786465e-16 -5.10983804223606e-17 -0.9910159387402854 0.1337438191563604
12664194666.666666 -0.9894434138209621 0.14491973932538854 1.1074100783450056e-16 -5.235135487896542e-17 1.1074100783450056e-16 -5.235135487896542e-17 -0.9894435123068172 0.1449190669089717
12664812000.0 -0.9877449655842191 0.15607652918632026 1.1011693875623967e-16 -5.3597068086960544e-17 1.1011693875623967e-16 -5.3597068086960544e-17 -0.9877450716469539 0.1560758579568666
12665429333.333334 -0.9859207194465821 0.16721344134294946 1.094788669615483e-16 -5.483536174105408e-17 1.094788669615483e-16 -5.483536174105408e-17 -0.9859208330719509 0.16721277138582608
12666046666.666666 -0.9839709077417453 0.17832905741270463 1.0882688044552123e-16 -5.606607855726573e-17 1.0882688044552123e-16 -5.606607855726573e-17 -0.98397102891454 0.1783283888131081
12666664000.0 -0.9818957787952338 0.18942196172545345 1.0816106896857919e-16 -5.728906229288866e-17 1.0816106896857919e-16 -5.728906229288866e-17 -0.9818959074992875 0.18942129456839937
12667281333.333334 -0.9796955968928406 0.20049074150343676 1.0748152404419532e-16 -5.850415776624863e-17 1.0748152404419532e-16 -5.850415776624863e-17 -0.9796957331110289 0.2004900758737487
12667898666.666666 -0.9773706422469486 0.21153398704133908 1.0678833892636107e-16 -5.971121087638805e-17 1.0678833892636107e-16 -5.971121087638805e-17 -0.9773707859611905 0.2115333230236376
12668516000.0 -0.9749212109607707 0.22255029188613115 1.0608160859684812e-16 -6.091006862257192e-17 1.0608160859684812e-16 -6.091006862257192e-17 -0.974921362152034 0.22254962956482363
12669133333.333334 -0.9723476149907813 0.23353825301555609 1.0536142975226888e-16 -6.210057912361765e-17 1.0536142975226888e-16 -6.210057912361765e-17 -0.9723477736390823 0.23353759247482533
12669750666.666666 -0.9696501821068548 0.2444964710173986 1.0462790079088536e-16 -6.328259163712855e-17 1.0462790079088536e-16 -6.328259163712855e-17 -0.9696503481912635 0.2444958123411928
