! Parameters = {f0=12700.012000; bw=77.238000; Q=6100.000000; N=10; m_0_1=1.164259; m_1_1=-1.300857; m_1_2=0.999071; m_2_2=-1.301506; m_2_3=0.636034; m_2_8=-0.004723; m_2_9=0.031981; m_3_3=-1.303443; m_3_4=0.524563; m_3_7=-0.004123; m_3_8=-0.101211; m_3_9=-0.004723; m_4_4=-1.306368; m_4_5=0.360898; m_4_6=-0.000606; m_4_7=-0.121760; m_4_8=-0.004123; m_5_5=-1.305986; m_5_6=0.768253; m_5_7=-0.000606; m_6_6=-1.305987; m_6_7=0.361240; m_7_7=-1.306354; m_7_8=0.524681; m_8_8=-1.303445; m_8_9=0.636347; m_9_9=-1.301511; m_9_10=1.000149; m_10_10=-1.300867; m_10_11=1.165054}
!
! Created with skrf (http://scikit-rf.org).
# Hz S RI R 50.0 
!freq ReS11 ImS11 ReS21 ImS21 ReS12 ImS12 ReS22 ImS22
12607400000.0 -0.24280861908682225 0.9700742108194622 -2.791021529473055e-18 -6.524877096868298e-17 -2.791021529473055e-18 -6.524877096868298e-17 -0.24280921430448948 0.9700740618368722
12608017333.333334 -0.23562642943133996 0.9718437043852725 -3.2787265431865985e-18 -6.521327371028255e-17 -3.2787265431865985e-18 -6.521327371028255e-17 -0.23562702570553032 0.9718435598166079
12608634666.666666 -0.22843134748832866 0.9735600235653263 -3.76605673203833e-18 -6.517413497991417e-17 -3.76605673203833e-18 -6.517413497991417e-17 -0.22843194478631487 0.9735598834180635
12609252000.0 -0.2212237669363329 0.9752230744513533 -4.252984936060478e-18 -6.513135839724295e-17 -4.252984936060478e-18 -6.513135839724295e-17 -0.22122436522533545 0.9752229387327283
12609869333.333334 -0.21400408213781394 0.9768327660496464 -4.7394840284425904e-18 -6.508494778428776e-17 -4.7394840284425904e-18 -6.508494778428776e-17 -0.21400468138500184 0.9768326347666502
12610486666.666666 -0.20677268811759816 0.978389010286028 -5.225526917035675e-18 -6.503490716512804e-17 -5.225526917035675e-18 -6.503490716512804e-17 -0.2067732882900914 0.978388883445409
12611104000.0 -0.1995299805410151 0.9798917220107303 -5.7110865458648646e-18 -6.498124076559838e-17 -5.7110865458648646e-18 -6.498124076559838e-17 -0.1995305816058862 0.9798915996189927
12611721333.333334 -0.19227635569252477 0.9813408190029872 -6.196135896609961e-18 -6.492395301297494e-17 -6.196135896609961e-18 -6.492395301297494e-17 -0.19227695761680083 0.9813407010663923
12612338666.666666 -0.18501221045392544 0.9827362219755637 -6.680647990127566e-18 -6.486304853564627e-17 -6.680647990127566e-18 -6.486304853564627e-17 -0.18501281320458968 0.9827361085001277
12612956000.0 -0.17773794228255343 0.9840778545791056 -7.164595887935347e-18 -6.47985321627763e-17 -7.164595887935347e-18 -6.47985321627763e-17 -0.1777385458265471 0.9840777455706008
12613573333.333334 -0.1704539491897041 0.9853656434062865 -7.64795269369353e-18 -6.473040892395688e-17 -7.64795269369353e-18 -6.473040892395688e-17 -0.1704545534939282 0.9853655388702396
12614190666.666666 -0.163160629718743 0.9865995179958459 -8.130691554718349e-18 -6.465868404884456e-17 -8.130691554718349e-18 -6.465868404884456e-17 -0.16316123475006022 0.9865994179375375
12614808000.0 -0.15585838292332715 0.9877794108364355 -8.612785663448343e-18 -6.458336296679195e-17 -8.612785663448343e-18 -6.458336296679195e-17 -0.15585898864856385 0.9877793152609032
12615425333.333334 -0.14854760834560002 0.9889052573703174 -9.094208258935162e-18 -6.450445130646473e-17 -9.094208258935162e-18 -6.450445130646473e-17 -0.1485482147315473 0.9889051662823496
12616042666.666666 -0.1412287059942165 0.9899769959969024 -9.574932628329265e-18 -6.442195489544753e-17 -9.574932628329265e-18 -6.442195489544753e-17 -0.14122931300763322 0.9899769094010444
12616660000.0 -0.13390207632262652 0.9909945680761026 -1.005493210834589e-17 -6.433587975984125e-17 -1.005493210834589e-17 -6.433587975984125e-17 -0.13390268393024005 0.9909944859766526
12617277333.333334 -0.12656812020705113 0.9919579179315549 -1.0534180086745978e-17 -6.42462321238468e-17 -1.0534180086745978e-17 -6.42462321238468e-17 -0.12656872837555977 0.9919578403325646
12617894666.666666 -0.11922723892460506 0.9928669928536582 -1.101265000380275e-17 -6.415301840934001e-17 -1.101265000380275e-17 -6.415301840934001e-17 -0.11922784762067967 0.992866919758933
12618512000.0 -0.11187983413120002 0.9937217431024776 -1.1490315353777386e-17 -6.40562452354325e-17 -1.1490315353777386e-17 -6.40562452354325e-17 -0.11188044332148574 0.9937216745155756
12619129333.333334 -0.10452630783984972 0.9945221219104284 -1.1967149686363919e-17 -6.395591941802729e-17 -1.1967149686363919e-17 -6.395591941802729e-17 -0.104526917490968 0.9945220578346606
12619746666.666666 -0.09716706239842027 0.995268085484867 -1.2443126608163204e-17 -6.385204796935759e-17 -1.2443126608163204e-17 -6.385204796935759e-17 -0.09716767247697071 0.9952680259232989
12620364000.0 -0.08980250046764389 0.9959595930104852 -1.2918219784145746e-17 -6.374463809751573e-17 -1.2918219784145746e-17 -6.374463809751573e-17 -0.0898031109402057 0.995959537965932
12620981333.333334 -0.08243302499922801 0.9965966066515216 -1.3392402939076338e-17 -6.36336972059783e-17 -1.3392402939076338e-17 -6.36336972059783e-17 -0.08243363583236246 0.9965965561265545
12621598666.666666 -0.07505903921369574 0.9971790915538536 -1.3865649858985466e-17 -6.351923289311039e-17 -1.3865649858985466e-17 -6.351923289311039e-17 -0.07505965037394738 0.9971790455507937
12622216000.0 -0.06768094657837932 0.9977070158468901 -1.4337934392609558e-17 -6.340125295166442e-17 -1.4337934392609558e-17 -6.340125295166442e-17 -0.06768155803227822 0.9977069743678125
12622833333.333334 -0.06029915078520333 0.9981803506453307 -1.4809230452823577e-17 -6.32797653682694e-17 -1.4809230452823577e-17 -6.32797653682694e-17 -0.06029976249926674 0.9981803136920624
12623450666.666666 -0.05291405572887991 0.9985990700507246 -1.5279512018074865e-17 -6.315477832290827e-17 -1.5279512018074865e-17 -6.315477832290827e-17 -0.0529146676696141 0.9985990376248448
12624068000.0 -0.045526065484554706 0.998963151152908 -1.5748753133829017e-17 -6.302630018838098e-17 -1.5748753133829017e-17 -6.302630018838098e-17 -0.0455266776184568 0.998963123255747
12624685333.333334 -0.03813558428572595 0.9992725740312491 -1.6216927913987877e-17 -6.289433952976193e-17 -1.6216927913987877e-17 -6.289433952976193e-17 -0.038136196579285825 0.9992725506638908
12625302666.666666 -0.03074301650229737 0.9995273217557349 -1.6684010542301646e-17 -6.27589051038483e-17 -1.6684010542301646e-17 -6.27589051038483e-17 -0.030743628921999416 0.9995273029190138
12625920000.0 -0.02334876661819742 0.999727380387904 -1.7149975273810265e-17 -6.262000585858825e-17 -1.7149975273810265e-17 -6.262000585858825e-17 -0.023349379130522454 0.9997273660824088
12626537333.333334 -0.015953239209560575 0.9998727389816042 -1.7614796436239377e-17 -6.247765093251039e-17 -1.7614796436239377e-17 -6.247765093251039e-17 -0.015953851780987578 0.9998727292076737
12627154666.666666 -0.00855683892233511 0.9999633895835931 -1.8078448431409373e-17 -6.233184965413703e-17 -1.8078448431409373e-17 -6.233184965413703e-17 -0.008557451519343133 0.9999633843413198
12627772000.0 -0.0011599704501430222 0.9999993272339778 -1.854090573665572e-17 -6.218261154138315e-17 -1.854090573665572e-17 -6.218261154138315e-17 -0.0011605830392129727 0.9999993265232036
12628389333.333334 0.006236961487550239 0.9999805499664757 -1.9002142906209188e-17 -6.20299463009552e-17 -1.9002142906209188e-17 -6.20299463009552e-17 0.006236348939933722 0.9999805537867978
12629006666.666666 0.013633552168091482 0.9999070588085333 -1.9462134572606376e-17 -6.187386382772854e-17 -1.9462134572606376e-17 -6.187386382772854e-17 0.013632939695438228 0.9999070671592996
12629624000.0 0.02102939688730105 0.9997788577812642 -1.9920855448065554e-17 -6.171437420412453e-17 -1.9920855448065554e-17 -6.171437420412453e-17 0.021028784523113495 0.999778870661574
12630241333.333334 0.028424090981900327 0.9995959538992272 -2.037828032588722e-17 -6.155148769946726e-17 -2.037828032588722e-17 -6.155148769946726e-17 0.028423478759671703 0.9995959713079331
12630858666.666666 0.03581722985142564 0.9993583571700507 -2.083438408181294e-17 -6.138521476934273e-17 -2.083438408181294e-17 -6.138521476934273e-17 0.03581661780463815 0.999358379105758
12631476000.0 0.04320840898079201 0.9990660805938716 -2.1289141675424246e-17 -6.121556605493172e-17 -2.1289141675424246e-17 -6.121556605493172e-17 0.043207797142915 0.9990661070549377
12632093333.333334 0.05059722396188655 0.9987191401626401 -2.1742528151494708e-17 -6.104255238234791e-17 -2.1742528151494708e-17 -6.104255238234791e-17 0.05059661236637462 0.9987191711471742
12632710666.666666 0.05798327051595123 0.9983175548592372 -2.2194518641353925e-17 -6.086618476195911e-17 -2.2194518641353925e-17 -6.086618476195911e-17 0.05798265919624246 0.9983175903651021
12633328000.0 0.06536614451593008 0.9978613466564253 -2.264508836426008e-17 -6.068647438769366e-17 -2.264508836426008e-17 -6.068647438769366e-17 0.06536553350544419 0.9978613866812364
12633945333.333334 0.07274544200815511 0.9973505405156659 -2.3094212628742774e-17 -6.05034326363457e-17 -2.3094212628742774e-17 -6.05034326363457e-17 0.07274483134029168 0.9973505850567914
12634562666.666666 0.08012075923470419 0.99678516438574 -2.3541866833949024e-17 -6.031707106686726e-17 -2.3541866833949024e-17 -6.031707106686726e-17 0.08012014894284078 0.9967852134403022
12635180000.0 0.08749169265540752 0.9961652492012278 -2.3988026470990524e-17 -6.012740141964782e-17 -2.3988026470990524e-17 -6.012740141964782e-17 0.0874910827728978 0.9961653027661008
12635797333.333334 0.0948578389700688 0.9954908288807992 -2.4432667124278324e-17 -5.993443561578667e-17 -2.4432667124278324e-17 -5.993443561578667e-17 0.09485722953024087 0.9954908869526122
12636414666.666666 0.10221879514024888 0.9947619403253866 -2.4875764472853627e-17 -5.973818575635486e-17 -2.4875764472853627e-17 -5.973818575635486e-17 0.1022181861764033 0.9947620029005219
12637032000.0 0.10957415841157259 0.9939786234161418 -2.5317294291712464e-17 -5.953866412164693e-17 -2.5317294291712464e-17 -5.953866412164693e-17 0.10957354995698065 0.9939786904907357
12637649333.333334 0.11692352633573691 0.993140921012254 -2.575723245312312e-17 -5.933588317042413e-17 -2.575723245312312e-17 -5.933588317042413e-17 0.11692291842363882 0.993140992582197
12638266666.666666 0.12426649679239002 0.992248878948623 -2.6195554927945902e-17 -5.912985553914424e-17 -2.6195554927945902e-17 -5.912985553914424e-17 0.12426588945599297 0.9922489550095597
12638884000.0 0.1316026680112459 0.991302546033336 -2.6632237786929914e-17 -5.892059404118862e-17 -2.6632237786929914e-17 -5.892059404118862e-17 0.1316020612837224 0.9913026265806661
12639501333.333334 0.13893163859403906 0.990301974045002 -2.706725720202076e-17 -5.87081116660729e-17 -2.706725720202076e-17 -5.87081116660729e-17 0.13893103250852512 0.9903020590738806
12640118666.666666 0.14625300753643103 0.9892472177299266 -2.7500589447650233e-17 -5.8492421578653e-17 -2.7500589447650233e-17 -5.8492421578653e-17 0.14625240212602417 0.9892473072352637
12640736000.0 0.153566374250232 0.9881383347990755 -2.7932210902041314e-17 -5.827353711831143e-17 -2.7932210902041314e-17 -5.827353711831143e-17 0.15356576954798973 0.9881384287755365
12641353333.333334 0.16087133858472913 0.9869753859250036 -2.836209804845559e-17 -5.805147179815899e-17 -2.836209804845559e-17 -5.805147179815899e-17 0.16087073462366686 0.9869754843670101
12641970666.666666 0.1681675008492549 0.9857584347384347 -2.8790227476508786e-17 -5.782623930419109e-17 -2.8790227476508786e-17 -5.782623930419109e-17 0.16816689766234427 0.9857585376401643
12642588000.0 0.1754544618346065 0.9844875478248467 -2.9216575883413493e-17 -5.759785349446641e-17 -2.9216575883413493e-17 -5.759785349446641e-17 0.17545385945477382 0.9844876551802347
12643205333.333334 0.18273182283503034 0.9831627947208136 -2.9641120075250386e-17 -5.736632839826e-17 -2.9641120075250386e-17 -5.736632839826e-17 0.18273122129515407 0.9831629065235499
12643822666.666666 0.18999918567011856 0.9817842479101724 -3.006383696822759e-17 -5.713167821520883e-17 -3.006383696822759e-17 -5.713167821520883e-17 0.1899985850030286 0.9817843641537075
12644440000.0 0.19725615270643063 0.980351982820104 -3.048470358992863e-17 -5.68939173144511e-17 -3.048470358992863e-17 -5.68939173144511e-17 0.1972555529449053 0.9803521034976423
12645057333.333334 0.20450232687938696 0.9788660778169649 -3.0903697080545616e-17 -5.665306023376063e-17 -3.0903697080545616e-17 -5.665306023376063e-17 0.20450172805615233 0.978866202921472
12645674666.666666 0.2117373117148288 0.9773266142020436 -3.132079469412813e-17 -5.640912167865993e-17 -3.132079469412813e-17 -5.640912167865993e-17 0.2117367138625561 0.9773267437262416
12646292000.0 0.21896071135098874 0.9757336762070487 -3.173597379981243e-17 -5.61621165215311e-17 -3.173597379981243e-17 -5.61621165215311e-17 0.21896011450229308 0.9757338101434199
12646909333.333334 0.22617213055987237 0.9740873509895611 -3.2149211883027685e-17 -5.591205980072694e-17 -3.2149211883027685e-17 -5.591205980072694e-17 0.22617153474731078 0.9740874893303471
12647526666.666666 0.23337117476899472 0.9723877286282424 -3.256048654673214e-17 -5.565896671965239e-17 -3.256048654673214e-17 -5.565896671965239e-17 0.23337058002506408 0.9723878713654431
12648144000.0 0.24055745008305154 0.9706349021178832 -3.296977551260996e-17 -5.540285264585479e-17 -3.296977551260996e-17 -5.540285264585479e-17 0.24055685644018757 0.9706350492432612
12648761333.333334 0.247730563305306 0.9688289673643579 -3.337705662227248e-17 -5.5143733110099546e-17 -3.337705662227248e-17 -5.5143733110099546e-17 0.24772997079588066 0.9688291188694346
12649378666.666666 0.2548901219592125 0.9669700231793488 -3.378230783844913e-17 -5.4881623805438687e-17 -3.378230783844913e-17 -5.4881623805438687e-17 0.25488953061553254 0.9669701790554069
12649996000.0 0.26203573430986377 0.9650581712749459 -3.418550724618805e-17 -5.4616540586260065e-17 -3.418550724618805e-17 -5.4616540586260065e-17 0.26203514416416934 0.9650583315130313
12650613333.333334 0.2691670093854242 0.9630935162580835 -3.458663305402133e-17 -5.4348499467345016e-17 -3.458663305402133e-17 -5.4348499467345016e-17 0.26916642046988654 0.9630936808490027
12651230666.666666 0.27628355699849516 0.9610761656248227 -3.49856635951358e-17 -5.407751662291056e-17 -3.49856635951358e-17 -5.407751662291056e-17 0.276282969345215 0.961076334559146
12651848000.0 0.2833849877675725 0.9590062297544394 -3.538257732855735e-17 -5.380360838562802e-17 -3.538257732855735e-17 -5.380360838562802e-17 0.2833844014085786 0.9590064030225002
12652465333.333334 0.2904709131381887 0.9568838219034327 -3.577735284028496e-17 -5.352679124566172e-17 -3.577735284028496e-17 -5.352679124566172e-17 0.2904703281054355 0.9568839994953272
12653082666.666666 0.297540945404253 0.9547090581993006 -3.616996884444659e-17 -5.324708184968042e-17 -3.616996884444659e-17 -5.324708184968042e-17 0.2975403617296199 0.9547092401048914
12653700000.0 0.30459469772937553 0.9524820576341599 -3.656040418445298e-17 -5.296449699985558e-17 -3.656040418445298e-17 -5.296449699985558e-17 0.3045941154446641 0.9524822438430733
12654317333.333334 0.31163178416775966 0.9502029420583119 -3.694863783411687e-17 -5.267905365287028e-17 -3.694863783411687e-17 -5.267905365287028e-17 0.3116312033046921 0.9502031325599395
12654934666.666666 0.318651819685564 0.9478718361735045 -3.733464889878535e-17 -5.2390768918905107e-17 -3.733464889878535e-17 -5.2390768918905107e-17 0.31865124027578234 0.9478720309570053
12655552000.0 0.3256544201819427 0.9454888675261155 -3.771841661646313e-17 -5.209966006061711e-17 -3.771841661646313e-17 -5.209966006061711e-17 0.3256538422570055 0.945489066580414
12656169333.333334 0.33263920250992424 0.9430541665002142 -3.8099920358914315e-17 -5.1805744492119997e-17 -3.8099920358914315e-17 -5.1805744492119997e-17 0.33263862610130673 0.9430543698140038
12656786666.666666 0.3396057844974869 0.9405678663104006 -3.8479139632771264e-17 -5.1509039777945576e-17 -3.8479139632771264e-17 -5.1509039777945576e-17 0.33960520963657725 0.9405680738721408
12657404000.0 0.3465537849684121 0.9380301029945258 -3.885605408062657e-17 -5.120956363200381e-17 -3.885605408062657e-17 -5.120956363200381e-17 0.3465532116865115 0.9380303147924468
12658021333.333334 0.3534828237632757 0.9354410154062061 -3.923064348212708e-17 -5.090733391652693e-17 -3.923064348212708e-17 -5.090733391652693e-17 0.3534822520915956 0.9354412314283063
12658638666.666666 0.36039252175995523 0.9328007452073316 -3.960288775503691e-17 -5.060236864102382e-17 -3.960288775503691e-17 -5.060236864102382e-17 0.36039195172961613 0.9328009654413801
12659256000.0 0.3672825008947455 0.9301094368601766 -3.9972766956326574e-17 -5.029468596119922e-17 -3.9972766956326574e-17 -5.029468596119922e-17 0.3672819325367747 0.9301096612937126
12659873333.333334 0.3741523841827517 0.9273672376196036 -4.034026128322694e-17 -4.998430417788708e-17 -4.034026128322694e-17 -4.998430417788708e-17 0.37415181752808274 0.9273674662399394
12660490666.666666 0.38100179573862486 0.9245742975249728 -4.070535107427477e-17 -4.9671241735975893e-17 -4.070535107427477e-17 -4.9671241735975893e-17 0.3810012308180938 0.9245745303191896
12661108000.0 0.38783036079722905 0.9217307693918781 -4.1068016810376904e-17 -4.935551722330472e-17 -4.1068016810376904e-17 -4.935551722330472e-17 0.3878297976415755 0.9217310063468339
12661725333.333334 0.3946377057338621 0.9188368088039173 -4.142823911583231e-17 -4.903714936957941e-17 -4.142823911583231e-17 -4.903714936957941e-17 0.39463714437372527 0.918837049906241
12662342666.666666 0.40142345808506313 0.9158925741040164 -4.178599875936802e-17 -4.871615704526252e-17 -4.178599875936802e-17 -4.871615704526252e-17 0.40142289855098134 0.9158928193401131
12662960000.0 0.40818724656870503 0.9128982263858948 -4.214127665515685e-17 -4.83925592604642e-17 -4.214127665515685e-17 -4.83925592604642e-17 0.4081866888911131 0.9128984757419427
12663577333.333334 0.41492870110443786 0.9098539294851872 -4.249405386383491e-17 -4.806637516381838e-17 -4.249405386383491e-17 -4.806637516381838e-17 0.4149281453136672 0.909854182947143
12664194666.666666 0.42164745283388927 0.9067598499705126 -4.284431159349685e-17 -4.773762404136384e-17 -4.284431159349685e-17 -4.773762404136384e-17 0.4216468989601638 0.9067601075241071
12664812000.0 0.42834313414094594 0.9036161571343024 -4.3192031200695845e-17 -4.740632531540564e-17 -4.3192031200695845e-17 -4.740632531540564e-17 0.42834258221438287 0.9036164187650462
12665429333.333334 0.43501537867174167 0.900423022983605 -4.353719419142852e-17 -4.707249854337579e-17 -4.353719419142852e-17 -4.707249854337579e-17 0.4350148287223483 0.900423288676786
12666046666.666666 0.44166382135467597 0.8971806222306842 -4.3879782222110816e-17 -4.673616341668672e-17 -4.3879782222110816e-17 -4.673616341668672e-17 0.4416632734123484 0.8971808919713695
12666664000.0 0.44828809842061895 0.8938891322833488 -4.4219777100553055e-17 -4.639733975956995e-17 -4.4219777100553055e-17 -4.639733975956995e-17 0.4482875525151406 0.8938894060563856
12667281333.333334 0.45488784742256017 0.8905487332353704 -4.455716078690516e-17 -4.605604752792821e-17 -4.455716078690516e-17 -4.605604752792821e-17 0.4548873035836001 0.8905490110253865
12667898666.666666 0.4614627072555411 0.8871596078565792 -4.4891915394624396e-17 -4.5712306808150144e-17 -4.4891915394624396e-17 -4.5712306808150144e-17 0.46146216551265307 0.8871598896479855
12668516000.0 0.46801231817649014 0.8837219415828266 -4.5224023191409264e-17 -4.536613781594227e-17 -4.5224023191409264e-17 -4.536613781594227e-17 0.4680117785591092 0.8837222273598146
12669133333.333334 0.47453632182375277 0.8802359225059136 -4.555346660012467e-17 -4.5017560895154425e-17 -4.555346660012467e-17 -4.5017560895154425e-17 0.4745357843611957 0.8802362122524598
12669750666.666666 0.48103436123680093 0.8767017413632504 -4.5880228199742335e-17 -4.466659651657373e-17 -4.5880228199742335e-17 -4.466659651657373e-17 0.4810338259582635 0.8767020350631151
