! Parameters = {f0=12700.012000; bw=77.238000; Q=6100.000000; N=10; m_0_1=1.304199; m_1_1=0.798242; m_1_2=1.139011; m_2_2=0.797593; m_2_3=0.775974; m_2_8=0.002274; m_2_9=0.038978; m_3_3=0.795656; m_3_4=0.664503; m_3_7=0.002874; m_3_8=-0.094214; m_3_9=0.002274; m_4_4=0.792731; m_4_5=0.500838; m_4_6=0.006391; m_4_7=-0.114763; m_4_8=0.002874; m_5_5=0.793113; m_5_6=0.908193; m_5_7=0.006391; m_6_6=0.793112; m_6_7=0.501180; m_7_7=0.792745; m_7_8=0.664621; m_8_8=0.795654; m_8_9=0.776287; m_9_9=0.797588; m_9_10=1.140089; m_10_10=0.798232; m_10_11=1.304994}
!
! Created with skrf (http://scikit-rf.org).
# Hz S RI R 50.0 
!freq ReS11 ImS11 ReS21 ImS21 ReS12 ImS12 ReS22 ImS22
12607400000.0 0.5015451250162585 -0.8651314857131476 -3.047783811189524e-17 1.2597475993336688e-16 -3.047783811189524e-17 1.2597475993336688e-16 0.5015457194183118 -0.8651311411184904
12608017333.333334 0.4915335891360067 -0.8708586169699934 -2.900597072349135e-17 1.2629574145963469e-16 -2.900597072349135e-17 1.2629574145963469e-16 0.49153418744368443 -0.8708582792704508
12608634666.666666 0.48145666411065274 -0.8764698971346684 -2.75307613617921e-17 1.265995364022042e-16 -2.75307613617921e-17 1.265995364022042e-16 0.48145726624398366 -0.8764695663744881
12609252000.0 0.47131569048250205 -0.8819645797336855 -2.6052410588605772e-17 1.2688611045829593e-16 -2.6052410588605772e-17 1.2688611045829593e-16 0.47131629636101313 -0.8819642559561877
12609869333.333334 0.4611120173142747 -0.8873419338046491 -2.4571119311431514e-17 1.2715543166422119e-16 -2.4571119311431514e-17 1.2715543166422119e-16 0.46111262685700255 -0.8873416170522199
12610486666.666666 0.4508470020096895 -0.892601243993469 -2.3087088756238953e-17 1.274074703987737e-16 -2.3087088756238953e-17 1.274074703987737e-16 0.4508476151351917 -0.892600934307557
12611104000.0 0.44052201013276215 -0.8977418106495905 -2.1600520440103297e-17 1.276421993863247e-16 -2.1600520440103297e-17 1.276421993863247e-16 0.4405226267591268 -0.8977415080706991
12611721333.333334 0.4301384152264192 -0.9027629499189248 -2.0111616143956726e-17 1.2785959369957418e-16 -2.0111616143956726e-17 1.2785959369957418e-16 0.4301390352712774 -0.9027626544866088
12612338666.666666 0.41969759862944656 -0.9076639938349925 -1.8620577885191698e-17 1.2805963076200598e-16 -1.8620577885191698e-17 1.2805963076200598e-16 0.4196982220099831 -0.9076637055878529
12612956000.0 0.40920094929288026 -0.912444290407705 -1.712760789027899e-17 1.2824229035001652e-16 -1.712760789027899e-17 1.2824229035001652e-16 0.4092015759258432 -0.9124440093833811
12613573333.333334 0.39864986359538707 -0.9171032037100264 -1.5632908567437715e-17 1.284075545947168e-16 -1.5632908567437715e-17 1.284075545947168e-16 0.3986504933971011 -0.9171029299451953
12614190666.666666 0.3880457451571688 -0.9216401139627285 -1.4136682479167456e-17 1.2855540798343198e-16 -1.4136682479167456e-17 1.2855540798343198e-16 0.38804637804354486 -0.9216398474930975
12614808000.0 0.37739000465354844 -0.9260544176167019 -1.2639132314879801e-17 1.2868583736086852e-16 -1.2639132314879801e-17 1.2868583736086852e-16 0.3773906405400953 -0.9260541584770036
12615425333.333334 0.3666840596270707 -0.9303455274333428 -1.1140460863464994e-17 1.28798831929969e-16 -1.1140460863464994e-17 1.28798831929969e-16 0.3666846984289063 -0.9303452756573319
12616042666.666666 0.35592933429910945 -0.9345128725626023 -9.64087098585964e-18 1.2889438325244894e-16 -9.64087098585964e-18 1.2889438325244894e-16 0.3559299759309722 -0.9345126281830501
12616660000.0 0.34512725938032446 -0.9385558986189586 -8.140565587651855e-18 1.2897248524900989e-16 -8.140565587651855e-18 1.2897248524900989e-16 0.34512790375658475 -0.9385556616676499
12617277333.333334 0.33427927188022405 -0.9424740677552046 -6.6397475916326484e-18 1.2903313419923984e-16 -6.6397475916326484e-18 1.2903313419923984e-16 0.33427991891489556 -0.942473838262933
12617894666.666666 0.3233868149163205 -0.9462668587338838 -5.138619910436322e-18 1.290763287411903e-16 -5.138619910436322e-18 1.290763287411903e-16 0.323387464523072 -0.9462666367304481
12618512000.0 0.3124513375216414 -0.9499337669968108 -3.637385419075539e-18 1.2910206987063928e-16 -3.637385419075539e-18 1.2910206987063928e-16 0.3124519896138077 -0.9499335525110099
12619129333.333334 0.3014742944525273 -0.9534743047319972 -2.136246927639042e-18 1.2911036094003261e-16 -2.136246927639042e-18 1.2911036094003261e-16 0.30147494894312094 -0.9534740977916272
12619746666.666666 0.29045714599475486 -0.956888000938666 -6.354071538839963e-19 1.2910120765710988e-16 -6.354071538839963e-19 1.2910120765710988e-16 0.29045780279647804 -0.9568878015705169
12620364000.0 0.27940135776919117 -0.960174401489931 8.649313041117246e-19 1.2907461808321212e-16 8.649313041117246e-19 1.2907461808321212e-16 0.2794020167944471 -0.9601742097197827
12620981333.333334 0.26830840053722854 -0.9633330691930851 2.364565995204396e-18 1.2903060263127246e-16 2.364565995204396e-18 1.2903060263127246e-16 0.2683090616981334 -0.9633328850457051
12621598666.666666 0.25717975000477467 -0.9663635838478686 3.863294642511515e-18 1.2896917406349015e-16 3.863294642511515e-18 1.2896917406349015e-16 0.2571804132131692 -0.9663634073470075
12622216000.0 0.24601688662599197 -0.9692655423023501 5.360915170649594e-18 1.2889034748868753e-16 5.360915170649594e-18 1.2889034748868753e-16 0.2460175517934529 -0.9692653734707386
12622833333.333334 0.23482129540646055 -0.9720385585065265 6.857225732926817e-18 1.2879414035935283e-16 6.857225732926817e-18 1.2879414035935283e-16 0.23482196244431286 -0.9720383973658736
12623450666.666666 0.22359446570565555 -0.9746822635636787 8.35202473850518e-18 1.2868057246836712e-16 8.35202473850518e-18 1.2868057246836712e-16 0.223595134524984 -0.9746821101346678
12624068000.0 0.2123378910385952 -0.977196305779497 9.845110879546734e-18 1.2854966594541486e-16 9.845110879546734e-18 1.2854966594541486e-16 0.21233856155025624 -0.9771961600817833
12624685333.333334 0.2010530688772941 -0.979580350708831 1.1336283158281661e-17 1.284014452530813e-16 1.1336283158281661e-17 1.284014452530813e-16 0.20105374099192794 -0.9795802127610403
12625302666.666666 0.18974150045174942 -0.9818340812001456 1.2825340913983845e-17 1.2823593718264092e-16 1.2825340913983845e-17 1.2823593718264092e-16 0.18974217407979155 -0.98183395101987
12625920000.0 0.17840469054972874 -0.9839571974378098 1.4312083849996153e-17 1.280531708495231e-16 1.4312083849996153e-17 1.280531708495231e-16 0.1784053656014225 -0.9839570750416086
12626537333.333334 0.16704414731714537 -0.9859494169818768 1.5796312060593965e-17 1.2785317768847654e-16 1.5796312060593965e-17 1.2785317768847654e-16 0.1670448237025529 -0.9859493023852685
12627154666.666666 0.1556613820571765 -0.9878104748057007 1.727782605782546e-17 1.2763599144841713e-16 1.727782605782546e-17 1.2763599144841713e-16 0.1556620596861919 -0.987810368023168
12627772000.0 0.14425790902896174 -0.9895401233312409 1.875642679831766e-17 1.2740164818696195e-16 1.875642679831766e-17 1.2740164818696195e-16 0.1442585878113221 -0.9895400243762239
12628389333.333334 0.1328352452467477 -0.9911381324618943 2.023191570993943e-17 1.2715018626466297e-16 2.023191570993943e-17 1.2715018626466297e-16 0.1328359250920458 -0.991138041346792
12629006666.666666 0.12139491027743353 -0.992604289613212 2.170409471845928e-17 1.2688164633892282e-16 2.170409471845928e-17 1.2688164633892282e-16 0.12139559109512939 -0.9926042063493781
12629624000.0 0.10993842603892666 -0.9939383997410994 2.317276627408572e-17 1.2659607135760839e-16 2.317276627408572e-17 1.2659607135760839e-16 0.10993910773835996 -0.9939383243388434
12630241333.333334 0.09846731659742834 -0.995140285367805 2.4637733377933572e-17 1.2629350655235615e-16 2.4637733377933572e-17 1.2629350655235615e-16 0.09846799908783023 -0.9951402178363882
12630858666.666666 0.08698310796476977 -0.9962097866055138 2.60987996083987e-17 1.2597399943157523e-16 2.60987996083987e-17 1.2597399943157523e-16 0.08698379115527502 -0.9962097269531501
12631476000.0 0.07548732789526406 -0.997146761177634 2.7555769147505068e-17 1.256375997731311e-16 2.7555769147505068e-17 1.256375997731311e-16 0.07548801169492335 -0.9971467094114896
12632093333.333334 0.06398150568275113 -0.9979510844377008 2.9008446807041985e-17 1.2528435961675147e-16 2.9008446807041985e-17 1.2528435961675147e-16 0.06398219000054273 -0.997951040563889
12632710666.666666 0.052467171956898886 -0.9986226493859729 3.045663805470642e-17 1.2491433325610868e-16 3.045663805470642e-17 1.2491433325610868e-16 0.05246785670174136 -0.9986226134095605
12633328000.0 0.040945858479639594 -0.9991613666836707 3.190014904014253e-17 1.2452757723060042e-16 3.190014904014253e-17 1.2452757723060042e-16 0.04094654356040338 -0.9991613386086707
12633945333.333334 0.02941909794142587 -0.9995671646648504 3.333878662079389e-17 1.241241503168513e-16 3.333878662079389e-17 1.241241503168513e-16 0.029419783266945734 -0.9995671444942259
12634562666.666666 0.017888423757392826 -0.9998399893459412 3.4772358387752764e-17 1.2370411351989006e-16 3.4772358387752764e-17 1.2370411351989006e-16 0.017889109236479843 -0.9998399770816028
12635180000.0 0.006355369863309482 -0.9999798044329269 3.620067269142269e-17 1.2326753006405028e-16 3.620067269142269e-17 1.2326753006405028e-16 0.006356055404763224 -0.9999798000757344
12635797333.333334 -0.005178529488595632 -0.9999865913261794 3.76235386671315e-17 1.228144653835564e-16 3.76235386671315e-17 1.228144653835564e-16 -0.0051778439759749915 -0.9999865948759388
12636414666.666666 -0.016711739933453287 -0.9998603491229222 3.904076626055865e-17 1.2234498711283638e-16 3.904076626055865e-17 1.2234498711283638e-16 -0.016711054540852817 -0.9998603605783892
12637032000.0 -0.028242727198127197 -0.9996010946173612 4.045216625311289e-17 1.2185916507651973e-16 4.045216625311289e-17 1.2185916507651973e-16 -0.02824204201670912 -0.9996011139762403
12637649333.333334 -0.039769957305291335 -0.9992088622984442 4.18575502871523e-17 1.213570712791544e-16 4.18575502871523e-17 1.213570712791544e-16 -0.039769272426180814 -0.9992088895573868
12638266666.666666 -0.0512918967773541 -0.998683704345273 4.325673089106426e-17 1.2083877989463743e-16 4.325673089106426e-17 1.2083877989463743e-16 -0.051291212291627274 -0.9986837394998827
12638884000.0 -0.06280701284054366 -0.998025690620168 4.4649521504244165e-17 1.2030436725534907e-16 4.4649521504244165e-17 1.2030436725534907e-16 -0.06280632883921536 -0.9980257336649965
12639501333.333334 -0.07431377362892745 -0.9972349086593607 4.6035736501944216e-17 1.1975391184099702e-16 4.6035736501944216e-17 1.1975391184099702e-16 -0.07431309020293926 -0.9972349595879116
12640118666.666666 -0.08581064838782915 -0.996311463661377 4.7415191219928436e-17 1.1918749426719738e-16 4.7415191219928436e-17 1.1918749426719738e-16 -0.08580996562803715 -0.9963115224661055
12640736000.0 -0.09729610767814634 -0.995255478472989 4.878770197911373e-17 1.1860519727372222e-16 4.878770197911373e-17 1.1860519727372222e-16 -0.09729542567530917 -0.995255545145303
12641353333.333334 -0.10876862357893505 -0.9940670935729438 5.0153086109882844e-17 1.1800710571254098e-16 5.0153086109882844e-17 1.1800710571254098e-16 -0.10876794242370182 -0.9940671681032064
12641970666.666666 -0.12022666989137835 -0.9927464670532169 5.151116197643644e-17 1.1739330653550364e-16 5.151116197643644e-17 1.1739330653550364e-16 -0.12022598967427667 -0.9927465494307472
12642588000.0 -0.13166872234147878 -0.9912937745980139 5.2861749000891994e-17 1.167638887817896e-16 5.2861749000891994e-17 1.167638887817896e-16 -0.13166804315290231 -0.9912938648110862
12643205333.333334 -0.14309325878297396 -0.9897092094603769 5.42046676872341e-17 1.1611894356507852e-16 5.42046676872341e-17 1.1611894356507852e-16 -0.143092580713171 -0.9897093074962258
12643822666.666666 -0.1544987593997456 -0.9879929824364921 5.553973964516882e-17 1.154585640604187e-16 5.553973964516882e-17 1.154585640604187e-16 -0.15449808253880676 -0.9879930882813132
12644440000.0 -0.16588370690808565 -0.9861453218376327 5.686678761374036e-17 1.1478284549085937e-16 5.686678761374036e-17 1.1478284549085937e-16 -0.1658830313459318 -0.9861454354765826
12645057333.333334 -0.17724658675837324 -0.9841664734598113 5.818563548483874e-17 1.1409188511378675e-16 5.818563548483874e-17 1.1409188511378675e-16 -0.17724591258474398 -0.9841665948770137
12645674666.666666 -0.1885858873366422 -0.9820567005510766 5.949610832653944e-17 1.1338578220699285e-16 5.949610832653944e-17 1.1338578220699285e-16 -0.18858521464108344 -0.98205682972962
12646292000.0 -0.1999001001659503 -0.9798162837764325 6.079803240626754e-17 1.1266463805447773e-16 6.079803240626754e-17 1.1266463805447773e-16 -0.19989942903780272 -0.9798164206983755
12646909333.333334 -0.2111877201065235 -0.9774455211806047 6.20912352137573e-17 1.1192855593200878e-16 6.20912352137573e-17 1.1192855593200878e-16 -0.2111870506349105 -0.9774456658269775
12647526666.666666 -0.2224472455563488 -0.9749447281483234 6.337554548390989e-17 1.1117764109237417e-16 6.337554548390989e-17 1.1117764109237417e-16 -0.2224465778301647 -0.9749448804991305
12648144000.0 -0.23367717865098825 -0.9723142373623505 6.465079321940776e-17 1.1041200075041286e-16 6.465079321940776e-17 1.1041200075041286e-16 -0.23367651275888646 -0.972314397396573
12648761333.333334 -0.24487602546256368 -0.9695543987592823 6.591680971318714e-17 1.0963174406776467e-16 6.591680971318714e-17 1.0963174406776467e-16 -0.24487536149294517 -0.9695545664548821
12649378666.666666 -0.25604229619857954 -0.9666655794829847 6.717342757069277e-17 1.0883698213738291e-16 6.717342757069277e-17 1.0883698213738291e-16 -0.2560416342395809 -0.9666657548169066
12649996000.0 -0.2671745054003312 -0.9636481638356931 6.842048073199383e-17 1.0802782796776477e-16 6.842048073199383e-17 1.0802782796776477e-16 -0.26717384553981305 -0.963648346783869
12650613333.333334 -0.278271172140269 -0.9605025532269527 6.965780449368594e-17 1.0720439646694422e-16 6.965780449368594e-17 1.0720439646694422e-16 -0.2782705144658038 -0.9605027437643018
12651230666.666666 -0.28933082021898093 -0.957229166120228 7.088523553056783e-17 1.0636680442625588e-16 7.088523553056783e-17 1.0636680442625588e-16 -0.289330164817842 -0.9572293642206633
12651848000.0 -0.3003519783619269 -0.9538284379771301 7.210261191721184e-17 1.05515170503794e-16 7.210261191721184e-17 1.05515170503794e-16 -0.30035132532107706 -0.9538286436135622
12652465333.333334 -0.31133318041472763 -0.950300821199617 7.330977314923386e-17 1.0464961520769355e-16 7.330977314923386e-17 1.0464961520769355e-16 -0.31133252982080684 -0.9503010343439554
12653082666.666666 -0.3222729655384272 -0.9466467850697439 7.450656016442114e-17 1.0377026087913047e-16 7.450656016442114e-17 1.0377026087913047e-16 -0.32227231747774177 -0.9466470056929037
12653700000.0 -0.33316987840390966 -0.9428668156872098 7.569281536368588e-17 1.0287723167505944e-16 7.569281536368588e-17 1.0287723167505944e-16 -0.33316923296242007 -0.9428670437591121
12654317333.333334 -0.34402246938520653 -0.938961415904786 7.686838263171297e-17 1.0197065355078463e-16 7.686838263171297e-17 1.0197065355078463e-16 -0.34402182664851655 -0.9389616513943648
12654934666.666666 -0.3548292947526908 -0.934931105261304 7.803310735751402e-17 1.0105065424221198e-16 7.803310735751402e-17 1.0105065424221198e-16 -0.3548286548060366 -0.9349313481365107
12655552000.0 -0.36558891686497713 -0.9307764199125953 7.918683645469672e-17 1.0011736324792095e-16 7.918683645469672e-17 1.0011736324792095e-16 -0.36558827979321495 -0.9307766701404011
12656169333.333334 -0.37629990436001287 -0.9264979125602286 8.032941838152456e-17 9.917091181100476e-17 8.032941838152456e-17 9.917091181100476e-17 -0.37629927024760823 -0.9264981701066293
12656786666.666666 -0.38696083234583784 -0.9220961523778483 8.146070316081346e-17 9.821143290063833e-17 8.146070316081346e-17 9.821143290063833e-17 -0.3869602012768548 -0.9220964172078706
12657404000.0 -0.3975702825898229 -0.9175717249355844 8.258054239953915e-17 9.72390611934777e-17 8.258054239953915e-17 9.72390611934777e-17 -0.3975696546479119 -0.9175719970132887
12658021333.333334 -0.4081268437076 -0.9129252321220439 8.368878930828424e-17 9.625393305478522e-17 8.368878930828424e-17 9.625393305478522e-17 -0.40812621897598783 -0.9129255114105308
12658638666.666666 -0.41862911135050734 -0.9081572920643758 8.478529872039814e-17 9.525618651938833e-17 8.478529872039814e-17 9.525618651938833e-17 -0.41862848991198554 -0.9081575785257898
12659256000.0 -0.42907568839274973 -0.9032685390458934 8.586992711101481e-17 9.424596127234661e-17 8.586992711101481e-17 9.424596127234661e-17 -0.4290750703296636 -0.9032688326414287
12659873333.333334 -0.43946518511710214 -0.8982596234217626 8.694253261574893e-17 9.322339862948457e-17 8.694253261574893e-17 9.322339862948457e-17 -0.43946457051133975 -0.8982599241116674
12660490666.666666 -0.44979621939960684 -0.8931312115325702 8.800297504921308e-17 9.218864151766739e-17 8.800297504921308e-17 9.218864151766739e-17 -0.4497956083325888 -0.8931315192761544
12661108000.0 -0.46006741689389796 -0.8878839856154586 8.905111592332547e-17 9.114183445484016e-17 8.905111592332547e-17 9.114183445484016e-17 -0.4600668094465661 -0.887884300371097
12661725333.333334 -0.47027741121349775 -0.8825186437136308 9.008681846529646e-17 9.008312352994384e-17 9.008681846529646e-17 9.008312352994384e-17 -0.47027680746630435 -0.8825189654387693
12662342666.666666 -0.4804248441139438 -0.8770358995833114 9.110994763546395e-17 8.901265638254068e-17 9.110994763546395e-17 8.901265638254068e-17 -0.4804242441468413 -0.8770362282344732
12662960000.0 -0.49050836567342554 -0.8714364825988179 9.212037014484682e-17 8.793058218227881e-17 9.212037014484682e-17 8.793058218227881e-17 -0.49050776956585584 -0.8714368181316098
12663577333.333334 -0.5005266344722412 -0.8657211376556009 9.311795447244505e-17 8.68370516081689e-17 9.311795447244505e-17 8.68370516081689e-17 -0.5005260423031245 -0.8657214800247167
12664194666.666666 -0.510478317771321 -0.8598906250711054 9.410257088232965e-17 8.57322168276286e-17 9.410257088232965e-17 8.57322168276286e-17 -0.5104777296190469 -0.859890974230337
12664812000.0 -0.5203620916896013 -0.8539457204835905 9.507409144044501e-17 8.461623147537613e-17 9.507409144044501e-17 8.461623147537613e-17 -0.5203615076320162 -0.8539460763858279
12665429333.333334 -0.5301766413800116 -0.847887214749006 9.603239003120335e-17 8.348925063208898e-17 9.603239003120335e-17 8.348925063208898e-17 -0.5301760614944104 -0.8478875773462484
12666046666.666666 -0.539920661204348 -0.8417159138358233 9.69773423737764e-17 8.235143080293231e-17 9.69773423737764e-17 8.235143080293231e-17 -0.5399200855674635 -0.8417162830791848
12666664000.0 -0.5495928549072995 -0.8354326387176051 9.790882603819457e-17 8.120292989583217e-17 9.790882603819457e-17 8.120292989583217e-17 -0.5495922835952907 -0.8354330145573183
12667281333.333334 -0.5591919357884065 -0.829038225264089 9.882672046113194e-17 8.004390719963723e-17 9.882672046113194e-17 8.004390719963723e-17 -0.559191368876851 -0.8290386076495164
12667898666.666666 -0.568716626873549 -0.8225335241298002 9.973090696146493e-17 7.887452336206317e-17 9.973090696146493e-17 7.887452336206317e-17 -0.5687160644374306 -0.8225339130094369
12668516000.0 -0.5781656610848863 -0.8159194006408309 1.0062126875558178e-16 7.76949403674479e-17 1.0062126875558178e-16 7.76949403674479e-17 -0.5781651031985866 -0.8159197959623132
12669133333.333334 -0.5875377814090466 -0.8091967346799859 1.0149769097237741e-16 7.650532151440409e-17 1.0149769097237741e-16 7.650532151440409e-17 -0.587537228146335 -0.8091971363900993
12669750666.666666 -0.5968317410647677 -0.8023664205694396 1.0236006066804703e-16 7.530583139321901e-17 1.0236006066804703e-16 7.530583139321901e-17 -0.5968311924987908 -0.8023668286141238
12670368000.0 -0.6060463036685002 -0.7954293669519402 1.0320826684058402e-16 7.40966358631297e-17 1.0320826684058402e-16 7.40966358631297e-17 -0.6060457598717734 -0.7954297812762983
