! Parameters = {f0=12700.012000; bw=77.238000; Q=6100.000000; N=10; m_0_1=1.296391; m_1_1=0.681125; m_1_2=1.131203; m_2_2=0.680476; m_2_3=0.768166; m_2_8=0.001883; m_2_9=0.038587; m_3_3=0.678539; m_3_4=0.656695; m_3_7=0.002483; m_3_8=-0.094605; m_3_9=0.001883; m_4_4=0.675614; m_4_5=0.493030; m_4_6=0.006000; m_4_7=-0.115154; m_4_8=0.002483; m_5_5=0.675996; m_5_6=0.900385; m_5_7=0.006000; m_6_6=0.675995; m_6_7=0.493372; m_7_7=0.675628; m_7_8=0.656813; m_8_8=0.678537; m_8_9=0.768479; m_9_9=0.680471; m_9_10=1.132281; m_10_10=0.681115; m_10_11=1.297186}
!
! Created with skrf (http://scikit-rf.org).
# Hz S RI R 50.0 
!freq ReS11 ImS11 ReS21 ImS21 ReS12 ImS12 ReS22 ImS22
12607400000.0 -0.8628176183474294 -0.5055153385102039 1.2141524010868337e-16 2.9965982062155936e-17 1.2141524010868337e-16 2.9965982062155936e-17 -0.8628172730969531 -0.505515927786014
12608017333.333334 -0.8684762936993388 -0.495730700362683 1.217248815487952e-16 2.857532872214672e-17 1.217248815487952e-16 2.857532872214672e-17 -0.868475955148021 -0.4957312934741445
12608634666.666666 -0.8740240127354121 -0.48588272778696706 1.2201860479100778e-16 2.718151155658453e-17 1.2201860479100778e-16 2.718151155658453e-17 -0.8740236809258488 -0.48588332465793277
12609252000.0 -0.8794600666805575 -0.47597267895756873 1.2229637795632716e-16 2.578471266148144e-17 1.2229637795632716e-16 2.578471266148144e-17 -0.8794597416544782 -0.4759732795114178
12609869333.333334 -0.8847837610259591 -0.4660018199798944 1.2255817124756713e-16 2.4385114448376306e-17 1.2255817124756713e-16 2.4385114448376306e-17 -0.8847834428242228 -0.4660024241395438
12610486666.666666 -0.8899944156177975 -0.4559714247285148 1.2280395695239539e-16 2.2982899620573637e-17 1.2280395695239539e-16 2.2982899620573637e-17 -0.8899941042803869 -0.45597203241642736
12611104000.0 -0.8950913647442755 -0.44588277468416093 1.2303370944612074e-16 2.1578251149276882e-17 1.2303370944612074e-16 2.1578251149276882e-17 -0.8950910603102941 -0.44588338582235776
12611721333.333334 -0.900073957220477 -0.4357371587703842 1.2324740519418783e-16 2.017135224981877e-17 1.2324740519418783e-16 2.017135224981877e-17 -0.9000736597281408 -0.435737773280452
12612338666.666666 -0.90494155647174 -0.42553587318852654 1.2344502275441928e-16 1.876238635775389e-17 1.2344502275441928e-16 1.876238635775389e-17 -0.9049412659583753 -0.42553649099162955
12612956000.0 -0.9096935406149058 -0.41528022125227027 1.2362654277897956e-16 1.7351537104966927e-17 1.2362654277897956e-16 1.7351537104966927e-17 -0.9096932571169434 -0.41528084226915957
12613573333.333334 -0.9143293025377021 -0.4049715132212825 1.2379194801605656e-16 1.5938988295828027e-17 1.2379194801605656e-16 1.5938988295828027e-17 -0.9143290260906746 -0.40497213737230714
12614190666.666666 -0.9188482499764652 -0.39461106613348296 1.2394122331128627e-16 1.4524923883236873e-17 1.2394122331128627e-16 1.4524923883236873e-17 -0.9188479806149983 -0.394611693338598
12614808000.0 -0.9232498055916709 -0.3842002036370606 1.2407435560889591e-16 1.3109527944709444e-17 1.2407435560889591e-16 1.3109527944709444e-17 -0.9232495433494836 -0.38420083381583986
12615425333.333334 -0.9275334070417476 -0.3737402558212636 1.2419133395257394e-16 1.1692984658468639e-17 1.2419133395257394e-16 1.1692984658468639e-17 -0.9275331519516457 -0.3737408888929086
12616042666.666666 -0.9316985070549529 -0.3632325590463885 1.2429214948607125e-16 1.0275478279502987e-17 1.2429214948607125e-16 1.0275478279502987e-17 -0.9316982591488245 -0.3632331949297388
12616660000.0 -0.935744573499225 -0.3526784557732038 1.2437679545352863e-16 8.857193115624771e-18 1.2437679545352863e-16 8.857193115624771e-18 -0.9357443328080379 -0.3526790943867477
12617277333.333334 -0.9396710894502195 -0.3420792943913045 1.244452671995291e-16 7.43831350355885e-18 1.244452671995291e-16 7.43831350355885e-18 -0.9396708560040186 -0.34207993565319067
12617894666.666666 -0.9434775532572925 -0.33143642904703374 1.2449756216888093e-16 6.019023785026665e-18 1.2449756216888093e-16 6.019023785026665e-18 -0.9434773270851906 -0.3314370728750786
12618512000.0 -0.9471634786077219 -0.3207512194700694 1.2453367990612822e-16 4.599508282782148e-18 1.2453367990612822e-16 4.599508282782148e-18 -0.9471632597379019 -0.320751865781771
12619129333.333334 -0.9507283945886565 -0.310025030800246 1.2455362205478612e-16 3.1799512767799314e-18 1.2455362205478612e-16 3.1799512767799314e-18 -0.950728183048366 -0.31002567951279286
12619746666.666666 -0.9541718457474019 -0.2992592334127945 1.2455739235630785e-16 1.760536980241569e-18 1.2455739235630785e-16 1.760536980241569e-18 -0.9541716415629489 -0.2992598844430765
12620364000.0 -0.9574933921496306 -0.2884552027431816 1.245449966487785e-16 3.414495157751886e-19 1.245449966487785e-16 3.414495157751886e-19 -0.957493195346381 -0.2884558560078006
12620981333.333334 -0.9606926094354604 -0.27761431911179085 1.2451644286533665e-16 -1.0771271084200494e-18 1.2451644286533665e-16 -1.0771271084200494e-18 -0.9606924200378336 -0.27761497452707123
12621598666.666666 -0.9637690888737869 -0.2667379675471933 1.2447174103232605e-16 -2.495009022424452e-18 1.2447174103232605e-16 -2.495009022424452e-18 -0.963768906905256 -0.2667386250291934
12622216000.0 -0.9667224374144497 -0.2558275376093878 1.24410903267176e-16 -3.912012518387918e-18 1.24410903267176e-16 -3.912012518387918e-18 -0.9667222628975342 -0.25582819707390964
12622833333.333334 -0.9695522777384886 -0.24488442321210546 1.2433394377601148e-16 -5.327954074282671e-18 1.2433394377601148e-16 -5.327954074282671e-18 -0.9695521106947552 -0.24488508457470637
12623450666.666666 -0.9722582483062804 -0.2339100224449995 1.242408788509941e-16 -6.7426503776367866e-18 1.242408788509941e-16 -6.7426503776367866e-18 -0.9722580887563386 -0.23391068562100242
12624068000.0 -0.9748400034037862 -0.22290573739480535 1.2413172686739148e-16 -8.155918349241795e-18 1.2413172686739148e-16 -8.155918349241795e-18 -0.9748398513672869 -0.22290640229930997
12624685333.333334 -0.9772972131867445 -0.21187297396609936 1.2400650828037834e-16 -9.567575166827839e-18 1.2400650828037834e-16 -9.567575166827839e-18 -0.9772970686823754 -0.21187364051399268
12625302666.666666 -0.9796295637227069 -0.20081314170212328 1.2386524562157328e-16 -1.0977438288618635e-17 1.2386524562157328e-16 -1.0977438288618635e-17 -0.9796294267681919 -0.20081380980809063
12625920000.0 -0.9818367570312656 -0.189727653604175 1.237079634952976e-16 -1.2385325476981831e-17 1.237079634952976e-16 -1.2385325476981831e-17 -0.9818366276433634 -0.1897283231827113
12626537333.333334 -0.9839185111220349 -0.17861792595150064 1.2353468857457962e-16 -1.3791054821875723e-17 1.2353468857457962e-16 -1.3791054821875723e-17 -0.983918389316536 -0.17861859691692095
12627154666.666666 -0.9858745600307096 -0.16748537812021244 1.2334544959688308e-16 -1.519444476435348e-17 1.2334544959688308e-16 -1.519444476435348e-17 -0.9858744458224342 -0.16748605038666312
12627772000.0 -0.9877046538530934 -0.15633143240166966 1.2314027735956862e-16 -1.6595314119994772e-17 1.2314027735956862e-16 -1.6595314119994772e-17 -0.9877045472558884 -0.15633210588313895
12628389333.333334 -0.9894085587769185 -0.1451575138213541 1.229192047151011e-16 -1.799348210220987e-17 1.229192047151011e-16 -1.799348210220987e-17 -0.9894084598036588 -0.14515818843168368
12629006666.666666 -0.9909860571118341 -0.13396504995616562 1.2268226656597477e-16 -1.938876834560183e-17 1.2268226656597477e-16 -1.938876834560183e-17 -0.990985965774417 -0.1339657256090611
12629624000.0 -0.9924369473171283 -0.12275547075253934 1.2242949985939342e-16 -2.078099292913564e-17 1.2242949985939342e-16 -2.078099292913564e-17 -0.9924368636264765 -0.12275614736158189
12630241333.333334 -0.9937610440275257 -0.11153020834347595 1.221609435816707e-16 -2.2169976399352415e-17 1.221609435816707e-16 -2.2169976399352415e-17 -0.9937609679935849 -0.11153088582213302
12630858666.666666 -0.9949581780768426 -0.10029069686579811 1.2187663875238372e-16 -2.3555539793419848e-17 1.2187663875238372e-16 -2.3555539793419848e-17 -0.9949581097085775 -0.10029137512743444
12631476000.0 -0.9960281965196401 -0.08903837227650149 1.2157662841824774e-16 -2.4937504662203675e-17 1.2157662841824774e-16 -2.4937504662203675e-17 -0.9960281358250362 -0.08903905123439025
12632093333.333334 -0.9969709626507138 -0.07777467216983454 1.2126095764674684e-16 -2.6315693093180464e-17 1.2126095764674684e-16 -2.6315693093180464e-17 -0.9969709096367741 -0.07777535173716836
12632710666.666666 -0.9977863560225848 -0.06650103559334894 1.2092967351949803e-16 -2.768992773330638e-17 1.2092967351949803e-16 -2.768992773330638e-17 -0.9977863106953316 -0.06650171568325115
12633328000.0 -0.9984742724608965 -0.055218902863962346 1.2058282512535053e-16 -2.906003181183205e-17 1.2058282512535053e-16 -2.906003181183205e-17 -0.9984742348253695 -0.05521958338949803
12633945333.333334 -0.9990346240777098 -0.04392971538408534 1.2022046355323785e-16 -3.0425829162984666e-17 1.2022046355323785e-16 -3.0425829162984666e-17 -0.999034594137965 -0.04393039625827239
12634562666.666666 -0.9994673392827294 -0.03263491545749657 1.1984264188477017e-16 -3.1787144248580206e-17 1.1984264188477017e-16 -3.1787144248580206e-17 -0.9994673170418407 -0.03263559659331689
12635180000.0 -0.9997723627924615 -0.02133594610501802 1.194494151865683e-16 -3.314380218055549e-17 1.194494151865683e-16 -3.314380218055549e-17 -0.999772348252517 -0.021336627415428532
12635797333.333334 -0.9999496556372688 -0.010034250880040962 1.1904084050234051e-16 -3.44956287434139e-17 1.1904084050234051e-16 -3.44956287434139e-17 -0.9999496487993752 -0.010034932277984833
12636414666.666666 -0.9999991951663528 0.001268726315617662 1.1861697684472058e-16 -3.58424504165277e-17 1.1861697684472058e-16 -3.58424504165277e-17 -0.9999991960306295 0.0012680449171999768
12637032000.0 -0.999920975050644 0.012571541416472057 1.1817788518683292e-16 -3.718409439640904e-17 1.1817788518683292e-16 -3.718409439640904e-17 -0.999920983616229 0.012570860104631636
12637649333.333334 -0.9997150052836163 0.023872750377690474 1.1772362845362366e-16 -3.852038861882546e-17 1.1772362845362366e-16 -3.852038861882546e-17 -0.9997150215486627 0.023872069239458837
12638266666.666666 -0.999381312180004 0.035170909359728095 1.1725427151293028e-16 -3.9851161780847685e-17 1.1725427151293028e-16 -3.9851161780847685e-17 -0.9993813361416821 0.03517022848210608
12638884000.0 -0.9989199383724433 0.04646457491262109 1.167698811663138e-16 -4.11762433627531e-17 1.167698811663138e-16 -4.11762433627531e-17 -0.9989199700269399 0.04646389438256776
12639501333.333334 -0.9983309428060237 0.057752304160543534 1.1627052613963327e-16 -4.249546364985631e-17 1.1627052613963327e-16 -4.249546364985631e-17 -0.9983309821485439 0.05775162406496505
12640118666.666666 -0.9976144007307692 0.06903265498592179 1.1575627707338808e-16 -4.3808653754183125e-17 1.1575627707338808e-16 -4.3808653754183125e-17 -0.997614447755535 0.06903197541166027
12640736000.0 -0.9967704036919858 0.08030418621424634 1.1522720651278173e-16 -4.511564563612137e-17 1.1522720651278173e-16 -4.511564563612137e-17 -0.9967704583922399 0.08030350724806888
12641353333.333334 -0.9957990595186257 0.09156545779734516 1.1468338889760547e-16 -4.6416272125788814e-17 1.1468338889760547e-16 -4.6416272125788814e-17 -0.9957991218866306 0.09156477952593273
12641970666.666666 -0.9947004923094632 0.10281503099804451 1.1412490055181118e-16 -4.771036694445722e-17 1.1412490055181118e-16 -4.771036694445722e-17 -0.9947005623365017 0.10281435350798074
12642588000.0 -0.9934748424172506 0.11405146857378283 1.1355181967288414e-16 -4.899776472575076e-17 1.1355181967288414e-16 -4.899776472575076e-17 -0.9934749200936294 0.11405079195154322
12643205333.333334 -0.9921222664308035 0.12527333496009127 1.1296422632097536e-16 -5.027830103672121e-17 1.1296422632097536e-16 -5.027830103672121e-17 -0.9921223517458516 0.12527265929203188
12643822666.666666 -0.9906429371549741 0.136479196454199 1.123622024077723e-16 -5.15518123988522e-17 1.123622024077723e-16 -5.15518123988522e-17 -0.9906430300970468 0.1364785218265457
12644440000.0 -0.9890370435885765 0.14766762139814565 1.117458316851671e-16 -5.2818136308854025e-17 1.117458316851671e-16 -5.2818136308854025e-17 -0.9890371441450556 0.14766694789698293
12645057333.333334 -0.9873047909002624 0.15883718036154934 1.111151997336672e-16 -5.407711125937865e-17 1.111151997336672e-16 -5.407711125937865e-17 -0.9873048990575574 0.15883650807280922
12645674666.666666 -0.985446400402294 0.16998644632434273 1.1047039395058307e-16 -5.532857675957522e-17 1.1047039395058307e-16 -5.532857675957522e-17 -0.9854465161458467 0.16998577533379436
12646292000.0 -0.983462109522242 0.18111399485925755 1.0981150353796362e-16 -5.657237335554579e-17 1.0981150353796362e-16 -5.657237335554579e-17 -0.9834622328365237 0.18111332525249532
12646909333.333334 -0.9813521717727139 0.19221840431341575 1.0913861949035118e-16 -5.780834265056547e-17 1.0913861949035118e-16 -5.780834265056547e-17 -0.9813523026412323 0.19221773617584922
12647526666.666666 -0.9791168567189004 0.20329825599035195 1.0845183458225719e-16 -5.903632732525723e-17 1.0845183458225719e-16 -5.903632732525723e-17 -0.979116995124199 0.20329758940719478
12648144000.0 -0.9767564499441734 0.21435213433104197 1.0775124335542862e-16 -6.025617115758442e-17 1.0775124335542862e-16 -6.025617115758442e-17 -0.9767565958678358 0.21435146938730082
12648761333.333334 -0.97427125301358 0.2253786270948657 1.0703694210591144e-16 -6.146771904265647e-17 1.0703694210591144e-16 -6.146771904265647e-17 -0.9742714064362289 0.22537796387532927
12649378666.666666 -0.9716615834353546 0.2363763255398399 1.0630902887086955e-16 -6.267081701242241e-17 1.0630902887086955e-16 -6.267081701242241e-17 -0.971661744336659 0.2363756641290687
12649996000.0 -0.9689277746203024 0.24734382460284934 1.0556760341517365e-16 -6.386531225522353e-17 1.0556760341517365e-16 -6.386531225522353e-17 -0.9689279429789762 0.2473431650851644
12650613333.333334 -0.966070175839224 0.25827972307904545 1.048127672178011e-16 -6.505105313513728e-17 1.048127672178011e-16 -6.505105313513728e-17 -0.9660703516330306 0.25827906553851754
12651230666.666666 -0.9630891521783297 0.2691826238007265 1.0404462345800599e-16 -6.622788921118578e-17 1.0404462345800599e-16 -6.622788921118578e-17 -0.9630893353840857 0.2691819683211659
12651848000.0 -0.9599850844924955 0.28005113381622465 1.0326327700124631e-16 -6.739567125642271e-17 1.0326327700124631e-16 -6.739567125642271e-17 -0.9599852750860728 0.2800504804811702
12652465333.333334 -0.9567583693567139 0.2908838645674565 1.0246883438495105e-16 -6.85542512767726e-17 1.0246883438495105e-16 -6.85542512767726e-17 -0.9567585673130424 0.29088321346016477
12653082666.666666 -0.9534094190154107 0.3016794320674092 1.0166140380404305e-16 -6.970348252975665e-17 1.0166140380404305e-16 -6.970348252975665e-17 -0.9534096243084819 0.3016787832708439
12653700000.0 -0.949938661329665 0.31243645707731016 1.0084109509623075e-16 -7.084321954307673e-17 1.0084109509623075e-16 -7.084321954307673e-17 -0.9499388739325363 0.3124358106741319
12654317333.333334 -0.9463465397227165 0.3231535652822961 1.0000801972715974e-16 -7.197331813293285e-17 1.0000801972715974e-16 -7.197331813293285e-17 -0.946346759607514 0.3231529213548517
12654934666.666666 -0.9426335131232034 0.3338293874673479 9.916229077529149e-17 -7.309363542226071e-17 9.916229077529149e-17 -7.309363542226071e-17 -0.9426337402611266 0.33382874609766
12655552000.0 -0.9388000559064986 0.3444625596923005 9.830402291659996e-17 -7.420402985876432e-17 9.830402291659996e-17 -7.420402985876432e-17 -0.9388002902678222 0.3444619209620569
12656169333.333334 -0.9348466578342438 0.3550517234656969 9.743333240910342e-17 -7.530436123271854e-17 9.743333240910342e-17 -7.530436123271854e-17 -0.9348468993883213 0.35505108745623976
12656786666.666666 -0.9307738239916441 0.36559552591872385 9.655033707713742e-17 -7.63944906946726e-17 9.655033707713742e-17 -7.63944906946726e-17 -0.9307740727069159 0.3655948927110406
12657404000.0 -0.9265820747230118 0.37609261997786864 9.565515629547455e-17 -7.747428077291136e-17 9.565515629547455e-17 -7.747428077291136e-17 -0.926582330567004 0.37609198965258006
12658021333.333334 -0.9222719455652147 0.3865416645371757 9.474791097322085e-17 -7.854359539076634e-17 9.474791097322085e-17 -7.854359539076634e-17 -0.9222722085045485 0.38654103717452754
12658638666.666666 -0.9178439871793864 0.39694132462930154 9.382872353755829e-17 -7.96022998836942e-17 9.382872353755829e-17 -7.96022998836942e-17 -0.9178442571797772 0.39694070030915213
12659256000.0 -0.9132987652804215 0.4072902715964064 9.289771791724168e-17 -8.065026101622867e-17 9.289771791724168e-17 -8.065026101622867e-17 -0.913299042306688 0.4072896503982186
12659873333.333334 -0.9086368605647726 0.4175871832597491 9.19550195259511e-17 -8.16873469986906e-17 9.19550195259511e-17 -8.16873469986906e-17 -0.9086371445808384 0.4175865652625785
12660490666.666666 -0.9038588686363271 0.4278307440884508 9.100075524545805e-17 -8.271342750370392e-17 9.100075524545805e-17 -8.271342750370392e-17 -0.9038591596052257 0.4278301293709361
12661108000.0 -0.898965399930148 0.4380196453679291 9.003505340856327e-17 -8.372837368256461e-17 9.003505340856327e-17 -8.372837368256461e-17 -0.8989656978140309 0.43801903400828396
12661725333.333334 -0.8939570796346822 0.4481525853666898 8.905804378191018e-17 -8.473205818135039e-17 8.905804378191018e-17 -8.473205818135039e-17 -0.8939573843948185 0.4481519774426894
12662342666.666666 -0.8888345476116962 0.4582282695030165 8.806985754858028e-17 -8.572435515687023e-17 8.806985754858028e-17 -8.572435515687023e-17 -0.8888348592084809 0.45822766509199025
12662960000.0 -0.883598458314668 0.4682454105100872 8.707062729052888e-17 -8.670514029239475e-17 8.707062729052888e-17 -8.670514029239475e-17 -0.8835987767076272 0.46824480968890847
12663577333.333334 -0.8782494807051097 0.47820272860056195 8.606048697083146e-17 -8.76742908131969e-17 8.606048697083146e-17 -8.76742908131969e-17 -0.8782498058529056 0.4782021314456379
12664194666.666666 -0.8727882981671301 0.4880989516300385 8.503957191578222e-17 -8.863168550186203e-17 8.503957191578222e-17 -8.863168550186203e-17 -0.872788630027565 0.48809835821730024
12664812000.0 -0.8672156084200678 0.49793281525968 8.400801879680107e-17 -8.957720471341242e-17 8.400801879680107e-17 -8.957720471341242e-17 -0.8672159469500906 0.49793222566457285
12665429333.333334 -0.8615321234294185 0.5077030631176201 8.296596561217011e-17 -9.051073039022386e-17 8.296596561217011e-17 -9.051073039022386e-17 -0.8615324685851321 0.5077024774150958
12666046666.666666 -0.8557385693159111 0.5174084469594346 8.191355166864349e-17 -9.143214607669507e-17 8.191355166864349e-17 -9.143214607669507e-17 -0.8557389210525741 0.5174078652239388
12666664000.0 -0.8498356862625299 0.5270477268279528 8.085091756282791e-17 -9.234133693376468e-17 8.085091756282791e-17 -9.234133693376468e-17 -0.8498360445345651 0.5270471491334177
12667281333.333334 -0.8438242284202403 0.5366196712111888 7.977820516248337e-17 -9.323818975314076e-17 7.977820516248337e-17 -9.323818975314076e-17 -0.8438245931812399 0.5366190976310226
12667898666.666666 -0.8377049638114525 0.5461230571999961 7.869555758758823e-17 -9.412259297138265e-17 7.869555758758823e-17 -9.412259297138265e-17 -0.8377053350141853 0.5461224878070753
12668516000.0 -0.8314786742318491 0.5555566706443767 7.760311919130144e-17 -9.49944366837178e-17 7.760311919130144e-17 -9.49944366837178e-17 -0.8314790518282645 0.5555561055110351
12669133333.333334 -0.8251461551507309 0.5649193063082403 7.650103554077252e-17 -9.585361265763852e-17 7.650103554077252e-17 -9.585361265763852e-17 -0.8251465390919669 0.5649187455062602
12669750666.666666 -0.8187082156091768 0.5742097680237209 7.538945339775114e-17 -9.67000143463193e-17 7.538945339775114e-17 -9.67000143463193e-17 -0.8187086058455652 0.5742092116243254
