! Parameters = {f0=12700.012000; bw=77.238000; Q=6100.000000; N=10; m_0_1=1.343839; m_1_1=1.392837; m_1_2=1.178651; m_2_2=1.392188; m_2_3=0.815614; m_2_8=0.004256; m_2_9=0.040960; m_3_3=1.390251; m_3_4=0.704143; m_3_7=0.004856; m_3_8=-0.092232; m_3_9=0.004256; m_4_4=1.387326; m_4_5=0.540478; m_4_6=0.008373; m_4_7=-0.112781; m_4_8=0.004856; m_5_5=1.387708; m_5_6=0.947833; m_5_7=0.008373; m_6_6=1.387707; m_6_7=0.540820; m_7_7=1.387340; m_7_8=0.704261; m_8_8=1.390249; m_8_9=0.815927; m_9_9=1.392183; m_9_10=1.179729; m_10_10=1.392827; m_10_11=1.344634}
!
! Created with skrf (http://scikit-rf.org).
# Hz S RI R 50.0 
!freq ReS11 ImS11 ReS21 ImS21 ReS12 ImS12 ReS22 ImS22
12607400000.0 0.9902768653216774 0.1391104956805059 -1.5307204614302925e-16 2.2891314639299916e-17 -1.5307204614302925e-16 2.2891314639299916e-17 0.9902767668489711 0.1391111966699685
12608017333.333334 0.9919643973553988 0.1265173283749843 -1.5273673167425794e-16 2.4843003646263194e-17 -1.5273673167425794e-16 2.4843003646263194e-17 0.9919643078014296 0.12651803052463356
12608634666.666666 0.9934917909942035 0.11390373666800252 -1.5237654643299088e-16 2.6789861844533668e-17 -1.5237654643299088e-16 2.6789861844533668e-17 0.9934917103725549 0.11390443986437847
12609252000.0 0.9948587996624348 0.10127175684277279 -1.5199155911050664e-16 2.8731572474210874e-17 -1.5199155911050664e-16 2.8731572474210874e-17 0.9948587279852473 0.10127246097225762
12609869333.333334 0.9960652026763138 0.08862342815077702 -1.5158184243017938e-16 3.0667819741882276e-17 -1.5158184243017938e-16 3.0667819741882276e-17 0.9960651399542819 0.08862413309961328
12610486666.666666 0.9971108052795121 0.07596079248301038 -1.511474731340177e-16 3.2598288871825074e-17 -1.511474731340177e-16 3.2598288871825074e-17 0.9971107515218837 0.07596149813731956
12611104000.0 0.9979954386746334 0.06328589403989464 -1.5068853196850714e-16 3.452266615724565e-17 -1.5068853196850714e-16 3.452266615724565e-17 0.9979953938892109 0.06328660028569567
12611721333.333334 0.998718960050434 0.05060077900172521 -1.502051036698578e-16 3.644063901106622e-17 -1.502051036698578e-16 3.644063901106622e-17 0.9987189242435681 0.05060148572495244
12612338666.666666 0.9992812526049013 0.03790749519794727 -1.49697276948557e-16 3.8351896016722836e-17 -1.49697276948557e-16 3.8351896016722836e-17 0.9992812257814929 0.037908202284469235
12612956000.0 0.9996822255640936 0.025208091776733364 -1.491651444732984e-16 4.025612697865738e-17 -1.491651444732984e-16 4.025612697865738e-17 0.9996822077275931 0.02520879911237113
12613573333.333334 0.9999218141967958 0.012504618874291627 -1.4860880285428032e-16 4.2153022972556614e-17 -1.4860880285428032e-16 4.2153022972556614e-17 0.9999218053492044 0.01250532634483726
12614190666.666666 0.999999979824977 -0.00020087271621275365 -1.4802835262584477e-16 4.4042276395439715e-17 -1.4802835262584477e-16 4.4042276395439715e-17 0.9999999799668426 -0.00020016522497782942
12614808000.0 0.9999167098300303 -0.012906331875842447 -1.474238982284925e-16 4.592358101546763e-17 -1.474238982284925e-16 4.592358101546763e-17 0.9999167189604503 -0.012905624478128961
12615425333.333334 0.9996720176548068 -0.025609707490897915 -1.4679554799026468e-16 4.7796632021517266e-17 -1.4679554799026468e-16 4.7796632021517266e-17 0.9996720357714283 -0.025609000300890333
12616042666.666666 0.9992659428014531 -0.038308948783869805 -1.461434141074944e-16 4.966112607250349e-17 -1.461434141074944e-16 4.966112607250349e-17 0.9992659699004717 -0.038308241915707864
12616660000.0 0.998698550825022 -0.05100200564490516 -1.4546761262493396e-16 5.151676134644164e-17 -1.4546761262493396e-16 5.151676134644164e-17 0.9986985869011847 -0.05100129921266551
12617277333.333334 0.9979699333229035 -0.06368682896237057 -1.4476826341525915e-16 5.336323758924199e-17 -1.4476826341525915e-16 5.336323758924199e-17 0.9979699783695078 -0.06368612308004828
12617894666.666666 0.9970802079200373 -0.07636137095376565 -1.4404549015796017e-16 5.520025616322079e-17 -1.4404549015796017e-16 5.520025616322079e-17 0.997080261928934 -0.07636066573525592
12618512000.0 0.996029518249888 -0.08902358549676131 -1.4329942031759613e-16 5.702752009537633e-17 -1.4329942031759613e-16 5.702752009537633e-17 0.996029581211482 -0.08902288105584102
12619129333.333334 0.9948180339313317 -0.10167142845855356 -1.425301851214896e-16 5.884473412525177e-17 -1.425301851214896e-16 5.884473412525177e-17 0.9948181058345839 -0.10167072490886299
12619746666.666666 0.993445950541197 -0.11430285802682245 -1.4173791953675138e-16 6.065160475265401e-17 -1.4173791953675138e-16 6.065160475265401e-17 0.9934460313736256 -0.11430215548184687
12620364000.0 0.9919134895827257 -0.12691583503889986 -1.4092276224673118e-16 6.244784028499168e-17 -1.4092276224673118e-16 6.244784028499168e-17 0.991913579330409 -0.12691513361195123
12620981333.333334 0.990220898449835 -0.1395083233108508 -1.4008485562690159e-16 6.423315088422752e-17 -1.4008485562690159e-16 6.423315088422752e-17 0.9902209970974116 -0.1395076231150494
12621598666.666666 0.9883684503871236 -0.15207828996658035 -1.392243457200846e-16 6.600724861365316e-17 -1.392243457200846e-16 6.600724861365316e-17 0.9883685579178001 -0.15207759111483693
12622216000.0 0.9863564444458285 -0.16462370576556212 -1.3834138221112192e-16 6.776984748425395e-17 -1.3834138221112192e-16 6.776984748425395e-17 0.9863565608413771 -0.1646230083705592
12622833333.333334 0.9841852054354769 -0.17714254543087976 -1.3743611840097128e-16 6.952066350071364e-17 -1.3743611840097128e-16 6.952066350071364e-17 0.9841853306762417 -0.17714184960505386
12623450666.666666 0.9818550838715226 -0.18963278797572938 -1.3650871118020746e-16 7.1259414707107e-17 -1.3650871118020746e-16 7.1259414707107e-17 0.9818552179364214 -0.18963209383125262
12624068000.0 0.9793664559186956 -0.20209241703007186 -1.3555932100192972e-16 7.298582123227183e-17 -1.3555932100192972e-16 7.298582123227183e-17 0.9793665987852237 -0.20209172467883402
12624685333.333334 0.9767197233302994 -0.21451942116597741 -1.345881118541071e-16 7.469960533479783e-17 -1.345881118541071e-16 7.469960533479783e-17 0.9767198749745333 -0.2145187307195678
12625302666.666666 0.9739153133833949 -0.22691179422217617 -1.3359525123140407e-16 7.640049144756573e-17 -1.3359525123140407e-16 7.640049144756573e-17 0.9739154737799967 -0.22691110579186574
12625920000.0 0.9709536788097349 -0.23926753562831232 -1.3258091010634167e-16 7.808820622209696e-17 -1.3258091010634167e-16 7.808820622209696e-17 0.9709538479319567 -0.2392668493250357
12626537333.333334 0.9678352977227654 -0.25158465072751907 -1.315452629000027e-16 7.976247857233957e-17 -1.315452629000027e-16 7.976247857233957e-17 0.9678354755424544 -0.2515839666618571
12627154666.666666 0.9645606735404094 -0.26386115109859576 -1.304884874521432e-16 8.142303971814389e-17 -1.304884874521432e-16 8.142303971814389e-17 0.9645608600280078 -0.2638604693807561
12627772000.0 0.9611303349037404 -0.2760950548771707 -1.294107649907078e-16 8.306962322841713e-17 -1.294107649907078e-16 8.306962322841713e-17 0.9611305300282981 -0.2760943756169725
12628389333.333334 0.9575448355917557 -0.28828438707526394 -1.2831228010092025e-16 8.470196506369218e-17 -1.2831228010092025e-16 8.470196506369218e-17 0.9575450393209302 -0.2882837103821184
12629006666.666666 0.9538047544318672 -0.3004271799005029 -1.2719322069369422e-16 8.631980361850912e-17 -1.2719322069369422e-16 8.631980361850912e-17 0.9538049667319292 -0.3004265058833961
12629624000.0 0.9499106952065162 -0.31252147307357486 -1.260537779736373e-16 8.792287976319142e-17 -1.260537779736373e-16 8.792287976319142e-17 0.9499109160423573 -0.31252080184105024
12630241333.333334 0.9458632865556701 -0.32456531414479417 -1.2489414640645083e-16 8.951093688531765e-17 -1.2489414640645083e-16 8.951093688531765e-17 0.9458635158908074 -0.32456464580493544
12630858666.666666 0.9416631818754139 -0.33655675880908414 -1.2371452368584445e-16 9.10837209307148e-17 -1.2371452368584445e-16 9.10837209307148e-17 0.9416634196719942 -0.3365560934694966
12631476000.0 0.9373110592123304 -0.34849387122022935 -1.2251511069989688e-16 9.264098044406485e-17 -1.2251511069989688e-16 9.264098044406485e-17 0.9373113054311419 -0.34849320898802466
12632093333.333334 0.9328076211541831 -0.3603747243030192 -1.2129611149698296e-16 9.418246660897427e-17 -1.2129611149698296e-16 9.418246660897427e-17 0.9328078757546554 -0.36037406528479615
12632710666.666666 0.9281535947164273 -0.3721974000645046 -1.2005773325112262e-16 9.570793328769297e-17 -1.2005773325112262e-16 9.570793328769297e-17 0.9281538576566415 -0.3721967443663328
12633328000.0 0.9233497312248082 -0.38395998990373725 -1.1880018622683063e-16 9.721713706037843e-17 -1.1880018622683063e-16 9.721713706037843e-17 0.9233500024615036 -0.38395933763114026
12633945333.333334 0.9183968061941039 -0.3956605949197781 -1.1752368374355593e-16 9.87098372637976e-17 -1.1752368374355593e-16 9.87098372637976e-17 0.9183970856826852 -0.3956599461777161
12634562666.666666 0.9132956192030028 -0.4072973262180922 -1.1622844213953216e-16 1.001857960296922e-16 -1.1622844213953216e-16 1.001857960296922e-16 0.9132959068975465 -0.4072966811109454
12635180000.0 0.908046993764863 -0.4188683052158486 -1.1491468073523515e-16 1.0164477832256288e-16 -1.1491468073523515e-16 1.0164477832256288e-16 0.9080472896181254 -0.41886766384740004
12635797333.333334 0.9026517771949295 -0.43037166394482657 -1.1358262179630152e-16 1.0308655197705663e-16 -1.1358262179630152e-16 1.0308655197705663e-16 0.9026520811583545 -0.4303710264182455
12636414666.666666 0.8971108404734771 -0.44180554535312794 -1.1223249049603583e-16 1.0451088773480324e-16 -1.1223249049603583e-16 1.0451088773480324e-16 0.8971111524972045 -0.4418049117709536
12637032000.0 0.8914250781051299 -0.4531681036051248 -1.1086451487739272e-16 1.0591755928083333e-16 -1.1086451487739272e-16 1.0591755928083333e-16 0.8914253981380038 -0.45316747406925
12637649333.333334 0.8855954079746315 -0.4644575043790865 -1.0947892581456926e-16 1.0730634327942973e-16 -1.0947892581456926e-16 1.0730634327942973e-16 0.8855957359642062 -0.46445687899073995
12638266666.666666 0.8796227711984843 -0.4756719251636586 -1.0807595697408941e-16 1.0867701940954118e-16 -1.0807595697408941e-16 1.0867701940954118e-16 0.8796231070910369 -0.47567130402339075
12638884000.0 0.8735081319731005 -0.4868095555519304 -1.0665584477551248e-16 1.1002937039961885e-16 -1.0665584477551248e-16 1.1002937039961885e-16 0.8735084757136358 -0.4868089387595951
12639501333.333334 0.8672524774191958 -0.497868597533597 -1.0521882835164122e-16 1.1136318206201069e-16 -1.0521882835164122e-16 1.1136318206201069e-16 0.8672528289514594 -0.49786798518833775
12640118666.666666 0.8608568174224156 -0.5088472657852774 -1.0376514950837493e-16 1.126782433267635e-16 -1.0376514950837493e-16 1.126782433267635e-16 0.8608571766888988 -0.508846657985509
12640736000.0 0.8543221844700685 -0.519743787959119 -1.0229505268399453e-16 1.1397434627503811e-16 -1.0229505268399453e-16 1.1397434627503811e-16 0.8543225514120205 -0.5197431848025132
12641353333.333334 0.8476496334849348 -0.5305564049680837 -1.0080878490829677e-16 1.1525128617175569e-16 -1.0080878490829677e-16 1.1525128617175569e-16 0.8476500080423722 -0.5305558065515539
12641970666.666666 0.8408402416544783 -0.5412833712707624 -9.930659576099668e-17 1.1650886149800143e-16 -9.930659576099668e-17 1.1650886149800143e-16 0.8408406237661923 -0.541282777690446
12642588000.0 0.8338951082571692 -0.5519229551527697 -9.778873732999567e-17 1.1774687398265235e-16 -9.778873732999567e-17 1.1774687398265235e-16 0.8338954978607396 -0.5519223665040154
12643205333.333334 0.8268153544850997 -0.5624734390062179 -9.625546416911901e-17 1.189651286335823e-16 -9.625546416911901e-17 1.189651286335823e-16 0.8268157515169019 -0.5624728553835682
12643822666.666666 0.8196021232627893 -0.5729331196072812 -9.470703325547759e-17 1.2016343376830518e-16 -9.470703325547759e-17 1.2016343376830518e-16 0.8196025276580058 -0.572932541104458
12644440000.0 0.8122565790627693 -0.5833003083910138 -9.314370394650497e-17 1.2134160104402176e-16 -9.314370394650497e-17 1.2134160104402176e-16 0.8122569907554009 -0.5832997351009038
12645057333.333334 0.8047799077176624 -0.5935733317238524 -9.156573793658786e-17 1.224994454871359e-16 -9.156573793658786e-17 1.224994454871359e-16 0.8047803266405388 -0.5935727637384923
12645674666.666666 0.7971733162286865 -0.6037505311738968 -8.997339921329669e-17 1.2363678552223424e-16 -8.997339921329669e-17 1.2363678552223424e-16 0.7971737423134756 -0.603749968584457
12646292000.0 0.7894380325706931 -0.6138302637787718 -8.836695401331905e-17 1.2475344300044974e-16 -8.836695401331905e-17 1.2475344300044974e-16 0.7894384657479141 -0.6138297066755432
12646909333.333334 0.7815753054941715 -0.6238109023105449 -8.674667077800974e-17 1.2584924322728235e-16 -8.674667077800974e-17 1.2584924322728235e-16 0.7815757456932049 -0.6238103507829235
12647526666.666666 0.7735864043234119 -0.6336908355387325 -8.511282010860961e-17 1.2692401498983074e-16 -8.511282010860961e-17 1.2692401498983074e-16 0.7735868514725129 -0.633690289675207
12648144000.0 0.7654726187517336 -0.6434684684902335 -8.346567472109372e-17 1.2797759058346983e-16 -8.346567472109372e-17 1.2797759058346983e-16 0.7654730727780407 -0.6434679283783677
12648761333.333334 0.757235258633168 -0.653142222706941 -8.180550940075527e-17 1.2900980583789954e-16 -8.180550940075527e-17 1.2900980583789954e-16 0.7572357194627177 -0.6531416884333625
12649378666.666666 0.7488756537713022 -0.6627105365002195 -8.013260095643369e-17 1.3002050014263022e-16 -8.013260095643369e-17 1.3002050014263022e-16 0.7488761213290405 -0.6627100081506058
12649996000.0 0.7403951537041568 -0.6721718652035359 -7.844722817439934e-17 1.3100951647189392e-16 -7.844722817439934e-17 1.3100951647189392e-16 0.7403956279139507 -0.6721713428625995
12650613333.333334 0.7317951274865803 -0.6815246814215192 -7.674967177195403e-17 1.3197670140894362e-16 -7.674967177195403e-17 1.3197670140894362e-16 0.7317956082712291 -0.6815241651729934
12651230666.666666 0.7230769634693102 -0.6907674752764534 -7.504021435081683e-17 1.329219051697057e-16 -7.504021435081683e-17 1.329219051697057e-16 0.7230774507505607 -0.6907669652030806
12651848000.0 0.714242069074579 -0.69989875465232 -7.331914035003964e-17 1.3384498162593375e-16 -7.331914035003964e-17 1.3384498162593375e-16 0.7142425627731367 -0.699898250835838
12652465333.333334 0.7052918705691749 -0.7089170454353877 -7.15867359988205e-17 1.3474578832764993e-16 -7.15867359988205e-17 1.3474578832764993e-16 0.7052923706047168 -0.7089165479565155
12653082666.666666 0.6962278128341173 -0.7178208917522713 -6.984328926896835e-17 1.356241865250214e-16 -6.984328926896835e-17 1.356241865250214e-16 0.6962283191253061 -0.7178204006906982
12653700000.0 0.687051359131117 -0.7266088562052412 -6.808908982703091e-17 1.3648004118965687e-16 -6.808908982703091e-17 1.3648004118965687e-16 0.687051871595613 -0.7266083716396119
12654317333.333334 0.6777639908668392 -0.73527952010379 -6.632442898631055e-17 1.3731322103521043e-16 -6.632442898631055e-17 1.3731322103521043e-16 0.6777645094213139 -0.7352790421116931
12654934666.666666 0.6683672073534686 -0.7438314836939415 -6.454959965851337e-17 1.381235985374242e-16 -6.454959965851337e-17 1.381235985374242e-16 0.6683677319136191 -0.7438310123518972
12655552000.0 0.6588625255665815 -0.7522633663842938 -6.276489630520247e-17 1.3891104995352466e-16 -6.276489630520247e-17 1.3891104995352466e-16 0.6588630560471433 -0.7522629017677409
12656169333.333334 0.6492514799005468 -0.7605738069686295 -6.097061488900858e-17 1.396754553409963e-16 -6.097061488900858e-17 1.396754553409963e-16 0.6492520162153085 -0.7605733491519147
12656786666.666666 0.6395356219205225 -0.768761463845928 -5.916705282461426e-17 1.4041669857572613e-16 -5.916705282461426e-17 1.4041669857572613e-16 0.6395361639823391 -0.7687610129022922
12657404000.0 0.6297165201121051 -0.776825015236832 -5.735450892951926e-17 1.411346673695161e-16 -5.735450892951926e-17 1.411346673695161e-16 0.6297170678329119 -0.7768245712383994
12658021333.333334 0.6197957596282072 -0.7847631593969593 -5.553328337459624e-17 1.418292532869619e-16 -5.553328337459624e-17 1.418292532869619e-16 0.6197963129190355 -0.7847627224147264
12658638666.666666 0.6097749420330737 -0.7925746148271253 -5.370367763444351e-17 1.4250035176169362e-16 -5.370367763444351e-17 1.4250035176169362e-16 0.609775500804063 -0.7925741849309486
12659256000.0 0.5996556850436391 -0.8002581204802907 -5.1865994437552706e-17 1.4314786211197493e-16 -5.1865994437552706e-17 1.4314786211197493e-16 0.5996562492040547 -0.8002576977388771
12659873333.333334 0.5894396222684611 -0.8078124359650682 -5.00205377162414e-17 1.4377168755567816e-16 -5.00205377162414e-17 1.4377168755567816e-16 0.589440191726706 -0.8078120204459622
12660490666.666666 0.5791284029441337 -0.8152363417458658 -4.816761255653887e-17 1.443717352245683e-16 -4.816761255653887e-17 1.443717352245683e-16 0.5791289776077646 -0.8152359335154387
12661108000.0 0.5687236916687215 -0.8225286393399963 -4.6307525147690406e-17 1.4494791617801637e-16 -4.6307525147690406e-17 1.4494791617801637e-16 0.5687242714444648 -0.8225282384634378
12661725333.333334 0.558227168133405 -0.8296881515108935 -4.444058273174618e-17 1.4550014541598016e-16 -4.444058273174618e-17 1.4550014541598016e-16 0.5582277529271704 -0.8296877580521996
12662342666.666666 0.5476405268509443 -0.8367137224584188 -4.256709355278433e-17 1.4602834189140664e-16 -4.256709355278433e-17 1.4602834189140664e-16 0.5476411165678409 -0.8367133364803816
12662960000.0 0.5369654768825016 -0.8436042180051927 -4.068736680612973e-17 1.465324285219374e-16 -4.068736680612973e-17 1.465324285219374e-16 0.5369660714268523 -0.8436038395693898
12663577333.333334 0.5262037415614043 -0.8503585257799108 -3.880171258734572e-17 1.4701233220098787e-16 -3.880171258734572e-17 1.4701233220098787e-16 0.5262043408367629 -0.8503581549466975
12664194666.666666 0.5153570582150822 -0.8569755553968273 -3.691044184119016e-17 1.4746798380814662e-16 -3.691044184119016e-17 1.4746798380814662e-16 0.5153576621242476 -0.8569751922253254
12664812000.0 0.5044271778847448 -0.8634542386316924 -3.50138663103691e-17 1.4789931821894115e-16 -3.50138663103691e-17 1.4789931821894115e-16 0.5044277863297782 -0.8634538831797813
12665429333.333334 0.4934158650423627 -0.8697935295944095 -3.3112298484213023e-17 1.4830627431393676e-16 -3.3112298484213023e-17 1.4830627431393676e-16 0.49341647792460164 -0.8697931819187162
12666046666.666666 0.4823248973062075 -0.8759924048976454 -3.12060515472933e-17 1.4868879498716708e-16 -3.12060515472933e-17 1.4868879498716708e-16 0.48232551452628347 -0.8759920650535367
12666664000.0 0.4711560651534893 -0.8820498638222699 -2.929543932781822e-17 1.4904682715393274e-16 -2.929543932781822e-17 1.4904682715393274e-16 0.4711566866113432 -0.8820495318638429
12667281333.333334 0.45991117163165474 -0.8879649284787112 -2.7380776246112746e-17 1.4938032175790241e-16 -2.7380776246112746e-17 1.4938032175790241e-16 0.45991179722655295 -0.8879646044587848
12667898666.666666 0.4485920320672153 -0.8937366439648826 -2.5462377262903352e-17 1.4968923377757792e-16 -2.5462377262903352e-17 1.4968923377757792e-16 0.44859266169776624 -0.8937363279349886
12668516000.0 0.4372004737723314 -0.8993640785205136 -2.3540557827534047e-17 1.4997352223209372e-16 -2.3540557827534047e-17 1.4997352223209372e-16 0.4372011073365024 -0.8993637705308907
12669133333.333334 0.42573833575042896 -0.9048463236772634 -2.1615633826242138e-17 1.5023315018633491e-16 -2.1615633826242138e-17 1.5023315018633491e-16 0.4257389731455616 -0.9048460237768453
12669750666.666666 0.41420746839896355 -0.9101824944055598 -1.9687921530212025e-17 1.504680847554176e-16 -1.9687921530212025e-17 1.504680847554176e-16 0.4142081095217911 -0.9101822026419701
12670368000.0 0.40260973321059546 -0.9153717292575175 -1.775773754371436e-17 1.5067829710848533e-16 -1.775773754371436e-17 1.5067829710848533e-16 0.4026103779572602 -0.9153714456770635
