! Parameters = {f0=12700.012000; bw=77.238000; Q=6100.000000; N=10; m_0_1=1.253749; m_1_1=0.041486; m_1_2=1.088561; m_2_2=0.040837; m_2_3=0.725524; m_2_8=-0.000249; m_2_9=0.036455; m_3_3=0.038900; m_3_4=0.614053; m_3_7=0.000351; m_3_8=-0.096737; m_3_9=-0.000249; m_4_4=0.035975; m_4_5=0.450388; m_4_6=0.003868; m_4_7=-0.117286; m_4_8=0.000351; m_5_5=0.036357; m_5_6=0.857743; m_5_7=0.003868; m_6_6=0.036356; m_6_7=0.450730; m_7_7=0.035989; m_7_8=0.614171; m_8_8=0.038898; m_8_9=0.725837; m_9_9=0.040832; m_9_10=1.089639; m_10_10=0.041476; m_10_11=1.254544}
!
! Created with skrf (http://scikit-rf.org).
# Hz S RI R 50.0 
!freq ReS11 ImS11 ReS21 ImS21 ReS12 ImS12 ReS22 ImS22
12607400000.0 -0.40004573020265427 -0.916495179336178 6.59218995430694e-17 7.83326498386084e-17 6.59218995430694e-17 7.83326498386084e-17 -0.40004512478534127 -0.9164954435976802
12608017333.333334 -0.40922932164185827 -0.912431565821993 6.669904217878038e-17 7.764556395454739e-17 6.669904217878038e-17 7.764556395454739e-17 -0.4092287189383913 -0.9124318361367445
12608634666.666666 -0.418371641767068 -0.9082759323933205 6.746903386574546e-17 7.695077690613338e-17 6.746903386574546e-17 7.695077690613338e-17 -0.4183710418379626 -0.9082762087334698
12609252000.0 -0.4274717685633354 -0.9040286981513153 6.823179838042422e-17 7.624836301545735e-17 6.823179838042422e-17 7.624836301545735e-17 -0.4274711714688202 -0.9040289804884034
12609869333.333334 -0.4365287842710936 -0.89969029143513 6.898726027070809e-17 7.553839735810395e-17 6.898726027070809e-17 7.553839735810395e-17 -0.43652819007110577 -0.8996905797400973
12610486666.666666 -0.44554177547838153 -0.8952611497788787 6.97353448633658e-17 7.482095575514899e-17 6.97353448633658e-17 7.482095575514899e-17 -0.44554118423256056 -0.8952614440220663
12611104000.0 -0.45450983321344823 -0.8907417198672755 7.047597827140511e-17 7.409611476508216e-17 7.047597827140511e-17 7.409611476508216e-17 -0.45450924498113005 -0.8907420200184287
12611721333.333334 -0.4634320530358639 -0.886132457490861 7.120908740133283e-17 7.336395167567668e-17 7.120908740133283e-17 7.336395167567668e-17 -0.46343146787607453 -0.8861327635191325
12612338666.666666 -0.4723075351281908 -0.8814338274998079 7.193459996034701e-17 7.26245444957703e-17 7.193459996034701e-17 7.26245444957703e-17 -0.4723069530996406 -0.8814341393737603
12612956000.0 -0.4811353843865273 -0.8766463037571406 7.265244446345433e-17 7.187797194696573e-17 7.265244446345433e-17 7.187797194696573e-17 -0.48113480554760546 -0.8766466214447504
12613573333.333334 -0.4899147105107565 -0.8717703690909602 7.336255024046319e-17 7.112431345529995e-17 7.336255024046319e-17 7.112431345529995e-17 -0.4899141349195248 -0.8717706925596211
12614190666.666666 -0.49864462809438553 -0.8668065152457277 7.406484744292897e-17 7.03636491428056e-17 7.406484744292897e-17 7.03636491428056e-17 -0.4986440558085713 -0.8668068444622515
12614808000.0 -0.5073242567139096 -0.8617552428326198 7.475926705100239e-17 6.959605981901446e-17 7.475926705100239e-17 6.959605981901446e-17 -0.5073236877909035 -0.8617555777632459
12615425333.333334 -0.5159527210174374 -0.8566170612791518 7.544574088017162e-17 6.88216269724125e-17 7.544574088017162e-17 6.88216269724125e-17 -0.5159521555142838 -0.8566174018895438
12616042666.666666 -0.524529150813139 -0.8513924887776932 7.612420158794695e-17 6.804043276179748e-17 7.612420158794695e-17 6.804043276179748e-17 -0.5245285887865322 -0.8513928350329458
12616660000.0 -0.533052681156934 -0.8460820522332528 7.679458268042356e-17 6.725256000760433e-17 7.679458268042356e-17 6.725256000760433e-17 -0.5330521226632113 -0.8460824040978939
12617277333.333334 -0.5415224524396713 -0.8406862872103671 7.745681851878885e-17 6.645809218313046e-17 7.745681851878885e-17 6.645809218313046e-17 -0.5415218975348103 -0.8406866446483651
12617894666.666666 -0.5499376104738757 -0.8352057378790646 7.811084432569711e-17 6.565711340574485e-17 7.811084432569711e-17 6.565711340574485e-17 -0.5499370592134842 -0.8352061008538263
12618512000.0 -0.5582973065799595 -0.8296409569599315 7.87565961916115e-17 6.484970842796648e-17 7.87565961916115e-17 6.484970842796648e-17 -0.5582967590192744 -0.8296413254343118
12619129333.333334 -0.5666006976716741 -0.8239925056684678 7.939401108098969e-17 6.403596262855876e-17 7.939401108098969e-17 6.403596262855876e-17 -0.5666001538655527 -0.823992879604769
12619746666.666666 -0.5748469463411828 -0.8182609536584553 8.002302683842147e-17 6.321596200350958e-17 8.002302683842147e-17 6.321596200350958e-17 -0.574846406344099 -0.8182613330184334
12620364000.0 -0.5830352209437009 -0.8124468789643776 8.06435821946735e-17 6.23897931569513e-17 8.06435821946735e-17 6.23897931569513e-17 -0.5830346848097381 -0.8124472637092438
12620981333.333334 -0.5911646956809721 -0.8065508679433999 8.125561677259814e-17 6.155754329207695e-17 8.125561677259814e-17 6.155754329207695e-17 -0.59116416346382 -0.8065512580338279
12621598666.666666 -0.5992345506849703 -0.8005735152159421 8.18590710930103e-17 6.071930020191806e-17 8.18590710930103e-17 6.071930020191806e-17 -0.5992340224379177 -0.8005739106120696
12622216000.0 -0.6072439721002828 -0.794515423605923 8.24538865804153e-17 5.987515226013705e-17 8.24538865804153e-17 5.987515226013705e-17 -0.6072434478762132 -0.7945158242673568
12622833333.333334 -0.6151921521664183 -0.7883772040797978 8.3040005568682e-17 5.90251884117104e-17 8.3040005568682e-17 5.90251884117104e-17 -0.6151916320178042 -0.7883776099656176
12623450666.666666 -0.6230782892989976 -0.7821594756851459 8.36173713065828e-17 5.816949816360829e-17 8.36173713065828e-17 5.816949816360829e-17 -0.6230777732778959 -0.7821598867539088
12624068000.0 -0.6309015881708904 -0.7758628654880169 8.418592796327824e-17 5.730817157536396e-17 8.418592796327824e-17 5.730817157536396e-17 -0.6309010763289358 -0.7758632816977606
12624685333.333334 -0.638661259792263 -0.7694880085098067 8.474562063368051e-17 5.644129924962234e-17 8.474562063368051e-17 5.644129924962234e-17 -0.6386607521806642 -0.7694884298180558
12625302666.666666 -0.6463565215901083 -0.7630355476632558 8.529639534370406e-17 5.556897232266423e-17 8.529639534370406e-17 5.556897232266423e-17 -0.6463560182596425 -0.7630359740270239
12625920000.0 -0.653986597487323 -0.7565061336874822 8.583819905547337e-17 5.469128245479451e-17 8.583819905547337e-17 5.469128245479451e-17 -0.6539860984883309 -0.7565065650632781
12626537333.333334 -0.6615507179808433 -0.7499004250824624 8.637097967236337e-17 5.3808321820786847e-17 8.637097967236337e-17 5.3808321820786847e-17 -0.6615502233632234 -0.7499008614262934
12627154666.666666 -0.6690481202192119 -0.7432190880426631 8.68946860439982e-17 5.292018310019232e-17 8.68946860439982e-17 5.292018310019232e-17 -0.669047630032416 -0.7432195293100391
12627772000.0 -0.676478048079805 -0.7364627963895839 8.740926797112479e-17 5.202695946763818e-17 8.740926797112479e-17 5.202695946763818e-17 -0.6764775623728335 -0.7364632425355234
12628389333.333334 -0.683839752244628 -0.7296322315042253 8.791467621038162e-17 5.1128744583093356e-17 8.791467621038162e-17 5.1128744583093356e-17 -0.6838392710660246 -0.7296326824832593
12629006666.666666 -0.6911324902763438 -0.7227280822579458 8.841086247899317e-17 5.0225632582039207e-17 8.841086247899317e-17 5.0225632582039207e-17 -0.6911320136741916 -0.7227285380241227
12629624000.0 -0.6983555266928589 -0.7157510449432608 8.88977794593285e-17 4.9317718065661745e-17 8.88977794593285e-17 4.9317718065661745e-17 -0.6983550547147729 -0.715751505450149
12630241333.333334 -0.7055081330415562 -0.7087018232035578 8.937538080339621e-17 4.840509609093121e-17 8.937538080339621e-17 4.840509609093121e-17 -0.705507665734683 -0.7087022884042549
12630858666.666666 -0.7125895879727873 -0.7015811279621209 8.984362113720111e-17 4.748786216070746e-17 8.984362113720111e-17 4.748786216070746e-17 -0.7125891253837958 -0.7015815978092539
12631476000.0 -0.7195991773126766 -0.6943896773503679 9.030245606504401e-17 4.656611221371929e-17 9.030245606504401e-17 4.656611221371929e-17 -0.719598719487756 -0.6943901517960996
12632093333.333334 -0.7265361941350474 -0.6871281966355256 9.07518421736658e-17 4.5639942614605224e-17 9.07518421736658e-17 4.5639942614605224e-17 -0.7265357411199023 -0.6871286756315608
12632710666.666666 -0.7333999388326795 -0.6797974181475315 9.119173703633601e-17 4.470945014382506e-17 9.119173703633601e-17 4.470945014382506e-17 -0.7333994906725251 -0.6797979016451208
12633328000.0 -0.7401897191881195 -0.6723980812049072 9.162209921681535e-17 4.377473198757588e-17 9.162209921681535e-17 4.377473198757588e-17 -0.7401892759276761 -0.6723985691548513
12633945333.333334 -0.7469048504431588 -0.6649309320405484 9.204288827321735e-17 4.2835885727668316e-17 9.204288827321735e-17 4.2835885727668316e-17 -0.7469044121266483 -0.6649314243932037
12634562666.666666 -0.7535446553681431 -0.6573967237261946 9.245406476177093e-17 4.1893009331355483e-17 9.245406476177093e-17 4.1893009331355483e-17 -0.753544222039286 -0.6573972204314797
12635180000.0 -0.7601084643301058 -0.649796216096675 9.285559024047228e-17 4.0946201141142284e-17 9.285559024047228e-17 4.0946201141142284e-17 -0.760108036032114 -0.6497967171040735
12635797333.333334 -0.7665956153604633 -0.642130175673081 9.324742727264646e-17 3.9995559864528505e-17 9.324742727264646e-17 3.9995559864528505e-17 -0.7665951921360372 -0.6421306809316474
12636414666.666666 -0.7730054542215569 -0.634399375585722 9.362953943038143e-17 3.9041184563771356e-17 9.362953943038143e-17 3.9041184563771356e-17 -0.7730050361128813 -0.6343998850440875
12637032000.0 -0.7793373344728898 -0.6266045954958519 9.40018912978869e-17 3.8083174645546746e-17 9.40018912978869e-17 3.8083174645546746e-17 -0.7793369215216301 -0.6266051091022292
12637649333.333334 -0.7855906175361037 -0.6187466215172993 9.436444847471862e-17 3.712162985064817e-17 9.436444847471862e-17 3.712162985064817e-17 -0.7855902097834008 -0.618747139219488
12638266666.666666 -0.7917646727595409 -0.6108262461369897 9.471717757892088e-17 3.615665024359973e-17 9.471717757892088e-17 3.615665024359973e-17 -0.7917642702460072 -0.6108267678823812
12638884000.0 -0.7978588774817043 -0.6028442681351988 9.50600462500444e-17 3.518833620228504e-17 9.50600462500444e-17 3.518833620228504e-17 -0.79785848024742 -0.6028447938707822
12639501333.333334 -0.8038726170942128 -0.5948014925047947 9.53930231520768e-17 3.4216788407502896e-17 9.53930231520768e-17 3.4216788407502896e-17 -0.8038722251787211 -0.594802022177161
12640118666.666666 -0.8098052851035414 -0.5866987303703672 9.571607797624318e-17 3.3242107832557616e-17 9.571607797624318e-17 3.3242107832557616e-17 -0.8098048985458474 -0.586699263925717
12640736000.0 -0.8156562831925983 -0.5785367989058811 9.602918144373581e-17 3.226439573272322e-17 9.602918144373581e-17 3.226439573272322e-17 -0.8156559020311611 -0.5785373362900281
12641353333.333334 -0.8214250212805247 -0.570316521252994 9.633230530829099e-17 3.128375363481898e-17 9.633230530829099e-17 3.128375363481898e-17 -0.8214246455532563 -0.5703170624113709
12641970666.666666 -0.8271109175826751 -0.5620387264373989 9.662542235869947e-17 3.0300283326638307e-17 9.662542235869947e-17 3.0300283326638307e-17 -0.8271105473269346 -0.5620392713150628
12642588000.0 -0.8327133986690707 -0.5537042492855129 9.690850642119132e-17 2.931408684641247e-17 9.690850642119132e-17 2.931408684641247e-17 -0.8327130339216632 -0.5537047978271519
12643205333.333334 -0.8382318995222056 -0.5453139303403354 9.718153236170978e-17 2.8325266472263635e-17 9.718153236170978e-17 2.8325266472263635e-17 -0.8382315403193764 -0.5453144824902729
12643822666.666666 -0.8436658635941987 -0.5368686157764153 9.744447608809279e-17 2.7333924711588044e-17 9.744447608809279e-17 2.7333924711588044e-17 -0.8436655099716306 -0.5368691714786169
12644440000.0 -0.8490147428627209 -0.5283691573148236 9.769731455213117e-17 2.6340164290472027e-17 9.769731455213117e-17 2.6340164290472027e-17 -0.8490143948555312 -0.528369716512902
12645057333.333334 -0.854277997886404 -0.5198164121370408 9.794002575152415e-17 2.5344088143073413e-17 9.794002575152415e-17 2.5344088143073413e-17 -0.8542776555291395 -0.5198169747742616
12645674666.666666 -0.8594550978591229 -0.5112112427987029 9.817258873173373e-17 2.4345799400960662e-17 9.817258873173373e-17 2.4345799400960662e-17 -0.8594547611857571 -0.5112118088179902
12646292000.0 -0.8645455206637486 -0.5025545171422461 9.839498358772359e-17 2.334540138245791e-17 9.839498358772359e-17 2.334540138245791e-17 -0.8645451897076795 -0.5025550864861891
12646909333.333334 -0.8695487529244991 -0.49384710820989614 9.860719146558882e-17 2.2342997581986575e-17 9.860719146558882e-17 2.2342997581986575e-17 -0.8695484277185439 -0.4938476808207537
12647526666.666666 -0.8744642900589731 -0.4850898941551808 9.88091945640806e-17 2.1338691659373216e-17 9.88091945640806e-17 2.1338691659373216e-17 -0.8744639706353663 -0.4850904699748882
12648144000.0 -0.8792916363289096 -0.476283758154587 9.90009761360259e-17 2.0332587429130694e-17 9.90009761360259e-17 2.0332587429130694e-17 -0.8792913227192993 -0.47628433712476176
12648761333.333334 -0.8840303048902377 -0.4674295883183925 9.918252048962653e-17 1.9324788849780908e-17 9.918252048962653e-17 1.9324788849780908e-17 -0.8840299971256828 -0.46743017038033985
12649378666.666666 -0.8886798178420695 -0.45852827760129894 9.935381298966235e-17 1.8315400013110927e-17 9.935381298966235e-17 1.8315400013110927e-17 -0.8886795159530368 -0.4585288626960186
12649996000.0 -0.8932397062750723 -0.44958072371205193 9.951484005857794e-17 1.7304525133450306e-17 9.951484005857794e-17 1.7304525133450306e-17 -0.8932394102914316 -0.4495813117802426
12650613333.333334 -0.8977095103186061 -0.44058782902317806 9.966558917746477e-17 1.6292268536920445e-17 9.966558917746477e-17 1.6292268536920445e-17 -0.8977092202696316 -0.44058842000524584
12651230666.666666 -0.9020887791871656 -0.43155050047988475 9.980604888692915e-17 1.5278734650707785e-17 9.980604888692915e-17 1.5278734650707785e-17 -0.9020884951015272 -0.4315510943159461
12651848000.0 -0.9063770712258573 -0.42246964950853744 9.993620878785718e-17 1.4264027992291087e-17 9.993620878785718e-17 1.4264027992291087e-17 -0.9063767931316228 -0.4224702461384282
12652465333.333334 -0.9105739539549332 -0.4133461919247687 1.0005605954206689e-16 1.3248253158689263e-17 1.0005605954206689e-16 1.3248253158689263e-17 -0.9105736818795632 -0.4133467912880483
12653082666.666666 -0.9146790041133115 -0.40418104784132325 1.0016559287284945e-16 1.2231514815722262e-17 1.0016559287284945e-16 1.2231514815722262e-17 -0.9146787380836554 -0.404181649877281
12653700000.0 -0.9186918077014602 -0.3949751415748231 1.0026480156540993e-16 1.1213917687195112e-17 1.0026480156540993e-16 1.1213917687195112e-17 -0.9186915477437572 -0.3949757462224854
12654317333.333334 -0.9226119600229561 -0.3857294015529906 1.0035367946718633e-16 1.0195566544194199e-17 1.0035367946718633e-16 1.0195566544194199e-17 -0.922611706162829 -0.38573000875112584
12654934666.666666 -0.9264390657253766 -0.37644476022083306 1.0043222148807114e-16 9.176566194271656e-18 1.0043222148807114e-16 9.176566194271656e-18 -0.9264388179878312 -0.3764453699079586
12655552000.0 -0.9301727388402491 -0.3671221539464208 1.0050042360051773e-16 8.157021470687268e-18 1.0050042360051773e-16 8.157021470687268e-18 -0.9301724972496713 -0.367122766060809
12656169333.333334 -0.9338126028217917 -0.3577625229268998 1.0055828283953642e-16 7.137037221677698e-18 1.0055828283953642e-16 7.137037221677698e-18 -0.933812367401946 -0.35776313740658455
12656786666.666666 -0.9373582905850812 -0.3483668110931979 1.00605797302588e-16 6.1167182996455135e-18 1.00605797302588e-16 6.1167182996455135e-18 -0.9373580613591068 -0.3483674278759804
12657404000.0 -0.940809444542938 -0.3389359660151712 1.0064296614936112e-16 5.0961695504376625e-18 1.0064296614936112e-16 5.0961695504376625e-18 -0.9408092215333476 -0.33893658503862667
12658021333.333334 -0.9441657166420897 -0.32947093880577494 1.0066978960144629e-16 4.075495802563154e-18 1.0066978960144629e-16 4.075495802563154e-18 -0.9441654998707658 -0.3294715600072582
12658638666.666666 -0.9474267683981458 -0.31997268402548956 1.0068626894189712e-16 3.0548018564824345e-18 1.0068626894189712e-16 3.0548018564824345e-18 -0.947426557886341 -0.3199733073421424
12659256000.0 -0.9505922709299068 -0.3104421595855701 1.0069240651468606e-16 2.0341924738151502e-18 1.0069240651468606e-16 2.0341924738151502e-18 -0.9505920666982399 -0.310442784954327
12659873333.333334 -0.953661904992371 -0.3008803266518952 1.00688205724049e-16 1.0137723666562636e-18 1.00688205724049e-16 1.0137723666562636e-18 -0.9536617070608259 -0.3008809540094899
12660490666.666666 -0.9566353610090086 -0.29128814954781856 1.0067367103372306e-16 -6.353813167276844e-21 1.0067367103372306e-16 -6.353813167276844e-21 -0.9566351693969316 -0.29128877883079035
12661108000.0 -0.9595123391029968 -0.2816665956568605 1.0064880796607495e-16 -1.0260814848294844e-18 1.0064880796607495e-16 -1.0260814848294844e-18 -0.9595121538290943 -0.2816672268015606
12661725333.333334 -0.9622925491274095 -0.27201663532530784 1.0061362310112193e-16 -2.0453061491581493e-18 1.0061362310112193e-16 -2.0453061491581493e-18 -0.9622923702097486 -0.27201726826790623
12662342666.666666 -0.9649757106945105 -0.26233924176427414 1.0056812407544377e-16 -3.0639233993752487e-18 1.0056812407544377e-16 -3.0639233993752487e-18 -0.9649755381505137 -0.26233987644076534
12662960000.0 -0.9675615532040482 -0.25263539095146575 1.005123195809878e-16 -4.081828931735024e-18 1.005123195809878e-16 -4.081828931735024e-18 -0.9675613870504951 -0.252636027297676
12663577333.333334 -0.9700498158704958 -0.24290606153294603 1.0044621936376481e-16 -5.098918556210247e-18 1.0044621936376481e-16 -5.098918556210247e-18 -0.9700496561235189 -0.2429066994845392
12664194666.666666 -0.9724402477494025 -0.23315223472424526 1.0036983422243917e-16 -6.11508820711407e-18 1.0036983422243917e-16 -6.11508820711407e-18 -0.972440094424488 -0.23315287421672992
12664812000.0 -0.9747326077626809 -0.22337489421148626 1.0028317600680946e-16 -7.130233953750686e-18 1.0028317600680946e-16 -7.130233953750686e-18 -0.9747324608746644 -0.2233755351802216
12665429333.333334 -0.9769266647229108 -0.21357502605220566 1.0018625761618355e-16 -8.144252011005145e-18 1.0018625761618355e-16 -8.144252011005145e-18 -0.9769265242859768 -0.21357566843240813
12666046666.666666 -0.9790221973566372 -0.20375361857599203 1.0007909299764665e-16 -9.157038749939865e-18 1.0007909299764665e-16 -9.157038749939865e-18 -0.9790220633843219 -0.20375426230274282
12666664000.0 -0.9810189943267715 -0.19391166228445197 9.996169714421877e-17 -1.0168490708387911e-17 9.996169714421877e-17 -1.0168490708387911e-17 -0.9810188668319533 -0.19391230729270195
12667281333.333334 -0.9829168542537992 -0.18405014975175935 9.983408609291434e-17 -1.1178504601454106e-17 9.983408609291434e-17 -1.1178504601454106e-17 -0.9829167332487053 -0.18405079597633697
12667898666.666666 -0.9847155857361403 -0.1741700755243599 9.969627692268455e-17 -1.2186977332090378e-17 9.969627692268455e-17 -1.2186977332090378e-17 -0.9847154712323397 -0.17417072289997704
12668516000.0 -0.9864150073694793 -0.16427243602047298 9.954828775226127e-17 -1.3193806001576705e-17 9.954828775226127e-17 -1.3193806001576705e-17 -0.9864148993778872 -0.1642730844817322
12669133333.333334 -0.9880149477649824 -0.154358229430078 9.939013773789371e-17 -1.4198887919997627e-17 9.939013773789371e-17 -1.4198887919997627e-17 -0.9880148462958547 -0.15435887891147848
12669750666.666666 -0.9895152455666664 -0.1444284556137413 9.922184707097785e-17 -1.5202120616701642e-17 9.922184707097785e-17 -1.5202120616701642e-17 -0.9895151506295993 -0.14442910604968567
12670368000.0 -0.9909157494676117 -0.13448411600211463 9.904343697557967e-17 -1.6203401850739675e-17 9.904343697557967e-17 -1.6203401850739675e-17 -0.990915661071544 -0.13448476732691597
