! Parameters = {f0=12700.012000; bw=77.238000; Q=6100.000000; N=10; m_0_1=1.184880; m_1_1=-0.991547; m_1_2=1.019692; m_2_2=-0.992196; m_2_3=0.656655; m_2_8=-0.003692; m_2_9=0.033012; m_3_3=-0.994133; m_3_4=0.545184; m_3_7=-0.003092; m_3_8=-0.100180; m_3_9=-0.003692; m_4_4=-0.997058; m_4_5=0.381519; m_4_6=0.000425; m_4_7=-0.120729; m_4_8=-0.003092; m_5_5=-0.996676; m_5_6=0.788874; m_5_7=0.000425; m_6_6=-0.996677; m_6_7=0.381861; m_7_7=-0.997044; m_7_8=0.545302; m_8_8=-0.994135; m_8_9=0.656968; m_9_9=-0.992201; m_9_10=1.020770; m_10_10=-0.991557; m_10_11=1.185675}
!
! Created with skrf (http://scikit-rf.org).
# Hz S RI R 50.0 
!freq ReS11 ImS11 ReS21 ImS21 ReS12 ImS12 ReS22 ImS22
12607400000.0 -0.346608075734788 0.9380100435684438 4.79175403276098e-18 -7.255917361756727e-17 4.79175403276098e-18 -7.255917361756727e-17 -0.34660866143870167 0.9380098271422949
12608017333.333334 -0.3390868009733518 0.9407550910866784 4.203394553095681e-18 -7.258136665438327e-17 4.203394553095681e-18 -7.258136665438327e-17 -0.33908738836253843 0.9407548793672659
12608634666.666666 -0.33154378910211857 0.9434398316308555 3.61499000553662e-18 -7.259879337540593e-17 3.61499000553662e-18 -7.259879337540593e-17 -0.33154437813876053 0.9434396246312897
12609252000.0 -0.32397952366487814 0.9460640930960889 3.0265789656834413e-18 -7.261145450578976e-17 3.0265789656834413e-18 -7.261145450578976e-17 -0.32398011431105594 0.9460638908291773
12609869333.333334 -0.31639448956777 0.9486277072545355 2.4381999944454523e-18 -7.261935108260144e-17 2.4381999944454523e-18 -7.261935108260144e-17 -0.31639508178546455 0.9486275097327799
12610486666.666666 -0.30878917304841236 0.9511305097661015 1.849891635540544e-18 -7.262248445462919e-17 1.849891635540544e-18 -7.262248445462919e-17 -0.3087897667995075 0.9511303170016988
12611104000.0 -0.30116406164451665 0.9535723401890517 1.2616924129425583e-18 -7.262085628217321e-17 1.2616924129425583e-18 -7.262085628217321e-17 -0.3011646568908017 0.9535721521938922
12611721333.333334 -0.2935196441628497 0.9559530419902227 6.736408284031942e-19 -7.261446853681418e-17 6.736408284031942e-19 -7.261446853681418e-17 -0.29352024086602213 0.9559528587758909
12612338666.666666 -0.28585641064773787 0.9582724625551119 8.577535891440678e-20 -7.260332350116244e-17 8.577535891440678e-20 -7.260332350116244e-17 -0.28585700876940523 0.9582722841328836
12612956000.0 -0.2781748523495964 0.9605304531976733 -5.018655457935413e-19 -7.258742376858677e-17 -5.018655457935413e-19 -7.258742376858677e-17 -0.27817545185127907 0.9605302795785162
12613573333.333334 -0.2704754616937921 0.9627268691697429 -1.0892434657533405e-18 -7.256677224292286e-17 -1.0892434657533405e-18 -7.256677224292286e-17 -0.2704760625369263 0.9627267003643175
12614190666.666666 -0.26275873224864305 0.9648615696704548 -1.6763200132795947e-18 -7.254137213816151e-17 -1.6763200132795947e-18 -7.254137213816151e-17 -0.2627593343945817 0.9648614056891084
12614808000.0 -0.2550251586939917 0.966934417855188 -2.2630568354537322e-18 -7.251122697811652e-17 -2.2630568354537322e-18 -7.251122697811652e-17 -0.2550257621040094 0.9669342587079618
12615425333.333334 -0.24727523678955363 0.96894528084434 -2.8494156166366214e-18 -7.247634059607295e-17 -2.8494156166366214e-18 -7.247634059607295e-17 -0.24727584142484657 0.9689451265409615
12616042666.666666 -0.23950946334296894 0.9708940297318801 -3.4353580809550592e-18 -7.243671713441464e-17 -3.4353580809550592e-18 -7.243671713441464e-17 -0.23951006916465933 0.9708938802817673
12616660000.0 -0.23172833617803823 0.9727805395935943 -4.020845994797063e-18 -7.23923610442318e-17 -4.020845994797063e-18 -7.23923610442318e-17 -0.23172894314717546 0.9727803950058507
12617277333.333334 -0.22393235410286416 0.9746046894950775 -4.6058411692931084e-18 -7.234327708490898e-17 -4.6058411692931084e-18 -7.234327708490898e-17 -0.22393296218042827 0.9746045497784963
12617894666.666666 -0.2161220168778488 0.9763663624994966 -5.190305462801753e-18 -7.228947032369295e-17 -5.190305462801753e-18 -7.228947032369295e-17 -0.21612262602475235 0.9763662276625563
12618512000.0 -0.2082978251834618 0.978065445675128 -5.774200783403417e-18 -7.223094613523865e-17 -5.774200783403417e-18 -7.223094613523865e-17 -0.20829843536055306 0.9780653157259959
12619129333.333334 -0.2004602805884776 0.9797018301025247 -6.357489091351011e-18 -7.216771020113927e-17 -6.357489091351011e-18 -7.216771020113927e-17 -0.20046089175654208 0.9797017050490511
12619746666.666666 -0.19260988551765573 0.981275410881534 -6.940132401553109e-18 -7.209976850943293e-17 -6.940132401553109e-18 -7.209976850943293e-17 -0.1926104976374197 0.9812752907312565
12620364000.0 -0.18474714321936578 0.9827860871380559 -7.522092786052482e-18 -7.202712735408892e-17 -7.522092786052482e-18 -7.202712735408892e-17 -0.18474775625149814 0.9827859718981967
12620981333.333334 -0.17687255773366134 0.9842337620304437 -8.103332376461163e-18 -7.194979333447926e-17 -8.103332376461163e-18 -7.194979333447926e-17 -0.17687317163877647 0.9842336517079094
12621598666.666666 -0.1689866338597732 0.9856183427557492 -8.68381336644164e-18 -7.186777335482354e-17 -8.68381336644164e-18 -7.186777335482354e-17 -0.16898724859843325 0.9856182373571306
12622216000.0 -0.1610898771237215 0.986939740555679 -9.263498014140234e-18 -7.178107462362006e-17 -9.263498014140234e-18 -7.178107462362006e-17 -0.16109049265643913 0.9869396400872505
12622833333.333334 -0.15318279374596444 0.9881978707222698 -9.842348644649943e-18 -7.168970465305259e-17 -9.842348644649943e-18 -7.168970465305259e-17 -0.1531834100332053 0.9881977751899895
12623450666.666666 -0.1452658906090036 0.9893926526033126 -1.0420327652435289e-17 -7.159367125838143e-17 -1.0420327652435289e-17 -7.159367125838143e-17 -0.14526650761118873 0.9893925620128211
12624068000.0 -0.13733967522486257 0.9905240096075294 -1.0997397503782317e-17 -7.149298255731137e-17 -1.0997397503782317e-17 -7.149298255731137e-17 -0.13734029290237107 0.9905239239641498
12624685333.333334 -0.1294046557023553 0.991591869209506 -1.1573520739222442e-17 -7.138764696934215e-17 -1.1573520739222442e-17 -7.138764696934215e-17 -0.129405274015527 0.9915917885182451
12625302666.666666 -0.12146134071488045 0.9925961629542962 -1.214865997594867e-17 -7.12776732151009e-17 -1.214865997594867e-17 -7.12776732151009e-17 -0.12146195962401823 0.9925960872198416
12625920000.0 -0.11351023946747449 0.9935368264618498 -1.2722777910258045e-17 -7.116307031564838e-17 -1.2722777910258045e-17 -7.116307031564838e-17 -0.11351085893284696 0.9935367556885719
12626537333.333334 -0.105551861664395 0.9944137994311153 -1.3295837319929457e-17 -7.104384759177723e-17 -1.3295837319929457e-17 -7.104384759177723e-17 -0.10555248164623901 0.9944137336230661
12627154666.666666 -0.09758671747636163 0.995227025643916 -1.3867801066653783e-17 -7.092001466327989e-17 -1.3867801066653783e-17 -7.092001466327989e-17 -0.09758733793488465 0.9952269648048271
12627772000.0 -0.08961531750776634 0.9959764529685573 -1.4438632098437203e-17 -7.079158144820029e-17 -1.4438632098437203e-17 -7.079158144820029e-17 -0.08961593840314937 0.9959763971018435
12628389333.333334 -0.08163817276416802 0.996662033363153 -1.5008293451969985e-17 -7.065855816207308e-17 -1.5008293451969985e-17 -7.065855816207308e-17 -0.08163879405656785 0.9966619824719091
12629006666.666666 -0.0736557946191945 0.9972837228787308 -1.557674825503461e-17 -7.052095531713321e-17 -1.557674825503461e-17 -7.052095531713321e-17 -0.07365641626874636 0.9972836769657322
12629624000.0 -0.06566869478215778 0.9978414816620201 -1.6143959728874973e-17 -7.037878372151386e-17 -1.6143959728874973e-17 -7.037878372151386e-17 -0.06566931674897794 0.9978414407297228
12630241333.333334 -0.057677385264910605 0.9983352739580276 -1.6709891190572463e-17 -7.023205447842173e-17 -1.6709891190572463e-17 -7.023205447842173e-17 -0.05767800750909894 0.998335238008569
12630858666.666666 -0.049682378349308054 0.9987650681123177 -1.727450605540301e-17 -7.008077898529671e-17 -1.727450605540301e-17 -7.008077898529671e-17 -0.04968300083095053 0.9987650371475155
12631476000.0 -0.04168418655399854 0.9991308365730579 -1.7837767839208466e-17 -6.99249689329464e-17 -1.7837767839208466e-17 -6.99249689329464e-17 -0.04168480923316976 0.999130810594409
12632093333.333334 -0.033683322602051466 0.9994325558927595 -1.8399640160732952e-17 -6.976463630467001e-17 -1.8399640160732952e-17 -6.976463630467001e-17 -0.03368394543881731 0.9994325349014415
12632710666.666666 -0.025680299387748642 0.9996702067298006 -1.896008674397112e-17 -6.959979337535719e-17 -1.896008674397112e-17 -6.959979337535719e-17 -0.025680922342168826 0.9996701907266725
12633328000.0 -0.0176756299436484 0.9998437738496665 -1.9519071420506678e-17 -6.943045271056887e-17 -1.9519071420506678e-17 -6.943045271056887e-17 -0.017676252975778933 0.9998437628352654
12633945333.333334 -0.009669827408038444 0.9999532461259105 -2.0076558131833213e-17 -6.925662716560277e-17 -2.0076558131833213e-17 -6.925662716560277e-17 -0.00967045047793432 0.9999532401004558
12634562666.666666 -0.0016634049917288469 0.9999986165408831 -2.0632510931674712e-17 -6.90783298845374e-17 -2.0632510931674712e-17 -6.90783298845374e-17 -0.0016640280594465149 0.9999986155042736
12635180000.0 0.00634312405473368 0.9999798821861736 -2.1186893988297707e-17 -6.889557429925761e-17 -2.1186893988297707e-17 -6.889557429925761e-17 0.006342501029133727 0.9999798861379874
12635797333.333334 0.014349246473910789 0.9998970442627974 -2.1739671586807418e-17 -6.870837412846454e-17 -2.1739671586807418e-17 -6.870837412846454e-17 0.014348623530361452 0.9998970532022939
12636414666.666666 0.022354449034431616 0.9997501080811214 -2.229080813144497e-17 -6.851674337666362e-17 -2.229080813144497e-17 -6.851674337666362e-17 0.022353826212856646 0.9997501220072408
12637032000.0 0.030358218563950285 0.9995390830605227 -2.2840268147875934e-17 -6.832069633313449e-17 -2.2840268147875934e-17 -6.832069633313449e-17 0.030357595904261684 0.9995391019718842
12637649333.333334 0.03836004198198584 0.999263982728782 -2.3388016285462212e-17 -6.812024757088505e-17 -2.3388016285462212e-17 -6.812024757088505e-17 0.03835941952408135 0.9992640066236863
12638266666.666666 0.04635940633272799 0.9989248247212217 -2.3934017319523076e-17 -6.791541194558818e-17 -2.3934017319523076e-17 -6.791541194558818e-17 0.04635878411648855 0.9989248535976508
12638884000.0 0.05435579881809066 0.9985216307795718 -2.4478236153604463e-17 -6.770620459449446e-17 -2.4478236153604463e-17 -6.770620459449446e-17 0.05435517688337773 0.9985216646351867
12639501333.333334 0.06234870683049923 0.9980544267505717 -2.5020637821721513e-17 -6.749264093533241e-17 -2.5020637821721513e-17 -6.749264093533241e-17 0.062348085217152446 0.9980544655827165
12640118666.666666 0.07033761798563816 0.9975232425843288 -2.5561187490590053e-17 -6.727473666519267e-17 -2.5561187490590053e-17 -6.727473666519267e-17 0.07033699673347261 0.9975232863900283
12640736000.0 0.0783220201556374 0.9969281123323723 -2.6099850461878705e-17 -6.705250775938124e-17 -2.6099850461878705e-17 -6.705250775938124e-17 0.07832139930444114 0.9969281611083326
12641353333.333334 0.086301401501392 0.9962690741455064 -2.6636592174394568e-17 -6.682597047027862e-17 -2.6636592174394568e-17 -6.682597047027862e-17 0.08630078109092341 0.9962691278881142
12641970666.666666 0.09427525050588341 0.9955461702713242 -2.717137820632523e-17 -6.659514132615394e-17 -2.717137820632523e-17 -6.659514132615394e-17 0.09427463057586898 0.9955462289766512
12642588000.0 0.10224305600660248 0.9947594470515361 -2.7704174277423535e-17 -6.636003712998095e-17 -2.7704174277423535e-17 -6.636003712998095e-17 0.10224243659673381 0.9947595107153339
12643205333.333334 0.11020430722851528 0.9939089549189752 -2.8234946251191675e-17 -6.612067495823252e-17 -2.8234946251191675e-17 -6.612067495823252e-17 0.11020368837844677 0.9939090235366782
12643822666.666666 0.11815849381683423 0.9929947483943622 -2.876366013707948e-17 -6.587707215964751e-17 -2.876366013707948e-17 -6.587707215964751e-17 0.11815787556618063 0.9929948219610885
12644440000.0 0.1261051058695088 0.9920168860828359 -2.929028209263849e-17 -6.562924635399471e-17 -2.929028209263849e-17 -6.562924635399471e-17 0.12610448825784243 0.9920169645933857
12645057333.333334 0.13404363397010985 0.9909754306701725 -2.98147784256767e-17 -6.537721543081448e-17 -2.98147784256767e-17 -6.537721543081448e-17 0.13404301703695828 0.9909755141190303
12645674666.666666 0.14197356922040166 0.9898704489187796 -3.033711559641789e-17 -6.512099754813732e-17 -3.033711559641789e-17 -6.512099754813732e-17 0.14197295300524518 0.9898705373001145
12646292000.0 0.14989440327307715 0.9887020116634009 -3.0857260219643735e-17 -6.48606111311864e-17 -3.0857260219643735e-17 -6.48606111311864e-17 0.14989378781534607 0.9887021049710654
12646909333.333334 0.15780562836414805 0.9874701938065995 -3.137517906679992e-17 -6.459607487107663e-17 -3.137517906679992e-17 -6.459607487107663e-17 0.15780501370322028 0.9874702920341317
12647526666.666666 0.1657067373456927 0.9861750743139336 -3.189083906812209e-17 -6.43274077234813e-17 -3.189083906812209e-17 -6.43274077234813e-17 0.1657061235208913 0.9861751774545567
12648144000.0 0.17359722371825348 0.9848167362089063 -3.2404207314748756e-17 -6.40546289072827e-17 -3.2404207314748756e-17 -6.40546289072827e-17 0.173596610768844 0.9848168442555285
12648761333.333334 0.18147658166336225 0.9833952665676345 -3.291525106079908e-17 -6.3777757903218e-17 -3.291525106079908e-17 -6.3777757903218e-17 0.18147596962855037 0.9833953795128513
12649378666.666666 0.18934430607585395 0.9819107565132892 -3.34239377254575e-17 -6.349681445249936e-17 -3.34239377254575e-17 -6.349681445249936e-17 0.18934369499478304 0.9819108743493831
12649996000.0 0.19719989259644238 0.9803633012102195 -3.393023489504488e-17 -6.321181855541845e-17 -3.393023489504488e-17 -6.321181855541845e-17 0.19719928250819038 0.9803634239291579
12650613333.333334 0.2050428376438554 0.9787529998578821 -3.443411032508135e-17 -6.292279046993238e-17 -3.443411032508135e-17 -6.292279046993238e-17 0.20504222858743326 0.9787531274513229
12651230666.666666 0.21287263844717422 0.9770799556844807 -3.493553194231964e-17 -6.262975071024353e-17 -3.493553194231964e-17 -6.262975071024353e-17 0.2128720304615228 0.9770800881437692
12651848000.0 0.22068879307825717 0.9753442759403016 -3.5434467846790964e-17 -6.233272004534863e-17 -3.5434467846790964e-17 -6.233272004534863e-17 0.22068818620224487 0.9753444132564714
12652465333.333334 0.22849080048358245 0.9735460718909096 -3.5930886313821386e-17 -6.203171949758231e-17 -3.5930886313821386e-17 -6.203171949758231e-17 0.22849019475600288 0.9735462140546854
12653082666.666666 0.23627816051653538 0.9716854588099851 -3.642475579603406e-17 -6.172677034114563e-17 -3.642475579603406e-17 -6.172677034114563e-17 0.23627755597610445 0.9716856058117802
12653700000.0 0.24405037396963494 0.9697625559718879 -3.691604492536709e-17 -6.141789410060185e-17 -3.691604492536709e-17 -6.141789410060185e-17 0.24404977065498915 0.9697627078018075
12654317333.333334 0.2518069426062051 0.9677774866440954 -3.7404722515026397e-17 -6.1105112549388e-17 -3.7404722515026397e-17 -6.1105112549388e-17 0.2518063405558983 0.9677776432919364
12654934666.666666 0.2595473691924791 0.9657303780792595 -3.789075756148538e-17 -6.078844770827477e-17 -3.789075756148538e-17 -6.078844770827477e-17 0.25954676844498026 0.9657305395345095
12655552000.0 0.2672711575296397 0.9636213615070048 -3.837411924643679e-17 -6.046792184383201e-17 -3.837411924643679e-17 -6.046792184383201e-17 0.26727055812333067 0.9636215277588452
12656169333.333334 0.2749778124852976 0.9614505721256018 -3.8854776938726867e-17 -6.014355746688234e-17 -3.8854776938726867e-17 -6.014355746688234e-17 0.27497721445847056 0.9614507431629075
12656786666.666666 0.28266684002542586 0.9592181490932544 -3.933270019629848e-17 -5.981537733092462e-17 -3.933270019629848e-17 -5.981537733092462e-17 0.28266624341628044 0.9592183249045941
12657404000.0 0.29033774724605416 0.9569242355191623 -3.980785876811289e-17 -5.948340443054827e-17 -3.980785876811289e-17 -5.948340443054827e-17 0.29033715209269634 0.956924416092802
12658021333.333334 0.2979900424048151 0.9545689784543723 -4.028022259605294e-17 -5.914766199983538e-17 -4.028022259605294e-17 -5.914766199983538e-17 0.2979894487452527 0.9545691637782711
12658638666.666666 0.30562323495238264 0.9521525288823681 -4.0749761816811336e-17 -5.880817351074916e-17 -4.0749761816811336e-17 -5.880817351074916e-17 0.3056226428245246 0.9521527189441829
12659256000.0 0.3132368355640834 0.9496750417093449 -4.121644676378028e-17 -5.84649626714966e-17 -4.121644676378028e-17 -5.84649626714966e-17 0.31323624500573705 0.9496752364964317
12659873333.333334 0.3208303561711831 0.9471366757543068 -4.168024796891285e-17 -5.811805342488748e-17 -4.168024796891285e-17 -5.811805342488748e-17 0.3208297672200509 0.947136875253717
12660490666.666666 0.32840330999209244 0.9445375937389069 -4.2141136164570405e-17 -5.776746994667831e-17 -4.2141136164570405e-17 -5.776746994667831e-17 0.32840272268577053 0.9445377979373932
12661108000.0 0.3359552115637621 0.941877962276958 -4.259908228537264e-17 -5.741323664388953e-17 -4.259908228537264e-17 -5.741323664388953e-17 0.33595462593973735 0.9418781711609724
12661725333.333334 0.343485576772587 0.939157951863823 -4.3054057470009217e-17 -5.705537815312672e-17 -4.3054057470009217e-17 -5.705537815312672e-17 0.3434849928682347 0.9391581654195186
12662342666.666666 0.35099392288565506 0.93637773686541 -4.3506033063061695e-17 -5.669391933886897e-17 -4.3506033063061695e-17 -5.669391933886897e-17 0.3509933407382368 0.9363779550786417
12662960000.0 0.3584797685814794 0.9335374955070724 -4.3954980616794905e-17 -5.632888529175511e-17 -4.3954980616794905e-17 -5.632888529175511e-17 0.35847918822814073 0.9335377183633987
12663577333.333334 0.3659426339810396 0.930637409862115 -4.440087189293444e-17 -5.596030132685622e-17 -4.440087189293444e-17 -5.596030132685622e-17 0.36594205545880737 0.9306376373467983
12664194666.666666 0.3733820406784648 0.9276776658401521 -4.484367886444376e-17 -5.558819298192249e-17 -4.484367886444376e-17 -5.558819298192249e-17 0.37338146402424427 0.9276778979381577
12664812000.0 0.38079751177162147 0.924658453175219 -4.528337371727102e-17 -5.5212586015628985e-17 -4.528337371727102e-17 -5.5212586015628985e-17 0.3807969370221955 0.9246586898712201
12665429333.333334 0.38818857189287154 0.9215799654135397 -4.571992885209229e-17 -5.4833506405798604e-17 -4.571992885209229e-17 -5.4833506405798604e-17 0.3881879990848964 0.9215802066919145
12666046666.666666 0.39555474723933326 0.9184423999011998 -4.615331688602127e-17 -5.4450980347626976e-17 -4.615331688602127e-17 -5.4450980347626976e-17 0.39555417640933777 0.9184426457460354
12666664000.0 0.40289556560346595 0.9152459577714128 -4.658351065434476e-17 -5.4065034251860024e-17 -4.658351065434476e-17 -5.4065034251860024e-17 0.4028949967878486 0.9152462081665056
12667281333.333334 0.4102105564031309 0.9119908439317143 -4.7010483212188615e-17 -5.367569474300367e-17 -4.7010483212188615e-17 -5.367569474300367e-17 0.41020998963815763 0.91199109886057
12667898666.666666 0.4174992507119149 0.9086772670507597 -4.7434207836215416e-17 -5.328298865748126e-17 -4.7434207836215416e-17 -5.328298865748126e-17 0.41749868603371587 0.9086775264965937
12668516000.0 0.4247611812892404 0.9053054395449183 -4.7854658026281684e-17 -5.2886943041798166e-17 -4.7854658026281684e-17 -5.2886943041798166e-17 0.4247606187338092 0.9053057034906601
12669133333.333334 0.4319958826099834 0.9018755775648152 -4.827180750708247e-17 -5.24875851506933e-17 -4.827180750708247e-17 -5.24875851506933e-17 0.4319953222131742 0.9018758459931072
12669750666.666666 0.4392028908947298 0.8983879009812852 -4.8685630229794374e-17 -5.2084942445262776e-17 -4.8685630229794374e-17 -5.2084942445262776e-17 0.43920233269225456 0.8983881738744837
