! Parameters = {f0=12700.012000; bw=77.238000; Q=6100.000000; N=10; m_0_1=1.336231; m_1_1=1.278723; m_1_2=1.171043; m_2_2=1.278074; m_2_3=0.808006; m_2_8=0.003875; m_2_9=0.040579; m_3_3=1.276137; m_3_4=0.696535; m_3_7=0.004475; m_3_8=-0.092613; m_3_9=0.003875; m_4_4=1.273212; m_4_5=0.532870; m_4_6=0.007992; m_4_7=-0.113162; m_4_8=0.004475; m_5_5=1.273594; m_5_6=0.940225; m_5_7=0.007992; m_6_6=1.273593; m_6_7=0.533212; m_7_7=1.273226; m_7_8=0.696653; m_8_8=1.276135; m_8_9=0.808319; m_9_9=1.278069; m_9_10=1.172121; m_10_10=1.278713; m_10_11=1.337026}
!
! Created with skrf (http://scikit-rf.org).
# Hz S RI R 50.0 
!freq ReS11 ImS11 ReS21 ImS21 ReS12 ImS12 ReS22 ImS22
12607400000.0 0.023207804500547286 -0.9997306626337259 3.9170427876442434e-17 1.44451344470505e-16 3.9170427876442434e-17 1.44451344470505e-16 0.02320850819033981 -0.9997306462979835
12608017333.333334 0.01072876585683434 -0.999942445135216 4.097495764541141e-17 1.4391940498742643e-16 4.097495764541141e-17 1.4391940498742643e-16 0.01072946966124408 -0.9999424375835806
12608634666.666666 -0.0017519440174480973 -0.9999984653448046 4.277230719504548e-17 1.43364935856967e-16 4.277230719504548e-17 1.43364935856967e-16 -0.001751240208059484 -0.9999984665775936
12609252000.0 -0.01423238098637489 -0.9998987145362593 4.4562195406719176e-17 1.427880334910705e-16 4.4562195406719176e-17 1.427880334910705e-16 -0.014231677281635793 -0.9998987245524196
12609869333.333334 -0.02671060095664757 -0.9996432082479927 4.634434245044826e-17 1.4218879780730367e-16 4.634434245044826e-17 1.4218879780730367e-16 -0.026709897466159368 -0.9996432270451054
12610486666.666666 -0.03918466018008728 -0.9992319862806512 4.81184698285144e-17 1.4156733221172248e-16 4.81184698285144e-17 1.4156733221172248e-16 -0.03918395701340722 -0.9992320138549283
12611104000.0 -0.0516526155570398 -0.9986651126908966 4.988430041899256e-17 1.4092374358115504e-16 4.988430041899256e-17 1.4092374358115504e-16 -0.051651912823664 -0.9986651490371842
12611721333.333334 -0.06411252493820263 -0.9979426757814563 5.1641558518914497e-17 1.402581422449845e-16 5.1641558518914497e-17 1.402581422449845e-16 -0.06411182274754897 -0.9979427208932341
12612338666.666666 -0.07656244742800776 -0.9970647880873333 5.3389969887312307e-17 1.3957064196635364e-16 5.3389969887312307e-17 1.3957064196635364e-16 -0.07656174588939887 -0.9970648419567165
12612956000.0 -0.08900044368633289 -0.9960315863583048 5.5129261787933396e-17 1.3886135992286141e-16 5.5129261787933396e-17 1.3886135992286141e-16 -0.08899974290897915 -0.9960316489760452
12613573333.333334 -0.10142457623087878 -0.9948432315376086 5.685916303170246e-17 1.3813041668673042e-16 5.685916303170246e-17 1.3813041668673042e-16 -0.10142387632386139 -0.9948433028930974
12614190666.666666 -0.1138329097389165 -0.9934999087368737 5.857940401900038e-17 1.3737793620441319e-16 5.857940401900038e-17 1.3737793620441319e-16 -0.11383221081117033 -0.9934999888181407
12614808000.0 -0.12622351134875515 -0.9920018272072866 6.028971678155836e-17 1.3660404577572236e-16 6.028971678155836e-17 1.3660404577572236e-16 -0.12622281350905185 -0.9920019160010044
12615425333.333334 -0.13859445096082595 -0.9903492203069945 6.198983502419507e-17 1.358088760323903e-16 6.198983502419507e-17 1.358088760323903e-16 -0.13859375431775717 -0.9903493177984795
12616042666.666666 -0.15094380153833656 -0.9885423454647557 6.367949416619543e-17 1.3499256091614364e-16 6.367949416619543e-17 1.3499256091614364e-16 -0.15094310620029683 -0.9885424516379713
12616660000.0 -0.16326963940739153 -0.9865814841398479 6.53584313824024e-17 1.3415523765626476e-16 6.53584313824024e-17 1.3415523765626476e-16 -0.1632689454825616 -0.9865815989774073
12617277333.333334 -0.17557004455692632 -0.9844669417781806 6.702638564409294e-17 1.3329704674660752e-16 6.702638564409294e-17 1.3329704674660752e-16 -0.17556935215325617 -0.9844670652613479
12617894666.666666 -0.18784310093717274 -0.982199047764816 6.868309775943891e-17 1.3241813192216053e-16 6.868309775943891e-17 1.3241813192216053e-16 -0.1878424101623648 -0.9821991798735112
12618512000.0 -0.20008689675896474 -0.9797781553725171 7.03283104137838e-17 1.3151864013504743e-16 7.03283104137838e-17 1.3151864013504743e-16 -0.20008620772045727 -0.9797782960853187
12619129333.333334 -0.21229952479070102 -0.9772046417068677 7.196176820948697e-17 1.3059872153009155e-16 7.196176820948697e-17 1.3059872153009155e-16 -0.2122988375956513 -0.9772047910010161
12619746666.666666 -0.22447908265599642 -0.9744789076474295 7.358321770556156e-17 1.2965852941982573e-16 7.358321770556156e-17 1.2965852941982573e-16 -0.22447839741126419 -0.9744790654988311
12620364000.0 -0.23662367312995966 -0.9716013777852991 7.519240745691306e-17 1.2869822025905117e-16 7.519240745691306e-17 1.2869822025905117e-16 -0.23662298994209038 -0.9716015441685291
12620981333.333334 -0.24873140443444963 -0.9685725003570316 7.678908805324859e-17 1.2771795361891265e-16 7.678908805324859e-17 1.2771795361891265e-16 -0.24873072340965785 -0.968572675245339
12621598666.666666 -0.2608003905329819 -0.9653927471747696 7.837301215772189e-17 1.2671789216044708e-16 7.837301215772189e-17 1.2671789216044708e-16 -0.26079971177713523 -0.9653929305400822
12622216000.0 -0.27282875142446367 -0.9620626135527623 7.994393454512698e-17 1.256982016077204e-16 7.994393454512698e-17 1.256982016077204e-16 -0.2728280750430657 -0.9620628053656892
12622833333.333334 -0.2848146134360987 -0.958582618230192 8.150161213985916e-17 1.2465905072042048e-16 8.150161213985916e-17 1.2465905072042048e-16 -0.2848139395342725 -0.9585828184600287
12623450666.666666 -0.2967561095149781 -0.9549533032904491 8.304580405340664e-17 1.2360061126605353e-16 8.304580405340664e-17 1.2360061126605353e-16 -0.29675543819745054 -0.9549535119051837
12624068000.0 -0.3086513795194587 -0.9511752340765289 8.457627162158917e-17 1.2252305799160725e-16 8.457627162158917e-17 1.2252305799160725e-16 -0.30865071089054447 -0.9511754510428486
12624685333.333334 -0.32049857050837643 -0.9472489991031353 8.609277844135966e-17 1.2142656859480087e-16 8.609277844135966e-17 1.2142656859480087e-16 -0.32049790467196043 -0.9472492243864271
12625302666.666666 -0.332295837029898 -0.9431752099649376 8.759509040723558e-17 1.2031132369488235e-16 8.759509040723558e-17 1.2031132369488235e-16 -0.3322951740894204 -0.9431754435292977
12625920000.0 -0.34404134140920345 -0.9389545012412266 8.908297574742121e-17 1.191775068029247e-16 8.908297574742121e-17 1.191775068029247e-16 -0.3440406814676431 -0.9389547430494642
12626537333.333334 -0.35573325403420775 -0.934587530397255 9.0556205059452e-17 1.1802530429174808e-16 9.0556205059452e-17 1.1802530429174808e-16 -0.35573259719406597 -0.9345877804108984
12627154666.666666 -0.36736975364109603 -0.9300749776816308 9.201455134551256e-17 1.16854905365357e-16 9.201455134551256e-17 1.16854905365357e-16 -0.3673691000043819 -0.9300752358609361
12627772000.0 -0.37894902759775834 -0.9254175460204533 9.345779004739259e-17 1.1566650202791386e-16 9.345779004739259e-17 1.1566650202791386e-16 -0.37894837726597164 -0.9254178123244075
12628389333.333334 -0.390469272186146 -0.9206159609078195 9.488569908091294e-17 1.1446028905238963e-16 9.488569908091294e-17 1.1446028905238963e-16 -0.39046862526026127 -0.9206162352941466
12629006666.666666 -0.40192869288344685 -0.9156709702927186 9.629805887011106e-17 1.1323646394865567e-16 9.629805887011106e-17 1.1323646394865567e-16 -0.40192804946389926 -0.9156712527178906
12629624000.0 -0.4133255046413089 -0.910583344462665 9.769465238088097e-17 1.1199522693126969e-16 9.769465238088097e-17 1.1199522693126969e-16 -0.41332486482797676 -0.910583634881904
12630241333.333334 -0.4246579321641579 -0.9053538759235894 9.907526515430753e-17 1.107367808867535e-16 9.907526515430753e-17 1.107367808867535e-16 -0.4246572960563486 -0.9053541742908776
12630858666.666666 -0.43592421018542993 -0.8999833792765369 1.0043968533947921e-16 1.0946133134055081e-16 1.0043968533947921e-16 1.0946133134055081e-16 -0.4359235778818634 -0.8999836855446219
12631476000.0 -0.44712258374306146 -0.8944726910905301 1.0178770372597705e-16 1.081690864234907e-16 1.0178770372597705e-16 1.081690864234907e-16 -0.44712195534185606 -0.8944730052109348
12632093333.333334 -0.45825130845239975 -0.8888226697724741 1.0311911377584079e-16 1.0686025683793916e-16 1.0311911377584079e-16 1.0686025683793916e-16 -0.45825068405105657 -0.8888229916955033
12632710666.666666 -0.4693086507779325 -0.8830341954334511 1.0443371165515589e-16 1.0553505582350536e-16 1.0443371165515589e-16 1.0553505582350536e-16 -0.46930803047331926 -0.8830345251081975
12633328000.0 -0.4802928883037748 -0.8771081697513846 1.0573129626523095e-16 1.04193699122331e-16 1.0573129626523095e-16 1.04193699122331e-16 -0.4802922721921121 -0.8771085071257395
12633945333.333334 -0.49120231000146836 -0.8710455158308468 1.0701166927321076e-16 1.0283640494411636e-16 1.0701166927321076e-16 1.0283640494411636e-16 -0.49120169817831477 -0.8710458608515084
12634562666.666666 -0.5020352164967633 -0.8648471780591372 1.0827463514238513e-16 1.0146339393062835e-16 1.0827463514238513e-16 1.0146339393062835e-16 -0.5020346090569993 -0.8648475306716158
12635180000.0 -0.5127899203342801 -0.8585141219591955 1.0952000116195326e-16 1.0007488911992663e-16 1.0952000116195326e-16 1.0007488911992663e-16 -0.5127893173720943 -0.8585144821078252
12635797333.333334 -0.5234647462403667 -0.8520473340392029 1.1074757747634387e-16 9.867111591021459e-17 1.1074757747634387e-16 9.867111591021459e-17 -0.5234641478492419 -0.85204770166715
12636414666.666666 -0.5340580313840602 -0.8454478216389157 1.1195717711409648e-16 9.725230202330795e-17 1.1195717711409648e-16 9.725230202330795e-17 -0.5340574376567566 -0.8454481966881856
12637032000.0 -0.5445681256361042 -0.8387166127727445 1.1314861601627905e-16 9.581867746774173e-17 1.1314861601627905e-16 9.581867746774173e-17 -0.5445675366646481 -0.8387169951841938
12637649333.333334 -0.5549933918259949 -0.8318547559696235 1.1432171306438106e-16 9.437047450159606e-17 1.1432171306438106e-16 9.437047450159606e-17 -0.554992807701662 -0.8318551456829678
12638266666.666666 -0.5653322059970048 -0.8248633201096809 1.1547629010780766e-16 9.290792759489105e-17 1.1547629010780766e-16 9.290792759489105e-17 -0.5653316268103065 -0.8248637170635026
12638884000.0 -0.575582957659145 -0.8177433942577315 1.1661217199083946e-16 9.143127339171097e-17 1.1661217199083946e-16 9.143127339171097e-17 -0.5755823834998157 -0.8177437983894933
12639501333.333334 -0.5857440500400385 -0.8104960874936395 1.1772918657911513e-16 8.994075067199431e-17 1.1772918657911513e-16 8.994075067199431e-17 -0.5857434809970202 -0.8104964987396912
12640118666.666666 -0.5958139003336019 -0.8031225287395853 1.1882716478564363e-16 8.84366003129826e-17 1.1882716478564363e-16 8.84366003129826e-17 -0.5958133364950311 -0.8031229470351747
12640736000.0 -0.6057909399468301 -0.7956238665840423 1.1990594059635168e-16 8.691906525030994e-17 1.1990594059635168e-16 8.691906525030994e-17 -0.6057903814000241 -0.7956242918633257
12641353333.333334 -0.6156736147436823 -0.7880012691031999 1.2096535109504395e-16 8.53883904389136e-17 1.2096535109504395e-16 8.53883904389136e-17 -0.6156730615751258 -0.7880017012992525
12641970666.666666 -0.6254603852876283 -0.7802559236786721 1.2200523648795765e-16 8.384482281351092e-17 1.2200523648795765e-16 8.384482281351092e-17 -0.6254598375829595 -0.7802563627234982
12642588000.0 -0.6351497270812181 -0.7723890368127058 1.2302544012778455e-16 8.228861124882017e-17 1.2302544012778455e-16 8.228861124882017e-17 -0.6351491849252167 -0.7723894826372495
12643205333.333334 -0.644740130803561 -0.7644018339402471 1.240258085371674e-16 8.072000651951756e-17 1.240258085371674e-16 8.072000651951756e-17 -0.6447395942801327 -0.7644022864744032
12643822666.666666 -0.6542301025456034 -0.7562955592379047 1.250061914317104e-16 7.913926125987575e-17 1.250061914317104e-16 7.913926125987575e-17 -0.6542295717377695 -0.7562960184105297
12644440000.0 -0.6636181640425799 -0.7480714754303645 1.259664417424543e-16 7.754662992315971e-17 1.259664417424543e-16 7.754662992315971e-17 -0.6636176390324625 -0.7480719411692874
12645057333.333334 -0.672902852904497 -0.7397308635935064 1.2690641563786112e-16 7.594236874070838e-17 1.2690641563786112e-16 7.594236874070838e-17 -0.6729023337733082 -0.739731335825542
12645674666.666666 -0.6820827228436815 -0.7312750229550817 1.278259725452535e-16 7.432673568079474e-17 1.278259725452535e-16 7.432673568079474e-17 -0.6820822096717092 -0.7312755016060392
12646292000.0 -0.6911563439005293 -0.7227052706919045 1.2872497517177665e-16 7.26999904071475e-17 1.2872497517177665e-16 7.26999904071475e-17 -0.691155836767125 -0.7227057556866006
12646909333.333334 -0.7001223026656274 -0.7140229417252545 1.2960328952475035e-16 7.106239423736681e-17 1.2960328952475035e-16 7.106239423736681e-17 -0.7001218016491945 -0.7140234329875255
12647526666.666666 -0.7089792025005415 -0.70522938851235 1.3046078493156894e-16 6.941421010096463e-17 1.3046078493156894e-16 6.941421010096463e-17 -0.7089787076785232 -0.7052298859650633
12648144000.0 -0.7177256637548824 -0.6963259808361452 1.3129733405906562e-16 6.775570249716528e-17 1.3129733405906562e-16 6.775570249716528e-17 -0.71772517520375 -0.6963264844012123
12648761333.333334 -0.7263603239816177 -0.687314105591559 1.3211281293227127e-16 6.608713745260825e-17 1.3211281293227127e-16 6.608713745260825e-17 -0.7263598417768578 -0.6873146151899461
12649378666.666666 -0.7348818381488661 -0.6781951665698823 1.3290710095271245e-16 6.440878247868603e-17 1.3290710095271245e-16 6.440878247868603e-17 -0.7348813623649685 -0.6781956821216231
12649996000.0 -0.7432888788498068 -0.6689705842396985 1.3368008091614205e-16 6.272090652870751e-17 1.3368008091614205e-16 6.272090652870751e-17 -0.7432884095602552 -0.6689711056639079
12650613333.333334 -0.751580136509259 -0.6596417955258219 1.3443163902972172e-16 6.102377995486601e-17 1.3443163902972172e-16 6.102377995486601e-17 -0.751579673786518 -0.6596423227407083
12651230666.666666 -0.7597543195877112 -0.6502102535854237 1.35161664928634e-16 5.931767446505669e-17 1.35161664928634e-16 5.931767446505669e-17 -0.7597538635032152 -0.6502107865083009
12651848000.0 -0.7678101547824709 -0.6406774275817155 1.358700516922339e-16 5.760286307930582e-17 1.358700516922339e-16 5.760286307930582e-17 -0.767809705406614 -0.640677966129017
12652465333.333334 -0.7757463872261923 -0.6310448024548794 1.3655669585953258e-16 5.587962008626989e-17 1.3655669585953258e-16 5.587962008626989e-17 -0.775745944628316 -0.6310453465421699
12653082666.666666 -0.7835617806819448 -0.6213138786912344 1.3722149744421256e-16 5.4148220999367935e-17 1.3722149744421256e-16 5.4148220999367935e-17 -0.7835613449303291 -0.621314428233225
12653700000.0 -0.79125511773633 -0.6114861720888494 1.3786435994907993e-16 5.240894251274353e-17 1.3786435994907993e-16 5.240894251274353e-17 -0.7912546888981805 -0.6114867269994084
12654317333.333334 -0.7988251999885773 -0.6015632135220836 1.3848519037990672e-16 5.066206245719852e-17 1.3848519037990672e-16 5.066206245719852e-17 -0.7988247781300183 -0.6015637737142536
12654934666.666666 -0.8062708482375837 -0.5915465487026831 1.3908389925877014e-16 4.890785975582428e-17 1.3908389925877014e-16 4.890785975582428e-17 -0.8062704334236428 -0.59154711408869
12655552000.0 -0.8135909026655493 -0.581437737939036 1.3966040063682802e-16 4.71466143794764e-17 1.3966040063682802e-16 4.71466143794764e-17 -0.813590494960154 -0.5814383084303079
12656169333.333334 -0.8207842230184857 -0.5712383558933585 1.402146121064835e-16 4.5378607302244264e-17 1.402146121064835e-16 4.5378607302244264e-17 -0.8207838224844476 -0.5712389314005348
12656786666.666666 -0.8278496887839619 -0.5609499913362189 1.4074645481303752e-16 4.360412045662894e-17 1.4074645481303752e-16 4.360412045662894e-17 -0.8278492954829705 -0.5609505717691678
12657404000.0 -0.8347861993656174 -0.5505742468991017 1.412558534657593e-16 4.1823436688634845e-17 1.412558534657593e-16 4.1823436688634845e-17 -0.8347858133582292 -0.5505748321669323
12658021333.333334 -0.8415926742546367 -0.5401127388247159 1.417427363483835e-16 4.0036839712750145e-17 1.417427363483835e-16 4.0036839712750145e-17 -0.8415922956002655 -0.5401133288357928
12658638666.666666 -0.8482680531979014 -0.5295670967154673 1.422070353290249e-16 3.8244614066864627e-17 1.422070353290249e-16 3.8244614066864627e-17 -0.8482676819548117 -0.529567691377426
12659256000.0 -0.8548112963634602 -0.5189389632791375 1.4264868586957885e-16 3.644704506687345e-17 1.4264868586957885e-16 3.644704506687345e-17 -0.8548109325887558 -0.5189395624988982
12659873333.333334 -0.8612213845021967 -0.5082299940734761 1.4306762703447418e-16 3.464441876144978e-17 1.4306762703447418e-16 3.464441876144978e-17 -0.8612210282518113 -0.508230597757257
12660490666.666666 -0.8674973191067206 -0.4974418572481195 1.4346380149890916e-16 3.283702188652626e-17 1.4346380149890916e-16 3.283702188652626e-17 -0.8674969704354121 -0.4974424653014537
12661108000.0 -0.8736381225670213 -0.486576233284545 1.4383715555650637e-16 3.1025141819692397e-17 1.4383715555650637e-16 3.1025141819692397e-17 -0.8736377815283609 -0.48657684561229386
12661725333.333334 -0.8796428383224673 -0.47563481473479247 1.4418763912636168e-16 2.9209066534655773e-17 1.4418763912636168e-16 2.9209066534655773e-17 -0.8796425049688318 -0.47563543124116064
12662342666.666666 -0.8855105310110917 -0.46461930595731943 1.4451520575955342e-16 2.7389084555471843e-17 1.4451520575955342e-16 2.7389084555471843e-17 -0.8855102053936567 -0.4646199265458704
12662960000.0 -0.8912402866151302 -0.4535314228518094 1.4481981264506345e-16 2.5565484910753455e-17 1.4481981264506345e-16 2.5565484910753455e-17 -0.8912399687838616 -0.4535320474254804
12663577333.333334 -0.8968312126035302 -0.4423728925916322 1.4510142061511596e-16 2.373855708784307e-17 1.4510142061511596e-16 2.373855708784307e-17 -0.8968309026071749 -0.44237352105274863
12664194666.666666 -0.9022824380708239 -0.4311454533551024 1.4535999414993923e-16 2.1908590986938978e-17 1.4535999414993923e-16 2.1908590986938978e-17 -0.9022821359569039 -0.43114608560539375
12664812000.0 -0.9075931138728945 -0.4198508540545193 1.4559550138196224e-16 2.007587687509996e-17 1.4559550138196224e-16 2.007587687509996e-17 -0.907592819687701 -0.4198514899951349
12665429333.333334 -0.9127624127592259 -0.40849085406378816 1.4580791409941773e-16 1.8240705340283888e-17 1.4580791409941773e-16 1.8240705340283888e-17 -0.9127621265478086 -0.40849149359531184
12666046666.666666 -0.9177895295017594 -0.397067222944359 1.4599720774937191e-16 1.6403367245354143e-17 1.4599720774937191e-16 1.6403367245354143e-17 -0.9177892513079232 -0.3970678659668251
12666664000.0 -0.9226736810203289 -0.3855817401695807 1.4616336144018138e-16 1.4564153681977236e-17 1.4616336144018138e-16 1.4564153681977236e-17 -0.9226734108866248 -0.38558238658248944
12667281333.333334 -0.9274141065046415 -0.37403619484751005 1.4630635794335972e-16 1.2723355924618658e-17 1.4630635794335972e-16 1.2723355924618658e-17 -0.9274138444723601 -0.37403684454984304
12667898666.666666 -0.932010067532766 -0.36243238544227185 1.4642618369487304e-16 1.0881265384452993e-17 1.4642618369487304e-16 1.0881265384452993e-17 -0.9320098136419339 -0.3624330383325089
12668516000.0 -0.9364608481862661 -0.3507721194936472 1.4652282879585761e-16 9.038173563228775e-18 1.4652282879585761e-16 9.038173563228775e-18 -0.9364606024756368 -0.3507727754697811
12669133333.333334 -0.9407657551615095 -0.3390572133360388 1.465962870127477e-16 7.194372007295103e-18 1.465962870127477e-16 7.194372007295103e-18 -0.9407655176685593 -0.3390578722955917
12669750666.666666 -0.9449241178778749 -0.32728949181500977 1.4664655577683628e-16 5.350152261485259e-18 1.4664655577683628e-16 5.350152261485259e-18 -0.9449238886387944 -0.32729015365504865
12670368000.0 -0.9489352885820991 -0.3154707880032881 1.4667363618325299e-16 3.505805823039178e-18 1.4667363618325299e-16 3.505805823039178e-18 -0.9489350676317925 -0.315471452620442
