! Parameters = {f0=12700.012000; bw=77.238000; Q=6100.000000; N=10; m_0_1=1.302798; m_1_1=0.777221; m_1_2=1.137610; m_2_2=0.776572; m_2_3=0.774573; m_2_8=0.002204; m_2_9=0.038908; m_3_3=0.774635; m_3_4=0.663102; m_3_7=0.002804; m_3_8=-0.094284; m_3_9=0.002204; m_4_4=0.771710; m_4_5=0.499437; m_4_6=0.006321; m_4_7=-0.114833; m_4_8=0.002804; m_5_5=0.772092; m_5_6=0.906792; m_5_7=0.006321; m_6_6=0.772091; m_6_7=0.499779; m_7_7=0.771724; m_7_8=0.663220; m_8_8=0.774633; m_8_9=0.774886; m_9_9=0.776567; m_9_10=1.138688; m_10_10=0.777211; m_10_11=1.303593}
!
! Created with skrf (http://scikit-rf.org).
# Hz S RI R 50.0 
!freq ReS11 ImS11 ReS21 ImS21 ReS12 ImS12 ReS22 ImS22
12607400000.0 0.9803093553703599 -0.19746789048643712 -1.1382375133116901e-16 6.024274422876827e-17 -1.1382375133116901e-16 6.024274422876827e-17 0.980309490898275 -0.19746721767062927
12608017333.333334 0.9779752603011859 -0.2087208428467111 -1.1309629883420684e-16 6.154483945753486e-17 -1.1309629883420684e-16 6.154483945753486e-17 0.9779754035453273 -0.20872017166572096
12608634666.666666 0.9755119972561337 -0.21994622799485336 -1.1235396206775793e-16 6.283817006414648e-17 -1.1235396206775793e-16 6.283817006414648e-17 0.9755121481968276 -0.21994555853716405
12609252000.0 0.9729198915755419 -0.2311425633163465 -1.11596846412627e-16 6.412256603661707e-17 -1.11596846412627e-16 6.412256603661707e-17 0.9729200501921 -0.2311418956702048
12609869333.333334 0.9701992856168583 -0.2423083700336255 -1.1082505919002116e-16 6.53978586275481e-17 -1.1082505919002116e-16 6.53978586275481e-17 0.9701994518875813 -0.2423077042870306
12610486666.666666 0.967350538709509 -0.2534421734010311 -1.1003870964639651e-16 6.666388037626657e-17 -1.1003870964639651e-16 6.666388037626657e-17 0.967350712611687 -0.25344150964172235
12611104000.0 0.9643740271073039 -0.2645425029001128 -1.0923790893805136e-16 6.79204651307814e-17 -1.0923790893805136e-16 6.79204651307814e-17 0.9643742086172236 -0.2645418412155588
12611721333.333334 0.9612701439388953 -0.2756078924332728 -1.0842277011548842e-16 6.916744806952857e-17 -1.0842277011548842e-16 6.916744806952857e-17 0.9612703330318396 -0.2756072329106596
12612338666.666666 0.9580392991557599 -0.28663688051776154 -1.0759340810751222e-16 7.040466572295344e-17 -1.0759340810751222e-16 7.040466572295344e-17 0.9580394958060134 -0.2866362232439809
12612956000.0 0.9546819194780289 -0.2976280104787871 -1.0674993970506948e-16 7.163195599492202e-17 -1.0674993970506948e-16 7.163195599492202e-17 0.9546821236588793 -0.2976273555404251
12613573333.333334 0.9511984483382505 -0.30857983064147015 -1.0589248354489682e-16 7.284915818386362e-17 -1.0589248354489682e-16 7.284915818386362e-17 0.951198660021995 -0.30857917812479646
12614190666.666666 0.9475893458226847 -0.31949089452307006 -1.050211600928558e-16 7.405611300382442e-17 -1.050211600928558e-16 7.405611300382442e-17 0.9475895649806316 -0.3194902445140257
12614808000.0 0.9438550886106375 -0.33035976102367587 -1.0413609162709329e-16 7.525266260522934e-17 -1.0413609162709329e-16 7.525266260522934e-17 0.9438553152131114 -0.33035911360786263
12615425333.333334 0.9399961699114291 -0.3411849946167874 -1.0323740222091932e-16 7.643865059550924e-17 -1.0323740222091932e-16 7.643865059550924e-17 0.9399964039277741 -0.3411843498794562
12616042666.666666 0.9360130993993246 -0.35196516553870016 -1.0232521772548763e-16 7.761392205947446e-17 -1.0232521772548763e-16 7.761392205947446e-17 0.9360133407979079 -0.35196452356473923
12616660000.0 0.9319064031461387 -0.3626988499775568 -1.0139966575220942e-16 7.877832357952906e-17 -1.0139966575220942e-16 7.877832357952906e-17 0.9319066518943562 -0.36269821085148146
12617277333.333334 0.9276766235518129 -0.3733846302612399 -1.0046087565496922e-16 7.993170325563565e-17 -1.0046087565496922e-16 7.993170325563565e-17 0.927676879616094 -0.37338399406718153
12617894666.666666 0.923324319272805 -0.3840210950445639 -9.950897851210558e-17 8.107391072508127e-17 -9.950897851210558e-17 8.107391072508127e-17 0.9233245826186153 -0.3840204618662582
12618512000.0 0.9188500651481476 -0.3946068394960475 -9.854410710813037e-17 8.220479718207396e-17 -9.854410710813037e-17 8.220479718207396e-17 0.9188503357399941 -0.3946062094168234
12619129333.333334 0.9142544521237553 -0.4051404654829087 -9.756639591530777e-17 8.332421539702464e-17 -9.756639591530777e-17 8.332421539702464e-17 0.9142547299251917 -0.40513983858567765
12619746666.666666 0.9095380871741858 -0.4156205817561703 -9.657598107492569e-17 8.443201973571692e-17 -9.657598107492569e-17 8.443201973571692e-17 0.9095383721478187 -0.41561995812341623
12620364000.0 0.904701593222507 -0.4260458041343348 -9.557300037839697e-17 8.552806617819883e-17 -9.557300037839697e-17 8.552806617819883e-17 0.9047018853299973 -0.4260451838481014
12620981333.333334 0.8997456090581484 -0.43641475568591515 -9.455759324816751e-17 8.661221233743023e-17 -9.455759324816751e-17 8.661221233743023e-17 0.8997459082602192 -0.43641413882779656
12621598666.666666 0.894670789252393 -0.44672606691160843 -9.35299007183565e-17 8.768431747776606e-17 -9.35299007183565e-17 8.768431747776606e-17 0.8946710955088354 -0.4467254535627384
12622216000.0 0.8894778040719469 -0.45697837592512225 -9.249006541522278e-17 8.874424253317292e-17 -9.249006541522278e-17 8.874424253317292e-17 0.8894781173416231 -0.45697776616616254
12622833333.333334 0.8841673393904581 -0.46717032863294494 -9.143823153743251e-17 8.9791850125207e-17 -9.143823153743251e-17 8.9791850125207e-17 0.8841676596313086 -0.4671697225440758
12623450666.666666 0.8787400965979475 -0.47730057891316735 -9.037454483610197e-17 9.082700458078282e-17 -9.037454483610197e-17 9.082700458078282e-17 0.8787404237669963 -0.4772999765740763
12624068000.0 0.8731967925080791 -0.48736778879345155 -8.929915259465698e-17 9.184957194968756e-17 -8.929915259465698e-17 9.184957194968756e-17 0.8731971265614391 -0.48736719028332287
12624685333.333334 0.867538159263491 -0.49737062862771564 -8.821220360846438e-17 9.285942002188873e-17 -8.821220360846438e-17 9.285942002188873e-17 0.8675385001563706 -0.4973700340252207
12625302666.666666 0.8617649442392833 -0.5073077772714317 -8.711384816433915e-17 9.38564183445335e-17 -8.711384816433915e-17 9.38564183445335e-17 0.8617652919259918 -0.5073071866547179
12625920000.0 0.8558779099439943 -0.5171779222566594 -8.600423801975115e-17 9.4840438238808e-17 -8.600423801975115e-17 9.4840438238808e-17 0.8558782643779485 -0.5171773357033398
12626537333.333334 0.8498778339191907 -0.5269797599648762 -8.488352638196078e-17 9.581135281644401e-17 -8.488352638196078e-17 9.581135281644401e-17 0.8498781950529208 -0.5269791775520205
12627154666.666666 0.8437655086366477 -0.5367119957993804 -8.375186788688734e-17 9.67690369960523e-17 -8.375186788688734e-17 9.67690369960523e-17 0.8437658764218028 -0.5367114176035025
12627772000.0 0.8375417413935389 -0.5463733443564883 -8.260941857779661e-17 9.77133675192046e-17 -8.260941857779661e-17 9.77133675192046e-17 0.8375421157808955 -0.5463727704535388
12628389333.333334 0.8312073542061341 -0.5559625295948052 -8.145633588387424e-17 9.864422296620789e-17 -8.145633588387424e-17 9.864422296620789e-17 0.8312077351456011 -0.5559619600601601
12629006666.666666 0.8247631837008732 -0.5654782850043095 -8.029277859854399e-17 9.956148377169198e-17 -8.029277859854399e-17 9.956148377169198e-17 0.8247635711414997 -0.5654777199127606
12629624000.0 0.8182100810041666 -0.5749193537731786 -7.911890685765695e-17 1.0046503223990559e-16 -7.911890685765695e-17 1.0046503223990559e-16 0.8182104748941481 -0.574918793198924
12630241333.333334 0.8115489116297573 -0.5842844889541151 -7.793488211750233e-17 1.013547525597594e-16 -7.793488211750233e-17 1.013547525597594e-16 0.8115493119164409 -0.5842839329707477
12630858666.666666 0.8047805553646318 -0.5935724536287115 -7.67408671326406e-17 1.0223053081962163e-16 -7.67408671326406e-17 1.0223053081962163e-16 0.8047809619945275 -0.5935719023092124
12631476000.0 0.7979059061525114 -0.6027820210712608 -7.553702593356568e-17 1.0309225502185246e-16 -7.553702593356568e-17 1.0309225502185246e-16 0.7979063190712952 -0.6027814744879869
12632093333.333334 0.7909258719761117 -0.6119119749103156 -7.432352380423041e-17 1.039398150970615e-16 -7.432352380423041e-17 1.039398150970615e-16 0.7909262911286339 -0.6119114331349909
12632710666.666666 0.7838413747370724 -0.6209611092895518 -7.310052725940288e-17 1.0477310291810636e-16 -7.310052725940288e-17 1.0477310291810636e-16 0.7838418000673671 -0.6209605723932603
12633328000.0 0.7766533501340558 -0.629928229027215 -7.186820402182229e-17 1.0559201231385705e-16 -7.186820402182229e-17 1.0559201231385705e-16 0.7766537815853445 -0.6299276970803868
12633945333.333334 0.7693627475394366 -0.6388121497736127 -7.062672299929129e-17 1.0639643908263042e-16 -7.062672299929129e-17 1.0639643908263042e-16 0.7693631850541399 -0.6388116228460191
12634562666.666666 0.7619705298736886 -0.6476116981678339 -6.937625426152877e-17 1.0718628100541758e-16 -6.937625426152877e-17 1.0718628100541758e-16 0.7619709733934311 -0.6476111763285759
12635180000.0 0.754477673478363 -0.6563257119925227 -6.811696901694162e-17 1.0796143785879459e-16 -6.811696901694162e-17 1.0796143785879459e-16 0.7544781229439825 -0.656325195310023
12635797333.333334 0.7468851679869726 -0.6649530403275756 -6.684903958919907e-17 1.0872181142759777e-16 -6.684903958919907e-17 1.0872181142759777e-16 0.746885623338527 -0.6649525288695691
12636414666.666666 0.7391940161944879 -0.6734925437019165 -6.557263939372732e-17 1.0946730551728501e-16 -6.557263939372732e-17 1.0946730551728501e-16 0.7391944773712636 -0.6734920375354412
12637032000.0 0.7314052339247239 -0.6819430942441862 -6.428794291400561e-17 1.1019782596606e-16 -6.428794291400561e-17 1.1019782596606e-16 0.7314057008652436 -0.6819425934355743
12637649333.333334 0.7235198498961888 -0.6903035758316851 -6.29951256777594e-17 1.1091328065670022e-16 -6.29951256777594e-17 1.1091328065670022e-16 0.723520322538221 -0.6903030804465558
12638266666.666666 0.7155389055863323 -0.6985728842376643 -6.169436423303811e-17 1.1161357952809687e-16 -6.169436423303811e-17 1.1161357952809687e-16 0.7155393838668974 -0.698572394340913
12638884000.0 0.7074634550938325 -0.7067499272773313 -6.0385836124122e-17 1.1229863458654052e-16 -6.0385836124122e-17 1.1229863458654052e-16 0.7074639389492128 -0.7067494429331229
12639501333.333334 0.6992945649995111 -0.7148336249519602 -5.90697198673521e-17 1.1296835991669823e-16 -5.90697198673521e-17 1.1296835991669823e-16 0.6992950543652603 -0.7148331462237209
12640118666.666666 0.691033314225449 -0.7228229095915588 -5.774619492681398e-17 1.1362267169232254e-16 -5.774619492681398e-17 1.1362267169232254e-16 0.6910338090363974 -0.7228224365419652
12640736000.0 0.6826807938922148 -0.7307167259961359 -5.641544168986466e-17 1.1426148818669381e-16 -5.641544168986466e-17 1.1426148818669381e-16 0.6826812940824802 -0.7307162586871089
12641353333.333334 0.6742381071752847 -0.7385140315745566 -5.507764144267249e-17 1.1488472978271637e-16 -5.507764144267249e-17 1.1488472978271637e-16 0.6742386126782821 -0.738513570067254
12641970666.666666 0.6657063691588511 -0.7462137964827203 -5.373297634548634e-17 1.1549231898280491e-16 -5.373297634548634e-17 1.1549231898280491e-16 0.6657068799072998 -0.7462133408375271
12642588000.0 0.6570867066887894 -0.7538150037593419 -5.238162940789501e-17 1.1608418041843543e-16 -5.238162940789501e-17 1.1608418041843543e-16 0.6570872226147217 -0.7538145540358623
12643205333.333334 0.6483802582237442 -0.7613166494603454 -5.1023784463979496e-17 1.1666024085940924e-16 -5.1023784463979496e-17 1.1666024085940924e-16 0.6483807792585167 -0.7613162057173969
12643822666.666666 0.6395881736847222 -0.7687177427914988 -4.965962614730496e-17 1.1722042922285346e-16 -4.965962614730496e-17 1.1722042922285346e-16 0.6395886997590227 -0.7687173050871031
12644440000.0 0.6307116143033649 -0.7760173062391461 -4.8289339865898003e-17 1.1776467658189332e-16 -4.8289339865898003e-17 1.1776467658189332e-16 0.6307121453472215 -0.7760168746305206
12645057333.333334 0.621751752468511 -0.7832143756993685 -4.691311177705715e-17 1.1829291617406458e-16 -4.691311177705715e-17 1.1829291617406458e-16 0.6217522884113044 -0.7832139502429215
12645674666.666666 0.6127097715712903 -0.7903080006053796 -4.55311287621292e-17 1.1880508340940802e-16 -4.55311287621292e-17 1.1880508340940802e-16 0.61271031234176 -0.7903075813567011
12646292000.0 0.6035868658488184 -0.7972972440530673 -4.414357840112084e-17 1.1930111587829974e-16 -4.414357840112084e-17 1.1930111587829974e-16 0.6035874113750728 -0.7972968310669208
12646909333.333334 0.5943842402265791 -0.8041811829246496 -4.275064894734857e-17 1.1978095335894082e-16 -4.275064894734857e-17 1.1978095335894082e-16 0.594384790436106 -0.8041807762549671
12647526666.666666 0.5851031101592381 -0.8109589080106352 -4.135252930187582e-17 1.2024453782459936e-16 -4.135252930187582e-17 1.2024453782459936e-16 0.5851036649789146 -0.8109585077105103
12648144000.0 0.5757447014699495 -0.8176295241300274 -3.9949408987964874e-17 1.2069181345052137e-16 -3.9949408987964874e-17 1.2069181345052137e-16 0.5757452608260496 -0.817629130251705
12648761333.333334 0.5663102501887014 -0.8241921502483665 -3.854147812541142e-17 1.211227266205612e-16 -3.854147812541142e-17 1.211227266205612e-16 0.5663108140069084 -0.8241917628432402
12649378666.666666 0.5568010023890028 -0.830645919594154 -3.712892740484991e-17 1.2153722593349777e-16 -3.712892740484991e-17 1.2153722593349777e-16 0.5568015705944172 -0.8306455387127567
12649996000.0 0.5472182140231135 -0.8369899797734558 -3.571194806192055e-17 1.219352622090763e-16 -3.571194806192055e-17 1.219352622090763e-16 0.547218786540264 -0.8369896054654539
12650613333.333334 0.5375631507563994 -0.8432234928823251 -3.429073185145219e-17 1.2231678849372332e-16 -3.429073185145219e-17 1.2231678849372332e-16 0.5375637275092527 -0.8432231251965123
12651230666.666666 0.5278370878000717 -0.8493456356175344 -3.286547102155509e-17 1.2268176006597267e-16 -3.286547102155509e-17 1.2268176006597267e-16 0.5278376687120429 -0.8493452746018259
12651848000.0 0.5180413097427146 -0.8553555993853478 -3.143635828761215e-17 1.230301344416011e-16 -3.143635828761215e-17 1.230301344416011e-16 0.5180418947366761 -0.8553552450867711
12652465333.333334 0.5081771103806414 -0.861252590408294 -3.0003586806297754e-17 1.233618713784404e-16 -3.0003586806297754e-17 1.233618713784404e-16 0.5081776993789343 -0.8612522428729863
12653082666.666666 0.49824579254721113 -0.8670358298298966 -2.856735014951992e-17 1.236769328808954e-16 -2.856735014951992e-17 1.236769328808954e-16 0.49824638547165534 -0.8670354891030966
12653700000.0 0.4882486679403136 -0.8727045538177999 -2.7127842278246805e-17 1.23975283204176e-16 -2.7127842278246805e-17 1.23975283204176e-16 0.48824926471221863 -0.8727042199438441
12654317333.333334 0.4781870569496397 -0.8782580136643545 -2.5685257516424468e-17 1.2425688885819332e-16 -2.5685257516424468e-17 1.2425688885819332e-16 0.47818765748981434 -0.8782576866866694
12654934666.666666 0.4680622884819698 -0.8836954758856903 -2.4239790524736917e-17 1.245217186111808e-16 -2.4239790524736917e-17 1.245217186111808e-16 0.4680628927107325 -0.8836951558467867
12655552000.0 0.4578756997855772 -0.8890162223186271 -2.2791636274366084e-17 1.247697434930016e-16 -2.2791636274366084e-17 1.247697434930016e-16 0.45787630762276765 -0.8890159092600967
12656169333.333334 0.44762863627401134 -0.8942195502153172 -2.134099002078789e-17 1.2500093679813982e-16 -2.134099002078789e-17 1.2500093679813982e-16 0.4476292476389999 -0.8942192441778236
12656786666.666666 0.43732245134794623 -0.8993047723362969 -1.988804727741984e-17 1.2521527408840859e-16 -1.988804727741984e-17 1.2521527408840859e-16 0.4373230661596455 -0.8993044733595744
12657404000.0 0.4269585062167562 -0.9042712170410891 -1.8433003789354428e-17 1.2541273319533425e-16 -1.8433003789354428e-17 1.2541273319533425e-16 0.42695912439363165 -0.904270925163935
12658021333.333334 0.41653816971847646 -0.9091182283770347 -1.6976055506989846e-17 1.2559329422224843e-16 -1.6976055506989846e-17 1.2559329422224843e-16 0.4165387911785569 -0.9091179436373049
12658638666.666666 0.40606281813934564 -0.9138451661657729 -1.5517398559725524e-17 1.2575693954606314e-16 -1.5517398559725524e-17 1.2575693954606314e-16 0.4060634428002345 -0.9138448886003772
12659256000.0 0.3955338350315655 -0.9184514060880075 -1.4057229229533208e-17 1.2590365381875462e-16 -1.4057229229533208e-17 1.2590365381875462e-16 0.39553446281045157 -0.918451135732905
12659873333.333334 0.38495261103100514 -0.9229363397657651 -1.2595743924642962e-17 1.2603342396852615e-16 -1.2595743924642962e-17 1.2603342396852615e-16 0.384953241844673 -0.9229360766559579
12660490666.666666 0.37432054367332285 -0.9272993748428408 -1.1133139153133219e-17 1.2614623920067698e-16 -1.1133139153133219e-17 1.2614623920067698e-16 0.37432117743816495 -0.9272991190123722
12661108000.0 0.3636390372093056 -0.9315399350630685 -9.669611496539002e-18 1.2624209099816081e-16 -9.669611496539002e-18 1.2624209099816081e-16 0.3636396738413321 -0.9315396865450152
12661725333.333334 0.3529095024196872 -0.9356574603463083 -8.205357583489459e-18 1.2632097312183856e-16 -8.205357583489459e-18 1.2632097312183856e-16 0.35291014183453906 -0.9356572191727812
12662342666.666666 0.3421333564284506 -0.9396514068625759 -6.740574063316979e-18 1.263828816104267e-16 -6.740574063316979e-18 1.263828816104267e-16 0.342133998541408 -0.9396511730647092
12662960000.0 0.33131202251597264 -0.9435212471037364 -5.275457579673876e-18 1.2642781478014137e-16 -5.275457579673876e-18 1.2642781478014137e-16 0.3313126672419686 -0.9435210207116899
12663577333.333334 0.3204469299308047 -0.9472664699532743 -3.810204744195977e-18 1.264557732240341e-16 -3.810204744195977e-18 1.264557732240341e-16 0.320447577184435 -0.9472662509962245
12664194666.666666 0.3095395137011144 -0.9508865807537165 -2.3450121101269385e-18 1.2646675981102598e-16 -2.3450121101269385e-18 1.2646675981102598e-16 0.3095401633966494 -0.9508863692598566
12664812000.0 0.29859121444493686 -0.9543811013720431 -8.800761460181447e-19 1.2646077968463485e-16 -8.800761460181447e-19 1.2646077968463485e-16 0.29859186649633307 -0.9543808973685777
12665429333.333334 0.2876034781800918 -0.9577495702627746 5.844067906108839e-19 1.2643784026139972e-16 5.844067906108839e-19 1.2643784026139972e-16 0.2876041325010031 -0.9577493737759171
12666046666.666666 0.27657775613311625 -0.9609915425289578 2.0482404795078726e-18 1.2639795122899948e-16 2.0482404795078726e-18 1.2639795122899948e-16 0.2765784126369049 -0.9609913535839257
12666664000.0 0.2655155045474822 -0.9641065899809584 3.511228864009514e-18 1.263411245440689e-16 3.511228864009514e-18 1.263411245440689e-16 0.2655161631472305 -0.9641064086019704
12667281333.333334 0.25441818449156006 -0.9670943011929267 4.973176077183719e-18 1.2626737442971183e-16 4.973176077183719e-18 1.2626737442971183e-16 0.25441884510008206 -0.9670941274031997
12667898666.666666 0.24328726166531842 -0.9699542815572328 6.433886468079917e-18 1.2617671737270996e-16 6.433886468079917e-18 1.2617671737270996e-16 0.24328792419517162 -0.9699541153789805
12668516000.0 0.23212420620679142 -0.972686153336565 7.893164627846764e-18 1.2606917212043e-16 7.893164627846764e-18 1.2606917212043e-16 0.23212487057028802 -0.9726859947909929
12669133333.333334 0.22093049249821164 -0.9752895557137449 9.350815415832462e-18 1.2594475967743067e-16 9.350815415832462e-18 1.2594475967743067e-16 0.2209311586074301 -0.9752894048210482
12669750666.666666 0.20970759897094776 -0.9777641448394687 1.080664398564958e-17 1.2580350330176547e-16 1.080664398564958e-17 1.2580350330176547e-16 0.2097082667377445 -0.9777640016188299
12670368000.0 0.19845700791026333 -0.980109593877706 1.226045581119749e-17 1.2564542850098564e-16 1.226045581119749e-17 1.2564542850098564e-16 0.19845767724628466 -0.9801094583472936
