! Parameters = {f0=12700.012000; bw=77.238000; Q=6100.000000; N=10; m_0_1=1.256552; m_1_1=0.083528; m_1_2=1.091364; m_2_2=0.082879; m_2_3=0.728327; m_2_8=-0.000109; m_2_9=0.036595; m_3_3=0.080942; m_3_4=0.616856; m_3_7=0.000491; m_3_8=-0.096597; m_3_9=-0.000109; m_4_4=0.078017; m_4_5=0.453191; m_4_6=0.004008; m_4_7=-0.117146; m_4_8=0.000491; m_5_5=0.078399; m_5_6=0.860546; m_5_7=0.004008; m_6_6=0.078398; m_6_7=0.453533; m_7_7=0.078031; m_7_8=0.616974; m_8_8=0.080940; m_8_9=0.728640; m_9_9=0.082874; m_9_10=1.092442; m_10_10=0.083518; m_10_11=1.257347}
!
! Created with skrf (http://scikit-rf.org).
# Hz S RI R 50.0 
!freq ReS11 ImS11 ReS21 ImS21 ReS12 ImS12 ReS22 ImS22
12607400000.0 -0.8607541676298894 0.5090208865141034 7.063296380898441e-17 -7.601101939929141e-17 7.063296380898441e-17 -7.601101939929141e-17 -0.8607545046271854 0.5090203166513447
12608017333.333334 -0.8555561047899278 0.5177101037805945 6.983923171253449e-17 -7.671346516044581e-17 6.983923171253449e-17 -7.671346516044581e-17 -0.8555564475231424 0.5177095373869469
12608634666.666666 -0.8502703283254351 0.5263462441864517 6.903852382031052e-17 -7.740763196290716e-17 6.903852382031052e-17 -7.740763196290716e-17 -0.8502706767588712 0.5263456813196414
12609252000.0 -0.8448973801467519 0.5349284223342242 6.823092639047323e-17 -7.809345063682728e-17 6.823092639047323e-17 -7.809345063682728e-17 -0.8448977342441308 0.5349278630516091
12609869333.333334 -0.8394378111011908 0.5434557583589186 6.741652636594233e-17 -7.877085291013565e-17 6.741652636594233e-17 -7.877085291013565e-17 -0.8394381708256571 0.5434552027174843
12610486666.666666 -0.8338921809167477 0.5519273780179204 6.659541136508867e-17 -7.943977141528388e-17 6.659541136508867e-17 -7.943977141528388e-17 -0.8338925462308716 0.5519268260742725
12611104000.0 -0.828261058144499 0.5603424127809546 6.576766967230183e-17 -8.010013969594287e-17 6.576766967230183e-17 -8.010013969594287e-17 -0.8282614290102823 0.560341864591315
12611721333.333334 -0.8225450201004841 0.5686999999188697 6.493339022854817e-17 -8.075189221355532e-17 6.493339022854817e-17 -8.075189221355532e-17 -0.822545396479363 0.5686994555390696
12612338666.666666 -0.8167446528064547 0.5769992825921799 6.40926626218324e-17 -8.13949643538161e-17 6.40926626218324e-17 -8.13949643538161e-17 -0.8167450346593049 0.5769987420776557
12612956000.0 -0.8108605509297495 0.5852394099389844 6.324557707758383e-17 -8.202929243306273e-17 6.324557707758383e-17 -8.202929243306273e-17 -0.8108609382168881 0.5852388733447689
12613573333.333334 -0.8048933177224181 0.5934195371620536 6.239222444903523e-17 -8.26548137045225e-17 6.239222444903523e-17 -8.26548137045225e-17 -0.8048937104036096 0.5934190045427737
12614190666.666666 -0.7988435649593145 0.6015388256155381 6.153269620747345e-17 -8.327146636451289e-17 6.153269620747345e-17 -8.327146636451289e-17 -0.7988439629937746 0.6015382970254074
12614808000.0 -0.7927119128754085 0.6095964428909 6.066708443246301e-17 -8.387918955851243e-17 6.066708443246301e-17 -8.387918955851243e-17 -0.7927123162218078 0.6095959183837139
12615425333.333334 -0.7864989901021279 0.6175915629023447 5.979548180201845e-17 -8.44779233871267e-17 5.979548180201845e-17 -8.44779233871267e-17 -0.7864993987185964 0.6175910425314748
12616042666.666666 -0.7802054336030133 0.6255233659713771 5.89179815826987e-17 -8.506760891196567e-17 5.89179815826987e-17 -8.506760891196567e-17 -0.7802058474471453 0.6255228497897657
12616660000.0 -0.7738318886083653 0.6333910389109062 5.80346776196439e-17 -8.564818816141863e-17 5.80346776196439e-17 -8.564818816141863e-17 -0.7738323076372229 0.6333905269710608
12617277333.333334 -0.7673790085490214 0.6411937751087021 5.714566432657501e-17 -8.621960413631218e-17 5.714566432657501e-17 -8.621960413631218e-17 -0.7673794327191389 0.6411932674626899
12617894666.666666 -0.7608474549895782 0.6489307746098267 5.62510366757313e-17 -8.678180081547057e-17 5.62510366757313e-17 -8.678180081547057e-17 -0.760847884256968 0.6489302713092703
12618512000.0 -0.7542378975602247 0.6566012441990644 5.5350890187713596e-17 -8.73347231611969e-17 5.5350890187713596e-17 -8.73347231611969e-17 -0.7542383318803811 0.6566007452951358
12619129333.333334 -0.7475510138884731 0.6642043974817866 5.44453209213611e-17 -8.787831712459391e-17 5.44453209213611e-17 -8.787831712459391e-17 -0.7475514532163761 0.6642039030252017
12619746666.666666 -0.7407874895294488 0.6717394549648582 5.353442546347946e-17 -8.841252965084186e-17 5.353442546347946e-17 -8.841252965084186e-17 -0.7407879338195694 0.6717389650058723
12620364000.0 -0.7339480178955439 0.6792056441366113 5.2618300918579445e-17 -8.893730868433026e-17 5.2618300918579445e-17 -8.893730868433026e-17 -0.7339484671018502 0.6792051587250143
12620981333.333334 -0.7270333001856171 0.6866021995457332 5.169704489856409e-17 -8.945260317368666e-17 5.169704489856409e-17 -8.945260317368666e-17 -0.7270337542615755 0.6866017187308422
12621598666.666666 -0.7200440453128518 0.6939283628800107 5.077075551231847e-17 -8.995836307672644e-17 5.077075551231847e-17 -8.995836307672644e-17 -0.7200445042114362 0.6939278867106687
12622216000.0 -0.7129809698321187 0.7011833830440356 4.983953135531523e-17 -9.045453936525857e-17 4.983953135531523e-17 -9.045453936525857e-17 -0.7129814335058121 0.7011829115686038
12622833333.333334 -0.7058447978665886 0.7083665162361245 4.890347149911738e-17 -9.094108402981566e-17 4.890347149911738e-17 -9.094108402981566e-17 -0.7058452662673887 0.7083660495024775
12623450666.666666 -0.6986362610335136 0.7154770260245539 4.7962675480889435e-17 -9.141795008424624e-17 4.7962675480889435e-17 -9.141795008424624e-17 -0.6986367341129399 0.7154765640800773
12624068000.0 -0.6913560983690641 0.7225141834232278 4.701724329281535e-17 -9.188509157022558e-17 4.701724329281535e-17 -9.188509157022558e-17 -0.6913565760781595 0.7225137263148096
12624685333.333334 -0.684005056252654 0.7294772669663054 4.606727537148278e-17 -9.234246356165046e-17 4.606727537148278e-17 -9.234246356165046e-17 -0.6840055385419931 0.7294768147403357
12625302666.666666 -0.6765838883305726 0.7363655627820409 4.5112872587280934e-17 -9.279002216889853e-17 4.5112872587280934e-17 -9.279002216889853e-17 -0.676584375150263 0.7363651154844013
12625920000.0 -0.6690933554383386 0.7431783646663118 4.4154136233651605e-17 -9.322772454302878e-17 4.4154136233651605e-17 -9.322772454302878e-17 -0.669093846738031 0.743177922342377
12626537333.333334 -0.6615342255231196 0.74991497415464 4.3191168016416653e-17 -9.365552887981612e-17 4.3191168016416653e-17 -9.365552887981612e-17 -0.6615347212520087 0.7499145368492696
12627154666.666666 -0.653907273564812 0.756574700593975 4.222407004298767e-17 -9.407339442371397e-17 4.222407004298767e-17 -9.407339442371397e-17 -0.6539077736716439 0.7565742683515092
12627772000.0 -0.646213281496393 0.7631568612136644 4.125294481153677e-17 -9.448128147170369e-17 4.125294481153677e-17 -9.448128147170369e-17 -0.6462137859294704 0.763156434077921
12628389333.333334 -0.6384530381241857 0.7696607811950833 4.027789520020974e-17 -9.487915137700032e-17 4.027789520020974e-17 -9.487915137700032e-17 -0.6384535468313722 0.7696603592093517
12629006666.666666 -0.6306273390465998 0.7760857937411507 3.9299024456200715e-17 -9.52669665526897e-17 3.9299024456200715e-17 -9.52669665526897e-17 -0.630627851975327 0.7760853769481891
12629624000.0 -0.6227369865727407 0.7824312401445458 3.8316436184863564e-17 -9.564469047522507e-17 3.8316436184863564e-17 -9.564469047522507e-17 -0.6227375036700102 0.7824308285865733
12630241333.333334 -0.6147827896401477 0.7886964698552331 3.733023433876775e-17 -9.601228768781898e-17 3.733023433876775e-17 -9.601228768781898e-17 -0.6147833108525418 0.7886960635739312
12630858666.666666 -0.6067655637319377 0.7948808405471175 3.6340523206731377e-17 -9.636972380372145e-17 3.6340523206731377e-17 -9.636972380372145e-17 -0.606766089005621 0.794880439583621
12631476000.0 -0.5986861307928796 0.8009837181841335 3.534740740277604e-17 -9.671696550940099e-17 3.534740740277604e-17 -9.671696550940099e-17 -0.5986866600736049 0.8009833225790282
12632093333.333334 -0.5905453191455532 0.8070044770849187 3.4350991855145973e-17 -9.705398056757898e-17 3.4350991855145973e-17 -9.705398056757898e-17 -0.5905458523786692 0.8070040868782381
12632710666.666666 -0.5823439634052318 0.8129424999871233 3.335138179520507e-17 -9.738073782018454e-17 3.335138179520507e-17 -9.738073782018454e-17 -0.5823445005356854 0.8129421152183411
12633328000.0 -0.5740829043941229 0.8187971781108163 3.234868274635047e-17 -9.769720719117928e-17 3.234868274635047e-17 -9.769720719117928e-17 -0.5740834453664687 0.8187967988188477
12633945333.333334 -0.5657629890555389 0.8245679112206403 3.1343000512911546e-17 -9.800335968926542e-17 3.1343000512911546e-17 -9.800335968926542e-17 -0.5657635338139422 0.8245675374438336
12634562666.666666 -0.5573850703667639 0.8302541076875594 3.033444116898484e-17 -9.829916741049198e-17 3.033444116898484e-17 -9.829916741049198e-17 -0.5573856188550077 0.8302537394636944
12635180000.0 -0.548950007251791 0.8358551845493859 2.932311104728978e-17 -9.858460354073255e-17 2.932311104728978e-17 -9.858460354073255e-17 -0.5489505594132806 0.8358548219156684
12635797333.333334 -0.5404586644931685 0.8413705675706091 2.830911672795433e-17 -9.885964235806289e-17 2.830911672795433e-17 -9.885964235806289e-17 -0.54045922027094 0.8413702105636708
12636414666.666666 -0.5319119126433669 0.846799691301256 2.7292565027335376e-17 -9.912425923500757e-17 2.7292565027335376e-17 -9.912425923500757e-17 -0.5319124719800895 0.8467993399571458
12637032000.0 -0.5233106279355256 0.8521419991348591 2.6273562986762578e-17 -9.937843064068747e-17 2.6273562986762578e-17 -9.937843064068747e-17 -0.5233111907735096 0.8521416534890423
12637649333.333334 -0.5146556921936429 0.8573969433655044 2.5252217861291218e-17 -9.962213414284396e-17 2.5252217861291218e-17 -9.962213414284396e-17 -0.5146562584748462 0.8573966034528595
12638266666.666666 -0.5059479927420747 0.8625639852440475 2.4228637108451454e-17 -9.98553484097444e-17 2.4228637108451454e-17 -9.98553484097444e-17 -0.5059485624081069 0.8625636510988611
12638884000.0 -0.49718842231470706 0.8676425950332545 2.3202928376941172e-17 -1.0007805321198235e-16 2.3202928376941172e-17 -1.0007805321198235e-16 -0.497188995306837 0.867642266689219
12639501333.333334 -0.488377878963336 0.8726322520621738 2.2175199495342946e-17 -1.0029022942415196e-16 2.2175199495342946e-17 -1.0029022942415196e-16 -0.488378455222497 0.8726319295523831
12640118666.666666 -0.47951726596566996 0.8775324447794722 2.114555846081843e-17 -1.0049185902640964e-16 2.114555846081843e-17 -1.0049185902640964e-16 -0.4795178454324661 0.8775321281364192
12640736000.0 -0.47060749173247385 0.8823426708060179 2.0114113427726405e-17 -1.0068292510593208e-16 2.0114113427726405e-17 -1.0068292510593208e-16 -0.47060807434718727 0.8823423600615922
12641353333.333334 -0.46164946971496335 0.8870624369861019 1.9080972696369263e-17 -1.0086341185823035e-16 1.9080972696369263e-17 -1.0086341185823035e-16 -0.4616500554175575 0.8870621321715823
12641970666.666666 -0.45264411831055196 0.8916912594383165 1.804624470157398e-17 -1.0103330458837834e-16 1.804624470157398e-17 -1.0103330458837834e-16 -0.4526447070406814 0.8916909605843741
12642588000.0 -0.44359236076909936 0.8962286636049565 1.7010038001352343e-17 -1.0119258971210781e-16 1.7010038001352343e-17 -1.0119258971210781e-16 -0.44359295246611286 0.8962283707416459
12643205333.333334 -0.43449512509815486 0.90067418430072 1.5972461265549944e-17 -1.0134125475678813e-16 1.5972461265549944e-17 -1.0134125475678813e-16 -0.4344957197011036 0.9006738974574803
12643822666.666666 -0.4253533439676391 0.9050273657604924 1.4933623264436192e-17 -1.0147928836229823e-16 1.4933623264436192e-17 -1.0147928836229823e-16 -0.4253539414152822 0.9050270849661419
12644440000.0 -0.4161679546145035 0.90928776168593 1.3893632857357357e-17 -1.0160668028177125e-16 1.3893632857357357e-17 -1.0160668028177125e-16 -0.4161685548453147 0.909287486968665
12645057333.333334 -0.40693989874654257 0.9134549352912716 1.2852598981338821e-17 -1.0172342138223061e-16 1.2852598981338821e-17 -1.0172342138223061e-16 -0.406940501698716 0.9134546666786617
12645674666.666666 -0.39767012244577016 0.9175284593481523 1.1810630639686319e-17 -1.0182950364510795e-16 1.1810630639686319e-17 -1.0182950364510795e-16 -0.39767072805722675 0.9175281968671386
12646292000.0 -0.38835957607139626 0.921507916229412 1.0767836890590613e-17 -1.0192492016664439e-16 1.0767836890590613e-17 -1.0192492016664439e-16 -0.3883601842797911 0.9215076599063052
12646909333.333334 -0.37900921416265715 0.9253928979518012 9.724326835762745e-18 -1.0200966515817201e-16 9.724326835762745e-18 -1.0200966515817201e-16 -0.3790098249053846 0.9253926478122773
12647526666.666666 -0.36961999534061313 0.9291830062179535 8.680209609002577e-18 -1.0208373394628627e-16 8.680209609002577e-18 -1.0208373394628627e-16 -0.3696206085548139 0.9291827622870523
12648144000.0 -0.36019288221007745 0.9328778524571296 7.635594364829225e-18 -1.0214712297289493e-16 7.635594364829225e-18 -1.0214712297289493e-16 -0.36019349783264526 0.9328776147592526
12648761333.333334 -0.35072884126082216 0.9364770578650975 6.590590267079069e-18 -1.0219982979515498e-16 6.590590267079069e-18 -1.0219982979515498e-16 -0.35072945922841026 0.9364768264240046
12649378666.666666 -0.34122884276867865 0.9399802534428988 5.545306477539147e-18 -1.022418530852907e-16 5.545306477539147e-18 -1.022418530852907e-16 -0.3412294630177056 0.9399800282817061
12649996000.0 -0.3316938606958492 0.9433870800347602 4.499852144541612e-18 -1.0227319263029817e-16 4.499852144541612e-18 -1.0227319263029817e-16 -0.33169448316250577 0.9433868611759371
12650613333.333334 -0.3221248725910525 0.94669718836491 3.4543363915872958e-18 -1.0229384933153187e-16 3.4543363915872958e-18 -1.0229384933153187e-16 -0.32212549721130895 0.9466969758302788
12651230666.666666 -0.31252285948957353 0.9499102390732977 2.4088683060082865e-18 -1.0230382520417493e-16 2.4088683060082865e-18 -1.0230382520417493e-16 -0.312523486199185 0.949910032884029
12651848000.0 -0.3028888058123336 0.9530259027505005 1.3635569275543831e-18 -1.0230312337659549e-16 1.3635569275543831e-18 -1.0230312337659549e-16 -0.3028894345468479 0.953025702927114
12652465333.333334 -0.2932236992651291 0.9560438599714465 3.1851123708782603e-19 -1.0229174808958483e-16 3.1851123708782603e-19 -1.0229174808958483e-16 -0.2932243299598919 0.9560436665338047
12653082666.666666 -0.2835285307375295 0.958963801328104 -7.261598547666721e-19 -1.0226970469548163e-16 -7.261598547666721e-19 -1.0226970469548163e-16 -0.28352916332769285 0.958963614295416
12653700000.0 -0.2738042942009391 0.9617854274613206 -1.7703475189891974e-18 -1.0223699965717965e-16 -1.7703475189891974e-18 -1.0223699965717965e-16 -0.27380492862146655 0.9617852468521352
12654317333.333334 -0.26405198660698986 0.9645084490914174 -2.8139430194230542e-18 -1.0219364054702078e-16 -2.8139430194230542e-18 -1.0219364054702078e-16 -0.2640526227926636 0.9645082749236233
12654934666.666666 -0.2542726077852512 0.9671325870478762 -3.856837724115024e-18 -1.0213963604557244e-16 -3.856837724115024e-18 -1.0213963604557244e-16 -0.25427324567067905 0.9671324193387002
12655552000.0 -0.2444671603405047 0.9696575722980149 -4.89892311661121e-18 -1.0207499594028849e-16 -4.89892311661121e-18 -1.0207499594028849e-16 -0.24446779986012632 0.9696574110640198
12656169333.333334 -0.23463664955039437 0.9720831459744552 -5.940090807181384e-18 -1.0199973112405978e-16 -5.940090807181384e-18 -1.0199973112405978e-16 -0.23463729063848882 0.9720829912315399
12656786666.666666 -0.22478208326197918 0.9744090594017657 -6.980232544124303e-18 -1.0191385359364353e-16 -6.980232544124303e-18 -1.0191385359364353e-16 -0.22478272585267056 0.9744089111651596
12657404000.0 -0.2149044717885978 0.9766350741219018 -8.01924022496727e-18 -1.0181737644798405e-16 -8.01924022496727e-18 -1.0181737644798405e-16 -0.21490511581586294 0.9766349324061676
12658021333.333334 -0.20500482780612336 0.9787609619186955 -9.057005907695022e-18 -1.0171031388641547e-16 -9.057005907695022e-18 -1.0171031388641547e-16 -0.2050054732037981 0.9787608267377252
12658638666.666666 -0.19508416624947467 0.980786504841179 -1.009342182193727e-17 -1.0159268120675288e-16 -1.009342182193727e-17 -1.0159268120675288e-16 -0.19508481295126093 0.9807863762081935
12659256000.0 -0.1851435042080621 0.9827114952260341 -1.112838038014839e-17 -1.0146449480326719e-16 -1.112838038014839e-17 -1.0146449480326719e-16 -0.18514415214753457 0.9827113731535824
12659873333.333334 -0.17518386082195836 0.9845357357187906 -1.216177418875212e-17 -1.0132577216454816e-16 -1.216177418875212e-17 -1.0132577216454816e-16 -0.17518450993257126 0.9845356202187474
12660490666.666666 -0.16520625717733145 0.9862590392940823 -1.3193496059244499e-17 -1.011765318712565e-16 -1.3193496059244499e-17 -1.011765318712565e-16 -0.16520690739242536 0.9862589303776466
12661108000.0 -0.1552117162013956 0.9878812292748793 -1.4223439019328573e-17 -1.0101679359375545e-16 -1.4223439019328573e-17 -1.0101679359375545e-16 -0.15521236745420453 0.9878811269525749
12661725333.333334 -0.14520126255809912 0.9894021393505078 -1.525149632395325e-17 -1.0084657808963892e-16 -1.525149632395325e-17 -1.0084657808963892e-16 -0.14520191478175737 0.9894020436321831
12662342666.666666 -0.13517592254268143 0.9908216135937709 -1.6277561466370123e-17 -1.006659072011409e-16 -1.6277561466370123e-17 -1.006659072011409e-16 -0.13517657567022984 0.9908215244885928
12662960000.0 -0.12513672397650957 0.9921395064769138 -1.7301528189141027e-17 -1.0047480385243567e-16 -1.7301528189141027e-17 -1.0047480385243567e-16 -0.12513737794090332 0.9921394239933744
12663577333.333334 -0.11508469610184562 0.9933556828865358 -1.8323290495132464e-17 -1.0027329204682325e-16 -1.8323290495132464e-17 -1.0027329204682325e-16 -0.11508535083596014 0.9933556070324429
12664194666.666666 -0.10502086947624045 0.994470018137441 -1.934274265844722e-17 -1.0006139686380924e-16 -1.934274265844722e-17 -1.0006139686380924e-16 -0.10502152491287935 0.9944699489199268
12664812000.0 -0.09494627586679559 0.9954823979854468 -2.035977923536628e-17 -9.983914445606609e-17 -2.035977923536628e-17 -9.983914445606609e-17 -0.09494693193869659 0.9954823354109593
12665429333.333334 -0.08486194814452343 0.996392718639064 -2.1374295075216938e-17 -9.960656204628986e-17 -2.1374295075216938e-17 -9.960656204628986e-17 -0.08486260478436596 0.996392662713371
12666046666.666666 -0.07476892017851294 0.9972008867701468 -2.2386185331217964e-17 -9.936367792394676e-17 -2.2386185331217964e-17 -9.936367792394676e-17 -0.07476957731892461 0.9972008374983335
12666664000.0 -0.06466822672953804 0.9979068195234895 -2.3395345471333654e-17 -9.911052144189764e-17 -2.3395345471333654e-17 -9.911052144189764e-17 -0.06466888430310176 0.9979067769099583
12667281333.333334 -0.05456090334453775 0.9985104445252722 -2.440167128899505e-17 -9.884712301293578e-17 -2.440167128899505e-17 -9.884712301293578e-17 -0.05456156128379861 0.9985104085737428
12667898666.666666 -0.04444798625008179 0.9990116998905173 -2.5405058913876204e-17 -9.857351410619407e-17 -2.5405058913876204e-17 -9.857351410619407e-17 -0.044448644487553965 0.9990116706040264
12668516000.0 -0.03433051224604832 0.9994105342294287 -2.6405404822602542e-17 -9.828972724344858e-17 -2.6405404822602542e-17 -9.828972724344858e-17 -0.03433117071422199 0.9994105116103291
12669133333.333334 -0.0242095185997549 0.9997069066526433 -2.740260584936618e-17 -9.799579599532933e-17 -2.740260584936618e-17 -9.799579599532933e-17 -0.02421017723110314 0.9997068907026035
12669750666.666666 -0.014086042939246202 0.9999007867754394 -2.839655919659462e-17 -9.769175497739707e-17 -2.839655919659462e-17 -9.769175497739707e-17 -0.014086701666231974 0.9999007774954448
12670368000.0 -0.003961123146942322 0.9999921547208475 -2.9387162445495974e-17 -9.737763984613472e-17 -2.9387162445495974e-17 -9.737763984613472e-17 -0.003961781902025366 0.9999921521112
