! Parameters = {f0=12700.012000; bw=77.238000; Q=6100.000000; N=10; m_0_1=1.158654; m_1_1=-1.384941; m_1_2=0.993466; m_2_2=-1.385590; m_2_3=0.630429; m_2_8=-0.005004; m_2_9=0.031700; m_3_3=-1.387527; m_3_4=0.518958; m_3_7=-0.004404; m_3_8=-0.101492; m_3_9=-0.005004; m_4_4=-1.390452; m_4_5=0.355293; m_4_6=-0.000887; m_4_7=-0.122041; m_4_8=-0.004404; m_5_5=-1.390070; m_5_6=0.762648; m_5_7=-0.000887; m_6_6=-1.390071; m_6_7=0.355635; m_7_7=-1.390438; m_7_8=0.519076; m_8_8=-1.387529; m_8_9=0.630742; m_9_9=-1.385595; m_9_10=0.994544; m_10_10=-1.384951; m_10_11=1.159449}
!
! Created with skrf (http://scikit-rf.org).
# Hz S RI R 50.0 
!freq ReS11 ImS11 ReS21 ImS21 ReS12 ImS12 ReS22 ImS22
12607400000.0 0.47082063525209517 -0.8822289552155202 -1.2733226976085978e-17 6.210918484227347e-17 -1.2733226976085978e-17 6.210918484227347e-17 0.47082117397175327 -0.8822286677158665
12608017333.333334 0.4644287573818641 -0.8856104839694422 -1.2275849003002614e-17 6.218854229689379e-17 -1.2275849003002614e-17 6.218854229689379e-17 0.46442929813991835 -0.8856102003867813
12608634666.666666 0.4580125941439307 -0.8889457034067946 -1.1817992215465957e-17 6.226453538274366e-17 -1.1817992215465957e-17 6.226453538274366e-17 0.45801313691190537 -0.8889454237555694
12609252000.0 0.45157248104492637 -0.8922344391261661 -1.1359681333235218e-17 6.233716134613326e-17 -1.1359681333235218e-17 6.233716134613326e-17 0.45157302579424424 -0.8922341634206141
12609869333.333334 0.4451087548437406 -0.8954765191568721 -1.0900941090705073e-17 6.240641761479925e-17 -1.0900941090705073e-17 6.240641761479925e-17 0.44510930154572426 -0.8954762474110243
12610486666.666666 0.4386217535341139 -0.8986717739678445 -1.0441796235589847e-17 6.247230179796911e-17 -1.0441796235589847e-17 6.247230179796911e-17 0.4386223021599855 -0.8986715061955213
12611104000.0 0.43211181632675777 -0.9018200364765931 -9.982271527562982e-18 6.253481168642291e-17 -9.982271527562982e-18 6.253481168642291e-17 0.43211236684764254 -0.9018197726914072
12611721333.333334 0.4255792836318238 -0.9049211420578466 -9.522391736956949e-18 6.259394525253575e-17 -9.522391736956949e-18 6.259394525253575e-17 0.42557983601874994 -0.9049208822731999
12612338666.666666 0.41902449704092265 -0.9079749285522458 -9.062181643420344e-18 6.264970065031712e-17 -9.062181643420344e-18 6.264970065031712e-17 0.4190250512648242 -0.9079746727813303
12612956000.0 0.4124477993093393 -0.9109812362747857 -8.60166603457679e-18 6.270207621544003e-17 -8.60166603457679e-18 6.270207621544003e-17 0.4124483553410572 -0.9109809845305825
12613573333.333334 0.405849534338162 -0.913939908023143 -8.140869704716019e-18 6.275107046525606e-17 -8.140869704716019e-18 6.275107046525606e-17 0.4058500921484453 -0.9139396603184212
12614190666.666666 0.39923004715624727 -0.9168507890859194 -7.67981745345126e-18 6.279668209880537e-17 -7.67981745345126e-18 6.279668209880537e-17 0.3992306067157552 -0.9168505454332364
12614808000.0 0.39258968390212756 -0.9197137272507574 -7.21853408438575e-18 6.28389099968155e-17 -7.21853408438575e-18 6.28389099968155e-17 0.39259024518143004 -0.9197134876624559
12615425333.333334 0.38592879180596035 -0.9225285728122705 -6.757044403795616e-18 6.287775322168866e-17 -6.757044403795616e-18 6.287775322168866e-17 0.3859293547755408 -0.92252833730048
12616042666.666666 0.37924771917145245 -0.9252951785798429 -6.295373219288166e-18 6.291321101748225e-17 -6.295373219288166e-18 6.291321101748225e-17 0.3792482838017088 -0.9252949471564794
12616660000.0 0.37254681535748896 -0.9280133998853927 -5.8335453384784755e-18 6.294528280987771e-17 -5.8335453384784755e-18 6.294528280987771e-17 0.3725473816187347 -0.9280131725621559
12617277333.333334 0.36582643075991617 -0.9306830945909105 -5.371585567664693e-18 6.297396820613955e-17 -5.371585567664693e-18 6.297396820613955e-17 0.36582699862238316 -0.9306828713792858
12617894666.666666 0.35908691679343185 -0.933304123095811 -4.9095187104986126e-18 6.299926699506596e-17 -4.9095187104986126e-18 6.299926699506596e-17 0.3590874862272706 -0.9333039040070672
12618512000.0 0.35232862587275926 -0.9358763483444096 -4.447369566646101e-18 6.302117914692934e-17 -4.447369566646101e-18 6.302117914692934e-17 0.3523291968480414 -0.9358761333895993
12619129333.333334 0.3455519113946693 -0.9383996358329129 -3.985162930482361e-18 6.303970481340599e-17 -3.985162930482361e-18 6.303970481340599e-17 0.34555248388138887 -0.9383994250228713
12619746666.666666 0.3387571277193162 -0.9408738536165258 -3.522923589755684e-18 6.305484432749716e-17 -3.522923589755684e-18 6.305484432749716e-17 0.3387577016873909 -0.9408736469618703
12620364000.0 0.33194463015151976 -0.9432988723164164 -3.060676324250311e-18 6.306659820344116e-17 -3.060676324250311e-18 6.306659820344116e-17 0.33194520557079266 -0.9432986698275458
12620981333.333334 0.32511477492264146 -0.9456745651263194 -2.5984459044932807e-18 6.307496713661344e-17 -2.5984459044932807e-18 6.307496713661344e-17 0.3251153517628828 -0.9456743668134135
12621598666.666666 0.3182679191715008 -0.9480008078193268 -2.136257090401289e-18 6.307995200341973e-17 -2.136257090401289e-18 6.307995200341973e-17 0.31826849740240976 -0.9480006136923467
12622216000.0 0.31140442092591586 -0.9502774787543107 -1.6741346299734915e-18 6.308155386117755e-17 -1.6741346299734915e-18 6.308155386117755e-17 0.3114050005171214 -0.9502772888229968
12622833333.333334 0.3045246390840069 -0.9525044588822719 -1.2121032579729018e-18 6.307977394798894e-17 -1.2121032579729018e-18 6.307977394798894e-17 0.30452522000507026 -0.9525042731561454
12623450666.666666 0.29762893339537777 -0.9546816317525878 -7.501876946036335e-19 6.307461368260356e-17 -7.501876946036335e-19 6.307461368260356e-17 0.2976295156157936 -0.954681450240949
12624068000.0 0.2907176644422485 -0.9568088835191163 -2.884126441894371e-19 6.306607466427203e-17 -2.884126441894371e-19 6.306607466427203e-17 0.29071824793144635 -0.9568087062310435
12624685333.333334 0.2837911936206548 -0.9588861029461309 1.731972061392236e-19 6.305415867258924e-17 1.731972061392236e-19 6.305415867258924e-17 0.28379177834800084 -0.9588859298904809
12625302666.666666 0.2768498831216317 -0.9609131814141135 6.346171877530756e-19 6.303886766732935e-17 6.346171877530756e-19 6.303886766732935e-17 0.2768504690564304 -0.9609130125995213
12625920000.0 0.26989409591208363 -0.9628900129254908 1.0958226518591098e-18 6.302020378826923e-17 1.0958226518591098e-18 6.302020378826923e-17 0.2698946830235796 -0.9628898483603693
12626537333.333334 0.2629241957159966 -0.9648164941101238 1.5567889707821188e-18 6.299816935500468e-17 1.5567889707821188e-18 6.299816935500468e-17 0.2629247839733753 -0.9648163338026606
12627154666.666666 0.25594054699533497 -0.9666925242307308 2.0174915392965507e-18 6.297276686675512e-17 2.0174915392965507e-18 6.297276686675512e-17 0.2559411363677258 -0.9666923681888934
12627772000.0 0.24894351493090308 -0.9685180051881851 2.4779057759387103e-18 6.294399900215933e-17 2.4779057759387103e-18 6.294399900215933e-17 0.24894410538737943 -0.9685178534197141
12628389333.333334 0.24193346540346772 -0.9702928415265789 2.9380071242921424e-18 6.29118686190627e-17 2.9380071242921424e-18 6.29118686190627e-17 0.24193405691304978 -0.9702926940389931
12629006666.666666 0.23491076497429692 -0.9720169404383051 3.3977710543123126e-18 6.287637875429325e-17 3.3977710543123126e-18 6.287637875429325e-17 0.2349113575059526 -0.9720167972388973
12629624000.0 0.2278757808663772 -0.9736902117688111 3.857173063622533e-18 6.28375326234294e-17 3.857173063622533e-18 6.28375326234294e-17 0.22787637438902414 -0.9736900728646497
12630241333.333334 0.2208288809448804 -0.9753125680213935 4.316188678811471e-18 6.279533362055798e-17 4.316188678811471e-18 6.279533362055798e-17 0.22082947542738732 -0.9753124334193214
12630858666.666666 0.21377043369817617 -0.9768839243617159 4.774793456733989e-18 6.274978531802291e-17 4.774793456733989e-18 6.274978531802291e-17 0.21377102910936485 -0.9768837940683509
12631476000.0 0.20670080821834244 -0.9784041986222963 5.232962985822281e-18 6.270089146616263e-17 5.232962985822281e-18 6.270089146616263e-17 0.20670140452698899 -0.9784040726440294
12632093333.333334 0.19962037418205855 -0.9798733113067568 5.690672887352078e-18 6.264865599304244e-17 5.690672887352078e-18 6.264865599304244e-17 0.19962097135689535 -0.9798731896497541
12632710666.666666 0.1925295018311924 -0.9812911855940045 6.147898816756483e-18 6.25930830041728e-17 6.147898816756483e-18 6.25930830041728e-17 0.19253009984090952 -0.9812910682642043
12633328000.0 0.1854285619533835 -0.9826577473422549 6.604616464919585e-18 6.253417678221931e-17 6.604616464919585e-18 6.253417678221931e-17 0.18542916076663032 -0.9826576343453688
12633945333.333334 0.17831792586271006 -0.9839729250928982 7.060801559442857e-18 6.247194178670675e-17 7.060801559442857e-18 6.247194178670675e-17 0.17831852544809734 -0.9839728164344123
12634562666.666666 0.17119796538035725 -0.9852366500742246 7.516429865949954e-18 6.24063826537091e-17 7.516429865949954e-18 6.24063826537091e-17 0.171198565706458 -0.9852365457593951
12635180000.0 0.1640690528149773 -0.9864488562050491 7.97147718936227e-18 6.233750419553266e-17 7.97147718936227e-18 6.233750419553266e-17 0.16406965385032926 -0.9864487562389069
12635797333.333334 0.15693156094341842 -0.9876094800981388 8.425919375175485e-18 6.226531140039016e-17 8.425919375175485e-18 6.226531140039016e-17 0.1569321626565251 -0.9876093844854856
12636414666.666666 0.14978586299114702 -0.988718461063538 8.879732310740602e-18 6.218980943206473e-17 8.879732310740602e-18 6.218980943206473e-17 0.14978646535047963 -0.9887183698089477
12637032000.0 0.1426323326126479 -0.9897757411117574 9.332891926543852e-18 6.211100362956362e-17 9.332891926543852e-18 6.211100362956362e-17 0.14263293558664694 -0.9897756542195754
12637649333.333334 0.13547134387208162 -0.9907812649567743 9.785374197466233e-18 6.202889950676581e-17 9.785374197466233e-18 6.202889950676581e-17 0.13547194742915858 -0.990781182431118
12638266666.666666 0.12830327122352794 -0.9917349800189543 1.0237155144064879e-17 6.19435027520566e-17 1.0237155144064879e-17 6.19435027520566e-17 0.12830387533206686 -0.991734901863712
12638884000.0 0.12112848949148942 -0.9926368364277866 1.0688210833833808e-17 6.18548192279556e-17 1.0688210833833808e-17 6.18548192279556e-17 0.12112909411984862 -0.992636762646618
12639501333.333334 0.11394737385134807 -0.9934867870244857 1.1138517382463464e-17 6.176285497073528e-17 1.1138517382463464e-17 6.176285497073528e-17 0.11394797896786178 -0.9934867176208214
12640118666.666666 0.10676029980971895 -0.9942847873644617 1.1588050955102501e-17 6.166761619002995e-17 1.1588050955102501e-17 6.166761619002995e-17 0.10676090538269901 -0.9942847223415031
12640736000.0 0.09956764318458887 -0.9950307957196711 1.2036787767628548e-17 6.156910926843227e-17 1.2036787767628548e-17 6.156910926843227e-17 0.09956824918232621 -0.9950307350803893
12641353333.333334 0.09236978008614426 -0.9957247730807404 1.2484704087872192e-17 6.146734076109029e-17 1.2484704087872192e-17 6.146734076109029e-17 0.09237038647691091 -0.9957247168278789
12641970666.666666 0.0851670868966243 -0.9963666831590653 1.2931776236897033e-17 6.136231739528293e-17 1.2931776236897033e-17 6.136231739528293e-17 0.08516769364867474 -0.9963666312951368
12642588000.0 0.07795994025086529 -0.9969564923886781 1.3377980590232673e-17 6.125404606999506e-17 1.3377980590232673e-17 6.125404606999506e-17 0.07796054733243811 -0.9969564449159651
12643205333.333334 0.07074871701669108 -0.9974941699279987 1.3823293579113241e-17 6.114253385548275e-17 1.3823293579113241e-17 6.114253385548275e-17 0.07074932439601093 -0.9974941268485553
12643822666.666666 0.06353379427489499 -0.9979796876614719 1.4267691691734797e-17 6.102778799282322e-17 1.4267691691734797e-17 6.102778799282322e-17 0.06353440192017397 -0.9979796489771217
12644440000.0 0.056315549299890216 -0.9984130202010121 1.4711151474478187e-17 6.09098158934642e-17 1.4711151474478187e-17 6.09098158934642e-17 0.05631615717932954 -0.9984129859133475
12645057333.333334 0.049094359539754905 -0.9987941448873419 1.5153649533138545e-17 6.078862513876109e-17 1.5153649533138545e-17 6.078862513876109e-17 0.04909496762154679 -0.998794114997727
12645674666.666666 0.041870602596580445 -0.9991230417911766 1.559516253416508e-17 6.06642234795022e-17 1.559516253416508e-17 6.06642234795022e-17 0.04187121084890959 -0.9991230163007455
12646292000.0 0.03464465620661269 -0.9993996937142714 1.603566720589356e-17 6.053661883542572e-17 1.603566720589356e-17 6.053661883542572e-17 0.03464526459765794 -0.9993996726239265
12646909333.333334 0.027416898220698423 -0.9996240861903087 1.6475140339740632e-17 6.040581929473692e-17 1.6475140339740632e-17 6.040581929473692e-17 0.02741750671863452 -0.9996240695007236
12647526666.666666 0.02018770658432861 -0.9997962074856649 1.691355879144937e-17 6.027183311360215e-17 1.691355879144937e-17 6.027183311360215e-17 0.020188315157327795 -0.9997961951972821
12648144000.0 0.012957459317988836 -0.9999160486000199 1.7350899482296345e-17 6.013466871564245e-17 1.7350899482296345e-17 6.013466871564245e-17 0.012958067934222531 -0.9999160407130518
12648761333.333334 0.005726534497307025 -0.9999836032668261 1.778713940028986e-17 5.99943346914211e-17 1.778713940028986e-17 5.99943346914211e-17 0.005727143124947524 -0.9999835997812564
12649378666.666666 -0.001504689766488992 -0.9999988679536398 1.822225560138624e-17 5.985083979791536e-17 1.822225560138624e-17 5.985083979791536e-17 -0.0015040811592669007 -0.99999886886922
12649996000.0 -0.008735835346684345 -0.9999618418623026 1.8656225210695155e-17 5.97041929579815e-17 1.8656225210695155e-17 5.97041929579815e-17 -0.008735226791701703 -0.9999618471785566
12650613333.333334 -0.01596652412065075 -0.9998725269289881 1.9089025423667156e-17 5.955440325981539e-17 1.9089025423667156e-17 5.955440325981539e-17 -0.01596591564972273 -0.9998725366452063
12651230666.666666 -0.023196377989561947 -0.9997309278240923 1.9520633507290682e-17 5.940147995640033e-17 1.9520633507290682e-17 5.940147995640033e-17 -0.02319576963449626 -0.9997309419393382
12651848000.0 -0.03042501889833539 -0.9995370519519973 1.9951026801293092e-17 5.924543246494348e-17 1.9951026801293092e-17 5.924543246494348e-17 -0.03042441069093059 -0.9995370704651042
12652465333.333334 -0.037652068855344244 -0.9992909094506799 2.0380182719305275e-17 5.908627036631402e-17 2.0380182719305275e-17 5.908627036631402e-17 -0.03765146082738803 -0.99929093236025
12653082666.666666 -0.044877149951955436 -0.9989925131911861 2.0808078750052327e-17 5.892400340446323e-17 2.0808078750052327e-17 5.892400340446323e-17 -0.04487654213522308 -0.9989925404955935
12653700000.0 -0.05209988438277403 -0.9986418787769488 2.1234692458541145e-17 5.875864148583458e-17 2.1234692458541145e-17 5.875864148583458e-17 -0.052099276809026554 -0.9986419104743354
12654317333.333334 -0.059319894464915826 -0.9982390245429824 2.166000148720354e-17 5.859019467878033e-17 2.166000148720354e-17 5.859019467878033e-17 -0.05931928716589851 -0.9982390606312621
12654934666.666666 -0.06653680265795571 -0.9977839715549203 2.2083983557091412e-17 5.84186732129489e-17 2.2083983557091412e-17 5.84186732129489e-17 -0.06653619566539637 -0.9977840120317776
12655552000.0 -0.07375023158386808 -0.9972767436079011 2.250661646902554e-17 5.824408747867872e-17 2.250661646902554e-17 5.824408747867872e-17 -0.07374962492947543 -0.9972767884707917
12656169333.333334 -0.0809598040462782 -0.9967173672253554 2.2927878104749926e-17 5.806644802638125e-17 2.2927878104749926e-17 5.806644802638125e-17 -0.08095919776174006 -0.9967174164715044
12656786666.666666 -0.08816514305066768 -0.9961058716575812 2.3347746428094096e-17 5.788576556590878e-17 2.3347746428094096e-17 5.788576556590878e-17 -0.08816453716764966 -0.9961059252839871
12657404000.0 -0.0953658718238618 -0.9954422888802388 2.37661994861163e-17 5.770205096592163e-17 2.37661994861163e-17 5.770205096592163e-17 -0.09536526637400533 -0.9954423468836705
12658021333.333334 -0.10256161383370235 -0.9947266535926739 2.4183215410242876e-17 5.751531525324483e-17 2.4183215410242876e-17 5.751531525324483e-17 -0.10256100884862308 -0.9947267159696713
12658638666.666666 -0.10975199280879396 -0.9939590032161044 2.459877241740813e-17 5.732556961221595e-17 2.459877241740813e-17 5.732556961221595e-17 -0.1097513883200801 -0.9939590699629786
12659256000.0 -0.11693663275823568 -0.9931393778916531 2.5012848811198455e-17 5.71328253840195e-17 2.5012848811198455e-17 5.71328253840195e-17 -0.11693602879744652 -0.9931394490044876
12659873333.333334 -0.12411515799122565 -0.9922678204782557 2.542542298296078e-17 5.693709406602701e-17 2.542542298296078e-17 5.693709406602701e-17 -0.12411455458988976 -0.9922678959529063
12660490666.666666 -0.1312871931366215 -0.9913443765504311 2.583647341293675e-17 5.673838731111583e-17 2.583647341293675e-17 5.673838731111583e-17 -0.13128659032623513 -0.991344456382526
12661108000.0 -0.13845236316276618 -0.9903690943958723 2.6245978671383276e-17 5.653671692698245e-17 2.6245978671383276e-17 5.653671692698245e-17 -0.13845176097479167 -0.9903691785808126
12661725333.333334 -0.14561029339687365 -0.9893420250129528 2.6653917419673785e-17 5.633209487545576e-17 2.6653917419673785e-17 5.633209487545576e-17 -0.14560969186273767 -0.9893421135459123
12662342666.666666 -0.15276060954484566 -0.9882632221080284 2.7060268411416247e-17 5.612453327179074e-17 2.7060268411416247e-17 5.612453327179074e-17 -0.15276000869593756 -0.988263314983953
12662960000.0 -0.15990293771061878 -0.9871327420926576 2.746501049355e-17 5.591404438396222e-17 2.746501049355e-17 5.591404438396222e-17 -0.15990233757828912 -0.9871328393062676
12663577333.333334 -0.16703690441591287 -0.9859506440806278 2.786812260743719e-17 5.570064063195092e-17 2.786812260743719e-17 5.570064063195092e-17 -0.1670363050314716 -0.9859507456264169
12664194666.666666 -0.17416213661967586 -0.9847169898848724 2.8269583789963024e-17 5.548433458701447e-17 2.8269583789963024e-17 5.548433458701447e-17 -0.17416153801439102 -0.9847170957571094
12664812000.0 -0.18127826173750688 -0.9834318440142572 2.866937317461609e-17 5.526513897095759e-17 2.866937317461609e-17 5.526513897095759e-17 -0.1812776639426025 -0.9834319542069841
12665429333.333334 -0.18838490766133453 -0.9820952736701696 2.9067469992564816e-17 5.504306665539381e-17 2.9067469992564816e-17 5.504306665539381e-17 -0.18838431070798908 -0.9820953881772025
12666046666.666666 -0.1954817027786509 -0.9807073487430455 2.946385357373453e-17 5.481813066099638e-17 2.946385357373453e-17 5.481813066099638e-17 -0.19548110669799615 -0.9807074675579771
12666664000.0 -0.20256827599216762 -0.979268141808675 2.985850334788033e-17 5.459034415674026e-17 2.985850334788033e-17 5.459034415674026e-17 -0.20256768081528645 -0.9792682649248725
12667281333.333334 -0.20964425673902487 -0.9777777281244433 3.025139884563869e-17 5.4359720459145376e-17 3.025139884563869e-17 5.4359720459145376e-17 -0.20964366249694982 -0.977777855535049
12667898666.666666 -0.2167092750102243 -0.9762361856253831 3.06425196995949e-17 5.412627303149984e-17 3.06425196995949e-17 5.412627303149984e-17 -0.21670868173393648 -0.9762363173233178
12668516000.0 -0.22376296137017254 -0.974643594920064 3.103184564532915e-17 5.3890015483084486e-17 3.103184564532915e-17 5.3890015483084486e-17 -0.223762369090599 -0.9746437308980227
12669133333.333334 -0.23080494697566445 -0.9730000392864409 3.141935652245686e-17 5.365096156839002e-17 3.141935652245686e-17 5.365096156839002e-17 -0.23080435572367733 -0.9730001795368964
12669750666.666666 -0.23783486359536612 -0.9713056046674641 3.180503227567676e-17 5.34091251863187e-17 3.180503227567676e-17 5.34091251863187e-17 -0.23783427340178084 -0.9713057491826665
12670368000.0 -0.2448523436291242 -0.9695603796665682 3.218885295580047e-17 5.3164520379385276e-17 3.218885295580047e-17 5.3164520379385276e-17 -0.24485175452469785 -0.9695605284385457
