! Parameters = {f0=12700.012000; bw=77.238000; Q=6100.000000; N=10; m_0_1=1.321016; m_1_1=1.050495; m_1_2=1.155828; m_2_2=1.049846; m_2_3=0.792791; m_2_8=0.003114; m_2_9=0.039818; m_3_3=1.047909; m_3_4=0.681320; m_3_7=0.003714; m_3_8=-0.093374; m_3_9=0.003114; m_4_4=1.044984; m_4_5=0.517655; m_4_6=0.007231; m_4_7=-0.113923; m_4_8=0.003714; m_5_5=1.045366; m_5_6=0.925010; m_5_7=0.007231; m_6_6=1.045365; m_6_7=0.517997; m_7_7=1.044998; m_7_8=0.681438; m_8_8=1.047907; m_8_9=0.793104; m_9_9=1.049841; m_9_10=1.156906; m_10_10=1.050485; m_10_11=1.321811}
!
! Created with skrf (http://scikit-rf.org).
# Hz S RI R 50.0 
!freq ReS11 ImS11 ReS21 ImS21 ReS12 ImS12 ReS22 ImS22
12607400000.0 0.20796739638948944 0.9781357584910118 -6.674389510858293e-17 -1.229015587880365e-16 -6.674389510858293e-17 -1.229015587880365e-16 0.20796671571140027 0.9781359032138747
12608017333.333334 0.21972012485215237 0.9755629486274905 -6.821513987247995e-17 -1.2205972483259048e-16 -6.821513987247995e-17 -1.2205972483259048e-16 0.21971944599769647 0.9755631015215135
12608634666.666666 0.2314410497080016 0.9728489299525737 -6.967578858059228e-17 -1.2120029142157885e-16 -6.967578858059228e-17 -1.2120029142157885e-16 0.2314403727752568 0.9728490909948256
12609252000.0 0.24312847440031454 0.9699940953096489 -7.112563085853319e-17 -1.2032339167027845e-16 -7.112563085853319e-17 -1.2032339167027845e-16 0.24312779948707144 0.9699942644760243
12609869333.333334 0.2547807072214952 0.9669988579246224 -7.256445800121732e-17 -1.1942916120676093e-16 -7.256445800121732e-17 -1.1942916120676093e-16 0.25478003442524205 0.96699903518984
12610486666.666666 0.2663960615576379 0.963863651346179 -7.399206300282813e-17 -1.1851773815100997e-16 -7.399206300282813e-17 -1.1851773815100997e-16 0.2663953909755474 0.9638638366837895
12611104000.0 0.2779728561330714 0.960588929382924 -7.540824058659736e-17 -1.1758926309363278e-16 -7.540824058659736e-17 -1.1758926309363278e-16 0.277972187861986 0.9605891227653112
12611721333.333334 0.28950941525327784 0.9571751660378137 -7.6812787234202e-17 -1.1664387907429293e-16 -7.6812787234202e-17 -1.1664387907429293e-16 0.289508749389696 0.9571753674361996
12612338666.666666 0.30100406904782423 0.9536228554394348 -7.820550121500206e-17 -1.1568173155972116e-16 -7.820550121500206e-17 -1.1568173155972116e-16 0.3010034056878873 0.9536230648238864
12612956000.0 0.3124551537118814 0.9499325117705435 -7.958618261497045e-17 -1.1470296842139898e-16 -7.958618261497045e-17 -1.1470296842139898e-16 0.3124544929513578 0.9499327291099717
12613573333.333334 0.3238610117470225 0.9461046691936394 -8.095463336528304e-17 -1.1370773991294174e-16 -8.095463336528304e-17 -1.1370773991294174e-16 0.32386035368129534 0.9461048944558077
12614190666.666666 0.33521999220122184 0.9421398817736257 -8.231065727073758e-17 -1.1269619864706317e-16 -8.231065727073758e-17 -1.1269619864706317e-16 0.33521933692527595 0.9421401149251568
12614808000.0 0.34653045090777224 0.9380387233976354 -8.365406003778863e-17 -1.1166849957227153e-16 -8.365406003778863e-17 -1.1166849957227153e-16 0.3465297985161778 0.9380389644040092
12615425333.333334 0.35779075072337435 0.9338017876919132 -8.498464930234463e-17 -1.1062479994919493e-16 -8.498464930234463e-17 -1.1062479994919493e-16 0.35779010131027605 0.9338020365174795
12616042666.666666 0.36899926176494885 0.929429687935957 -8.630223465726684e-17 -1.0956525932657854e-16 -8.630223465726684e-17 -1.0956525932657854e-16 0.3689986154240504 0.9294299445439352
12616660000.0 0.38015436164563593 0.924923056973718 -8.760662767954253e-17 -1.0849003951697726e-16 -8.760662767954253e-17 -1.0849003951697726e-16 0.3801537184701873 0.9249233213262052
12617277333.333334 0.39125443570973234 0.9202825471219521 -8.889764195718652e-17 -1.0739930457210028e-16 -8.889764195718652e-17 -1.0739930457210028e-16 0.3912537957925163 0.9202828191799286
12617894666.666666 0.40229787726611915 0.9155088300759225 -9.017509311581999e-17 -1.0629322075785339e-16 -9.017509311581999e-17 -1.0629322075785339e-16 0.4022972406994378 0.915509109799257
12618512000.0 0.41328308782121553 0.9106025968120072 -9.143879884495903e-17 -1.0517195652904539e-16 -9.143879884495903e-17 -1.0517195652904539e-16 0.4132824546968772 0.9106028841594632
12619129333.333334 0.42420847730993777 0.9055645574878645 -9.268857892394343e-17 -1.040356825038268e-16 -9.268857892394343e-17 -1.040356825038268e-16 0.42420784771924375 0.9055648524171066
12619746666.666666 0.4350724643262193 0.9003954413394814 -9.392425524761968e-17 -1.0288457143775746e-16 -9.392425524761968e-17 -1.0288457143775746e-16 0.43507183835994956 0.9003957438070789
12620364000.0 0.44587347635175334 0.8950959965756808 -9.514565185164581e-17 -1.0171879819761937e-16 -9.514565185164581e-17 -1.0171879819761937e-16 0.4458728541001553 0.895096306537118
12620981333.333334 0.4566099499834595 0.8896669902699049 -9.63525949374744e-17 -1.0053853973493223e-16 -9.63525949374744e-17 -1.0053853973493223e-16 0.45660933153623395 0.8896673076795857
12621598666.666666 0.46728033116011014 0.8841092082490188 -9.75449128970615e-17 -9.934397505912049e-17 -9.75449128970615e-17 -9.934397505912049e-17 0.4672797166063981 0.8841095330602724
12622216000.0 0.477883075386994 0.8784234549797023 -9.872243633717485e-17 -9.813528521045371e-17 -9.872243633717485e-17 -9.813528521045371e-17 0.4778824648153649 0.878423787144793
12622833333.333334 0.48841664795962897 0.8726105534519328 -9.988499810341458e-17 -9.691265323265699e-17 -9.988499810341458e-17 -9.691265323265699e-17 0.48841604145806666 0.8726108929220637
12623450666.666666 0.4988795241857538 0.8666713450599403 -1.0103243330387778e-16 -9.567626414525345e-17 -1.0103243330387778e-16 -9.567626414525345e-17 0.4988789218416442 0.8666716917852619
12624068000.0 0.509270189606244 0.8606066894802938 -1.0216457933247913e-16 -9.442630491563054e-17 -1.0216457933247913e-16 -9.442630491563054e-17 0.5092695915063634 0.8606070434099122
12624685333.333334 0.5195871402141998 0.8544174645475358 -1.0328127589195662e-16 -9.316296443079966e-17 -1.0328127589195662e-16 -9.316296443079966e-17 0.5195865464447019 0.85441782562952
12625302666.666666 0.5298288826724751 0.848104566127223 -1.0438236501645985e-16 -9.188643346896069e-17 -1.0438236501645985e-16 -9.188643346896069e-17 0.5298282933188784 0.8481049343086114
12625920000.0 0.5399939345302702 0.841668907985989 -1.054676910938826e-16 -9.05969046706945e-17 -1.054676910938826e-16 -9.05969046706945e-17 0.5399933496774443 0.8416692832127962
12626537333.333334 0.5500808244372228 0.835111421659573 -1.0653710088775181e-16 -8.929457250999367e-17 -1.0653710088775181e-16 -8.929457250999367e-17 0.5500802441693796 0.8351118038768011
12627154666.666666 0.560088092356605 0.8284330563178588 -1.0759044355881183e-16 -8.79796332649762e-17 -1.0759044355881183e-16 -8.79796332649762e-17 0.5600875167572829 0.8284334454695021
12627772000.0 0.5700142897768624 0.821634778627335 -1.0862757068625909e-16 -8.665228498832944e-17 -1.0862757068625909e-16 -8.665228498832944e-17 0.5700137189289164 0.8216351746563897
12628389333.333334 0.5798579799208127 0.8147175726114944 -1.0964833628853769e-16 -8.531272747760105e-17 -1.0964833628853769e-16 -8.531272747760105e-17 0.5798574139064024 0.8147179754599679
12629006666.666666 0.5896177379540358 0.8076824395081134 -1.1065259684387644e-16 -8.396116224510885e-17 -1.1065259684387644e-16 -8.396116224510885e-17 0.5896171768546135 0.8076828491170317
12629624000.0 0.5992921511909239 0.8005303976244531 -1.1164021131035416e-16 -8.259779248774167e-17 -1.1164021131035416e-16 -8.259779248774167e-17 0.5992915950872221 0.8005308139338692
12630241333.333334 0.6088798192991639 0.7932624821898657 -1.1261104114567345e-16 -8.122282305642133e-17 -1.1261104114567345e-16 -8.122282305642133e-17 0.6088792682711843 0.7932629051388684
12630858666.666666 0.6183793545023626 0.7858797452060023 -1.1356495032649534e-16 -7.983646042541922e-17 -1.1356495032649534e-16 -7.983646042541922e-17 0.6183788086293638 0.7858801747327251
12631476000.0 0.6277893817812359 0.7783832552942948 -1.1450180536746064e-16 -7.843891266135615e-17 -1.1450180536746064e-16 -7.843891266135615e-17 0.6277888411417235 0.7783836913359259
12632093333.333334 0.6371085390722113 0.7707740975416101 -1.154214753397647e-16 -7.703038939207883e-17 -1.154214753397647e-16 -7.703038939207883e-17 0.637108003743925 0.7707745400344002
12632710666.666666 0.6463354774648059 0.7630533733430128 -1.163238318894045e-16 -7.561110177523694e-17 -1.163238318894045e-16 -7.561110177523694e-17 0.64633494752471 0.7630538222222861
12633328000.0 0.6554688613969418 0.7552222002422909 -1.1720874925501358e-16 -7.41812624666871e-17 -1.1720874925501358e-16 -7.41812624666871e-17 0.6554683369212125 0.7552226554424528
12633945333.333334 0.6645073688481499 0.747281711770279 -1.1807610428531287e-16 -7.274108558868674e-17 -1.1807610428531287e-16 -7.274108558868674e-17 0.6645068499121657 0.7472821732248275
12634562666.666666 0.6734496915309095 0.7392330572808098 -1.189257764561681e-16 -7.129078669788743e-17 -1.189257764561681e-16 -7.129078669788743e-17 0.6734491782092389 0.7392335249223423
12635180000.0 0.6822945350800589 0.7310774017843096 -1.1975764788726494e-16 -6.983058275311812e-17 -1.1975764788726494e-16 -6.983058275311812e-17 0.6822940274464507 0.7310778755445356
12635797333.333334 0.691040619240234 0.722815925779091 -1.2057160335839134e-16 -6.836069208296685e-17 -1.2057160335839134e-16 -6.836069208296685e-17 0.6910401173676075 0.7228164055888421
12636414666.666666 0.6996866780509712 0.7144498250806752 -1.2136753032529677e-16 -6.688133435322259e-17 -1.2136753032529677e-16 -6.688133435322259e-17 0.6996861820114039 0.7144503108699127
12637032000.0 0.7082314600301373 0.7059803106485258 -1.2214531893519087e-16 -6.539273053406485e-17 -1.2214531893519087e-16 -6.539273053406485e-17 0.708230969894856 0.7059808023463536
12637649333.333334 0.7166737283550564 0.697408608410789 -1.2290486204181016e-16 -6.389510286712954e-17 -1.2290486204181016e-16 -6.389510286712954e-17 0.7166732441944252 0.6974091059454615
12638266666.666666 0.7250122610414281 0.6887359590869393 -1.2364605522010197e-16 -6.238867483236287e-17 -1.2364605522010197e-16 -6.238867483236287e-17 0.7250117829249411 0.6887364623858743
12638884000.0 0.7332458511202735 0.6799636180081373 -1.243687967804818e-16 -6.08736711147485e-17 -1.243687967804818e-16 -6.08736711147485e-17 0.7332453791165416 0.6799641269979241
12639501333.333334 0.7413733068127105 0.6710928549354379 -1.2507298778271136e-16 -5.935031757081444e-17 -1.2507298778271136e-16 -5.935031757081444e-17 0.7413728409894544 0.6710933695418504
12640118666.666666 0.7493934517022118 0.662124953876271 -1.2575853204932878e-16 -5.781884119506261e-17 -1.2575853204932878e-16 -5.781884119506261e-17 0.7493929921262511 0.6621254740242776
12640736000.0 0.7573051249053617 0.6530612128980596 -1.2642533617873154e-16 -5.627947008610503e-17 -1.2642533617873154e-16 -5.627947008610503e-17 0.7573046716426042 0.6530617385118329
12641353333.333334 0.7651071812392078 0.6439029439410914 -1.2707330955774898e-16 -5.473243341287e-17 -1.2707330955774898e-16 -5.473243341287e-17 0.7651067343546418 0.6439034749440211
12641970666.666666 0.7727984913876814 0.6346514726278781 -1.2770236437391384e-16 -5.317796138040933e-17 -1.2770236437391384e-16 -5.317796138040933e-17 0.7727980509453656 0.6346520089425808
12642588000.0 0.7803779420646673 0.6253081380717228 -1.2831241562722665e-16 -5.1616285195771597e-17 -1.2831241562722665e-16 -5.1616285195771597e-17 0.7803775081277223 0.6253086796200551
12643205333.333334 0.787844436175243 0.6158742926827863 -1.289033811415541e-16 -5.004763703362657e-17 -1.289033811415541e-16 -5.004763703362657e-17 0.7878440088058415 0.6158748393858539
12643822666.666666 0.7951968929746029 0.6063513019721727 -1.2947518157558576e-16 -4.8472250001811456e-17 -1.2947518157558576e-16 -4.8472250001811456e-17 0.7951964722339591 0.6063518537503418
12644440000.0 0.802434248224291 0.5967405443545188 -1.3002774043338093e-16 -4.689035810672805e-17 -1.3002774043338093e-16 -4.689035810672805e-17 0.8024338341726562 0.5967411011274315
12645057333.333334 0.8095554543463427 0.58704341094837 -1.3056098407448165e-16 -4.530219621865485e-17 -1.3056098407448165e-16 -4.530219621865485e-17 0.8095550470429936 0.5870439726349517
12645674666.666666 0.816559480574881 0.577261305374864 -1.310748417236164e-16 -4.3708000036909016e-17 -1.310748417236164e-16 -4.3708000036909016e-17 0.8165590800781108 0.5772618718933369
12646292000.0 0.8234453131054943 0.5673956435543065 -1.3156924547997938e-16 -4.2108006054891966e-17 -1.3156924547997938e-16 -4.2108006054891966e-17 0.8234449194726066 0.5673962148222019
12646909333.333334 0.8302119552416702 0.5574478535016645 -1.3204413032606263e-16 -4.0502451525107686e-17 -1.3204413032606263e-16 -4.0502451525107686e-17 0.8302115685289693 0.5574484294358343
12647526666.666666 0.8368584275392789 0.5474193751195656 -1.3249943413609137e-16 -3.889157442398149e-17 -1.3249943413609137e-16 -3.889157442398149e-17 0.8368580478020612 0.547419955636194
12648144000.0 0.8433837679483682 0.537311659989827 -1.3293509768401346e-16 -3.727561341664638e-17 -1.3293509768401346e-16 -3.727561341664638e-17 0.8433833952409155 0.5373122450044433
12648761333.333334 0.8497870319522608 0.5271261711635825 -1.3335106465105733e-16 -3.5654807821653555e-17 -1.3335106465105733e-16 -3.5654807821653555e-17 0.8497866663278324 0.5271267605910734
12649378666.666666 0.8560672927043196 0.5168643829494425 -1.337472816328699e-16 -3.402939757556685e-17 -1.337472816328699e-16 -3.402939757556685e-17 0.8560669342151448 0.5168649767040645
12649996000.0 0.862223641162224 0.5065277806999 -1.3412369814622334e-16 -3.239962319748002e-17 -1.3412369814622334e-16 -3.239962319748002e-17 0.8622232898594941 0.5065283786952917
12650613333.333334 0.8682551862194164 0.4961178605965497 -1.3448026663528804e-16 -3.076572575347004e-17 -1.3448026663528804e-16 -3.076572575347004e-17 0.868254842153276 0.4961184627457431
12651230666.666666 0.8741610548340706 0.48563612943354606 -1.3481694247746392e-16 -2.9127946821025815e-17 -1.3481694247746392e-16 -2.9127946821025815e-17 0.8741607180536144 0.4856367356489822
12651848000.0 0.8799403921556493 0.47508410439918247 -1.3513368398879857e-16 -2.748652845332797e-17 -1.3513368398879857e-16 -2.748652845332797e-17 0.8799400627089112 0.4750847145927213
12652465333.333334 0.8855923616484243 0.46446331285665193 -1.3543045242895586e-16 -2.5841713143545335e-17 -1.3543045242895586e-16 -2.5841713143545335e-17 0.8855920395823732 0.464463926939587
12653082666.666666 0.8911161452126136 0.45377529212289924 -1.357072120057511e-16 -2.419374378908489e-17 -1.357072120057511e-16 -2.419374378908489e-17 0.8911158305731443 0.45377591000596895
12653700000.0 0.8965109433029606 0.44302158924576757 -1.3596392987926763e-16 -2.2542863655699695e-17 -1.3596392987926763e-16 -2.2542863655699695e-17 0.8965106361348895 0.4430222108391698
12654317333.333334 0.901775975044209 0.43220376078057815 -1.3620057616551339e-16 -2.0889316341707498e-17 -1.3620057616551339e-16 -2.0889316341707498e-17 0.9017756753912662 0.43220438599398203
12654934666.666666 0.9069104783443014 0.4213233725644959 -1.3641712393966396e-16 -1.9233345742043075e-17 -1.3641712393966396e-16 -1.9233345742043075e-17 0.906910186249125 0.42132400130705544
12655552000.0 0.9119137100047154 0.4103819994897998 -1.3661354923886215e-16 -1.7575196012319466e-17 -1.3661354923886215e-16 -1.7575196012319466e-17 0.9119134255088461 0.41038263167016753
12656169333.333334 0.9167849458278658 0.39938122527631303 -1.3678983106457352e-16 -1.5915111532935053e-17 -1.3678983106457352e-16 -1.5915111532935053e-17 0.9167846689717393 0.39938186080265203
12656786666.666666 0.9215234807220897 0.3883226422418017 -1.3694595138451987e-16 -1.4253336873048932e-17 -1.3694595138451987e-16 -1.4253336873048932e-17 0.9215232115450341 0.38832328102180097
12657404000.0 0.9261286288036327 0.37720785107167865 -1.3708189513416708e-16 -1.259011675462433e-17 -1.3708189513416708e-16 -1.259011675462433e-17 0.9261283673438585 0.3772084930125641
12658021333.333334 0.9305997234959837 0.36603846058714895 -1.371976502177811e-16 -1.0925696016412827e-17 -1.371976502177811e-16 -1.0925696016412827e-17 0.9305994697905817 0.36603910559569847
12658638666.666666 0.9349361176262465 0.3548160875126314 -1.3729320750904207e-16 -9.260319578005829e-18 -1.3729320750904207e-16 -9.260319578005829e-18 0.9349358717111823 0.3548167354951883
12659256000.0 0.939137183518956 0.3435423562414025 -1.373685608512318e-16 -7.594232403771116e-18 -1.373685608512318e-16 -7.594232403771116e-18 0.9391369454290618 0.3435430071038879
12659873333.333334 0.943202313086858 0.33221889860062614 -1.3742370705697433e-16 -5.9276794669295e-18 -1.3742370705697433e-16 -5.9276794669295e-18 0.9432020828558326 0.33221955224855443
12660490666.666666 0.9471309179188787 0.3208473536153173 -1.3745864590754845e-16 -4.260905713570162e-18 -1.3745864590754845e-16 -4.260905713570162e-18 0.9471306955792802 0.32084800995380897
12661108000.0 0.9509224293654207 0.30942936727075243 -1.3747338015176264e-16 -2.5941560266448074e-18 -1.3747338015176264e-16 -2.5941560266448074e-18 0.9509222149486594 0.30943002620454685
12661725333.333334 0.9545762986205588 0.2979665922745107 -1.3746791550439221e-16 -9.27675190114104e-19 -1.3746791550439221e-16 -9.27675190114104e-19 0.9545760921568974 0.2979672537079818
12662342666.666666 0.9580919968015353 0.2864606878171214 -1.3744226064418506e-16 7.382921470101933e-19 -1.3744226064418506e-16 7.382921470101933e-19 0.9580917983200816 0.28646135165429026
12662960000.0 0.9614690150252889 0.27491331933195384 -1.3739642721143116e-16 2.4035015065267855e-18 -1.3739642721143116e-16 2.4035015065267855e-18 0.9614688245539926 0.27491398547650286
12663577333.333334 0.9647068644821476 0.2633261582540446 -1.3733042980509865e-16 4.067708616855593e-18 -1.3733042980509865e-16 4.067708616855593e-18 0.9647066820477971 0.2633268266093321
12664194666.666666 0.9678050765065366 0.25170088177832833 -1.3724428597953724e-16 5.730669448835493e-18 -1.3724428597953724e-16 5.730669448835493e-18 0.9678049021347535 0.2517015522474017
12664812000.0 0.9707632026448358 0.24003917261678762 -1.371380162407471e-16 7.392140251472448e-18 -1.371380162407471e-16 7.392140251472448e-18 0.9707630363600728 0.24003984510239793
12665429333.333334 0.9735808147203225 0.22834271875477768 -1.3701164404221834e-16 9.051877587601677e-18 -1.3701164404221834e-16 9.051877587601677e-18 0.9735806565458588 0.22834339315939345
12666046666.666666 0.976257504895071 0.2166132132070005 -1.3686519578033975e-16 1.070963836950164e-17 -1.3686519578033975e-16 1.070963836950164e-17 0.9762573548530099 0.21661388943282195
12666664000.0 0.9787928857290848 0.20485235377203279 -1.3669870078937073e-16 1.2365179894504973e-17 -1.3669870078937073e-16 1.2365179894504973e-17 0.978792743840351 0.2048530317210064
12667281333.333334 0.9811865902362759 0.19306184278702027 -1.3651219133599557e-16 1.4018259880406838e-17 -1.3651219133599557e-16 1.4018259880406838e-17 0.9811864565206125 0.1930625223608527
12667898666.666666 0.9834382719376734 0.1812433868808829 -1.3630570261343896e-16 1.5668636500926075e-17 -1.3630570261343896e-16 1.5668636500926075e-17 0.9834381464136366 0.18124406798105472
12668516000.0 0.9855476049115292 0.1693986967274522 -1.3607927273515502e-16 1.7316068421046493e-17 -1.3607927273515502e-16 1.7316068421046493e-17 0.9855474875964892 0.1693993792552331
12669133333.333334 0.9875142838404724 0.15752948679802778 -1.3583294272810095e-16 1.8960314832202832e-17 -1.3583294272810095e-16 1.8960314832202832e-17 0.9875141747506098 0.1575301706544903
12669750666.666666 0.989338024055765 0.14563747511284988 -1.3556675652557112e-16 2.0601135487483977e-17 -1.3556675652557112e-16 2.0601135487483977e-17 0.9893379232060678 0.14563816019888395
12670368000.0 0.9910185615784564 0.133724382992703 -1.3528076095961339e-16 2.2238290736685693e-17 -1.3528076095961339e-16 2.2238290736685693e-17 0.9910184689827185 0.13372506920903018
