! Parameters = {f0=12700.012000; bw=77.238000; Q=6100.000000; N=10; m_0_1=1.190285; m_1_1=-0.910466; m_1_2=1.025097; m_2_2=-0.911115; m_2_3=0.662060; m_2_8=-0.003422; m_2_9=0.033282; m_3_3=-0.913052; m_3_4=0.550589; m_3_7=-0.002822; m_3_8=-0.099910; m_3_9=-0.003422; m_4_4=-0.915977; m_4_5=0.386924; m_4_6=0.000695; m_4_7=-0.120459; m_4_8=-0.002822; m_5_5=-0.915595; m_5_6=0.794279; m_5_7=0.000695; m_6_6=-0.915596; m_6_7=0.387266; m_7_7=-0.915963; m_7_8=0.550707; m_8_8=-0.913054; m_8_9=0.662373; m_9_9=-0.911120; m_9_10=1.026175; m_10_10=-0.910476; m_10_11=1.191080}
!
! Created with skrf (http://scikit-rf.org).
# Hz S RI R 50.0 
!freq ReS11 ImS11 ReS21 ImS21 ReS12 ImS12 ReS22 ImS22
12607400000.0 0.22791944842029394 -0.9736799910810703 4.339048736415077e-18 7.463863299582986e-17 4.339048736415077e-18 7.463863299582986e-17 0.22792005916139613 -0.9736798481183175
12608017333.333334 0.21996050541417575 -0.975508778052656 4.954069610245444e-18 7.458565916462454e-17 4.954069610245444e-18 7.458565916462454e-17 0.21996111727242185 -0.9755086400889087
12608634666.666666 0.2119868934123252 -0.9772725090890647 5.568511910072477e-18 7.452762224794524e-17 5.568511910072477e-18 7.452762224794524e-17 0.21198750634680386 -0.977272376133035
12609252000.0 0.2039991441687877 -0.9789710665684898 6.182333993298292e-18 7.446452818387527e-17 6.182333993298292e-18 7.446452818387527e-17 0.20399975813851914 -0.9789709386285529
12609869333.333334 0.19599779038046442 -0.9806043372154849 6.795494275888485e-18 7.439638325267826e-17 6.795494275888485e-18 7.439638325267826e-17 0.19599840534440405 -0.980604214299681
12610486666.666666 0.18798336565161636 -0.9821722121085161 7.407951235179122e-18 7.432319407623669e-17 7.407951235179122e-18 7.432319407623669e-17 0.18798398156865742 -0.9821720942245501
12611104000.0 0.17995640445802746 -0.9836745866872759 8.019663412691043e-18 7.424496761746574e-17 8.019663412691043e-18 7.424496761746574e-17 0.17995702128700378 -0.9836744738425175
12611721333.333334 0.17191744211164017 -0.9851113607596025 8.63058941690715e-18 7.416171117970816e-17 8.63058941690715e-18 7.416171117970816e-17 0.17191805981132838 -0.9851112529610819
12612338666.666666 0.16386701472474344 -0.9864824385081798 9.240687926084034e-18 7.407343240610116e-17 9.240687926084034e-18 7.407343240610116e-17 0.16386763325386647 -0.9864823357625925
12612956000.0 0.15580565917410855 -0.9877877284969508 9.849917691036686e-18 7.39801392789231e-17 9.849917691036686e-18 7.39801392789231e-17 0.15580627849133796 -0.9877876308106535
12613573333.333334 0.14773391306546496 -0.9890271436771647 1.0458237537908812e-17 7.388184011891856e-17 1.0458237537908812e-17 7.388184011891856e-17 0.1477345331294238 -0.9890270510561758
12614190666.666666 0.1396523146973958 -0.9902006013932257 1.1065606370955774e-17 7.377854358459765e-17 1.1065606370955774e-17 7.377854358459765e-17 0.13965293546666133 -0.9902005138432258
12614808000.0 0.1315614030254666 -0.9913080233881991 1.167198317530863e-17 7.367025867151507e-17 1.167198317530863e-17 7.367025867151507e-17 0.13156202445857326 -0.9913079409145303
12615425333.333334 0.12346171762642352 -0.9923493358090069 1.2277327019744069e-17 7.355699471152401e-17 1.2277327019744069e-17 7.355699471152401e-17 0.12346233968186575 -0.9923492584166747
12616042666.666666 0.11535379866209787 -0.9933244692113802 1.2881597059426662e-17 7.343876137201096e-17 1.2881597059426662e-17 7.343876137201096e-17 0.11535442129833196 -0.9933243969050448
12616660000.0 0.10723818684340926 -0.9942333585644685 1.3484752538665091e-17 7.331556865510463e-17 1.3484752538665091e-17 7.331556865510463e-17 0.10723881001885746 -0.9942332913484558
12617277333.333334 0.0991154233943078 -0.9950759432551929 1.4086752793650767e-17 7.3187426896864e-17 1.4086752793650767e-17 7.3187426896864e-17 0.09911604706736027 -0.9950758811334869
12617894666.666666 0.09098605001570767 -0.9958521670922761 1.468755725518914e-17 7.305434676644429e-17 1.468755725518914e-17 7.305434676644429e-17 0.0909866741447255 -0.9958521100685211
12618512000.0 0.08285060884922045 -0.9965619783100086 1.5287125451435903e-17 7.291633926523748e-17 1.5287125451435903e-17 7.291633926523748e-17 0.08285123339253823 -0.9965619263875071
12619129333.333334 0.07470964244128261 -0.9972053295716687 1.5885417010594497e-17 7.277341572599776e-17 1.5885417010594497e-17 7.277341572599776e-17 0.07471026735721165 -0.9972052827533853
12619746666.666666 0.0665636937067194 -0.9977821779727092 1.6482391663644993e-17 7.262558781193577e-17 1.6482391663644993e-17 7.262558781193577e-17 0.06656431895355006 -0.9977821362612661
12620364000.0 0.05841330589256601 -0.9982924850436106 1.7078009247044252e-17 7.247286751579537e-17 1.7078009247044252e-17 7.247286751579537e-17 0.05841393142857066 -0.9982924484412887
12620981333.333334 0.05025902254198072 -0.9987362167524368 1.7672229705409662e-17 7.231526715891056e-17 1.7672229705409662e-17 7.231526715891056e-17 0.05025964832541665 -0.9987361852611781
12621598666.666666 0.042101387457883145 -0.9991133435071151 1.8265013094212907e-17 7.215279939023552e-17 1.8265013094212907e-17 7.215279939023552e-17 0.042102013446995185 -0.9991133171285199
12622216000.0 0.033940944666716676 -0.9994238401574062 1.8856319582452903e-17 7.198547718535616e-17 1.8856319582452903e-17 7.198547718535616e-17 0.03394157081973999 -0.9994238188927327
12622833333.333334 0.025778238382167744 -0.9996676859965803 1.9446109455334142e-17 7.181331384547585e-17 1.9446109455334142e-17 7.181331384547585e-17 0.02577886465733069 -0.9996676698467469
12623450666.666666 0.017613812968872725 -0.9998448647628007 2.0034343116905597e-17 7.163632299638758e-17 2.0034343116905597e-17 7.163632299638758e-17 0.017614439324399565 -0.9998448537283836
12624068000.0 0.00944821290614302 -0.9999553646402052 2.0620981092729173e-17 7.145451858741414e-17 2.0620981092729173e-17 7.145451858741414e-17 0.009448839300256773 -0.9999553587214398
12624685333.333334 0.0012819827515120814 -0.9999991782596975 2.1205984032518465e-17 7.126791489033193e-17 2.1205984032518465e-17 7.126791489033193e-17 0.0012826091424372726 -0.9999991774564784
12625302666.666666 -0.006884332895268095 -0.9999763026994349 2.1789312712757915e-17 7.107652649827645e-17 2.1789312712757915e-17 7.107652649827645e-17 -0.006883706549302646 -0.9999763070113153
12625920000.0 -0.015050189428943806 -0.9998867394850265 2.2370928039342632e-17 7.08803683246171e-17 2.2370928039342632e-17 7.08803683246171e-17 -0.015049563169702197 -0.9998867489112189
12626537333.333334 -0.023215042274794748 -0.9997304945894295 2.2950791050170126e-17 7.067945560182278e-17 2.2950791050170126e-17 7.067945560182278e-17 -0.02321441614403118 -0.9997305091288038
12627154666.666666 -0.03137834692495123 -0.9995075784325511 2.352886291775019e-17 7.04738038802971e-17 2.352886291775019e-17 7.04738038802971e-17 -0.03137772096440731 -0.9995075980836389
12627772000.0 -0.03953955897499128 -0.9992180058805531 2.4105104951816473e-17 7.026342902718803e-17 2.4105104951816473e-17 7.026342902718803e-17 -0.03953893322639311 -0.9992180306415432
12628389333.333334 -0.047698134159791857 -0.9988617962448664 2.4679478601867868e-17 7.004834722519733e-17 2.4679478601867868e-17 7.004834722519733e-17 -0.04769750866484739 -0.9988618261136083
12629006666.666666 -0.05585352839036516 -0.9984389732808876 2.5251945459777054e-17 6.98285749713415e-17 2.5251945459777054e-17 6.98285749713415e-17 -0.05585290319076135 -0.9984390082548904
12629624000.0 -0.0640051977896608 -0.9979495651864134 2.5822467262324778e-17 6.960412907571478e-17 2.5822467262324778e-17 6.960412907571478e-17 -0.06400457292706083 -0.9979496052628459
12630241333.333334 -0.07215259872912046 -0.9973936045997488 2.639100589376886e-17 6.937502666021466e-17 2.639100589376886e-17 6.937502666021466e-17 -0.0721519742451609 -0.9973936497754391
12630858666.666666 -0.08029518786473341 -0.9967711285975397 2.69575233883586e-17 6.914128515726265e-17 2.69575233883586e-17 6.914128515726265e-17 -0.08029456380102158 -0.9967711788689765
12631476000.0 -0.08843242217355533 -0.9960821786922828 2.752198193289127e-17 6.89029223084843e-17 2.752198193289127e-17 6.89029223084843e-17 -0.08843179857166643 -0.9960822340556155
12632093333.333334 -0.09656375898966667 -0.995326800829572 2.8084343869198225e-17 6.865995616339165e-17 2.8084343869198225e-17 6.865995616339165e-17 -0.09656313589114116 -0.995326861280612
12632710666.666666 -0.10468865604036351 -0.9945050453850444 2.864457169666865e-17 6.841240507802587e-17 2.864457169666865e-17 6.841240507802587e-17 -0.1046880334867039 -0.9945051109192611
12633328000.0 -0.11280657148257481 -0.993616967160984 2.920262807473962e-17 6.816028771358772e-17 2.920262807473962e-17 6.816028771358772e-17 -0.11280594951524367 -0.9936170377735124
12633945333.333334 -0.12091696393868767 -0.9926626253827109 2.975847582536712e-17 6.79036230350517e-17 2.975847582536712e-17 6.79036230350517e-17 -0.12091634259910404 -0.9926627010683445
12634562666.666666 -0.1290192925329045 -0.9916420836945932 3.031207793550015e-17 6.764243030975323e-17 3.031207793550015e-17 6.764243030975323e-17 -0.12901867186244176 -0.9916421644477897
12635180000.0 -0.13711301692711703 -0.9905554101558333 3.0863397559542786e-17 6.737672910595568e-17 3.0863397559542786e-17 6.737672910595568e-17 -0.13711239696709962 -0.9905554959707112
12635797333.333334 -0.14519759735708113 -0.9894026772359057 3.141239802178832e-17 6.710653929140414e-17 3.141239802178832e-17 6.710653929140414e-17 -0.14519697814878244 -0.9894027681062488
12636414666.666666 -0.15327249466827325 -0.9881839618097483 3.195904281885074e-17 6.683188103185568e-17 3.195904281885074e-17 6.683188103185568e-17 -0.1532718762529123 -0.9881840577290029
12637032000.0 -0.16133717035198678 -0.9868993451526149 3.2503295622091e-17 6.65527747895858e-17 3.2503295622091e-17 6.65527747895858e-17 -0.1613365527707257 -0.9868994461138907
12637649333.333334 -0.16939108658124416 -0.9855489129346506 3.3045120280022694e-17 6.626924132187878e-17 3.3045120280022694e-17 6.626924132187878e-17 -0.1693904698751855 -0.9855490189307223
12638266666.666666 -0.17743370624652446 -0.9841327552152042 3.35844808206955e-17 6.598130167950349e-17 3.35844808206955e-17 6.598130167950349e-17 -0.17743309045670824 -0.984132866238511
12638884000.0 -0.1854644929916943 -0.9826509664368017 3.412134145408238e-17 6.568897720516135e-17 3.412134145408238e-17 6.568897720516135e-17 -0.1854638781590956 -0.9826510824794494
12639501333.333334 -0.19348291124974965 -0.9811036454188555 3.465566657444402e-17 6.539228953191957e-17 3.465566657444402e-17 6.539228953191957e-17 -0.1934822974152757 -0.9811037664726152
12640118666.666666 -0.2014884262784766 -0.9794908953510844 3.518742076267805e-17 6.50912605816266e-17 3.518742076267805e-17 6.50912605816266e-17 -0.20148781348296407 -0.9794910214073936
12640736000.0 -0.20948050419639094 -0.9778128237865725 3.571656878867653e-17 6.478591256329583e-17 3.571656878867653e-17 6.478591256329583e-17 -0.20947989248060325 -0.9778129548365375
12641353333.333334 -0.2174586120177862 -0.9760695426347169 3.6243075613614857e-17 6.447626797150158e-17 3.6243075613614857e-17 6.447626797150158e-17 -0.21745800142241037 -0.9760696786691084
12641970666.666666 -0.22542221768883328 -0.9742611681536401 3.676690639229805e-17 6.416234958471605e-17 3.676690639229805e-17 6.416234958471605e-17 -0.22542160825447835 -0.9742613091629011
12642588000.0 -0.23337079012275883 -0.9723878209425112 3.728802647544716e-17 6.384418046365304e-17 3.728802647544716e-17 6.384418046365304e-17 -0.2333701818899522 -0.9723879669167529
12643205333.333334 -0.2413037992354004 -0.9704496259334675 3.780640141197341e-17 6.352178394959269e-17 3.780640141197341e-17 6.352178394959269e-17 -0.24130319224458524 -0.9704497768624699
12643822666.666666 -0.24922071598050213 -0.9684467123832946 3.8321996951261535e-17 6.319518366267353e-17 3.8321996951261535e-17 6.319518366267353e-17 -0.24922011027203478 -0.968446868256509
12644440000.0 -0.2571210123849684 -0.9663792138648135 3.8834779045411347e-17 6.286440350018254e-17 3.8834779045411347e-17 6.286440350018254e-17 -0.2571204079991159 -0.9663793746713624
12645057333.333334 -0.26500416158404755 -0.964247268257983 3.934471385148639e-17 6.252946763481404e-17 3.934471385148639e-17 6.252946763481404e-17 -0.2650035585609848 -0.9642474339866609
12645674666.666666 -0.27286963785657764 -0.9620510177406738 3.985176773372805e-17 6.219040051292237e-17 3.985176773372805e-17 6.219040051292237e-17 -0.2728690362363849 -0.9620511883799489
12646292000.0 -0.2807169166600738 -0.95979060877918 4.035590726578472e-17 6.184722685273784e-17 4.035590726578472e-17 6.184722685273784e-17 -0.2807163164827335 -0.9597907843171926
12646909333.333334 -0.2885454746654618 -0.9574661921185155 4.08570992328801e-17 6.149997164259414e-17 4.08570992328801e-17 6.149997164259414e-17 -0.2885448759708567 -0.9574663725430823
12647526666.666666 -0.2963547897922277 -0.9550779227723002 4.135531063401728e-17 6.114866013910516e-17 4.135531063401728e-17 6.114866013910516e-17 -0.2963541926201373 -0.9550781080709115
12648144000.0 -0.3041443412431764 -0.9526259600124278 4.185050868413019e-17 6.079331786534778e-17 4.185050868413019e-17 6.079331786534778e-17 -0.3041437456332755 -0.9526261501722523
12648761333.333334 -0.31191360953916636 -0.9501104673584511 4.2342660816232305e-17 6.043397060901994e-17 4.2342660816232305e-17 6.043397060901994e-17 -0.311913015531021 -0.9501106623663323
12649378666.666666 -0.3196620765535884 -0.9475316125667225 4.283173468354606e-17 6.007064442058368e-17 4.283173468354606e-17 6.007064442058368e-17 -0.31966148418665424 -0.9475318124091829
12649996000.0 -0.3273892255471642 -0.9448895676191341 4.3317698161635085e-17 5.970336561137721e-17 4.3317698161635085e-17 5.970336561137721e-17 -0.32738863486078346 -0.9448897722823747
12650613333.333334 -0.33509454120227145 -0.9421845087116884 4.380051935048969e-17 5.933216075173202e-17 4.380051935048969e-17 5.933216075173202e-17 -0.3350939522356707 -0.9421847181815907
12651230666.666666 -0.3427775096573103 -0.93941661624275 4.4280166576612126e-17 5.895705666906263e-17 4.4280166576612126e-17 5.895705666906263e-17 -0.34277692244959757 -0.9394168305048763
12651848000.0 -0.35043761854108 -0.9365860748009774 4.4756608395098424e-17 5.857808044592898e-17 4.4756608395098424e-17 5.857808044592898e-17 -0.35043703313124214 -0.9365862938405719
12652465333.333334 -0.3580743570068136 -0.9336930731530589 4.52298135916823e-17 5.81952594180985e-17 4.52298135916823e-17 5.81952594180985e-17 -0.35807377343371344 -0.9336932969550477
12653082666.666666 -0.36568721576622054 -0.9307378042311362 4.5699751184761126e-17 5.780862117259368e-17 4.5699751184761126e-17 5.780862117259368e-17 -0.3656866340685952 -0.9307380327801301
12653700000.0 -0.37327568712368964 -0.9277204651198463 4.616639042743796e-17 5.74181935456967e-17 4.616639042743796e-17 5.74181935456967e-17 -0.37327510734014724 -0.9277206984001416
12654317333.333334 -0.3808392650098816 -0.924641257043281 4.662970080949784e-17 5.70240046209775e-17 4.662970080949784e-17 5.70240046209775e-17 -0.38083868717889896 -0.92464149503886
12654934666.666666 -0.38837744501558485 -0.9215003853515273 4.7089652059416136e-17 5.662608272726641e-17 4.7089652059416136e-17 5.662608272726641e-17 -0.3883768691755041 -0.9215006280460575
12655552000.0 -0.39588972442545733 -0.9182980595069239 4.754621414631692e-17 5.622445643663653e-17 4.754621414631692e-17 5.622445643663653e-17 -0.3958891506144855 -0.918298306883764
12656169333.333334 -0.4033756022512927 -0.9150344930702085 4.799935728191655e-17 5.581915456237006e-17 4.799935728191655e-17 5.581915456237006e-17 -0.40337503050749646 -0.9150347451124042
12656786666.666666 -0.41083457926566486 -0.9117099036861728 4.8449051922470434e-17 5.5410206156891126e-17 4.8449051922470434e-17 5.5410206156891126e-17 -0.41083400962696986 -0.9117101603764617
12657404000.0 -0.41826615803519457 -0.9083245130691586 4.889526877068797e-17 5.499764050969495e-17 4.889526877068797e-17 5.499764050969495e-17 -0.4182655905393823 -0.9083247743899691
12658021333.333334 -0.42566984295361876 -0.9048785469883168 4.9337978777625174e-17 5.458148714526609e-17 4.9337978777625174e-17 5.458148714526609e-17 -0.4256692776383243 -0.904878812921771
12658638666.666666 -0.4330451402748187 -0.9013722352525677 4.977715314456497e-17 5.4161775820977863e-17 4.977715314456497e-17 5.4161775820977863e-17 -0.4330445771775275 -0.9013725057804807
12659256000.0 -0.4403915581459759 -0.8978058116951607 5.021276332489285e-17 5.373853652496312e-17 5.021276332489285e-17 5.373853652496312e-17 -0.4403909973040229 -0.8978060867990452
12659873333.333334 -0.4477086066401198 -0.8941795141582083 5.0644781025935064e-17 5.331179947398925e-17 5.0644781025935064e-17 5.331179947398925e-17 -0.44770804809068504 -0.8941797938192718
12660490666.666666 -0.45499579778890087 -0.8904935844767706 5.107317821077742e-17 5.2881595111319735e-17 5.107317821077742e-17 5.2881595111319735e-17 -0.4549952415690084 -0.8904938686759196
12661108000.0 -0.46225264561523616 -0.8867482684626801 5.149792710009575e-17 5.244795410453203e-17 5.149792710009575e-17 5.244795410453203e-17 -0.46225209176175047 -0.8867485571805191
12661725333.333334 -0.46947866616546324 -0.8829438158882728 5.191900017392369e-17 5.201090734336512e-17 5.191900017392369e-17 5.201090734336512e-17 -0.46947811471508805 -0.8829441091051082
12662342666.666666 -0.47667337754184425 -0.8790804804696192 5.2336370173447664e-17 5.157048593750675e-17 5.2336370173447664e-17 5.157048593750675e-17 -0.4766728285311191 -0.8790807781654587
12662960000.0 -0.48383629993467697 -0.8751585198496141 5.2750010102745576e-17 5.1126721214405625e-17 5.2750010102745576e-17 5.1126721214405625e-17 -0.4838357533999754 -0.8751588220041688
12663577333.333334 -0.4909669556541671 -0.8711781955808608 5.3159893230529644e-17 5.0679644717044986e-17 5.3159893230529644e-17 5.0679644717044986e-17 -0.49096641163169397 -0.8711785021735469
12664194666.666666 -0.4980648691623863 -0.8671397731081776 5.356599309186132e-17 5.0229288201713916e-17 5.356599309186132e-17 5.0229288201713916e-17 -0.49806432768817477 -0.8671400841181157
12664812000.0 -0.5051295671049589 -0.8630435217509044 5.3968283489855046e-17 4.9775683635754913e-17 5.3968283489855046e-17 4.9775683635754913e-17 -0.5051290282148696 -0.8630438371569245
12665429333.333334 -0.5121605783426313 -0.8588897146849466 5.4366738497350924e-17 4.931886319531227e-17 5.4366738497350924e-17 4.931886319531227e-17 -0.5121600420723483 -0.8588900344655865
12666046666.666666 -0.5191574339826658 -0.8546786289245689 5.4761332458573927e-17 4.885885926306098e-17 5.4761332458573927e-17 4.885885926306098e-17 -0.5191569003676962 -0.8546789530580781
12666664000.0 -0.5261196674102344 -0.8504105453038501 5.515203999078771e-17 4.8395704425906715e-17 5.515203999078771e-17 4.8395704425906715e-17 -0.5261191364859035 -0.8504108737681881
12667281333.333334 -0.5330468143192911 -0.8460857484580986 5.55388359859031e-17 4.792943147270257e-17 5.55388359859031e-17 4.792943147270257e-17 -0.5330462861207423 -0.8460860812309408
12667898666.666666 -0.5399384127437592 -0.8417045268047438 5.592169561208642e-17 4.7460073391930985e-17 5.592169561208642e-17 4.7460073391930985e-17 -0.5399378873059492 -0.8417048638634769
12668516000.0 -0.5467940030883078 -0.8372671725241052 5.630059431534814e-17 4.698766336937279e-17 5.630059431534814e-17 4.698766336937279e-17 -0.5467934804460078 -0.8372675138458361
12669133333.333334 -0.5536131281588893 -0.8327739815399948 5.667550782109232e-17 4.6512234785787984e-17 5.667550782109232e-17 4.6512234785787984e-17 -0.5536126083466794 -0.8327743271015456
12669750666.666666 -0.5603953331933197 -0.8282252534999124 5.704641213567932e-17 4.6033821214543767e-17 5.704641213567932e-17 4.6033821214543767e-17 -0.5603948162455883 -0.8282256032778265
12670368000.0 -0.5671401658915856 -0.8236212917550829 5.74132835479371e-17 4.555245641926903e-17 5.74132835479371e-17 4.555245641926903e-17 -0.5671396518425263 -0.8236216457256232
