! Parameters = {f0=12700.012000; bw=77.238000; Q=6100.000000; N=10; m_0_1=1.163258; m_1_1=-1.315872; m_1_2=0.998070; m_2_2=-1.316521; m_2_3=0.635033; m_2_8=-0.004773; m_2_9=0.031931; m_3_3=-1.318458; m_3_4=0.523562; m_3_7=-0.004173; m_3_8=-0.101261; m_3_9=-0.004773; m_4_4=-1.321383; m_4_5=0.359897; m_4_6=-0.000656; m_4_7=-0.121810; m_4_8=-0.004173; m_5_5=-1.321001; m_5_6=0.767252; m_5_7=-0.000656; m_6_6=-1.321002; m_6_7=0.360239; m_7_7=-1.321369; m_7_8=0.523680; m_8_8=-1.318460; m_8_9=0.635346; m_9_9=-1.316526; m_9_10=0.999148; m_10_10=-1.315882; m_10_11=1.164053}
!
! Created with skrf (http://scikit-rf.org).
# Hz S RI R 50.0 
!freq ReS11 ImS11 ReS21 ImS21 ReS12 ImS12 ReS22 ImS22
12607400000.0 -0.7512815475228092 0.6599818454712106 3.461788332406862e-17 -5.49726777977223e-17 3.461788332406862e-17 -5.49726777977223e-17 -0.7512819521269997 0.6599813848951315
12608017333.333334 -0.7463988650916721 0.6654988611483227 3.4200344217211505e-17 -5.5218442135642383e-17 3.4200344217211505e-17 -5.5218442135642383e-17 -0.7463992730581104 0.6654984035879997
12608634666.666666 -0.7414756695872992 0.6709797548435562 3.378106676785555e-17 -5.5461039472834545e-17 3.378106676785555e-17 -5.5461039472834545e-17 -0.741476080893512 0.6709793003235268
12609252000.0 -0.736512228231155 0.6764242290647424 3.3360074965248656e-17 -5.570045756367772e-17 3.3360074965248656e-17 -5.570045756367772e-17 -0.7365126428544924 0.6764237776093789
12609869333.333334 -0.7315088104291532 0.681831988296514 3.2937392884504586e-17 -5.593668434402997e-17 3.2937392884504586e-17 -5.593668434402997e-17 -0.7315092283467861 0.681831539930019
12610486666.666666 -0.7264656877571843 0.6872027390161751 3.251304468524457e-17 -5.616970793182006e-17 3.251304468524457e-17 -5.616970793182006e-17 -0.7264661089461079 0.6872022937625818
12611104000.0 -0.721383133946048 0.6925361897099888 3.2087054610209216e-17 -5.639951662764343e-17 3.2087054610209216e-17 -5.639951662764343e-17 -0.7213835583830817 0.6925357475931585
12611721333.333334 -0.7162614248669256 0.6978320508886456 3.1659446983892184e-17 -5.662609891533367e-17 3.1659446983892184e-17 -5.662609891533367e-17 -0.7162618525287144 0.697831611932267
12612338666.666666 -0.7111008385162694 0.703090035103123 3.123024621114548e-17 -5.68494434625365e-17 3.123024621114548e-17 -5.68494434625365e-17 -0.7111012693792863 0.7030895993307111
12612956000.0 -0.705901655000575 0.7083098569604283 3.079947677579697e-17 -5.706953912126456e-17 3.079947677579697e-17 -5.706953912126456e-17 -0.7059020890411208 0.7083094243953227
12613573333.333334 -0.7006641565215146 0.7134912331387443 3.036716323926443e-17 -5.728637492844234e-17 3.036716323926443e-17 -5.728637492844234e-17 -0.7006645937157215 0.7134908038041097
12614190666.666666 -0.6953886273602847 0.7186338824031552 2.993333023914909e-17 -5.74999401064484e-17 2.993333023914909e-17 -5.74999401064484e-17 -0.695389067684114 0.7186334563219766
12614808000.0 -0.6900753538623281 0.7237375256207421 2.9498002487850193e-17 -5.771022406363478e-17 2.9498002487850193e-17 -5.771022406363478e-17 -0.6900757972915756 0.7237371028158277
12615425333.333334 -0.6847246244218412 0.7288018857757036 2.906120477115149e-17 -5.791721639484866e-17 2.906120477115149e-17 -5.791721639484866e-17 -0.6847250709321347 0.7288014662696793
12616042666.666666 -0.6793367294659909 0.7338266879845015 2.8622961946820405e-17 -5.812090688193455e-17 2.8622961946820405e-17 -5.812090688193455e-17 -0.6793371790327951 0.7338262717998147
12616660000.0 -0.6739119614392176 0.73881165951073 2.818329894320396e-17 -5.832128549422657e-17 2.818329894320396e-17 -5.832128549422657e-17 -0.6739124140378325 0.7388112466696433
12617277333.333334 -0.6684506147874 0.743756529779874 2.7742240757804594e-17 -5.851834238903766e-17 2.7742240757804594e-17 -5.851834238903766e-17 -0.6684510703929637 0.7437561203044672
12617894666.666666 -0.6629529859418323 0.7486610303940376 2.7299812455877827e-17 -5.871206791212672e-17 2.7299812455877827e-17 -5.871206791212672e-17 -0.6629534445293226 0.7486606243062058
12618512000.0 -0.6574193733030728 0.7535248951465684 2.6856039168999808e-17 -5.890245259816702e-17 2.6856039168999808e-17 -5.890245259816702e-17 -0.6574198348473084 0.7535244924680214
12619129333.333334 -0.6518500772248951 0.7583478600363759 2.6410946093658735e-17 -5.908948717119238e-17 2.6410946093658735e-17 -5.908948717119238e-17 -0.6518505417005354 0.7583474607886348
12619746666.666666 -0.6462453999978338 0.7631296632823887 2.5964558489817862e-17 -5.927316254504326e-17 2.5964558489817862e-17 -5.927316254504326e-17 -0.6462458673793828 0.7631292674867876
12620364000.0 -0.6406056458328442 0.7678700453377104 2.5516901679492405e-17 -5.945346982379514e-17 2.5516901679492405e-17 -5.945346982379514e-17 -0.6406061160946497 0.7678696530153928
12620981333.333334 -0.6349311208448526 0.7725687489036503 2.506800104532371e-17 -5.963040030217609e-17 2.506800104532371e-17 -5.963040030217609e-17 -0.6349315939611094 0.7725683600755705
12621598666.666666 -0.6292221330359911 0.7772255189438195 2.461788202913354e-17 -5.980394546598081e-17 2.461788202913354e-17 -5.980394546598081e-17 -0.6292226089807416 0.7772251336307391
12622216000.0 -0.6234789922790538 0.7818401026978268 2.416657013050107e-17 -5.997409699246303e-17 2.416657013050107e-17 -5.997409699246303e-17 -0.6234794710261888 0.7818397209203147
12622833333.333334 -0.6177020103005006 0.7864122496951409 2.3714090905310156e-17 -6.014084675072872e-17 2.3714090905310156e-17 -6.014084675072872e-17 -0.617702491823762 0.7864118714735727
12623450666.666666 -0.6118915006636936 0.7909417117685632 2.326046996431951e-17 -6.030418680210771e-17 2.326046996431951e-17 -6.030418680210771e-17 -0.6118919849366747 0.7909413371231192
12624068000.0 -0.6060477787518332 0.7954282430677331 2.280573297171505e-17 -6.046410940052099e-17 2.280573297171505e-17 -6.046410940052099e-17 -0.6060482657479813 0.7954278720183974
12624685333.333334 -0.6001711617506585 0.799871600072609 2.234990564365127e-17 -6.06206069928402e-17 2.234990564365127e-17 -6.06206069928402e-17 -0.6001716514432754 0.7998712326391689
12625302666.666666 -0.594261968631639 0.8042715416063786 2.189301374682462e-17 -6.077367221922334e-17 2.189301374682462e-17 -6.077367221922334e-17 -0.5942624609938819 0.8042711778084222
12625920000.0 -0.588320520134161 0.8086278288489225 2.1435083097001595e-17 -6.092329791345546e-17 2.1435083097001595e-17 -6.092329791345546e-17 -0.5883210151390461 0.8086274687058398
12626537333.333334 -0.5823471387485062 0.8129402253494904 2.0976139557579357e-17 -6.106947710326644e-17 2.0976139557579357e-17 -6.106947710326644e-17 -0.5823476363689085 0.8129398688804714
12627154666.666666 -0.5763421486982806 0.8172084970395874 2.051620903812496e-17 -6.12122030106439e-17 2.051620903812496e-17 -6.12122030106439e-17 -0.5763426489069358 0.81720814426362
12627772000.0 -0.5703058759225383 0.8214324122458763 2.005531749291278e-17 -6.135146905213566e-17 2.005531749291278e-17 -6.135146905213566e-17 -0.5703063786920439 0.8214320631817458
12628389333.333334 -0.5642386480584833 0.8256117417024708 1.9593490919479133e-17 -6.148726883913475e-17 1.9593490919479133e-17 -6.148726883913475e-17 -0.5642391533613011 0.8256113963687606
12629006666.666666 -0.5581407944234085 0.8297462585635798 1.9130755357140112e-17 -6.161959617816484e-17 1.9130755357140112e-17 -6.161959617816484e-17 -0.5581413022318653 0.8297459169786677
12629624000.0 -0.5520126459969124 0.8338357384157504 1.8667136885553203e-17 -6.174844507114018e-17 1.8667136885553203e-17 -6.174844507114018e-17 -0.5520131562832018 0.83383540059781
12630241333.333334 -0.5458545354029826 0.8378799592900199 1.8202661623231625e-17 -6.18738097156289e-17 1.8202661623231625e-17 -6.18738097156289e-17 -0.5458550481391662 0.8378796252570181
12630858666.666666 -0.5396667968918949 0.8418787016739966 1.7737355726094095e-17 -6.199568450509446e-17 1.7737355726094095e-17 -6.199568450509446e-17 -0.539667312049904 0.8418783714436925
12631476000.0 -0.5334497663219983 0.8458317485238174 1.7271245385982888e-17 -6.211406402913385e-17 1.7271245385982888e-17 -6.211406402913385e-17 -0.5334502838736357 0.8458314221137626
12632093333.333334 -0.5272037811416274 0.8497388852758376 1.6804356829207254e-17 -6.222894307369866e-17 1.6804356829207254e-17 -6.222894307369866e-17 -0.5272043010585693 0.8497385627033754
12632710666.666666 -0.5209291803707432 0.8535998998583105 1.6336716315067627e-17 -6.23403166213091e-17 1.6336716315067627e-17 -6.23403166213091e-17 -0.5209297026245392 0.8535995811405729
12633328000.0 -0.5146263045823571 0.8574145827029992 1.586835013438035e-17 -6.244817985125669e-17 1.586835013438035e-17 -6.244817985125669e-17 -0.5146268291444337 0.8574142678569083
12633945333.333334 -0.508295495884364 0.8611827267563603 1.5399284608010234e-17 -6.255252813979418e-17 1.5399284608010234e-17 -6.255252813979418e-17 -0.5082960227260243 0.8611824157986259
12634562666.666666 -0.5019370979006796 0.8649041274909587 1.492954608539294e-17 -6.265335706031574e-17 1.492954608539294e-17 -6.265335706031574e-17 -0.5019376269931062 0.8649038204380773
12635180000.0 -0.49555145575280873 0.8685785829164359 1.4459160943067215e-17 -6.275066238352453e-17 1.4459160943067215e-17 -6.275066238352453e-17 -0.49555198706706544 0.8685782797846927
12635797333.333334 -0.48913891604091986 0.8722058935905943 1.3988155583186446e-17 -6.284444007759303e-17 1.3988155583186446e-17 -6.284444007759303e-17 -0.4891394495479516 0.8722055943960575
12636414666.666666 -0.4826998268251997 0.8757858626301156 1.351655643205453e-17 -6.293468630830755e-17 1.351655643205453e-17 -6.293468630830755e-17 -0.4827003624958361 0.8757855673886396
12637032000.0 -0.4762345376068906 0.8793182957212946 1.3044389938642876e-17 -6.30213974392045e-17 1.3044389938642876e-17 -6.30213974392045e-17 -0.47623507541184723 0.8793180044485187
12637649333.333334 -0.46974339930927145 0.8828030011306156 1.2571682573108733e-17 -6.310457003169645e-17 1.2571682573108733e-17 -6.310457003169645e-17 -0.46974393921914936 0.8828027138419595
12638266666.666666 -0.46322676425865583 0.8862397897151243 1.2098460825319946e-17 -6.318420084518463e-17 1.2098460825319946e-17 -6.318420084518463e-17 -0.4632273062439454 0.8862395064257914
12638884000.0 -0.45668498616534664 0.8896284749326592 1.1624751203381029e-17 -6.326028683716069e-17 1.1624751203381029e-17 -6.326028683716069e-17 -0.45668553019642893 0.8896281956576347
12639501333.333334 -0.45011842010426134 0.89296887285207 1.1150580232140911e-17 -6.333282516330081e-17 1.1150580232140911e-17 -6.333282516330081e-17 -0.45011896615140884 0.8929685976061192
12640118666.666666 -0.4435274224958851 0.8962608021630805 1.0675974451728991e-17 -6.340181317754318e-17 1.0675974451728991e-17 -6.340181317754318e-17 -0.4435279705292643 0.8962605309607496
12640736000.0 -0.4369123510865973 0.8995040841863003 1.020096041605134e-17 -6.346724843216131e-17 1.020096041605134e-17 -6.346724843216131e-17 -0.4369129010762688 0.8995038170419128
12641353333.333334 -0.4302735649296833 0.9026985428827033 9.725564691342691e-18 -6.352912867781768e-17 9.725564691342691e-18 -6.352912867781768e-17 -0.4302741168456052 0.9026982798103622
12641970666.666666 -0.4236114243655168 0.9058440048633486 9.249813854653245e-18 -6.358745186361595e-17 9.249813854653245e-18 -6.358745186361595e-17 -0.4236119781775461 0.9058437458769358
12642588000.0 -0.4169262910020782 0.9089402993987574 8.773734492391502e-18 -6.36422161371339e-17 8.773734492391502e-18 -6.36422161371339e-17 -0.4169268466799709 0.9089400445119298
12643205333.333334 -0.4102185276953757 0.911987258428149 8.297353198829179e-18 -6.369341984445088e-17 8.297353198829179e-18 -6.369341984445088e-17 -0.4102190852087897 0.9119870076543395
12643822666.666666 -0.4034884985297265 0.9149847165685772 7.820696574627964e-18 -6.374106153016106e-17 7.820696574627964e-18 -6.374106153016106e-17 -0.40348905784822353 0.9149844699209956
12644440000.0 -0.39673656879794283 0.9179325111239323 7.343791225355669e-18 -6.378513993737721e-17 7.343791225355669e-18 -6.378513993737721e-17 -0.3967371298909893 0.9179322686155621
12645057333.333334 -0.38996310498168624 0.920830482093689 6.866663760011716e-18 -6.382565400772247e-17 6.866663760011716e-18 -6.382565400772247e-17 -0.38996366781865527 0.9208302437372885
12645674666.666666 -0.383168474731394 0.923678472181673 6.3893407895439495e-18 -6.386260288131186e-17 6.3893407895439495e-18 -6.386260288131186e-17 -0.38316903928156737 0.9236782379897741
12646292000.0 -0.37635304684621873 0.9264763268046414 5.911848925364099e-18 -6.389598589672302e-17 5.911848925364099e-18 -6.389598589672302e-17 -0.37635361307878756 0.9264760967895476
12646909333.333334 -0.3695171912544292 0.9292238941004962 5.434214777881986e-18 -6.392580259095443e-17 5.434214777881986e-18 -6.392580259095443e-17 -0.3695177591384969 0.9292236682742838
12647526666.666666 -0.36266127899288647 0.9319210249367149 4.956464955014892e-18 -6.395205269937468e-17 4.956464955014892e-18 -6.395205269937468e-17 -0.3626618484974695 0.9319208033112316
12648144000.0 -0.3557856821871398 0.9345675729183441 4.478626060717614e-18 -6.397473615565883e-17 4.478626060717614e-18 -6.397473615565883e-17 -0.35578625328117014 0.9345673555052092
12648761333.333334 -0.3488907740311503 0.9371633943959811 4.000724693500663e-18 -6.399385309171527e-17 4.000724693500663e-18 -6.399385309171527e-17 -0.3488913466834763 0.9371631812065833
12649378666.666666 -0.34197692876711444 0.9397083484735381 3.522787444969299e-18 -6.400940383760022e-17 3.522787444969299e-18 -6.400940383760022e-17 -0.34197750294650286 0.9397081395190355
12649996000.0 -0.3350445216650969 0.9422022970159113 3.044840898327132e-18 -6.402138892142299e-17 3.044840898327132e-18 -6.402138892142299e-17 -0.3350450973402349 0.9422020923072318
12650613333.333334 -0.3280939290025823 0.9446451046565064 2.5669116269153655e-18 -6.402980906923865e-17 2.5669116269153655e-18 -6.402980906923865e-17 -0.32809450614207886 0.9446449042043461
12651230666.666666 -0.3211255280442382 0.9470366388045197 2.089026192744054e-18 -6.403466520493042e-17 2.089026192744054e-18 -6.403466520493042e-17 -0.32112610661662594 0.9470364426193428
12651848000.0 -0.31413969702125144 0.9493767696522015 1.6112111450099928e-18 -6.403595845008136e-17 1.6112111450099928e-18 -6.403595845008136e-17 -0.31414027699498825 0.9493765777442397
12652465333.333334 -0.30713681511087715 0.9516653701818721 1.1334930186322961e-18 -6.403369012383476e-17 1.1334930186322961e-18 -6.403369012383476e-17 -0.3071373964543481 0.9516651825611242
12653082666.666666 -0.3001172624159401 0.95390231617279 6.558983327893259e-19 -6.402786174274375e-17 6.558983327893259e-19 -6.402786174274375e-17 -0.30011784509745887 0.9539021328490204
12653700000.0 -0.2930814199440147 0.9560874862079587 1.7845358943886642e-19 -6.401847502060974e-17 1.7845358943886642e-19 -6.401847502060974e-17 -0.29308200393182504 0.9560873071906971
12654317333.333334 -0.28602966958695925 0.9582207616806413 -2.988147281346782e-19 -6.400553186831061e-17 -2.988147281346782e-19 -6.400553186831061e-17 -0.2860302548492377 0.9582205869791843
12654934666.666666 -0.27896239409999984 0.9603020268008655 -7.758801567878737e-19 -6.398903439361749e-17 -7.758801567878737e-19 -6.398903439361749e-17 -0.2789629806048568 0.9603018564242742
12655552000.0 -0.27187997708103523 0.9623311686016769 -1.252716254993231e-18 -6.396898490100027e-17 -1.252716254993231e-18 -6.396898490100027e-17 -0.2718805647965165 0.9623310025587762
12656169333.333334 -0.2647828029498711 0.964308076945258 -1.7292966042778703e-18 -6.394538589142389e-17 -1.7292966042778703e-18 -6.394538589142389e-17 -0.2647833918439604 0.9643079152446382
12656786666.666666 -0.2576712569273004 0.9662326445289239 -2.2055948106948798e-18 -6.391824006213186e-17 -2.2055948106948798e-18 -6.391824006213186e-17 -0.25767184696792 0.9662324871789366
12657404000.0 -0.25054572501413797 0.9681047668909556 -2.6815845062818237e-18 -6.388755030641989e-17 -2.6815845062818237e-18 -6.388755030641989e-17 -0.2505463161691515 0.968104613899717
12658021333.333334 -0.2434065939702983 0.9699243424162681 -3.1572393505136206e-18 -6.385331971339883e-17 -3.1572393505136206e-18 -6.385331971339883e-17 -0.2434071862075116 0.9699241937916563
12658638666.666666 -0.2362542512940216 0.9716912723418658 -3.63253303174061e-18 -6.381555156774718e-17 -3.63253303174061e-18 -6.381555156774718e-17 -0.2362548445811852 0.971691128091521
12659256000.0 -0.2290890852003738 0.9734054607623225 -4.107439268668023e-18 -6.377424934945085e-17 -4.107439268668023e-18 -6.377424934945085e-17 -0.2290896795051844 0.9734053208936476
12659873333.333334 -0.22191148460064314 0.9750668146348698 -4.581931811782359e-18 -6.372941673353468e-17 -4.581931811782359e-18 -6.372941673353468e-17 -0.22191207989074538 0.9750666791550288
12660490666.666666 -0.2147218390810387 0.9766752437844985 -5.0559844447918505e-18 -6.36810575897831e-17 -5.0559844447918505e-18 -6.36810575897831e-17 -0.21472243532402685 0.9766751127004164
12661108000.0 -0.2075205388813492 0.9782306609088914 -5.5295709860988246e-18 -6.362917598244631e-17 -5.5295709860988246e-18 -6.362917598244631e-17 -0.20752113604476916 0.9782305342272549
12661725333.333334 -0.20030797487423402 0.9797329815830617 -6.002665290209907e-18 -6.357377616994172e-17 -6.002665290209907e-18 -6.357377616994172e-17 -0.20030857292558452 0.9797328593103163
12662342666.666666 -0.19308453854353452 0.9811821242640343 -6.4752412491888595e-18 -6.351486260453995e-17 -6.4752412491888595e-18 -6.351486260453995e-17 -0.19308513745026964 0.9811820064063869
12662960000.0 -0.18585062196324798 0.9825780102952262 -6.947272794094131e-18 -6.345243993204197e-17 -6.947272794094131e-18 -6.345243993204197e-17 -0.18585122169277837 0.9825778968586429
12663577333.333334 -0.1786066177763024 0.9839205639107065 -7.41873389640823e-18 -6.338651299144564e-17 -7.41873389640823e-18 -6.338651299144564e-17 -0.17860721829599713 0.9839204549009122
12664194666.666666 -0.17135291917304873 0.9852097122393423 -7.889598569462532e-18 -6.331708681460231e-17 -7.889598569462532e-18 -6.331708681460231e-17 -0.1713535204502374 0.9852096076618229
12664812000.0 -0.16408991987014335 0.9864453853087165 -8.359840869875413e-18 -6.324416662586072e-17 -8.359840869875413e-18 -6.324416662586072e-17 -0.16409052187211765 0.9864452851687159
12665429333.333334 -0.15681801408895416 0.9876275160489657 -8.829434898972978e-18 -6.316775784170199e-17 -8.829434898972978e-18 -6.316775784170199e-17 -0.1568186167829693 0.9876274203514854
12666046666.666666 -0.1495375965343863 0.9887560402963775 -9.298354804196063e-18 -6.30878660703661e-17 -9.298354804196063e-18 -6.30878660703661e-17 -0.14953819988766348 0.988755949046179
12666664000.0 -0.14224906237323504 0.9898308967969162 -9.766574780548899e-18 -6.300449711146075e-17 -9.766574780548899e-18 -6.300449711146075e-17 -0.14224966635296277 0.9898308099985189
12667281333.333334 -0.13495280721296093 0.9908520272095096 -1.0234069071983667e-17 -6.291765695556943e-17 -1.0234069071983667e-17 -6.291765695556943e-17 -0.13495341178629675 0.9908519448671892
12667898666.666666 -0.12764922708002002 0.991819376109242 -1.0700811972824818e-17 -6.282735178384215e-17 -1.0700811972824818e-17 -6.282735178384215e-17 -0.12764983221409273 0.9918192982270346
12668516000.0 -0.1203387183984532 0.9927328909903556 -1.1166777829188085e-17 -6.273358796757565e-17 -1.1166777829188085e-17 -6.273358796757565e-17 -0.12033932406036421 0.9927328175720532
12669133333.333334 -0.11302167796845368 0.9935925222690886 -1.1631941040364152e-17 -6.263637206778951e-17 -1.1631941040364152e-17 -6.263637206778951e-17 -0.11302228412527886 0.9935924533182398
12669750666.666666 -0.105698502944631 0.9943982232863833 -1.20962760602325e-17 -6.253571083478496e-17 -1.20962760602325e-17 -6.253571083478496e-17 -0.10569910956342293 0.9943981588062967
12670368000.0 -0.09836959081465359 0.9951499503104098 -1.2559757398662914e-17 -6.243161120769572e-17 -1.2559757398662914e-17 -6.243161120769572e-17 -0.0983701978624426 0.9951498903041478
