! Parameters = {f0=12700.012000; bw=77.238000; Q=6100.000000; N=10; m_0_1=1.207302; m_1_1=-0.655211; m_1_2=1.042114; m_2_2=-0.655860; m_2_3=0.679077; m_2_8=-0.002571; m_2_9=0.034133; m_3_3=-0.657797; m_3_4=0.567606; m_3_7=-0.001971; m_3_8=-0.099059; m_3_9=-0.002571; m_4_4=-0.660722; m_4_5=0.403941; m_4_6=0.001546; m_4_7=-0.119608; m_4_8=-0.001971; m_5_5=-0.660340; m_5_6=0.811296; m_5_7=0.001546; m_6_6=-0.660341; m_6_7=0.404283; m_7_7=-0.660708; m_7_8=0.567724; m_8_8=-0.657799; m_8_9=0.679390; m_9_9=-0.655865; m_9_10=1.043192; m_10_10=-0.655221; m_10_11=1.208097}
!
! Created with skrf (http://scikit-rf.org).
# Hz S RI R 50.0 
!freq ReS11 ImS11 ReS21 ImS21 ReS12 ImS12 ReS22 ImS22
12607400000.0 0.5858184312503674 0.8104423271320419 -6.454574882780339e-17 -4.9774189652871123e-17 -6.454574882780339e-17 -4.9774189652871123e-17 0.5858179156565345 0.810442699822556
12608017333.333334 0.5928224082385896 0.8053332181712364 -6.496646946088062e-17 -4.919735035729952e-17 -6.496646946088062e-17 -4.919735035729952e-17 0.5928218959201981 0.8053335952991293
12608634666.666666 0.5997818294705466 0.8001635814237023 -6.538204120829854e-17 -4.861696267223461e-17 -6.538204120829854e-17 -4.861696267223461e-17 0.5997813204657793 0.8001639629601965
12609252000.0 0.6066961718852825 0.7949338054326194 -6.579243421301837e-17 -4.803307250266494e-17 -6.579243421301837e-17 -4.803307250266494e-17 0.6066956662320688 0.7949341913486089
12609869333.333334 0.6135649158099297 0.789644283261137 -6.619761902679797e-17 -4.7445726004170794e-17 -6.619761902679797e-17 -4.7445726004170794e-17 0.6135644135459443 0.7896446735271899
12610486666.666666 0.620387544998722 0.7842954124628667 -6.659756661228679e-17 -4.6854969579291615e-17 -6.659756661228679e-17 -4.6854969579291615e-17 0.6203870461613809 0.7842958070492264
12611104000.0 0.6271635466719072 0.7788875950519144 -6.69922483451098e-17 -4.62608498738457e-17 -6.69922483451098e-17 -4.62608498738457e-17 0.6271630512983638 0.7788879939285019
12611721333.333334 0.6338924115540385 0.7734212374728572 -6.738163601587328e-17 -4.566341377329676e-17 -6.738163601587328e-17 -4.566341377329676e-17 0.6338919196811843 0.7734216406092755
12612338666.666666 0.6405736339125446 0.7678967505699698 -6.77657018321835e-17 -4.506270839903926e-17 -6.77657018321835e-17 -4.506270839903926e-17 0.640573145577003 0.7678971579355034
12612956000.0 0.6472067115956018 0.7623145495564464 -6.814441842061118e-17 -4.44587811046974e-17 -6.814441842061118e-17 -4.44587811046974e-17 0.647206226833728 0.7623149611200667
12613573333.333334 0.6537911460697705 0.7566750539832917 -6.851775882861968e-17 -4.3851679472413814e-17 -6.851775882861968e-17 -4.3851679472413814e-17 0.6537906649176465 0.7566754697136562
12614190666.666666 0.6603264424576353 0.7509786877076368 -6.888569652647135e-17 -4.324145130910454e-17 -6.888569652647135e-17 -4.324145130910454e-17 0.660325964951069 0.7509791075730934
12614808000.0 0.6668121095749795 0.745225878860903 -6.924820540909323e-17 -4.262814464271002e-17 -6.924820540909323e-17 -4.262814464271002e-17 0.6668116357495015 0.7452263028294925
12615425333.333334 0.6732476599675941 0.739417059816718 -6.960525979791708e-17 -4.2011807718418974e-17 -6.960525979791708e-17 -4.2011807718418974e-17 0.6732471898584534 0.7394174878561747
12616042666.666666 0.6796326099479764 0.7335526671583594 -6.995683444267335e-17 -4.1392488994896433e-17 -6.995683444267335e-17 -4.1392488994896433e-17 0.6796321435901408 0.7335530992361157
12616660000.0 0.6859664796317494 0.7276331416458891 -7.030290452316318e-17 -4.077023714047963e-17 -7.030290452316318e-17 -4.077023714047963e-17 0.6859660170599008 0.7276335777290766
12617277333.333334 0.6922487929736213 0.7216589281831168 -7.064344565099719e-17 -4.0145101029356884e-17 -7.064344565099719e-17 -4.0145101029356884e-17 0.6922483342221544 0.7216593682385708
12617894666.666666 0.6984790778031481 0.7156304757841884 -7.097843387128342e-17 -3.951712973776225e-17 -7.097843387128342e-17 -3.951712973776225e-17 0.6984786229061659 0.715630919778447
12618512000.0 0.7046568658604034 0.7095482375396566 -7.130784566431002e-17 -3.8886372540106195e-17 -7.130784566431002e-17 -3.8886372540106195e-17 0.7046564148517168 0.7095486854389662
12619129333.333334 0.7107816928309684 0.7034126705826266 -7.163165794716572e-17 -3.8252878905142844e-17 -7.163165794716572e-17 -3.8252878905142844e-17 0.7107812457440927 0.7034131223529435
12619746666.666666 0.7168530983809108 0.697224236054319 -7.194984807534248e-17 -3.76166984920933e-17 -7.194984807534248e-17 -3.76166984920933e-17 0.7168526552490623 0.697224691661311
12620364000.0 0.7228706261914422 0.6909833990693506 -7.226239384430342e-17 -3.6977881146758296e-17 -7.226239384430342e-17 -3.6977881146758296e-17 0.7228701870475377 0.690983858478401
12620981333.333334 0.728833823993095 0.6846906286808974 -7.256927349100632e-17 -3.6336476897636187e-17 -7.256927349100632e-17 -3.6336476897636187e-17 0.7288333888697489 0.6846910918571081
12621598666.666666 0.7347422435997962 0.6783463978453623 -7.287046569540352e-17 -3.569253595200798e-17 -7.287046569540352e-17 -3.569253595200798e-17 0.734741812529316 0.6783468647535541
12622216000.0 0.740595440942509 0.6719511833868671 -7.316594958190073e-17 -3.504610869202263e-17 -7.316594958190073e-17 -3.504610869202263e-17 0.7405950139568958 0.6719516539915847
12622833333.333334 0.7463929761027079 0.6655054659613117 -7.345570472078861e-17 -3.4397245670755866e-17 -7.345570472078861e-17 -3.4397245670755866e-17 0.7463925532336523 0.6655059402268253
12623450666.666666 0.7521344133452502 0.6590097300204582 -7.373971112962453e-17 -3.3745997608288766e-17 -7.373971112962453e-17 -3.3745997608288766e-17 0.7521339946241299 0.6590102079107659
12624068000.0 0.7578193211512964 0.6524644637753306 -7.401794927459741e-17 -3.30924153877375e-17 -7.401794927459741e-17 -3.30924153877375e-17 0.7578189066091745 0.6524649452541622
12624685333.333334 0.7634472722507224 0.6458701591595422 -7.429040007185296e-17 -3.243655005128022e-17 -7.429040007185296e-17 -3.243655005128022e-17 0.7634468619183454 0.6458706441903611
12625302666.666666 0.7690178436541231 0.6392273117924511 -7.455704488876622e-17 -3.1778452796215825e-17 -7.455704488876622e-17 -3.1778452796215825e-17 0.7690174375619176 0.6392278003384574
12625920000.0 0.7745306166847667 0.6325364209417155 -7.481786554520953e-17 -3.1118174970940284e-17 -7.481786554520953e-17 -3.1118174970940284e-17 0.7745302148628386 0.6325369129658491
12626537333.333334 0.779985177009864 0.6257979894860094 -7.50728443147596e-17 -3.045576807097454e-17 -7.50728443147596e-17 -3.045576807097454e-17 0.7799847794879938 0.6257984849509517
12627154666.666666 0.7853811146718708 0.6190125238770302 -7.532196392587899e-17 -2.97912837349593e-17 -7.532196392587899e-17 -2.97912837349593e-17 0.7853807214795138 0.6190130227452078
12627772000.0 0.7907180241192975 0.6121805341014315 -7.556520756306953e-17 -2.9124773740621e-17 -7.556520756306953e-17 -2.9124773740621e-17 0.7907176352855817 0.6121810363350201
12628389333.333334 0.7959955042370178 0.6053025336427201 -7.580255886797448e-17 -2.8456290000771993e-17 -7.580255886797448e-17 -2.8456290000771993e-17 0.7959951197907389 0.6053030392036446
12629006666.666666 0.8012131583766389 0.5983790394423684 -7.603400194046049e-17 -2.778588455925833e-17 -7.603400194046049e-17 -2.778588455925833e-17 0.8012127783462611 0.5983795482923081
12629624000.0 0.806370594386194 0.5914105718611212 -7.625952133965114e-17 -2.71136095869363e-17 -7.625952133965114e-17 -2.71136095869363e-17 0.806370218799846 0.5914110839615114
12630241333.333334 0.811467424639612 0.5843976546398835 -7.647910208493828e-17 -2.6439517377603755e-17 -7.647910208493828e-17 -2.6439517377603755e-17 0.8114670535250877 0.5843981699519202
12630858666.666666 0.8165032660658097 0.5773408148604311 -7.669272965694123e-17 -2.5763660343969266e-17 -7.669272965694123e-17 -2.5763660343969266e-17 0.8165028994505629 0.577341333345072
12631476000.0 0.821477740177707 0.570240582905468 -7.690038999844959e-17 -2.5086091013557016e-17 -7.690038999844959e-17 -2.5086091013557016e-17 0.8214773780888509 0.5702411045234363
12632093333.333334 0.8263904731003636 0.563097492419206 -7.710206951531329e-17 -2.4406862024657123e-17 -7.710206951531329e-17 -2.4406862024657123e-17 0.8263901155646681 0.563098017130993
12632710666.666666 0.831241095599228 0.5559120802670473 -7.729775507730369e-17 -2.3726026122246947e-17 -7.729775507730369e-17 -2.3726026122246947e-17 0.8312407426431184 0.5559126080329156
12633328000.0 0.8360292431080141 0.5486848864950461 -7.748743401894374e-17 -2.3043636153888324e-17 -7.748743401894374e-17 -2.3043636153888324e-17 0.8360288947575699 0.5486854172750334
12633945333.333334 0.8407545557558639 0.5414164542896729 -7.767109414029402e-17 -2.235974506564946e-17 -7.767109414029402e-17 -2.235974506564946e-17 0.8407542120368146 0.5414169880435934
12634562666.666666 0.8454166783945355 0.5341073299367758 -7.784872370770441e-17 -2.1674405898009563e-17 -7.784872370770441e-17 -2.1674405898009563e-17 0.845416339332261 0.5341078666242248
12635180000.0 0.8500152606250524 0.5267580627805959 -7.802031145453349e-17 -2.0987671781751587e-17 -7.802031145453349e-17 -2.0987671781751587e-17 0.8500149262445795 0.5267586023609516
12635797333.333334 0.8545499568241104 0.5193692051823556 -7.818584658183143e-17 -2.0299595933844887e-17 -7.818584658183143e-17 -2.0299595933844887e-17 0.8545496271501128 0.5193697476147839
12636414666.666666 0.8590204261699087 0.5119413124789896 -7.834531875897963e-17 -1.9610231653354193e-17 -7.834531875897963e-17 -1.9610231653354193e-17 0.859020101226702 0.5119418577224446
12637032000.0 0.8634263326678948 0.504474942941184 -7.849871812430452e-17 -1.8919632317301505e-17 -7.849871812430452e-17 -1.8919632317301505e-17 0.863426012479439 0.5044754909544138
12637649333.333334 0.8677673451760064 0.4969706577314456 -7.864603528564966e-17 -1.8227851376545915e-17 -7.864603528564966e-17 -1.8227851376545915e-17 0.8677670297659005 0.4969712084729936
12638266666.666666 0.8720431374294856 0.48942902086204537 -7.878726132090978e-17 -1.7534942351668394e-17 -7.878726132090978e-17 -1.7534942351668394e-17 0.8720428268209666 0.4894295742902535
12638884000.0 0.8762533880654415 0.4818505991525547 -7.892238777853234e-17 -1.6840958828834842e-17 -7.892238777853234e-17 -1.6840958828834842e-17 0.8762530822813843 0.4818511552255676
12639501333.333334 0.8803977806470626 0.4742359621871452 -7.905140667798383e-17 -1.6145954455653613e-17 -7.905140667798383e-17 -1.6145954455653613e-17 0.8803974797099774 0.47423652086291324
12640118666.666666 0.8844760036872334 0.46658568227207925 -7.917431051017179e-17 -1.5449982937065775e-17 -7.917431051017179e-17 -1.5449982937065775e-17 0.8844757076192639 0.4665862435083608
12640736000.0 0.888487750672216 0.4589003343921945 -7.92910922378443e-17 -1.4753098031162816e-17 -7.92910922378443e-17 -1.4753098031162816e-17 0.8884874594951365 0.45890089814655927
12641353333.333334 0.8924327200843383 0.4511804961683413 -7.940174529593676e-17 -1.40553535450922e-17 -7.940174529593676e-17 -1.40553535450922e-17 0.8924324338195553 0.45118106239817485
12641970666.666666 0.8963106154249899 0.44342674781334224 -7.95062635918965e-17 -1.3356803330879373e-17 -7.95062635918965e-17 -1.3356803330879373e-17 0.8963103340935377 0.44342731647584754
12642588000.0 0.9001211452366933 0.4356396720887849 -7.960464150596264e-17 -1.2657501281297773e-17 -7.960464150596264e-17 -1.2657501281297773e-17 0.9001208688592343 0.435640243140987
12643205333.333334 0.9038640231250673 0.4278198542611256 -7.969687389141356e-17 -1.1957501325712356e-17 -7.969687389141356e-17 -1.1957501325712356e-17 0.9038637517218867 0.42782042765987255
12643822666.666666 0.9075389677804281 0.4199678820575159 -7.978295607477581e-17 -1.1256857425935554e-17 -7.978295607477581e-17 -1.1256857425935554e-17 0.9075387013714399 0.419968457759486
12644440000.0 0.9111457029988103 0.4120843456219189 -7.986288385599705e-17 -1.055562357208244e-17 -7.986288385599705e-17 -1.055562357208244e-17 0.9111454416035473 0.41208492358361964
12645057333.333334 0.914683957702765 0.40416983747064716 -7.993665350858451e-17 -9.853853778411655e-18 -7.993665350858451e-17 -9.853853778411655e-18 0.9146837013403826 0.4041704176484211
12645674666.666666 0.9181534659617728 0.39622495244775446 -8.00042617797036e-17 -9.15160207918882e-18 -8.00042617797036e-17 -9.15160207918882e-18 0.9181532146510473 0.3962255347977823
12646292000.0 0.9215539670122437 0.3882502876803021 -8.006570589024528e-17 -8.448922524513704e-18 -8.006570589024528e-17 -8.448922524513704e-18 0.921553720771569 0.3882508721586052
12646909333.333334 0.9248852052770096 0.38024644253371326 -8.012098353485139e-17 -7.745869176193267e-18 -8.012098353485139e-17 -7.745869176193267e-18 0.9248849641243969 0.38024702909615715
12647526666.666666 0.928146930384627 0.37221401856651737 -8.01700928819074e-17 -7.042496103583553e-18 -8.01700928819074e-17 -7.042496103583553e-18 0.928146694337703 0.37221460716881544
12648144000.0 0.9313388971882215 0.36415361948505715 -8.021303257349823e-17 -6.338857379434919e-18 -8.021303257349823e-17 -6.338857379434919e-18 0.9313386662642282 0.36415421008277404
12648761333.333334 0.9344608657838096 0.35606585109837996 -8.024980172532645e-17 -5.635007075759131e-18 -8.024980172532645e-17 -5.635007075759131e-18 0.9344606399996018 0.3560664436469344
12649378666.666666 0.9375126015283606 0.3479513212726261 -8.028039992659594e-17 -4.9309992596753476e-18 -8.028039992659594e-17 -4.9309992596753476e-18 0.9375123809004051 0.3479519157272945
12649996000.0 0.9404938750575144 0.33981063988513033 -8.030482723985786e-17 -4.226887989269454e-18 -8.030482723985786e-17 -4.226887989269454e-18 0.9404936596018897 0.3398112362010505
12650613333.333334 0.9434044623027272 0.33164441877882334 -8.032308420082156e-17 -3.522727309453485e-18 -8.032308420082156e-17 -3.522727309453485e-18 0.9434042520351202 0.33164501691099735
12651230666.666666 0.946244144508116 0.32345327171624705 -8.033517181812854e-17 -2.818571247829925e-18 -8.033517181812854e-17 -2.818571247829925e-18 0.946243939443824 0.3234538716195452
12651848000.0 0.9490127082469767 0.31523781433321124 -8.034109157309052e-17 -2.114473810547522e-18 -8.034109157309052e-17 -2.114473810547522e-18 0.9490125084009029 0.31523841596237484
12652465333.333334 0.9517099454377713 0.30699866409265525 -8.034084541939118e-17 -1.4104889781832238e-18 -8.034084541939118e-17 -1.4104889781832238e-18 0.9517097508244263 0.30699926740230044
12653082666.666666 0.9543356533597216 0.2987364402384046 -8.033443578275242e-17 -7.066707016071245e-19 -8.033443578275242e-17 -7.066707016071245e-19 0.9543354639932208 0.2987370451830257
12653700000.0 0.956889634668155 0.29045176374827647 -8.032186556056359e-17 -3.0728978490017747e-21 -8.032186556056359e-17 -3.0728978490017747e-21 0.9568894505622184 0.2904523702822493
12654317333.333334 0.9593716974092451 0.2821452572877072 -8.030313812147591e-17 7.002505539966725e-19 -8.030313812147591e-17 7.002505539966725e-19 0.9593715185771944 0.2821458653652921
12654934666.666666 0.961781655034466 0.27381754516284235 -8.027825730495976e-17 1.403245816916019e-18 -8.027825730495976e-17 1.403245816916019e-18 0.9617814814892285 0.2738181547381893
12655552000.0 0.9641193264146544 0.2654692532735092 -8.024722742082648e-17 2.105859100072805e-18 -8.024722742082648e-17 2.105859100072805e-18 0.9641191581687566 0.26546986430065916
12656169333.333334 0.9663845358535305 0.257101009066473 -8.021005324871537e-17 2.808036662900401e-18 -8.021005324871537e-17 2.808036662900401e-18 0.9663843729190993 0.25710162149936244
12656786666.666666 0.9685771131010105 0.24871344148789584 -8.016674003754258e-17 3.509724819231587e-18 -8.016674003754258e-17 3.509724819231587e-18 0.9685769554897738 0.24871405528036053
12657404000.0 0.9706968933659238 0.24030718093636896 -8.011729350491675e-17 4.2108699413678806e-18 -8.011729350491675e-17 4.2108699413678806e-18 0.9706967410892076 0.2403077960421465
12658021333.333334 0.9727437173284319 0.23188285921539398 -8.006171983651708e-17 4.911418464179245e-18 -8.006171983651708e-17 4.911418464179245e-18 0.9727435703971589 0.2318834755881277
12658638666.666666 0.9747174311519868 0.22344110948595258 -8.000002568543706e-17 5.611316889181478e-18 -8.000002568543706e-17 5.611316889181478e-18 0.9747172895766794 0.2234417270791957
12659256000.0 0.9766178864949266 0.2149825662188098 -7.993221817149119e-17 6.310511788620531e-18 -7.993221817149119e-17 6.310511788620531e-18 0.9766177502857016 0.2149831849860279
12659873333.333334 0.9784449405215775 0.20650786514699226 -7.985830488048808e-17 7.008949809527088e-18 -7.985830488048808e-17 7.008949809527088e-18 0.9784448096881493 0.2065084850415675
12660490666.666666 0.9801984559130157 0.1980176432179258 -7.977829386346683e-17 7.7065776777843e-18 -7.977829386346683e-17 7.7065776777843e-18 0.9801983304646921 0.19801826419315993
12661108000.0 0.9818783008774051 0.1895125385454508 -7.969219363589708e-17 8.40334220219009e-18 -7.969219363589708e-17 8.40334220219009e-18 0.9818781808230895 0.1895131605545691
12661725333.333334 0.9834843491598513 0.18099319036214187 -7.960001317684807e-17 9.099190278477633e-18 -7.960001317684807e-17 9.099190278477633e-18 0.9834842345080393 0.18099381335829626
12662342666.666666 0.9850164800519351 0.17246023897101215 -7.950176192811551e-17 9.79406889338407e-18 -7.950176192811551e-17 9.79406889338407e-18 0.9850163708107174 0.17246086290728524
12662960000.0 0.9864745784007833 0.1639143256974176 -7.939744979332044e-17 1.0487925128654226e-17 -7.939744979332044e-17 1.0487925128654226e-17 0.9864744745778424 0.16391495052682573
12663577333.333334 0.987858534617696 0.15535609284099508 -7.928708713696872e-17 1.1180706165069338e-17 -7.928708713696872e-17 1.1180706165069338e-17 0.9878584362203064 0.1553567185164922
12664194666.666666 0.9891682446863993 0.1467861836273046 -7.917068478347581e-17 1.1872359286464344e-17 -7.917068478347581e-17 1.1872359286464344e-17 0.9891681517214271 0.1467868101017855
12664812000.0 0.9904036101708751 0.13820524215940044 -7.904825401615945e-17 1.2562831883715444e-17 -7.904825401615945e-17 1.2562831883715444e-17 0.9904035226447772 0.13820586938570442
12665429333.333334 0.9915645382227373 0.12961391336956196 -7.891980657619427e-17 1.325207145874039e-17 -7.891980657619427e-17 1.325207145874039e-17 0.9915644561415606 0.12961454130047648
12666046666.666666 0.9926509415882073 0.12101284297084947 -7.878535466153433e-17 1.394002562847532e-17 -7.878535466153433e-17 1.394002562847532e-17 0.9926508649575907 0.12101347155911378
12666664000.0 0.9936627386147084 0.11240267740832022 -7.864491092579736e-17 1.4626642128856725e-17 -7.864491092579736e-17 1.4626642128856725e-17 0.9936626674398802 0.1124033066066287
12667281333.333334 0.9945998532569635 0.10378406381072382 -7.849848847712186e-17 1.5311868818757112e-17 -7.849848847712186e-17 1.5311868818757112e-17 0.99459978754274 0.10378469357172951
12667898666.666666 0.9954622150827249 0.09515764994175212 -7.834610087697951e-17 1.5995653683963314e-17 -7.834610087697951e-17 1.5995653683963314e-17 0.9954621548335132 0.09515828021807053
12668516000.0 0.9962497592780765 0.08652408415126953 -7.818776213896121e-17 1.667794484110098e-17 -7.818776213896121e-17 1.667794484110098e-17 0.996249704497872 0.08652471489548201
12669133333.333334 0.9969624266522903 0.07788401532675356 -7.802348672752942e-17 1.7358690541547725e-17 -7.802348672752942e-17 1.7358690541547725e-17 0.9969623773446766 0.07788464649141086
12669750666.666666 0.9976001636422837 0.06923809284441187 -7.785328955672741e-17 1.803783917537656e-17 -7.785328955672741e-17 1.803783917537656e-17 0.9976001198104327 0.0692387243820378
12670368000.0 0.9981629223166413 0.06058696652040454 -7.767718598886532e-17 1.8715339275236025e-17 -7.767718598886532e-17 1.8715339275236025e-17 0.9981628839633147 0.060587598383499607
12670985333.333334 0.9986506603792226 0.05193128656200478 -7.749519183316818e-17 1.939113952024028e-17 -7.749519183316818e-17 1.939113952024028e-17 0.9986506275067683 0.05193191870304954
