! Parameters = {f0=12700.012000; bw=77.238000; Q=6100.000000; N=10; m_0_1=1.213308; m_1_1=-0.565121; m_1_2=1.048120; m_2_2=-0.565770; m_2_3=0.685083; m_2_8=-0.002271; m_2_9=0.034433; m_3_3=-0.567707; m_3_4=0.573612; m_3_7=-0.001671; m_3_8=-0.098759; m_3_9=-0.002271; m_4_4=-0.570632; m_4_5=0.409947; m_4_6=0.001846; m_4_7=-0.119308; m_4_8=-0.001671; m_5_5=-0.570250; m_5_6=0.817302; m_5_7=0.001846; m_6_6=-0.570251; m_6_7=0.410289; m_7_7=-0.570618; m_7_8=0.573730; m_8_8=-0.567709; m_8_9=0.685396; m_9_9=-0.565775; m_9_10=1.049198; m_10_10=-0.565131; m_10_11=1.214103}
!
! Created with skrf (http://scikit-rf.org).
# Hz S RI R 50.0 
!freq ReS11 ImS11 ReS21 ImS21 ReS12 ImS12 ReS22 ImS22
12607400000.0 -0.8969166491487118 -0.442199643237855 8.27882596532669e-17 1.4214627024523284e-17 8.27882596532669e-17 1.4214627024523284e-17 -0.8969163664315803 -0.44220021667453957
12608017333.333334 -0.9007936343435667 -0.43424742754096757 8.28957311152996e-17 1.3471660978384876e-17 8.28957311152996e-17 1.3471660978384876e-17 -0.9007933567242178 -0.4342480034281729
12608634666.666666 -0.9046001155468361 -0.42626122384341997 8.299654051668067e-17 1.2727910096942686e-17 8.299654051668067e-17 1.2727910096942686e-17 -0.9045998430464981 -0.42626180213583437
12609252000.0 -0.9083357948300431 -0.4182416572154342 8.309068241831201e-17 1.1983434068536612e-17 8.309068241831201e-17 1.1983434068536612e-17 -0.9083355274695425 -0.41824223786756226
12609869333.333334 -0.9120003798063375 -0.41018935533840317 8.317815191543082e-17 1.1238292616003677e-17 8.317815191543082e-17 1.1238292616003677e-17 -0.9120001176060956 -0.41018993830456907
12610486666.666666 -0.9155935836532489 -0.40210494845604683 8.325894463778933e-17 1.0492545491915062e-17 8.325894463778933e-17 1.0492545491915062e-17 -0.9155933266332813 -0.4021055336903979
12611104000.0 -0.9191151251353115 -0.3939890693246951 8.333305674979864e-17 9.746252473760619e-18 8.333305674979864e-17 9.746252473760619e-18 -0.9191148733152268 -0.39398965678120623
12611721333.333334 -0.9225647286259039 -0.38584235316415316 8.34004849506197e-17 8.999473359216138e-18 8.34004849506197e-17 8.999473359216138e-18 -0.9225644820249022 -0.38584294279662973
12612338666.666666 -0.9259421241289252 -0.37766543760774923 8.346122647422121e-17 8.252267961330353e-18 8.346122647422121e-17 8.252267961330353e-18 -0.9259418827657951 -0.3776660293698303
12612956000.0 -0.9292470472999687 -0.3694589626523217 8.351527908939028e-17 7.504696103750472e-18 8.351527908939028e-17 7.504696103750472e-18 -0.9292468111930873 -0.3694595564974846
12613573333.333334 -0.9324792394668471 -0.3612235706085213 8.35626410997001e-17 6.75681761595589e-18 8.35626410997001e-17 6.75681761595589e-18 -0.9324790086341797 -0.3612241664900851
12614190666.666666 -0.9356384476499957 -0.3529599060501719 8.360331134343645e-17 6.008692328471924e-18 8.360331134343645e-17 6.008692328471924e-18 -0.9356382221090911 -0.3529605039213003
12614808000.0 -0.9387244245822006 -0.3446686157639759 8.363728919348101e-17 5.260380068097201e-18 8.363728919348101e-17 5.260380068097201e-18 -0.9387242043501937 -0.34466921557768204
12615425333.333334 -0.941736928727961 -0.33635034869889385 8.366457455715215e-17 4.511940653133267e-18 8.366457455715215e-17 4.511940653133267e-18 -0.9417367138215679 -0.33635095040804314
12616042666.666666 -0.944675724302424 -0.3280057559152427 8.368516787600327e-17 3.763433888604776e-18 8.368516787600327e-17 3.763433888604776e-18 -0.9446755147379438 -0.3280063594725571
12616660000.0 -0.947540581289789 -0.31963549053390106 8.369907012557791e-17 3.014919561506443e-18 8.369907012557791e-17 3.014919561506443e-18 -0.9475403770831002 -0.31963609589196224
12617277333.333334 -0.950331275461354 -0.3112402076850544 8.37062828151233e-17 2.2664574360271232e-18 8.37062828151233e-17 2.2664574360271232e-18 -0.9503310766279136 -0.3112408147963075
12617894666.666666 -0.9530475883930112 -0.30282056445708094 8.370680798726065e-17 1.518107248803738e-18 8.370680798726065e-17 1.518107248803738e-18 -0.953047394947856 -0.3028211732738392
12618512000.0 -0.955689307482434 -0.29437721984485266 8.370064821761378e-17 7.699287041411923e-19 8.370064821761378e-17 7.699287041411923e-19 -0.9556891194401766 -0.29437783031930026
12619129333.333334 -0.9582562259656284 -0.28591083469842676 8.368780661439486e-17 2.19814692843394e-20 8.368780661439486e-17 2.19814692843394e-20 -0.9582560433404567 -0.28591144678262254
12619746666.666666 -0.9607481429331478 -0.2774220716712126 8.366828681794748e-17 -7.256748303385789e-19 8.366828681794748e-17 -7.256748303385789e-19 -0.9607479657388256 -0.27742268531709446
12620364000.0 -0.9631648633458559 -0.26891159516799923 8.364209300024824e-17 -1.4729806158672633e-18 8.364209300024824e-17 -1.4729806158672633e-18 -0.96316469159572 -0.2689122103273875
12620981333.333334 -0.9655061980501009 -0.26038007129325214 8.360922986436604e-17 -2.2198763597194698e-18 8.360922986436604e-17 -2.2198763597194698e-18 -0.9655060317570598 -0.2603806879178532
12621598666.666666 -0.9677719637926292 -0.25182816779859596 8.356970264387844e-17 -2.966302590354611e-18 8.356970264387844e-17 -2.966302590354611e-18 -0.9677718029691645 -0.2518287858400064
12622216000.0 -0.9699619832348458 -0.24325655403085125 8.352351710224649e-17 -3.712199896971596e-18 8.352351710224649e-17 -3.712199896971596e-18 -0.9699618278930093 -0.24325717344056158
12622833333.333334 -0.972076084966738 -0.23466590087948097 8.347067953214752e-17 -4.457508934240385e-18 8.347067953214752e-17 -4.457508934240385e-18 -0.9720759351181514 -0.2346665216088793
12623450666.666666 -0.9741141035202582 -0.22605688072421914 8.341119675476675e-17 -5.202170426998017e-18 8.341119675476675e-17 -5.202170426998017e-18 -0.9741139591761113 -0.22605750272459485
12624068000.0 -0.9760758793822998 -0.21743016738233326 8.33450761190444e-17 -5.9461251749726964e-18 8.33450761190444e-17 -5.9461251749726964e-18 -0.9760757405533526 -0.21743079060488157
12624685333.333334 -0.9779612590072159 -0.20878643605574781 8.327232550088354e-17 -6.68931405746692e-18 8.327232550088354e-17 -6.68931405746692e-18 -0.9779611257037932 -0.20878706045157241
12625302666.666666 -0.9797700948287333 -0.20012636327863936 8.319295330231721e-17 -7.431678038030117e-18 8.319295330231721e-17 -7.431678038030117e-18 -0.9797699670607286 -0.20012698879875743
12625920000.0 -0.9815022452716232 -0.1914506268639592 8.31069684506286e-17 -8.173158169167566e-18 8.31069684506286e-17 -8.173158169167566e-18 -0.9815021230484937 -0.19145125345930425
12626537333.333334 -0.9831575747626862 -0.1827599058507968 8.30143803974359e-17 -8.913695596986108e-18 8.30143803974359e-17 -8.913695596986108e-18 -0.983157458093457 -0.18276053347222357
12627154666.666666 -0.9847359537414042 -0.17405488045109602 8.291519911773306e-17 -9.65323156585419e-18 8.291519911773306e-17 -9.65323156585419e-18 -0.9847358426346626 -0.17405550904938327
12627772000.0 -0.9862372586701237 -0.16533623199613404 8.280943510888611e-17 -1.0391707423075736e-17 8.280943510888611e-17 -1.0391707423075736e-17 -0.9862371531340209 -0.16533686152198895
12628389333.333334 -0.9876613720436227 -0.1566046428837539 8.269709938959543e-17 -1.1129064623495181e-17 8.269709938959543e-17 -1.1129064623495181e-17 -0.9876612720858743 -0.1566052732878161
12629006666.666666 -0.9890081823984075 -0.14786079652442335 8.257820349880841e-17 -1.1865244734160323e-17 8.257820349880841e-17 -1.1865244734160323e-17 -0.9890080880262918 -0.1478614277572685
12629624000.0 -0.9902775843213762 -0.1391053772880806 8.245275949459747e-17 -1.2600189438925031e-17 8.245275949459747e-17 -1.2600189438925031e-17 -0.9902774955417322 -0.13910600930022413
12630241333.333334 -0.99146947845809 -0.13033907045042922 8.232077995299441e-17 -1.3333840543057264e-17 8.232077995299441e-17 -1.3333840543057264e-17 -0.99146939527732 -0.1303397031923307
12630858666.666666 -0.9925837715205472 -0.12156256213935937 8.218227796678571e-17 -1.406613997783101e-17 8.218227796678571e-17 -1.406613997783101e-17 -0.9925836939446133 -0.12156319556142586
12631476000.0 -0.9936203762944966 -0.11277653928110372 8.203726714426148e-17 -1.4797029805131965e-17 8.203726714426148e-17 -1.4797029805131965e-17 -0.9936203043289226 -0.11277717333369401
12632093333.333334 -0.9945792116462352 -0.10398168954672683 8.188576160793201e-17 -1.552645222200903e-17 8.188576160793201e-17 -1.552645222200903e-17 -0.9945791452961059 -0.10398232418015532
12632710666.666666 -0.9954602025289786 -0.09517870129816126 8.172777599319964e-17 -1.6254349565234244e-17 8.172777599319964e-17 -1.6254349565234244e-17 -0.9954601417989368 -0.09517933646270153
12633328000.0 -0.9962632799887403 -0.0863682635342166 8.156332544698609e-17 -1.6980664315870682e-17 8.156332544698609e-17 -1.6980664315870682e-17 -0.9962632248829906 -0.0863688991801057
12633945333.333334 -0.9969883811697184 -0.07755106583679414 8.139242562632905e-17 -1.7705339103780598e-17 8.139242562632905e-17 -1.7705339103780598e-17 -0.9969883316920239 -0.07755170191423622
12634562666.666666 -0.997635449319212 -0.0687277983169424 8.121509269692897e-17 -1.8428316712166388e-17 8.121509269692897e-17 -1.8428316712166388e-17 -0.9976354054728938 -0.06872843477611267
12635180000.0 -0.9982044337920669 -0.05989915156075791 8.103134333166343e-17 -1.9149540082060362e-17 8.103134333166343e-17 -1.9149540082060362e-17 -0.9982043955800074 -0.0598997883518067
12635797333.333334 -0.9986952900546462 -0.051065816575334225 8.084119470905597e-17 -1.9868952316828076e-17 8.084119470905597e-17 -1.9868952316828076e-17 -0.9986952574792856 -0.051066453648390714
12636414666.666666 -0.9991079796883018 -0.04222848473481923 8.064466451171099e-17 -2.0586496686631474e-17 8.064466451171099e-17 -2.0586496686631474e-17 -0.9991079527516383 -0.04222912203999536
12637032000.0 -0.9994424703924001 -0.033387847726018494 8.044177092469977e-17 -2.1302116632913808e-17 8.044177092469977e-17 -2.1302116632913808e-17 -0.9994424490959911 -0.033388485213412956
12637649333.333334 -0.9996987359868327 -0.024544597494541544 8.02325326339185e-17 -2.2015755772823173e-17 8.02325326339185e-17 -2.2015755772823173e-17 -0.9996987203317935 -0.024545235114243624
12638266666.666666 -0.9998767564140744 -0.015699426190502293 8.001696882439887e-17 -2.2727357903654794e-17 8.001696882439887e-17 -2.2727357903654794e-17 -0.9998767464010793 -0.015700063892595817
12638884000.0 -0.9999765177407496 -0.006853026114373686 7.979509917858218e-17 -2.3436867007263342e-17 7.979509917858218e-17 -2.3436867007263342e-17 -0.9999765133700316 -0.006853663848940902
12639501333.333334 -0.9999980121587274 0.0019939103371977625 7.95669438745547e-17 -2.414422725446125e-17 7.95669438745547e-17 -2.414422725446125e-17 -0.9999980134300775 0.001993272620072278
12640118666.666666 -0.9999412379857292 0.0108406907255282 7.933252358424497e-17 -2.4849383009395543e-17 7.933252358424497e-17 -2.4849383009395543e-17 -0.999941244898496 0.010840053075753624
12640736000.0 -0.9998061996654576 0.019686622624376905 7.909185947157361e-17 -2.555227883393459e-17 7.909185947157361e-17 -2.555227883393459e-17 -0.9998062122185492 0.019685985091852272
12641353333.333334 -0.9995929077672563 0.02853101367357325 7.884497319058757e-17 -2.625285949197011e-17 7.884497319058757e-17 -2.625285949197011e-17 -0.9995929259591388 0.028530376308183534
12641970666.666666 -0.9993013789852744 0.037373171633775196 7.859188688352572e-17 -2.6951069953788624e-17 7.859188688352572e-17 -2.6951069953788624e-17 -0.9993014028139748 0.03737253448538747
12642588000.0 -0.9989316361371693 0.04621240444033756 7.833262317886634e-17 -2.764685540036901e-17 7.833262317886634e-17 -2.764685540036901e-17 -0.9989316656002706 0.04621176755879694
12643205333.333334 -0.9984837081623101 0.05504802025762091 7.806720518933469e-17 -2.834016122766353e-17 7.806720518933469e-17 -2.834016122766353e-17 -0.9984837432569561 0.055047383692746824
12643822666.666666 -0.9979576301195162 0.06387932753308379 7.77956565098633e-17 -2.9030933050889185e-17 7.77956565098633e-17 -2.9030933050889185e-17 -0.9979576708424112 0.06387869133466605
12644440000.0 -0.9973534431843178 0.07270563505138158 7.751800121552636e-17 -2.9719116708766593e-17 7.751800121552636e-17 -2.9719116708766593e-17 -0.9973534895317251 0.07270499926917645
12645057333.333334 -0.9966711946457357 0.08152625198843863 7.723426385942692e-17 -3.0404658267765875e-17 7.723426385942692e-17 -3.0404658267765875e-17 -0.9966712466134773 0.0815256166721648
12645674666.666666 -0.995910937902568 0.09034048796563145 7.694446947055594e-17 -3.108750402630852e-17 7.694446947055594e-17 -3.108750402630852e-17 -0.9959109954860281 0.09033985316496643
12646292000.0 -0.9950727324592102 0.09914765310385208 7.664864355159885e-17 -3.176760051898617e-17 7.664864355159885e-17 -3.176760051898617e-17 -0.9950727956533346 0.09914701886842824
12646909333.333334 -0.9941566439210214 0.10794705807724952 7.63468120767298e-17 -3.2444894520702575e-17 7.63468120767298e-17 -3.2444894520702575e-17 -0.9941567127203162 0.10794642445665004
12647526666.666666 -0.9931627439891626 0.11673801416743668 7.603900148934108e-17 -3.311933305085741e-17 7.603900148934108e-17 -3.311933305085741e-17 -0.9931628183876966 0.11673738121119183
12648144000.0 -0.9920911104549923 0.12551983331736774 7.572523869975672e-17 -3.379086337746363e-17 7.572523869975672e-17 -3.379086337746363e-17 -0.9920911904463957 0.12551920107495093
12648761333.333334 -0.9909418271939878 0.13429182818504967 7.54055510829022e-17 -3.4459433021258443e-17 7.54055510829022e-17 -3.4459433021258443e-17 -0.9909419127714525 0.13429119670587342
12649378666.666666 -0.9897149841591663 0.1430533121974525 7.507996647594094e-17 -3.5124989759788415e-17 7.507996647594094e-17 -3.5124989759788415e-17 -0.9897150753154509 0.1430526815308652
12649996000.0 -0.9884106773740565 0.15180359960421907 7.47485131758633e-17 -3.578748163149581e-17 7.47485131758633e-17 -3.578748163149581e-17 -0.9884107741014827 0.15180296979950053
12650613333.333334 -0.9870290089251722 0.1605420055313656 7.441121993705766e-17 -3.644685693974408e-17 7.441121993705766e-17 -3.644685693974408e-17 -0.9870291112156243 0.1605413766377231
12651230666.666666 -0.985570086954047 0.16926784603471687 7.406811596883753e-17 -3.710306425684004e-17 7.406811596883753e-17 -3.710306425684004e-17 -0.985570194798977 0.16926721810128192
12651848000.0 -0.9840340256487125 0.1779804381538314 7.371923093292344e-17 -3.77560524280518e-17 7.371923093292344e-17 -3.77560524280518e-17 -0.9840341390391374 0.1779798112296554
12652465333.333334 -0.9824209452348236 0.1866790999650343 7.336459494091e-17 -3.8405770575563525e-17 7.336459494091e-17 -3.8405770575563525e-17 -0.9824210641613289 0.18667847409908508
12653082666.666666 -0.9807309719662389 0.19536315063490414 7.300423855168299e-17 -3.905216810243575e-17 7.300423855168299e-17 -3.905216810243575e-17 -0.9807310964189753 0.19536252587606157
12653700000.0 -0.9789642381150836 0.20403191047381092 7.263819276880162e-17 -3.969519469654185e-17 7.263819276880162e-17 -3.969519469654185e-17 -0.9789643680837724 0.20403128687086386
12654317333.333334 -0.9771208819614833 0.21268470098869702 7.226648903786194e-17 -4.033480033445099e-17 7.226648903786194e-17 -4.033480033445099e-17 -0.9771210174354141 0.21268407859033892
12654934666.666666 -0.9752010477826617 0.22132084493657195 7.188915924380632e-17 -4.097093528532426e-17 7.188915924380632e-17 -4.097093528532426e-17 -0.9752011887506937 0.22132022379139707
12655552000.0 -0.9732048858416779 0.22993966637735128 7.150623570820221e-17 -4.1603550114776904e-17 7.150623570820221e-17 -4.1603550114776904e-17 -0.9732050322922422 0.22993904653385117
12656169333.333334 -0.9711325523756996 0.23854049072662362 7.111775118651024e-17 -4.2232595688677005e-17 7.111775118651024e-17 -4.2232595688677005e-17 -0.9711327042968003 0.23853987223318354
12656786666.666666 -0.9689842095837232 0.2471226448087 7.072373886528461e-17 -4.285802317697804e-17 7.072373886528461e-17 -4.285802317697804e-17 -0.968984366962936 0.24712202771359443
12657404000.0 -0.9667600256139101 0.2556854569091349 7.032423235936469e-17 -4.3479784057482513e-17 7.032423235936469e-17 -4.3479784057482513e-17 -0.9667601884383846 0.25568484126052415
12658021333.333334 -0.9644601745503845 0.2642282568274657 6.991926570901786e-17 -4.4097830119606006e-17 6.991926570901786e-17 -4.4097830119606006e-17 -0.9644603428068476 0.2642276426733928
12658638666.666666 -0.9620848363996956 0.2727503759293684 6.950887337707121e-17 -4.4712113468081233e-17 6.950887337707121e-17 -4.4712113468081233e-17 -0.9620850100744472 0.27274976331775386
12659256000.0 -0.9596341970766133 0.28125114719937155 6.909309024597835e-17 -4.5322586526684506e-17 6.909309024597835e-17 -4.5322586526684506e-17 -0.959634376155534 0.2812505361780114
12659873333.333334 -0.9571084483896641 0.28972990529279197 6.86719516148863e-17 -4.592920204188654e-17 6.86719516148863e-17 -4.592920204188654e-17 -0.9571086328582097 0.28972929590935215
12660490666.666666 -0.9545077880261172 0.29818598658778084 6.824549319665089e-17 -4.653191308650521e-17 6.824549319665089e-17 -4.653191308650521e-17 -0.9545079778693258 0.2981853788897953
12661108000.0 -0.9518324195364065 0.30661872923764766 6.781375111481981e-17 -4.7130673063330796e-17 6.781375111481981e-17 -4.7130673063330796e-17 -0.951832614738895 0.3066181232725133
12661725333.333334 -0.9490825523183579 0.31502747322211744 6.737676190060341e-17 -4.7725435708696617e-17 6.737676190060341e-17 -4.7725435708696617e-17 -0.949082752864326 0.31502686903709093
12662342666.666666 -0.946258401600677 0.32341156039939667 6.693456248978673e-17 -4.831615509606002e-17 6.693456248978673e-17 -4.831615509606002e-17 -0.9462586074739083 0.3234109580415911
12662960000.0 -0.9433601884261541 0.33177033455752325 6.648719021963238e-17 -4.8902785639524385e-17 6.648719021963238e-17 -4.8902785639524385e-17 -0.943360399610017 0.3317697340739042
12663577333.333334 -0.9403881396343661 0.34010314146572806 6.603468282573763e-17 -4.9485282097353755e-17 6.603468282573763e-17 -4.9485282097353755e-17 -0.9403883561118135 0.3401025429031091
12664194666.666666 -0.9373424878438785 0.3484093289257457 6.557707843887552e-17 -5.006359957543726e-17 6.557707843887552e-17 -5.006359957543726e-17 -0.9373427095974527 0.3484087323307864
12664812000.0 -0.9342234714341026 0.3566882468227037 6.511441558179285e-17 -5.0637693530744115e-17 6.511441558179285e-17 -5.0637693530744115e-17 -0.9342236984459332 0.3566876522419045
12665429333.333334 -0.9310313345265856 0.36493924717613746 6.464673316598427e-17 -5.1207519774739296e-17 6.464673316598427e-17 -5.1207519774739296e-17 -0.9310315667783925 0.36493865465583664
12666046666.666666 -0.9277663269659628 0.3731616841905477 6.417407048843697e-17 -5.177303447676974e-17 6.417407048843697e-17 -5.177303447676974e-17 -0.9277665644390588 0.37316109377691836
12666664000.0 -0.9244287043003055 0.38135491430621293 6.369646722833685e-17 -5.233419416743163e-17 6.369646722833685e-17 -5.233419416743163e-17 -0.9244289469755949 0.3813543260452581
12667281333.333334 -0.9210187277612155 0.3895182962492927 6.32139634437682e-17 -5.2890955741880444e-17 6.32139634437682e-17 -5.2890955741880444e-17 -0.921018975619199 0.38951771018684284
12667898666.666666 -0.9175366642433451 0.3976511910821275 6.272659956835711e-17 -5.344327646314317e-17 6.272659956835711e-17 -5.344327646314317e-17 -0.9175369172641185 0.3976506072638364
12668516000.0 -0.9139827862834567 0.4057529622533507 6.223441640789233e-17 -5.399111396539226e-17 6.223441640789233e-17 -5.399111396539226e-17 -0.9139830444467142 0.4057523807246921
12669133333.333334 -0.9103573720392066 0.4138229756474495 6.173745513694653e-17 -5.4534426257155196e-17 6.173745513694653e-17 -5.4534426257155196e-17 -0.9103576353242421 0.4138223964537137
12669750666.666666 -0.9066607052672726 0.42186059963463235 6.123575729542559e-17 -5.507317172454455e-17 6.123575729542559e-17 -5.507317172454455e-17 -0.9066609736529808 0.4218600228209222
