! Parameters = {f0=12700.012000; bw=77.238000; Q=6100.000000; N=10; m_0_1=1.254750; m_1_1=0.056501; m_1_2=1.089562; m_2_2=0.055852; m_2_3=0.726525; m_2_8=-0.000199; m_2_9=0.036505; m_3_3=0.053915; m_3_4=0.615054; m_3_7=0.000401; m_3_8=-0.096687; m_3_9=-0.000199; m_4_4=0.050990; m_4_5=0.451389; m_4_6=0.003918; m_4_7=-0.117236; m_4_8=0.000401; m_5_5=0.051372; m_5_6=0.858744; m_5_7=0.003918; m_6_6=0.051371; m_6_7=0.451731; m_7_7=0.051004; m_7_8=0.615172; m_8_8=0.053913; m_8_9=0.726838; m_9_9=0.055847; m_9_10=1.090640; m_10_10=0.056491; m_10_11=1.255545}
!
! Created with skrf (http://scikit-rf.org).
# Hz S RI R 50.0 
!freq ReS11 ImS11 ReS21 ImS21 ReS12 ImS12 ReS22 ImS22
12607400000.0 -0.8501701332913773 -0.5265080668509734 9.92412757640536e-17 2.7089993058211197e-17 9.92412757640536e-17 2.7089993058211197e-17 -0.850169785214427 -0.5265086289020184
12608017333.333334 -0.8554299671464763 -0.5179184987115303 9.949191595538244e-17 2.6075134017326208e-17 9.949191595538244e-17 2.6075134017326208e-17 -0.8554296247648904 -0.517919064212186
12608634666.666666 -0.860603020595921 -0.5092763895381412 9.973218550232064e-17 2.5057980180618272e-17 9.973218550232064e-17 2.5057980180618272e-17 -0.8606026839438733 -0.5092769584307046
12609252000.0 -0.8656887688514231 -0.5005826160428817 9.996206366339993e-17 2.4038637447926198e-17 9.996206366339993e-17 2.4038637447926198e-17 -0.8656884379625035 -0.5005831882693114
12609869333.333334 -0.8706866959815353 -0.49183806017894394 1.001815307777821e-16 2.3017211903531933e-17 1.001815307777821e-16 2.3017211903531933e-17 -0.8706863708887446 -0.4918386356808655
12610486666.666666 -0.8755962949639002 -0.48304360905131216 1.0039056826686395e-16 2.199380980514413e-17 1.0039056826686395e-16 2.199380980514413e-17 -0.8755959756996509 -0.48304418777002606
12611104000.0 -0.8804170677368488 -0.4742001548265002 1.005891586357734e-16 2.096853757285091e-17 1.005891586357734e-16 2.096853757285091e-17 -0.880416754332955 -0.47420073670298446
12611721333.333334 -0.8851485252497074 -0.465308594642411 1.007772854747447e-16 1.9941501778103248e-17 1.007772854747447e-16 1.9941501778103248e-17 -0.885148217737388 -0.46530917961733037
12612338666.666666 -0.8897901875126126 -0.4563698305169816 1.0095493346039182e-16 1.8912809132635532e-17 1.0095493346039182e-16 1.8912809132635532e-17 -0.8897898859224851 -0.45637041853069166
12612956000.0 -0.8943415836451126 -0.4473847692568214 1.011220883568657e-16 1.7882566477387224e-17 1.011220883568657e-16 1.7882566477387224e-17 -0.894341288007192 -0.4473853602493763
12613573333.333334 -0.8988022519238822 -0.43835432236535127 1.0127873701689032e-16 1.685088077147037e-17 1.0127873701689032e-16 1.685088077147037e-17 -0.898801962267575 -0.43835491627650774
12614190666.666666 -0.9031717398296708 -0.42927940595010294 1.0142486738269995e-16 1.5817859081045652e-17 1.0142486738269995e-16 1.5817859081045652e-17 -0.9031714561837754 -0.4292800027193282
12614808000.0 -0.9074496040931386 -0.42016094062993786 1.0156046848685398e-16 1.4783608568249465e-17 1.0156046848685398e-16 1.4783608568249465e-17 -0.9074493264858396 -0.4201615401964149
12615425333.333334 -0.9116354107398822 -0.41099985144152423 1.016855304529419e-16 1.3748236480098003e-17 1.016855304529419e-16 1.3748236480098003e-17 -0.9116351391987497 -0.41100045374415833
12616042666.666666 -0.9157287351343876 -0.4017970677456496 1.0180004449617716e-16 1.2711850137375522e-17 1.0180004449617716e-16 1.2711850137375522e-17 -0.9157284696863743 -0.4017976727230749
12616660000.0 -0.9197291620231597 -0.39255352313283887 1.0190400292387377e-16 1.1674556923548105e-17 1.0190400292387377e-16 1.1674556923548105e-17 -0.9197289026945961 -0.39255413072342327
12617277333.333334 -0.9236362855768426 -0.3832701553286422 1.0199739913581447e-16 1.063646427364354e-17 1.0199739913581447e-16 1.063646427364354e-17 -0.9236360323934362 -0.383270765470495
12617894666.666666 -0.9274497094313265 -0.37394790609866485 1.0208022762450294e-16 9.597679663162182e-18 1.0208022762450294e-16 9.597679663162182e-18 -0.9274494624181597 -0.37394851872964285
12618512000.0 -0.931169046728121 -0.36458772115263416 1.021524839753064e-16 8.558310596941387e-18 1.021524839753064e-16 8.558310596941387e-18 -0.9311688059096472 -0.3645883362103474
12619129333.333334 -0.9347939201533816 -0.3551905500489857 1.022141648664816e-16 7.518464598079485e-18 1.022141648664816e-16 7.518464598079485e-18 -0.9347936855534246 -0.35519116747080465
12619746666.666666 -0.938323961976342 -0.3457573460981667 1.0226526806909044e-16 6.478249196821473e-18 1.0226526806909044e-16 6.478249196821473e-18 -0.9383237336180914 -0.34575796582122775
12620364000.0 -0.9417588140866019 -0.3362890662659504 1.0230579244680302e-16 5.43777191944831e-18 1.0230579244680302e-16 5.43777191944831e-18 -0.9417585919926111 -0.33628968822716243
12620981333.333334 -0.9450981280303679 -0.3267866710765949 1.0233573795558619e-16 4.397140277211743e-18 1.0233573795558619e-16 4.397140277211743e-18 -0.9450979122225539 -0.3267872952126464
12621598666.666666 -0.9483415650458934 -0.3172511245151625 1.0235510564328162e-16 3.356461755219661e-18 1.0235510564328162e-16 3.356461755219661e-18 -0.948341355545533 -0.3172517507625272
12622216000.0 -0.9514887960978301 -0.3076833939297513 1.0236389764907039e-16 2.315843801357658e-18 1.0236389764907039e-16 2.315843801357658e-18 -0.9514885929255597 -0.3076840222246955
12622833333.333334 -0.9545395019105753 -0.29808444993347 1.0236211720282451e-16 1.27539381522745e-18 1.0236211720282451e-16 1.27539381522745e-18 -0.9545393050863852 -0.2980850802120581
12623450666.666666 -0.957493373000659 -0.2884552663059726 1.0234976862434795e-16 2.3521913708300046e-19 1.0234976862434795e-16 2.3521913708300046e-19 -0.9574931825438942 -0.28845589850407405
12624068000.0 -0.9603501097081768 -0.2787968198945638 1.0232685732250377e-16 -8.045729632316653e-19 1.0232685732250377e-16 -8.045729632316653e-19 -0.9603499256375349 -0.27879745394785965
12624685333.333334 -0.9631094222271931 -0.26911009051507245 1.0229338979422984e-16 -1.8438752973388346e-18 1.0229338979422984e-16 -1.8438752973388346e-18 -0.9631092445607226 -0.2691107263590622
12625302666.666666 -0.9657710306350588 -0.2593960608527546 1.0224937362344383e-16 -2.8825807693097154e-18 1.0224937362344383e-16 -2.8825807693097154e-18 -0.9657708593901552 -0.2593966984227617
12625920000.0 -0.9683346649209476 -0.24965571636208175 1.0219481747983351e-16 -3.9205823867349335e-18 1.0219481747983351e-16 -3.9205823867349335e-18 -0.9683345001143556 -0.24965635559326177
12626537333.333334 -0.9708000650131055 -0.23989004516732015 1.0212973111753973e-16 -4.957773271681243e-18 1.0212973111753973e-16 -4.957773271681243e-18 -0.9707999066609123 -0.23989068599466568
12627154666.666666 -0.9731669808053026 -0.23010003796201328 1.0205412537372485e-16 -5.994046671690244e-18 1.0205412537372485e-16 -5.994046671690244e-18 -0.9731668289229422 -0.23010068032036196
12627772000.0 -0.9754351721822425 -0.22028668790834194 1.0196801216702881e-16 -7.029295970774279e-18 1.0196801216702881e-16 -7.029295970774279e-18 -0.9754350267844881 -0.22028733173238202
12628389333.333334 -0.9776044090438251 -0.21045099053675773 1.018714044959204e-16 -8.063414700307032e-18 1.018714044959204e-16 -8.063414700307032e-18 -0.9776042701447925 -0.2104516357610355
12629006666.666666 -0.9796744713285802 -0.20059394364460276 1.0176431643692947e-16 -9.096296550007652e-18 1.0176431643692947e-16 -9.096296550007652e-18 -0.9796743389417251 -0.2005945902035289
12629624000.0 -0.9816451490359503 -0.19071654719508055 1.0164676314277576e-16 -1.0127835378814479e-17 1.0164676314277576e-16 -1.0127835378814479e-17 -0.9816450231740653 -0.19071719502293658
12630241333.333334 -0.9835162422475912 -0.18081980321581284 1.0151876084038294e-16 -1.1157925225786244e-17 1.0151876084038294e-16 -1.1157925225786244e-17 -0.9835161229228053 -0.18082045224675786
12630858666.666666 -0.985287561147644 -0.17090471569724375 1.013803268287853e-16 -1.218646032096024e-17 1.013803268287853e-16 -1.218646032096024e-17 -0.985287448371423 -0.17090536586532154
12631476000.0 -0.9869589260420444 -0.16097229049050887 1.012314794769206e-16 -1.3213335096206583e-17 1.012314794769206e-16 -1.3213335096206583e-17 -0.9869588198251893 -0.16097294172965435
12632093333.333334 -0.988530167376688 -0.15102353520575937 1.0107223822132069e-16 -1.4238444196017295e-17 1.0107223822132069e-16 -1.4238444196017295e-17 -0.9885300677293307 -0.15102418744980478
12632710666.666666 -0.9900011257546518 -0.14105945910980233 1.0090262356368612e-16 -1.5261682488309386e-17 1.0090262356368612e-16 -1.5261682488309386e-17 -0.9900010326862593 -0.14106011229248497
12633328000.0 -0.9913716519524072 -0.13108107302346264 1.0072265706835229e-16 -1.628294507519778e-17 1.0072265706835229e-16 -1.628294507519778e-17 -0.9913715654717784 -0.13108172707843097
12633945333.333334 -0.9926416069348931 -0.12108938921945929 1.0053236135965106e-16 -1.7302127303714028e-17 1.0053236135965106e-16 -1.7302127303714028e-17 -0.9926415270501555 -0.12109004408027954
12634562666.666666 -0.993810861869655 -0.11108542131946095 1.0033176011916222e-16 -1.831912477650712e-17 1.0033176011916222e-16 -1.831912477650712e-17 -0.9938107885882688 -0.11108607691962441
12635180000.0 -0.9948792981399112 -0.10107018419131424 1.001208780828552e-16 -1.9333833362525108e-17 1.001208780828552e-16 -1.9333833362525108e-17 -0.9948792314686642 -0.10107084046424346
12635797333.333334 -0.9958468073565834 -0.09104469384608849 9.989974103812409e-17 -2.0346149207656508e-17 9.989974103812409e-17 -2.0346149207656508e-17 -0.9958467473015936 -0.09104535072514441
12636414666.666666 -0.9967132913692928 -0.08100996733500508 9.966837582071898e-17 -2.1355968745324858e-17 9.966837582071898e-17 -2.1355968745324858e-17 -0.9967132379360057 -0.08101062475349366
12637032000.0 -0.9974786622763182 -0.07096702264626126 9.942681031156077e-17 -2.2363188707091883e-17 9.942681031156077e-17 -2.2363188707091883e-17 -0.9974786154695067 -0.07096768053744017
12637649333.333334 -0.9981428424335103 -0.0609168786017584 9.917507343346155e-17 -2.336770613316916e-17 9.917507343346155e-17 -2.336770613316916e-17 -0.9981428022572755 -0.06091753689884397
12638266666.666666 -0.9987057644621709 -0.05086055475374641 9.89131951477301e-17 -2.4369418382936277e-17 9.89131951477301e-17 -2.4369418382936277e-17 -0.9987057309199407 -0.050861213389920314
12638884000.0 -0.9991673712558892 -0.040799071281393595 9.864120645067554e-17 -2.5368223145402266e-17 9.864120645067554e-17 -2.5368223145402266e-17 -0.999167344350418 -0.0407997301898096
12639501333.333334 -0.9995276159863319 -0.030733448887292916 9.835913937000081e-17 -2.636401844964846e-17 9.835913937000081e-17 -2.636401844964846e-17 -0.9995275957197011 -0.030734108001083723
12640118666.666666 -0.9997864621079949 -0.02066470869397219 9.806702696110343e-17 -2.735670267518461e-17 9.806702696110343e-17 -2.735670267518461e-17 -0.9997864484816116 -0.0206653679462562
12640736000.0 -0.9999438833619165 -0.01059387214002059 9.776490330324756e-17 -2.834617456235424e-17 9.776490330324756e-17 -2.834617456235424e-17 -0.9999438763765136 -0.010594531463908667
12641353333.333334 -0.9999998637783266 -0.000521960877035463 9.74528034956674e-17 -2.933233322257336e-17 9.74528034956674e-17 -2.933233322257336e-17 -0.9999998634339654 -0.0005226202056377798
12641970666.666666 -0.9999543976782832 0.009550003334588863 9.713076365353026e-17 -3.031507814865191e-17 9.713076365353026e-17 -3.031507814865191e-17 -0.9999544039743495 0.009549344068156105
12642588000.0 -0.9998074896742399 0.01962099872900264 9.679882090381805e-17 -3.129430922499968e-17 9.679882090381805e-17 -3.129430922499968e-17 -0.9998075026094466 0.0196203395916104
12643205333.333334 -0.9995591546695782 0.029690003638697348 9.645701338110484e-17 -3.226992673779069e-17 9.645701338110484e-17 -3.226992673779069e-17 -0.9995591742419652 0.029689344697196973
12643822666.666666 -0.9992094178570982 0.039755996598093535 9.610538022322127e-17 -3.324183138511793e-17 9.610538022322127e-17 -3.324183138511793e-17 -0.9992094440640309 0.03975533791930993
12644440000.0 -0.9987583147164587 0.049817956447136394 9.574396156682924e-17 -3.4209924287063204e-17 9.574396156682924e-17 -3.4209924287063204e-17 -0.9987583475546312 0.04981729809786132
12645057333.333334 -0.9982058910105831 0.059874862434889056 9.537279854289052e-17 -3.517410699573609e-17 9.537279854289052e-17 -3.517410699573609e-17 -0.998205930476017 0.05987420448187434
12645674666.666666 -0.997552202781019 0.06992569432308433 9.499193327202992e-17 -3.613428150527509e-17 9.499193327202992e-17 -3.613428150527509e-17 -0.9975522488690639 0.0699250368330351
12646292000.0 -0.9967973163422387 0.07996943248979442 9.460140885980076e-17 -3.709035026179091e-17 9.460140885980076e-17 -3.709035026179091e-17 -0.9967973690475729 0.0799687755293623
12646909333.333334 -0.9959413082749277 0.09000505803261273 9.420126939186214e-17 -3.804221617323284e-17 9.420126939186214e-17 -3.804221617323284e-17 -0.9959413675915585 0.09000440166838909
12647526666.666666 -0.9949842654182114 0.10003155287213147 9.379155992903823e-17 -3.898978261924889e-17 9.379155992903823e-17 -3.898978261924889e-17 -0.9949843313394766 0.10003089717064083
12648144000.0 -0.9939262848608368 0.1100478998553074 9.337232650228403e-17 -3.9932953460980014e-17 9.337232650228403e-17 -3.9932953460980014e-17 -0.9939263573794033 0.11004724488300029
12648761333.333334 -0.992767473931332 0.12005308285850631 9.294361610756773e-17 -4.0871633050766267e-17 9.294361610756773e-17 -4.0871633050766267e-17 -0.9927675530392 0.12005242868175302
12649378666.666666 -0.9915079501871257 0.130046086890586 9.250547670064022e-17 -4.180572624183594e-17 9.250547670064022e-17 -4.180572624183594e-17 -0.9915080358756273 0.13004543357566967
12649996000.0 -0.9901478414026057 0.14002589819597658 9.205795719170661e-17 -4.2735138397938736e-17 9.205795719170661e-17 -4.2735138397938736e-17 -0.9901479336624068 0.14002524580908637
12650613333.333334 -0.9886872855561496 0.14999150435754985 9.16011074400102e-17 -4.3659775402904366e-17 9.16011074400102e-17 -4.3659775402904366e-17 -0.98868738437725 0.14999085296477446
12651230666.666666 -0.9871264308161709 0.15994189439904474 9.113497824832342e-17 -4.457954367013879e-17 9.113497824832342e-17 -4.457954367013879e-17 -0.987126536187905 0.1599412440663653
12651848000.0 -0.9854654355260282 0.16987605888802088 9.065962135731887e-17 -4.549435015211085e-17 9.065962135731887e-17 -4.549435015211085e-17 -0.9854655474370668 0.16987540968130455
12652465333.333334 -0.9837044681879983 0.17979299003797977 9.017508943988328e-17 -4.6404102349704927e-17 9.017508943988328e-17 -4.6404102349704927e-17 -0.9837045866263524 0.17979234202297356
12653082666.666666 -0.9818437074462024 0.18969168181057608 8.968143609531362e-17 -4.7308708321562755e-17 8.968143609531362e-17 -4.7308708321562755e-17 -0.9818438323992201 0.18969103505289925
12653700000.0 -0.979883342068402 0.1995711300180661 8.917871584341332e-17 -4.8208076693373454e-17 8.917871584341332e-17 -4.8208076693373454e-17 -0.9798834735227724 0.19957048458320414
12654317333.333334 -0.9778235709269547 0.209430332424621 8.866698411852068e-17 -4.910211666705602e-17 8.866698411852068e-17 -4.910211666705602e-17 -0.9778237088687084 0.20942968837791878
12654934666.666666 -0.9756646029785686 0.2192682888483914 8.814629726342617e-17 -4.9990738029914265e-17 8.814629726342617e-17 -4.9990738029914265e-17 -0.9756647473930787 0.21926764625504636
12655552000.0 -0.9734066572431014 0.22908400126294295 8.761671252319774e-17 -5.0873851163727445e-17 8.761671252319774e-17 -5.0873851163727445e-17 -0.973406808115088 0.22908336018799927
12656169333.333334 -0.9710499627814038 0.23887647389825428 8.707828803893649e-17 -5.175136705374165e-17 8.707828803893649e-17 -5.175136705374165e-17 -0.9710501200949315 0.2388758344065954
12656786666.666666 -0.968594758672022 0.24864471334198324 8.653108284141381e-17 -5.262319729764195e-17 8.653108284141381e-17 -5.262319729764195e-17 -0.9685949224105047 0.2486440754983257
12657404000.0 -0.9660412939869486 0.2583877286402167 8.597515684463413e-17 -5.348925411443349e-17 8.597515684463413e-17 -5.348925411443349e-17 -0.96604146413315 0.25838709250910386
12658021333.333334 -0.9633898277663859 0.2681045313978902 8.541057083931382e-17 -5.434945035324759e-17 8.541057083931382e-17 -5.434945035324759e-17 -0.9633900043024205 0.2681038970436849
12658638666.666666 -0.960640628992472 0.27779413587902907 8.483738648626778e-17 -5.5203699502086874e-17 8.483738648626778e-17 -5.5203699502086874e-17 -0.9606408118998085 0.2777935033659079
12659256000.0 -0.9577939765619294 0.2874555591069953 8.425566630969428e-17 -5.605191569652263e-17 8.425566630969428e-17 -5.605191569652263e-17 -0.9577941658213925 0.28745492849894194
12659873333.333334 -0.9548501592578357 0.29708782096395947 8.366547369039407e-17 -5.689401372829065e-17 8.366547369039407e-17 -5.689401372829065e-17 -0.954850354849607 0.2970871923247581
12660490666.666666 -0.9518094757203454 0.30668994429030616 8.306687285890574e-17 -5.772990905381403e-17 8.306687285890574e-17 -5.772990905381403e-17 -0.9518096776239654 0.30668931768353463
12661108000.0 -0.9486722344162654 0.31626095498414014 8.245992888852298e-17 -5.855951780270101e-17 8.245992888852298e-17 -5.855951780270101e-17 -0.9486724426106377 0.3162603304731643
12661725333.333334 -0.9454387536079417 0.32579988209956545 8.184470768827595e-17 -5.93827567861022e-17 8.184470768827595e-17 -5.93827567861022e-17 -0.9454389680713338 0.3257992597475326
12662342666.666666 -0.9421093613208399 0.33530575794559087 8.122127599578717e-17 -6.019954350505237e-17 8.122127599578717e-17 -6.019954350505237e-17 -0.942109582030885 0.3353051378154228
12662960000.0 -0.9386843953103216 0.34477761818413594 8.058970137006326e-17 -6.100979615871243e-17 8.058970137006326e-17 -6.100979615871243e-17 -0.9386846222440205 0.3447770003385227
12663577333.333334 -0.9351642030273772 0.354214501927859 7.995005218421137e-17 -6.18134336525267e-17 7.995005218421137e-17 -6.18134336525267e-17 -0.9351644361611029 0.35421388642925317
12664194666.666666 -0.9315491415833427 0.3636154518377438 7.930239761805951e-17 -6.261037560632509e-17 7.930239761805951e-17 -6.261037560632509e-17 -0.9315493808928421 0.36361483874835404
12664812000.0 -0.9278395777137325 0.3729795142200587 7.864680765070474e-17 -6.34005423623369e-17 7.864680765070474e-17 -6.34005423623369e-17 -0.9278398231741276 0.3729789036018428
12665429333.333334 -0.9240358877409818 0.3823057391232377 7.798335305298039e-17 -6.418385499312913e-17 7.798335305298039e-17 -6.418385499312913e-17 -0.9240361393267722 0.38230513103789665
12666046666.666666 -0.9201384575363335 0.39159318043409075 7.731210537984609e-17 -6.496023530946436e-17 7.731210537984609e-17 -6.496023530946436e-17 -0.9201387152214016 0.39159257494306304
12666664000.0 -0.916147682480576 0.4008408959740742 7.663313696268855e-17 -6.572960586809203e-17 7.663313696268855e-17 -6.572960586809203e-17 -0.9161479462381871 0.4008402931385288
12667281333.333334 -0.9120639674240973 0.4100479475944779 7.5946520901574e-17 -6.649188997942782e-17 7.5946520901574e-17 -6.649188997942782e-17 -0.9120642372269032 0.41004734747530847
12667898666.666666 -0.9078877266456583 0.41921340127196294 7.525233105738801e-17 -6.72470117151929e-17 7.525233105738801e-17 -6.72470117151929e-17 -0.9078880024657006 0.41921280392978183
12668516000.0 -0.903619383810429 0.428336327203157 7.455064204391872e-17 -6.799489591595004e-17 7.455064204391872e-17 -6.799489591595004e-17 -0.9036196656191419 0.4283357326982889
12669133333.333334 -0.8992593719270735 0.4374157998988524 7.384152921987362e-17 -6.87354681985494e-17 7.384152921987362e-17 -6.87354681985494e-17 -0.899259659695287 0.43741520829132885
12669750666.666666 -0.8948081333037171 0.44645089827812734 7.312506868080491e-17 -6.946865496350998e-17 7.312506868080491e-17 -6.946865496350998e-17 -0.8948084270016569 0.44645030962767845
