! Parameters = {f0=12700.012000; bw=77.238000; Q=6100.000000; N=10; m_0_1=1.264560; m_1_1=0.203648; m_1_2=1.099372; m_2_2=0.202999; m_2_3=0.736335; m_2_8=0.000292; m_2_9=0.036996; m_3_3=0.201062; m_3_4=0.624864; m_3_7=0.000892; m_3_8=-0.096196; m_3_9=0.000292; m_4_4=0.198137; m_4_5=0.461199; m_4_6=0.004409; m_4_7=-0.116745; m_4_8=0.000892; m_5_5=0.198519; m_5_6=0.868554; m_5_7=0.004409; m_6_6=0.198518; m_6_7=0.461541; m_7_7=0.198151; m_7_8=0.624982; m_8_8=0.201060; m_8_9=0.736648; m_9_9=0.202994; m_9_10=1.100450; m_10_10=0.203638; m_10_11=1.265355}
!
! Created with skrf (http://scikit-rf.org).
# Hz S RI R 50.0 
!freq ReS11 ImS11 ReS21 ImS21 ReS12 ImS12 ReS22 ImS22
12607400000.0 -0.612793461803338 -0.7902431101698422 8.753055268541769e-17 6.291221650207758e-17 8.753055268541769e-17 6.291221650207758e-17 -0.612792935299722 -0.7902435184464192
12608017333.333334 -0.6209490053686363 -0.7838509633415814 8.816597461120807e-17 6.198189268847866e-17 8.816597461120807e-17 6.198189268847866e-17 -0.6209484831493889 -0.7838513770315761
12608634666.666666 -0.6290378761271563 -0.7773746525307225 8.879151771036713e-17 6.104516319607646e-17 8.879151771036713e-17 6.104516319607646e-17 -0.629037358247927 -0.7773750715891876
12609252000.0 -0.6370592055572445 -0.7708148731145484 8.940711753844666e-17 6.010213283046905e-17 8.940711753844666e-17 6.010213283046905e-17 -0.6370586920732118 -0.7708152974959657
12609869333.333334 -0.6450121323892818 -0.7641723294326067 9.001271076191753e-17 5.915290704418164e-17 9.001271076191753e-17 5.915290704418164e-17 -0.6450116233551464 -0.76417275909089
12610486666.666666 -0.6528958026982038 -0.7574477347110444 9.060823516463546e-17 5.819759192492175e-17 9.060823516463546e-17 5.819759192492175e-17 -0.652895298168184 -0.7574481695995462
12611104000.0 -0.6607093699952541 -0.750641810985972 9.11936296542251e-17 5.723629418370275e-17 9.11936296542251e-17 5.723629418370275e-17 -0.6607088700230784 -0.7506422510574873
12611721333.333334 -0.6684519953187417 -0.7437552890260468 9.176883426827337e-17 5.626912114300714e-17 9.176883426827337e-17 5.626912114300714e-17 -0.6684514999576449 -0.743755734232819
12612338666.666666 -0.6761228473241693 -0.736788908253974 9.233379018046064e-17 5.5296180724787e-17 9.233379018046064e-17 5.5296180724787e-17 -0.6761223566268856 -0.7367893585477001
12612956000.0 -0.683721102373664 -0.7297434166669591 9.288843970653261e-17 5.4317581438455054e-17 9.288843970653261e-17 5.4317581438455054e-17 -0.6837206163924213 -0.7297438719987941
12613573333.333334 -0.6912459446240548 -0.7226195707567182 9.343272631013212e-17 5.333343236884078e-17 9.343272631013212e-17 5.333343236884078e-17 -0.6912454634105701 -0.7226200310772812
12614190666.666666 -0.6986965661148296 -0.7154181354279268 9.396659460854782e-17 5.234384316401157e-17 9.396659460854782e-17 5.234384316401157e-17 -0.6986960897203028 -0.7154186006873063
12614808000.0 -0.7060721668547186 -0.7081398839162417 9.448999037828872e-17 5.1348924023116595e-17 9.448999037828872e-17 5.1348924023116595e-17 -0.7060716953298272 -0.7081403540640009
12615425333.333334 -0.7133719549075526 -0.7007855977053192 9.50028605605619e-17 5.0348785684119545e-17 9.50028605605619e-17 5.0348785684119545e-17 -0.7133714883024466 -0.7007860726905014
12616042666.666666 -0.7205951464774377 -0.6933560664427664 9.550515326660446e-17 4.934353941150665e-17 9.550515326660446e-17 4.934353941150665e-17 -0.7205946848417332 -0.6933565462138997
12616660000.0 -0.7277409659927503 -0.6858520878555121 9.599681778288588e-17 4.83332969839422e-17 9.599681778288588e-17 4.83332969839422e-17 -0.7277405093755256 -0.6858525723606169
12617277333.333334 -0.7348086461895912 -0.6782744676639724 9.647780457619544e-17 4.731817068184283e-17 9.647780457619544e-17 4.731817068184283e-17 -0.7348081946393817 -0.678274956850566
12617894666.666666 -0.7417974281939184 -0.6706240194958089 9.694806529857034e-17 4.629827327495939e-17 9.694806529857034e-17 4.629827327495939e-17 -0.7417969817587088 -0.6706245133109096
12618512000.0 -0.7487065616033889 -0.662901564798165 9.74075527921346e-17 4.5273718009822113e-17 9.74075527921346e-17 4.5273718009822113e-17 -0.7487061203306125 -0.6629020631883017
12619129333.333334 -0.7555353045675183 -0.6551079327499348 9.785622109375336e-17 4.424461859725207e-17 9.785622109375336e-17 4.424461859725207e-17 -0.7555348685040476 -0.6551084356611483
12619746666.666666 -0.7622829238676516 -0.6472439601723674 9.829402543960458e-17 4.321108919971871e-17 9.829402543960458e-17 4.321108919971871e-17 -0.7622824930597958 -0.6472444675502194
12620364000.0 -0.7689486949956359 -0.6393104914392795 9.872092226959228e-17 4.2173244418708316e-17 9.872092226959228e-17 4.2173244418708316e-17 -0.7689482694891359 -0.6393110032288577
12620981333.333334 -0.7755319022313902 -0.6313083783866538 9.913686923161692e-17 4.1131199282075244e-17 9.913686923161692e-17 4.1131199282075244e-17 -0.7755314820714121 -0.6313088945325763
12621598666.666666 -0.7820318387200667 -0.6232384802208039 9.954182518574518e-17 4.0085069231272725e-17 9.954182518574518e-17 4.0085069231272725e-17 -0.7820314239511991 -0.6232390006672281
12622216000.0 -0.7884478065477099 -0.615101663426405 9.99357502082172e-17 3.903497010861093e-17 9.99357502082172e-17 3.903497010861093e-17 -0.7884473972139581 -0.6151021881170311
12622833333.333334 -0.7947791168163736 -0.6068988016732362 1.0031860559532834e-16 3.798101814445677e-17 1.0031860559532834e-16 3.798101814445677e-17 -0.7947787129611553 -0.6068993305513148
12623450666.666666 -0.8010250897178786 -0.5986307757226402 1.0069035386718053e-16 3.692332994438498e-17 1.0069035386718053e-16 3.692332994438498e-17 -0.8010246913840186 -0.5986313087309775
12624068000.0 -0.8071850546070128 -0.5902984733326841 1.0105095877129174e-16 3.5862022476310185e-17 1.0105095877129174e-16 3.5862022476310185e-17 -0.8071846618367396 -0.5902990104136489
12624685333.333334 -0.8132583500735064 -0.5819027891628833 1.014003852860826e-16 3.4797213057550115e-17 1.014003852860826e-16 3.4797213057550115e-17 -0.8132579629084454 -0.5819033302584117
12625302666.666666 -0.8192443240128261 -0.5734446246784358 1.0173859962420048e-16 3.372901934193358e-17 1.0173859962420048e-16 3.372901934193358e-17 -0.8192439424939989 -0.5734451697300397
12625920000.0 -0.8251423336965652 -0.564924888052926 1.0206556923574635e-16 3.2657559306761133e-17 1.0206556923574635e-16 3.2657559306761133e-17 -0.8251419578643822 -0.564925437001698
12626537333.333334 -0.8309517458410887 -0.5563444940713187 1.0238126281132813e-16 3.1582951239848443e-17 1.0238126281132813e-16 3.1582951239848443e-17 -0.8309513757353455 -0.5563450468579385
12627154666.666666 -0.8366719366757617 -0.5477043640314135 1.0268565028499676e-16 3.050531372648297e-17 1.0268565028499676e-16 3.050531372648297e-17 -0.8366715723356355 -0.5477049205961546
12627772000.0 -0.8423022920098898 -0.5390054256449665 1.0297870283705307e-16 2.942476563632389e-17 1.0297870283705307e-16 2.942476563632389e-17 -0.8423019334739354 -0.5390059859277028
12628389333.333334 -0.8478422072985583 -0.530248612938247 1.0326039289668811e-16 2.8341426110378434e-17 1.0326039289668811e-16 2.8341426110378434e-17 -0.8478418546047025 -0.5302491768784587
12629006666.666666 -0.8532910877077254 -0.521434866151461 1.0353069414452278e-16 2.7255414547824912e-17 1.0353069414452278e-16 2.7255414547824912e-17 -0.8532907408932661 -0.5214354336882427
12629624000.0 -0.8586483481778836 -0.5125651316381338 1.0378958151498037e-16 2.6166850592918243e-17 1.0378958151498037e-16 2.6166850592918243e-17 -0.8586480072794818 -0.5125657027101985
12630241333.333334 -0.863913413487068 -0.5036403617631807 1.0403703119853503e-16 2.5075854121823964e-17 1.0403703119853503e-16 2.5075854121823964e-17 -0.863913078540747 -0.5036409363088687
12630858666.666666 -0.869085718312418 -0.49466151480099324 1.0427302064382122e-16 2.398254522943804e-17 1.0427302064382122e-16 2.398254522943804e-17 -0.8690853893535588 -0.494662092758278
12631476000.0 -0.8741647072911498 -0.48562955483207926 1.0449752855960486e-16 2.2887044216181718e-17 1.0449752855960486e-16 2.2887044216181718e-17 -0.8741643843544855 -0.4856301361385729
12632093333.333334 -0.8791498350798876 -0.4765454516400645 1.0471053491661242e-16 2.1789471574803206e-17 1.0471053491661242e-16 2.1789471574803206e-17 -0.879149518199502 -0.4765460362330264
12632710666.666666 -0.8840405664134157 -0.4674101806072189 1.0491202094922268e-16 2.0689947977154383e-17 1.0491202094922268e-16 2.0689947977154383e-17 -0.8840402556227407 -0.46741076842356244
12633328000.0 -0.8888363761621113 -0.4582247226098032 1.0510196915702855e-16 1.9588594260911508e-17 1.0510196915702855e-16 1.9588594260911508e-17 -0.8888360714939202 -0.4582253135861008
12633945333.333334 -0.893536749388299 -0.44899006391279667 1.0528036330624591e-16 1.848553141635453e-17 1.0528036330624591e-16 1.848553141635453e-17 -0.8935364508747048 -0.44899065798528826
12634562666.666666 -0.8981411814015677 -0.43970719606395126 1.0544718843099216e-16 1.738088057309323e-17 1.0544718843099216e-16 1.738088057309323e-17 -0.8981408890740191 -0.4397077931685501
12635180000.0 -0.9026491778129088 -0.4303771157874269 1.0560243083442693e-16 1.627476298677425e-17 1.0560243083442693e-16 1.627476298677425e-17 -0.9026488917021888 -0.4303777158597277
12635797333.333334 -0.9070602545879037 -0.4210008248765689 1.057460780897502e-16 1.5167300025800572e-17 1.057460780897502e-16 1.5167300025800572e-17 -0.907059974724123 -0.42100142785185346
12636414666.666666 -0.9113739380985453 -0.4115793300866487 1.0587811904105957e-16 1.4058613158058853e-17 1.0587811904105957e-16 1.4058613158058853e-17 -0.9113736645111408 -0.41157993589989306
12637032000.0 -0.9155897651742608 -0.40211364302640573 1.059985438040772e-16 1.294882393758114e-17 1.059985438040772e-16 1.294882393758114e-17 -0.9155894978919945 -0.40211425161228853
12637649333.333334 -0.9197072831515037 -0.3926047800497397 1.0610734376672692e-16 1.1838053991277355e-17 1.0610734376672692e-16 1.1838053991277355e-17 -0.9197070222024577 -0.3926053913426482
12638266666.666666 -0.9237260499224619 -0.38305376214634845 1.0620451158957992e-16 1.0726425005604948e-17 1.0620451158957992e-16 1.0726425005604948e-17 -0.9237257953340335 -0.38305437608038506
12638884000.0 -0.9276456339824323 -0.3734616148323088 1.062900412061584e-16 9.614058713270418e-18 1.062900412061584e-16 9.614058713270418e-18 -0.9276453857813357 -0.3734622313412994
12639501333.333334 -0.9314656144762493 -0.3638293680397576 1.0636392782309918e-16 8.501076879927869e-18 1.0636392782309918e-16 8.501076879927869e-18 -0.9314653726885082 -0.3638299870572574
12640118666.666666 -0.9351855812433678 -0.3541580560065392 1.0642616792018058e-16 7.387601290870232e-18 1.0642616792018058e-16 7.387601290870232e-18 -0.9351853458943165 -0.35415867746584134
12640736000.0 -0.9388051348620425 -0.34444871716481507 1.0647675925021023e-16 6.273753737702242e-18 1.0647675925021023e-16 6.273753737702242e-18 -0.9388049059763217 -0.344449340998957
12641353333.333334 -0.942323886692045 -0.33470239403001606 1.0651570083877077e-16 5.159656005090651e-18 1.0651570083877077e-16 5.159656005090651e-18 -0.9423236642935964 -0.33470302017178594
12641970666.666666 -0.9457414589165162 -0.3249201330885577 1.0654299298383086e-16 4.045429857432538e-18 1.0654299298383086e-16 4.045429857432538e-18 -0.9457412430285854 -0.32492076147050336
12642588000.0 -0.9490574845825178 -0.3151029846855306 1.0655863725521521e-16 2.9311970255795137e-18 1.0655863725521521e-16 2.9311970255795137e-18 -0.949057275227649 -0.3151036152399659
12643205333.333334 -0.9522716076403681 -0.30525200291211046 1.065626364939362e-16 1.817079193567714e-18 1.065626364939362e-16 1.817079193567714e-18 -0.9522714048404004 -0.30525263557112203
12643822666.666666 -0.9553834829819682 -0.2953682454920804 1.065549948113871e-16 7.031979853490179e-19 1.065549948113871e-16 7.031979853490179e-19 -0.9553832867580355 -0.29536888018753604
12644440000.0 -0.9583927764777859 -0.28545277366847666 1.0653571758839748e-16 -4.1032504846901366e-19 1.0653571758839748e-16 -4.1032504846901366e-19 -0.9583925868503147 -0.28545341033203225
12645057333.333334 -0.9612991650127208 -0.2755066520896962 1.0650481147414981e-16 -1.5233684438427847e-18 1.0650481147414981e-16 -1.5233684438427847e-18 -0.9612989820014262 -0.2755072906528025
12645674666.666666 -0.964102336520851 -0.26553094869499105 1.0646228438495828e-16 -2.6358108365400778e-18 1.0646228438495828e-16 -2.6358108365400778e-18 -0.9641021601447373 -0.2655315890889021
12646292000.0 -0.9668019900189359 -0.2555267345998295 1.0640814550290926e-16 -3.7475309753622975e-18 1.0640814550290926e-16 -3.7475309753622975e-18 -0.9668018202962916 -0.2555273767556091
12646909333.333334 -0.9693978356386902 -0.24549508398102307 1.0634240527436609e-16 -4.858407735288735e-18 1.0634240527436609e-16 -4.858407735288735e-18 -0.9693976725870885 -0.24549572782955284
12647526666.666666 -0.9718895946579281 -0.23543707396133637 1.0626507540833336e-16 -5.968320130698695e-18 1.0626507540833336e-16 -5.968320130698695e-18 -0.9718894382942236 -0.23543771943332273
12648144000.0 -0.9742769995305273 -0.225353784493667 1.0617616887468605e-16 -7.07714732851277e-18 1.0617616887468605e-16 -7.07714732851277e-18 -0.9742768498708575 -0.22535443151964937
12648761333.333334 -0.9765597939151132 -0.21524629824528305 1.0607569990226211e-16 -8.184768661303265e-18 1.0607569990226211e-16 -8.184768661303265e-18 -0.9765596509748908 -0.21524694675564013
12649378666.666666 -0.9787377327025589 -0.205115700481656 1.0596368397681718e-16 -9.291063640423785e-18 1.0596368397681718e-16 -9.291063640423785e-18 -0.9787375964964752 -0.2051163504066141
12649996000.0 -0.9808105820423825 -0.1949630789496018 1.058401378388434e-16 -1.0395911969083879e-17 1.058401378388434e-16 -1.0395911969083879e-17 -0.9808104525844045 -0.1949637302192423
12650613333.333334 -0.9827781193677868 -0.18478952376079139 1.0570507948125072e-16 -1.1499193555421812e-17 1.0570507948125072e-16 -1.1499193555421812e-17 -0.9827779966711563 -0.18479017630505828
12651230666.666666 -0.984640133419586 -0.17459612727459303 1.0555852814691785e-16 -1.260078852549877e-17 1.0555852814691785e-16 -1.260078852549877e-17 -0.984640017496815 -0.17459678102329967
12651848000.0 -0.9863964242688893 -0.16438398398072468 1.0540050432609726e-16 -1.3700577236351206e-17 1.0540050432609726e-16 -1.3700577236351206e-17 -0.986396315131764 -0.16438463886356264
12652465333.333334 -0.9880468033385703 -0.15415419038176595 1.0523102975369608e-16 -1.4798440288925944e-17 1.0523102975369608e-16 -1.4798440288925944e-17 -0.9880467009981464 -0.15415484632831156
12653082666.666666 -0.9895910934234771 -0.14390784487564762 1.0505012740641911e-16 -1.589425854101068e-17 1.0505012740641911e-16 -1.589425854101068e-17 -0.9895909978900786 -0.14390850181536988
12653700000.0 -0.9910291287095345 -0.1336460476372082 1.0485782149976808e-16 -1.6987913120191026e-17 1.0485782149976808e-16 -1.6987913120191026e-17 -0.9910290399927555 -0.13364670549947655
12654317333.333334 -0.9923607547914605 -0.12336990050068455 1.046541374849248e-16 -1.8079285436656696e-17 1.046541374849248e-16 -1.8079285436656696e-17 -0.9923606729001606 -0.1233705592147761
12654934666.666666 -0.9935858286894113 -0.1130805068409268 1.0443910204548277e-16 -1.9168257196088228e-17 1.0443910204548277e-16 -1.9168257196088228e-17 -0.9935857536317174 -0.11308116633603421
12655552000.0 -0.9947042188643195 -0.10277897145501019 1.042127430940538e-16 -2.0254710412446552e-17 1.042127430940538e-16 -2.0254710412446552e-17 -0.9947041506476231 -0.10277963166024906
12656169333.333334 -0.9957158052319773 -0.09246640044394931 1.0397508976874846e-16 -2.1338527420697596e-17 1.0397508976874846e-16 -2.1338527420697596e-17 -0.9957157438629359 -0.09246706128836601
12656786666.666666 -0.9966204791759882 -0.08214390109345333 1.037261724295072e-16 -2.241959088958264e-17 1.037261724295072e-16 -2.241959088958264e-17 -0.9966204246605217 -0.08214456250603248
12657404000.0 -0.9974181435593853 -0.07181258175540135 1.0346602265431697e-16 -2.3497783834258524e-17 1.0346602265431697e-16 -2.3497783834258524e-17 -0.9974180959026794 -0.07181324366507356
12658021333.333334 -0.9981087127350918 -0.06147355172855299 1.0319467323528228e-16 -2.4572989628963013e-17 1.0319467323528228e-16 -2.4572989628963013e-17 -0.9981086719415954 -0.061474214064202455
12658638666.666666 -0.9986921125550896 -0.05112792113980888 1.0291215817458068e-16 -2.5645092019568425e-17 1.0291215817458068e-16 -2.5645092019568425e-17 -0.998692078628511 -0.051128583830280815
12659256000.0 -0.9991682803784065 -0.04077680082453114 1.026185126802665e-16 -2.6713975136177646e-17 1.026185126802665e-16 -2.6713975136177646e-17 -0.9991682533217198 -0.04077746379863977
12659873333.333334 -0.9995371650778272 -0.03042130220761099 1.0231377316196547e-16 -2.777952350558852e-17 1.0231377316196547e-16 -2.777952350558852e-17 -0.9995371448932668 -0.03042196539414699
12660490666.666666 -0.9997987270453783 -0.020062537184217584 1.0199797722643418e-16 -2.88416220637365e-17 1.0199797722643418e-16 -2.88416220637365e-17 -0.9997987137344411 -0.020063200511955752
12661108000.0 -0.9999529381965987 -0.009701617999928244 1.0167116367297347e-16 -2.9900156168145684e-17 1.0167116367297347e-16 -2.9900156168145684e-17 -0.9999529317600441 -0.00970228139763519
12661725333.333334 -0.9999997819735378 0.000660342868071012 1.013333724887462e-16 -3.095501161021608e-17 1.013333724887462e-16 -3.095501161021608e-17 -0.9999997824113867 0.0006596794716292636
12662342666.666666 -0.9999392533465452 0.011022232830974744 1.0098464484393333e-16 -3.200607462757439e-17 1.0098464484393333e-16 -3.200607462757439e-17 -0.9999392606580804 0.011021569507025087
12662960000.0 -0.9997713588148043 0.02138293930745002 1.006250230867848e-16 -3.305323191629607e-17 1.006250230867848e-16 -3.305323191629607e-17 -0.9997713729985704 0.021382276127204627
12663577333.333334 -0.9994961164056364 0.03174134984332432 1.0025455073853881e-16 -3.409637064309007e-17 1.0025455073853881e-16 -3.409637064309007e-17 -0.999496137459441 0.03174068687797298
12664194666.666666 -0.9991135556725648 0.04209635223094721 9.987327248820818e-17 -3.51353784574504e-17 9.987327248820818e-17 -3.51353784574504e-17 -0.9991135835934761 0.042095689551649676
12664812000.0 -0.9986237176921424 0.05244683462852545 9.948123418724851e-17 -3.6170143503724284e-17 9.948123418724851e-17 -3.6170143503724284e-17 -0.998623752476494 0.05244617230640387
12665429333.333334 -0.9980266550595346 0.0627916856797314 9.907848284410183e-17 -3.720055443312476e-17 9.907848284410183e-17 -3.720055443312476e-17 -0.9980266967029239 0.06279102378586268
12666046666.666666 -0.9973224318828948 0.07312979463266331 9.866506661861192e-17 -3.822650041569457e-17 9.866506661861192e-17 -3.822650041569457e-17 -0.9973224803801805 0.0731291332380713
12666664000.0 -0.9965111237764381 0.08346005145964788 9.82410348163138e-17 -3.924787115221117e-17 9.82410348163138e-17 -3.924787115221117e-17 -0.9965111791217455 0.08345939063529603
12667281333.333334 -0.9955928178523741 0.09378134697580336 9.780643788261174e-17 -4.0264556886004455e-17 9.780643788261174e-17 -4.0264556886004455e-17 -0.9955928800390937 0.09378068679258697
12667898666.666666 -0.9945676127115155 0.1040925729586172 9.736132739682556e-17 -4.12764484147328e-17 9.736132739682556e-17 -4.12764484147328e-17 -0.9945676817323031 0.1040919134873557
12668516000.0 -0.9934356184326886 0.11439262226685254 9.690575606610907e-17 -4.228343710210759e-17 9.690575606610907e-17 -4.228343710210759e-17 -0.9934356942794696 0.1143919635782824
12669133333.333334 -0.9921969565609627 0.12468038895908709 9.643977771927139e-17 -4.3285414889499356e-17 9.643977771927139e-17 -4.3285414889499356e-17 -0.9921970392249264 0.12467973112385329
12669750666.666666 -0.9908517600945347 0.13495476841293944 9.596344730045447e-17 -4.4282274307528307e-17 9.596344730045447e-17 -4.4282274307528307e-17 -0.9908518495661415 0.13495411150158879
