! Parameters = {f0=12700.012000; bw=77.238000; Q=6100.000000; N=10; m_0_1=1.244940; m_1_1=-0.090647; m_1_2=1.079752; m_2_2=-0.091296; m_2_3=0.716715; m_2_8=-0.000689; m_2_9=0.036015; m_3_3=-0.093233; m_3_4=0.605244; m_3_7=-0.000089; m_3_8=-0.097177; m_3_9=-0.000689; m_4_4=-0.096158; m_4_5=0.441579; m_4_6=0.003428; m_4_7=-0.117726; m_4_8=-0.000089; m_5_5=-0.095776; m_5_6=0.848934; m_5_7=0.003428; m_6_6=-0.095777; m_6_7=0.441921; m_7_7=-0.096144; m_7_8=0.605362; m_8_8=-0.093235; m_8_9=0.717028; m_9_9=-0.091301; m_9_10=1.080830; m_10_10=-0.090657; m_10_11=1.245735}
!
! Created with skrf (http://scikit-rf.org).
# Hz S RI R 50.0 
!freq ReS11 ImS11 ReS21 ImS21 ReS12 ImS12 ReS22 ImS22
12607400000.0 -0.9805070932375559 -0.19648368917207912 9.773034238033917e-17 -8.843071534581828e-18 9.773034238033917e-17 -8.843071534581828e-18 -0.980506964353211 -0.1964843323389445
12608017333.333334 -0.9823821750235814 -0.18688301740866634 9.761917286724916e-17 -9.805380412819542e-18 9.761917286724916e-17 -9.805380412819542e-18 -0.982382052442832 -0.18688366177394763
12608634666.666666 -0.9841632538082175 -0.1772644630303913 9.74985347378495e-17 -1.0766356963465242e-17 9.74985347378495e-17 -1.0766356963465242e-17 -0.9841631375421744 -0.17726510853231545
12609252000.0 -0.9858501591621939 -0.1676289464254531 9.736844345344339e-17 -1.1725908087800141e-17 9.736844345344339e-17 -1.1725908087800141e-17 -0.9858500492213638 -0.16762959300214447
12609869333.333334 -0.9874427296675782 -0.1579773896052014 9.722891539004604e-17 -1.2683940862403822e-17 9.722891539004604e-17 -1.2683940862403822e-17 -0.9874426260618611 -0.1579780371946877
12610486666.666666 -0.9889408129332233 -0.1483107161158822 9.70799678364312e-17 -1.364036254813758e-17 9.70799678364312e-17 -1.364036254813758e-17 -0.9889407156719131 -0.1483113646561002
12611104000.0 -0.9903442656093854 -0.1386298509500685 9.692161899208742e-17 -1.459508059912289e-17 9.692161899208742e-17 -1.459508059912289e-17 -0.9903441747011662 -0.13863050037886998
12611721333.333334 -0.9916529534013774 -0.12893572045851334 9.675388796509424e-17 -1.5548002671642344e-17 9.675388796509424e-17 -1.5548002671642344e-17 -0.991652868854327 -0.1289363707136715
12612338666.666666 -0.9928667510824731 -0.11922925226120006 9.657679476990164e-17 -1.6499036633080893e-17 9.657679476990164e-17 -1.6499036633080893e-17 -0.9928666729040576 -0.11922990328041473
12612956000.0 -0.9939855425058668 -0.10951137515869086 9.639036032502481e-17 -1.7448090570818004e-17 9.639036032502481e-17 -1.7448090570818004e-17 -0.9939854707029439 -0.10951202687959513
12613573333.333334 -0.9950092206157831 -0.09978301904333677 9.619460645066013e-17 -1.8395072801056855e-17 9.619460645066013e-17 -1.8395072801056855e-17 -0.9950091551945984 -0.09978367140350247
12614190666.666666 -0.995937687457735 -0.09004511481012692 9.598955586619873e-17 -1.9339891877707e-17 9.598955586619873e-17 -1.9339891877707e-17 -0.9959376284239242 -0.09004576774707104
12614808000.0 -0.9967708541878906 -0.08029859426772612 9.577523218766684e-17 -2.0282456601172126e-17 9.577523218766684e-17 -2.0282456601172126e-17 -0.9967708015464772 -0.0802992477189165
12615425333.333334 -0.9975086410815744 -0.07054439004925404 9.555165992507369e-17 -2.1222676027140334e-17 9.555165992507369e-17 -2.1222676027140334e-17 -0.9975085948369687 -0.07054504395211536
12616042666.666666 -0.9981509775408893 -0.06078343552315612 9.531886447967402e-17 -2.2160459475343464e-17 9.531886447967402e-17 -2.2160459475343464e-17 -0.9981509376968911 -0.060784089815076076
12616660000.0 -0.9986978021014856 -0.051016664703720724 9.507687214114834e-17 -2.3095716538273733e-17 9.507687214114834e-17 -2.3095716538273733e-17 -0.9986977686612809 -0.051017319322055894
12617277333.333334 -0.9991490624384349 -0.041245012161789295 9.48257100846901e-17 -2.4028357089900094e-17 9.48257100846901e-17 -2.4028357089900094e-17 -0.9991490354045967 -0.04124566704387112
12617894666.666666 -0.9995047153712328 -0.03146941293544197 9.456540636801908e-17 -2.495829129431067e-17 9.456540636801908e-17 -2.495829129431067e-17 -0.9995046947457203 -0.03147006801858281
12618512000.0 -0.9997647268679424 -0.021690802440184082 9.429598992829471e-17 -2.5885429614379984e-17 9.429598992829471e-17 -2.5885429614379984e-17 -0.9997647126521029 -0.021691457661683195
12619129333.333334 -0.9999290720484358 -0.011910116379948685 9.401749057896451e-17 -2.6809682820334024e-17 9.401749057896451e-17 -2.6809682820334024e-17 -0.9999290642430022 -0.011910771677098225
12619746666.666666 -0.9999977351867899 -0.0021282906571056096 9.372993900650943e-17 -2.773096199834894e-17 9.372993900650943e-17 -2.773096199834894e-17 -0.9999977337918816 -0.002128945967196618
12620364000.0 -0.9999707097127809 0.007653738716980403 9.343336676711638e-17 -2.8649178559075355e-17 9.343336676711638e-17 -2.8649178559075355e-17 -0.9999707147279043 0.007653083456651977
12620981333.333334 -0.999847998212516 0.017435035711316507 9.312780628326825e-17 -2.9564244246130894e-17 9.312780628326825e-17 -2.9564244246130894e-17 -0.9998480096365642 0.017434380563443822
12621598666.666666 -0.9996296124281878 0.027214664365020035 9.281329084024176e-17 -3.0476071144580305e-17 9.281329084024176e-17 -3.0476071144580305e-17 -0.9996296302594414 0.02721400939227937
12622216000.0 -0.9993155732569486 0.03699168887690788 9.24898545825321e-17 -3.138457168935293e-17 9.24898545825321e-17 -3.138457168935293e-17 -0.9993155974930741 0.03699103414195261
12622833333.333334 -0.9989059107489096 0.046765173694985396 9.215753251018875e-17 -3.228965867364105e-17 9.215753251018875e-17 -3.228965867364105e-17 -0.9989059413869606 0.04676451926043997
12623450666.666666 -0.9984006641042696 0.056534183605883 9.181636047507994e-17 -3.319124525723138e-17 9.181636047507994e-17 -3.319124525723138e-17 -0.9984007011406897 0.05653352953433712
12624068000.0 -0.9977998816695599 0.06629778382451618 9.146637517705774e-17 -3.408924497484732e-17 9.146637517705774e-17 -3.408924497484732e-17 -0.997799925100179 0.06629713017851858
12624685333.333334 -0.9971036209330175 0.07605504008344863 9.110761416005483e-17 -3.498357174441456e-17 9.110761416005483e-17 -3.498357174441456e-17 -0.9971036707530548 0.07605438692550127
12625302666.666666 -0.9963119485190957 0.08580501872217791 9.074011580810736e-17 -3.587413987527113e-17 9.074011580810736e-17 -3.587413987527113e-17 -0.9963120047231591 0.08580436611472993
12625920000.0 -0.9954249401820625 0.09554678677678811 9.03639193412727e-17 -3.67608640763976e-17 9.03639193412727e-17 -3.67608640763976e-17 -0.9954250027641491 0.09554613478222976
12626537333.333334 -0.9944426807987812 0.10527941206885541 8.997906481149708e-17 -3.7643659464533673e-17 8.997906481149708e-17 -3.7643659464533673e-17 -0.9944427497522808 0.10527876074951245
12627154666.666666 -0.9933652643605781 0.11500196329484622 8.958559309838749e-17 -3.8522441572289936e-17 8.958559309838749e-17 -3.8522441572289936e-17 -0.9933653396782692 0.11500131271297351
12627772000.0 -0.9921927939642348 0.12471351011528814 8.918354590489389e-17 -3.9397126356241614e-17 8.918354590489389e-17 -3.9397126356241614e-17 -0.9921928756382886 0.12471286033306399
12628389333.333334 -0.9909253818021523 0.13441312324356777 8.877296575294589e-17 -4.026763020490148e-17 8.877296575294589e-17 -4.026763020490148e-17 -0.9909254698241314 0.1344124743230877
12629006666.666666 -0.9895631491515746 0.14409987453516268 8.835389597897351e-17 -4.1133869946733895e-17 8.835389597897351e-17 -4.1133869946733895e-17 -0.9895632435124373 0.144099226538434
12629624000.0 -0.9881062263630235 0.1537728370761732 8.792638072938103e-17 -4.19957628580546e-17 8.792638072938103e-17 -4.19957628580546e-17 -0.9881063270531218 0.15377219006510875
12630241333.333334 -0.986554752847797 0.16343108527221473 8.749046495592274e-17 -4.285322667092906e-17 8.749046495592274e-17 -4.285322667092906e-17 -0.9865548598568762 0.16343043930862658
12630858666.666666 -0.9849088770646691 0.17307369493670524 8.70461944110229e-17 -4.370617958098111e-17 8.70461944110229e-17 -4.370617958098111e-17 -0.9849089903818732 0.17307305008229962
12631476000.0 -0.9831687565056136 0.18269974337977757 8.659361564298597e-17 -4.455454025522017e-17 8.659361564298597e-17 -4.455454025522017e-17 -0.9831688761194832 0.18269909969614834
12632093333.333334 -0.9813345576808078 0.19230830949609323 8.613277599117349e-17 -4.539822783973543e-17 8.613277599117349e-17 -4.539822783973543e-17 -0.9813346835792819 0.19230766704471627
12632710666.666666 -0.979406456102669 0.2018984738531784 8.566372358107651e-17 -4.6237161967400067e-17 8.566372358107651e-17 -4.6237161967400067e-17 -0.9794065882730876 0.20189783269540576
12633328000.0 -0.9773846362690257 0.21146931877957062 8.5186507319314e-17 -4.707126276551894e-17 8.5186507319314e-17 -4.707126276551894e-17 -0.9773847746981289 0.21146867897662447
12633945333.333334 -0.9752692916455358 0.22101992845226706 8.470117688857632e-17 -4.790045086339483e-17 8.470117688857632e-17 -4.790045086339483e-17 -0.9752694363194669 0.2210192900652341
12634562666.666666 -0.9730606246471127 0.23054938898466562 8.420778274248159e-17 -4.872464739986364e-17 8.420778274248159e-17 -4.872464739986364e-17 -0.9730607755514173 0.23054875207449074
12635180000.0 -0.9707588466185803 0.24005678851387283 8.37063761003547e-17 -4.954377403078744e-17 8.37063761003547e-17 -4.954377403078744e-17 -0.970759003738212 0.24005615314135428
12635797333.333334 -0.9683641778144381 0.24954121728804435 8.319700894194356e-17 -5.03577529364743e-17 8.319700894194356e-17 -5.03577529364743e-17 -0.9683643411337541 0.24954058351382666
12636414666.666666 -0.9658768473778325 0.25900176775321504 8.26797340020649e-17 -5.1166506829044983e-17 8.26797340020649e-17 -5.1166506829044983e-17 -0.9658770168806013 0.2590011356377845
12637032000.0 -0.9632970933185542 0.26843753464047476 8.215460476516303e-17 -5.196995895976795e-17 8.215460476516303e-17 -5.196995895976795e-17 -0.9632972689879523 0.26843690424415245
12637649333.333334 -0.9606251624903136 0.27784761505237004 8.162167545982008e-17 -5.2768033126304057e-17 8.162167545982008e-17 -5.2768033126304057e-17 -0.9606253443089295 0.277846986435307
12638266666.666666 -0.9578613105671082 0.2872311085493575 8.108100105317423e-17 -5.3560653679930386e-17 8.108100105317423e-17 -5.3560653679930386e-17 -0.9578614985169447 0.28723048177152877
12638884000.0 -0.95500580201875 0.29658711723599324 8.053263724528378e-17 -5.434774553268151e-17 8.053263724528378e-17 -5.434774553268151e-17 -0.9550059960812229 0.29658649235719137
12639501333.333334 -0.9520589100855779 0.3059147458467682 7.997664046341357e-17 -5.512923416444734e-17 7.997664046341357e-17 -5.512923416444734e-17 -0.9520591102415232 0.3059141229265993
12640118666.666666 -0.9490209167523229 0.315213101831778 7.941306785626509e-17 -5.590504562999477e-17 7.941306785626509e-17 -5.590504562999477e-17 -0.9490211229819935 0.3152124809296542
12640736000.0 -0.9458921127210109 0.32448129544245224 7.884197728810224e-17 -5.667510656598241e-17 7.884197728810224e-17 -5.667510656598241e-17 -0.9458923250040799 0.32448067661758684
12641353333.333334 -0.9426727973833534 0.3337184398160733 7.826342733288165e-17 -5.743934419781496e-17 7.826342733288165e-17 -5.743934419781496e-17 -0.9426730156989174 0.333717823127475
12641970666.666666 -0.9393632787918987 0.34292365106123135 7.767747726822768e-17 -5.819768634656059e-17 7.767747726822768e-17 -5.819768634656059e-17 -0.9393635031184788 0.34292303656769885
12642588000.0 -0.9359638736306868 0.35209604834202796 7.708418706940747e-17 -5.895006143571615e-17 7.708418706940747e-17 -5.895006143571615e-17 -0.9359641039462314 0.35209543610214405
12643205333.333334 -0.9324749071848782 0.36123475396254856 7.648361740321471e-17 -5.969639849794677e-17 7.648361740321471e-17 -5.969639849794677e-17 -0.9324751434667665 0.3612341440346754
12643822666.666666 -0.9288967133096294 0.37033889345084947 7.587582962178453e-17 -6.043662718176757e-17 7.587582962178453e-17 -6.043662718176757e-17 -0.9288969555346686 0.3703382858931211
12644440000.0 -0.9252296343981791 0.3794075956425253 7.5260885756358e-17 -6.117067775814561e-17 7.5260885756358e-17 -6.117067775814561e-17 -0.925229882542613 0.3794069905128444
12645057333.333334 -0.9214740213490745 0.3884399927641268 7.463884851098135e-17 -6.189848112704097e-17 7.463884851098135e-17 -6.189848112704097e-17 -0.9214742753885814 0.3884393901201575
12645674666.666666 -0.9176302335326343 0.39743522051609037 7.40097812561267e-17 -6.261996882390345e-17 7.40097812561267e-17 -6.261996882390345e-17 -0.9176304934423305 0.39743462041525324
12646292000.0 -0.9136986387564152 0.40639241815578186 7.33737480222542e-17 -6.333507302609715e-17 7.33737480222542e-17 -6.333507302609715e-17 -0.9136989045108586 0.40639182065524887
12646909333.333334 -0.9096796132302104 0.4153107285794171 7.273081349334115e-17 -6.404372655923045e-17 7.273081349334115e-17 -6.404372655923045e-17 -0.9096798848034011 0.41531013373610537
12647526666.666666 -0.9055735415299226 0.4241892984043622 7.20810430003092e-17 -6.474586290346494e-17 7.20810430003092e-17 -6.474586290346494e-17 -0.9055738188953081 0.42418870627492977
12648144000.0 -0.9013808165607652 0.4330272780507935 7.142450251440933e-17 -6.544141619973772e-17 7.142450251440933e-17 -6.544141619973772e-17 -0.9013810996912409 0.43302668869163297
12648761333.333334 -0.8971018395197606 0.44182382182278607 7.076125864056214e-17 -6.613032125590076e-17 7.076125864056214e-17 -6.613032125590076e-17 -0.8971021283876724 0.4418232352900192
12649378666.666666 -0.8927370198572785 0.4505780879893919 7.009137861061344e-17 -6.681251355282168e-17 7.009137861061344e-17 -6.681251355282168e-17 -0.8927373144344263 0.45057750433886484
12649996000.0 -0.8882867752378433 0.45928923886521006 6.941493027653973e-17 -6.748792925040576e-17 6.941493027653973e-17 -6.748792925040576e-17 -0.8882870754954835 0.45928865815248754
12650613333.333334 -0.8837515315001788 0.4679564408905168 6.873198210360238e-17 -6.8156505193544e-17 6.873198210360238e-17 -6.8156505193544e-17 -0.8837518374090267 0.4679558631708769
12651230666.666666 -0.8791317226165665 0.4765788647108273 6.804260316344663e-17 -6.88181789179901e-17 6.804260316344663e-17 -6.88181789179901e-17 -0.8791320341467995 0.47657829003925617
12651848000.0 -0.8744277906511067 0.4851556852566573 6.734686312712668e-17 -6.947288865618556e-17 6.734686312712668e-17 -6.947288865618556e-17 -0.8744281077723689 0.4851551136878452
12652465333.333334 -0.8696401857175915 0.4936860818221471 6.664483225809259e-17 -7.01205733429969e-17 6.664483225809259e-17 -7.01205733429969e-17 -0.869640508398994 0.4936855134104814
12653082666.666666 -0.8647693659364246 0.5021692381436211 6.593658140512497e-17 -7.076117262138131e-17 6.593658140512497e-17 -7.076117262138131e-17 -0.8647696941465488 0.5021686729431815
12653700000.0 -0.8598157973906256 0.5106043424779646 6.522218199518413e-17 -7.13946268480078e-17 6.522218199518413e-17 -7.13946268480078e-17 -0.859816131097527 0.5106037805425181
12654317333.333334 -0.8547799540814874 0.5189905876798558 6.450170602625761e-17 -7.202087709876179e-17 6.450170602625761e-17 -7.202087709876179e-17 -0.8547802932526996 0.5189900290628522
12654934666.666666 -0.8496623178829943 0.5273271712793954 6.377522606010307e-17 -7.263986517422254e-17 6.377522606010307e-17 -7.263986517422254e-17 -0.8496626624855312 0.5273266160339625
12655552000.0 -0.8444633784957644 0.5356132955587939 6.304281521496995e-17 -7.325153360504066e-17 6.304281521496995e-17 -7.325153360504066e-17 -0.8444637284961224 0.5356127437377299
12656169333.333334 -0.8391836334003098 0.5438481676285088 6.230454715826855e-17 -7.385582565724484e-17 6.230454715826855e-17 -7.385582565724484e-17 -0.8391839887644731 0.5438476192842805
12656786666.666666 -0.8338235878092713 0.5520309995033843 6.156049609916868e-17 -7.445268533749024e-17 6.156049609916868e-17 -7.445268533749024e-17 -0.8338239485027146 0.552030454688121
12657404000.0 -0.8283837546192117 0.5601610081778353 6.081073678117006e-17 -7.504205739821547e-17 6.081073678117006e-17 -7.504205739821547e-17 -0.828384120606902 0.5601604669433227
12658021333.333334 -0.8228646543614103 0.5682374157009621 6.005534447460849e-17 -7.562388734273683e-17 6.005534447460849e-17 -7.562388734273683e-17 -0.8228650256078119 0.5682368780986383
12658638666.666666 -0.8172668151521998 0.5762594492507798 5.929439496913977e-17 -7.619812143024751e-17 5.929439496913977e-17 -7.619812143024751e-17 -0.8172671916212773 0.5762589153317302
12659256000.0 -0.8115907726422519 0.5842263412084261 5.852796456612156e-17 -7.676470668078289e-17 5.852796456612156e-17 -7.676470668078289e-17 -0.8115911542974739 0.5842258110233797
12659873333.333334 -0.8058370699654519 0.5921373292314267 5.775613007101145e-17 -7.73235908800615e-17 5.775613007101145e-17 -7.73235908800615e-17 -0.8058374567697941 0.5921368028307492
12660490666.666666 -0.8000062576869952 0.5999916563265528 5.697896878568877e-17 -7.787472258427292e-17 5.697896878568877e-17 -7.787472258427292e-17 -0.8000066496029444 0.5999911337602435
12661108000.0 -0.7940988937504356 0.6077885709226234 5.61965585007106e-17 -7.841805112480328e-17 5.61965585007106e-17 -7.841805112480328e-17 -0.7940992907399941 0.6077880522403102
12661725333.333334 -0.7881155434246016 0.615527326942011 5.540897748757453e-17 -7.895352661284625e-17 5.540897748757453e-17 -7.895352661284625e-17 -0.7881159454492875 0.6155268121929437
12662342666.666666 -0.7820567792492975 0.6232071838723038 5.4616304490893134e-17 -7.948109994396842e-17 5.4616304490893134e-17 -7.948109994396842e-17 -0.7820571862701532 0.6232066731053527
12662960000.0 -0.7759231809805918 0.6308274068370767 5.381861872053879e-17 -8.00007228025873e-17 5.381861872053879e-17 -8.00007228025873e-17 -0.7759235929581855 0.6308269001007268
12663577333.333334 -0.7697153355353918 0.638387266666144 5.301599984375486e-17 -8.051234766636353e-17 5.301599984375486e-17 -8.051234766636353e-17 -0.7697157524298196 0.6383867640084879
12664194666.666666 -0.7634338369351756 0.6458860399654629 5.220852797721706e-17 -8.101592781052153e-17 5.220852797721706e-17 -8.101592781052153e-17 -0.7634342587060676 0.6458855414341995
12664812000.0 -0.7570792862492216 0.653323009186269 5.13962836790559e-17 -8.151141731208845e-17 5.13962836790559e-17 -8.151141731208845e-17 -0.7570797128557458 0.6533225148286974
12665429333.333334 -0.750652291537038 0.6606974626937998 5.057934794083491e-17 -8.199877105405673e-17 5.057934794083491e-17 -8.199877105405673e-17 -0.7506527229379043 0.660696972556816
12666046666.666666 -0.7441534677903494 0.6680086948352016 4.975780217951528e-17 -8.247794472945057e-17 4.975780217951528e-17 -8.247794472945057e-17 -0.7441539039438112 0.6680082089652918
12666664000.0 -0.7375834368739251 0.6752560060074108 4.893172822932141e-17 -8.2948894845349e-17 4.893172822932141e-17 -8.2948894845349e-17 -0.7375838777377869 0.6752555244506496
12667281333.333334 -0.7309428274664163 0.6824387027237182 4.810120833365136e-17 -8.34115787267789e-17 4.810120833365136e-17 -8.34115787267789e-17 -0.7309432729980354 0.6824382255257627
12667898666.666666 -0.7242322749999909 0.6895560976803616 4.7266325136881984e-17 -8.38659545205672e-17 4.7266325136881984e-17 -8.38659545205672e-17 -0.7242327251562816 0.689555624886447
12668516000.0 -0.7174524215995047 0.6966075098223092 4.6427161676164203e-17 -8.431198119909586e-17 4.6427161676164203e-17 -8.431198119909586e-17 -0.7174528763369433 0.6966070414772446
12669133333.333334 -0.7106039160213141 0.7035922644081619 4.5583801373202755e-17 -8.474961856396539e-17 4.5583801373202755e-17 -8.474961856396539e-17 -0.710604375295943 0.7035918005563274
12669750666.666666 -0.7036874135908848 0.7105096930750509 4.473632802596781e-17 -8.517882724959399e-17 4.473632802596781e-17 -8.517882724959399e-17 -0.7036878773583165 0.7105092337603917
12670368000.0 -0.696703576140238 0.7173591339024227 4.388482580038284e-17 -8.559956872672904e-17 4.388482580038284e-17 -8.559956872672904e-17 -0.6967040443556602 0.7173586791684465
