! Parameters = {f0=12700.012000; bw=77.238000; Q=6100.000000; N=10; m_0_1=1.266161; m_1_1=0.227672; m_1_2=1.100973; m_2_2=0.227023; m_2_3=0.737936; m_2_8=0.000372; m_2_9=0.037076; m_3_3=0.225086; m_3_4=0.626465; m_3_7=0.000972; m_3_8=-0.096116; m_3_9=0.000372; m_4_4=0.222161; m_4_5=0.462800; m_4_6=0.004489; m_4_7=-0.116665; m_4_8=0.000972; m_5_5=0.222543; m_5_6=0.870155; m_5_7=0.004489; m_6_6=0.222542; m_6_7=0.463142; m_7_7=0.222175; m_7_8=0.626583; m_8_8=0.225084; m_8_9=0.738249; m_9_9=0.227018; m_9_10=1.102051; m_10_10=0.227662; m_10_11=1.266956}
!
! Created with skrf (http://scikit-rf.org).
# Hz S RI R 50.0 
!freq ReS11 ImS11 ReS21 ImS21 ReS12 ImS12 ReS22 ImS22
12607400000.0 -0.9984110162616164 0.05635106571547783 1.022371944532614e-16 -3.6670836350610485e-17 1.022371944532614e-16 -3.6670836350610485e-17 -0.9984110538529641 0.056350399679484985
12608017333.333334 -0.9977703507795221 0.06674074546433499 1.0182664699022685e-16 -3.7734706031691695e-17 1.0182664699022685e-16 -3.7734706031691695e-17 -0.9977703952996029 0.06674007988831454
12608634666.666666 -0.9970215709957215 0.07712319345727611 1.0140503724715585e-16 -3.8794000066185577e-17 1.0140503724715585e-16 -3.8794000066185577e-17 -0.9970216224390341 0.0771225284132986
12609252000.0 -0.9961647580449983 0.0874972846948652 1.0097241601701043e-16 -3.984860351385141e-17 1.0097241601701043e-16 -3.984860351385141e-17 -0.9961648164052911 0.08749662025493649
12609869333.333334 -0.9952000047681705 0.09786189508311478 1.0052883528609328e-16 -4.0898401996269585e-17 1.0052883528609328e-16 -4.0898401996269585e-17 -0.9952000700384424 0.09786123131916812
12610486666.666666 -0.9941274157020257 0.10821590155534444 1.0007434822786321e-16 -4.194328170919879e-17 1.0007434822786321e-16 -4.194328170919879e-17 -0.9941274878745288 0.10821523853923297
12611104000.0 -0.9929471070679899 0.11855818219395729 9.960900919659228e-17 -4.2983129434936106e-17 9.960900919659228e-17 -4.2983129434936106e-17 -0.9929471861342272 0.1185575199974458
12611721333.333334 -0.9916592067595471 0.12888761635180743 9.913287372093655e-17 -4.401783255451121e-17 9.913287372093655e-17 -4.401783255451121e-17 -0.9916592927102782 0.12888695504656525
12612338666.666666 -0.9902638543283677 0.1392030847738274 9.864599849735061e-17 -4.5047279059877854e-17 9.864599849735061e-17 -4.5047279059877854e-17 -0.9902639471536058 0.1392024244314201
12612956000.0 -0.9887612009691916 0.14950346971822087 9.814844138337549e-17 -4.607135756603293e-17 9.814844138337549e-17 -4.607135756603293e-17 -0.9887613006582049 0.14950281041010252
12613573333.333334 -0.9871514095034524 0.15978765507751994 9.764026139083256e-17 -4.7089957322995254e-17 9.764026139083256e-17 -4.7089957322995254e-17 -0.9871515160447683 0.15978699687502582
12614190666.666666 -0.9854346543616318 0.17005452649957906 9.71215186788491e-17 -4.810296822780464e-17 9.71215186788491e-17 -4.810296822780464e-17 -0.9854347677430366 0.17005386947391773
12614808000.0 -0.9836111215643475 0.1803029715083774 9.659227454679186e-17 -4.911028083637505e-17 9.659227454679186e-17 -4.911028083637505e-17 -0.9836112417728864 0.18030231573062272
12615425333.333334 -0.9816810087022042 0.1905318796245057 9.605259142707115e-17 -5.011178637528761e-17 9.605259142707115e-17 -5.011178637528761e-17 -0.9816811357241846 0.1905312251655895
12616042666.666666 -0.9796445249144007 0.20074014248541 9.550253287781146e-17 -5.110737675352711e-17 9.550253287781146e-17 -5.110737675352711e-17 -0.979644658735392 0.20073948941611405
12616660000.0 -0.9775018908660307 0.21092665396568416 9.494216357541364e-17 -5.209694457411395e-17 9.494216357541364e-17 -5.209694457411395e-17 -0.9775020314708688 0.21092600235663306
12617277333.333334 -0.975253338724211 0.2210903102967303 9.43715493069947e-17 -5.308038314565763e-17 9.43715493069947e-17 -5.308038314565763e-17 -0.9752534860969966 0.22108966021838328
12617894666.666666 -0.9728991121329158 0.23123001018641456 9.379075696270565e-17 -5.405758649383698e-17 9.379075696270565e-17 -5.405758649383698e-17 -0.9728992662570192 0.23122936170905828
12618512000.0 -0.9704394661865229 0.24134465493861973 9.319985452791798e-17 -5.5028449372814423e-17 9.319985452791798e-17 -5.5028449372814423e-17 -0.9704396270445846 0.2413440081323606
12619129333.333334 -0.9678746674022848 0.2514331485718255 9.259891107533257e-17 -5.599286727649987e-17 9.259891107533257e-17 -5.599286727649987e-17 -0.9678748349762162 0.25143250350658164
12619746666.666666 -0.9652049936913442 0.26149439793830676 9.198799675692032e-17 -5.695073644981605e-17 9.198799675692032e-17 -5.695073644981605e-17 -0.9652051679623319 0.2614937546838011
12620364000.0 -0.9624307343286359 0.2715273128424983 9.136718279577564e-17 -5.790195389982578e-17 9.136718279577564e-17 -5.790195389982578e-17 -0.962430915277142 0.2715266714682507
12620981333.333334 -0.9595521899216344 0.28153080615879594 9.073654147787219e-17 -5.884641740674889e-17 9.073654147787219e-17 -5.884641740674889e-17 -0.9595523775274003 0.28153016673411585
12621598666.666666 -0.956569672377651 0.29150379394981796 9.00961461436548e-17 -5.978402553496364e-17 9.00961461436548e-17 -5.978402553496364e-17 -0.9565698666196985 0.2915031565437967
12622216000.0 -0.9534835048701421 0.3014451955835018 8.944607117957045e-17 -6.071467764384112e-17 8.944607117957045e-17 -6.071467764384112e-17 -0.9534837057267747 0.301444560265005
12622833333.333334 -0.9502940218036011 0.31135393385046706 8.878639200944858e-17 -6.163827389854331e-17 8.878639200944858e-17 -6.163827389854331e-17 -0.9502942292524107 0.3113533006881282
12623450666.666666 -0.9470015687774377 0.3212289350804152 8.811718508579924e-17 -6.255471528068827e-17 8.811718508579924e-17 -6.255471528068827e-17 -0.9470017827953006 0.32122830414262643
12624068000.0 -0.9436065025484144 0.3310691292587897 8.743852788098491e-17 -6.346390359894342e-17 8.743852788098491e-17 -6.346390359894342e-17 -0.9436067231115005 0.3310685006136963
12624685333.333334 -0.9401091909920148 0.34087345014266607 8.675049887827469e-17 -6.436574149953627e-17 8.675049887827469e-17 -6.436574149953627e-17 -0.9401094180757847 0.34087282385815754
12625302666.666666 -0.9365100130626965 0.3506408353759349 8.605317756282668e-17 -6.526013247661901e-17 8.605317756282668e-17 -6.526013247661901e-17 -0.9365102466419082 0.35064021151963887
12625920000.0 -0.9328093587526347 0.36037022660497836 8.534664441251811e-17 -6.614698088259757e-17 8.534664441251811e-17 -6.614698088259757e-17 -0.9328095988013452 0.36036960524425266
12626537333.333334 -0.929007629049626 0.3700605695928937 8.46309808887046e-17 -6.702619193831526e-17 8.46309808887046e-17 -6.702619193831526e-17 -0.9290078755411931 0.3700599507948192
12627154666.666666 -0.9251052358936153 0.3797108143338084 8.39062694268658e-17 -6.78976717431494e-17 8.39062694268658e-17 -6.78976717431494e-17 -0.9251054888007011 0.37971019816518137
12627772000.0 -0.921102602131917 0.38931991516699543 8.317259342711804e-17 -6.87613272850427e-17 8.317259342711804e-17 -6.87613272850427e-17 -0.921102861426492 0.3893193016943213
12628389333.333334 -0.9170001614736373 0.39888683088959925 8.243003724468306e-17 -6.96170664503618e-17 8.243003724468306e-17 -6.96170664503618e-17 -0.9170004271269822 0.3988862201790845
12629006666.666666 -0.9127983584424375 0.4084105248700332 8.167868618019802e-17 -7.046479803372114e-17 8.167868618019802e-17 -7.046479803372114e-17 -0.9127986304251469 0.4084099169875786
12629624000.0 -0.9084976483285202 0.41788996515993715 8.091862646995943e-17 -7.130443174766365e-17 8.091862646995943e-17 -7.130443174766365e-17 -0.908497926610506 0.4178893601711307
12630241333.333334 -0.9040984971392649 0.4273241246060746 8.014994527605118e-17 -7.213587823225452e-17 8.014994527605118e-17 -7.213587823225452e-17 -0.9040987816897591 0.42732352257618433
12630858666.666666 -0.8996013815487227 0.4367119809616574 7.937273067639952e-17 -7.29590490645423e-17 7.937273067639952e-17 -7.29590490645423e-17 -0.8996016723362813 0.4367113819556242
12631476000.0 -0.8950067888459275 0.44605251699718823 7.858707165467693e-17 -7.377385676797123e-17 7.858707165467693e-17 -7.377385676797123e-17 -0.8950070858384341 0.4460519210796195
12632093333.333334 -0.8903152168821562 0.4553447206105549 7.779305809017905e-17 -7.458021482161204e-17 7.779305809017905e-17 -7.458021482161204e-17 -0.8903155200468251 0.4553441278457167
12632710666.666666 -0.8855271740170136 0.46458758493664926 7.699078074756732e-17 -7.537803766932626e-17 7.699078074756732e-17 -7.537803766932626e-17 -0.8855274833203929 0.4645869953884597
12633328000.0 -0.8806431790631881 0.473780108456768 7.61803312665007e-17 -7.616724072883799e-17 7.61803312665007e-17 -7.616724072883799e-17 -0.8806434944711657 0.4737795221887911
12633945333.333334 -0.875663761230397 0.4829212951068325 7.536180215122432e-17 -7.69477404006446e-17 7.536180215122432e-17 -7.69477404006446e-17 -0.8756640827082008 0.48292071218226973
12634562666.666666 -0.8705894600680124 0.492010154385366 7.453528676003698e-17 -7.771945407684623e-17 7.453528676003698e-17 -7.771945407684623e-17 -0.8705897875802178 0.4920095748670513
12635180000.0 -0.8654208254065362 0.5010457014609491 7.370087929466233e-17 -7.84823001498693e-17 7.370087929466233e-17 -7.84823001498693e-17 -0.8654211589170667 0.5010451254113405
12635797333.333334 -0.8601584172980427 0.5100269572788775 7.285867478954583e-17 -7.92361980210606e-17 7.285867478954583e-17 -7.92361980210606e-17 -0.8601587567701771 0.5100263847600518
12636414666.666666 -0.8548028059556004 0.5189529486670805 7.20087691010767e-17 -7.998106810915787e-17 7.20087691010767e-17 -7.998106810915787e-17 -0.8548031513519729 0.518952379740725
12637032000.0 -0.8493545716912919 0.5278227084418845 7.115125889667724e-17 -8.071683185868516e-17 7.115125889667724e-17 -8.071683185868516e-17 -0.8493549229739008 0.527822143169292
12637649333.333334 -0.8438143048535157 0.536635275512524 7.028624164386457e-17 -8.144341174818127e-17 7.028624164386457e-17 -8.144341174818127e-17 -0.8438146619837237 0.5366347139545848
12638266666.666666 -0.8381826057628957 0.5453896949854736 6.941381559918277e-17 -8.216073129835185e-17 6.941381559918277e-17 -8.216073129835185e-17 -0.8381829687014359 0.54538913720267
12638884000.0 -0.8324600846472766 0.5540850182678427 6.853407979707717e-17 -8.28687150800808e-17 6.853407979707717e-17 -8.28687150800808e-17 -0.8324604533542571 0.554084464320242
12639501333.333334 -0.8266473615756355 0.562720303170115 6.764713403868573e-17 -8.35672887223253e-17 6.764713403868573e-17 -8.35672887223253e-17 -0.8266477360105443 0.5627197531173637
12640118666.666666 -0.8207450663908973 0.5712946140082426 6.675307888054571e-17 -8.425637891989586e-17 6.675307888054571e-17 -8.425637891989586e-17 -0.8207454465126041 0.5712940679095585
12640736000.0 -0.8147538386414732 0.5798070217053339 6.585201562318953e-17 -8.493591344113893e-17 6.585201562318953e-17 -8.493591344113893e-17 -0.8147542244082361 0.5798064796195009
12641353333.333334 -0.8086743275124014 0.5882566038916963 6.494404629976029e-17 -8.560582113542434e-17 6.494404629976029e-17 -8.560582113542434e-17 -0.8086747188818704 0.5882560658770575
12641970666.666666 -0.8025071917545463 0.5966424450054304 6.402927366441773e-17 -8.626603194061307e-17 6.402927366441773e-17 -8.626603194061307e-17 -0.80250758868377 0.5966419111198829
12642588000.0 -0.7962530996135181 0.6049636363912215 6.310780118078104e-17 -8.691647689031683e-17 6.310780118078104e-17 -8.691647689031683e-17 -0.7962535020589461 0.604963106692209
12643205333.333334 -0.7899127287571299 0.613219276398982 6.217973301023462e-17 -8.755708812108219e-17 6.217973301023462e-17 -8.755708812108219e-17 -0.7899131366746176 0.6132187509434884
12643822666.666666 -0.7834867662019465 0.6214084704815687 6.124517400017839e-17 -8.818779887943683e-17 6.124517400017839e-17 -8.818779887943683e-17 -0.7834871795467618 0.6214079493261132
12644440000.0 -0.7769759082389848 0.6295303312915356 6.030422967222994e-17 -8.880854352879584e-17 6.030422967222994e-17 -8.880854352879584e-17 -0.7769763269658118 0.6295298144921658
12645057333.333334 -0.770380860358127 0.6375839787774622 5.93570062103196e-17 -8.941925755626847e-17 5.93570062103196e-17 -8.941925755626847e-17 -0.77038128442107 0.637583466389748
12645674666.666666 -0.7637023371718163 0.6455685402791339 5.840361044874199e-17 -9.001987757932063e-17 5.840361044874199e-17 -9.001987757932063e-17 -0.7637027665244083 0.645568032358163
12646292000.0 -0.756941062337357 0.6534831506224302 5.744414986012289e-17 -9.061034135232229e-17 5.744414986012289e-17 -9.061034135232229e-17 -0.7569414969325609 0.6534826472228003
12646909333.333334 -0.750097768478883 0.6613269522126141 5.647873254334638e-17 -9.119058777295088e-17 5.647873254334638e-17 -9.119058777295088e-17 -0.7500982082690978 0.6613264533884267
12647526666.666666 -0.7431731971076597 0.6690990951276231 5.5507467211396854e-17 -9.1760556888479e-17 5.5507467211396854e-17 -9.1760556888479e-17 -0.7431736420447269 0.6690986009324796
12648144000.0 -0.7361680985418123 0.676798737210079 5.453046317912794e-17 -9.232018990193975e-17 5.453046317912794e-17 -9.232018990193975e-17 -0.7361685485770201 0.676798247697074
12648761333.333334 -0.7290832318251541 0.6844250441583897 5.354783035100333e-17 -9.286942917814083e-17 5.354783035100333e-17 -9.286942917814083e-17 -0.729083686909243 0.6844245593801046
12649378666.666666 -0.7219193646448102 0.691977189617301 5.2559679208767865e-17 -9.340821824955637e-17 5.2559679208767865e-17 -9.340821824955637e-17 -0.7219198247279792 0.6919767096258006
12649996000.0 -0.7146772732480906 0.6994543552673753 5.15661207990223e-17 -9.3936501822108e-17 5.15661207990223e-17 -9.3936501822108e-17 -0.714677738280001 0.699453880114199
12650613333.333334 -0.7073577423582986 0.7068557309137388 5.0567266720785514e-17 -9.44542257807884e-17 5.0567266720785514e-17 -9.44542257807884e-17 -0.7073582122880815 0.7068552606498979
12651230666.666666 -0.699961565089843 0.7141805145737331 4.956322911300435e-17 -9.496133719515302e-17 4.956322911300435e-17 -9.496133719515302e-17 -0.6999620398661032 0.7141800492497039
12651848000.0 -0.6924895428621582 0.7214279125639541 4.8554120641946266e-17 -9.545778432471092e-17 4.8554120641946266e-17 -9.545778432471092e-17 -0.69249002243298 0.7214274522296725
12652465333.333334 -0.6849424853129037 0.72859713958621 4.754005448861461e-17 -9.594351662414302e-17 4.754005448861461e-17 -9.594351662414302e-17 -0.6849429696258581 0.7285966842910669
12653082666.666666 -0.6773212102104038 0.73568741881246 4.652114433608819e-17 -9.641848474840034e-17 4.652114433608819e-17 -9.641848474840034e-17 -0.6773216992125516 0.7356869686052944
12653700000.0 -0.6696265433646814 0.7426979819693157 4.5497504356755076e-17 -9.688264055769324e-17 4.5497504356755076e-17 -9.688264055769324e-17 -0.6696270370025821 0.7426975368984122
12654317333.333334 -0.6618593185383339 0.7496280694209616 4.4469249199605207e-17 -9.733593712229615e-17 4.4469249199605207e-17 -9.733593712229615e-17 -0.661859816758049 0.7496276295340424
12654934666.666666 -0.6540203773560426 0.7564769302516005 4.3436493977367745e-17 -9.777832872726683e-17 4.3436493977367745e-17 -9.777832872726683e-17 -0.654020880103143 0.7564764955958224
12655552000.0 -0.6461105692132504 0.7632438223469322 4.239935425365716e-17 -9.820977087700358e-17 4.239935425365716e-17 -9.820977087700358e-17 -0.6461110764328208 0.7632433929688793
12656169333.333334 -0.6381307511843786 0.7699280124743396 4.135794603010074e-17 -9.863022029965767e-17 4.135794603010074e-17 -9.863022029965767e-17 -0.6381312628210257 0.7699275884200207
12656786666.666666 -0.6300817879298115 0.7765287763624721 4.031238573334399e-17 -9.903963495144116e-17 4.031238573334399e-17 -9.903963495144116e-17 -0.6300823039276681 0.7765283576773145
12657404000.0 -0.6219645516021591 0.7830453987797584 3.9262790202081585e-17 -9.94379740207699e-17 3.9262790202081585e-17 -9.94379740207699e-17 -0.6219650719048914 0.7830449855086037
12658021333.333334 -0.6137799217518859 0.789477173611799 3.8209276674028603e-17 -9.982519793227761e-17 3.8209276674028603e-17 -9.982519793227761e-17 -0.6137804463026986 0.7894767657988967
12658638666.666666 -0.6055287852319636 0.7958234039379136 3.715196277284724e-17 -1.0020126835069473e-16 3.715196277284724e-17 -1.0020126835069473e-16 -0.6055293139736073 0.7958230016269187
12659256000.0 -0.5972120361016182 0.8020834021067792 3.609096649501863e-17 -1.0056614818459445e-16 3.609096649501863e-17 -1.0056614818459445e-16 -0.5972125689763943 0.802083005340745
12659873333.333334 -0.5888305755297212 0.8082564898107304 3.502640619673327e-17 -1.0091980158998121e-16 3.502640619673327e-17 -1.0091980158998121e-16 -0.5888311124794894 0.8082560986321062
12660490666.666666 -0.5803853116969877 0.8143419981593828 3.395840058069555e-17 -1.0126219397375939e-16 3.395840058069555e-17 -1.0126219397375939e-16 -0.580385852663172 0.8143416126100084
12661108000.0 -0.5718771596975225 0.8203392677521416 3.288706868289192e-17 -1.0159329199706198e-16 3.288706868289192e-17 -1.0159329199706198e-16 -0.571877704621117 0.8203388878732423
12661725333.333334 -0.5633070414398247 0.8262476487495364 3.18125298593971e-17 -1.019130635784188e-16 3.18125298593971e-17 -1.019130635784188e-16 -0.563307590261401 0.8262472745817198
12662342666.666666 -0.5546758855467085 0.8320665009437657 3.073490377304883e-17 -1.022214778968162e-16 3.073490377304883e-17 -1.022214778968162e-16 -0.5546764382064207 0.8320661325270152
12662960000.0 -0.5459846272548676 0.8377951938279365 2.9654310380183864e-17 -1.0251850539458934e-16 2.9654310380183864e-17 -1.0251850539458934e-16 -0.5459851836924611 0.8377948312016106
12663577333.333334 -0.5372342083133499 0.8434331066645138 2.8570869917285887e-17 -1.028041177801927e-16 2.8570869917285887e-17 -1.028041177801927e-16 -0.5372347684681662 0.8434327498673392
12664194666.666666 -0.528425576881703 0.8489796285524556 2.748470288763967e-17 -1.0307828803081991e-16 2.748470288763967e-17 -1.0307828803081991e-16 -0.528426140692686 0.848979277622522
12664812000.0 -0.5195596874270663 0.8544341584935113 2.6395930047961265e-17 -1.0334099039488396e-16 2.6395930047961265e-17 -1.0334099039488396e-16 -0.5195602548327707 0.8544338134682711
12665429333.333334 -0.5106375006207989 0.8597961054573175 2.530467239497598e-17 -1.0359220039436348e-16 2.530467239497598e-17 -1.0359220039436348e-16 -0.5106380715593951 0.8597957663735778
12666046666.666666 -0.5016599832345783 0.8650648884453179 2.4211051152019363e-17 -1.0383189482699681e-16 2.4211051152019363e-17 -1.0383189482699681e-16 -0.5016605576438605 0.86506455533924
12666664000.0 -0.49262810803520596 0.8702399365539828 2.3115187755571323e-17 -1.040600517683463e-16 2.3115187755571323e-17 -1.040600517683463e-16 -0.4926286858525988 0.8702396094610768
12667281333.333334 -0.4835428536797427 0.8753206890363534 2.201720384181915e-17 -1.0427665057370983e-16 2.201720384181915e-17 -1.0427665057370983e-16 -0.4835434348423071 0.8753203679914741
12667898666.666666 -0.47440520460904717 0.8803065953630446 2.0917221233159574e-17 -1.0448167187990111e-16 2.0917221233159574e-17 -1.0448167187990111e-16 -0.4744057890534871 0.8803062804003867
12668516000.0 -0.46521615094117513 0.8851971152818475 1.9815361924714866e-17 -1.0467509760688004e-16 1.9815361924714866e-17 -1.0467509760688004e-16 -0.46521673860384627 0.8851968064349454
12669133333.333334 -0.45597668836439886 0.8899917188761146 1.8711748070832767e-17 -1.0485691095924461e-16 1.8711748070832767e-17 -1.0485691095924461e-16 -0.4559772791813145 0.8899914161778368
12669750666.666666 -0.44668781802889196 0.8946898866224063 1.760650197156175e-17 -1.0502709642758073e-16 1.760650197156175e-17 -1.0502709642758073e-16 -0.44668841193572817 0.8946895901049496
12670368000.0 -0.43735054643854654 0.8992911094466188 1.6499746059112707e-17 -1.0518563978967097e-16 1.6499746059112707e-17 -1.0518563978967097e-16 -0.4373511433706531 0.8992908191415103
12670985333.333334 -0.42796588534181784 0.9037948887792076 1.5391602884338266e-17 -1.0533252811155707e-16 1.5391602884338266e-17 -1.0533252811155707e-16 -0.4279664852342214 0.9037946047172956
