! Parameters = {f0=12700.012000; bw=77.238000; Q=6100.000000; N=10; m_0_1=1.230726; m_1_1=-0.303860; m_1_2=1.065538; m_2_2=-0.304509; m_2_3=0.702501; m_2_8=-0.001400; m_2_9=0.035304; m_3_3=-0.306446; m_3_4=0.591030; m_3_7=-0.000800; m_3_8=-0.097888; m_3_9=-0.001400; m_4_4=-0.309371; m_4_5=0.427365; m_4_6=0.002717; m_4_7=-0.118437; m_4_8=-0.000800; m_5_5=-0.308989; m_5_6=0.834720; m_5_7=0.002717; m_6_6=-0.308990; m_6_7=0.427707; m_7_7=-0.309357; m_7_8=0.591148; m_8_8=-0.306448; m_8_9=0.702814; m_9_9=-0.304514; m_9_10=1.066616; m_10_10=-0.303870; m_10_11=1.231521}
!
! Created with skrf (http://scikit-rf.org).
# Hz S RI R 50.0 
!freq ReS11 ImS11 ReS21 ImS21 ReS12 ImS12 ReS22 ImS22
12607400000.0 0.802288821539802 -0.596936049197995 -5.491068623433427e-17 7.327384238250108e-17 -5.491068623433427e-17 7.327384238250108e-17 0.8022892086462268 -0.5969355289222154
12608017333.333334 0.796665291758504 -0.6044207250807775 -5.420514566006298e-17 7.377504887643396e-17 -5.420514566006298e-17 7.377504887643396e-17 0.796665683699469 -0.6044202084770922
12608634666.666666 0.7909719386791471 -0.6118524268334524 -5.349503958412434e-17 7.426946917812281e-17 -5.349503958412434e-17 7.426946917812281e-17 0.7909723354198297 -0.6118519139467774
12609252000.0 0.7852092612926783 -0.6192305031085281 -5.278043321071767e-17 7.475706179135661e-17 -5.278043321071767e-17 7.475706179135661e-17 0.7852096627978369 -0.619229993983448
12609869333.333334 0.7793777646658452 -0.6265543072586005 -5.206139212032234e-17 7.523778584578865e-17 -5.206139212032234e-17 7.523778584578865e-17 0.7793781708998259 -0.6265538019393673
12610486666.666666 0.7734779598971634 -0.6338231973927401 -5.1337982263692167e-17 7.571160110034278e-17 -5.1337982263692167e-17 7.571160110034278e-17 0.7734783708239006 -0.6338226959232672
12611104000.0 0.7675103640717816 -0.6410365364331714 -5.0610269955805817e-17 7.617846794657074e-17 -5.0610269955805817e-17 7.617846794657074e-17 0.7675107796548019 -0.6410360388570306
12611721333.333334 0.7614755002165544 -0.6481936921706213 -4.9878321869841216e-17 7.663834741191543e-17 -4.9878321869841216e-17 7.663834741191543e-17 0.7614759204189808 -0.6481931985310398
12612338666.666666 0.7553738972539014 -0.6552940373201078 -4.914220503104689e-17 7.709120116296568e-17 -4.914220503104689e-17 7.709120116296568e-17 0.7553743220384544 -0.6552935476599624
12612956000.0 0.7492060899554938 -0.662336949575844 -4.840198681063802e-17 7.753699150861568e-17 -4.840198681063802e-17 7.753699150861568e-17 0.7492065192844972 -0.6623364639376591
12613573333.333334 0.7429726188956165 -0.6693218116655274 -4.7657734919649656e-17 7.797568140317757e-17 -4.7657734919649656e-17 7.797568140317757e-17 0.7429730527309983 -0.6693213300914704
12614190666.666666 0.7366740304034658 -0.6762480114048007 -4.690951740275458e-17 7.840723444943787e-17 -4.690951740275458e-17 7.840723444943787e-17 0.7366744687067641 -0.6762475339366796
12614808000.0 0.7303108765155162 -0.6831149417506336 -4.615740263205418e-17 7.883161490165542e-17 -4.615740263205418e-17 7.883161490165542e-17 0.730311319247881 -0.6831144684298919
12615425333.333334 0.7238837149269638 -0.6899220008547133 -4.540145930085153e-17 7.924878766849476e-17 -4.540145930085153e-17 7.924878766849476e-17 0.7238841620491602 -0.6899215317224268
12616042666.666666 0.7173931089430018 -0.6966685921160283 -4.4641756417400094e-17 7.965871831589823e-17 -4.4641756417400094e-17 7.965871831589823e-17 0.7173935604154131 -0.6966681272129008
12616660000.0 0.7108396274292924 -0.7033541242333194 -4.3878363298604745e-17 8.006137306991174e-17 -4.3878363298604745e-17 8.006137306991174e-17 0.7108400832119267 -0.7033536635996822
12617277333.333334 0.7042238447622493 -0.7099780112567637 -4.311134956372897e-17 8.045671881943219e-17 -4.311134956372897e-17 8.045671881943219e-17 0.7042243048147405 -0.7099775549325696
12617894666.666666 0.6975463407786376 -0.7165396726393916 -4.2340785128055176e-17 8.084472311890772e-17 -4.2340785128055176e-17 8.084472311890772e-17 0.6975468050602484 -0.7165392206642103
12618512000.0 0.6908077007246917 -0.7230385332880248 -4.1566740196520626e-17 8.122535419097695e-17 -4.1566740196520626e-17 8.122535419097695e-17 0.6908081691943184 -0.7230380857010428
12619129333.333334 0.6840085152049643 -0.7294740236135449 -4.0789285257353414e-17 8.15985809290358e-17 -4.0789285257353414e-17 8.15985809290358e-17 0.6840089878211398 -0.7294735804535583
12619746666.666666 0.6771493801304201 -0.7358455795809485 -4.000849107565308e-17 8.196437289976013e-17 -4.000849107565308e-17 8.196437289976013e-17 0.6771498568513196 -0.7358451408863635
12620364000.0 0.6702308966662702 -0.7421526427587269 -3.922442868697217e-17 8.232270034555503e-17 -3.922442868697217e-17 8.232270034555503e-17 0.6702313774497112 -0.7421522085675534
12620981333.333334 0.6632536711793223 -0.7483946603677673 -3.8437169390874094e-17 8.267353418694498e-17 -3.8437169390874094e-17 8.267353418694498e-17 0.6632541559827722 -0.7483942307176179
12621598666.666666 0.656218315184799 -0.754571085329844 -3.7646784744460446e-17 8.301684602490643e-17 -3.7646784744460446e-17 8.301684602490643e-17 0.6562188039653758 -0.7545706602579286
12622216000.0 0.6491254452926726 -0.7606813763156182 -3.6853346555875435e-17 8.335260814313973e-17 -3.6853346555875435e-17 8.335260814313973e-17 0.649125938007151 -0.7606809558587431
12622833333.333334 0.6419756831537557 -0.7667249977919747 -3.6056926877811746e-17 8.36807935102698e-17 -3.6056926877811746e-17 8.36807935102698e-17 0.6419761797585687 -0.7667245819865361
12623450666.666666 0.6347696554051263 -0.7727014200690274 -3.525759800097599e-17 8.400137578199443e-17 -3.525759800097599e-17 8.400137578199443e-17 0.6347701558563711 -0.7727010089510129
12624068000.0 0.6275079936152761 -0.7786101193464954 -3.4455432447537514e-17 8.43143293031691e-17 -3.4455432447537514e-17 8.43143293031691e-17 0.6275084978687173 -0.7786097129514769
12624685333.333334 0.6201913342285577 -0.7844505777597693 -3.365050296456876e-17 8.461962910982522e-17 -3.365050296456876e-17 8.461962910982522e-17 0.6201918422396294 -0.7844501761229002
12625302666.666666 0.6128203185097989 -0.7902222834249759 -3.284288251747084e-17 8.49172509311259e-17 -3.284288251747084e-17 8.49172509311259e-17 0.6128208302336124 -0.7902218865809911
12625920000.0 0.6053955924875923 -0.7959247304842537 -3.2032644283357583e-17 8.520717119126731e-17 -3.2032644283357583e-17 8.520717119126731e-17 0.6053961078789366 -0.795924338467464
12626537333.333334 0.5979178068981632 -0.8015574191496985 -3.121986164445524e-17 8.548936701130644e-17 -3.121986164445524e-17 8.548936701130644e-17 0.5979183259115108 -0.8015570319939881
12627154666.666666 0.5903876171280475 -0.8071198557473983 -3.0404608181476316e-17 8.576381621092877e-17 -3.0404608181476316e-17 8.576381621092877e-17 0.5903881397175574 -0.807119473486222
12627772000.0 0.5828056831565774 -0.8126115527607454 -2.95869576669421e-17 8.603049731016645e-17 -2.95869576669421e-17 8.603049731016645e-17 0.5828062092761008 -0.8126111754271269
12628389333.333334 0.5751726694984309 -0.8180320288728823 -2.8766984058563625e-17 8.628938953102713e-17 -2.8766984058563625e-17 8.628938953102713e-17 0.5751731991015129 -0.8180316564994085
12629006666.666666 0.5674892451448811 -0.8233808090092503 -2.794476149253793e-17 8.654047279908436e-17 -2.794476149253793e-17 8.654047279908436e-17 0.5674897781847669 -0.8233804416280718
12629624000.0 0.5597560835056054 -0.828657424378917 -2.7120364276870294e-17 8.67837277449914e-17 -2.7120364276870294e-17 8.67837277449914e-17 0.5597566199352433 -0.828657062021743
12630241333.333334 0.5519738623493362 -0.8338614125158874 -2.6293866884678502e-17 8.701913570593226e-17 -2.6293866884678502e-17 8.701913570593226e-17 0.5519744021213819 -0.8338610552139837
12630858666.666666 0.5441432637447896 -0.838992317319416 -2.5465343947475662e-17 8.724667872701391e-17 -2.5465343947475662e-17 8.724667872701391e-17 0.5441438068116105 -0.8389919651036022
12631476000.0 0.5362649740004343 -0.8440496890942786 -2.4634870248438483e-17 8.746633956259361e-17 -2.4634870248438483e-17 8.746633956259361e-17 0.5362655203141141 -0.844049341994926
12632093333.333334 0.5283396836048411 -0.8490330845898595 -2.3802520715687402e-17 8.767810167753735e-17 -2.3802520715687402e-17 8.767810167753735e-17 0.5283402331171834 -0.8490327426368878
12632710666.666666 0.5203680871658309 -0.8539420670392163 -2.296837041553378e-17 8.788194924841995e-17 -2.296837041553378e-17 8.788194924841995e-17 0.5203686398283636 -0.8539417302620909
12633328000.0 0.5123508833496682 -0.8587762061973133 -2.2132494545719918e-17 8.807786716466055e-17 -2.2132494545719918e-17 8.807786716466055e-17 0.5123514391136478 -0.8587758746250438
12633945333.333334 0.504288774819849 -0.8635350783787136 -2.1294968428660104e-17 8.826584102959167e-17 -2.1294968428660104e-17 8.826584102959167e-17 0.5042893336362654 -0.8635347520398508
12634562666.666666 0.49618246817559136 -0.8682182664946718 -2.0455867504675525e-17 8.844585716146337e-17 -2.0455867504675525e-17 8.844585716146337e-17 0.4961830299951717 -0.8682179454173046
12635180000.0 0.48803267388975985 -0.8728253600897754 -1.9615267325196386e-17 8.861790259438933e-17 -1.9615267325196386e-17 8.861790259438933e-17 0.48803323866297227 -0.8728250443015284
12635797333.333334 0.4798401062466424 -0.8773559553778876 -1.8773243545991756e-17 8.878196507922041e-17 -1.8773243545991756e-17 8.878196507922041e-17 0.47984067392370167 -0.87735564490592
12636414666.666666 0.4716054832795233 -0.8818096552774424 -1.7929871920367755e-17 8.893803308435965e-17 -1.7929871920367755e-17 8.893803308435965e-17 0.4716060538103945 -0.8818093501484449
12637032000.0 0.46332952670742866 -0.8861860694464266 -1.7085228292359593e-17 8.908609579651287e-17 -1.7085228292359593e-17 8.908609579651287e-17 0.46333010004183073 -0.8861857696866172
12637649333.333334 0.4550129618721677 -0.8904848143164221 -1.6239388589943394e-17 8.922614312136932e-17 -1.6239388589943394e-17 8.922614312136932e-17 0.4550135379595805 -0.8904845199515486
12638266666.666666 0.4466565176745401 -0.8947055131263516 -1.539242881820538e-17 8.935816568422614e-17 -1.539242881820538e-17 8.935816568422614e-17 0.44665709646420615 -0.8947052241816855
12638884000.0 0.4382609265106496 -0.8988477959553902 -1.4544425052547235e-17 8.948215483054e-17 -1.4544425052547235e-17 8.948215483054e-17 0.4382615079515792 -0.898847512455724
12639501333.333334 0.42982692420748553 -0.9029112997555003 -1.3695453431844773e-17 8.959810262642218e-17 -1.3695453431844773e-17 8.959810262642218e-17 0.4298275082484626 -0.9029110217251489
12640118666.666666 0.42135524995879214 -0.9068956683830831 -1.284559015166215e-17 8.970600185906004e-17 -1.284559015166215e-17 8.970600185906004e-17 0.421355836548377 -0.9068953958458785
12640736000.0 0.41284664625966266 -0.9108005526304781 -1.1994911457369216e-17 8.980584603708672e-17 -1.1994911457369216e-17 8.980584603708672e-17 0.41284723534619744 -0.9108002856097689
12641353333.333334 0.40430185884228975 -0.9146256102561876 -1.1143493637384925e-17 8.989762939087041e-17 -1.1143493637384925e-17 8.989762939087041e-17 0.40430245037390317 -0.914625348774837
12641970666.666666 0.39572163660988413 -0.9183705060152081 -1.029141301630444e-17 8.998134687275271e-17 -1.029141301630444e-17 8.998134687275271e-17 0.39572223053449523 -0.918370250095591
12642588000.0 0.38710673157137104 -0.9220349116882529 -9.438745948079435e-18 9.005699415721644e-17 -9.438745948079435e-18 9.005699415721644e-17 0.3871073278366947 -0.9220346613522552
12643205333.333334 0.3784578987755367 -0.9256185061105044 -8.585568809208653e-18 9.012456764098759e-17 -8.585568809208653e-18 9.012456764098759e-17 0.378458497329087 -0.9256182613795192
12643822666.666666 0.36977589624456 -0.9291209751998745 -7.731957991880493e-18 9.018406444307797e-17 -7.731957991880493e-18 9.018406444307797e-17 0.36977649703365695 -0.9291207360948049
12644440000.0 0.3610614849079231 -0.9325420119844041 -6.8779898971808875e-18 9.023548240475704e-17 -6.8779898971808875e-18 9.023548240475704e-17 0.36106208787969446 -0.9325417785256542
12645057333.333334 0.3523154285354777 -0.9358813166292496 -6.023740928249262e-18 9.027882008946459e-17 -6.023740928249262e-18 9.027882008946459e-17 0.3523160336368661 -0.9358810888367289
12645674666.666666 0.34353849367072076 -0.9391385964628899 -5.169287483465158e-18 9.031407678265634e-17 -5.169287483465158e-18 9.031407678265634e-17 0.3435391008484871 -0.9391383743560092
12646292000.0 0.33473144956321066 -0.9423135660029235 -4.314705949619952e-18 9.034125249158575e-17 -4.314705949619952e-18 9.034125249158575e-17 0.33473205876393897 -0.9423133496005932
12646909333.333334 0.3258950681017063 -0.9454059469808829 -3.4600726951180235e-18 9.03603479450215e-17 -3.4600726951180235e-18 9.03603479450215e-17 0.32589567927180824 -0.9454057363015104
12647526666.666666 0.3170301237460345 -0.9484154683667961 -2.6054640631615993e-18 9.037136459290042e-17 -2.6054640631615993e-18 9.037136459290042e-17 0.31703073683175526 -0.948415263428288
12648144000.0 0.30813739345945484 -0.9513418663928586 -1.750956364927716e-18 9.037430460591717e-17 -1.750956364927716e-18 9.037430460591717e-17 0.3081380084068764 -0.9513416672126154
12648761333.333334 0.2992176566404541 -0.9541848845765849 -8.96625872799482e-19 9.036917087504792e-17 -8.96625872799482e-19 9.036917087504792e-17 0.2992182733955004 -0.9541846911714994
12649378666.666666 0.29027169505465306 -0.9569442737432163 -4.2548813554657125e-20 9.03559670110123e-17 -4.2548813554657125e-20 9.03559670110123e-17 0.2902723135630955 -0.956944086129677
12649996000.0 0.28130029276596585 -0.9596197920476723 8.11198638426211e-19 9.033469734366907e-17 8.11198638426211e-19 9.033469734366907e-17 0.2813009129734265 -0.9596196102415538
12650613333.333334 0.2723042360680397 -0.9622112049956796 1.6645403679237632e-18 9.030536692134918e-17 1.6645403679237632e-18 9.030536692134918e-17 0.272304857919998 -0.9622110290123493
12651230666.666666 0.26328431341553576 -0.9647182854642828 2.517400325659012e-18 9.026798151012515e-17 2.517400325659012e-18 9.026798151012515e-17 0.2632849368573321 -0.9647181153185969
12651848000.0 0.2542413153545592 -0.9671408137218792 3.3697025350613996e-18 9.022254759301507e-17 3.3697025350613996e-18 9.022254759301507e-17 0.25424194033139974 -0.9671406494281788
12652465333.333334 0.2451760344538372 -0.969478577447344 4.221371099020042e-18 9.016907236912475e-17 4.221371099020042e-18 9.016907236912475e-17 0.24517666091079918 -0.9694784190194571
12653082666.666666 0.23608926523503634 -0.971731371748703 5.072330206607318e-18 9.010756375272631e-17 5.072330206607318e-18 9.010756375272631e-17 0.2360898931170723 -0.9717312191999411
12653700000.0 0.22698180410307112 -0.9738989991811012 5.92250413985617e-18 9.003803037227016e-17 5.92250413985617e-18 9.003803037227016e-17 0.22698243335501445 -0.9738988525242607
12654317333.333334 0.2178544492764695 -0.9759812697640682 6.771817280439411e-18 8.996048156933876e-17 6.771817280439411e-18 8.996048156933876e-17 0.2178550798430387 -0.9759811290114265
12654934666.666666 0.20870800071735812 -0.9779780009981816 7.620194116398972e-18 8.987492739753329e-17 7.620194116398972e-18 8.987492739753329e-17 0.20870863254316208 -0.9779778661614991
12655552000.0 0.1995432600611286 -0.9798890178811136 8.46755924886296e-18 8.97813786212965e-17 8.46755924886296e-18 8.97813786212965e-17 0.19954389309067094 -0.9798888889716293
12656169333.333334 0.19036103054664968 -0.9817141529228626 9.31383739868878e-18 8.967984671467876e-17 9.31383739868878e-18 8.967984671467876e-17 0.19036166472433436 -0.9817140299512969
12656786666.666666 0.18116211694536846 -0.9834532461605423 1.01589534131797e-17 8.957034386003221e-17 1.01589534131797e-17 8.957034386003221e-17 0.18116275221550396 -0.9834531291370928
12657404000.0 0.17194732549113795 -0.9851061451723261 1.1002832272723773e-17 8.945288294664946e-17 1.1002832272723773e-17 8.945288294664946e-17 0.17194796179794247 -0.9851060341066685
12658021333.333334 0.16271746380930435 -0.9866727050908547 1.1845399097436121e-17 8.93274775693371e-17 1.1845399097436121e-17 8.93274775693371e-17 0.16271810109691057 -0.9866725999921406
12658638666.666666 0.15347334084614614 -0.9881527886158898 1.2686579153793827e-17 8.919414202692653e-17 1.2686579153793827e-17 8.919414202692653e-17 0.15347397905860663 -0.9881526894927496
12659256000.0 0.14421576679777956 -0.9895462660263867 1.3526297861255114e-17 8.905289132072204e-17 1.3526297861255114e-17 8.905289132072204e-17 0.14421640587907103 -0.9895461728869244
12659873333.333334 0.13494555303920444 -0.9908530151918492 1.436448079885469e-17 8.890374115288791e-17 1.436448079885469e-17 8.890374115288791e-17 0.1349461929332329 -0.9908529280436438
12660490666.666666 0.12566351205341716 -0.9920729215830042 1.5201053711764658e-17 8.874670792477681e-17 1.5201053711764658e-17 8.874670792477681e-17 0.12566415270402279 -0.9920728404331084
12661108000.0 0.11637045735969388 -0.9932058782819059 1.6035942517901024e-17 8.858180873518532e-17 1.6035942517901024e-17 8.858180873518532e-17 0.11637109871065632 -0.9932058031368475
12661725333.333334 0.10706720344291057 -0.9942517859912297 1.6869073314426637e-17 8.84090613785635e-17 1.6869073314426637e-17 8.84090613785635e-17 0.10706784543795343 -0.9942517168570091
12662342666.666666 0.09775456568162183 -0.9952105530430402 1.7700372384298462e-17 8.822848434315122e-17 1.7700372384298462e-17 8.822848434315122e-17 0.09775520826441765 -0.9952104899251293
12662960000.0 0.08843336027696418 -0.9960820954067795 1.852976620278058e-17 8.804009680905606e-17 1.852976620278058e-17 8.804009680905606e-17 0.0884340033911396 -0.996082038310124
12663577333.333334 0.07910440418086664 -0.9968663366966644 1.9357181443915028e-17 8.784391864627503e-17 1.9357181443915028e-17 8.784391864627503e-17 0.07910504777000715 -0.9968662856256804
12664194666.666666 0.06976851502467528 -0.9975632081783532 2.0182544987009852e-17 8.76399704126476e-17 2.0182544987009852e-17 8.76399704126476e-17 0.06976915903233041 -0.9975631631369298
12664812000.0 0.06042651104729472 -0.9981726487749933 2.1005783923066326e-17 8.742827335175651e-17 2.1005783923066326e-17 8.742827335175651e-17 0.06042715541698271 -0.9981726097664908
12665429333.333334 0.05107921102353024 -0.9986946050725661 2.1826825561224704e-17 8.720884939075958e-17 2.1826825561224704e-17 8.720884939075958e-17 0.05107985569874308 -0.9986945720998142
12666046666.666666 0.04172743419255375 -0.9991290313245542 2.2645597435148253e-17 8.698172113817079e-17 2.2645597435148253e-17 8.698172113817079e-17 0.04172807911676217 -0.999129004389854
12666664000.0 0.03237200018559123 -0.9994758894559788 2.3462027309424165e-17 8.674691188157066e-17 2.3462027309424165e-17 8.674691188157066e-17 0.03237264530224971 -0.9994758685611025
12667281333.333334 0.02301372895471118 -0.9997351490667086 2.427604318590471e-17 8.650444558526818e-17 2.427604318590471e-17 8.650444558526818e-17 0.023014374207262833 -0.9997351342128993
12667898666.666666 0.013653440700449257 -0.999906787434147 2.5087573310046595e-17 8.625434688789587e-17 2.5087573310046595e-17 8.625434688789587e-17 0.013654086032330748 -0.9999067786221161
12668516000.0 0.00429195580014927 -0.9999907895152063 2.5896546177240877e-17 8.599664109994174e-17 2.5896546177240877e-17 8.599664109994174e-17 0.00429260115479589 -0.9999907867451389
12669133333.333334 -0.005069905263909688 -0.9999871479476374 2.6702890539057048e-17 8.573135420124063e-17 2.6702890539057048e-17 8.573135420124063e-17 -0.0050692599430591685 -0.9999871512191869
12669750666.666666 -0.01443132197648094 -0.9998958630506715 2.750653540954474e-17 8.545851283838141e-17 2.750653540954474e-17 8.545851283838141e-17 -0.014430676745979261 -0.9998958723629618
12670368000.0 -0.02379147386137744 -0.9997169428249872 2.8307410071451023e-17 8.517814432207356e-17 2.8307410071451023e-17 8.517814432207356e-17 -0.023790828777763926 -0.9997169581766144
