! Parameters = {f0=12700.012000; bw=77.238000; Q=6100.000000; N=10; m_0_1=1.222317; m_1_1=-0.429986; m_1_2=1.057129; m_2_2=-0.430635; m_2_3=0.694092; m_2_8=-0.001820; m_2_9=0.034884; m_3_3=-0.432572; m_3_4=0.582621; m_3_7=-0.001220; m_3_8=-0.098308; m_3_9=-0.001820; m_4_4=-0.435497; m_4_5=0.418956; m_4_6=0.002297; m_4_7=-0.118857; m_4_8=-0.001220; m_5_5=-0.435115; m_5_6=0.826311; m_5_7=0.002297; m_6_6=-0.435116; m_6_7=0.419298; m_7_7=-0.435483; m_7_8=0.582739; m_8_8=-0.432574; m_8_9=0.694405; m_9_9=-0.430640; m_9_10=1.058207; m_10_10=-0.429996; m_10_11=1.223112}
!
! Created with skrf (http://scikit-rf.org).
# Hz S RI R 50.0 
!freq ReS11 ImS11 ReS21 ImS21 ReS12 ImS12 ReS22 ImS22
12607400000.0 -0.2688857718651848 -0.9631720727306732 4.6682309732986316e-17 7.441890428620382e-17 4.6682309732986316e-17 7.441890428620382e-17 -0.26888515151144676 -0.9631722459126941
12608017333.333334 -0.2776521813942986 -0.9606816674459984 4.7355850407349254e-17 7.397169801917223e-17 4.7355850407349254e-17 7.397169801917223e-17 -0.27765156267486146 -0.9606818462654764
12608634666.666666 -0.28639553133706047 -0.9581114755757805 4.802511678316685e-17 7.351840234866202e-17 4.802511678316685e-17 7.351840234866202e-17 -0.2863949143031475 -0.9581116600173122
12609252000.0 -0.295115095540286 -0.9554617105798038 4.8690053868239044e-17 7.305905804007331e-17 4.8690053868239044e-17 7.305905804007331e-17 -0.2951144802429755 -0.9554619006275212
12609869333.333334 -0.3038101498263006 -0.9527325925265486 4.9350607058382925e-17 7.259370635485593e-17 4.9350607058382925e-17 7.259370635485593e-17 -0.3038095363165217 -0.9527327881641194
12610486666.666666 -0.31247997205292105 -0.9499243480749625 5.0006722141891843e-17 7.212238904683048e-17 5.0006722141891843e-17 7.212238904683048e-17 -0.3124793603814497 -0.9499245492855928
12611104000.0 -0.32112384217372947 -0.9470372104555438 5.065834530399203e-17 7.164514835844583e-17 5.065834530399203e-17 7.164514835844583e-17 -0.3211232323911837 -0.9470374172219777
12611721333.333334 -0.329741042297495 -0.9440714194510907 5.130542313121121e-17 7.116202701703471e-17 5.130542313121121e-17 7.116202701703471e-17 -0.32974043445433104 -0.9440716317556128
12612338666.666666 -0.3383308567480672 -0.9410272213767006 5.1947902615770096e-17 7.06730682309872e-17 5.1947902615770096e-17 7.06730682309872e-17 -0.3383302508945755 -0.9410274392011375
12612956000.0 -0.3468925721238132 -0.9379048690593103 5.25857311598974e-17 7.017831568591407e-17 5.25857311598974e-17 7.017831568591407e-17 -0.3468919683101133 -0.9379050923850302
12613573333.333334 -0.35542547735662533 -0.9347046218167809 5.321885658011099e-17 6.967781354077076e-17 5.321885658011099e-17 6.967781354077076e-17 -0.35542487563266356 -0.9347048506246997
12614190666.666666 -0.3639288637712466 -0.931426745436272 5.3847227111489784e-17 6.917160642392103e-17 5.3847227111489784e-17 6.917160642392103e-17 -0.3639282641867903 -0.9314269797068507
12614808000.0 -0.3724020251439926 -0.9280715121522108 5.447079141188085e-17 6.865973942918377e-17 5.447079141188085e-17 6.865973942918377e-17 -0.37240142774862645 -0.9280717518654586
12615425333.333334 -0.3808442577614307 -0.9246392006236719 5.508949856608111e-17 6.814225811183307e-17 5.508949856608111e-17 6.814225811183307e-17 -0.38084366260455305 -0.9246394457591489
12616042666.666666 -0.3892548604788263 -0.9211300959112372 5.5703298089979e-17 6.761920848456189e-17 5.5703298089979e-17 6.761920848456189e-17 -0.38925426760964515 -0.9211303464480561
12616660000.0 -0.3976331347783749 -0.9175444894533231 5.631213993465855e-17 6.709063701340925e-17 5.631213993465855e-17 6.709063701340925e-17 -0.3976325442459023 -0.9175447453701467
12617277333.333334 -0.40597838482721277 -0.9138826790419674 5.69159744904662e-17 6.655659061364828e-17 5.69159744904662e-17 6.655659061364828e-17 -0.4059777966802627 -0.9138829403170164
12617894666.666666 -0.41428991753518435 -0.9101449687981183 5.751475259102661e-17 6.601711664565015e-17 5.751475259102661e-17 6.601711664565015e-17 -0.4142893318223677 -0.9101452354091697
12618512000.0 -0.4225670426125312 -0.9063316691463091 5.810842551725768e-17 6.547226291067659e-17 5.810842551725768e-17 6.547226291067659e-17 -0.42256645938225257 -0.9063319410707003
12619129333.333334 -0.4308090726269676 -0.9024430967890048 5.869694500128177e-17 6.492207764669518e-17 5.869694500128177e-17 6.492207764669518e-17 -0.4308084919274196 -0.9024433740036318
12619746666.666666 -0.4390153230610012 -0.8984795746801828 5.92802632303598e-17 6.436660952410257e-17 5.92802632303598e-17 6.436660952410257e-17 -0.43901474494016235 -0.8984798571615066
12620364000.0 -0.44718511236878566 -0.8944414319985153 5.985833285075772e-17 6.380590764143791e-17 5.985833285075772e-17 6.380590764143791e-17 -0.4471845368744152 -0.8944417197225604
12620981333.333334 -0.4553177620324927 -0.8903290041201393 6.04311069715583e-17 6.324002152107542e-17 6.04311069715583e-17 6.324002152107542e-17 -0.455317189212128 -0.8903292970624993
12621598666.666666 -0.46341259661892276 -0.8861426325906822 6.099853916846635e-17 6.266900110485021e-17 6.099853916846635e-17 6.266900110485021e-17 -0.46341202651987334 -0.8861429307265174
12622216000.0 -0.47146894383546917 -0.8818826650969522 6.1560583487546e-17 6.209289674967604e-17 6.1560583487546e-17 6.209289674967604e-17 -0.4714683765048145 -0.8818829684009953
12622833333.333334 -0.4794861345860078 -0.8775494554380423 6.211719444892948e-17 6.151175922311773e-17 6.211719444892948e-17 6.151175922311773e-17 -0.47948557007059284 -0.8775497638845988
12623450666.666666 -0.4874635030263648 -0.8731433634959963 6.266832705047372e-17 6.092563969894113e-17 6.266832705047372e-17 6.092563969894113e-17 -0.48746294137279583 -0.8731436770589471
12624068000.0 -0.49540038661974184 -0.8686647552058543 6.321393677138894e-17 6.033458975261619e-17 6.321393677138894e-17 6.033458975261619e-17 -0.49539982787438314 -0.8686650738586583
12624685333.333334 -0.5032961261917653 -0.8641140025252456 6.37539795758265e-17 5.973866135678569e-17 6.37539795758265e-17 5.973866135678569e-17 -0.5032955704007349 -0.8641143262409412
12625302666.666666 -0.5111500659849845 -0.8594914834036361 6.428841191638899e-17 5.913790687674047e-17 6.428841191638899e-17 5.913790687674047e-17 -0.5111495131941514 -0.8594918121548448
12625920000.0 -0.5189615537136807 -0.8547975817507438 6.481719073765662e-17 5.853237906579945e-17 6.481719073765662e-17 5.853237906579945e-17 -0.5189610039686593 -0.8547979155096708
12626537333.333334 -0.5267299406177918 -0.8500326874047932 6.534027347961344e-17 5.792213106072079e-17 6.534027347961344e-17 5.792213106072079e-17 -0.5267293939639393 -0.8500330261432307
12627154666.666666 -0.5344545815167967 -0.8451971961001431 6.585761808106574e-17 5.7307216377044e-17 6.585761808106574e-17 5.7307216377044e-17 -0.5344540379992094 -0.8451975397894722
12627772000.0 -0.5421348348635392 -0.8402915094342674 6.636918298301609e-17 5.668768890440122e-17 6.636918298301609e-17 5.668768890440122e-17 -0.542134294527049 -0.8402918580454625
12628389333.333334 -0.5497700627971502 -0.8353160348346329 6.687492713196151e-17 5.60636029018366e-17 6.687492713196151e-17 5.60636029018366e-17 -0.5497695256863198 -0.8353163883382605
12629006666.666666 -0.5573596311963813 -0.8302711855246274 6.737480998319425e-17 5.5435012993041374e-17 6.737480998319425e-17 5.5435012993041374e-17 -0.5573590973555008 -0.8302715438908513
12629624000.0 -0.5649029097320073 -0.8251573804894126 6.786879150401676e-17 5.4801974161609464e-17 6.786879150401676e-17 5.4801974161609464e-17 -0.5649023792050915 -0.8251577436879957
12630241333.333334 -0.5723992719193183 -0.8199750444410306 6.835683217693716e-17 5.41645417462336e-17 6.835683217693716e-17 5.41645417462336e-17 -0.572398744750103 -0.8199754124413385
12630858666.666666 -0.5798480951700132 -0.8147246077832335 6.88388930028095e-17 5.3522771435887435e-17 6.88388930028095e-17 5.3522771435887435e-17 -0.5798475714019499 -0.814724980554234
12631476000.0 -0.5872487608441596 -0.8094065065755509 6.931493550393868e-17 5.28767192649651e-17 6.931493550393868e-17 5.28767192649651e-17 -0.5872482405204135 -0.8094068840858197
12632093333.333334 -0.5946006543012702 -0.8040211824972882 6.978492172711965e-17 5.2226441608422077e-17 6.978492172711965e-17 5.2226441608422077e-17 -0.5946001374647174 -0.8040215647150117
12632710666.666666 -0.6019031649514964 -0.798569082810754 7.024881424665228e-17 5.157199517686117e-17 7.024881424665228e-17 5.157199517686117e-17 -0.6019026516447175 -0.798569469703729
12633328000.0 -0.6091556863064442 -0.7930506603240184 7.070657616730897e-17 5.091343701159126e-17 7.070657616730897e-17 5.091343701159126e-17 -0.6091551765717236 -0.7930510518596573
12633945333.333334 -0.6163576160293444 -0.7874663733534655 7.115817112723754e-17 5.025082447968931e-17 7.115817112723754e-17 5.025082447968931e-17 -0.6163571099086657 -0.7874667694987986
12634562666.666666 -0.6235083559851904 -0.7818166856856422 7.16035633008365e-17 4.958421526900716e-17 7.16035633008365e-17 4.958421526900716e-17 -0.6235078535202321 -0.7818170864073194
12635180000.0 -0.6306073122903681 -0.776102066538774 7.204271740157656e-17 4.891366738316659e-17 7.204271740157656e-17 4.891366738316659e-17 -0.6306068135225018 -0.7761024718030687
12635797333.333334 -0.6376538953620922 -0.7703229905237066 7.247559868477598e-17 4.8239239136526643e-17 7.247559868477598e-17 4.8239239136526643e-17 -0.637653400332379 -0.7703234002965198
12636414666.666666 -0.6446475199671503 -0.7644799376046699 7.29021729503293e-17 4.756098914912705e-17 7.29021729503293e-17 4.756098914912705e-17 -0.6446470287163354 -0.7644803518515293
12637032000.0 -0.6515876052707271 -0.7585733930592319 7.332240654538883e-17 4.687897634160757e-17 7.332240654538883e-17 4.687897634160757e-17 -0.6515871178392392 -0.7585738117452983
12637649333.333334 -0.6584735748845365 -0.7526038474380897 7.373626636699905e-17 4.619325993010421e-17 7.373626636699905e-17 4.619325993010421e-17 -0.6584730913124823 -0.7526042705281583
12638266666.666666 -0.6653048569147115 -0.746571796524308 7.414371986468302e-17 4.550389942112198e-17 7.414371986468302e-17 4.550389942112198e-17 -0.6653043772418735 -0.7465722239828112
12638884000.0 -0.6720808840093011 -0.7404777412921428 7.454473504298144e-17 4.481095460638544e-17 7.454473504298144e-17 4.481095460638544e-17 -0.6720804082751344 -0.7404781730831546
12639501333.333334 -0.678801093405413 -0.7343221878654167 7.493928046394461e-17 4.411448555766479e-17 7.493928046394461e-17 4.411448555766479e-17 -0.6788006216490418 -0.7343226239526547
12640118666.666666 -0.6854649269758258 -0.7281056474756007 7.532732524956824e-17 4.3414552621595494e-17 7.532732524956824e-17 4.3414552621595494e-17 -0.6854644592360392 -0.7281060878224284
12640736000.0 -0.6920718312756741 -0.7218286364190417 7.570883908420679e-17 4.271121641442903e-17 7.570883908420679e-17 4.271121641442903e-17 -0.6920713675909251 -0.7218290809884738
12641353333.333334 -0.698621257587917 -0.7154916760145534 7.608379221689104e-17 4.200453781684956e-17 7.608379221689104e-17 4.200453781684956e-17 -0.6986207979963179 -0.7154921247692567
12641970666.666666 -0.7051126619693459 -0.7090952925597096 7.64521554636489e-17 4.1294577968674716e-17 7.64521554636489e-17 4.1294577968674716e-17 -0.7051122065086648 -0.7090957454620072
12642588000.0 -0.7115455052955509 -0.7026400172873282 7.681390020974681e-17 4.0581398263593246e-17 7.681390020974681e-17 4.0581398263593246e-17 -0.7115450540032096 -0.702640474299202
12643205333.333334 -0.7179192533057185 -0.6961263863213324 7.716899841188317e-17 3.9865060343880767e-17 7.716899841188317e-17 3.9865060343880767e-17 -0.7179188062187886 -0.6961268474044274
12643822666.666666 -0.7242333766470839 -0.6895549406321452 7.751742260034748e-17 3.9145626095068215e-17 7.751742260034748e-17 3.9145626095068215e-17 -0.7242329338022843 -0.6895554057477715
12644440000.0 -0.7304873509187729 -0.6829262259918798 7.785914588111446e-17 3.8423157640622735e-17 7.785914588111446e-17 3.8423157640622735e-17 -0.7304869123524665 -0.6829266951010167
12645057333.333334 -0.7366806567154551 -0.6762407929289114 7.819414193789666e-17 3.7697717336594975e-17 7.819414193789666e-17 3.7697717336594975e-17 -0.7366802224636473 -0.6762412659922112
12645674666.666666 -0.742812779670367 -0.6694991966822817 7.852238503414576e-17 3.6969367766250924e-17 7.852238503414576e-17 3.6969367766250924e-17 -0.7428123497686994 -0.6694996736600707
12646292000.0 -0.7488832104982381 -0.66270199715535 7.884385001501142e-17 3.623817173467093e-17 7.884385001501142e-17 3.623817173467093e-17 -0.7488827849819886 -0.6627024780076339
12646909333.333334 -0.7548914450373235 -0.6558497588695895 7.91585123092298e-17 3.550419226337704e-17 7.91585123092298e-17 3.550419226337704e-17 -0.7548910239414024 -0.6558502435560566
12647526666.666666 -0.7608369842914673 -0.6489430509174927 7.94663479309855e-17 3.476749258489251e-17 7.94663479309855e-17 3.476749258489251e-17 -0.7608365676504136 -0.648943539397516
12648144000.0 -0.7667193344715203 -0.6419824469153237 7.976733348171035e-17 3.4028136137312216e-17 7.976733348171035e-17 3.4028136137312216e-17 -0.7667189223195011 -0.6419829391479658
12648761333.333334 -0.7725380070362812 -0.6349685249555678 8.006144615183474e-17 3.3286186558853685e-17 8.006144615183474e-17 3.3286186558853685e-17 -0.7725375994070857 -0.6349690208995828
12649378666.666666 -0.7782925187330672 -0.6279018675589167 8.034866372248219e-17 3.2541707682406805e-17 8.034866372248219e-17 3.2541707682406805e-17 -0.7782921156601077 -0.6279023671727564
12649996000.0 -0.7839823916379454 -0.6207830616257857 8.062896456712773e-17 3.1794763530035054e-17 8.062896456712773e-17 3.1794763530035054e-17 -0.7839819931542512 -0.6207835648675993
12650613333.333334 -0.7896071531953655 -0.6136126983876293 8.09023276531929e-17 3.104541830749244e-17 8.09023276531929e-17 3.104541830749244e-17 -0.789606759333582 -0.6136132052152695
12651230666.666666 -0.7951663362573387 -0.6063913733579314 8.116873254359067e-17 3.029373639872725e-17 8.116873254359067e-17 3.029373639872725e-17 -0.7951659470497239 -0.6063918837289569
12651848000.0 -0.8006594791224102 -0.5991196862825213 8.142815939823114e-17 2.9539782360340507e-17 8.142815939823114e-17 2.9539782360340507e-17 -0.8006590946008337 -0.5991202001542018
12652465333.333334 -0.8060861255738476 -0.5917982410899669 8.168058897545971e-17 2.878362091607583e-17 8.168058897545971e-17 2.878362091607583e-17 -0.8060857457697852 -0.5917987584192841
12653082666.666666 -0.8114458249175328 -0.5844276458414178 8.192600263345254e-17 2.8025316951276645e-17 8.192600263345254e-17 2.8025316951276645e-17 -0.8114454498620656 -0.5844281665850709
12653700000.0 -0.8167381320195415 -0.5770085126798968 8.21643823315674e-17 2.7264935507308397e-17 8.21643823315674e-17 2.7264935507308397e-17 -0.8167377617433542 -0.5770090367943064
12654317333.333334 -0.8219626073429491 -0.5695414577796928 8.239571063162476e-17 2.650254177602822e-17 8.239571063162476e-17 2.650254177602822e-17 -0.8219622418763264 -0.5695419852210032
12654934666.666666 -0.8271188169843996 -0.5620271012950918 8.261997069915867e-17 2.5738201094176102e-17 8.261997069915867e-17 2.5738201094176102e-17 -0.8271184563572229 -0.5620276320191754
12655552000.0 -0.8322063327102078 -0.5544660673087802 8.28371463046015e-17 2.497197893780287e-17 8.28371463046015e-17 2.497197893780287e-17 -0.8322059769519539 -0.5544666012712405
12656169333.333334 -0.8372247319917608 -0.5468589837802443 8.3047221824418e-17 2.4203940916686333e-17 8.3047221824418e-17 2.4203940916686333e-17 -0.837224381131501 -0.546859520936422
12656786666.666666 -0.842173598040776 -0.5392064824933872 8.325018224219711e-17 2.3434152768705167e-17 8.325018224219711e-17 2.3434152768705167e-17 -0.8421732521071695 -0.5392070227983603
12657404000.0 -0.84705251984383 -0.5315091990041708 8.344601314968282e-17 2.2662680354237345e-17 8.344601314968282e-17 2.2662680354237345e-17 -0.8470521788651262 -0.5315097424127612
12658021333.333334 -0.8518610921965305 -0.523767772587787 8.363470074775708e-17 2.1889589650533636e-17 8.363470074775708e-17 2.1889589650533636e-17 -0.851860756200563 -0.5237683190545626
12658638666.666666 -0.8565989157370905 -0.5159828461856834 8.381623184736756e-17 2.1114946746100294e-17 8.381623184736756e-17 2.1114946746100294e-17 -0.8565985847512776 -0.5159833956649632
12659256000.0 -0.8612655969796472 -0.5081550663519246 8.399059387041099e-17 2.0338817835038494e-17 8.399059387041099e-17 2.0338817835038494e-17 -0.8612652710309877 -0.5081556187977817
12659873333.333334 -0.8658607483468073 -0.500285083199713 8.415777485055484e-17 1.9561269211422687e-17 8.415777485055484e-17 1.9561269211422687e-17 -0.8658604274618795 -0.5002856385659784
12660490666.666666 -0.8703839882018384 -0.4923735503473955 8.431776343401042e-17 1.8782367263653337e-17 8.431776343401042e-17 1.8782367263653337e-17 -0.8703836724067968 -0.49237410858766206
12661108000.0 -0.8748349408805065 -0.4844211248639339 8.447054888026235e-17 1.800217846876807e-17 8.447054888026235e-17 1.800217846876807e-17 -0.8748346302010808 -0.48442168593156065
12661725333.333334 -0.8792132367220764 -0.4764284672146781 8.461612106272811e-17 1.722076938682906e-17 8.461612106272811e-17 1.722076938682906e-17 -0.8792129311835697 -0.4764290310627942
12662342666.666666 -0.883518512100158 -0.4683962412062687 8.475447046938308e-17 1.6438206655221538e-17 8.475447046938308e-17 1.6438206655221538e-17 -0.8835182117274428 -0.46839680778777626
12662960000.0 -0.8877504094528849 -0.4603251139315271 8.488558820332271e-17 1.5654556982998406e-17 8.488558820332271e-17 1.5654556982998406e-17 -0.8877501142704031 -0.46032568319910605
12663577333.333334 -0.8919085773125469 -0.4522157557141791 8.500946598327641e-17 1.4869887145204283e-17 8.500946598327641e-17 1.4869887145204283e-17 -0.8919082873443069 -0.45221632762029135
12664194666.666666 -0.8959926703348339 -0.44406884005308334 8.512609614406804e-17 1.4084263977198457e-17 8.512609614406804e-17 1.4084263977198457e-17 -0.8959923856044085 -0.4440694145499758
12664812000.0 -0.9000023493275033 -0.43588504356632013 8.523547163702436e-17 1.3297754368974974e-17 8.523547163702436e-17 1.3297754368974974e-17 -0.9000020698580276 -0.4358856206060291
12665429333.333334 -0.9039372812785618 -0.42766504593497073 8.533758603033161e-17 1.2510425259477962e-17 8.533758603033161e-17 1.2510425259477962e-17 -0.9039370070927327 -0.4276656254693266
12666046666.666666 -0.9077971393838637 -0.41940952984679847 8.543243350933761e-17 1.1722343630929529e-17 8.543243350933761e-17 1.1722343630929529e-17 -0.9077968705039365 -0.41941011182742866
12666664000.0 -0.911581603074385 -0.4111191809392656 8.552000887680638e-17 1.0933576503119795e-17 8.552000887680638e-17 1.0933576503119795e-17 -0.9115813395221729 -0.4111197653175997
12667281333.333334 -0.915290358042679 -0.4027946877429516 8.560030755311423e-17 1.0144190927744601e-17 8.560030755311423e-17 1.0144190927744601e-17 -0.9152900998395502 -0.40279527447022423
12667898666.666666 -0.918923096269102 -0.3944367416241114 8.567332557639771e-17 9.354253982708624e-18 8.567332557639771e-17 9.354253982708624e-18 -0.9189228434359772 -0.3944373306513668
12668516000.0 -0.9224795160473852 -0.38604603672725263 8.573905960264887e-17 8.563832766428529e-18 8.573905960264887e-17 8.563832766428529e-18 -0.9224792686047403 -0.3860466280053498
12669133333.333334 -0.9259593220096024 -0.3776232699177244 8.579750690575532e-17 7.772994392170736e-18 8.579750690575532e-17 7.772994392170736e-18 -0.9259590799774605 -0.37762386339733917
12669750666.666666 -0.9293622251508037 -0.369169140723577 8.584866537749213e-17 6.98180598234135e-18 8.584866537749213e-17 6.98180598234135e-18 -0.9293619885487377 -0.3691697363552073
12670368000.0 -0.9326879428529763 -0.3606843512775697 8.589253352745854e-17 6.190334662811681e-18 8.589253352745854e-17 6.190334662811681e-18 -0.9326877117001066 -0.3606849490115399
12670985333.333334 -0.9359361989084849 -0.3521696062589371 8.592911048296283e-17 5.398647557243273e-18 8.592911048296283e-17 5.398647557243273e-18 -0.9359359732234771 -0.3521702060454018
