! Parameters = {f0=12700.012000; bw=77.238000; Q=6100.000000; N=10; m_0_1=1.349444; m_1_1=1.476921; m_1_2=1.184256; m_2_2=1.476272; m_2_3=0.821219; m_2_8=0.004536; m_2_9=0.041240; m_3_3=1.474335; m_3_4=0.709748; m_3_7=0.005136; m_3_8=-0.091952; m_3_9=0.004536; m_4_4=1.471410; m_4_5=0.546083; m_4_6=0.008653; m_4_7=-0.112501; m_4_8=0.005136; m_5_5=1.471792; m_5_6=0.953438; m_5_7=0.008653; m_6_6=1.471791; m_6_7=0.546425; m_7_7=1.471424; m_7_8=0.709866; m_8_8=1.474333; m_8_9=0.821532; m_9_9=1.476267; m_9_10=1.185334; m_10_10=1.476911; m_10_11=1.350239}
!
! Created with skrf (http://scikit-rf.org).
# Hz S RI R 50.0 
!freq ReS11 ImS11 ReS21 ImS21 ReS12 ImS12 ReS22 ImS22
12607400000.0 -0.9944508907519384 0.10520183402620595 1.4650663674535407e-16 -6.080639225781766e-17 1.4650663674535407e-16 -6.080639225781766e-17 -0.9944509655306493 0.1052011271563233
12608017333.333334 -0.993014441781563 0.11799287441643369 1.456777625787847e-16 -6.268771487338129e-17 1.456777625787847e-16 -6.268771487338129e-17 -0.9930145256482218 0.11799216860214862
12608634666.666666 -0.991413476037734 0.13076436644047504 1.4482474478143106e-16 -6.455777180589863e-17 1.4482474478143106e-16 -6.455777180589863e-17 -0.991413568977558 0.13076366179861368
12609252000.0 -0.9896482587591059 0.14351419419301242 1.4394773606377305e-16 -6.64162534058002e-17 1.4394773606377305e-16 -6.64162534058002e-17 -0.9896483607558101 0.14351349084019527
12609869333.333334 -0.9877190823965806 0.15624024535777026 1.4304689310511109e-16 -6.826285208852328e-17 1.4304689310511109e-16 -6.826285208852328e-17 -0.9877191934323808 0.15623954341039273
12610486666.666666 -0.9856262665648353 0.16894041155764045 1.4212237652572478e-16 -7.009726238530729e-17 1.4212237652572478e-16 -7.009726238530729e-17 -0.985626386620451 0.16893971113185366
12611104000.0 -0.9833701579893381 0.1816125887041534 1.4117435085831778e-16 -7.191918099374373e-17 1.4117435085831778e-16 -7.191918099374373e-17 -0.9833702870439984 0.1816118899158453
12611721333.333334 -0.9809511304489659 0.19425467734573515 1.402029845189168e-16 -7.372830682774066e-17 1.402029845189168e-16 -7.372830682774066e-17 -0.9809512684804096 0.1942539803105109
12612338666.666666 -0.9783695847140484 0.20686458301570038 1.3920844977703338e-16 -7.552434106728904e-17 1.3920844977703338e-16 -7.552434106728904e-17 -0.9783697316985301 0.20686388784886342
12612956000.0 -0.9756259484799377 0.2194402165794182 1.3819092272522971e-16 -7.730698720774787e-17 1.3819092272522971e-16 -7.730698720774787e-17 -0.9756261043922303 0.21943952339595113
12613573333.333334 -0.9727206762962147 0.23197949458009284 1.371505832480944e-16 -7.907595110865101e-17 1.371505832480944e-16 -7.907595110865101e-17 -0.972720841109615 0.23197880349463842
12614190666.666666 -0.9696542494913539 0.24448033958410692 1.3608761499051276e-16 -8.083094104224834e-17 1.3608761499051276e-16 -8.083094104224834e-17 -0.9696544231776874 0.24447965071094935
12614808000.0 -0.9664271760929347 0.25694068052536284 1.350022053253809e-16 -8.257166774150355e-17 1.350022053253809e-16 -8.257166774150355e-17 -0.9664273586225591 0.2569399939784084
12615425333.333334 -0.9630399907435718 0.26935845304801936 1.3389454532068264e-16 -8.429784444770825e-17 1.3389454532068264e-16 -8.429784444770825e-17 -0.9630401820853829 0.269357768940778
12616042666.666666 -0.9594932546122235 0.28173159984894125 1.327648297059621e-16 -8.6009186957648e-17 1.327648297059621e-16 -8.6009186957648e-17 -0.9594934547336604 0.2817309182945075
12616660000.0 -0.9557875553013407 0.294058071018103 1.316132568381952e-16 -8.770541367032088e-17 1.316132568381952e-16 -8.770541367032088e-17 -0.955787764168391 0.29405739212913756
12617277333.333334 -0.9519235067493738 0.3063358243786968 1.3044002866706013e-16 -8.93862456332085e-17 1.3044002866706013e-16 -8.93862456332085e-17 -0.9519237243265799 0.3063351482674078
12617894666.666666 -0.9479017491292587 0.31856282582481654 1.2924535069964432e-16 -9.105140658804722e-17 1.2924535069964432e-16 -9.105140658804722e-17 -0.9479019753797234 0.31856215260294085
12618512000.0 -0.9437229487421183 0.3307370496592152 1.2802943196451608e-16 -9.270062301620282e-17 1.2802943196451608e-16 -9.270062301620282e-17 -0.9437231836275106 0.330736379438
12619129333.333334 -0.9393877979070818 0.3428564789282612 1.267924849752708e-16 -9.433362418349389e-17 1.267924849752708e-16 -9.433362418349389e-17 -0.939388041387645 0.34285581181844593
12619746666.666666 -0.934897014846442 0.35491910575652685 1.255347256934808e-16 -9.595014218456714e-17 1.255347256934808e-16 -9.595014218456714e-17 -0.9348972668809988 0.3549184418683245
12620364000.0 -0.930251343566697 0.36692293167933193 1.242563734910796e-16 -9.754991198677966e-17 1.242563734910796e-16 -9.754991198677966e-17 -0.9302516041126577 0.36692227112241144
12620981333.333334 -0.9254515537354335 0.37886596797346783 1.2295765111221754e-16 -9.913267147354721e-17 1.2295765111221754e-16 -9.913267147354721e-17 -0.9254518227488017 0.3788653108569349
12621598666.666666 -0.9204984405535446 0.39074623598736535 1.216387846345091e-16 -1.0069816148725592e-16 1.216387846345091e-16 -1.0069816148725592e-16 -0.9204987179889254 0.39074558241974533
12622216000.0 -0.915392824623736 0.4025617674682721 1.2030000342979256e-16 -1.0224612587159018e-16 1.2030000342979256e-16 -1.0224612587159018e-16 -0.9153931104343445 0.4025611175574921
12622833333.333334 -0.9101355518143559 0.4143106048888659 1.1894154012432284e-16 -1.0377631151337506e-16 1.1894154012432284e-16 -1.0377631151337506e-16 -0.9101358459520243 0.4143099587422364
12623450666.666666 -0.9047274931195314 0.42599080177094195 1.1756363055843495e-16 -1.0528846838389182e-16 1.1756363055843495e-16 -1.0528846838389182e-16 -0.9047277955347158 0.42599015949513896
12624068000.0 -0.8991695445145619 0.4376004230085671 1.161665137457176e-16 -1.0678234957961837e-16 1.161665137457176e-16 -1.0678234957961837e-16 -0.8991698551563541 0.43759978470961586
12624685333.333334 -0.8934626268076442 0.44913754518831417 1.1475043183157492e-16 -1.0825771136253631e-16 1.1475043183157492e-16 -1.0825771136253631e-16 -0.893462945623777 0.4491369109715703
12625302666.666666 -0.8876076854873722 0.46060025690782225 1.133156300514365e-16 -1.0971431319971894e-16 1.133156300514365e-16 -1.0971431319971894e-16 -0.8876080124242288 0.46059962687795447
12625920000.0 -0.8816056905659126 0.47198665909281967 1.1186235668827362e-16 -1.1115191780256784e-16 1.1186235668827362e-16 -1.1115191780256784e-16 -0.8816060255685374 0.4719860333537936
12626537333.333334 -0.8754576364184556 0.4832948653114495 1.1039086302981428e-16 -1.1257029116528965e-16 1.1039086302981428e-16 -1.1257029116528965e-16 -0.8754579794305614 0.4832942439665092
12627154666.666666 -0.8691645416185049 0.4945230020867543 1.0890140332510708e-16 -1.1396920260297344e-16 1.0890140332510708e-16 -1.1396920260297344e-16 -0.8691648925824829 0.4945223852384057
12627772000.0 -0.8627274487688759 0.5056692092075097 1.0739423474069828e-16 -1.1534842478899837e-16 1.0739423474069828e-16 -1.1534842478899837e-16 -0.8627278076258061 0.5056685969575042
12628389333.333334 -0.8561474243292707 0.5167316400358676 1.0586961731633979e-16 -1.1670773379186684e-16 1.0586961731633979e-16 -1.1670773379186684e-16 -0.8561477910189312 0.5167310324851848
12629006666.666666 -0.8494255584393663 0.5277084618136914 1.043278139201373e-16 -1.1804690911153572e-16 1.043278139201373e-16 -1.1804690911153572e-16 -0.849425932900244 0.5277078590625224
12629624000.0 -0.8425629647382908 0.5385978559660469 1.0276909020337488e-16 -1.193657337150378e-16 1.0276909020337488e-16 -1.193657337150378e-16 -0.8425633469075908 0.5385972581137786
12630241333.333334 -0.8355607801801843 0.5493980184023992 1.0119371455478263e-16 -1.2066399407160226e-16 1.0119371455478263e-16 -1.2066399407160226e-16 -0.83556116999384 0.5493974255475957
12630858666.666666 -0.828420164845777 0.5601071598155999 9.960195805444512e-17 -1.2194148018710461e-16 9.960195805444512e-17 -1.2194148018710461e-16 -0.8284205622384624 0.5601065720559888
12631476000.0 -0.8211423017500951 0.57072350597847 9.799409442715728e-17 -1.2319798563800472e-16 9.799409442715728e-17 -1.2319798563800472e-16 -0.8211427066552361 0.5707229234109258
12632093333.333334 -0.8137283966466271 0.5812452980375072 9.637039999552185e-17 -1.2443330760453729e-16 9.637039999552185e-17 -1.2443330760453729e-16 -0.8137288089964103 0.581244720758034
12632710666.666666 -0.8061796778276286 0.5916707928041925 9.473115363249742e-17 -1.2564724690339217e-16 9.473115363249742e-17 -1.2564724690339217e-16 -0.806180097553014 0.591670220907909
12633328000.0 -0.798497395920197 0.6019982630443913 9.307663671354156e-17 -1.2683960801976288e-16 9.307663671354156e-17 -1.2683960801976288e-16 -0.79849782295093 0.6019976966255154
12633945333.333334 -0.7906828236796047 0.6122259977637736 9.140713306845328e-17 -1.2801019913869188e-16 9.140713306845328e-17 -1.2801019913869188e-16 -0.7906832579442264 0.6122254369156062
12634562666.666666 -0.7827372557781725 0.62235230249165 8.972292893272206e-17 -1.291588321758585e-16 8.972292893272206e-17 -1.291588321758585e-16 -0.7827376972040333 0.6223517473065601
12635180000.0 -0.7746620085907006 0.6323754995617888 8.802431289853536e-17 -1.3028532280769583e-16 8.802431289853536e-17 -1.3028532280769583e-16 -0.774662457103973 0.6323749501311997
12635797333.333334 -0.7664584199765951 0.6422939283900969 8.631157586539423e-17 -1.313894905008742e-16 8.631157586539423e-17 -1.313894905008742e-16 -0.7664588755022821 0.6422933848044672
12636414666.666666 -0.7581278490580721 0.6521059457499082 8.458501099039895e-17 -1.324711585411136e-16 8.458501099039895e-17 -1.324711585411136e-16 -0.7581283115200237 0.6521054080987212
12637032000.0 -0.7496716759950643 0.6618099260441421 8.284491363809987e-17 -1.3353015406139142e-16 8.284491363809987e-17 -1.3353015406139142e-16 -0.7496721453159888 0.6618093944158883
12637649333.333334 -0.7410913017564117 0.6714042615747903 8.109158133007222e-17 -1.3456630806944502e-16 8.109158133007222e-17 -1.3456630806944502e-16 -0.7410917778578886 0.6714037360569541
12638266666.666666 -0.7323881478880198 0.6808873628089722 7.932531369411084e-17 -1.3557945547463705e-16 7.932531369411084e-17 -1.3557945547463705e-16 -0.7323886306905135 0.680886843488018
12638884000.0 -0.7235636562770462 0.6902576586426213 7.754641241309901e-17 -1.3656943511415078e-16 7.754641241309901e-17 -1.3656943511415078e-16 -0.7235641456999178 0.6902571456039769
12639501333.333334 -0.7146192889132813 0.6995135966604781 7.575518117354424e-17 -1.375360897785201e-16 7.575518117354424e-17 -1.375360897785201e-16 -0.7146197848748033 0.699513089988523
12640118666.666666 -0.7055565276468632 0.7086536433933743 7.395192561384467e-17 -1.3847926623645966e-16 7.395192561384467e-17 -1.3847926623645966e-16 -0.7055570300642331 0.7086531431714251
12640736000.0 -0.6963768739424496 0.7176762845726088 7.213695327212237e-17 -1.3939881525908573e-16 7.213695327212237e-17 -1.3939881525908573e-16 -0.6963773827318042 0.7176757908829059
12641353333.333334 -0.6870818486311071 0.7265800253801786 7.031057353395529e-17 -1.402945916433507e-16 7.031057353395529e-17 -1.402945916433507e-16 -0.6870823637075352 0.7265795383038721
12641970666.666666 -0.6776729916578301 0.7353633906969592 6.847309757962173e-17 -1.411664542348966e-16 6.847309757962173e-17 -1.411664542348966e-16 -0.6776735129353865 0.7353629103140944
12642588000.0 -0.6681518618264809 0.7440249253469999 6.662483833119049e-17 -1.420142659501531e-16 6.662483833119049e-17 -1.420142659501531e-16 -0.6681523892182025 0.744024451736507
12643205333.333334 -0.658520036541794 0.7525631943383867 6.476611039929235e-17 -1.4283789379776928e-16 6.476611039929235e-17 -1.4283789379776928e-16 -0.6585205699597126 0.7525627275780653
12643822666.666666 -0.6487791115477443 0.760976783101247 6.289723002963615e-17 -1.43637208899345e-16 6.289723002963615e-17 -1.43637208899345e-16 -0.6487796509029025 0.7609763232677546
12644440000.0 -0.6389307006632547 0.7692642977220278 6.101851504926371e-17 -1.4441208650946807e-16 6.101851504926371e-17 -1.4441208650946807e-16 -0.6389312458657205 0.7692638448908672
12645057333.333334 -0.6289764355150926 0.7774243651742152 5.913028481260053e-17 -1.4516240603503127e-16 5.913028481260053e-17 -1.4516240603503127e-16 -0.6289769864739729 0.7774239194197212
12645674666.666666 -0.6189179652672027 0.7854556335461016 5.723286014718984e-17 -1.4588805105388084e-16 5.723286014718984e-17 -1.4588805105388084e-16 -0.6189185218906613 0.7854551949414307
12646292000.0 -0.6087569563475249 0.7933567722647232 5.5326563299281733e-17 -1.4658890933272046e-16 5.5326563299281733e-17 -1.4658890933272046e-16 -0.608757518542795 0.793356340881839
12646909333.333334 -0.5984950921721307 0.8011264723161226 5.3411717879156775e-17 -1.472648728443283e-16 5.3411717879156775e-17 -1.472648728443283e-16 -0.598495659845532 0.8011260482257855
12647526666.666666 -0.588134072866196 0.8087634464623285 5.14886488062999e-17 -1.4791583778403721e-16 5.14886488062999e-17 -1.4791583778403721e-16 -0.5881346459231489 0.8087630297340836
12648144000.0 -0.5776756149822385 0.8162664294546822 4.9557682254250436e-17 -1.4854170458554607e-16 4.9557682254250436e-17 -1.4854170458554607e-16 -0.5776761933272822 0.8162660201568496
12648761333.333334 -0.5671214512158214 0.8236341782433884 4.7619145595422126e-17 -1.4914237793595529e-16 4.7619145595422126e-17 -1.4914237793595529e-16 -0.5671220347526285 0.8236337764430504
12649378666.666666 -0.5564733301185859 0.8308654721833937 4.5673367345660426e-17 -1.4971776679011495e-16 4.5673367345660426e-17 -1.4971776679011495e-16 -0.5564739187499761 0.8308650779463816
12649996000.0 -0.5457330158084183 0.837959113236709 4.372067710859444e-17 -1.5026778438425842e-16 4.372067710859444e-17 -1.5026778438425842e-16 -0.5457336094363785 0.8379587266275971
12650613333.333334 -0.5349022876772307 0.8449139261708658 4.176140551989611e-17 -1.5079234824889068e-16 4.176140551989611e-17 -1.5079234824889068e-16 -0.53490288620293 0.8449135472529583
12651230666.666666 -0.5239829400962105 0.8517287587535908 3.9795884191397113e-17 -1.5129138022095137e-16 3.9795884191397113e-17 -1.5129138022095137e-16 -0.5239835434200156 0.851728387588911
12651848000.0 -0.5129767821183945 0.8584024819437908 3.7824445654943075e-17 -1.517648064552807e-16 3.7824445654943075e-17 -1.517648064552807e-16 -0.5129773901398867 0.8584021185930709
12652465333.333334 -0.5018856371789983 0.8649339900785679 3.584742330627837e-17 -1.5221255743531168e-16 3.584742330627837e-17 -1.5221255743531168e-16 -0.5018862497969911 0.8649336346012415
12653082666.666666 -0.4907113427937205 0.8713222010561804 3.386515134873138e-17 -1.5263456798305636e-16 3.386515134873138e-17 -1.5263456798305636e-16 -0.4907119599062749 0.8713218535103687
12653700000.0 -0.47945575025342163 0.8775660565158221 3.18779647366982e-17 -1.5303077726837402e-16 3.18779647366982e-17 -1.5303077726837402e-16 -0.4794563717578654 0.8775657169583289
12654317333.333334 -0.46812072431850554 0.8836645220123531 2.9886199119231373e-17 -1.5340112881746295e-16 2.9886199119231373e-17 -1.5340112881746295e-16 -0.4681213501114476 0.8836641904986519
12654934666.666666 -0.45670814290908085 0.8896165871881782 2.789019078332513e-17 -1.537455705206612e-16 2.789019078332513e-17 -1.537455705206612e-16 -0.45670877288643047 0.8896162637724048
12655552000.0 -0.4452198967942361 0.8954212659404138 2.5890276597202533e-17 -1.540640546394925e-16 2.5890276597202533e-17 -1.540640546394925e-16 -0.4452205308512192 0.8954209506753574
12656169333.333334 -0.4336578892788395 0.9010775965842365 2.388679395360599e-17 -1.543565378129623e-16 2.388679395360599e-17 -1.543565378129623e-16 -0.4336585273100167 0.9010772895213314
12656786666.666666 -0.4220240358880616 0.9065846420122917 2.1880080712855813e-17 -1.5462298106314663e-16 2.1880080712855813e-17 -1.5462298106314663e-16 -0.4220246777873449 0.9065843432016073
12657404000.0 -0.4103202640501213 0.9119414898498927 1.9870475145983478e-17 -1.5486334980001906e-16 1.9870475145983478e-17 -1.5486334980001906e-16 -0.41032090971079277 0.9119411993401272
12658021333.333334 -0.39854851277675624 0.9171472526062746 1.7858315877756855e-17 -1.5507761382554885e-16 1.7858315877756855e-17 -1.5507761382554885e-16 -0.39854916209148533 0.9171469704447466
12658638666.666666 -0.3867107323423415 0.9222010678214664 1.5843941829730136e-17 -1.5526574733705472e-16 1.5843941829730136e-17 -1.5526574733705472e-16 -0.38671138520320203 0.9222007940541056
12659256000.0 -0.37480888396036127 0.9271020982093566 1.382769216313352e-17 -1.5542772892983106e-16 1.382769216313352e-17 -1.5542772892983106e-16 -0.3748095402588507 0.9271018328806985
12659873333.333334 -0.362844939458854 0.9318495317962563 1.18099062219128e-17 -1.5556354159901914e-16 1.18099062219128e-17 -1.5556354159901914e-16 -0.3628455990859113 0.9318492749494353
12660490666.666666 -0.35082088095357644 0.9364425820554932 9.790923475681068e-18 -1.5567317274074735e-16 9.790923475681068e-18 -1.5567317274074735e-16 -0.3508215437995987 0.9364423337322316
12661108000.0 -0.3387387005194552 0.940880488037771 7.77108346258299e-18 -1.5575661415253675e-16 7.77108346258299e-18 -1.5575661415253675e-16 -0.33873936647431757 0.9408802482783767
12661725333.333334 -0.32660039986087225 0.9451625144971212 5.750725732382268e-18 -1.5581386203295466e-16 5.750725732382268e-18 -1.5581386203295466e-16 -0.326601068813946 0.9451622833404804
12662342666.666666 -0.31440798997987635 0.9492879520127795 3.730189789348071e-18 -1.5584491698054225e-16 3.730189789348071e-18 -1.5584491698054225e-16 -0.3144086618200459 0.9492877294963472
12662960000.0 -0.3021634908428475 0.9532561171067649 1.709815035313e-18 -1.5584978399199642e-16 1.709815035313e-18 -1.5584978399199642e-16 -0.3021641654585308 0.9532559032665635
12663577333.333334 -0.28986893104616646 0.9570663523570115 -3.1005928728267557e-19 -1.5582847245961605e-16 -3.1005928728267557e-19 -1.5582847245961605e-16 -0.2898696083253319 0.9570661472276207
12664194666.666666 -0.277526347479966 0.9607180265063378 -2.3290941522978003e-18 -1.5578099616801138e-16 -2.3290941522978003e-18 -1.5578099616801138e-16 -0.2775270273101516 0.9607178301208907
12664812000.0 -0.2651377849905076 0.9642105345670777 -4.346950806694354e-18 -1.5570737329007782e-16 -4.346950806694354e-18 -1.5570737329007782e-16 -0.2651384672588403 0.964210346957258
12665429333.333334 -0.252705296041731 0.9675432979212163 -6.363290827362018e-18 -1.5560762638223326e-16 -6.363290827362018e-18 -1.5560762638223326e-16 -0.25270598063494426 0.9675431191172483
12666046666.666666 -0.24023094037504986 0.9707157644162997 -8.377776177776695e-18 -1.554817823789228e-16 -8.377776177776695e-18 -1.554817823789228e-16 -0.24023162717950344 0.9707155944469475
12666664000.0 -0.22771678466794157 0.9737274084569552 -1.0390069264616223e-17 -1.5532987258638875e-16 -1.0390069264616223e-17 -1.5532987258638875e-16 -0.22771747356963953 0.9737272473495149
12667281333.333334 -0.21516490219188078 0.976577731091878 -1.2399832994279695e-17 -1.5515193267571042e-16 -1.2399832994279695e-17 -1.5515193267571042e-16 -0.21516559307649155 0.9765775788721777
12667898666.666666 -0.20257737246869026 0.9792662600965503 -1.440673082924789e-17 -1.5494800267511723e-16 -1.440673082924789e-17 -1.5494800267511723e-16 -0.20257806522156424 0.9792661167889404
12668516000.0 -0.18995628092584765 0.9817925500514979 -1.641042684446937e-17 -1.5471812696156072e-16 -1.641042684446937e-17 -1.5471812696156072e-16 -0.1899569754320373 0.9817924156788516
12669133333.333334 -0.17730371855131974 0.9841561824160215 -1.8410585783401623e-17 -1.5446235425158059e-16 -1.8410585783401623e-17 -1.5446235425158059e-16 -0.1773044146955981 0.9841560569997292
12669750666.666666 -0.16462178154697268 0.9863567655975719 -2.0406873114138218e-17 -1.5418073759142448e-16 -2.0406873114138218e-17 -1.5418073759142448e-16 -0.16462247921385276 0.9863566491575384
12670368000.0 -0.15191257098111763 0.9883939350166565 -2.2398955085251564e-17 -1.5387333434645814e-16 -2.2398955085251564e-17 -1.5387333434645814e-16 -0.15191327005487126 0.9883938275712967
