! Parameters = {f0=12700.012000; bw=77.238000; Q=6100.000000; N=10; m_0_1=1.264159; m_1_1=0.197642; m_1_2=1.098971; m_2_2=0.196993; m_2_3=0.735934; m_2_8=0.000272; m_2_9=0.036976; m_3_3=0.195056; m_3_4=0.624463; m_3_7=0.000872; m_3_8=-0.096216; m_3_9=0.000272; m_4_4=0.192131; m_4_5=0.460798; m_4_6=0.004389; m_4_7=-0.116765; m_4_8=0.000872; m_5_5=0.192513; m_5_6=0.868153; m_5_7=0.004389; m_6_6=0.192512; m_6_7=0.461140; m_7_7=0.192145; m_7_8=0.624581; m_8_8=0.195054; m_8_9=0.736247; m_9_9=0.196988; m_9_10=1.100049; m_10_10=0.197632; m_10_11=1.264954}
!
! Created with skrf (http://scikit-rf.org).
# Hz S RI R 50.0 
!freq ReS11 ImS11 ReS21 ImS21 ReS12 ImS12 ReS22 ImS22
12607400000.0 -0.4056538498450989 -0.9140267797530195 6.977925666728216e-17 8.189238867758835e-17 6.977925666728216e-17 8.189238867758835e-17 -0.40565324106218603 -0.9140270499364712
12608017333.333334 -0.4150923824837648 -0.9097792666376705 7.06164791301605e-17 8.114362305638152e-17 7.06164791301605e-17 8.114362305638152e-17 -0.4150917765595527 -0.9097795430940723
12608634666.666666 -0.42448644740804464 -0.9054342913578669 7.144567804941375e-17 8.038630776322293e-17 7.144567804941375e-17 8.038630776322293e-17 -0.42448584440716136 -0.9054345740569907
12609252000.0 -0.4338350382574544 -0.9009923193790158 7.226676621846019e-17 7.962052866297191e-17 7.226676621846019e-17 7.962052866297191e-17 -0.43383443824420836 -0.9009926082899666
12609869333.333334 -0.4431371535431272 -0.8964538265574641 7.30796573484614e-17 7.884637250890369e-17 7.30796573484614e-17 7.884637250890369e-17 -0.4431365565815005 -0.896454121648685
12610486666.666666 -0.4523917967548185 -0.8918192990896602 7.38842660773461e-17 7.806392693292696e-17 7.38842660773461e-17 7.806392693292696e-17 -0.4523912029084598 -0.891819600328935
12611104000.0 -0.4615979764680165 -0.8870892334598919 7.468050797877795e-17 7.727328043566309e-17 7.468050797877795e-17 7.727328043566309e-17 -0.4615973858002349 -0.8870895408143495
12611721333.333334 -0.47075470644987083 -0.8822641363872391 7.546829957094088e-17 7.647452237650874e-17 7.546829957094088e-17 7.647452237650874e-17 -0.47075411902362935 -0.8822644498233574
12612338666.666666 -0.47986100576494894 -0.877344524771243 7.624755832529091e-17 7.566774296353911e-17 7.624755832529091e-17 7.566774296353911e-17 -0.4798604216428556 -0.8773448442548492
12612956000.0 -0.4889158988804159 -0.8723309256364701 7.701820267517795e-17 7.485303324334302e-17 7.701820267517795e-17 7.485303324334302e-17 -0.48891531812472033 -0.8723312511327497
12613573333.333334 -0.49791841577027157 -0.8672238760762117 7.778015202431959e-17 7.403048509081299e-17 7.778015202431959e-17 7.403048509081299e-17 -0.49791783844285586 -0.867224207549708
12614190666.666666 -0.5068675920196121 -0.8620239231947485 7.853332675523805e-17 7.320019119877437e-17 7.853332675523805e-17 7.320019119877437e-17 -0.506867018181985 -0.8620242606093684
12614808000.0 -0.5157624689276719 -0.8567316240488952 7.92776482375234e-17 7.23622450675951e-17 7.92776482375234e-17 7.23622450675951e-17 -0.5157618986409627 -0.8567319673679128
12615425333.333334 -0.5246020936106277 -0.85134754558827 8.001303883602052e-17 7.1516740994677e-17 8.001303883602052e-17 7.1516740994677e-17 -0.5246015269355789 -0.8513478947743299
12616042666.666666 -0.5333855191037502 -0.8458722645945125 8.073942191890139e-17 7.066377406386586e-17 8.073942191890139e-17 7.066377406386586e-17 -0.5333849561007117 -0.8458726196096351
12616660000.0 -0.5421118044627022 -0.8403063676195824 8.145672186560695e-17 6.98034401348004e-17 8.145672186560695e-17 6.98034401348004e-17 -0.5421112451916257 -0.8403067284251687
12617277333.333334 -0.550780014864442 -0.8346504509228708 8.216486407469822e-17 6.893583583215629e-17 8.216486407469822e-17 6.893583583215629e-17 -0.5507794593848709 -0.8346508174797018
12617894666.666666 -0.5593892217073116 -0.8289051204073442 8.286377497156912e-17 6.806105853483859e-17 8.286377497156912e-17 6.806105853483859e-17 -0.5593886700783801 -0.8289054926755921
12618512000.0 -0.5679385027106426 -0.8230709915545672 8.355338201608778e-17 6.717920636504459e-17 8.355338201608778e-17 6.717920636504459e-17 -0.5679379549910655 -0.8230713694937952
12619129333.333334 -0.5764269420133161 -0.8171486893589213 8.423361371005219e-17 6.629037817733511e-17 8.423361371005219e-17 6.629037817733511e-17 -0.5764263982613833 -0.8171490729280882
12619746666.666666 -0.5848536302720669 -0.8111388482605242 8.490439960460463e-17 6.539467354753772e-17 8.490439960460463e-17 6.539467354753772e-17 -0.5848530905456384 -0.8111392374179913
12620364000.0 -0.59321766475899 -0.8050421120771976 8.556567030748073e-17 6.449219276163517e-17 8.556567030748073e-17 6.449219276163517e-17 -0.5932171291154885 -0.8050425067807306
12620981333.333334 -0.6015181494579015 -0.7988591339357445 8.621735749014392e-17 6.35830368045791e-17 8.621735749014392e-17 6.35830368045791e-17 -0.6015176179543065 -0.7988595341425189
12621598666.666666 -0.6097541951606242 -0.792590576201764 8.685939389483483e-17 6.266730734898537e-17 8.685939389483483e-17 6.266730734898537e-17 -0.6097536678534671 -0.7925909818683712
12622216000.0 -0.6179249195622032 -0.7862371104087302 8.749171334145856e-17 6.174510674381767e-17 8.749171334145856e-17 6.174510674381767e-17 -0.6179243965075594 -0.7862375214911802
12622833333.333334 -0.6260294473553288 -0.7797994171861165 8.81142507343819e-17 6.081653800296009e-17 8.81142507343819e-17 6.081653800296009e-17 -0.6260289286088129 -0.7797998336398431
12623450666.666666 -0.6340669103240891 -0.7732781861865036 8.872694206908926e-17 5.988170479375185e-17 8.872694206908926e-17 5.988170479375185e-17 -0.6340663959408489 -0.7732786079663703
12624068000.0 -0.6420364474371557 -0.7666741160115574 8.932972443874263e-17 5.89407114254174e-17 8.932972443874263e-17 5.89407114254174e-17 -0.6420359374718659 -0.766674543071861
12624685333.333334 -0.6499372049399094 -0.7599879141372734 8.992253604059493e-17 5.799366283746612e-17 8.992253604059493e-17 5.799366283746612e-17 -0.6499366994467674 -0.7599883464317511
12625302666.666666 -0.6577683364457546 -0.7532202968383224 9.050531618227905e-17 5.704066458803405e-17 9.050531618227905e-17 5.704066458803405e-17 -0.6577678354784721 -0.7532207343201532
12625920000.0 -0.6655290030271742 -0.7463719891109797 9.107800528801319e-17 5.608182284209801e-17 9.107800528801319e-17 5.608182284209801e-17 -0.6655285066389734 -0.7463724317327929
12626537333.333334 -0.6732183733051755 -0.7394437245958342 9.164054490462096e-17 5.5117244359726204e-17 9.164054490462096e-17 5.5117244359726204e-17 -0.673217881548782 -0.7394441723097118
12627154666.666666 -0.6808356235385645 -0.7324362454990062 9.219287770747371e-17 5.4147036484193944e-17 9.219287770747371e-17 5.4147036484193944e-17 -0.6808351364662045 -0.7324366982564915
12627772000.0 -0.6883799377122779 -0.7253503025125614 9.273494750630651e-17 5.317130713003986e-17 9.273494750630651e-17 5.317130713003986e-17 -0.6883794553756699 -0.7253507602646614
12628389333.333334 -0.6958505076245914 -0.7181866547342859 9.326669925086338e-17 5.219016477114376e-17 9.326669925086338e-17 5.219016477114376e-17 -0.6958500300749397 -0.718187117431475
12629006666.666666 -0.703246532973881 -0.7109460695861829 9.378807903648158e-17 5.1203718428631805e-17 9.378807903648158e-17 5.1203718428631805e-17 -0.7032460602618746 -0.7109465371784139
12629624000.0 -0.7105672214442001 -0.703629322732428 9.429903410948854e-17 5.0212077658835716e-17 9.429903410948854e-17 5.0212077658835716e-17 -0.7105667536200035 -0.7036297951691322
12630241333.333334 -0.7178117887903358 -0.696237197996088 9.479951287251247e-17 4.9215352541123855e-17 9.479951287251247e-17 4.9215352541123855e-17 -0.7178113259035861 -0.6962376752261842
12630858666.666666 -0.7249794589215857 -0.6887704872753987 9.528946488963935e-17 4.8213653665728486e-17 9.528946488963935e-17 4.8213653665728486e-17 -0.7249790010213855 -0.6887709692472961
12631476000.0 -0.7320694639851748 -0.6812299904586442 9.576884089147225e-17 4.720709212145948e-17 9.576884089147225e-17 4.720709212145948e-17 -0.7320690111200876 -0.6812304771202495
12632093333.333334 -0.739081044448315 -0.6736165153386707 9.623759278001653e-17 4.619577948346129e-17 9.623759278001653e-17 4.619577948346129e-17 -0.7390805966663606 -0.6736170066373934
12632710666.666666 -0.7460134491795752 -0.6659308775263527 9.669567363347302e-17 4.517982780084561e-17 9.669567363347302e-17 4.517982780084561e-17 -0.7460130065282246 -0.6659313734091111
12633328000.0 -0.7528659355295211 -0.6581739003630311 9.714303771089874e-17 4.415934958427928e-17 9.714303771089874e-17 4.415934958427928e-17 -0.7528654980556895 -0.6581744007762563
12633945333.333334 -0.759637769410059 -0.650346414832538 9.75796404567075e-17 4.313445779359337e-17 9.75796404567075e-17 4.313445779359337e-17 -0.7596373371601045 -0.6503469197221828
12634562666.666666 -0.7663282253732522 -0.6424492594719906 9.800543850507568e-17 4.210526582526788e-17 9.800543850507568e-17 4.210526582526788e-17 -0.7663277983929669 -0.6424497687835321
12635180000.0 -0.7729365866888995 -0.6344832802821043 9.8420389684191e-17 4.107188749993209e-17 9.8420389684191e-17 4.107188749993209e-17 -0.7729361650235086 -0.6344837939605528
12635797333.333334 -0.7794621454213974 -0.6264493306364839 9.882445302038497e-17 4.0034437049787266e-17 9.882445302038497e-17 4.0034437049787266e-17 -0.7794617291155507 -0.6264498486263859
12636414666.666666 -0.7859042025055554 -0.61834827119022 9.921758874212116e-17 3.8993029106020535e-17 9.921758874212116e-17 3.8993029106020535e-17 -0.7859037916033247 -0.618348793435666
12637032000.0 -0.7922620678214864 -0.6101809697876912 9.959975828386812e-17 3.794777868613498e-17 9.959975828386812e-17 3.794777868613498e-17 -0.7922616623663613 -0.6101814962323223
12637649333.333334 -0.7985350602685239 -0.6019483013696196 9.997092428981678e-17 3.6898801181301813e-17 9.997092428981678e-17 3.6898801181301813e-17 -0.7985346603034046 -0.601948831956631
12638266666.666666 -0.8047225078382487 -0.5936511478792454 1.0033105061748615e-16 3.584621234362042e-17 1.0033105061748615e-16 3.584621234362042e-17 -0.8047221134054438 -0.5936516825513948
12638884000.0 -0.8108237476863802 -0.5852903981679853 1.0068010234117864e-16 3.479012827338941e-17 1.0068010234117864e-16 3.479012827338941e-17 -0.8108233588276021 -0.5852909368675989
12639501333.333334 -0.8168381262038702 -0.5768669479000993 1.0101804575531373e-16 3.373066540631043e-17 1.0101804575531373e-16 3.373066540631043e-17 -0.8168377429602296 -0.5768674905690767
12640118666.666666 -0.82276499908679 -0.5683816994569242 1.0134484837761534e-16 3.266794050069798e-17 1.0134484837761534e-16 3.266794050069798e-17 -0.8227646214987917 -0.5683822460367455
12640736000.0 -0.8286037314056769 -0.5598355618397379 1.0166047895218972e-16 3.1602070624578096e-17 1.0166047895218972e-16 3.1602070624578096e-17 -0.8286033595132176 -0.5598361122714715
12641353333.333334 -0.8343536976730688 -0.5512294505730829 1.0196490745242417e-16 3.0533173142902954e-17 1.0196490745242417e-16 3.0533173142902954e-17 -0.8343533315154298 -0.5512300047973886
12641970666.666666 -0.8400142819108979 -0.5425642876061261 1.0225810508379853e-16 2.9461365704581905e-17 1.0225810508379853e-16 2.9461365704581905e-17 -0.8400139215267428 -0.542564845563264
12642588000.0 -0.8455848777163648 -0.5338410012140563 1.0254004428653392e-16 2.838676622957632e-17 1.0254004428653392e-16 2.838676622957632e-17 -0.8455845231437342 -0.5338415628438924
12643205333.333334 -0.8510648883268211 -0.5250605258987592 1.0281069873810745e-16 2.7309492895967248e-17 1.0281069873810745e-16 2.7309492895967248e-17 -0.8510645396031303 -0.5250610911407716
12643822666.666666 -0.8564537266838104 -0.5162238022885404 1.0307004335564564e-16 2.622966412694753e-17 1.0307004335564564e-16 2.622966412694753e-17 -0.8564533838458449 -0.5162243710818271
12644440000.0 -0.8617508154959256 -0.5073317770374064 1.0331805429816289e-16 2.514739857786228e-17 1.0331805429816289e-16 2.514739857786228e-17 -0.8617504785798356 -0.5073323493206897
12645057333.333334 -0.8669555873005773 -0.4983854027237721 1.0355470896867728e-16 2.406281512317961e-17 1.0355470896867728e-16 2.406281512317961e-17 -0.8669552563418759 -0.4983859784354075
12645674666.666666 -0.8720674845248481 -0.48938563774831884 1.0377998601618483e-16 2.2976032843463033e-17 1.0377998601618483e-16 2.2976032843463033e-17 -0.8720671595584067 -0.48938621682630024
12646292000.0 -0.8770859595452914 -0.4803334462311996 1.0399386533750514e-16 2.1887171012287996e-17 1.0399386533750514e-16 2.1887171012287996e-17 -0.8770856406053356 -0.48033402861316593
12646909333.333334 -0.8820104747464693 -0.47122979790897596 1.041963280789722e-16 2.0796349083231358e-17 1.041963280789722e-16 2.0796349083231358e-17 -0.8820101618665763 -0.4712303835322189
12647526666.666666 -0.8868405025786021 -0.4620756680306349 1.0438735663800789e-16 1.970368667675158e-17 1.0438735663800789e-16 1.970368667675158e-17 -0.8868401957916974 -0.4620762568321051
12648144000.0 -0.8915755256141145 -0.4528720372530647 1.0456693466455191e-16 1.8609303567088438e-17 1.0456693466455191e-16 1.8609303567088438e-17 -0.8915752249524661 -0.4528726291693782
12648761333.333334 -0.8962150366030436 -0.443619891536021 1.0473504706234717e-16 1.7513319669189642e-17 1.0473504706234717e-16 1.7513319669189642e-17 -0.8962147420982616 -0.44362048650346647
12649378666.666666 -0.9007585385273091 -0.43432022203665815 1.0489167999009947e-16 1.6415855025570952e-17 1.0489167999009947e-16 1.6415855025570952e-17 -0.9007582502103404 -0.4343208199912036
12649996000.0 -0.9052055446540588 -0.4249740250031464 1.0503682086249367e-16 1.5317029793197082e-17 1.0503682086249367e-16 1.5317029793197082e-17 -0.9052052625551846 -0.42497462588044627
12650613333.333334 -0.9095555785878063 -0.4155823016679443 1.0517045835107482e-16 1.4216964230346423e-17 1.0517045835107482e-16 1.4216964230346423e-17 -0.9095553027366391 -0.41558290540334636
12651230666.666666 -0.9138081743213486 -0.40614605814079835 1.0529258238498923e-16 1.3115778683490817e-17 1.0529258238498923e-16 1.3115778683490817e-17 -0.9138079047468284 -0.4061466646693502
12651848000.0 -0.9179628762858424 -0.39666630530062486 1.0540318415159551e-16 1.2013593574110873e-17 1.0540318415159551e-16 1.2013593574110873e-17 -0.9179626130162335 -0.3966669145570811
12652465333.333334 -0.9220192393995336 -0.38714405868737145 1.0550225609692768e-16 1.0910529385595195e-17 1.0550225609692768e-16 1.0910529385595195e-17 -0.9220189824624231 -0.3871446706062013
12653082666.666666 -0.9259768291153748 -0.3775803383933837 1.0558979192602882e-16 9.806706650084102e-18 1.0558979192602882e-16 9.806706650084102e-18 -0.9259765785376678 -0.3775809529087771
12653700000.0 -0.9298352214677291 -0.367976168953757 1.0566578660314796e-16 8.702245935283014e-18 1.0566578660314796e-16 8.702245935283014e-18 -0.9298349772756488 -0.36797678599963296
12654317333.333334 -0.9335940031176198 -0.35833257923700407 1.0573023635179255e-16 7.597267831379303e-18 1.0573023635179255e-16 7.597267831379303e-18 -0.9335937653367 -0.358333198747016
12654934666.666666 -0.937252771397152 -0.34865060233446277 1.0578313865465194e-16 6.4918929378445935e-18 1.0578313865465194e-16 6.4918929378445935e-18 -0.9372525400522398 -0.3486512242420074
12655552000.0 -0.9408111343525911 -0.3389312754497843 1.05824492253379e-16 5.3862418503163436e-18 1.05824492253379e-16 5.3862418503163436e-18 -0.94081090946784 -0.3389318996880074
12656169333.333334 -0.9442687107862895 -0.32917563978797915 1.0585429714823505e-16 4.280435147481985e-18 1.0585429714823505e-16 4.280435147481985e-18 -0.94426849238516 -0.329176266289784
12656786666.666666 -0.9476251302976536 -0.3193847404435301 1.058725545976005e-16 3.1745933779128454e-18 1.058725545976005e-16 3.1745933779128454e-18 -0.9476249184029093 -0.3193853691415839
12657404000.0 -0.9508800333227164 -0.30955962628872746 1.0587926711734549e-16 2.068837046978703e-18 1.0587926711734549e-16 2.068837046978703e-18 -0.9508798279564203 -0.30956025711546825
12658021333.333334 -0.9540330711727105 -0.29970134986114466 1.0587443848006583e-16 9.632866037210026e-19 1.0587443848006583e-16 9.632866037210026e-19 -0.9540328723562257 -0.2997019827487895
12658638666.666666 -0.9570839060713658 -0.28981096725107375 1.0585807371418197e-16 -1.4193757222355857e-19 1.0585807371418197e-16 -1.4193757222355857e-19 -0.9570837138253512 -0.2898116021316255
12659256000.0 -0.9600322111912111 -0.27988953798800853 1.05830179102901e-16 -1.2467151837499737e-18 1.05830179102901e-16 -1.2467151837499737e-18 -0.960032025535619 -0.2798901747932629
12659873333.333334 -0.9628776706884559 -0.2699381249275462 1.0579076218304278e-16 -2.350926029307496e-18 1.0579076218304278e-16 -2.350926029307496e-18 -0.9628774916425321 -0.26993876358909985
12660490666.666666 -0.965619979736862 -0.2599577941374487 1.0573983174373061e-16 -3.454450015978938e-18 1.0573983174373061e-16 -3.454450015978938e-18 -0.9656198073191417 -0.2599584345867058
12661108000.0 -0.9682588445604907 -0.249949614783079 1.0567739782494437e-16 -4.5571671725279605e-18 1.0567739782494437e-16 -4.5571671725279605e-18 -0.9682586787887969 -0.24995025695125894
12661725333.333334 -0.9707939824650256 -0.23991465901341363 1.0560347171594078e-16 -5.658957662386e-18 1.0560347171594078e-16 -5.658957662386e-18 -0.9707938233564675 -0.2399153028315583
12662342666.666666 -0.9732251218681605 -0.22985400184580207 1.0551806595353434e-16 -6.759701796694509e-18 1.0551806595353434e-16 -6.759701796694509e-18 -0.9732249694391336 -0.22985464724478374
12662960000.0 -0.9755520023286802 -0.2197687210508582 1.0542119432024716e-16 -7.859280047251003e-18 1.0542119432024716e-16 -7.859280047251003e-18 -0.9755518565948608 -0.21976936796138605
12663577333.333334 -0.9777743745743198 -0.20965989703713794 1.0531287184232113e-16 -8.95757305947756e-18 1.0531287184232113e-16 -8.95757305947756e-18 -0.9777742355506676 -0.2096605453897665
12664194666.666666 -0.9798920005285 -0.19952861273531816 1.0519311478759587e-16 -1.0054461665362366e-17 1.0519311478759587e-16 -1.0054461665362366e-17 -0.9798918682292522 -0.19952926246045377
12664812000.0 -0.9819046533358385 -0.18937595348209893 1.050619406632534e-16 -1.1149826896348875e-17 1.050619406632534e-16 -1.1149826896348875e-17 -0.9819045277745118 -0.18937660451000785
12665429333.333334 -0.9838121173864272 -0.1792030069040749 1.0491936821342778e-16 -1.2243549996228263e-17 1.0491936821342778e-16 -1.2243549996228263e-17 -0.9838119985758157 -0.17920365916489084
12666046666.666666 -0.9856141883389279 -0.16901086280124897 1.047654174166817e-16 -1.3335512433985753e-17 1.047654174166817e-16 -1.3335512433985753e-17 -0.985614076291101 -0.1690115162249803
12666664000.0 -0.9873106731425081 -0.15880061303003343 1.0460010948334645e-16 -1.442559591663814e-17 1.0460010948334645e-16 -1.442559591663814e-17 -0.9873105678688087 -0.15880126754657062
12667281333.333334 -0.9889013900574682 -0.14857335138656141 1.0442346685273674e-16 -1.5513682401993016e-17 1.0442346685273674e-16 -1.5513682401993016e-17 -0.9889012915685131 -0.14857400692568476
12667898666.666666 -0.9903861686747332 -0.1383301734894001 1.0423551319022178e-16 -1.659965411144688e-17 1.0423551319022178e-16 -1.659965411144688e-17 -0.9903860769804134 -0.1383308299807875
12668516000.0 -0.991764849934126 -0.1280721766620964 1.0403627338417179e-16 -1.768339354269311e-17 1.0403627338417179e-16 -1.768339354269311e-17 -0.9917647650435996 -0.12807283403533004
12669133333.333334 -0.9930372861413689 -0.11780045981579058 1.0382577354277381e-16 -1.876478348239508e-17 1.0382577354277381e-16 -1.876478348239508e-17 -0.9930372080630667 -0.11780111800036541
12669750666.666666 -0.9942033409839345 -0.10751612333138219 1.0360404099070603e-16 -1.9843707018878973e-17 1.0360404099070603e-16 -1.9843707018878973e-17 -0.9942032697255574 -0.10751678225671321
12670368000.0 -0.995262889545642 -0.09722026894164831 1.0337110426569213e-16 -2.0920047554720764e-17 1.0337110426569213e-16 -2.0920047554720764e-17 -0.9952628251141581 -0.09722092853707778
