! Parameters = {f0=12700.012000; bw=77.238000; Q=6100.000000; N=10; m_0_1=1.217913; m_1_1=-0.496052; m_1_2=1.052725; m_2_2=-0.496701; m_2_3=0.689688; m_2_8=-0.002041; m_2_9=0.034663; m_3_3=-0.498638; m_3_4=0.578217; m_3_7=-0.001441; m_3_8=-0.098529; m_3_9=-0.002041; m_4_4=-0.501563; m_4_5=0.414552; m_4_6=0.002076; m_4_7=-0.119078; m_4_8=-0.001441; m_5_5=-0.501181; m_5_6=0.821907; m_5_7=0.002076; m_6_6=-0.501182; m_6_7=0.414894; m_7_7=-0.501549; m_7_8=0.578335; m_8_8=-0.498640; m_8_9=0.690001; m_9_9=-0.496706; m_9_10=1.053803; m_10_10=-0.496062; m_10_11=1.218708}
!
! Created with skrf (http://scikit-rf.org).
# Hz S RI R 50.0 
!freq ReS11 ImS11 ReS21 ImS21 ReS12 ImS12 ReS22 ImS22
12607400000.0 0.6838055949718501 0.7296642435291941 -7.416604123893887e-17 -4.343738699780187e-17 -7.416604123893887e-17 -4.343738699780187e-17 0.6838051267019859 0.7296646823684966
12608017333.333334 0.6903325750486194 0.7234921809021712 -7.454243696432623e-17 -4.275441371230022e-17 -7.454243696432623e-17 -4.275441371230022e-17 0.6903321107624756 0.7234926239085385
12608634666.666666 0.6968038481663436 0.7172617354776516 -7.491254970243192e-17 -4.206818882064882e-17 -7.491254970243192e-17 -4.206818882064882e-17 0.696803387900995 0.7172621826149295
12609252000.0 0.7032188921203386 0.7109734100266212 -7.527635145746863e-17 -4.137877006628351e-17 -7.527635145746863e-17 -4.137877006628351e-17 0.7032184359125306 0.7109738612583244
12609869333.333334 0.7095771892433976 0.7046277119907192 -7.56338147638257e-17 -4.0686215432790175e-17 -7.56338147638257e-17 -4.0686215432790175e-17 0.7095767371295466 0.7046281672800372
12610486666.666666 0.7158782264474505 0.6982251534414169 -7.598491268811948e-17 -3.999058313904358e-17 -7.598491268811948e-17 -3.999058313904358e-17 0.7158777784636359 0.6982256127512131
12611104000.0 0.72212149526526 0.6917662510383854 -7.632961883121146e-17 -3.9291931634304976e-17 -7.632961883121146e-17 -3.9291931634304976e-17 0.7221210514472266 0.6917667143312037
12611721333.333334 0.72830649189106 0.6852515259882129 -7.666790733015364e-17 -3.859031959335678e-17 -7.666790733015364e-17 -3.859031959335678e-17 0.7283060522742129 0.6852519932262798
12612338666.666666 0.7344327172214877 0.6786815040020612 -7.699975286012144e-17 -3.7885805911557756e-17 -7.699975286012144e-17 -3.7885805911557756e-17 0.7344322818408883 0.6786819751472876
12612956000.0 0.7404996768958355 0.6720567152532592 -7.73251306362789e-17 -3.717844969992522e-17 -7.73251306362789e-17 -3.717844969992522e-17 0.7404992457862015 0.6720571902672454
12613573333.333334 0.7465068813357544 0.6653776943347316 -7.764401641560136e-17 -3.64683102801999e-17 -7.764401641560136e-17 -3.64683102801999e-17 0.746506454531454 0.6653781731787687
12614190666.666666 0.7524538457850262 0.6586449802155643 -7.795638649866513e-17 -3.5755447179866206e-17 -7.795638649866513e-17 -3.5755447179866206e-17 0.7524534233200783 0.6586454628506391
12614808000.0 0.7583400903484747 0.6518591161977451 -7.826221773138325e-17 -3.503992012717779e-17 -7.826221773138325e-17 -3.503992012717779e-17 0.7583396722565435 0.6518596025845411
12615425333.333334 0.7641651400307824 0.6450206498722126 -7.85614875066911e-17 -3.432178904617707e-17 -7.85614875066911e-17 -3.432178904617707e-17 0.7641647263451772 0.6450211399711161
12616042666.666666 0.7699285247748068 0.6381301330746947 -7.885417376619607e-17 -3.3601114051680966e-17 -7.885417376619607e-17 -3.3601114051680966e-17 0.7699281155284766 0.6381306268457945
12616660000.0 0.7756297794994884 0.6311881218411936 -7.914025500177478e-17 -3.287795544426597e-17 -7.914025500177478e-17 -3.287795544426597e-17 0.7756293747250218 0.631188619244287
12617277333.333334 0.7812684441374739 0.6241951763630087 -7.941971025713184e-17 -3.215237370522445e-17 -7.941971025713184e-17 -3.215237370522445e-17 0.7812680438670959 0.6241956773576046
12617894666.666666 0.7868440636720466 0.6171518609417772 -7.969251912929726e-17 -3.1424429491543954e-17 -7.969251912929726e-17 -3.1424429491543954e-17 0.7868436679376138 0.617152365487097
12618512000.0 0.7923561881741048 0.6100587439435979 -7.995866177010141e-17 -3.0694183630815256e-17 -7.995866177010141e-17 -3.0694183630815256e-17 0.7923557970071072 0.6100592519985825
12619129333.333334 0.7978043728382115 0.6029163977535075 -8.021811888757653e-17 -2.996169711619881e-17 -8.021811888757653e-17 -2.996169711619881e-17 0.7978039862697655 0.6029169092768167
12619746666.666666 0.8031881780186433 0.5957253987290871 -8.047087174733802e-17 -2.922703110131121e-17 -8.047087174733802e-17 -2.922703110131121e-17 0.8031877960794922 0.5957259136791063
12620364000.0 0.8085071692649344 0.5884863271538605 -8.071690217390169e-17 -2.8490246895146016e-17 -8.071690217390169e-17 -2.8490246895146016e-17 0.8085067919854441 0.5884868454887019
12620981333.333334 0.8137609173566803 0.5811997671908107 -8.095619255195619e-17 -2.7751405956981632e-17 -8.095619255195619e-17 -2.7751405956981632e-17 0.8137605447668386 0.5812002888683175
12621598666.666666 0.8189489983384115 0.5738663068349187 -8.118872582759999e-17 -2.7010569891246698e-17 -8.118872582759999e-17 -2.7010569891246698e-17 0.8189486304678255 0.5738668318126696
12622216000.0 0.8240709935537065 0.5664865378658563 -8.141448550951966e-17 -2.626780044241001e-17 -8.141448550951966e-17 -2.626780044241001e-17 0.8240706304315976 0.5664870661011663
12622833333.333334 0.8291264896789868 0.5590610558002043 -8.163345567013065e-17 -2.5523159489833183e-17 -8.163345567013065e-17 -2.5523159489833183e-17 0.8291261313341913 0.5590615872501303
12623450666.666666 0.8341150787568735 0.5515904598433983 -8.184562094665924e-17 -2.47767090426513e-17 -8.184562094665924e-17 -2.47767090426513e-17 0.8341147252178406 0.5515909944647429
12624068000.0 0.8390363582290945 0.5440753528414017 -8.205096654219239e-17 -2.402851123460103e-17 -8.205096654219239e-17 -2.402851123460103e-17 0.8390360095238812 0.5440758905907144
12624685333.333334 0.8438899309690426 0.5365163412319359 -8.224947822667167e-17 -2.327862831886328e-17 -8.224947822667167e-17 -2.327862831886328e-17 0.8438895871253137 0.5365168820655188
12625302666.666666 0.8486754053136525 0.5289140349958061 -8.244114233783882e-17 -2.2527122662910254e-17 -8.244114233783882e-17 -2.2527122662910254e-17 0.848675066358679 0.5289145788697176
12625920000.0 0.8533923950952262 0.5212690476073475 -8.262594578214261e-17 -2.1774056743309662e-17 -8.262594578214261e-17 -2.1774056743309662e-17 0.8533920610558796 0.521269594477403
12626537333.333334 0.8580405196724351 0.5135819959851543 -8.280387603558727e-17 -2.1019493140566715e-17 -8.280387603558727e-17 -2.1019493140566715e-17 0.8580401905751898 0.5135825458069333
12627154666.666666 0.8626194039610441 0.505853500442303 -8.297492114454277e-17 -2.0263494533926782e-17 -8.297492114454277e-17 -2.0263494533926782e-17 0.8626190798319713 0.5058540531711503
12627772000.0 0.8671286784643216 0.4980841846360489 -8.313906972651007e-17 -1.9506123696157525e-17 -8.313906972651007e-17 -1.9506123696157525e-17 0.8671283593290908 0.4980847402270797
12628389333.333334 0.8715679793026402 0.4902746755178673 -8.329631097082289e-17 -1.8747443488396407e-17 -8.329631097082289e-17 -1.8747443488396407e-17 0.8715676651865151 0.49027523392597044
12629006666.666666 0.8759369482430436 0.482425603282519 -8.344663463932378e-17 -1.7987516854900728e-17 -8.344663463932378e-17 -1.7987516854900728e-17 0.8759366391708792 0.4824261644623595
12629624000.0 0.8802352327280475 0.47453760131736444 -8.359003106697584e-17 -1.722640681786623e-17 -8.359003106697584e-17 -1.722640681786623e-17 0.880234928724291 0.47453816522338904
12630241333.333334 0.884462485904098 0.46661130615125634 -8.372649116243639e-17 -1.6464176472201055e-17 -8.372649116243639e-17 -1.6464176472201055e-17 0.8844621869927844 0.4666118727376958
12630858666.666666 0.8886183666495301 0.45864735740322243 -8.385600640857912e-17 -1.570088898031234e-17 -8.385600640857912e-17 -1.570088898031234e-17 0.8886180728542813 0.45864792662409587
12631476000.0 0.8927025396022171 0.4506463977306266 -8.397856886297251e-17 -1.4936607566872645e-17 -8.397856886297251e-17 -1.4936607566872645e-17 0.8927022509462395 0.4506469695397447
12632093333.333334 0.8967146751865115 0.44260907277753364 -8.40941711583045e-17 -1.4171395513616728e-17 -8.40941711583045e-17 -1.4171395513616728e-17 0.8967143916925949 0.44260964712850315
12632710666.666666 0.9006544496398431 0.43453603112260997 -8.42028065027655e-17 -1.3405316154104647e-17 -8.42028065027655e-17 -1.3405316154104647e-17 0.9006541713303587 0.434536607968837
12633328000.0 0.9045215450389599 0.42642792422655795 -8.430446868038515e-17 -1.2638432868470571e-17 -8.430446868038515e-17 -1.2638432868470571e-17 0.9045212719358589 0.42642850352125194
12633945333.333334 0.9083156493254553 0.4182854063797989 -8.439915205131312e-17 -1.1870809078227363e-17 -8.439915205131312e-17 -1.1870809078227363e-17 0.9083153814502661 0.41828598807597633
12634562666.666666 0.912036456331016 0.41010913464954885 -8.448685155206089e-17 -1.1102508241012246e-17 -8.448685155206089e-17 -1.1102508241012246e-17 0.9120361937048417 0.41010971870003626
12635180000.0 0.9156836658020974 0.4018997688268444 -8.456756269569193e-17 -1.0333593845360367e-17 -8.456756269569193e-17 -1.0333593845360367e-17 0.915683408445618 0.4019003551842842
12635797333.333334 0.9192569834242198 0.39365797137317454 -8.46412815719671e-17 -9.564129405458629e-18 -8.46412815719671e-17 -9.564129405458629e-18 0.919256731357686 0.3936585599900264
12636414666.666666 0.9227561208455946 0.38538440736727875 -8.470800484743769e-17 -8.794178455935477e-18 -8.470800484743769e-17 -8.794178455935477e-18 0.9227558740888306 0.385384998195826
12637032000.0 0.9261807957005161 0.37707974445122155 -8.476772976549708e-17 -8.023804546603025e-18 -8.476772976549708e-17 -8.023804546603025e-18 0.9261805542729129 0.37708033744357233
12637649333.333334 0.9295307316320707 0.36874465277666935 -8.482045414638055e-17 -7.25307123723843e-18 -8.482045414638055e-17 -7.25307123723843e-18 0.9295304955525899 0.3687452478847631
12638266666.666666 0.9328056583144989 0.36037980495068356 -8.486617638712011e-17 -6.4820420923400056e-18 -8.486617638712011e-17 -6.4820420923400056e-18 0.9328054276016674 0.3603804021262929
12638884000.0 0.9360053114749425 0.35198587598160064 -8.49048954614497e-17 -5.7107806759115106e-18 -8.49048954614497e-17 -5.7107806759115106e-18 0.9360050861468524 0.3519864751763365
12639501333.333334 0.9391294329148208 0.34356354322442934 -8.49366109196652e-17 -4.939350546221996e-18 -8.49366109196652e-17 -4.939350546221996e-18 0.9391292129891293 0.3435641443897446
12640118666.666666 0.9421777705306029 0.33511348632637933 -8.496132288843549e-17 -4.167815250597149e-18 -8.496132288843549e-17 -4.167815250597149e-18 0.9421775560245271 0.3351140894135719
12640736000.0 0.9451500783342895 0.3266363871716134 -8.497903207056785e-17 -3.3962383201603867e-18 -8.497903207056785e-17 -3.3962383201603867e-18 0.9451498692646094 0.32663699213183134
12641353333.333334 0.9480461164730766 0.31813292982675884 -8.498973974472366e-17 -2.6246832646619457e-18 -8.498973974472366e-17 -2.6246832646619457e-18 0.9480459128561304 0.3181335366110036
12641970666.666666 0.9508656512488479 0.30960380048530306 -8.499344776508922e-17 -1.853213567227152e-18 -8.499344776508922e-17 -1.853213567227152e-18 0.9508654531005349 0.3096044090444343
12642588000.0 0.9536084551369836 0.30104968741238336 -8.499015856099812e-17 -1.0818926791596884e-18 -8.499015856099812e-17 -1.0818926791596884e-18 0.9536082624727581 0.30105029769712194
12643205333.333334 0.9562743068047174 0.2924712808892459 -8.497987513650672e-17 -3.1078401473742045e-19 -8.497987513650672e-17 -3.1078401473742045e-19 0.9562741196395899 0.2924718928501781
12643822666.666666 0.9588629911290297 0.283869273157434 -8.496260106992256e-17 4.600490540084404e-19 -8.496260106992256e-17 4.600490540084404e-19 0.9588628094775659 0.28386988674501584
12644440000.0 0.9613742992139583 0.2752443583630904 -8.493834051328551e-17 1.2305432024627623e-18 -8.493834051328551e-17 1.2305432024627623e-18 0.9613741230902778 0.2752449735276516
12645057333.333334 0.9638080284074988 0.2665972325008077 -8.490709819180266e-17 2.0006351586286527e-18 -8.490709819180266e-17 2.0006351586286527e-18 0.9638078578252731 0.2665978491925553
12645674666.666666 0.9661639823179063 0.25792859335762613 -8.486887940323559e-17 2.7702617083063546e-18 -8.486887940323559e-17 2.7702617083063546e-18 0.9661638172903595 0.2579292115266492
12646292000.0 0.9684419708296319 0.2492391404564263 -8.482369001724017e-17 3.539359700296721e-18 -8.482369001724017e-17 3.539359700296721e-18 0.968441811369538 0.2492397600526994
12646909333.333334 0.9706418101185477 0.24052957499989 -8.477153647466205e-17 4.307866051525123e-18 -8.477153647466205e-17 4.307866051525123e-18 0.9706416562382305 0.2405301959732774
12647526666.666666 0.9727633226668888 0.2318005998135333 -8.471242578678253e-17 5.075717752237344e-18 -8.471242578678253e-17 5.075717752237344e-18 0.9727631743782195 0.2318012221137928
12648144000.0 0.9748063372775194 0.2230529192891818 -8.46463655345192e-17 5.842851871148813e-18 -8.46463655345192e-17 5.842851871148813e-18 0.9748061945919186 0.2230535428659695
12648761333.333334 0.9767706890877546 0.21428723932813093 -8.457336386758057e-17 6.6092055605781726e-18 -8.457336386758057e-17 6.6092055605781726e-18 0.9767705520161891 0.21428786413100467
12649378666.666666 0.9786562195826575 0.20550426728421015 -8.449342950357341e-17 7.374716061593663e-18 -8.449342950357341e-17 7.374716061593663e-18 0.9786560881356394 0.2055048932626336
12649996000.0 0.980462776607855 0.1967047119065914 -8.440657172706372e-17 8.139320709138097e-18 -8.440657172706372e-17 8.139320709138097e-18 0.9804626507954417 0.19670533900993842
12650613333.333334 0.9821902143818183 0.1878892832825677 -8.431280038859156e-17 8.902956937148976e-18 -8.431280038859156e-17 8.902956937148976e-18 0.9821900942136124 0.18788991146012637
12651230666.666666 0.9838383935075747 0.17905869278053102 -8.421212590364155e-17 9.66556228365169e-18 -8.421212590364155e-17 9.66556228365169e-18 0.9838382789927221 0.17905932198150779
12651848000.0 0.9854071809840328 0.17021365299217772 -8.410455925156195e-17 1.0427074395890046e-17 -8.410455925156195e-17 1.0427074395890046e-17 0.9854070721312207 0.17021428316570097
12652465333.333334 0.9868964502166547 0.16135487767528306 -8.399011197444489e-17 1.118743103537634e-17 -8.399011197444489e-17 1.118743103537634e-17 0.9868963470341154 0.16135550877040825
12653082666.666666 0.9883060810276787 0.15248308169613414 -8.386879617595755e-17 1.1946570082975738e-17 -8.386879617595755e-17 1.1946570082975738e-17 0.9883059835231854 0.15248371366184713
12653700000.0 0.9896359596658763 0.1435989809714495 -8.374062452012336e-17 1.2704429543988035e-17 -8.374062452012336e-17 1.2704429543988035e-17 0.9896358678467415 0.14359961375667063
12654317333.333334 0.9908859788156409 0.1347032924111689 -8.360561023006624e-17 1.3460947553174648e-17 -8.360561023006624e-17 1.3460947553174648e-17 0.990885892688719 0.13470392596475764
12654934666.666666 0.9920560376057105 0.12579673386020881 -8.346376708670266e-17 1.4216062379806065e-17 -8.346376708670266e-17 1.4216062379806065e-17 0.9920559571773964 0.1257973681309676
12655552000.0 0.9931460416173022 0.11688002404056307 -8.331510942738884e-17 1.496971243269634e-17 -8.331510942738884e-17 1.496971243269634e-17 0.9931459668935296 0.11688065897724141
12656169333.333334 0.9941559028916944 0.10795388249358702 -8.315965214452921e-17 1.5721836265188668e-17 -8.315965214452921e-17 1.5721836265188668e-17 0.9941558338779363 0.10795451804488568
12656786666.666666 0.9950855399373724 0.09901902952153836 -8.29974106841286e-17 1.647237258018619e-17 -8.29974106841286e-17 1.647237258018619e-17 0.9950854766386404 0.09901966563611357
12657404000.0 0.9959348777365692 0.09007618612976254 -8.282840104431072e-17 1.72212602351095e-17 -8.282840104431072e-17 1.72212602351095e-17 0.9959348201574141 0.09007682275623011
12658021333.333334 0.9967038477513379 0.08112607396834094 -8.265263977378387e-17 1.7968438246879595e-17 -8.265263977378387e-17 1.7968438246879595e-17 0.9967037958958477 0.0811267110552803
12658638666.666666 0.9973923879290661 0.0721694152740267 -8.247014397026835e-17 1.8713845796857605e-17 -8.247014397026835e-17 1.8713845796857605e-17 0.9973923418008659 0.07217005276998513
12659256000.0 0.998000442707505 0.06320693281170821 -8.228093127887091e-17 1.94574222358042e-17 -8.228093127887091e-17 1.94574222358042e-17 0.9980004023097598 0.06320757066520516
12659873333.333334 0.9985279630192397 0.05423934981622652 -8.208501989042238e-17 2.0199107088790286e-17 -8.208501989042238e-17 2.0199107088790286e-17 0.99852792835465 0.054239987975757506
12660490666.666666 0.9989749062956415 0.045267389934183846 -8.188242853977236e-17 2.0938840060089292e-17 -8.188242853977236e-17 2.0938840060089292e-17 0.9989748773664447 0.04526802834822467
12661108000.0 0.9993412364703234 0.036291777165150786 -8.167317650402746e-17 2.1676561038099288e-17 -8.167317650402746e-17 2.1676561038099288e-17 0.9993412132782944 0.036292415782161795
12661725333.333334 0.9996269239820289 0.027313235803668425 -8.145728360076416e-17 2.241221010017836e-17 -8.145728360076416e-17 2.241221010017836e-17 0.9996269065284801 0.02731387457209864
12662342666.666666 0.9998319457770332 0.018332490380516986 -8.123477018617829e-17 2.3145727517534418e-17 -8.123477018617829e-17 2.3145727517534418e-17 0.9998319340628133 0.018333129248808207
12662960000.0 0.9999562853109978 0.009350265604277458 -8.10056571532079e-17 2.387705376003701e-17 -8.10056571532079e-17 2.387705376003701e-17 0.9999562793364923 0.00935090452086845
12663577333.333334 0.9999999325503032 0.00036728630299272724 -8.076996592960182e-17 2.4606129501047802e-17 -8.076996592960182e-17 2.4606129501047802e-17 0.9999999323154349 0.000367925216323399
12664194666.666666 0.9999628839728631 -0.008615722634436631 -8.052771847595041e-17 2.5332895622216535e-17 -8.052771847595041e-17 2.5332895622216535e-17 0.9999628894770911 -0.008615083775921087
12664812000.0 0.9998451425684048 -0.017598036316719468 -8.02789372836682e-17 2.605729321827144e-17 -8.02789372836682e-17 2.605729321827144e-17 0.9998451538107256 -0.017597397564564417
12665429333.333334 0.9996467178382318 -0.0265789299086698 -8.002364537294066e-17 2.677926360176987e-17 -8.002364537294066e-17 2.677926360176987e-17 0.9996467348171783 -0.026578291314406977
12666046666.666666 0.9993676257944527 -0.035557678689669456 -7.976186629062536e-17 2.7498748307838292e-17 -7.976186629062536e-17 2.7498748307838292e-17 0.9993676485080958 -0.03555704030481285
12666664000.0 0.9990078889586896 -0.044533558112292156 -7.949362410810214e-17 2.821568909891709e-17 -7.949362410810214e-17 2.821568909891709e-17 0.9990079174046378 -0.04453291998833385
12667281333.333334 0.9985675363602682 -0.05350584386048738 -7.921894341910047e-17 2.893002796942815e-17 -7.921894341910047e-17 2.893002796942815e-17 0.9985675705356671 -0.053505206048893354
12667898666.666666 0.9980466035338663 -0.06247381190828527 -7.893784933746157e-17 2.9641707150487133e-17 -7.893784933746157e-17 2.9641707150487133e-17 0.9980466434353997 -0.062473174460491304
12668516000.0 0.9974451325166463 -0.07143673857819402 -7.865036749487469e-17 3.03506691145492e-17 -7.865036749487469e-17 3.03506691145492e-17 0.9974451781405359 -0.0714361015456015
12669133333.333334 0.9967631718448685 -0.08039390059945567 -7.835652403857144e-17 3.105685658003566e-17 -7.835652403857144e-17 3.105685658003566e-17 0.9967632231868766 -0.08039326403342756
12669750666.666666 0.9960007765499748 -0.08934457516652486 -7.805634562896739e-17 3.176021251596749e-17 -7.805634562896739e-17 3.176021251596749e-17 0.9960008336053991 -0.08934393911838127
12670368000.0 0.9951580081541375 -0.09828803999739562 -7.774985943726869e-17 3.2460680146558525e-17 -7.774985943726869e-17 3.2460680146558525e-17 0.9951580709178184 -0.0982874045184101
