! Parameters = {f0=12700.012000; bw=77.238000; Q=6100.000000; N=10; m_0_1=1.313609; m_1_1=0.939383; m_1_2=1.148421; m_2_2=0.938734; m_2_3=0.785384; m_2_8=0.002744; m_2_9=0.039448; m_3_3=0.936797; m_3_4=0.673913; m_3_7=0.003344; m_3_8=-0.093744; m_3_9=0.002744; m_4_4=0.933872; m_4_5=0.510248; m_4_6=0.006861; m_4_7=-0.114293; m_4_8=0.003344; m_5_5=0.934254; m_5_6=0.917603; m_5_7=0.006861; m_6_6=0.934253; m_6_7=0.510590; m_7_7=0.933886; m_7_8=0.674031; m_8_8=0.936795; m_8_9=0.785697; m_9_9=0.938729; m_9_10=1.149499; m_10_10=0.939373; m_10_11=1.314404}
!
! Created with skrf (http://scikit-rf.org).
# Hz S RI R 50.0 
!freq ReS11 ImS11 ReS21 ImS21 ReS12 ImS12 ReS22 ImS22
12607400000.0 0.9018352908016395 -0.4320799790137631 -1.003621354141841e-16 9.068840086735637e-17 -1.003621354141841e-16 9.068840086735637e-17 0.9018355898029278 -0.4320793549391317
12608017333.333334 0.8966687093873644 -0.4427021861312733 -9.925634846704868e-17 9.185835222341362e-17 -9.925634846704868e-17 9.185835222341362e-17 0.8966690157242773 -0.44270156566231705
12608634666.666666 0.891377020409358 -0.4532626252912835 -9.813693694751636e-17 9.301483566770587e-17 -9.813693694751636e-17 9.301483566770587e-17 0.8913773340384362 -0.4532620085142152
12609252000.0 0.8859609621897772 -0.4637598230502242 -9.700406471023471e-17 9.415769270471714e-17 -9.700406471023471e-17 9.415769270471714e-17 0.885961283066551 -0.46375921005073434
12609869333.333334 0.8804212904034046 -0.47419231478822405 -9.585789745160226e-17 9.528676683036211e-17 -9.585789745160226e-17 9.528676683036211e-17 0.8804216184823965 -0.4741917056514676
12610486666.666666 0.8747587779722411 -0.4845586449134124 -9.469860268559828e-17 9.640190355335544e-17 -9.469860268559828e-17 9.640190355335544e-17 0.8747591132069725 -0.48455803972399636
12611104000.0 0.8689742149574715 -0.4948573670653575 -9.352634971931706e-17 9.750295041633226e-17 -9.352634971931706e-17 9.750295041633226e-17 0.8689745573004706 -0.4948567659073301
12611721333.333334 0.86306840844952 -0.5050870443163479 -9.23413096283548e-17 9.85897570165795e-17 -9.23413096283548e-17 9.85897570165795e-17 0.8630687578523283 -0.5050864472731873
12612338666.666666 0.8570421824552087 -0.5152462493723031 -9.114365523185107e-17 9.966217502656976e-17 -9.114365523185107e-17 9.966217502656976e-17 0.8570425388683865 -0.5152456565269043
12612956000.0 0.8508963777828208 -0.5253335647718375 -8.993356106734757e-17 1.0072005821413882e-16 -8.993356106734757e-17 1.0072005821413882e-16 0.8508967411559575 -0.5253329762065031
12613573333.333334 0.8446318519249563 -0.535347583083767 -8.871120336544045e-17 1.0176326246233759e-16 -8.871120336544045e-17 1.0176326246233759e-16 0.8446322222066723 -0.535346998880193
12614190666.666666 0.8382494789387076 -0.5452869071037704 -8.747676002411983e-17 1.0279164578905025e-16 -8.747676002411983e-17 1.0279164578905025e-16 0.8382498560766669 -0.5452863273430374
12614808000.0 0.831750149323741 -0.5551501500492868 -8.62304105829689e-17 1.0380506836622595e-16 -8.62304105829689e-17 1.0380506836622595e-16 0.8317505332646541 -0.5551495748118467
12615425333.333334 0.8251347698981367 -0.5649359357528606 -8.497233619707811e-17 1.0480339253885438e-16 -8.497233619707811e-17 1.0480339253885438e-16 0.8251351605877719 -0.564935365118527
12616042666.666666 0.8184042636717603 -0.5746428988543196 -8.370271961078943e-17 1.0578648284358314e-16 -8.370271961078943e-17 1.0578648284358314e-16 0.8184046610549485 -0.5746423329022554
12616660000.0 0.8115595697175233 -0.5842696849912028 -8.242174513117968e-17 1.0675420602705735e-16 -8.242174513117968e-17 1.0675420602705735e-16 0.811559973738168 -0.5842691237999111
12617277333.333334 0.8046016430403797 -0.5938149509877079 -8.112959860137698e-17 1.0770643106390263e-16 -8.112959860137698e-17 1.0770643106390263e-16 0.8046020536414624 -0.5938143946350181
12617894666.666666 0.7975314544441257 -0.6032773650420257 -7.982646737364098e-17 1.0864302917441052e-16 -7.982646737364098e-17 1.0864302917441052e-16 0.7975318715677169 -0.6032768136050866
12618512000.0 0.7903499903957157 -0.6126556069124832 -7.851254028223877e-17 1.0956387384189699e-16 -7.851254028223877e-17 1.0956387384189699e-16 0.7903504139829817 -0.6126550604677492
12619129333.333334 0.7830582528879817 -0.6219483681012694 -7.71880076161505e-17 1.104688408297155e-16 -7.71880076161505e-17 1.104688408297155e-16 0.7830586828791914 -0.6219478267244908
12619746666.666666 0.7756572592995392 -0.6311543520373906 -7.585306109155432e-17 1.1135780819795718e-16 -7.585306109155432e-17 1.1135780819795718e-16 0.7756576956340745 -0.6311538158036033
12620364000.0 0.768148042252884 -0.6402722742575016 -7.450789382410107e-17 1.12230656319833e-16 -7.450789382410107e-17 1.12230656319833e-16 0.7681484848692479 -0.6402717432410167
12620981333.333334 0.7605316494705161 -0.6493008625848793 -7.315270030108114e-17 1.1308726789766782e-16 -7.315270030108114e-17 1.1308726789766782e-16 0.7605320983063413 -0.649300336859273
12621598666.666666 0.7528091436285409 -0.6582388573071892 -7.17876763532967e-17 1.139275279786337e-16 -7.17876763532967e-17 1.139275279786337e-16 0.7528095986205986 -0.6582383369452927
12622216000.0 0.744981602208434 -0.6670850113521998 -7.041301912685365e-17 1.1475132397007925e-16 -7.041301912685365e-17 1.1475132397007925e-16 0.7449820632926429 -0.6670844964260884
12622833333.333334 0.7370501173467985 -0.6758380904616728 -6.902892705470454e-17 1.155585456545669e-16 -6.902892705470454e-17 1.155585456545669e-16 0.737050584458233 -0.675837581042656
12623450666.666666 0.7290157956829099 -0.6844968733636589 -6.763559982809183e-17 1.163490852045231e-16 -6.763559982809183e-17 1.163490852045231e-16 0.7290162687558095 -0.684496369522271
12624068000.0 0.7208797582043692 -0.6930601519428317 -6.623323836774606e-17 1.171228371965933e-16 -6.623323836774606e-17 1.171228371965933e-16 0.7208802371721491 -0.6930596537488225
12624685333.333334 0.7126431400905242 -0.7015267314092373 -6.482204479496632e-17 1.178796986256212e-16 -6.482204479496632e-17 1.178796986256212e-16 0.7126436248857835 -0.7015262389315616
12625302666.666666 0.7043070905544356 -0.7098954304646271 -6.340222240257997e-17 1.1861956891826243e-16 -6.340222240257997e-17 1.1861956891826243e-16 0.704307581108966 -0.7098949437714348
12625920000.0 0.6958727726820756 -0.7181650814677443 -6.197397562562982e-17 1.1934234994631163e-16 -6.197397562562982e-17 1.1934234994631163e-16 0.6958732689268738 -0.7181646006263736
12626537333.333334 0.6873413632704716 -0.726334530596818 -6.053751001205634e-17 1.2004794603960069e-16 -6.053751001205634e-17 1.2004794603960069e-16 0.6873418651357462 -0.7263340556737825
12627154666.666666 0.6787140526633347 -0.7344026380107327 -5.909303219313263e-17 1.2073626399859842e-16 -5.909303219313263e-17 1.2073626399859842e-16 0.6787145600785164 -0.7344021690717135
12627772000.0 0.6699920445847857 -0.7423682780082344 -5.764074985375605e-17 1.2140721310665291e-16 -5.764074985375605e-17 1.2140721310665291e-16 0.6699925574785383 -0.7423678151180718
12628389333.333334 0.6611765559718434 -0.7502303391845884 -5.618087170270681e-17 1.2206070514182925e-16 -5.618087170270681e-17 1.2206070514182925e-16 0.6611770742720743 -0.7502298824072737
12629006666.666666 0.6522688168041764 -0.7579877245870755 -5.4713607442624307e-17 1.2269665438845988e-16 -5.4713607442624307e-17 1.2269665438845988e-16 0.6522693404380436 -0.7579872739857387
12629624000.0 0.6432700699327744 -0.7656393518677672 -5.323916773997899e-17 1.233149776482766e-16 -5.323916773997899e-17 1.233149776482766e-16 0.6432705988267015 -0.7656389075046728
12630241333.333334 0.6341815709064885 -0.7731841534346081 -5.175776419486093e-17 1.2391559425121008e-16 -5.175776419486093e-17 1.2391559425121008e-16 0.6341821049861698 -0.7731837153711414
12630858666.666666 0.6250045877968201 -0.7806210766003818 -5.0269609310654943e-17 1.2449842606582387e-16 -5.0269609310654943e-17 1.2449842606582387e-16 0.6250051269872363 -0.7806206448970465
12631476000.0 0.6157404010209343 -0.7879490837296474 -4.8774916463592094e-17 1.2506339750938686e-16 -4.8774916463592094e-17 1.2506339750938686e-16 0.6157409452463588 -0.7879486584460518
12632093333.333334 0.6063903031631146 -0.7951671523834202 -4.7273899872218464e-17 1.2561043555757066e-16 -4.7273899872218464e-17 1.2561043555757066e-16 0.6063908523471259 -0.7951667335782715
12632710666.666666 0.5969555987944658 -0.8022742754617984 -4.5766774566745946e-17 1.2613946975378563e-16 -4.5766774566745946e-17 1.2613946975378563e-16 0.5969561528599581 -0.802273863192894
12633328000.0 0.5874376042905959 -0.8092694613446987 -4.4253756358245995e-17 1.2665043221816797e-16 -4.4253756358245995e-17 1.2665043221816797e-16 0.5874381631597899 -0.8092690556689188
12633945333.333334 0.577837647648337 -0.8161517340299221 -4.273506180785302e-17 1.271432576561614e-16 -4.273506180785302e-17 1.271432576561614e-16 0.5778382112427918 -0.8161513350032227
12634562666.666666 0.5681570683001607 -0.822920133269553 -4.121090819576537e-17 1.2761788336676676e-16 -4.121090819576537e-17 1.2761788336676676e-16 0.5681576365407824 -0.8229197409469554
12635180000.0 0.5583972169274988 -0.8295737147037844 -3.9681513490236353e-17 1.280742492503941e-16 -3.9681513490236353e-17 1.280742492503941e-16 0.558397789734554 -0.8295733291393694
12635797333.333334 0.5485594552720823 -0.8361115499928276 -3.8147096316414354e-17 1.285122978163649e-16 -3.8147096316414354e-17 1.285122978163649e-16 0.5485600325652078 -0.836111171239728
12636414666.666666 0.5386451559462017 -0.842532726946262 -3.6607875925179064e-17 1.2893197419001877e-16 -3.6607875925179064e-17 1.2893197419001877e-16 0.5386457376444163 -0.8425323550566555
12637032000.0 0.5286557022409817 -0.8488363496504532 -3.506407216180587e-17 1.293332261194744e-16 -3.506407216180587e-17 1.293332261194744e-16 0.5286562882626982 -0.8488359846755549
12637649333.333334 0.5185924879334016 -0.8550215385935361 -3.35159054346539e-17 1.297160039819902e-16 -3.35159054346539e-17 1.297160039819902e-16 0.5185930781964362 -0.8550211805835902
12638266666.666666 0.5084569170919697 -0.8610874307880371 -3.196359668370928e-17 1.300802607899706e-16 -3.196359668370928e-17 1.300802607899706e-16 0.5084575115135567 -0.8610870797923132
12638884000.0 0.49825040388063174 -0.8670331798914045 -3.040736734912827e-17 1.3042595219658198e-16 -3.040736734912827e-17 1.3042595219658198e-16 0.49825100237743186 -0.8670328359581871
12639501333.333334 0.4879743723616267 -0.8728579563239881 -2.884743933965872e-17 1.3075303650100615e-16 -2.884743933965872e-17 1.3075303650100615e-16 0.487974974849741 -0.8728576195005726
12640118666.666666 0.4776302562967748 -0.8785609473848077 -2.7284035001093368e-17 1.310614746533002e-16 -2.7284035001093368e-17 1.310614746533002e-16 0.4776308626917553 -0.8785606177174924
12640736000.0 0.4672194989471039 -0.8841413573651161 -2.5717377084531474e-17 1.3135123025890642e-16 -2.5717377084531474e-17 1.3135123025890642e-16 0.4672201091639665 -0.884141034899197
12641353333.333334 0.4567435528721317 -0.8895984076590723 -2.414768871480507e-17 1.316222695827451e-16 -2.414768871480507e-17 1.316222695827451e-16 0.4567441668253662 -0.889598092438835
12641970666.666666 0.4462038797266191 -0.8949313368726823 -2.2575193358636227e-17 1.3187456155297165e-16 -2.2575193358636227e-17 1.3187456155297165e-16 0.44620449733020373 -0.8949310289413993
12642588000.0 0.4356019500568109 -0.900139400929943 -2.1000114792934496e-17 1.3210807776432337e-16 -2.1000114792934496e-17 1.3210807776432337e-16 0.43560257122422247 -0.9001391003298645
12643205333.333334 0.4249392430954087 -0.905221873176579 -1.9422677072965278e-17 1.3232279248110463e-16 -1.9422677072965278e-17 1.3232279248110463e-16 0.4249398677396348 -0.9052215799489279
12643822666.666666 0.41421724655490083 -0.9101780444815676 -1.784310450051741e-17 1.325186826397876e-16 -1.784310450051741e-17 1.325186826397876e-16 0.4142178745884529 -0.9101777586665345
12644440000.0 0.4034374564201934 -0.9150072233359788 -1.626162159208229e-17 1.3269572785122989e-16 -1.626162159208229e-17 1.3269572785122989e-16 0.4034380877551188 -0.9150069449727172
12645057333.333334 0.39260137673991113 -0.9197087359494518 -1.4678453046954835e-17 1.328539104025215e-16 -1.4678453046954835e-17 1.328539104025215e-16 0.3926020112878052 -0.9197084650760711
12645674666.666666 0.38171051941649503 -0.9242819263442309 -1.3093823715381133e-17 1.3299321525844314e-16 -1.3093823715381133e-17 1.3299321525844314e-16 0.3817111570885128 -0.9242816629977908
12646292000.0 0.3707664039949893 -0.9287261564467955 -1.1507958566610452e-17 1.331136300625553e-16 -1.1507958566610452e-17 1.331136300625553e-16 0.37076704470185895 -0.9287259006633029
12646909333.333334 0.35977055745155306 -0.9330408061766704 -9.921082657078944e-18 1.3321514513789442e-16 -9.921082657078944e-18 1.3321514513789442e-16 0.3597712011035884 -0.9330405579910735
12647526666.666666 0.3487245139799372 -0.9372252735331396 -8.333421098445872e-18 1.3329775348730242e-16 -8.333421098445872e-18 1.3329775348730242e-16 0.3487251604870497 -0.9372250329793237
12648144000.0 0.3376298147776613 -0.941278974679141 -6.745199025736709e-18 1.3336145079336843e-16 -6.745199025736709e-18 1.3336145079336843e-16 0.33763046404937264 -0.9412787417899215
12648761333.333334 0.3264880078308723 -0.945201344022765 -5.156641565446122e-18 1.3340623541799468e-16 -5.156641565446122e-18 1.3340623541799468e-16 0.32648865977632774 -0.9452011188298868
12649378666.666666 0.3153006476985775 -0.9489918342960962 -3.567973803700124e-18 1.3343210840158163e-16 -3.567973803700124e-18 1.3343210840158163e-16 0.3153013022265581 -0.9489916168302275
12649996000.0 0.30406929529539584 -0.9526499166316938 -1.9794207543567158e-18 1.3343907346183685e-16 -1.9794207543567158e-18 1.3343907346183685e-16 0.30406995231433104 -0.9526497069224203
12650613333.333334 0.2927955176740391 -0.9561750806362844 -3.912073272202276e-19 1.3342713699220193e-16 -3.912073272202276e-19 1.3342713699220193e-16 0.2927961770920195 -0.9561748787121065
12651230666.666666 0.2814808878066976 -0.9595668344619694 1.1964417037740822e-18 1.3339630805990422e-16 1.1964417037740822e-18 1.3339630805990422e-16 0.28148154953148896 -0.9595666403503014
12651848000.0 0.27012698436524735 -0.9628247048749577 2.783301732336207e-18 1.3334659840362913e-16 2.783301732336207e-18 1.3334659840362913e-16 0.27012764830430164 -0.9628245186021179
12652465333.333334 0.25873539150128116 -0.9659482373214887 4.3691483515500405e-18 1.3327802243081542e-16 4.3691483515500405e-18 1.3327802243081542e-16 0.258736057561751 -0.9659480589127012
12653082666.666666 0.24730769862516627 -0.9689369959912443 5.953757385534945e-18 1.3319059721457537e-16 5.953757385534945e-18 1.3319059721457537e-16 0.247308366713917 -0.9689368254706324
12653700000.0 0.23584550018381434 -0.9717905638782768 7.536904921160681e-18 1.3308434249023456e-16 7.536904921160681e-18 1.3308434249023456e-16 0.23584617020743787 -0.9717904012688621
12654317333.333334 0.22435039543879387 -0.97450854283904 9.118367339561412e-18 1.3295928065150368e-16 9.118367339561412e-18 1.3295928065150368e-16 0.22435106730362125 -0.9745083881627385
12654934666.666666 0.21282398824283644 -0.9770905536480361 1.0697921347743263e-17 1.3281543674626681e-16 1.0697921347743263e-17 1.3281543674626681e-16 0.21282466185495047 -0.977090406925653
12655552000.0 0.20126788681600213 -0.9795362360507317 1.2275344010057734e-17 1.3265283847200002e-16 1.2275344010057734e-17 1.3265283847200002e-16 0.20126856208125143 -0.9795360973019617
12656169333.333334 0.18968370352159838 -0.9818452488137545 1.3850412779582199e-17 1.3247151617082041e-16 1.3850412779582199e-17 1.3247151617082041e-16 0.18968438034561008 -0.9818451180571781
12656786666.666666 0.17807305464102172 -0.9840172697725525 1.5422905529519885e-17 1.3227150282415503e-16 1.5422905529519885e-17 1.3227150282415503e-16 0.17807373292921463 -0.9840171470256334
12657404000.0 0.16643756014818967 -0.9860519958763485 1.6992600584471457e-17 1.3205283404704257e-16 1.6992600584471457e-17 1.3205283404704257e-16 0.1664382398057875 -0.9860518811554305
12658021333.333334 0.15477884348365356 -0.9879491432303965 1.855927675164188e-17 1.3181554808206359e-16 1.855927675164188e-17 1.3181554808206359e-16 0.1547795244156984 -0.9879490365507032
12658638666.666666 0.14309853132814548 -0.9897084471355896 2.0122713351936888e-17 1.315596857929065e-16 2.0122713351936888e-17 1.315596857929065e-16 0.14309921343951057 -0.9897083485112195
12659256000.0 0.13139825337527827 -0.9913296621254398 2.168269025106812e-17 1.3128529065754992e-16 2.168269025106812e-17 1.3128529065754992e-16 0.1313989365706819 -0.9913295715693681
12659873333.333334 0.11967964210447174 -0.9928125620002798 2.3238987890445537e-17 1.3099240876109734e-16 2.3238987890445537e-17 1.3099240876109734e-16 0.11968032628848993 -0.9928124795243527
12660490666.666666 0.10794433255326617 -0.9941569398588148 2.4791387318047582e-17 1.3068108878823472e-16 2.4791387318047582e-17 1.3068108878823472e-16 0.10794501763034665 -0.9941568654737521
12661108000.0 0.09619396208871485 -0.9953626081270524 2.6339670219226508e-17 1.3035138201531551e-16 2.6339670219226508e-17 1.3035138201531551e-16 0.09619464796318994 -0.9953625418424437
12661725333.333334 0.08443017017952299 -0.9964293985844007 2.788361894730761e-17 1.3000334230210227e-16 2.788361894730761e-17 1.3000334230210227e-16 0.08443085675562302 -0.9964293404087033
12662342666.666666 0.07265459816690582 -0.9973571623871852 2.9423016554171014e-17 1.2963702608312818e-16 2.9423016554171014e-17 1.2963702608312818e-16 0.07265528534877273 -0.9973571123277265
12662960000.0 0.06086888903563725 -0.9981457700894092 3.0957646820700467e-17 1.292524923587023e-16 3.0957646820700467e-17 1.292524923587023e-16 0.06086957672733768 -0.9981457281523813
12663577333.333334 0.04907468718498247 -0.9987951116608002 3.2487294287083614e-17 1.288498026855614e-16 3.2487294287083614e-17 1.288498026855614e-16 0.04907537529052124 -0.998795077851261
12664194666.666666 0.03727363819903651 -0.9993050965021749 3.401174428304859e-17 1.2842902116715242e-16 3.401174428304859e-17 1.2842902116715242e-16 0.03727432662237022 -0.999305070824051
12664812000.0 0.025467388617351688 -0.9996756534580733 3.553078295791787e-17 1.2799021444357074e-16 3.553078295791787e-17 1.2799021444357074e-16 0.025468077262401887 -0.9996756359141542
12665429333.333334 0.01365758570494868 -0.9999067308266932 3.704419731059704e-17 1.2753345168112897e-16 3.704419731059704e-17 1.2753345168112897e-16 0.013658274475615332 -0.9999067214186337
12666046666.666666 0.0018458772228514657 -0.999998296367094 3.855177521935117e-17 1.2705880456159315e-16 3.855177521935117e-17 1.2705880456159315e-16 0.0018465660230263942 -0.999998295095414
12666664000.0 -0.009966088802356122 -0.9999503373037064 4.00533054715612e-17 1.265663472710334e-16 4.00533054715612e-17 1.265663472710334e-16 -0.00996540006877585 -0.9999503441677902
12667281333.333334 -0.021776664307845892 -0.9997628603281066 4.154857779319201e-17 1.2605615648836978e-16 4.154857779319201e-17 1.2605615648836978e-16 -0.021775975736944533 -0.9997628753262026
12667898666.666666 -0.03358420142497406 -0.9994358915980849 4.303738287825667e-17 1.255283113735261e-16 4.303738287825667e-17 1.255283113735261e-16 -0.03358351311280386 -0.99943591472731
12668516000.0 -0.04538705270911463 -0.9989694767339956 4.4519512418059775e-17 1.2498289355525818e-16 4.4519512418059775e-17 1.2498289355525818e-16 -0.04538636475168231 -0.9989695079903289
12669133333.333334 -0.05718357136920627 -0.998363680812396 4.599475913026051e-17 1.244199871186498e-16 4.599475913026051e-17 1.244199871186498e-16 -0.057182883862459774 -0.9983637201906853
12669750666.666666 -0.06897211149786169 -0.9976185883569634 4.7462916787860647e-17 1.238396785922366e-16 4.7462916787860647e-17 1.238396785922366e-16 -0.06897142453767664 -0.997618635850923
12670368000.0 -0.0807510283009836 -0.9967343033266923 4.8923780247985296e-17 1.232420569348038e-16 4.8923780247985296e-17 1.232420569348038e-16 -0.08075034198315015 -0.9967343589289058
