! Parameters = {f0=12700.012000; bw=77.238000; Q=6100.000000; N=10; m_0_1=1.194089; m_1_1=-0.853409; m_1_2=1.028901; m_2_2=-0.854058; m_2_3=0.665864; m_2_8=-0.003232; m_2_9=0.033472; m_3_3=-0.855995; m_3_4=0.554393; m_3_7=-0.002632; m_3_8=-0.099720; m_3_9=-0.003232; m_4_4=-0.858920; m_4_5=0.390728; m_4_6=0.000885; m_4_7=-0.120269; m_4_8=-0.002632; m_5_5=-0.858538; m_5_6=0.798083; m_5_7=0.000885; m_6_6=-0.858539; m_6_7=0.391070; m_7_7=-0.858906; m_7_8=0.554511; m_8_8=-0.855997; m_8_9=0.666177; m_9_9=-0.854063; m_9_10=1.029979; m_10_10=-0.853419; m_10_11=1.194884}
!
! Created with skrf (http://scikit-rf.org).
# Hz S RI R 50.0 
!freq ReS11 ImS11 ReS21 ImS21 ReS12 ImS12 ReS22 ImS22
12607400000.0 -0.878882605676011 0.4770381173868496 5.391027610644516e-17 -5.3898684793187715e-17 5.391027610644516e-17 -5.3898684793187715e-17 -0.8788829058512503 0.47703756435138966
12608017333.333334 -0.874903219021333 0.48429779820473556 5.3446925774993233e-17 -5.433724233647274e-17 5.3446925774993233e-17 -5.433724233647274e-17 -0.8749035237497907 0.48429724770025595
12608634666.666666 -0.8708638678277302 0.49152428598388787 5.298001405269077e-17 -5.4771822872367035e-17 5.298001405269077e-17 -5.4771822872367035e-17 -0.8708641770880763 0.49152373804786975
12609252000.0 -0.8667648289462435 0.49871708543184406 5.2509575023416077e-17 -5.520239753346687e-17 5.2509575023416077e-17 -5.520239753346687e-17 -0.8667651427168396 0.49871654010158917
12609869333.333334 -0.8626063833188455 0.5058757035650407 5.2035643004577424e-17 -5.562893774405377e-17 5.2035643004577424e-17 -5.562893774405377e-17 -0.8626067015777452 0.5058751608776679
12610486666.666666 -0.8583888159591712 0.5129996497426258 5.15582525446251e-17 -5.605141522197539e-17 5.15582525446251e-17 -5.605141522197539e-17 -0.8583891386841225 0.5129991097350691
12611104000.0 -0.8541124159328665 0.5200884357002817 5.107743842053233e-17 -5.646980198051974e-17 5.107743842053233e-17 -5.646980198051974e-17 -0.8541127431013148 0.5200878984092887
12611721333.333334 -0.8497774763380259 0.5271415755832768 5.059323563528524e-17 -5.688407033024618e-17 5.059323563528524e-17 -5.688407033024618e-17 -0.8497778079271137 0.5271410410454048
12612338666.666666 -0.8453842942848692 0.534158585980154 5.010567941533375e-17 -5.729419288081661e-17 5.010567941533375e-17 -5.729419288081661e-17 -0.8453846302714377 0.5341580542317679
12612956000.0 -0.8409331708754333 0.5411389859557644 4.9614805208043986e-17 -5.770014254279037e-17 4.9614805208043986e-17 -5.770014254279037e-17 -0.8409335112360254 0.5411384570330343
12613573333.333334 -0.8364244111830444 0.5480822970840624 4.912064867913641e-17 -5.810189252939798e-17 4.912064867913641e-17 -5.810189252939798e-17 -0.8364247558939046 0.5480817710229616
12614190666.666666 -0.8318583242313147 0.5549880434810398 4.8623245710094916e-17 -5.849941635830525e-17 4.8623245710094916e-17 -5.849941635830525e-17 -0.8318586732683934 0.5549875203173422
12614808000.0 -0.8272352229729519 0.5618557518373686 4.812263239557646e-17 -5.889268785334292e-17 4.812263239557646e-17 -5.889268785334292e-17 -0.8272355763119034 0.5618552316066452
12615425333.333334 -0.822555424268334 0.5686849514507888 4.761884504080694e-17 -5.928168114621412e-17 4.761884504080694e-17 -5.928168114621412e-17 -0.8225557818845212 0.5686844341884066
12616042666.666666 -0.8178192488638438 0.5754751742583016 4.711192015894853e-17 -5.966637067819248e-17 4.711192015894853e-17 -5.966637067819248e-17 -0.817819610732339 0.575474659999421
12616660000.0 -0.8130270213697905 0.5822259548683912 4.660189446846987e-17 -6.004673120178345e-17 4.660189446846987e-17 -6.004673120178345e-17 -0.813027387465377 0.582225443647963
12617277333.333334 -0.8081790702381892 0.5889368305928727 4.608880489049146e-17 -6.042273778237333e-17 4.608880489049146e-17 -6.042273778237333e-17 -0.8081794405353633 0.5889363224456364
12617894666.666666 -0.8032757277403879 0.5956073414784225 4.557268854613828e-17 -6.079436579983977e-17 4.557268854613828e-17 -6.079436579983977e-17 -0.8032761022133584 0.5956068364389024
12618512000.0 -0.7983173299440024 0.6022370303384899 4.5053582753834635e-17 -6.116159095017324e-17 4.5053582753834635e-17 -6.116159095017324e-17 -0.7983177085666971 0.6022365284409951
12619129333.333334 -0.7933042166901748 0.6088254427842448 4.453152502664705e-17 -6.152438924703102e-17 4.453152502664705e-17 -6.152438924703102e-17 -0.7933045994362391 0.6088249440628659
12619746666.666666 -0.7882367315701629 0.6153721272558825 4.400655306956214e-17 -6.188273702330633e-17 4.400655306956214e-17 -6.188273702330633e-17 -0.7882371184129616 0.6153716317444888
12620364000.0 -0.7831152219016845 0.6218766350537055 4.347870477678017e-17 -6.223661093265437e-17 4.347870477678017e-17 -6.223661093265437e-17 -0.7831156128143035 0.6218761427859418
12620981333.333334 -0.7779400387053382 0.6283385203685836 4.294801822899492e-17 -6.258598795099681e-17 4.294801822899492e-17 -6.258598795099681e-17 -0.7779404336605891 0.6283380313778713
12621598666.666666 -0.7727115366803377 0.6347573403127806 4.2414531690643526e-17 -6.293084537801518e-17 4.2414531690643526e-17 -6.293084537801518e-17 -0.7727119356507561 0.6347568546323114
12622216000.0 -0.7674300741803585 0.6411326549501069 4.1878283607171454e-17 -6.327116083860292e-17 4.1878283607171454e-17 -6.327116083860292e-17 -0.7674304771382087 0.6411321726128434
12622833333.333334 -0.7620960131888346 0.6474640273262492 4.1339312602257264e-17 -6.360691228431341e-17 4.1339312602257264e-17 -6.360691228431341e-17 -0.7620964201061101 0.6474635483649223
12623450666.666666 -0.7567097192942753 0.6537510234985663 4.079765747505454e-17 -6.393807799476527e-17 4.079765747505454e-17 -6.393807799476527e-17 -0.7567101301426993 0.6537505479456698
12624068000.0 -0.7512715616651706 0.6599932125658716 4.025335719739586e-17 -6.426463657904226e-17 4.025335719739586e-17 -6.426463657904226e-17 -0.7512719764162015 0.6599927404536647
12624685333.333334 -0.7457819130245608 0.6661901666981207 3.970645091100349e-17 -6.458656697705727e-17 3.970645091100349e-17 -6.458656697705727e-17 -0.7457823316493923 0.6661896980586238
12625302666.666666 -0.7402411496247333 0.6723414611654539 3.915697792469178e-17 -6.490384846089264e-17 3.915697792469178e-17 -6.490384846089264e-17 -0.7402415720942954 0.6723409960304448
12625920000.0 -0.7346496512212067 0.678446674367561 3.8604977711530634e-17 -6.521646063613216e-17 3.8604977711530634e-17 -6.521646063613216e-17 -0.7346500775061697 0.6784462127685753
12626537333.333334 -0.7290078010468576 0.68450538786241 3.805048990604157e-17 -6.55243834431448e-17 3.805048990604157e-17 -6.55243834431448e-17 -0.7290082311176332 0.6845049298307382
12627154666.666666 -0.7233159857855975 0.6905171863949905 3.749355430135768e-17 -6.582759715835965e-17 3.749355430135768e-17 -6.582759715835965e-17 -0.7233164196123395 0.6905167319616738
12627772000.0 -0.7175745955458069 0.6964816579258317 3.6934210846354533e-17 -6.612608239552724e-17 3.6934210846354533e-17 -6.612608239552724e-17 -0.717575033098417 0.6964812071216642
12628389333.333334 -0.7117840238337618 0.7023983936590854 3.6372499642825944e-17 -6.641982010692617e-17 3.6372499642825944e-17 -6.641982010692617e-17 -0.7117844650818869 0.7023979465146072
12629006666.666666 -0.7059446675264393 0.7082669880707626 3.580846094259543e-17 -6.67087915845759e-17 3.580846094259543e-17 -6.67087915845759e-17 -0.7059451124394771 0.7082665446162612
12629624000.0 -0.7000569268444984 0.714087038936348 3.524213514465065e-17 -6.699297846140814e-17 3.524213514465065e-17 -6.699297846140814e-17 -0.700057375391599 0.7140865992018549
12630241333.333334 -0.6941212053248097 0.7198581473584071 3.467356279225499e-17 -6.72723627124202e-17 3.467356279225499e-17 -6.72723627124202e-17 -0.694121657474876 0.7198577113736959
12630858666.666666 -0.6881379097927975 0.7255799177939284 3.410278457006216e-17 -6.754692665579909e-17 3.410278457006216e-17 -6.754692665579909e-17 -0.6881383655144899 0.7255794855885132
12631476000.0 -0.6821074503343931 0.7312519580815892 3.352984130120039e-17 -6.781665295403083e-17 3.352984130120039e-17 -6.781665295403083e-17 -0.6821079095961284 0.7312515296847207
12632093333.333334 -0.6760302402682554 0.7368738794683182 3.295477394437549e-17 -6.808152461497273e-17 3.295477394437549e-17 -6.808152461497273e-17 -0.6760307030382128 0.7368734549089854
12632710666.666666 -0.6699066961171979 0.7424452966361792 3.237762359094598e-17 -6.834152499290995e-17 3.237762359094598e-17 -6.834152499290995e-17 -0.6699071623633185 0.7424448759431042
12633328000.0 -0.6637372375795968 0.7479658277288149 3.1798431461991965e-17 -6.859663778958645e-17 3.1798431461991965e-17 -6.859663778958645e-17 -0.6637377072695858 0.747965410930451
12633945333.333334 -0.6575222875008754 0.7534350943773863 3.121723890538616e-17 -6.88468470552072e-17 3.121723890538616e-17 -6.88468470552072e-17 -0.6575227606022063 0.7534346815019188
12634562666.666666 -0.6512622718442951 0.7588527217267216 3.0634087392848926e-17 -6.90921371894187e-17 3.0634087392848926e-17 -6.90921371894187e-17 -0.6512627483242105 0.7588523128020633
12635180000.0 -0.6449576196618411 0.7642183384609248 3.0049018516996096e-17 -6.93324929422647e-17 3.0049018516996096e-17 -6.93324929422647e-17 -0.6449580994873557 0.7642179335147162
12635797333.333334 -0.638608763064862 0.7695315768287952 2.9462073988387287e-17 -6.956789941511388e-17 2.9462073988387287e-17 -6.956789941511388e-17 -0.638609246202763 0.7695311758883996
12636414666.666666 -0.6322161371944091 0.7747920726690647 2.8873295632557386e-17 -6.979834206156703e-17 2.8873295632557386e-17 -6.979834206156703e-17 -0.6322166236112616 0.7747916757615696
12637032000.0 -0.6257801801913688 0.7799994654353956 2.828272538704071e-17 -7.002380668833814e-17 2.828272538704071e-17 -7.002380668833814e-17 -0.6257806698535155 0.7799990725876088
12637649333.333334 -0.6193013331664773 0.7851533982210539 2.7690405298397044e-17 -7.024427945610857e-17 2.7690405298397044e-17 -7.024427945610857e-17 -0.619301826040042 0.7851530094595026
12638266666.666666 -0.6127800401701526 0.790253517783319 2.7096377519232652e-17 -7.045974688035418e-17 2.7096377519232652e-17 -7.045974688035418e-17 -0.6127805362210429 0.7902531331342484
12638884000.0 -0.6062167481619298 0.7952994745678013 2.6500684305197537e-17 -7.067019583215533e-17 2.6500684305197537e-17 -7.067019583215533e-17 -0.6062172473558373 0.7952990940571704
12639501333.333334 -0.5996119069798661 0.8002909227323607 2.5903368011994273e-17 -7.087561353897392e-17 2.5903368011994273e-17 -7.087561353897392e-17 -0.5996124092822724 0.8002905463858445
12640118666.666666 -0.5929659693099197 0.8052275201706613 2.530447109238337e-17 -7.107598758540527e-17 2.530447109238337e-17 -7.107598758540527e-17 -0.592966474686095 0.8052271480136453
12640736000.0 -0.5862793906544181 0.8101089285359899 2.4704036093150395e-17 -7.127130591391534e-17 2.4704036093150395e-17 -7.127130591391534e-17 -0.5862798990694265 0.810108560593571
12641353333.333334 -0.579552629301481 0.814934813263972 2.4102105652128855e-17 -7.146155682553271e-17 2.4102105652128855e-17 -7.146155682553271e-17 -0.5795531407201816 0.814934449560956
12641970666.666666 -0.5727861462930816 0.8197048435958918 2.349872249514436e-17 -7.164672898053887e-17 2.349872249514436e-17 -7.164672898053887e-17 -0.5727866606801305 0.8197044841567904
12642588000.0 -0.5659804053937696 0.8244186926011257 2.2893929433017184e-17 -7.18268113991128e-17 2.2893929433017184e-17 -7.18268113991128e-17 -0.5659809227136233 0.8244183374501566
12643205333.333334 -0.5591358730587009 0.8290760371996823 2.2287769358519225e-17 -7.200179346196346e-17 2.2287769358519225e-17 -7.200179346196346e-17 -0.5591363932756187 0.8290756863607674
12643822666.666666 -0.5522530184017607 0.8336765581842818 2.168028524334054e-17 -7.217166491093141e-17 2.168028524334054e-17 -7.217166491093141e-17 -0.5522535414798059 0.8336762116810442
12644440000.0 -0.5453323131633618 0.8382199402422624 2.107152013505793e-17 -7.233641584956411e-17 2.107152013505793e-17 -7.233641584956411e-17 -0.5453328390664064 0.8382195980980267
12645057333.333334 -0.5383742316781871 0.8427058719771483 2.0461517154099304e-17 -7.249603674366523e-17 2.0461517154099304e-17 -7.249603674366523e-17 -0.5383747603699122 0.8427055342149381
12645674666.666666 -0.5313792508426299 0.8471340459300234 1.9850319490685672e-17 -7.265051842182398e-17 1.9850319490685672e-17 -7.265051842182398e-17 -0.531379782286529 0.8471337125725584
12646292000.0 -0.524347850082035 0.8515041586006451 1.9237970401775418e-17 -7.279985207591632e-17 1.9237970401775418e-17 -7.279985207591632e-17 -0.5243483842414168 0.8515038296703427
12646909333.333334 -0.5172805113180106 0.8558159104681461 1.8624513208034333e-17 -7.29440292615739e-17 1.8624513208034333e-17 -7.29440292615739e-17 -0.5172810481560017 0.8558155859871175
12647526666.666666 -0.5101777189352276 0.8600690060116637 1.8009991290766955e-17 -7.308304189863567e-17 1.8009991290766955e-17 -7.308304189863567e-17 -0.510178258414774 0.8600686860017127
12648144000.0 -0.5030399597483179 0.864263153730538 1.7394448088847076e-17 -7.321688227157396e-17 1.7394448088847076e-17 -7.321688227157396e-17 -0.503040501832188 0.8642628382131589
12648761333.333334 -0.495867722968459 0.8683980661643147 1.6777927095670183e-17 -7.334554302988801e-17 1.6777927095670183e-17 -7.334554302988801e-17 -0.49586826761924696 0.8683977551606935
12649378666.666666 -0.4886615001699431 0.8724734599123946 1.6160471856095187e-17 -7.346901718847477e-17 1.6160471856095187e-17 -7.346901718847477e-17 -0.4886620473500712 0.8724731534434065
12649996000.0 -0.4814217852563147 0.876489055653558 1.5542125963354406e-17 -7.358729812797994e-17 1.5542125963354406e-17 -7.358729812797994e-17 -0.48142233492803466 0.8764887537397635
12650613333.333334 -0.4741490744266899 0.8804445781650071 1.492293305599891e-17 -7.370037959511506e-17 1.492293305599891e-17 -7.370037959511506e-17 -0.4741496265520863 0.8804442808266529
12651230666.666666 -0.466843866141699 0.8843397563412583 1.430293681483162e-17 -7.38082557029516e-17 1.430293681483162e-17 -7.38082557029516e-17 -0.4668444206826924 0.8843394635982759
12651848000.0 -0.4595066610891473 0.8881743232128185 1.3682180959821653e-17 -7.391092093119183e-17 1.3682180959821653e-17 -7.391092093119183e-17 -0.45950721800749644 0.8881740350848225
12652465333.333334 -0.45213796215000013 0.8919480159643209 1.306070924703623e-17 -7.40083701264112e-17 1.306070924703623e-17 -7.40083701264112e-17 -0.4521385214073049 0.8919477324706085
12653082666.666666 -0.44473827436376684 0.8956605759526228 1.243856546557115e-17 -7.410059850227458e-17 1.243856546557115e-17 -7.410059850227458e-17 -0.4447388359214697 0.8956602971121701
12653700000.0 -0.4373081048937046 0.8993117487246131 1.1815793434459078e-17 -7.418760163973002e-17 1.1815793434459078e-17 -7.418760163973002e-17 -0.43730866871309493 0.899311474556077
12654317333.333334 -0.429847962992494 0.9029012840344436 1.1192436999608634e-17 -7.426937548717219e-17 1.1192436999608634e-17 -7.426937548717219e-17 -0.4298485290347099 0.9029010145561587
12654934666.666666 -0.42235835996692805 0.9064289358608826 1.0568540030713243e-17 -7.434591636058448e-17 1.0568540030713243e-17 -7.434591636058448e-17 -0.4223589281929582 0.9064286710908589
12655552000.0 -0.41483980914294 0.9098944624241292 9.944146418167894e-18 -7.441722094365349e-17 9.944146418167894e-18 -7.441722094365349e-17 -0.41484037951362807 0.9098942023800536
12656169333.333334 -0.4072928258307333 0.9132976262022477 9.31930007001746e-18 -7.448328628785399e-17 9.31930007001746e-18 -7.448328628785399e-17 -0.40729339830677985 0.913297370901482
12656786666.666666 -0.39971792728905053 0.9166381939476395 8.694044908843634e-18 -7.454410981251657e-17 8.694044908843634e-18 -7.454410981251657e-17 -0.39971850183101526 0.9166379434072174
12657404000.0 -0.39211563268995175 0.9199159367029163 8.068424868704875e-18 -7.459968930486172e-17 8.068424868704875e-18 -7.459968930486172e-17 -0.39211620925825696 0.9199156909395445
12658021333.333334 -0.38448646308312795 0.9231306298166424 7.442483892049253e-18 -7.46500229200119e-17 7.442483892049253e-18 -7.46500229200119e-17 -0.38448704163806086 0.9231303888466986
12658638666.666666 -0.37683094136042594 0.9262820529586334 6.816265926655601e-18 -7.4695109180976e-17 6.816265926655601e-18 -7.4695109180976e-17 -0.3768315218621409 0.926281816798164
12659256000.0 -0.36914959221958865 0.9293699901352295 6.189814922522254e-18 -7.473494697861165e-17 6.189814922522254e-18 -7.473494697861165e-17 -0.3691501746281116 0.9293697587999518
12659873333.333334 -0.36144294212860956 0.9323942297039703 5.56317482881849e-18 -7.476953557155673e-17 5.56317482881849e-18 -7.476953557155673e-17 -0.36144352640383864 0.9323940032092674
12660490666.666666 -0.3537115192897283 0.9353545643880704 4.936389590805442e-18 -7.479887458613913e-17 4.936389590805442e-18 -7.479887458613913e-17 -0.35371210539143844 0.9353543427489937
12661108000.0 -0.34595585360280623 0.9382507912907925 4.309503146749803e-18 -7.482296401625883e-17 4.309503146749803e-18 -7.482296401625883e-17 -0.34595644149065047 0.9382505745220581
12661725333.333334 -0.33817647662945693 0.9410827119091771 3.6825594248691875e-18 -7.484180422324543e-17 3.6825594248691875e-18 -7.484180422324543e-17 -0.33817706626297 0.9410825000251659
12662342666.666666 -0.33037392155640266 0.9438501321477307 3.0556023402452036e-18 -7.485539593568943e-17 3.0556023402452036e-18 -7.485539593568943e-17 -0.33037451289500386 0.9438499251624882
12662960000.0 -0.32254872315890354 0.9465528623317382 2.428675791772753e-18 -7.486374024924736e-17 2.428675791772753e-18 -7.486374024924736e-17 -0.3225493161618989 0.9465526602589719
12663577333.333334 -0.3147014177641571 0.9491907172202404 1.8018236590797515e-18 -7.48668386264229e-17 1.8018236590797515e-18 -7.48668386264229e-17 -0.31470201239074314 0.9491905200733213
12664194666.666666 -0.30683254321462167 0.9517635160187071 1.1750897994727632e-18 -7.486469289632079e-17 1.1750897994727632e-18 -7.486469289632079e-17 -0.30683313942388707 0.951763323810666
12664812000.0 -0.29894263883099087 0.9542710823914808 5.485180448726499e-19 -7.485730525437614e-17 5.485180448726499e-19 -7.485730525437614e-17 -0.29894323658192007 0.9542708951350092
12665429333.333334 -0.2910322453753103 0.9567132444738348 -7.784780123618495e-20 -7.484467826205774e-17 -7.784780123618495e-20 -7.484467826205774e-17 -0.2910328446267857 0.9567130621812826
12666046666.666666 -0.28310190501399535 0.9590898348837256 -7.039639668618778e-19 -7.482681484654644e-17 -7.039639668618778e-19 -7.482681484654644e-17 -0.28310250572480145 0.9590896575671038
12666664000.0 -0.2751521612804839 0.9614006907333303 -1.329786714570549e-18 -7.480371830038706e-17 -1.329786714570549e-18 -7.480371830038706e-17 -0.27515276340930833 0.9614005184043054
12667281333.333334 -0.26718355903819874 0.9636456536401371 -1.955272344507738e-18 -7.477539228111637e-17 -1.955272344507738e-18 -7.477539228111637e-17 -0.2671841625436363 0.9636454863100337
12667898666.666666 -0.25919664444301416 0.965824569737863 -2.580377197454303e-18 -7.474184081086441e-17 -2.580377197454303e-18 -7.474184081086441e-17 -0.2591972492835693 0.9658244074176615
12668516000.0 -0.2511919649059038 0.9679372896869699 -3.205057657878262e-18 -7.470306827593032e-17 -3.205057657878262e-18 -7.470306827593032e-17 -0.25119257103999365 0.967937132387307
12669133333.333334 -0.2431700690555055 0.9699836686848836 -3.829270156944178e-18 -7.465907942633461e-17 -3.829270156944178e-18 -7.465907942633461e-17 -0.24317067644146256 0.9699835164160509
12669750666.666666 -0.23513150670032637 0.971963566475966 -4.452971175558442e-18 -7.460987937534437e-17 -4.452971175558442e-18 -7.460987937534437e-17 -0.23513211529640124 0.9719634192479083
12670368000.0 -0.22707682879125185 0.9738768473610783 -5.0761172473992665e-18 -7.455547359897344e-17 -5.0761172473992665e-18 -7.455547359897344e-17 -0.22707743855561652 0.9738767051833954
