! Parameters = {f0=12700.012000; bw=77.238000; Q=6100.000000; N=10; m_0_1=1.229725; m_1_1=-0.318875; m_1_2=1.064537; m_2_2=-0.319524; m_2_3=0.701500; m_2_8=-0.001450; m_2_9=0.035254; m_3_3=-0.321461; m_3_4=0.590029; m_3_7=-0.000850; m_3_8=-0.097938; m_3_9=-0.001450; m_4_4=-0.324386; m_4_5=0.426364; m_4_6=0.002667; m_4_7=-0.118487; m_4_8=-0.000850; m_5_5=-0.324004; m_5_6=0.833719; m_5_7=0.002667; m_6_6=-0.324005; m_6_7=0.426706; m_7_7=-0.324372; m_7_8=0.590147; m_8_8=-0.321463; m_8_9=0.701813; m_9_9=-0.319529; m_9_10=1.065615; m_10_10=-0.318885; m_10_11=1.230520}
!
! Created with skrf (http://scikit-rf.org).
# Hz S RI R 50.0 
!freq ReS11 ImS11 ReS21 ImS21 ReS12 ImS12 ReS22 ImS22
12607400000.0 0.9993898339817645 -0.034927921978489464 -8.640638293505078e-17 2.891676227480389e-17 -8.640638293505078e-17 2.891676227480389e-17 0.9993898566135753 -0.034927274410287805
12608017333.333334 0.9990203616653759 -0.04425287536212612 -8.611325926947479e-17 2.972367826758658e-17 -8.611325926947479e-17 2.972367826758658e-17 0.9990203903380128 -0.044252228065024345
12608634666.666666 0.998563883401658 -0.05357397470445106 -8.581260649326234e-17 3.052763978230078e-17 -8.581260649326234e-17 3.052763978230078e-17 0.9985639181120326 -0.053573327734793785
12609252000.0 0.9980204389459495 -0.06289040821913183 -8.550445423731368e-17 3.1328576627255933e-17 -8.550445423731368e-17 3.1328576627255933e-17 0.9980204796904475 -0.06288976163322962
12609869333.333334 0.997390075627577 -0.07220136452624631 -8.518883278633168e-17 3.212641890662756e-17 -8.518883278633168e-17 3.212641890662756e-17 0.9973901224020585 -0.0722007183803708
12610486666.666666 0.9966728483457551 -0.08150603272269195 -8.486577307588495e-17 3.292109702652996e-17 -8.486577307588495e-17 3.292109702652996e-17 0.9966729011455582 -0.08150538707307108
12611104000.0 0.9958688195647759 -0.0908036024532906 -8.453530668939767e-17 3.371254170109782e-17 -8.453530668939767e-17 3.371254170109782e-17 0.9958688783847105 -0.09080295735610329
12611721333.333334 0.9949780593085933 -0.1000932639808522 -8.419746585510776e-17 3.450068395847821e-17 -8.419746585510776e-17 3.450068395847821e-17 0.9949781241429482 -0.10009261949222406
12612338666.666666 0.9940006451547135 -0.10937420825700862 -8.385228344294587e-17 3.528545514685006e-17 -8.385228344294587e-17 3.528545514685006e-17 0.9940007159972543 -0.10937356443300668
12612956000.0 0.99293666222743 -0.11864562699267388 -8.349979296136775e-17 3.6066786940388556e-17 -8.349979296136775e-17 3.6066786940388556e-17 0.9929367390713985 -0.11864498388930173
12613573333.333334 0.9917862031904373 -0.12790671272818474 -8.314002855414148e-17 3.6844611345177424e-17 -8.314002855414148e-17 3.6844611345177424e-17 0.9917862860285541 -0.1279060704013778
12614190666.666666 0.9905493682387324 -0.13715665890390624 -8.277302499705827e-17 3.761886070513664e-17 -8.277302499705827e-17 3.761886070513664e-17 0.9905494570631962 -0.13715601740952674
12614808000.0 0.9892262650899016 -0.14639465993033432 -8.239881769460943e-17 3.8389467707870374e-17 -8.239881769460943e-17 3.8389467707870374e-17 0.9892263598923913 -0.14639401932416668
12615425333.333334 0.9878170089747382 -0.1556199112582843 -8.201744267659229e-17 3.9156365390520284e-17 -8.201744267659229e-17 3.9156365390520284e-17 0.9878171097464123 -0.15561927159603
12616042666.666666 0.9863217226272019 -0.16483160944898795 -8.162893659467362e-17 3.991948714555937e-17 -8.162893659467362e-17 3.991948714555937e-17 0.9863218293587006 -0.1648309707862609
12616660000.0 0.9847405362737468 -0.17402895224395357 -8.123333671889358e-17 4.0678766726563855e-17 -8.123333671889358e-17 4.0678766726563855e-17 0.9847406489551922 -0.17402831463627524
12617277333.333334 0.9830735876219487 -0.18321113863503244 -8.083068093411629e-17 4.143413825395066e-17 -8.083068093411629e-17 4.143413825395066e-17 0.983073706242945 -0.18321050213782686
12617894666.666666 0.9813210218485562 -0.1923773689339274 -8.04210077364348e-17 4.218553622066663e-17 -8.04210077364348e-17 4.218553622066663e-17 0.9813211463981919 -0.19237673360251653
12618512000.0 0.9794829915867833 -0.20152684484217387 -8.000435622950323e-17 4.2932895497878656e-17 -8.000435622950323e-17 4.2932895497878656e-17 0.979483122053631 -0.2015262107317726
12619129333.333334 0.9775596569130902 -0.2106587695202738 -7.95807661208475e-17 4.367615134057137e-17 -7.95807661208475e-17 4.367615134057137e-17 0.9775597932852104 -0.21065813668598576
12619746666.666666 0.9755511853331952 -0.21977234765737372 -7.91502777180943e-17 4.4415239393163075e-17 -7.91502777180943e-17 4.4415239393163075e-17 0.9755513275981327 -0.21977171615418545
12620364000.0 0.9734577517674725 -0.2288667855405266 -7.871293192516019e-17 4.515009569506194e-17 -7.871293192516019e-17 4.515009569506194e-17 0.9734578999122616 -0.2288661554233036
12620981333.333334 0.9712795385357832 -0.23794129112356965 -7.826877023840172e-17 4.5880656686165396e-17 -7.826877023840172e-17 4.5880656686165396e-17 0.9712796925469473 -0.23794066244705142
12621598666.666666 0.9690167353415241 -0.24699507409640853 -7.781783474268923e-17 4.660685921236389e-17 -7.781783474268923e-17 4.660685921236389e-17 0.9690168952050768 -0.24699444691520367
12622216000.0 0.9666695392551642 -0.25602734595359766 -7.736016810744885e-17 4.7328640530975467e-17 -7.736016810744885e-17 4.7328640530975467e-17 0.9666697049566116 -0.2560267203221794
12622833333.333334 0.9642381546970307 -0.2650373200632336 -7.689581358265082e-17 4.804593831614608e-17 -7.689581358265082e-17 4.804593831614608e-17 0.9642383262213704 -0.2650366960359343
12623450666.666666 0.9617227934195564 -0.27402421173524194 -7.64248149947436e-17 4.875869066421992e-17 -7.64248149947436e-17 4.875869066421992e-17 0.9617229707512819 -0.27402358936624965
12624068000.0 0.9591236744888008 -0.2829872382898837 -7.594721674253903e-17 4.946683609906782e-17 -7.594721674253903e-17 4.946683609906782e-17 0.9591238576119012 -0.2829866176332367
12624685333.333334 0.9564410242653583 -0.29192561912594606 -7.546306379304656e-17 5.0170313577377287e-17 -7.546306379304656e-17 5.0170313577377287e-17 0.956441213163319 -0.29192500023552764
12625302666.666666 0.9536750763847247 -0.30083857578845263 -7.497240167727691e-17 5.0869062493877395e-17 -7.497240167727691e-17 5.0869062493877395e-17 0.9536752710405304 -0.30083795871798746
12625920000.0 0.9508260717368268 -0.3097253320368689 -7.447527648596026e-17 5.15630226865751e-17 -7.447527648596026e-17 5.15630226865751e-17 0.9508262721329629 -0.3097247168399181
12626537333.333334 0.9478942584451532 -0.3185851139123532 -7.397173486525958e-17 5.225213444188937e-17 -7.397173486525958e-17 5.225213444188937e-17 0.9478944645636057 -0.3185845006423088
12627154666.666666 0.9448798918451291 -0.32741714980521636 -7.34618240124065e-17 5.293633849978556e-17 -7.34618240124065e-17 5.293633849978556e-17 0.9448801036673885 -0.327416538515298
12627772000.0 0.941783234461769 -0.3362206705224449 -7.294559167128967e-17 5.3615576058867087e-17 -7.294559167128967e-17 5.3615576058867087e-17 0.9417834519688311 -0.3362200612656944
12628389333.333334 0.9386045559869803 -0.34499490935420796 -7.242308612802752e-17 5.42897887813836e-17 -7.242308612802752e-17 5.42897887813836e-17 0.9386047791593461 -0.3449943021834846
12629006666.666666 0.935344133255922 -0.35373910214105864 -7.189435620644907e-17 5.495891879825524e-17 -7.189435620644907e-17 5.495891879825524e-17 0.9353443620736032 -0.35373849710903554
12629624000.0 0.9320022502230032 -0.36245248734019275 -7.135945126357012e-17 5.562290871400044e-17 -7.135945126357012e-17 5.562290871400044e-17 0.9320024846655204 -0.36245188449935106
12630241333.333334 0.9285791979370925 -0.3711343060919317 -7.081842118499525e-17 5.628170161165656e-17 -7.081842118499525e-17 5.628170161165656e-17 0.9285794379834794 -0.37113370549455693
12630858666.666666 0.925075274516234 -0.3797838022856542 -7.027131638030183e-17 5.693524105762147e-17 -7.027131638030183e-17 5.693524105762147e-17 0.9250755201450369 -0.379783203983831
12631476000.0 0.9214907851215649 -0.3884002226259368 -6.971818777833595e-17 5.758347110650479e-17 -6.971818777833595e-17 5.758347110650479e-17 0.9214910363108472 -0.388399626671545
12632093333.333334 0.9178260419308673 -0.39698281669784236 -6.915908682251916e-17 5.822633630586595e-17 -6.915908682251916e-17 5.822633630586595e-17 0.9178262986582105 -0.3969822231425527
12632710666.666666 0.9140813641113642 -0.40553083703233045 -6.859406546607275e-17 5.886378170095468e-17 -6.859406546607275e-17 5.886378170095468e-17 0.9140816263538698 -0.4055302459275994
12633328000.0 0.9102570777917951 -0.41404353917164044 -6.802317616720074e-17 5.949575283940068e-17 -6.802317616720074e-17 5.949575283940068e-17 0.9102573455260853 -0.4140429505687058
12633945333.333334 0.9063535160341586 -0.4225201817337878 -6.744647188425457e-17 6.012219577583043e-17 -6.744647188425457e-17 6.012219577583043e-17 0.9063537892363814 -0.42251959568366504
12634562666.666666 0.9023710188046425 -0.43096002647729015 -6.68640060708312e-17 6.074305707646404e-17 -6.68640060708312e-17 6.074305707646404e-17 0.9023712974504706 -0.4309594430307669
12635180000.0 0.8983099329440222 -0.4393623383654339 -6.62758326708393e-17 6.135828382365332e-17 -6.62758326708393e-17 6.135828382365332e-17 0.898310217008657 -0.4393617575730664
12635797333.333334 0.8941706121374424 -0.4477263856303154 -6.568200611352066e-17 6.196782362037614e-17 -6.568200611352066e-17 6.196782362037614e-17 0.8941709015956171 -0.447725807542424
12636414666.666666 0.8899534168836689 -0.4560514398364713 -6.508258130843935e-17 6.257162459467363e-17 -6.508258130843935e-17 6.257162459467363e-17 0.8899537117096471 -0.45605086450313514
12637032000.0 0.885658714463609 -0.4643367759444683 -6.447761364041213e-17 6.316963540405753e-17 -6.447761364041213e-17 6.316963540405753e-17 0.8856590146311915 -0.46433620341552273
12637649333.333334 0.8812868789083814 -0.4725816723739493 -6.3867158964417e-17 6.376180523985036e-17 -6.3867158964417e-17 6.376180523985036e-17 0.8812871843909059 -0.4725811026989803
12638266666.666666 0.8768382909667136 -0.4807854110665258 -6.325127360045083e-17 6.434808383148759e-17 -6.325127360045083e-17 6.434808383148759e-17 0.8768386017370567 -0.48078484429486557
12638884000.0 0.8723133380718339 -0.48894727754821377 -6.263001432835907e-17 6.492842145075978e-17 -6.263001432835907e-17 6.492842145075978e-17 0.8723136541024151 -0.4889467137289371
12639501333.333334 0.8677124143076365 -0.49706656099183416 -6.200343838260618e-17 6.55027689160241e-17 -6.200343838260618e-17 6.55027689160241e-17 0.8677127355704192 -0.4970660001737537
12640118666.666666 0.863035920374498 -0.5051425542786707 -6.137160344703971e-17 6.607107759633652e-17 -6.137160344703971e-17 6.607107759633652e-17 0.8630362468409938 -0.5051419965103335
12640736000.0 0.8582842635541388 -0.5131745540604729 -6.073456764956514e-17 6.663329941557942e-17 -6.073456764956514e-17 6.663329941557942e-17 0.858284595195409 -0.5131739993901557
12641353333.333334 0.8534578576744973 -0.5211618608201227 -6.009238955686198e-17 6.718938685646897e-17 -6.009238955686198e-17 6.718938685646897e-17 0.8534581944611546 -0.5211613092958275
12641970666.666666 0.8485571230733854 -0.5291037789330704 -5.944512816897668e-17 6.773929296458747e-17 -5.944512816897668e-17 6.773929296458747e-17 0.8485574649755967 -0.5291032306025201
12642588000.0 0.843582486562025 -0.5369996167276724 -5.879284291393878e-17 6.828297135231185e-17 -5.879284291393878e-17 6.828297135231185e-17 0.843582833549516 -0.5369990716383078
12643205333.333334 0.838534381387864 -0.5448486865454556 -5.813559364232003e-17 6.8820376202709e-17 -5.813559364232003e-17 6.8820376202709e-17 0.8385347334299201 -0.5448481447444306
12643822666.666666 0.8334132471967668 -0.5526503048011253 -5.747344062175215e-17 6.935146227338362e-17 -5.747344062175215e-17 6.935146227338362e-17 0.8334136042622362 -0.5526497663353025
12644440000.0 0.828219529994863 -0.5604037920418846 -5.680644453142755e-17 6.987618490025904e-17 -5.680644453142755e-17 6.987618490025904e-17 0.828219892052159 -0.5604032569578314
12645057333.333334 0.822953682109598 -0.5681084730067765 -5.613466645655402e-17 7.039450000131524e-17 -5.613466645655402e-17 7.039450000131524e-17 0.8229540491267027 -0.5681079413507615
12645674666.666666 0.8176161621504001 -0.5757636766853976 -5.54581678827752e-17 7.090636408027345e-17 -5.54581678827752e-17 7.090636408027345e-17 0.8176165340948667 -0.5757631485033866
12646292000.0 0.8122074349686113 -0.5833687363765252 -5.4777010690553887e-17 7.141173423023052e-17 -5.4777010690553887e-17 7.141173423023052e-17 0.8122078118075682 -0.5833682117141775
12646909333.333334 0.8067279716172159 -0.5909229897458789 -5.4091257149542894e-17 7.191056813722436e-17 -5.4091257149542894e-17 7.191056813722436e-17 0.8067283533173664 -0.590922468648541
12647526666.666666 0.8011782493096485 -0.5984257788840333 -5.340096991289665e-17 7.240282408376487e-17 -5.340096991289665e-17 7.240282408376487e-17 0.8011786358372774 -0.5984252613967388
12648144000.0 0.795558751378252 -0.6058764503636961 -5.2706212011563756e-17 7.288846095230178e-17 -5.2706212011563756e-17 7.288846095230178e-17 0.7955591426992258 -0.6058759365311585
12648761333.333334 0.7898699672322473 -0.6132743552965212 -5.200704684855634e-17 7.336743822863196e-17 -5.200704684855634e-17 7.336743822863196e-17 0.7898703633120198 -0.613273845163132
12649378666.666666 0.7841123923150985 -0.6206188493896474 -5.1303538193180417e-17 7.383971600525784e-17 -5.1303538193180417e-17 7.383971600525784e-17 0.784112793118711 -0.6206183429994712
12649996000.0 0.7782865280613422 -0.6279092930018305 -5.0595750175225476e-17 7.430525498469788e-17 -5.0595750175225476e-17 7.430525498469788e-17 0.7782869335534291 -0.6279087903986021
12650613333.333334 0.7723928818528673 -0.6351450511992198 -4.988374727914122e-17 7.476401648273006e-17 -4.988374727914122e-17 7.476401648273006e-17 0.7723932919976583 -0.63514455242634
12651230666.666666 0.7664319669748673 -0.6423254938104764 -4.9167594338187394e-17 7.521596243157873e-17 -4.9167594338187394e-17 7.521596243157873e-17 0.7664323817361899 -0.642324998911008
12651848000.0 0.7604043025709398 -0.6494499954818979 -4.8447356528524795e-17 7.566105538306442e-17 -4.8447356528524795e-17 7.566105538306442e-17 0.7604047219122242 -0.649449504498563
12652465333.333334 0.7543104135980376 -0.656517935731685 -4.7723099363319076e-17 7.609925851167169e-17 -4.7723099363319076e-17 7.609925851167169e-17 0.7543108374823161 -0.6565174487068586
12653082666.666666 0.7481508307807474 -0.6635286990039784 -4.6994888686797963e-17 7.653053561757319e-17 -4.6994888686797963e-17 7.653053561757319e-17 0.7481512591706625 -0.6635282159796881
12653700000.0 0.7419260905648872 -0.6704816747226866 -4.626279066825669e-17 7.695485112961083e-17 -4.626279066825669e-17 7.695485112961083e-17 0.7419265234226915 -0.6704811957406068
12654317333.333334 0.7356367350710435 -0.6773762573443594 -4.5526871796101004e-17 7.737217010818243e-17 -4.5526871796101004e-17 7.737217010818243e-17 0.7356371723586048 -0.6773757824458088
12654934666.666666 0.7292833120471538 -0.6842118464111605 -4.478719887178943e-17 7.778245824811571e-17 -4.478719887178943e-17 7.778245824811571e-17 0.7292837537259586 -0.684211375637099
12655552000.0 0.7228663748208762 -0.6909878466030783 -4.4043839003793756e-17 7.818568188145814e-17 -4.4043839003793756e-17 7.818568188145814e-17 0.7228668208520316 -0.6909873799941014
12656169333.333334 0.71638648225146 -0.6977036677897103 -4.329685960154416e-17 7.85818079802053e-17 -4.329685960154416e-17 7.85818079802053e-17 0.7163869325956969 -0.6977032053860469
12656786666.666666 0.709844198680953 -0.7043587250817809 -4.254632836930957e-17 7.897080415899335e-17 -4.254632836930957e-17 7.897080415899335e-17 0.7098446532986318 -0.7043582669232901
12657404000.0 0.7032400938851343 -0.710952438881999 -4.1792313300087893e-17 7.935263867771484e-17 -4.1792313300087893e-17 7.935263867771484e-17 0.7032405527362474 -0.710951985008167
12658021333.333334 0.6965747430238509 -0.7174842349355783 -4.103488266945724e-17 7.972728044408506e-17 -4.103488266945724e-17 7.972728044408506e-17 0.6965752060680247 -0.7174837853855127
12658638666.666666 0.6898487265910258 -0.723953544380145 -4.027410502942044e-17 8.009469901614169e-17 -4.027410502942044e-17 8.009469901614169e-17 0.689849193787527 -0.7239530991925751
12659256000.0 0.683062630363903 -0.7303598037954866 -3.9510049202193274e-17 8.045486460470287e-17 -3.9510049202193274e-17 8.045486460470287e-17 0.6830631016716389 -0.730359363008756
12659873333.333334 0.6762170453522086 -0.7367024552524345 -3.874278427401441e-17 8.080774807574493e-17 -3.874278427401441e-17 8.080774807574493e-17 0.6762175207297336 -0.736702018904501
12660490666.666666 0.6693125677466648 -0.7429809463614818 -3.7972379588914026e-17 8.115332095273139e-17 -3.7972379588914026e-17 8.115332095273139e-17 0.6693130471521828 -0.7429805144899125
12661108000.0 0.6623497988669388 -0.7491947303210033 -3.719890474243863e-17 8.149155541889329e-17 -3.719890474243863e-17 8.149155541889329e-17 0.6623502822583077 -0.7491943029629732
12661725333.333334 0.6553293451094443 -0.7553432659647289 -3.642242957540941e-17 8.182242431942568e-17 -3.642242957540941e-17 8.182242431942568e-17 0.6553298324441774 -0.755342843157014
12662342666.666666 0.6482518178943762 -0.7614260178090005 -3.564302416761482e-17 8.214590116364558e-17 -3.564302416761482e-17 8.214590116364558e-17 0.6482523091296493 -0.7614255995879788
12662960000.0 0.6411178336125521 -0.767442456099338 -3.486075883149832e-17 8.246196012708392e-17 -3.486075883149832e-17 8.246196012708392e-17 0.6411183287052039 -0.7674420425009836
12663577333.333334 0.6339280135717036 -0.7733920568565914 -3.407570410583739e-17 8.277057605351361e-17 -3.407570410583739e-17 8.277057605351361e-17 0.6339285124782426 -0.7733916479164731
12664194666.666666 0.6266829839423708 -0.7792743019225792 -3.328793074939541e-17 8.30717244569212e-17 -3.328793074939541e-17 8.30717244569212e-17 0.6266834866189758 -0.7792738976758552
12664812000.0 0.6193833757033627 -0.7850886790052092 -3.249750973455913e-17 8.336538152341812e-17 -3.249750973455913e-17 8.336538152341812e-17 0.61938388210589 -0.785088279486627
12665429333.333334 0.6120298245867865 -0.7908346817231168 -3.1704512240956916e-17 8.36515241130914e-17 -3.1704512240956916e-17 8.36515241130914e-17 0.6120303346707724 -0.790834286967009
12666046666.666666 0.6046229710227697 -0.7965118096496967 -3.090900964907581e-17 8.393012976178961e-17 -3.090900964907581e-17 8.393012976178961e-17 0.6046234847434334 -0.7965114196899769
12666664000.0 0.5971634600835262 -0.8021195683568055 -3.0111073533824744e-17 8.420117668286152e-17 -3.0111073533824744e-17 8.420117668286152e-17 0.5971639773957742 -0.8021191832269657
12667281333.333334 0.5896519414273553 -0.8076574694576826 -2.931077565814297e-17 8.446464376881264e-17 -2.931077565814297e-17 8.446464376881264e-17 0.5896524622857867 -0.8076570891907927
12667898666.666666 0.5820890692419295 -0.813125030649592 -2.850818796653684e-17 8.47205105929213e-17 -2.850818796653684e-17 8.47205105929213e-17 0.5820895936008391 -0.8131246552782945
12668516000.0 0.5744755021872952 -0.8185217757558391 -2.7703382578626734e-17 8.496875741078506e-17 -2.7703382578626734e-17 8.496875741078506e-17 0.574476030000676 -0.818521405312346
12669133333.333334 0.5668119033387139 -0.8238472347670901 -2.68964317827031e-17 8.520936516179929e-17 -2.68964317827031e-17 8.520936516179929e-17 0.5668124345602645 -0.8238468692831827
12669750666.666666 0.5590989401286888 -0.8291009438824767 -2.6087408029221283e-17 8.544231547058976e-17 -2.6087408029221283e-17 8.544231547058976e-17 0.5590994747118138 -0.8291005833895
12670368000.0 0.5513372842889238 -0.8342824455499172 -2.5276383924330863e-17 8.566759064836958e-17 -2.5276383924330863e-17 8.566759064836958e-17 0.551337822186741 -0.8342820900787796
12670985333.333334 0.5435276117918973 -0.8393912885059224 -2.446343222336696e-17 8.588517369424342e-17 -2.446343222336696e-17 8.588517369424342e-17 0.5435281529572396 -0.8393909380870913
