! Parameters = {f0=12700.012000; bw=77.238000; Q=6100.000000; N=10; m_0_1=1.279575; m_1_1=0.428873; m_1_2=1.114387; m_2_2=0.428224; m_2_3=0.751350; m_2_8=0.001042; m_2_9=0.037746; m_3_3=0.426287; m_3_4=0.639879; m_3_7=0.001642; m_3_8=-0.095446; m_3_9=0.001042; m_4_4=0.423362; m_4_5=0.476214; m_4_6=0.005159; m_4_7=-0.115995; m_4_8=0.001642; m_5_5=0.423744; m_5_6=0.883569; m_5_7=0.005159; m_6_6=0.423743; m_6_7=0.476556; m_7_7=0.423376; m_7_8=0.639997; m_8_8=0.426285; m_8_9=0.751663; m_9_9=0.428219; m_9_10=1.115465; m_10_10=0.428863; m_10_11=1.280370}
!
! Created with skrf (http://scikit-rf.org).
# Hz S RI R 50.0 
!freq ReS11 ImS11 ReS21 ImS21 ReS12 ImS12 ReS22 ImS22
12607400000.0 0.3011864217810399 0.9535652779618989 -6.474168805296417e-17 -9.587308396559305e-17 -6.474168805296417e-17 -9.587308396559305e-17 0.30118577894603077 0.9535654810030054
12608017333.333334 0.3114728599457664 0.9502550486669491 -6.576945033338966e-17 -9.51434327559247e-17 -6.576945033338966e-17 -9.51434327559247e-17 0.31147221937367153 0.9502552586322582
12608634666.666666 0.32172292791180573 0.9468338595844976 -6.678900340386506e-17 -9.440277389812616e-17 -6.678900340386506e-17 -9.440277389812616e-17 0.3217222896771985 0.9468340764488157
12609252000.0 0.33193542879483406 0.943302110201504 -6.780022947939684e-17 -9.365119960388395e-17 -6.780022947939684e-17 -9.365119960388395e-17 0.33193479297200756 0.9433023339388338
12609869333.333334 0.3421091700972052 0.9396602129148712 -6.88030118091951e-17 -9.288880334400414e-17 -6.88030118091951e-17 -9.288880334400414e-17 0.342108536760164 0.9396604434984162
12610486666.666666 0.35224296384714393 0.935908592983311 -6.979723469011528e-17 -9.211567983683422e-17 -6.979723469011528e-17 -9.211567983683422e-17 0.3522423330695943 0.935908830385476
12611104000.0 0.36233562673759395 0.9320476884776311 -7.078278348001114e-17 -9.133192503650865e-17 -7.078278348001114e-17 -9.133192503650865e-17 0.36233499859293705 0.9320479326700302
12611721333.333334 0.3723859802641021 0.9280779502297015 -7.175954461086892e-17 -9.053763612112143e-17 -7.175954461086892e-17 -9.053763612112143e-17 0.3723853548254238 0.9280782011831565
12612338666.666666 0.38239285086277264 0.9239998417796732 -7.272740560189418e-17 -8.97329114806913e-17 -7.272740560189418e-17 -8.97329114806913e-17 0.38239222820283625 0.9240000994642212
12612956000.0 0.3923550700471443 0.9198138393219146 -7.368625507243824e-17 -8.891785070500741e-17 -7.368625507243824e-17 -8.891785070500741e-17 0.392354450238381 0.919814103706808
12613573333.333334 0.402271474544475 0.9155204316494716 -7.463598275474407e-17 -8.809255457137579e-17 -7.463598275474407e-17 -8.809255457137579e-17 0.4022708576589763 0.9155207027031842
12614190666.666666 0.41214090643191603 0.9111201200968503 -7.557647950662555e-17 -8.72571250321709e-17 -7.557647950662555e-17 -8.72571250321709e-17 0.41214029254142526 0.9111203977870811
12614808000.0 0.42196221327143413 0.9066134184816003 -7.650763732397065e-17 -8.641166520228396e-17 -7.650763732397065e-17 -8.641166520228396e-17 0.42196160244733755 0.9066137027752756
12615425333.333334 0.4317342482444836 0.9020008530442708 -7.742934935309457e-17 -8.555627934644698e-17 -7.742934935309457e-17 -8.555627934644698e-17 0.43173364055780244 0.902001143907549
12616042666.666666 0.44145587028599487 0.8972829623869248 -7.834150990298637e-17 -8.469107286639541e-17 -7.834150990298637e-17 -8.469107286639541e-17 0.44145526580737765 0.897283259785202
12616660000.0 0.4511259442174629 0.8924602974103241 -7.92440144573763e-17 -8.381615228793352e-17 -7.92440144573763e-17 -8.381615228793352e-17 0.45112534301717583 0.8924606013082348
12617277333.333334 0.4607433408795999 0.8875334212495475 -8.013675968668545e-17 -8.293162524784716e-17 -8.013675968668545e-17 -8.293162524784716e-17 0.4607427430275203 0.8875337316109723
12617894666.666666 0.47030693726413686 0.8825029092082634 -8.101964345981587e-17 -8.20376004807036e-17 -8.101964345981587e-17 -8.20376004807036e-17 0.4703063428297438 0.8825032259963314
12618512000.0 0.4798156166450807 0.8773693486914861 -8.189256485580984e-17 -8.113418780550949e-17 -8.189256485580984e-17 -8.113418780550949e-17 0.47981502569744755 0.8773696718685791
12619129333.333334 0.48926826870883566 0.8721333391371295 -8.27554241753245e-17 -8.022149811228354e-17 -8.27554241753245e-17 -8.022149811228354e-17 0.4892676813166224 0.8721336686648882
12619746666.666666 0.49866378968418024 0.8667954919458414 -8.360812295201202e-17 -7.929964334845065e-17 -8.360812295201202e-17 -7.929964334845065e-17 0.4986632059156239 0.8667958277851668
12620364000.0 0.5080010824709993 0.8613564304096852 -8.445056396370318e-17 -7.836873650516291e-17 -8.445056396370318e-17 -7.836873650516291e-17 0.508000502393908 0.861356772520747
12620981333.333334 0.517279056768246 0.8558167896394502 -8.528265124345308e-17 -7.742889160348856e-17 -8.528265124345308e-17 -7.742889160348856e-17 0.5172784804499906 0.8558171379816897
12621598666.666666 0.5264966292015743 0.8501772164903042 -8.610429009044214e-17 -7.648022368047401e-17 -8.610429009044214e-17 -7.648022368047401e-17 0.526496056709079 0.8501775710224376
12622216000.0 0.5356527234495705 0.8444383694864174 -8.691538708071199e-17 -7.552284877510323e-17 -8.691538708071199e-17 -7.552284877510323e-17 0.5356521548493072 0.8444387301664437
12622833333.333334 0.5447462703695588 0.8386009187439976 -8.771585007776048e-17 -7.455688391412646e-17 -8.771585007776048e-17 -7.455688391412646e-17 0.5447457057275378 0.8386012855292008
12623450666.666666 0.5537762081224179 0.8326655458930549 -8.850558824294777e-17 -7.358244709781428e-17 -8.850558824294777e-17 -7.358244709781428e-17 0.553775647504181 0.832665918740011
12624068000.0 0.5627414822965213 0.8266329439978394 -8.928451204578331e-17 -7.259965728555757e-17 -8.928451204578331e-17 -7.259965728555757e-17 0.5627409257671351 0.826633322862422
12624685333.333334 0.5716410460310752 0.820503817475774 -9.005253327404335e-17 -7.160863438136797e-17 -9.005253327404335e-17 -7.160863438136797e-17 0.5716404936551215 0.8205042023131573
12625302666.666666 0.5804738601379559 0.814278882015469 -9.080956504368711e-17 -7.060949921932696e-17 -9.080956504368711e-17 -7.060949921932696e-17 0.580473311979525 0.8142792727801335
12625920000.0 0.5892388932234991 0.8079588644928452 -9.15555218086911e-17 -6.960237354882654e-17 -9.15555218086911e-17 -6.960237354882654e-17 0.5892383493461832 0.8079592611385845
12626537333.333334 0.5979351218085638 0.8015445028865212 -9.229031937063348e-17 -6.858738001982139e-17 -9.229031937063348e-17 -6.858738001982139e-17 0.5979345822754487 0.801544905366447
12627154666.666666 0.6065615304482722 0.7950365461914761 -9.301387488817434e-17 -6.756464216790202e-17 -9.301387488817434e-17 -6.756464216790202e-17 0.6065609953219311 0.7950369544580237
12627772000.0 0.6151171118505823 0.7884357543315884 -9.372610688637062e-17 -6.653428439926816e-17 -9.372610688637062e-17 -6.653428439926816e-17 0.6151165811930667 0.7884361683365213
12628389333.333334 0.6236008669936552 0.7817428980710877 -9.442693526576989e-17 -6.549643197568166e-17 -9.442693526576989e-17 -6.549643197568166e-17 0.6236003408664897 0.7817433177655051
12629006666.666666 0.6320118052429196 0.7749587589242457 -9.511628131140913e-17 -6.445121099922258e-17 -9.511628131140913e-17 -6.445121099922258e-17 0.632011283707093 0.7749591842585865
12629624000.0 0.6403489444663394 0.7680841290644319 -9.579406770159811e-17 -6.339874839702157e-17 -9.579406770159811e-17 -6.339874839702157e-17 0.6403484275822989 0.7680845599884815
12630241333.333334 0.6486113111494077 0.761119811231365 -9.64602185165473e-17 -6.233917190587803e-17 -9.64602185165473e-17 -6.233917190587803e-17 0.6486107989770513 0.7611202476942609
12630858666.666666 0.6567979405085383 0.7540666186376136 -9.711465924682239e-17 -6.12726100567974e-17 -9.711465924682239e-17 -6.12726100567974e-17 0.6567974331072086 0.7540670605878524
12631476000.0 0.6649078766040485 0.7469253748733651 -9.77573168016571e-17 -6.019919215939288e-17 -9.77573168016571e-17 -6.019919215939288e-17 0.6649073740325241 0.7469258222588069
12632093333.333334 0.6729401724514563 0.739696913810532 -9.838811951703701e-17 -5.911904828629208e-17 -9.838811951703701e-17 -5.911904828629208e-17 0.6729396747679469 0.7396973665784076
12632710666.666666 0.6808938901322765 0.7323820795051971 -9.900699716366015e-17 -5.803230925738207e-17 -9.900699716366015e-17 -5.803230925738207e-17 0.6808933973944156 0.7323825376021141
12633328000.0 0.6887681009035143 0.7249817260990703 -9.961388095472102e-17 -5.693910662397395e-17 -9.961388095472102e-17 -5.693910662397395e-17 0.6887676131683518 0.7249821894710194
12633945333.333334 0.6965618853059901 0.7174967177198693 -1.0020870355348148e-16 -5.583957265295472e-17 -1.0020870355348148e-16 -5.583957265295472e-17 0.6965614026299867 0.7174971863122306
12634562666.666666 0.704274333271868 0.7099279283802604 -1.0079139908071408e-16 -5.473384031077845e-17 -1.0079139908071408e-16 -5.473384031077845e-17 0.7042738557108871 0.7099284021378087
12635180000.0 0.711904544230758 0.7022762418759573 -1.0136190312193548e-16 -5.362204324744037e-17 -1.0136190312193548e-16 -5.362204324744037e-17 0.711904071840062 0.7022767207428718
12635797333.333334 0.7194516272150602 0.6945425516823462 -1.0192015273448276e-16 -5.250431578034195e-17 -1.0192015273448276e-16 -5.250431578034195e-17 0.7194511600493007 0.6945430356022131
12636414666.666666 0.7269147009637756 0.6867277608503726 -1.0246608645440408e-16 -5.13807928780974e-17 -1.0246608645440408e-16 -5.13807928780974e-17 0.7269142390769904 0.6867282497661947
12637032000.0 0.7342928940256148 0.6788327819008959 -1.0299964430317306e-16 -5.025161014426623e-17 -1.0299964430317306e-16 -5.025161014426623e-17 0.734292437471219 0.6788332757550982
12637649333.333334 0.7415853448606333 0.6708585367182548 -1.0352076779422286e-16 -4.91169038010201e-17 -1.0352076779422286e-16 -4.91169038010201e-17 0.7415848936914144 0.6708590354526909
12638266666.666666 0.7487912019409293 0.662805956442517 -1.0402939993930764e-16 -4.797681067272758e-17 -1.0402939993930764e-16 -4.797681067272758e-17 0.7487907562090416 0.662806459998477
12638884000.0 0.7559096238499632 0.6546759813608793 -1.0452548525466875e-16 -4.6831468169506684e-17 -1.0452548525466875e-16 -4.6831468169506684e-17 0.7559091836069195 0.6546764896790949
12639501333.333334 0.7629397793808789 0.6464695607977824 -1.0500896976704136e-16 -4.5681014270666606e-17 -1.0500896976704136e-16 -4.5681014270666606e-17 0.762939344677548 0.6464700738184364
12640118666.666666 0.7698808476335154 0.6381876530041319 -1.054798010194502e-16 -4.452558750815743e-17 -1.054798010194502e-16 -4.452558750815743e-17 0.7698804185201127 0.6381881706668631
12640736000.0 0.7767320181104359 0.6298312250451802 -1.0593792807687058e-16 -4.336532694984639e-17 -1.0593792807687058e-16 -4.336532694984639e-17 0.7767315946365203 0.6298317472890914
12641353333.333334 0.7834924908111913 0.6214012526880651 -1.0638330153163839e-16 -4.2200372182902643e-17 -1.0638330153163839e-16 -4.2200372182902643e-17 0.7834920730256583 0.621401779451731
12641970666.666666 0.7901614763261703 0.612898720287348 -1.0681587350874636e-16 -4.1030863296958467e-17 -1.0681587350874636e-16 -4.1030863296958467e-17 0.7901610642772456 0.61289925150882
12642588000.0 0.796738195928485 0.604324620670418 -1.0723559767091036e-16 -3.9856940867328596e-17 -1.0723559767091036e-16 -3.9856940867328596e-17 0.7967377896637204 0.6043251562872342
12643205333.333334 0.8032218816649792 0.5956799550214796 -1.0764242922347245e-16 -3.867874593812751e-17 -1.0764242922347245e-16 -3.867874593812751e-17 0.8032214812312467 0.595680494970671
12643822666.666666 0.809611776446017 0.5869657327644837 -1.0803632491910898e-16 -3.7496420005361625e-17 -1.0803632491910898e-16 -3.7496420005361625e-17 0.8096113818895022 0.5869662769825805
12644440000.0 0.8159071341336985 0.5781829714455076 -1.0841724306236108e-16 -3.6310104999956574e-17 -1.0841724306236108e-16 -3.6310104999956574e-17 0.8159067454998983 0.5781835198685494
12645057333.333334 0.8221072196290596 0.5693326966138511 -1.0878514351396843e-16 -3.5119943270766743e-17 -1.0878514351396843e-16 -3.5119943270766743e-17 0.8221068369627725 0.5693332491773917
12645674666.666666 0.8282113089579519 0.5604159417022128 -1.0913998769502794e-16 -3.3926077567514766e-17 -1.0913998769502794e-16 -3.3926077567514766e-17 0.8282109323032775 0.5604164983413293
12646292000.0 0.8342186893555977 0.5514337479059935 -1.0948173859097018e-16 -3.272865102366761e-17 -1.0948173859097018e-16 -3.272865102366761e-17 0.834218318755928 0.5514343085552933
12646909333.333334 0.8401286593496582 0.5423871640619529 -1.0981036075532219e-16 -3.1527807139364347e-17 -1.0981036075532219e-16 -3.1527807139364347e-17 0.8401282948476744 0.5423877286555815
12647526666.666666 0.8459405288423504 0.5332772465254328 -1.1012582031331318e-16 -3.032368976420762e-17 -1.1012582031331318e-16 -3.032368976420762e-17 0.8459401704800166 0.5332778149970815
12648144000.0 0.8516536191908992 0.5241050590471956 -1.1042808496528079e-16 -2.911644308005422e-17 -1.1042808496528079e-16 -2.911644308005422e-17 0.8516532670094609 0.5241056313301102
12648761333.333334 0.8572672632868478 0.5148716726491179 -1.1071712398987978e-16 -2.7906211583810835e-17 -1.1071712398987978e-16 -2.7906211583810835e-17 0.8572669173268225 0.5148722486761045
12649378666.666666 0.8627808056338454 0.5055781654992962 -1.1099290824711384e-16 -2.6693140070158504e-17 -1.1099290824711384e-16 -2.6693140070158504e-17 0.8627804659350217 0.5055787452027314
12649996000.0 0.8681936024243276 0.49622562278593624 -1.112554101811813e-16 -2.5477373614232467e-17 -1.112554101811813e-16 -2.5477373614232467e-17 0.8681932690257577 0.4962262060977727
12650613333.333334 0.8735050216146143 0.48681513659075465 -1.1150460382311885e-16 -2.4259057554329074e-17 -1.1150460382311885e-16 -2.4259057554329074e-17 0.873504694554612 0.4868157234425314
12651230666.666666 0.8787144429987137 0.477347805761461 -1.1174046479326313e-16 -2.303833747456335e-17 -1.1174046479326313e-16 -2.303833747456335e-17 0.8787141223148499 0.4773483960843107
12651848000.0 0.8838212582807902 0.46782473578337397 -1.1196297030353152e-16 -2.1815359187459425e-17 -1.1196297030353152e-16 -2.1815359187459425e-17 0.8838209440098859 0.46782532950802974
12652465333.333334 0.8888248711461678 0.458247038650355 -1.121720991594932e-16 -2.0590268716612707e-17 -1.121720991594932e-16 -2.0590268716612707e-17 0.8888245633242928 0.45824763570716026
12653082666.666666 0.8937246973308816 0.4486158327351449 -1.1236783176226856e-16 -1.936321227925794e-17 -1.1236783176226856e-16 -1.936321227925794e-17 0.8937243959933475 0.44861643305406
12653700000.0 0.8985201646900735 0.4389322426584148 -1.1255015011023123e-16 -1.8134336268836307e-17 -1.1255015011023123e-16 -1.8134336268836307e-17 0.8985198698714345 0.43893284616902745
12654317333.333334 0.9032107132646042 0.4291973991578558 -1.1271903780051638e-16 -1.6903787237593783e-17 -1.1271903780051638e-16 -1.6903787237593783e-17 0.9032104249986467 0.4291980057893864
12654934666.666666 0.9077957953466089 0.419412438955785 -1.1287448003034882e-16 -1.5671711879090346e-17 -1.1287448003034882e-16 -1.5671711879090346e-17 0.9077955136663532 0.4194130486370974
12655552000.0 0.9122748755433794 0.4095785046265661 -1.1301646359817142e-16 -1.4438257010760046e-17 -1.1301646359817142e-16 -1.4438257010760046e-17 0.9122746004810723 0.4095791172861746
12656169333.333334 0.9166474308398097 0.39969674446334796 -1.1314497690458506e-16 -1.3203569556463462e-17 -1.1314497690458506e-16 -1.3203569556463462e-17 0.9166471624269226 0.3996973600294262
12656786666.666666 0.9209129506596213 0.3897683123436444 -1.1326000995310413e-16 -1.1967796528973107e-17 -1.1326000995310413e-16 -1.1967796528973107e-17 0.9209126889268464 0.38976893074403385
12657404000.0 0.925070936924842 0.37979436759490803 -1.1336155435071302e-16 -1.0731085012535557e-17 -1.1336155435071302e-16 -1.0731085012535557e-17 0.9250706819020893 0.3797949887571263
12658021333.333334 0.9291209041140818 0.3697760748588984 -1.134496033082396e-16 -9.493582145361118e-18 -1.134496033082396e-16 -9.493582145361118e-18 0.9291206558304728 0.3697766987101471
12658638666.666666 0.9330623793190891 0.3597146039560005 -1.135241516405315e-16 -8.25543510218477e-18 -1.135241516405315e-16 -8.25543510218477e-18 0.933062137802957 0.359715230423175
12659256000.0 0.9368949023001178 0.34961112974828784 -1.13585195766449e-16 -7.016791076749013e-18 -1.13585195766449e-16 -7.016791076749013e-18 0.9368946675790031 0.34961175875798506
12659873333.333334 0.9406180255396 0.3394668320024912 -1.1363273370866274e-16 -5.7777972643525326e-18 -1.1363273370866274e-16 -5.7777972643525326e-18 0.9406177976402454 0.3394674634810179
12660490666.666666 0.944231314294342 0.32928289525239945 -1.1366676509326145e-16 -4.5386008444087645e-18 -1.1366676509326145e-16 -4.5386008444087645e-18 0.9442310932426938 0.3292835291257821
12661108000.0 0.9477343466464304 0.31906050866017105 -1.1368729114917364e-16 -3.2993489629323954e-18 -1.1368729114917364e-16 -3.2993489629323954e-18 0.947734132467631 0.3190611448541633
12661725333.333334 0.9511267135523425 0.30880086587790484 -1.1369431470739432e-16 -2.0601887151626445e-18 -1.1369431470739432e-16 -2.0601887151626445e-18 0.9511265062707299 0.30880150431799663
12662342666.666666 0.9544080188908491 0.29850516490785634 -1.1368784020002557e-16 -8.212671280830173e-19 -1.1368784020002557e-16 -8.212671280830173e-19 0.9544078185299544 0.2985058055192829
12662960000.0 0.9575778795091641 0.2881746079628731 -1.1366787365912595e-16 4.1726885697292504e-19 -1.1366787365912595e-16 4.1726885697292504e-19 0.957577686091706 0.28817525067062283
12663577333.333334 0.9606359252677561 0.2778104013257689 -1.1363442271537108e-16 1.6552724017376359e-18 -1.1363442271537108e-16 1.6552724017376359e-18 0.9606357388156422 0.2778110460545933
12664194666.666666 0.9635817990835163 0.2674137552086597 -1.135874965965246e-16 2.892596788367866e-18 -1.135874965965246e-16 2.892596788367866e-18 0.963581619617838 0.2674144018830813
12664812000.0 0.9664151569714777 0.25698588361156705 -1.1352710612572115e-16 4.129095436830349e-18 -1.1352710612572115e-16 4.129095436830349e-18 0.9664149845125086 0.25698653215588885
12665429333.333334 0.9691356680850091 0.2465280041805511 -1.1345326371955934e-16 5.364621922219117e-18 -1.1345326371955934e-16 5.364621922219117e-18 0.9691355026522042 0.2465286545188651
12666046666.666666 0.9717430147543714 0.23604133806583089 -1.1336598338600968e-16 6.599029992060688e-18 -1.1336598338600968e-16 6.599029992060688e-18 0.9717428563663614 0.2360419901220269
12666664000.0 0.9742368925239143 0.22552710977877904 -1.132652807221281e-16 7.832173583643483e-18 -1.132652807221281e-16 7.832173583643483e-18 0.9742367411985066 0.22552776347655368
12667281333.333334 0.9766170101875187 0.21498654704937886 -1.1315117291159065e-16 9.06390684120852e-18 -1.1315117291159065e-16 9.06390684120852e-18 0.9766168659416938 0.21498720231224464
12667898666.666666 0.978883089822693 0.2044208806824778 -1.1302367872203376e-16 1.0294084133215157e-17 -1.1302367872203376e-16 1.0294084133215157e-17 0.9788829526726038 0.20442153743377195
12668516000.0 0.9810348668229806 0.1938313444142616 -1.128828185022086e-16 1.1522560069541178e-17 -1.128828185022086e-16 1.1522560069541178e-17 0.9810347367839491 0.19383200257715485
12669133333.333334 0.9830720899288494 0.18321917476822047 -1.127286141789556e-16 1.2749189518586613e-17 -1.127286141789556e-16 1.2749189518586613e-17 0.9830719670153668 0.18321983426572644
12669750666.666666 0.9849945212570528 0.1725856109106793 -1.1256108925398228e-16 1.3973827624449353e-17 -1.1256108925398228e-16 1.3973827624449353e-17 0.9849944054827765 0.17258627166566332
12670368000.0 0.9868019363284043 0.16193189450610224 -1.1238026880046465e-16 1.5196329823968296e-17 -1.1238026880046465e-16 1.5196329823968296e-17 0.9868018277061563 0.16193255644128998
