! Parameters = {f0=12700.012000; bw=77.238000; Q=6100.000000; N=10; m_0_1=1.330626; m_1_1=1.194639; m_1_2=1.165438; m_2_2=1.193990; m_2_3=0.802401; m_2_8=0.003595; m_2_9=0.040299; m_3_3=1.192053; m_3_4=0.690930; m_3_7=0.004195; m_3_8=-0.092893; m_3_9=0.003595; m_4_4=1.189128; m_4_5=0.527265; m_4_6=0.007712; m_4_7=-0.113442; m_4_8=0.004195; m_5_5=1.189510; m_5_6=0.934620; m_5_7=0.007712; m_6_6=1.189509; m_6_7=0.527607; m_7_7=1.189142; m_7_8=0.691048; m_8_8=1.192051; m_8_9=0.802714; m_9_9=1.193985; m_9_10=1.166516; m_10_10=1.194629; m_10_11=1.331421}
!
! Created with skrf (http://scikit-rf.org).
# Hz S RI R 50.0 
!freq ReS11 ImS11 ReS21 ImS21 ReS12 ImS12 ReS22 ImS22
12607400000.0 -0.26496720938237767 0.9642574230732791 -2.8961550937970747e-18 -1.459627997085375e-16 -2.8961550937970747e-18 -1.459627997085375e-16 -0.2649678852661904 0.9642572373476744
12608017333.333334 -0.2530723936324439 0.9674473440869804 -4.7054705733869264e-18 -1.4588707825719223e-16 -4.7054705733869264e-18 -1.4588707825719223e-16 -0.2530730717189971 0.9674471667075768
12608634666.666666 -0.24113919635972192 0.9704905398708401 -6.513353660352707e-18 -1.4578894127670247e-16 -6.513353660352707e-18 -1.4578894127670247e-16 -0.2411398765459648 0.9704903708637211
12609252000.0 -0.22916942737958343 0.9733865488870904 -8.319526801794068e-18 -1.4566841264092068e-16 -8.319526801794068e-18 -1.4566841264092068e-16 -0.22917010956215716 0.9733863882770682
12609869333.333334 -0.2171649020540281 0.976134931920619 -1.0123712816524374e-17 -1.4552551965851746e-16 -1.0123712816524374e-17 -1.4552551965851746e-16 -0.21716558612928083 0.9761347797312278
12610486666.666666 -0.20512744101630623 0.9787352721455933 -1.1925634937500648e-17 -1.4536029306744023e-16 -1.1925634937500648e-17 -1.4536029306744023e-16 -0.2051281268803093 0.9787351283990893
12611104000.0 -0.19305886989457527 0.981187175188728 -1.3725016854305469e-17 -1.4517276702883697e-16 -1.3725016854305469e-17 -1.4517276702883697e-16 -0.19305955744313918 0.9811870399060851
12611721333.333334 -0.18096101903546616 0.9834902691890006 -1.5521582755372714e-17 -1.4496297912047023e-16 -1.5521582755372714e-17 -1.4496297912047023e-16 -0.18096170816415588 0.983490142389906
12612338666.666666 -0.16883572322615456 0.9856442048541187 -1.7315057370281013e-17 -1.4473097032959361e-16 -1.7315057370281013e-17 -1.4473097032959361e-16 -0.16883641383030584 0.9856440865569724
12612956000.0 -0.15668482141603712 0.9876486555135037 -1.9105166011864826e-17 -1.4447678504531396e-16 -1.9105166011864826e-17 -1.4447678504531396e-16 -0.156685513390772 0.9876485457354134
12613573333.333334 -0.14451015643813914 0.9895033171677755 -2.0891634618182556e-17 -1.4420047105043963e-16 -2.0891634618182556e-17 -1.4420047105043963e-16 -0.14451084967838218 0.9895032159245558
12614190666.666666 -0.1323135747294314 0.9912079085348976 -2.267418979448709e-17 -1.4390207951279475e-16 -2.267418979448709e-17 -1.4390207951279475e-16 -0.13231426912992558 0.9912078158410674
12614808000.0 -0.12009692605073854 0.9927621710928403 -2.445255885497865e-17 -1.4358166497602886e-16 -2.445255885497865e-17 -1.4358166497602886e-16 -0.12009762150606122 0.9927620869616212
12615425333.333334 -0.10786206320639748 0.9941658691187634 -2.6226469864457048e-17 -1.4323928534990866e-16 -2.6226469864457048e-17 -1.4323928534990866e-16 -0.10786275961097617 0.9941657935620755
12616042666.666666 -0.09561084176305923 0.99541878972479 -2.799565167987501e-17 -1.4287500190009074e-16 -2.799565167987501e-17 -1.4287500190009074e-16 -0.09561153901118802 0.9954187227532533
12616660000.0 -0.08334511976835456 0.9965207428902849 -2.975983399171633e-17 -1.4248887923738724e-16 -2.975983399171633e-17 -1.4248887923738724e-16 -0.08334581775420985 0.9965206845132158
12617277333.333334 -0.0710667574691546 0.9974715614906657 -3.151874736523813e-17 -1.4208098530652078e-16 -3.151874736523813e-17 -1.4208098530652078e-16 -0.07106745608681128 0.9974715117160767
12617894666.666666 -0.05877761702938538 0.9982711013227588 -3.327212328155452e-17 -1.4165139137437407e-16 -3.327212328155452e-17 -1.4165139137437407e-16 -0.05877831617283293 0.9982710601573567
12618512000.0 -0.04647956224752262 0.9989192411266716 -3.501969417862742e-17 -1.412001720177161e-16 -3.501969417862742e-17 -1.412001720177161e-16 -0.04648026181068112 0.9989192085758573
12619129333.333334 -0.034174458274094044 0.9994158826041735 -3.676119349197788e-17 -1.4072740511045383e-16 -3.676119349197788e-17 -1.4072740511045383e-16 -0.03417515815083032 0.9994158586720407
12619746666.666666 -0.021864171328749876 0.9997609504336097 -3.849635569532018e-17 -1.4023317181035774e-16 -3.849635569532018e-17 -1.4023317181035774e-16 -0.02186487141289356 0.9997609351229445
12620364000.0 -0.009550568417028869 0.9999543922813278 -4.0224916341016484e-17 -1.3971755654528932e-16 -4.0224916341016484e-17 -1.3971755654528932e-16 -0.009551268602388547 0.9999543855936087
12620981333.333334 0.0027644829524550167 0.9999961788096048 -4.194661210027793e-17 -1.391806469989505e-16 -4.194661210027793e-17 -1.391806469989505e-16 0.002763782772075723 0.9999961807450043
12621598666.666666 0.01507911505144199 0.9998863036811093 -4.3661180803253587e-17 -1.3862253409611616e-16 -4.3661180803253587e-17 -1.3862253409611616e-16 0.015078414982228328 0.9998863142384888
12622216000.0 0.02739146021534717 0.9996247835598505 -4.536836147890565e-17 -1.3804331198738075e-16 -4.536836147890565e-17 -1.3804331198738075e-16 0.027390760363457133 0.9996248027367659
12622833333.333334 0.0396996511263442 0.9992116581086581 -4.706789439465288e-17 -1.374430780334228e-16 -4.706789439465288e-17 -1.374430780334228e-16 0.03969895159789244 0.9992116859013582
12623450666.666666 0.05200182109668055 0.998646989983165 -4.875952109584793e-17 -1.36821932788772e-16 -4.875952109584793e-17 -1.36821932788772e-16 0.052001121997722326 0.998647026386593
12624068000.0 0.06429610435169844 0.9979308648223097 -5.044298444501489e-17 -1.361799799850983e-16 -5.044298444501489e-17 -1.361799799850983e-16 0.06429540578821344 0.9979309098301021
12624685333.333334 0.0765806363130576 0.9970633912353287 -5.211802866091174e-17 -1.3551732651400452e-16 -5.211802866091174e-17 -1.3551732651400452e-16 0.07657993839093405 0.9970634448398193
12625302666.666666 0.088853553881011 0.9960447007853216 -5.3784399357284044e-17 -1.3483408240937183e-16 -5.3784399357284044e-17 -1.3483408240937183e-16 0.08885285670602944 0.9960447629775403
12625920000.0 0.10111299571759033 0.9948749479692514 -5.544184358150811e-17 -1.3413036082918228e-16 -5.544184358150811e-17 -1.3413036082918228e-16 0.10111229939540763 0.9948750187389268
12626537333.333334 0.11335710252841887 0.9935543101945499 -5.70901098528685e-17 -1.3340627803692027e-16 -5.70901098528685e-17 -1.3340627803692027e-16 0.11335640716455225 0.9935543895301103
12627154666.666666 0.1255840173447818 0.9920829877522104 -5.872894820068981e-17 -1.3266195338246545e-16 -5.872894820068981e-17 -1.3266195338246545e-16 0.12558332304459283 0.9920830756407869
12627772000.0 0.13779188580562488 0.9904612037863654 -6.035811020222426e-17 -1.3189750928251465e-16 -6.035811020222426e-17 -1.3189750928251465e-16 0.13779119267430368 0.9904613002137937
12628389333.333334 0.14997885643817072 0.988689204260523 -6.197734902017423e-17 -1.3111307120059163e-16 -6.197734902017423e-17 -1.3111307120059163e-16 0.1499781645807196 0.9886893092113442
12629006666.666666 0.16214308093933666 0.986767257920178 -6.358641944011684e-17 -1.3030876762652157e-16 -6.358641944011684e-17 -1.3030876762652157e-16 0.16214239046055465 0.9867673713776428
12629624000.0 0.17428271445565882 0.9846956562521105 -6.518507790752678e-17 -1.2948473005551364e-16 -6.518507790752678e-17 -1.2948473005551364e-16 0.17428202546012567 0.9846957781981813
12630241333.333334 0.18639591586319904 0.9824747134401609 -6.677308256461476e-17 -1.2864109296674825e-16 -6.677308256461476e-17 -1.2864109296674825e-16 0.18639522845525938 0.9824748438555151
12630858666.666666 0.19848084804666247 0.980104766317604 -6.8350193286824e-17 -1.2777799380154646e-16 -6.8350193286824e-17 -1.2777799380154646e-16 0.19848016233040972 0.9801049051816347
12631476000.0 0.21053567817838115 0.9775861743159918 -6.991617171914867e-17 -1.2689557294104046e-16 -6.991617171914867e-17 -1.2689557294104046e-16 0.21053499425764222 0.9775863216068144
12632093333.333334 0.222558577995866 0.9749193194107219 -7.147078131202382e-17 -1.2599397368347472e-16 -7.147078131202382e-17 -1.2599397368347472e-16 0.22255789597418535 0.9749194751051755
12632710666.666666 0.2345477240791704 0.9721046060630968 -7.301378735704767e-17 -1.2507334222100265e-16 -7.301378735704767e-17 -1.2507334222100265e-16 0.2345470440597942 0.972104770136748
12633328000.0 0.2465012981277655 0.969142461158902 -7.454495702236519e-17 -1.2413382761606593e-16 -7.454495702236519e-17 -1.2413382761606593e-16 0.24650062021362637 0.9691426335860498
12633945333.333334 0.25841748723583746 0.9660333339437734 -7.606405938770128e-17 -1.2317558177737348e-16 -7.606405938770128e-17 -1.2317558177737348e-16 0.25841681152953894 0.966033514697453
12634562666.666666 0.27029448416756907 0.9627776959549877 -7.757086547917063e-17 -1.2219875943540088e-16 -7.757086547917063e-17 -1.2219875943540088e-16 0.2702938107713691 0.9627778850069718
12635180000.0 0.2821304876311175 0.9593760409499686 -7.906514830370056e-17 -1.212035181175099e-16 -7.906514830370056e-17 -1.212035181175099e-16 0.28212981664691433 0.9593762382707764
12635797333.333334 0.2939237025517748 0.9558288848314129 -8.054668288319893e-17 -1.2019001812260875e-16 -8.054668288319893e-17 -1.2019001812260875e-16 0.2939230340810911 0.955829090390313
12636414666.666666 0.3056723403441615 0.9521367655690708 -8.201524628832626e-17 -1.19158422495443e-16 -8.201524628832626e-17 -1.19158422495443e-16 0.30567167448812793 0.9521369793340826
12637032000.0 0.3173746191837011 0.9483002431180793 -8.34706176720254e-17 -1.181088970004177e-16 -8.34706176720254e-17 -1.181088970004177e-16 0.3173739560430431 0.9483004650559842
12637649333.333334 0.3290287642766953 0.9443198993340968 -8.491257830264912e-17 -1.1704161009505631e-16 -8.491257830264912e-17 -1.1704161009505631e-16 0.32902810395171583 0.9443201294104379
12638266666.666666 0.340633008129438 0.9401963378850704 -8.634091159676715e-17 -1.159567329030458e-16 -8.634091159676715e-17 -1.159567329030458e-16 0.34063235072000375 0.9401965760641612
12638884000.0 0.3521855908164663 0.9359301841596217 -8.775540315166018e-17 -1.148544391868603e-16 -8.775540315166018e-17 -1.148544391868603e-16 0.3521849364219916 0.9359304304045495
12639501333.333334 0.3636847602472868 0.931522085172263 -8.915584077741845e-17 -1.1373490532002273e-16 -8.915584077741845e-17 -1.1373490532002273e-16 0.3636841089667192 0.931522339444895
12640118666.666666 0.37512877243212917 0.9269727094652633 -9.054201452871577e-17 -1.125983102589584e-16 -9.054201452871577e-17 -1.125983102589584e-16 0.37512812436393445 0.9269729717262545
12640736000.0 0.3865158917467865 0.9222827470071172 -9.191371673626177e-17 -1.1144483551442811e-16 -9.191371673626177e-17 -1.1144483551442811e-16 0.3865152469889339 0.9222830172159143
12641353333.333334 0.39784439119515813 0.917452909088178 -9.327074203776653e-17 -1.1027466512268625e-16 -9.327074203776653e-17 -1.1027466512268625e-16 0.39784374984510495 0.917453187203027
12641970666.666666 0.409112552671777 0.9124839282125414 -9.461288740871193e-17 -1.0908798561611693e-16 -9.461288740871193e-17 -1.0908798561611693e-16 0.40911191482645404 0.912484214190492
12642588000.0 0.4203186672221676 0.9073765579870287 -9.593995219260591e-17 -1.0788498599361819e-16 -9.593995219260591e-17 -1.0788498599361819e-16 0.4203180329779655 0.9073768517839439
12643205333.333334 0.43146103530198177 0.9021315730069248 -9.72517381309434e-17 -1.0666585769055095e-16 -9.72517381309434e-17 -1.0666585769055095e-16 0.4314604047547348 0.9021318745774851
12643822666.666666 0.44253796703490705 0.896749768738425 -9.854804939276056e-17 -1.0543079454834484e-16 -9.854804939276056e-17 -1.0543079454834484e-16 0.4425373402798796 0.8967500780361365
12644440000.0 0.4535477824687518 0.8912319613980889 -9.982869260379562e-17 -1.0417999278375483e-16 -9.982869260379562e-17 -1.0417999278375483e-16 0.4535471596006245 0.8912322783752915
12645057333.333334 0.46448881183031004 0.8855789878290207 -1.0109347687526424e-16 -1.0291365095776248e-16 -1.0109347687526424e-16 -1.0291365095776248e-16 0.4644881929431645 0.8855793124368936
12645674666.666666 0.47535939577865416 0.8797917053739254 -1.0234221383225344e-16 -1.0163196994411777e-16 -1.0234221383225344e-16 -1.0163196994411777e-16 0.47535878096595824 0.8797920375624942
12646292000.0 0.48615788565691503 0.8738709917450086 -1.0357471764173931e-16 -1.003351528975124e-16 -1.0357471764173931e-16 -1.003351528975124e-16 0.4861572750115108 0.8738713314631563
12646909333.333334 0.4968826437419492 0.867817744891068 -1.0479080504011798e-16 -9.902340522150389e-17 -1.0479080504011798e-16 -9.902340522150389e-17 0.496882037356037 0.8678180920865389
12647526666.666666 0.5075320434930185 0.8616328828611451 -1.0599029536043629e-16 -9.769693453599755e-17 -1.0599029536043629e-16 -9.769693453599755e-17 0.5075314414581442 0.8616332374805565
12648144000.0 0.518104469798499 0.8553173436652756 -1.0717301055914922e-16 -9.635595064446449e-17 -1.0717301055914922e-16 -9.635595064446449e-17 0.5181038722055399 0.8553177056541231
12648761333.333334 0.5285983192206822 0.8488720851323102 -1.0833877524247298e-16 -9.500066550082849e-17 -1.0833877524247298e-16 -9.500066550082849e-17 0.5285977261598322 0.8488724544349774
12649378666.666666 0.5390120002388871 0.8422980847646999 -1.094874166923148e-16 -9.363129317604159e-17 -1.094874166923148e-16 -9.363129317604159e-17 0.539011411799644 0.8422984613244654
12649996000.0 0.5493439334911212 0.8355963395900613 -1.1061876489182418e-16 -9.224804982429733e-17 -1.1061876489182418e-16 -9.224804982429733e-17 0.5493433497622744 0.835596723349111
12650613333.333334 0.5595925520133487 0.8287678660101362 -1.1173265255045942e-16 -9.085115364900486e-17 -1.1173265255045942e-16 -9.085115364900486e-17 0.5595919730829632 0.8287682569095677
12651230666.666666 0.5697563014772081 0.821813699646592 -1.1282891512865057e-16 -8.944082486843426e-17 -1.1282891512865057e-16 -8.944082486843426e-17 0.5697557274326142 0.8218140976264279
12651848000.0 0.579833640425914 0.8147348951838506 -1.1390739086206144e-16 -8.801728568102287e-17 -1.1390739086206144e-16 -8.801728568102287e-17 0.5798330713536903 0.8147353001830429
12652465333.333334 0.5898230405077504 0.8075325262093161 -1.1496792078535718e-16 -8.658076023046436e-17 -1.1496792078535718e-16 -8.658076023046436e-17 0.5898224764937156 0.8075329381657614
12653082666.666666 0.599722986708035 0.8002076850504511 -1.1601034875555355e-16 -8.513147457048778e-17 -1.1601034875555355e-16 -8.513147457048778e-17 0.5997224278372305 0.8002081039009951
12653700000.0 0.609531977578929 0.7927614826090678 -1.170345214749686e-16 -8.366965662929319e-17 -1.170345214749686e-16 -8.366965662929319e-17 0.6095314239356088 0.7927619082895172
12654317333.333334 0.6192485254670163 0.7851950481929523 -1.1804028851364777e-16 -8.219553617382203e-17 -1.1804028851364777e-16 -8.219553617382203e-17 0.6192479771346331 0.7851954806380843
12654934666.666666 0.6288711567389703 0.7775095293445585 -1.1902750233139793e-16 -8.07093447736797e-17 -1.1902750233139793e-16 -8.07093447736797e-17 0.6288706138001631 0.7775099684881306
12655552000.0 0.6383984120052019 0.7697060916668416 -1.1999601829936612e-16 -7.921131576479333e-17 -1.1999601829936612e-16 -7.921131576479333e-17 0.6383978745417836 0.7697065374416021
12656169333.333334 0.6478288463409284 0.7617859186466954 -1.2094569472110935e-16 -7.770168421289508e-17 -1.2094569472110935e-16 -7.770168421289508e-17 0.6478283144338742 0.761786370984394
12656786666.666666 0.6571610295054704 0.7537502114753382 -1.2187639285328046e-16 -7.618068687663657e-17 -1.2187639285328046e-16 -7.618068687663657e-17 0.6571605032349052 0.7537506703067356
12657404000.0 0.6663935461592079 0.7456001888660995 -1.2278797692579696e-16 -7.464856217054377e-17 -1.2278797692579696e-16 -7.464856217054377e-17 0.6663930256043925 0.7456006541209782
12658021333.333334 0.6755249960781006 0.7373370868696956 -1.2368031416155947e-16 -7.310555012770713e-17 -1.2368031416155947e-16 -7.310555012770713e-17 0.675524481317423 0.7373375584768711
12658638666.666666 0.6845539943661204 0.7289621586867167 -1.2455327479570822e-16 -7.155189236223114e-17 -1.2455327479570822e-16 -7.155189236223114e-17 0.6845534854770808 0.7289626365740477
12659256000.0 0.6934791716653225 0.7204766744775197 -1.2540673209441835e-16 -6.998783203143309e-17 -1.2540673209441835e-16 -6.998783203143309e-17 0.6934786687245249 0.7204771585719211
12659873333.333334 0.7022991743635079 0.7118819211696152 -1.2624056237318536e-16 -6.841361379788742e-17 -1.2624056237318536e-16 -6.841361379788742e-17 0.7022986774466453 0.7118824113970658
12660490666.666666 0.7110126647993522 0.7031792022626467 -1.270546450146707e-16 -6.682948379118961e-17 -1.270546450146707e-16 -6.682948379118961e-17 0.7110121739811964 0.7031796985482024
12661108000.0 0.7196183214656209 0.6943698376303591 -1.2784886248606803e-16 -6.523568956950433e-17 -1.2784886248606803e-16 -6.523568956950433e-17 0.7196178368200126 0.6943703398981655
12661725333.333334 0.7281148392092497 0.685455163320765 -1.2862310035594762e-16 -6.363248008099343e-17 -1.2862310035594762e-16 -6.363248008099343e-17 0.7281143608090862 0.6854556714940679
12662342666.666666 0.7365009294294511 0.6764365313533581 -1.2937724731066936e-16 -6.202010562493916e-17 -1.2937724731066936e-16 -6.202010562493916e-17 0.7365004573466752 0.6764370453545149
12662960000.0 0.7447753202731807 0.6673153095140177 -1.3011119517028166e-16 -6.039881781273347e-17 -1.3011119517028166e-16 -6.039881781273347e-17 0.7447748545787704 0.6673158292645095
12663577333.333334 0.7529367568278953 0.6580928811477144 -1.308248389039351e-16 -5.876886952867305e-17 -1.308248389039351e-16 -5.876886952867305e-17 0.7529362975918521 0.6580934065681576
12664194666.666666 0.7609840013120092 0.6487706449485607 -1.315180766448029e-16 -5.713051489058155e-17 -1.315180766448029e-16 -5.713051489058155e-17 0.7609835486033497 0.6487711759587207
12664812000.0 0.7689158332625637 0.6393500147477479 -1.3219080970452452e-16 -5.548400921022439e-17 -1.3219080970452452e-16 -5.548400921022439e-17 0.7689153871493065 0.639350551266549
12665429333.333334 0.7767310497203027 0.629832419299138 -1.3284294258714043e-16 -5.3829608953584447e-17 -1.3284294258714043e-16 -5.3829608953584447e-17 0.7767306102694603 0.6298329612446781
12666046666.666666 0.784428465412067 0.6202193020626477 -1.3347438300252272e-16 -5.216757170099906e-17 -1.3347438300252272e-16 -5.216757170099906e-17 0.7844280326896351 0.6202198493522091
12666664000.0 0.7920069129307867 0.6105121209850405 -1.3408504187934623e-16 -5.0498156107042713e-17 -1.3408504187934623e-16 -5.0498156107042713e-17 0.7920064870017343 0.6105126735351033
12667281333.333334 0.7994652429122476 0.6007123482791649 -1.3467483337750044e-16 -4.882162186041172e-17 -1.3467483337750044e-16 -4.882162186041172e-17 0.7994648238405067 0.6007129060054197
12667898666.666666 0.8068023242095315 0.5908214702005222 -1.3524367490005646e-16 -4.713822964351749e-17 -1.3524367490005646e-16 -4.713822964351749e-17 0.8068019120579875 0.5908220330178822
12668516000.0 0.8140170440646844 0.5808409868216953 -1.3579148710470092e-16 -4.54482410920184e-17 -1.3579148710470092e-16 -4.54482410920184e-17 0.8140166388951688 0.5808415546443111
12669133333.333334 0.8211083082771978 0.570772411805236 -1.3631819391465536e-16 -4.37519187542563e-17 -1.3631819391465536e-16 -4.37519187542563e-17 0.8211079101504757 0.5707729845465065
12669750666.666666 0.8280750413702377 0.5606172721737065 -1.3682372252912486e-16 -4.204952605045613e-17 -1.3682372252912486e-16 -4.204952605045613e-17 0.8280746503460003 0.5606178497462933
