! Parameters = {f0=12700.012000; bw=77.238000; Q=6100.000000; N=10; m_0_1=1.267162; m_1_1=0.242687; m_1_2=1.101974; m_2_2=0.242038; m_2_3=0.738937; m_2_8=0.000422; m_2_9=0.037126; m_3_3=0.240101; m_3_4=0.627466; m_3_7=0.001022; m_3_8=-0.096066; m_3_9=0.000422; m_4_4=0.237176; m_4_5=0.463801; m_4_6=0.004539; m_4_7=-0.116615; m_4_8=0.001022; m_5_5=0.237558; m_5_6=0.871156; m_5_7=0.004539; m_6_6=0.237557; m_6_7=0.464143; m_7_7=0.237190; m_7_8=0.627584; m_8_8=0.240099; m_8_9=0.739250; m_9_9=0.242033; m_9_10=1.103052; m_10_10=0.242677; m_10_11=1.267957}
!
! Created with skrf (http://scikit-rf.org).
# Hz S RI R 50.0 
!freq ReS11 ImS11 ReS21 ImS21 ReS12 ImS12 ReS22 ImS22
12607400000.0 -0.7893034943705867 0.6140032522505118 6.355640160422702e-17 -8.871324168616175e-17 6.355640160422702e-17 -8.871324168616175e-17 -0.789303904292215 0.6140027252943508
12608017333.333334 -0.7828509919007345 0.6222092288610486 6.260668399916567e-17 -8.93599155647058e-17 6.260668399916567e-17 -8.93599155647058e-17 -0.7828514072805122 0.622208706238305
12608634666.666666 -0.7763131799364049 0.6303474015627033 6.165039903374456e-17 -8.999643159935478e-17 6.165039903374456e-17 -8.999643159935478e-17 -0.7763136007285347 0.6303468833299017
12609252000.0 -0.7696907709215983 0.6384168835157324 6.068765525564281e-17 -9.062272322941539e-17 6.068765525564281e-17 -9.062272322941539e-17 -0.7696911970796981 0.638416369728914
12609869333.333334 -0.7629844865190952 0.6464167953658202 5.971856188567176e-17 -9.123872505313597e-17 5.971856188567176e-17 -9.123872505313597e-17 -0.7629849179962022 0.6464162860805357
12610486666.666666 -0.7561950575318338 0.6543462653398826 5.874322880541736e-17 -9.18443728344952e-17 5.874322880541736e-17 -9.18443728344952e-17 -0.7561954942804093 0.6543457606111862
12611104000.0 -0.749323223823176 0.6622044293411717 5.776176654478173e-17 -9.243960350987753e-17 5.776176654478173e-17 -9.243960350987753e-17 -0.7493236657951133 0.6622039292236168
12611721333.333334 -0.7423697342364737 0.6699904310432283 5.677428626954278e-17 -9.302435519456479e-17 5.677428626954278e-17 -9.302435519456479e-17 -0.7423701813831012 0.6699899355908605
12612338666.666666 -0.7353353465133139 0.6777034219833689 5.578089976871623e-17 -9.359856718917586e-17 5.578089976871623e-17 -9.359856718917586e-17 -0.7353357987854002 0.6777029312497191
12612956000.0 -0.7282208272108665 0.685342561655225 5.478171944198535e-17 -9.41621799858911e-17 5.478171944198535e-17 -9.41621799858911e-17 -0.7282212845586267 0.6853420756933052
12613573333.333334 -0.7210269516186381 0.6929070176000234 5.3776858286983787e-17 -9.471513527459463e-17 5.3776858286983787e-17 -9.471513527459463e-17 -0.7210274139917393 0.6929065364623207
12614190666.666666 -0.7137545036737194 0.7003959654975944 5.2766429886548497e-17 -9.525737594886174e-17 5.2766429886548497e-17 -9.525737594886174e-17 -0.713754971021286 0.700395489236065
12614808000.0 -0.7064042758754916 0.7078085892560546 5.1750548395907897e-17 -9.578884611181416e-17 5.1750548395907897e-17 -9.578884611181416e-17 -0.7064047481461118 0.7078081179221187
12615425333.333334 -0.6989770691991674 0.7151440811008418 5.0729328529811306e-17 -9.630949108183874e-17 5.0729328529811306e-17 -9.630949108183874e-17 -0.6989775463408966 0.7151436147453768
12616042666.666666 -0.6914736930086237 0.7224016416626151 4.970288554960718e-17 -9.681925739816678e-17 4.970288554960718e-17 -9.681925739816678e-17 -0.6914741749689922 0.7224011803359514
12616660000.0 -0.6838949649681456 0.7295804800644295 4.867133525023833e-17 -9.731809282633006e-17 4.867133525023833e-17 -9.731809282633006e-17 -0.6838954516941645 0.7295800238163451
12617277333.333334 -0.6762417109532407 0.7366798140079972 4.763479394723236e-17 -9.780594636345279e-17 4.763479394723236e-17 -9.780594636345279e-17 -0.6762422023914063 0.7366793628877114
12617894666.666666 -0.6685147649608678 0.7436988698587221 4.659337846361846e-17 -9.828276824341847e-17 4.659337846361846e-17 -9.828276824341847e-17 -0.6685152610571675 0.7436984239148898
12618512000.0 -0.6607149690182399 0.7506368827302928 4.5547206116736235e-17 -9.874850994192203e-17 4.5547206116736235e-17 -9.874850994192203e-17 -0.66071546971816 0.7506364420110013
12619129333.333334 -0.6528431730914049 0.7574930965677318 4.449639470510168e-17 -9.920312418133342e-17 4.449639470510168e-17 -9.920312418133342e-17 -0.652843678339935 0.7574926611204942
12619746666.666666 -0.6449002349923252 0.7642667642300481 4.344106249514103e-17 -9.964656493546053e-17 4.344106249514103e-17 -9.964656493546053e-17 -0.6449007447339647 0.7642663341017983
12620364000.0 -0.6368870202855252 0.7709571475715423 4.2381328207911265e-17 -1.0007878743415523e-16 4.2381328207911265e-17 -1.0007878743415523e-16 -0.6368875344642894 0.77095672280863
12620981333.333334 -0.628804402193879 0.7775635175221534 4.131731100577035e-17 -1.0049974816778237e-16 4.131731100577035e-17 -1.0049974816778237e-16 -0.6288049207533041 0.7775630981703382
12621598666.666666 -0.620653261503277 0.784085154167052 4.0249130479003266e-17 -1.0090940489154587e-16 4.0249130479003266e-17 -1.0090940489154587e-16 -0.6206537843864294 0.7840847402715014
12622216000.0 -0.6124344864666679 0.7905213468250768 3.9176906632412094e-17 -1.0130771662967212e-16 3.9176906632412094e-17 -1.0130771662967212e-16 -0.612435013616147 0.790520938430358
12622833333.333334 -0.6041489727073491 0.7968713941261031 3.810075987183061e-17 -1.016946436794639e-16 3.810075987183061e-17 -1.016946436794639e-16 -0.6041495040652959 0.7968709912761799
12623450666.666666 -0.5957976231213707 0.803134604087478 3.702081099068623e-17 -1.020701476151784e-16 3.702081099068623e-17 -1.020701476151784e-16 -0.5957981586294722 0.8031342068257054
12624068000.0 -0.5873813477790769 0.8093102941894791 3.5937181156414793e-17 -1.0243419129180455e-16 3.5937181156414793e-17 -1.0243419129180455e-16 -0.5873818873785741 0.8093099025585986
12624685333.333334 -0.5789010638258156 0.8153977914497709 3.484999189689671e-17 -1.0278673884867438e-16 3.484999189689671e-17 -1.0278673884867438e-16 -0.5789016074575105 0.8153974054919083
12625302666.666666 -0.5703576953823654 0.8213964324964786 3.3759365086882036e-17 -1.0312775571292327e-16 3.3759365086882036e-17 -1.0312775571292327e-16 -0.5703582429866249 0.8213960522531352
12625920000.0 -0.5617521734437899 0.8273055636407879 3.2665422934329836e-17 -1.0345720860282403e-16 3.2665422934329836e-17 -1.0345720860282403e-16 -0.5617527249605551 0.8273051891528399
12626537333.333334 -0.5530854357783357 0.8331245409479389 3.1568287966739675e-17 -1.0377506553096962e-16 3.1568287966739675e-17 -1.0377506553096962e-16 -0.5530859911471254 0.8331241722556288
12627154666.666666 -0.5443584268251224 0.8388527303074733 3.0468083017482e-17 -1.0408129580730073e-16 3.0468083017482e-17 -1.0408129580730073e-16 -0.5443589859850437 0.8388523674504116
12627772000.0 -0.5355720975909892 0.8444895075024985 2.93649312120119e-17 -1.0437587004201644e-16 2.93649312120119e-17 -1.0437587004201644e-16 -0.5355726604807411 0.8444891505196536
12628389333.333334 -0.5267274055473359 0.8500342582773931 2.8258955954173936e-17 -1.0465876014830428e-16 2.8258955954173936e-17 -1.0465876014830428e-16 -0.5267279721052166 0.8500339072070896
12629006666.666666 -0.5178253145253533 0.855486378405024 2.7150280912398507e-17 -1.0492993934494843e-16 2.7150280912398507e-17 -1.0492993934494843e-16 -0.5178258846892684 0.8554860332849401
12629624000.0 -0.5088667946111861 0.8608452737524684 2.6039030005880606e-17 -1.0518938215879189e-16 2.6039030005880606e-17 -1.0518938215879189e-16 -0.5088673683186532 0.8608449346196289
12630241333.333334 -0.499852822040216 0.8661103603457566 2.492532739078319e-17 -1.054370644270379e-16 2.492532739078319e-17 -1.054370644270379e-16 -0.4998533992283738 0.8661100272365312
12630858666.666666 -0.4907843790907583 0.8712810644334719 2.3809297446396672e-17 -1.0567296329941464e-16 2.3809297446396672e-17 -1.0567296329941464e-16 -0.49078495969637126 0.8712807373835691
12631476000.0 -0.4816624539766703 0.8763568225494665 2.2691064761218415e-17 -1.0589705724020468e-16 2.2691064761218415e-17 -1.0589705724020468e-16 -0.4816630379361376 0.8763565015939324
12632093333.333334 -0.4724880407401343 0.8813370815739995 2.1570754119123035e-17 -1.0610932603010553e-16 2.1570754119123035e-17 -1.0610932603010553e-16 -0.4724886279894952 0.881336766747212
12632710666.666666 -0.463262139143087 0.8862212987941536 2.0448490485462162e-17 -1.0630975076795483e-16 2.0448490485462162e-17 -1.0630975076795483e-16 -0.4632627296180293 0.8862209901298198
12633328000.0 -0.45398575455817153 0.8910089419630265 1.932439899309532e-17 -1.0649831387231987e-16 1.932439899309532e-17 -1.0649831387231987e-16 -0.4539863481940372 0.8910086394941785
12633945333.333334 -0.4446598978594304 0.8956994893576007 1.8198604928522355e-17 -1.066749990829177e-16 1.8198604928522355e-17 -1.066749990829177e-16 -0.44466049459122337 0.8956991931165919
12634562666.666666 -0.43528558531191885 0.9002924298357095 1.7071233717913698e-17 -1.0683979146190585e-16 1.7071233717913698e-17 -1.0683979146190585e-16 -0.43528618507431244 0.9002921398542124
12635180000.0 -0.4258638384611395 0.9047872628916535 1.5942410913172895e-17 -1.069926773950181e-16 1.5942410913172895e-17 -1.069926773950181e-16 -0.4258644411884828 0.9047869792006549
12635797333.333334 -0.41639568402159255 0.9091834987108017 1.4812262177948235e-17 -1.0713364459256016e-16 1.4812262177948235e-17 -1.0713364459256016e-16 -0.4163962896479186 0.9091832213406008
12636414666.666666 -0.40688215376504794 0.9134806582228993 1.3680913273728592e-17 -1.0726268209024452e-16 1.3680913273728592e-17 -1.0726268209024452e-16 -0.4068827622240793 0.9134803872031015
12637032000.0 -0.39732428440784934 0.9176782731543853 1.2548490045812241e-17 -1.0737978024989577e-16 1.2548490045812241e-17 -1.0737978024989577e-16 -0.3973248956330076 0.917678008513904
12637649333.333334 -0.38772311749820165 0.9217758860793116 1.1415118409369252e-17 -1.0748493075999526e-16 1.1415118409369252e-17 -1.0748493075999526e-16 -0.38772373142261246 0.92177562784636
12638266666.666666 -0.37807969930253893 0.9257730504692429 1.0280924335434548e-17 -1.0757812663608705e-16 1.0280924335434548e-17 -1.0757812663608705e-16 -0.3780803158590405 0.9257727986713333
12638884000.0 -0.36839508069156257 0.9296693307418943 9.146033836967349e-18 -1.0765936222102881e-16 9.146033836967349e-18 -1.0765936222102881e-16 -0.3683956998127138 0.9296690854058373
12639501333.333334 -0.35867031702559454 0.9334643023086555 8.010572954844334e-18 -1.0772863318510361e-16 8.010572954844334e-18 -1.0772863318510361e-16 -0.35867093864368044 0.9334640634605526
12640118666.666666 -0.3489064680398864 0.9371575516207276 6.874667743928469e-18 -1.0778593652597709e-16 6.874667743928469e-18 -1.0778593652597709e-16 -0.3489070920869271 0.9371573192859723
12640736000.0 -0.3391045977286088 0.9407486762143986 5.7384442590070665e-18 -1.0783127056851797e-16 5.7384442590070665e-18 -1.0783127056851797e-16 -0.339105224136366 0.9407484504176715
12641353333.333334 -0.32926577422959535 0.9442372847546374 4.6020285409497586e-18 -1.0786463496445758e-16 4.6020285409497586e-18 -1.0786463496445758e-16 -0.32926640292958054 0.9442370655199044
12641970666.666666 -0.3193910697072783 0.9476229970779858 3.4655466026589152e-18 -1.0788603069191508e-16 3.4655466026589152e-18 -1.0788603069191508e-16 -0.3193917006307599 0.9476227844284961
12642588000.0 -0.3094815602362802 0.9509054442338328 2.329124415157405e-18 -1.0789546005476936e-16 2.329124415157405e-18 -1.0789546005476936e-16 -0.30948219331429044 0.9509052381921143
12643205333.333334 -0.29953832568404226 0.9540842685246551 1.1928878936496124e-18 -1.0789292668188597e-16 1.1928878936496124e-18 -1.0789292668188597e-16 -0.29953896084738607 0.9540840691125144
12643822666.666666 -0.2895624495929606 0.9571591235450613 5.69628835695737e-20 -1.0787843552619808e-16 5.69628835695737e-20 -1.0787843552619808e-16 -0.2895630867722223 0.9571589307835809
12644440000.0 -0.2795550190626059 0.9601296742194413 -1.0785248532964009e-18 -1.0785199286363979e-16 -1.0785248532964009e-18 -1.0785199286363979e-16 -0.2795556581881568 0.9601294881289771
12645057333.333334 -0.26951712463112504 0.9629955968385292 -2.213449652739864e-18 -1.0781360629193513e-16 -2.213449652739864e-18 -1.0781360629193513e-16 -0.269517765633131 0.962995417438707
12645674666.666666 -0.2594498601564559 0.9657565790946597 -3.3476859619766977e-18 -1.0776328472924015e-16 -3.3476859619766977e-18 -1.0776328472924015e-16 -0.25945050296488553 0.9657564064043752
12646292000.0 -0.24935432269682575 0.9684123201158857 -4.481108353573862e-18 -1.0770103841263786e-16 -4.481108353573862e-18 -1.0770103841263786e-16 -0.24935496724145723 0.9684121541533012
12646909333.333334 -0.2392316123917215 0.9709625304986195 -5.6135915392343e-18 -1.0762687889649101e-16 -5.6135915392343e-18 -1.0762687889649101e-16 -0.23923225860215103 0.9709623712811629
12647526666.666666 -0.22908283234162166 0.9734069323392789 -6.745010383652944e-18 -1.0754081905064679e-16 -6.745010383652944e-18 -1.0754081905064679e-16 -0.22908348014727065 0.9734067798836414
12648144000.0 -0.21890908848786994 0.9757452592645462 -7.875239918307474e-18 -1.0744287305849776e-16 -7.875239918307474e-18 -1.0744287305849776e-16 -0.21890973781799275 0.9757451135866798
12648761333.333334 -0.20871148949215634 0.9779772564603905 -9.004155355268013e-18 -1.0733305641489581e-16 -9.004155355268013e-18 -1.0733305641489581e-16 -0.20871214027584842 0.9779771175755082
12649378666.666666 -0.19849114661587142 0.980102680699804 -1.0131632100889867e-17 -1.0721138592392826e-16 -1.0131632100889867e-17 -1.0721138592392826e-16 -0.1984917987820768 0.9801025486223779
12649996000.0 -0.1882491735987588 0.9821213003693638 -1.1257545769601425e-17 -1.0707787969654024e-16 -1.1257545769601425e-17 -1.0707787969654024e-16 -0.18824982707627744 0.9821211751131204
12650613333.333334 -0.1779866865376579 0.98403289549444 -1.2381772197572133e-17 -1.0693255714802061e-16 -1.2381772197572133e-17 -1.0693255714802061e-16 -0.177987341255154 0.9840327770723627
12651230666.666666 -0.16770480376502025 0.9858372577631467 -1.3504187456381101e-17 -1.0677543899534239e-16 -1.3504187456381101e-17 -1.0677543899534239e-16 -0.16770545965102998 0.9858371461874733
12651848000.0 -0.1574046457266503 0.9875341905491138 -1.4624667866678516e-17 -1.0660654725435617e-16 -1.4624667866678516e-17 -1.0660654725435617e-16 -0.15740530270958922 0.9875340858313336
12652465333.333334 -0.14708733486002593 0.9891235089328325 -1.5743090011753478e-17 -1.0642590523684895e-16 -1.5743090011753478e-17 -1.0642590523684895e-16 -0.1470879928681973 0.9891234110836878
12653082666.666666 -0.1367539954719011 0.990605039721834 -1.6859330751128214e-17 -1.0623353754745327e-16 -1.6859330751128214e-17 -1.0623353754745327e-16 -0.13675465443350326 0.9906049487513164
12653700000.0 -0.12640575361542028 0.9919786214696082 -1.7973267234085792e-17 -1.060294700804165e-16 -1.7973267234085792e-17 -1.060294700804165e-16 -0.12640641345855474 0.9919785373869588
12654317333.333334 -0.1160437369679722 0.9932441044931174 -1.9084776913166875e-17 -1.0581373001623004e-16 -1.9084776913166875e-17 -1.0581373001623004e-16 -0.11604439762065161 0.9932440273068275
12654934666.666666 -0.10566907470790987 0.9944013508891671 -2.0193737557621383e-17 -1.0558634581811703e-16 -2.0193737557621383e-17 -1.0558634581811703e-16 -0.10566973609806558 0.9944012806069745
12655552000.0 -0.09528289739155671 0.9954502345494203 -2.1300027266855793e-17 -1.0534734722837235e-16 -2.1300027266855793e-17 -1.0534734722837235e-16 -0.09528355944704668 0.9954501711783098
12656169333.333334 -0.08488633683014774 0.9963906411741256 -2.2403524483748914e-17 -1.0509676526458108e-16 -2.2403524483748914e-17 -1.0509676526458108e-16 -0.08488699947876449 0.9963905847203282
12656786666.666666 -0.07448052596637995 0.9972224682845832 -2.3504108008038123e-17 -1.0483463221567388e-16 -2.3504108008038123e-17 -1.0483463221567388e-16 -0.07448118913585859 0.9972224187535772
12657404000.0 -0.06406659875098092 0.9979456252343145 -2.4601657009600805e-17 -1.0456098163785425e-16 -2.4601657009600805e-17 -1.0456098163785425e-16 -0.06406726236900653 0.9979455826308199
12658021333.333334 -0.05364569001913835 0.9985600332189328 -2.569605104167198e-17 -1.0427584835039247e-16 -2.569605104167198e-17 -1.0427584835039247e-16 -0.05364635401335447 0.9985599975469175
12658638666.666666 -0.04321893536686293 0.9990656252847367 -2.6787170054032326e-17 -1.0397926843127744e-16 -2.6787170054032326e-17 -1.0397926843127744e-16 -0.043219599664878997 0.9990655965474109
12659256000.0 -0.03278747102712509 0.9994623463360051 -2.7874894406206047e-17 -1.0367127921271493e-16 -2.7874894406206047e-17 -1.0367127921271493e-16 -0.03278813555652461 0.9994623245358241
12659873333.333334 -0.022352433746178783 0.9997501531409978 -2.895910488049605e-17 -1.0335191927651822e-16 -2.895910488049605e-17 -1.0335191927651822e-16 -0.02235309843452708 0.9997501382796616
12660490666.666666 -0.011914960659743803 0.999929014336669 -3.003968269505573e-17 -1.0302122844933862e-16 -3.003968269505573e-17 -1.0302122844933862e-16 -0.011915625434595907 0.9999290064151195
12661108000.0 -0.001476189168691 0.9999989104320891 -3.111650951687184e-17 -1.0267924779776896e-16 -3.111650951687184e-17 -1.0267924779776896e-16 -0.0014768539575996105 0.9999989094505122
12661725333.333334 0.008962743184335127 0.9999598338105568 -3.218946747469886e-17 -1.0232601962331132e-16 -3.218946747469886e-17 -1.0232601962331132e-16 0.008962078453811787 0.9999598397683851
12662342666.666666 0.01940069883930397 0.9998117887304451 -3.3258439171936714e-17 -1.0196158745720843e-16 -3.3258439171936714e-17 -1.0196158745720843e-16 0.019400034239594233 0.9998118016263502
12662960000.0 0.02983654034256299 0.9995547913247236 -3.432330769944548e-17 -1.0158599605514409e-16 -3.432330769944548e-17 -1.0158599605514409e-16 0.0298358759460739 0.9995548111566251
12663577333.333334 0.04026913047093138 0.9991888695992064 -3.538395664832983e-17 -1.0119929139179955e-16 -3.538395664832983e-17 -1.0119929139179955e-16 0.040268466350040756 0.9991888963642667
12664194666.666666 0.05069733235545604 0.9987140634295014 -3.644027012260524e-17 -1.0080152065529644e-16 -3.644027012260524e-17 -1.0080152065529644e-16 0.05069666858250462 0.9987140971241278
12664812000.0 0.06112000960538458 0.9981304245566625 -3.749213275186033e-17 -1.0039273224148837e-16 -3.749213275186033e-17 -1.0039273224148837e-16 0.06111934625266812 0.9981304651765078
12665429333.333334 0.07153602643211457 0.9974380165815462 -3.853942970382727e-17 -9.997297574813083e-17 -3.853942970382727e-17 -9.997297574813083e-17 0.07153536357187608 0.99743806412151
12666046666.666666 0.08194424777265166 0.9966369149578994 -3.958204669689322e-17 -9.954230196891781e-17 -3.958204669689322e-17 -9.954230196891781e-17 0.08194358547707334 0.996636969412126
12666664000.0 0.0923435394137259 0.9957272069841072 -4.061987001254593e-17 -9.910076288738816e-17 -4.061987001254593e-17 -9.910076288738816e-17 0.0923428777549214 0.9957272683459892
12667281333.333334 0.10273276811496496 0.9947089917937119 -4.1652786507752443e-17 -9.864841167070358e-17 -4.1652786507752443e-17 -9.864841167070358e-17 0.10273210716497148 0.9947090600558891
12667898666.666666 0.11311080173264176 0.9935823803445916 -4.268068362726317e-17 -9.818530266329908e-17 -4.268068362726317e-17 -9.818530266329908e-17 0.1131101415634124 0.9935824554989535
12668516000.0 0.12347650934316 0.9923474954068523 -4.370344941587983e-17 -9.771149138039161e-17 -4.370344941587983e-17 -9.771149138039161e-17 0.12347585002655576 0.9923475774445388
12669133333.333334 0.1338287613658708 0.9910044715494997 -4.472097253056853e-17 -9.722703450139819e-17 -4.472097253056853e-17 -9.722703450139819e-17 0.1338281029736524 0.9910045604608987
12669750666.666666 0.14416642968653262 0.9895534551257275 -4.573314225260616e-17 -9.673198986318107e-17 -4.573314225260616e-17 -9.673198986318107e-17 0.14416577229035352 0.9895535509004815
