! Parameters = {f0=12700.012000; bw=77.238000; Q=6100.000000; N=10; m_0_1=1.187883; m_1_1=-0.946502; m_1_2=1.022695; m_2_2=-0.947151; m_2_3=0.659658; m_2_8=-0.003542; m_2_9=0.033162; m_3_3=-0.949088; m_3_4=0.548187; m_3_7=-0.002942; m_3_8=-0.100030; m_3_9=-0.003542; m_4_4=-0.952013; m_4_5=0.384522; m_4_6=0.000575; m_4_7=-0.120579; m_4_8=-0.002942; m_5_5=-0.951631; m_5_6=0.791877; m_5_7=0.000575; m_6_6=-0.951632; m_6_7=0.384864; m_7_7=-0.951999; m_7_8=0.548305; m_8_8=-0.949090; m_8_9=0.659971; m_9_9=-0.947156; m_9_10=1.023773; m_10_10=-0.946512; m_10_11=1.188678}
!
! Created with skrf (http://scikit-rf.org).
# Hz S RI R 50.0 
!freq ReS11 ImS11 ReS21 ImS21 ReS12 ImS12 ReS22 ImS22
12607400000.0 0.9938984402401494 0.11029909559032533 -7.268904338817224e-17 1.3038418674536136e-17 -7.268904338817224e-17 1.3038418674536136e-17 0.9938983711939853 0.11029971775933242
12608017333.333334 0.9947587729439757 0.10224961442882108 -7.256568704519593e-17 1.3630194910402544e-17 -7.256568704519593e-17 1.3630194910402544e-17 0.9947587089398284 0.10225023710589332
12608634666.666666 0.9955539148085092 0.09419343241063732 -7.243751757355848e-17 1.422082621232457e-17 -7.243751757355848e-17 1.422082621232457e-17 0.9955538558500802 0.09419405555492032
12609252000.0 0.9962838137247199 0.08613107749224047 -7.230454544279596e-17 1.4810273471527932e-17 -7.230454544279596e-17 1.4810273471527932e-17 0.9962837598153773 0.08613170106285303
12609869333.333334 0.9969484218592362 0.07806307803451955 -7.216678143990775e-17 1.5398497673832484e-17 -7.216678143990775e-17 1.5398497673832484e-17 0.99694837300202 0.07806370199055679
12610486666.666666 0.9975476956574687 0.06998996276838747 -7.202423666851015e-17 1.598545990222876e-17 -7.202423666851015e-17 1.598545990222876e-17 0.9975476518550846 0.06999058706892301
12611104000.0 0.9980815958464737 0.06191226075990381 -7.18769225479656e-17 1.6571121339459103e-17 -7.18769225479656e-17 1.6571121339459103e-17 0.9980815571012975 0.06191288536399283
12611721333.333334 0.9985500874375168 0.05383050137582996 -7.172485081250032e-17 1.7155443270552395e-17 -7.172485081250032e-17 1.7155443270552395e-17 0.9985500537515924 0.05383112624251175
12612338666.666666 0.9989531397283771 0.045745214248738904 -7.156803351029297e-17 1.7738387085387706e-17 -7.156803351029297e-17 1.7738387085387706e-17 0.9989531111034168 0.04574583933703953
12612956000.0 0.9992907263053524 0.03765692924239101 -7.140648300254164e-17 1.831991428124976e-17 -7.140648300254164e-17 1.831991428124976e-17 0.9992907027427363 0.037657554511326054
12613573333.333334 0.9995628250449896 0.029566176417066714 -7.124021196252055e-17 1.8899986465339822e-17 -7.124021196252055e-17 1.8899986465339822e-17 0.9995628065457661 0.029566801825643918
12614190666.666666 0.9997694181155358 0.021473485994772543 -7.106923337460573e-17 1.947856535731668e-17 -7.106923337460573e-17 1.947856535731668e-17 0.999769404680422 0.021474111501994526
12614808000.0 0.9999104919781118 0.013379388324436636 -7.089356053328335e-17 2.0055612791816964e-17 -7.089356053328335e-17 2.0055612791816964e-17 0.9999104836074916 0.013380013889303544
12615425333.333334 0.9999860373875912 0.005284413847209353 -7.071320704213974e-17 2.0631090720960753e-17 -7.071320704213974e-17 2.0631090720960753e-17 0.9999860340815178 0.005285039428721588
12616042666.666666 0.9999960493932118 -0.0028109069382134385 -7.052818681283116e-17 2.1204961216846233e-17 -7.052818681283116e-17 2.1204961216846233e-17 0.9999960511514056 -0.0028102813810525562
12616660000.0 0.9999405273388968 -0.010906043510526788 -7.033851406402907e-17 2.1777186474053714e-17 -7.033851406402907e-17 2.1777186474053714e-17 0.9999405341607481 -0.010905418018708337
12617277333.333334 0.9998194748633016 -0.019000465360527203 -7.01442033203487e-17 2.2347728812123993e-17 -7.01442033203487e-17 2.2347728812123993e-17 0.9998194867478672 -0.018999839975033964
12617894666.666666 0.9996328998995736 -0.027093642025651822 -6.994526941126266e-17 2.2916550678015853e-17 -6.994526941126266e-17 2.2916550678015853e-17 0.999632916845579 -0.02709301678745559
12618512000.0 0.9993808146748272 -0.035185043125225024 -6.974172746997757e-17 2.348361464860352e-17 -6.974172746997757e-17 2.348361464860352e-17 0.9993808366806665 -0.03518441807528393
12619129333.333334 0.9990632357093515 -0.04327413839473347 -6.95335929323138e-17 2.4048883433097178e-17 -6.95335929323138e-17 2.4048883433097178e-17 0.9990632627730874 -0.04327351357398933
12619746666.666666 0.998680183815524 -0.05136039772077565 -6.932088153554879e-17 2.461231987550101e-17 -6.932088153554879e-17 2.461231987550101e-17 0.9986802159348885 -0.051359773170151224
12620364000.0 0.9982316840964398 -0.05944329117597275 -6.910360931724166e-17 2.5173886957059423e-17 -6.910360931724166e-17 2.5173886957059423e-17 0.9982317212688331 -0.05944266693636909
12620981333.333334 0.9977177659442776 -0.0675222890533563 -6.888179261405061e-17 2.5733547798657587e-17 -6.888179261405061e-17 2.5733547798657587e-17 0.9977178081667697 -0.06752166516565011
12621598666.666666 0.9971384630383708 -0.0755968619012812 -6.865544806051732e-17 2.62912656632491e-17 -6.865544806051732e-17 2.62912656632491e-17 0.9971385103077004 -0.07559623840632208
12622216000.0 0.9964938133429925 -0.08366648055815092 -6.84245925878363e-17 2.6847003958261413e-17 -6.84245925878363e-17 2.6847003958261413e-17 0.996493865655568 -0.08366585749675877
12622833333.333334 0.9957838591048698 -0.09173061618706753 -6.818924342260674e-17 2.740072623798466e-17 -6.818924342260674e-17 2.740072623798466e-17 0.9957839164567702 -0.09172999360002987
12623450666.666666 0.9950086468504341 -0.09978874031029047 -6.79494180855655e-17 2.795239620594992e-17 -6.79494180855655e-17 2.795239620594992e-17 0.995008709237408 -0.09978811823835969
12624068000.0 0.994168227382744 -0.10784032484418136 -6.770513439029863e-17 2.850197771730234e-17 -6.770513439029863e-17 2.850197771730234e-17 0.994168294800211 -0.10783970332807222
12624685333.333334 0.9932626557781584 -0.11588484213375491 -6.745641044192849e-17 2.904943478117463e-17 -6.745641044192849e-17 2.904943478117463e-17 0.9932627282212082 -0.11588422121414162
12625302666.666666 0.992291991382768 -0.12392176498689092 -6.720326463579869e-17 2.9594731563011e-17 -6.720326463579869e-17 2.9594731563011e-17 0.9922920688461615 -0.12392114470440468
12625920000.0 0.9912562978084395 -0.13195056670947689 -6.694571565611889e-17 3.01378323869275e-17 -6.694571565611889e-17 3.01378323869275e-17 0.9912563802866096 -0.13194994710470317
12626537333.333334 0.9901556429287011 -0.13997072113944412 -6.668378247460843e-17 3.0678701738022895e-17 -6.668378247460843e-17 3.0678701738022895e-17 0.9901557304157529 -0.13997010225292017
12627154666.666666 0.9889900988742911 -0.1479817026813353 -6.641748434911099e-17 3.121730426469847e-17 -6.641748434911099e-17 3.121730426469847e-17 0.9889901913639999 -0.14798108455354686
12627772000.0 0.9877597420283758 -0.15598298634108523 -6.614684082219101e-17 3.175360478096614e-17 -6.614684082219101e-17 3.175360478096614e-17 0.9877598395141933 -0.15598236901246504
12628389333.333334 0.98646465302162 -0.1639740477599494 -6.58718717197216e-17 3.228756826872392e-17 -6.58718717197216e-17 3.228756826872392e-17 0.9864647554966686 -0.1639734312708734
12629006666.666666 0.985104916726847 -0.17195436324920343 -6.559259714943549e-17 3.281915988005662e-17 -6.559259714943549e-17 3.281915988005662e-17 0.9851050241839234 -0.1719537476399888
12629624000.0 0.9836806222534957 -0.17992340982435087 -6.53090374994818e-17 3.334834493947577e-17 -6.53090374994818e-17 3.334834493947577e-17 0.9836807346850726 -0.17992279513525336
12630241333.333334 0.9821918629417921 -0.18788066523934085 -6.502121343694061e-17 3.3875088946195634e-17 -6.502121343694061e-17 3.3875088946195634e-17 0.9821919803400142 -0.18788005151055154
12630858666.666666 0.9806387363566276 -0.195825608020821 -6.472914590633902e-17 3.4399357576357496e-17 -6.472914590633902e-17 3.4399357576357496e-17 0.980638858713315 -0.19582499529246414
12631476000.0 0.9790213442811159 -0.20375771750253416 -6.443285612813259e-17 3.492111668527264e-17 -6.443285612813259e-17 3.492111668527264e-17 0.9790214715877674 -0.20375710581466505
12632093333.333334 0.9773397927100219 -0.21167647385899577 -6.41323655971845e-17 3.5440332309625225e-17 -6.41323655971845e-17 3.5440332309625225e-17 0.9773399249578101 -0.2116758632515971
12632710666.666666 0.9755941918427385 -0.2195813581398928 -6.382769608121717e-17 3.595697066967818e-17 -6.382769608121717e-17 3.595697066967818e-17 0.9755943290225145 -0.21958074865287286
12633328000.0 0.9737846560760577 -0.22747185230414935 -6.351886961924133e-17 3.6470998171475324e-17 -6.351886961924133e-17 3.6470998171475324e-17 0.9737847981783495 -0.2274712439773388
12633945333.333334 0.9719113039967419 -0.23534743925354173 -6.320590851998805e-17 3.698238140899373e-17 -6.320590851998805e-17 3.698238140899373e-17 0.9719114510117561 -0.23534683212669164
12634562666.666666 0.9699742583736882 -0.2432076028668926 -6.288883536029903e-17 3.749108716632638e-17 -6.288883536029903e-17 3.749108716632638e-17 0.9699744102913108 -0.24320699697967135
12635180000.0 0.9679736461499054 -0.2510518280337828 -6.256767298351421e-17 3.799708241982381e-17 -6.256767298351421e-17 3.799708241982381e-17 0.9679738029597025 -0.2510512234257738
12635797333.333334 0.9659095984342102 -0.25887960068825383 -6.224244449784097e-17 3.850033434022589e-17 -6.224244449784097e-17 3.850033434022589e-17 0.9659097601254267 -0.25887899739895254
12636414666.666666 0.9637822504926202 -0.26669040784255227 -6.191317327470186e-17 3.900081029478711e-17 -6.191317327470186e-17 3.900081029478711e-17 0.9637824170541841 -0.26668980591136415
12637032000.0 0.9615917417394688 -0.27448373762083034 -6.157988294706359e-17 3.9498477849388995e-17 -6.157988294706359e-17 3.9498477849388995e-17 0.9615919131599894 -0.27448313708706795
12637649333.333334 0.9593382157283207 -0.2822590792924993 -6.124259740776087e-17 3.9993304770621467e-17 -6.124259740776087e-17 3.9993304770621467e-17 0.9593383919960887 -0.2822584801953795
12638266666.666666 0.9570218201425074 -0.290015923305891 -6.090134080778772e-17 4.048525902787408e-17 -6.090134080778772e-17 4.048525902787408e-17 0.9570220012454993 -0.2900153256845332
12638884000.0 0.9546427067854778 -0.29775376132156983 -6.055613755458338e-17 4.097430879539568e-17 -6.055613755458338e-17 4.097430879539568e-17 0.9546428927113528 -0.2977531652149925
12639501333.333334 0.9522010315708608 -0.3054720862455912 -6.020701231030048e-17 4.1460422454340944e-17 -6.020701231030048e-17 4.1460422454340944e-17 0.9522012223069646 -0.3054714916927101
12640118666.666666 0.9496969545122456 -0.31317039226276194 -5.985398999005519e-17 4.1943568594806465e-17 -5.985398999005519e-17 4.1943568594806465e-17 0.9496971500456076 -0.31316979930238664
12640736000.0 0.9471306397126191 -0.32084817487000356 -5.949709576014558e-17 4.2423716017871303e-17 -5.949709576014558e-17 4.2423716017871303e-17 0.9471308400299574 -0.3208475835408358
12641353333.333334 0.9445022553537649 -0.3285049309089557 -5.913635503629629e-17 4.290083373756637e-17 -5.913635503629629e-17 4.290083373756637e-17 0.9445024604414862 -0.32850434124958705
12641970666.666666 0.9418119736850923 -0.33614015859941065 -5.877179348183846e-17 4.3374890982893346e-17 -5.877179348183846e-17 4.3374890982893346e-17 0.9418121835292909 -0.33613957064831884
12642588000.0 0.9390599710124148 -0.3437533575719784 -5.840343700590054e-17 4.3845857199794095e-17 -5.840343700590054e-17 4.3845857199794095e-17 0.939060185598874 -0.3437527713675256
12643205333.333334 0.9362464276864286 -0.3513440289008007 -5.80313117615803e-17 4.431370205310757e-17 -5.80313117615803e-17 4.431370205310757e-17 0.9362466470006239 -0.351343444481231
12643822666.666666 0.9333715280907863 -0.35891167513654004 -5.765544414409745e-17 4.4778395428516365e-17 -5.765544414409745e-17 4.4778395428516365e-17 0.9333717521178831 -0.35891109253997666
12644440000.0 0.9304354606301385 -0.3664558003386329 -5.727586078893133e-17 4.523990743447804e-17 -5.727586078893133e-17 4.523990743447804e-17 0.9304356893549964 -0.3664552196030762
12645057333.333334 0.9274384177177131 -0.3739759101080059 -5.68925885699466e-17 4.569820840413555e-17 -5.68925885699466e-17 4.569820840413555e-17 0.9274386511248847 -0.3739753312713302
12645674666.666666 0.9243805957627416 -0.3814715116193675 -5.650565459750526e-17 4.615326889721052e-17 -5.650565459750526e-17 4.615326889721052e-17 0.9243808338364741 -0.38147093471931925
12646292000.0 0.9212621951574939 -0.3889421136537436 -5.611508621654241e-17 4.66050597019062e-17 -5.611508621654241e-17 4.66050597019062e-17 0.9212624378817307 -0.38894153872793874
12646909333.333334 0.9180834202643281 -0.3963872266302213 -5.572091100466556e-17 4.7053551836747934e-17 -5.572091100466556e-17 4.7053551836747934e-17 0.9180836676227091 -0.3963866537161425
12647526666.666666 0.9148444794021147 -0.40380636263848074 -5.5323156770208405e-17 4.7498716552444395e-17 -5.5323156770208405e-17 4.7498716552444395e-17 0.9148447313779771 -0.4038057917734751
12648144000.0 0.911545584832679 -0.4111990354705322 -5.492185155027264e-17 4.794052533372902e-17 -5.492185155027264e-17 4.794052533372902e-17 0.9115458414090603 -0.4111984666918093
12648761333.333334 0.9081869527468612 -0.4185647606526592 -5.451702360877119e-17 4.837894990116628e-17 -5.451702360877119e-17 4.837894990116628e-17 0.9081872139064979 -0.4185641939972877
12649378666.666666 0.9047688032503804 -0.42590305547708934 -5.4108701434452214e-17 4.8813962212948117e-17 -5.4108701434452214e-17 4.8813962212948117e-17 0.9047690689757123 -0.42590249098199623
12649996000.0 0.9012913603493911 -0.43321343903368215 -5.369691373888911e-17 4.924553446669507e-17 -5.369691373888911e-17 4.924553446669507e-17 0.9012916306225587 -0.4332128767356483
12650613333.333334 0.8977548519357624 -0.4404954322415197 -5.3281689454481136e-17 4.967363910121281e-17 -5.3281689454481136e-17 4.967363910121281e-17 0.89775512673861 -0.44049487217717836
12651230666.666666 0.89415950977223 -0.44774855788012463 -5.28630577324338e-17 5.009824879824023e-17 -5.28630577324338e-17 5.009824879824023e-17 0.8941597890863077 -0.4477480000859596
12651848000.0 0.8905055694771229 -0.4549723406209136 -5.244104794071318e-17 5.0519336484191715e-17 -5.244104794071318e-17 5.0519336484191715e-17 0.8905058532836857 -0.45497178513325576
12652465333.333334 0.8867932705089543 -0.4621663070582689 -5.201568966200004e-17 5.093687533186962e-17 -5.201568966200004e-17 5.093687533186962e-17 0.8867935587889673 -0.46216575391329584
12653082666.666666 0.8830228561507775 -0.4693299857404917 -5.1587012691630386e-17 5.13508387621595e-17 -5.1587012691630386e-17 5.13508387621595e-17 0.8830231488849111 -0.46932943497422197
12653700000.0 0.8791945734941404 -0.47646290720086926 -5.115504703550734e-17 5.1761200445722246e-17 -5.115504703550734e-17 5.1761200445722246e-17 0.8791948706627772 -0.4764623588491633
12654317333.333334 0.8753086734230047 -0.4835646039882432 -5.071982290802272e-17 5.21679343046477e-17 -5.071982290802272e-17 5.21679343046477e-17 0.8753089750062387 -0.48356405808679986
12654934666.666666 0.8713654105972105 -0.49063461069781944 -5.0281370729942746e-17 5.257101451411221e-17 -5.0281370729942746e-17 5.257101451411221e-17 0.8713657165748481 -0.4906340672821732
12655552000.0 0.8673650434358257 -0.4976724640015917 -4.983972112629524e-17 5.297041550400361e-17 -4.983972112629524e-17 5.297041550400361e-17 0.8673653537873859 -0.49767192310710995
12656169333.333334 0.863307834100251 -0.5046777026786299 -4.9394904924245125e-17 5.3366111960529824e-17 -4.9394904924245125e-17 5.3366111960529824e-17 0.8633081488049706 -0.5046771643405129
12656786666.666666 0.8591940484769472 -0.511649867645483 -4.894695315094117e-17 5.3758078827822735e-17 -4.894695315094117e-17 5.3758078827822735e-17 0.8591943675137778 -0.511649331898759
12657404000.0 0.8550239561601171 -0.5185885019860638 -4.84958970313732e-17 5.4146291309503505e-17 -4.84958970313732e-17 5.4146291309503505e-17 0.8550242795077287 -0.5185879688655876
12658021333.333334 0.8507978304339271 -0.5254931509817902 -4.804176798619279e-17 5.453072487025232e-17 -4.804176798619279e-17 5.453072487025232e-17 0.8507981580707107 -0.5254926205222419
12658638666.666666 0.846515948254713 -0.5323633621411901 -4.758459762954588e-17 5.49113552373378e-17 -4.758459762954588e-17 5.49113552373378e-17 0.8465162801587796 -0.5323628343770718
12659256000.0 0.8421785902327263 -0.5391986852297247 -4.712441776687021e-17 5.5288158402148536e-17 -4.712441776687021e-17 5.5288158402148536e-17 0.8421789263819102 -0.5391981601953587
12659873333.333334 0.837786040613792 -0.5459986722992228 -4.6661260392696694e-17 5.566111062169354e-17 -4.6661260392696694e-17 5.566111062169354e-17 0.8377863809856493 -0.5459981500287481
12660490666.666666 0.8333385872607185 -0.5527628777171606 -4.6195157688438514e-17 5.603018842008343e-17 -4.6195157688438514e-17 5.603018842008343e-17 0.8333389318325338 -0.5527623582445333
12661108000.0 0.8288365216343366 -0.5594908581960397 -4.5726142020153036e-17 5.639536859000704e-17 -4.5726142020153036e-17 5.639536859000704e-17 0.8288368703831195 -0.5594903415550284
12661725333.333334 0.824280138774514 -0.5661821728222425 -4.525424593631623e-17 5.675662819416963e-17 -4.525424593631623e-17 5.675662819416963e-17 0.8242804916770031 -0.5661816590464268
12662342666.666666 0.8196697372806973 -0.5728363830851174 -4.477950216556147e-17 5.711394456673196e-17 -4.477950216556147e-17 5.711394456673196e-17 0.8196700943133621 -0.5728358722078867
12662960000.0 0.8150056192924737 -0.5794530529055305 -4.4301943614423334e-17 5.746729531471763e-17 -4.4301943614423334e-17 5.746729531471763e-17 0.8150059804315138 -0.57945254496008
12663577333.333334 0.8102880904696517 -0.5860317486646038 -4.3821603365070425e-17 5.781665831940171e-17 -4.3821603365070425e-17 5.781665831940171e-17 0.8102884556910013 -0.586031243683934
12664194666.666666 0.8055174599722836 -0.5925720392320649 -4.3338514673012867e-17 5.816201173769213e-17 -4.3338514673012867e-17 5.816201173769213e-17 0.8055178292516116 -0.592571537248979
12664812000.0 0.8006940404404534 -0.5990734959944308 -4.2852710964813287e-17 5.850333400348014e-17 -4.2852710964813287e-17 5.850333400348014e-17 0.8006944137531643 -0.5990729970415317
12665429333.333334 0.7958181479736699 -0.6055356928832576 -4.2364225835786164e-17 5.884060382897367e-17 -4.2364225835786164e-17 5.884060382897367e-17 0.7958185252949066 -0.6055351969929464
12666046666.666666 0.7908901021102857 -0.611958206402878 -4.187309304768169e-17 5.917380020601501e-17 -4.187309304768169e-17 5.917380020601501e-17 0.7908904834149327 -0.611957713607354
12666664000.0 0.7859102258064271 -0.6183406156583433 -4.1379346526347356e-17 5.950290240738731e-17 -4.1379346526347356e-17 5.950290240738731e-17 0.7859106110691072 -0.6183401259895965
12667281333.333334 0.7808788454149368 -0.6246825023828365 -4.088302035942175e-17 5.982788998807233e-17 -4.088302035942175e-17 5.982788998807233e-17 0.7808792346100182 -0.6246820158726517
12667898666.666666 0.7757962906639662 -0.6309834509651412 -4.038414879396288e-17 6.014874278652792e-17 -4.038414879396288e-17 6.014874278652792e-17 0.7757966837655604 -0.6309829676450911
12668516000.0 0.7706628946352327 -0.6372430484770245 -3.9882766234098396e-17 6.046544092592314e-17 -3.9882766234098396e-17 6.046544092592314e-17 0.7706632916171994 -0.6372425683784714
12669133333.333334 0.7654789937424107 -0.6434608847000366 -3.937890723868233e-17 6.07779648153444e-17 -3.937890723868233e-17 6.07779648153444e-17 0.7654793945783567 -0.6434604078541277
12669750666.666666 0.7602449277089569 -0.649636552152548 -3.887260651889379e-17 6.108629515101321e-17 -3.887260651889379e-17 6.108629515101321e-17 0.7602453323722391 -0.6496360785902145
12670368000.0 0.7549610395458116 -0.6557696461164966 -3.836389893586803e-17 6.13904129174575e-17 -3.836389893586803e-17 6.13904129174575e-17 0.7549614480095388 -0.6557691758684512
