! Parameters = {f0=12700.012000; bw=77.238000; Q=6100.000000; N=10; m_0_1=1.208303; m_1_1=-0.640196; m_1_2=1.043115; m_2_2=-0.640845; m_2_3=0.680078; m_2_8=-0.002521; m_2_9=0.034183; m_3_3=-0.642782; m_3_4=0.568607; m_3_7=-0.001921; m_3_8=-0.099009; m_3_9=-0.002521; m_4_4=-0.645707; m_4_5=0.404942; m_4_6=0.001596; m_4_7=-0.119558; m_4_8=-0.001921; m_5_5=-0.645325; m_5_6=0.812297; m_5_7=0.001596; m_6_6=-0.645326; m_6_7=0.405284; m_7_7=-0.645693; m_7_8=0.568725; m_8_8=-0.642784; m_8_9=0.680391; m_9_9=-0.640850; m_9_10=1.044193; m_10_10=-0.640206; m_10_11=1.209098}
!
! Created with skrf (http://scikit-rf.org).
# Hz S RI R 50.0 
!freq ReS11 ImS11 ReS21 ImS21 ReS12 ImS12 ReS22 ImS22
12607400000.0 0.942699578393842 0.33364278037432904 -8.180814748555342e-17 -4.27066438779359e-18 -8.180814748555342e-17 -4.27066438779359e-18 0.9426993659587022 0.3336433806040535
12608017333.333334 0.9455662421972705 0.3254296876696601 -8.18264878504903e-17 -3.550906173459381e-18 -8.18264878504903e-17 -3.550906173459381e-18 0.9455660350016658 0.3254302896951487
12608634666.666666 0.9483613524936999 0.3171919688393157 -8.183850098806997e-17 -2.831155608698189e-18 -8.183850098806997e-17 -2.831155608698189e-18 0.948361150552795 0.31719257261483763
12609252000.0 0.9510846977697732 0.30893024725335355 -8.184418844905334e-17 -2.1114682681935433e-18 -8.184418844905334e-17 -2.1114682681935433e-18 0.9510845010983356 0.3089308527330509
12609869333.333334 0.9537360719427979 0.30064514809815734 -8.18435522719286e-17 -1.3918996999768952e-18 -8.18435522719286e-17 -1.3918996999768952e-18 0.9537358805551918 0.3006457552360466
12610486666.666666 0.9563152743762938 0.2923372983292323 -8.183659498256275e-17 -6.725054211625084e-19 -8.183659498256275e-17 -6.725054211625084e-19 0.956315088286485 0.2923379070792099
12611104000.0 0.9588221098952451 0.28400732662357414 -8.182331959381567e-17 4.6659086350808685e-20 -8.182331959381567e-17 4.6659086350808685e-20 0.9588219291167963 0.284007936939419
12611721333.333334 0.9612563888008014 0.275655863332313 -8.180372960511712e-17 7.655383801154191e-19 -8.180372960511712e-17 7.655383801154191e-19 0.9612562133468707 0.2756564751676895
12612338666.666666 0.9636179268846766 0.26728354043284774 -8.177782900200585e-17 1.4840770614216926e-18 -8.177782900200585e-17 1.4840770614216926e-18 0.9636177567680202 0.26728415374131037
12612956000.0 0.9659065454431015 0.25889099148099715 -8.174562225563147e-17 2.2022197795565213e-18 -8.174562225563147e-17 2.2022197795565213e-18 0.9659063806760693 0.2588916062159933
12613573333.333334 0.9681220712902734 0.25047885156330174 -8.170711432221978e-17 2.9199112360355566e-18 -8.170711432221978e-17 2.9199112360355566e-18 0.968121911884809 0.25047946767817525
12614190666.666666 0.9702643367715411 0.24204775724869249 -8.166231064249994e-17 3.63709618887392e-18 -8.166231064249994e-17 3.63709618887392e-18 0.9702641827391818 0.24204837469668758
12614808000.0 0.9723331797760508 0.23359834654045605 -8.161121714109473e-17 4.353719456816008e-18 -8.161121714109473e-17 4.353719456816008e-18 0.972333031127926 0.23359896527472054
12615425333.333334 0.9743284437490229 0.2251312588279284 -8.155384022587403e-17 5.06972592357291e-18 -8.155384022587403e-17 5.06972592357291e-18 0.9743283004958541 0.22513187880151753
12616042666.666666 0.9762499777036 0.2166471348381108 -8.149018678727115e-17 5.7850605420508416e-18 -8.149018678727115e-17 5.7850605420508416e-18 0.9762498398556978 0.21664775600399025
12616660000.0 0.9780976362322673 0.20814661658718314 -8.142026419756179e-17 6.499668338572541e-18 -8.142026419756179e-17 6.499668338572541e-18 0.9780975037995353 0.2081472388982337
12617277333.333334 0.97987127951787 0.19963034733189491 -8.134408031010651e-17 7.21349441709372e-18 -8.134408031010651e-17 7.21349441709372e-18 0.9798711525097981 0.1996309707409146
12617894666.666666 0.9815707733441572 0.19109897152102565 -8.12616434585574e-17 7.926483963397971e-18 -8.12616434585574e-17 7.926483963397971e-18 0.9815706517698255 0.1910995959807344
12618512000.0 0.9831959891060047 0.18255313474631238 -8.117296245602399e-17 8.63858224932066e-18 -8.117296245602399e-17 8.63858224932066e-18 0.9831958729740808 0.18255376020935513
12619129333.333334 0.9847468038190684 0.17399348369398587 -8.107804659420912e-17 9.349734636906855e-18 -8.107804659420912e-17 9.349734636906855e-18 0.9847466931378077 0.17399411011293636
12619746666.666666 0.9862231001291463 0.16542066609555567 -8.097690564250214e-17 1.0059886582616051e-17 -8.097690564250214e-17 1.0059886582616051e-17 0.9862229949063894 0.16542129342291975
12620364000.0 0.9876247663210522 0.15683533067879327 -8.086954984703705e-17 1.0768983641494763e-17 -8.086954984703705e-17 1.0768983641494763e-17 0.9876246665642291 0.1568359588670131
12620981333.333334 0.9889516963270366 0.1482381271188947 -8.075598992971879e-17 1.1476971471319403e-17 -8.075598992971879e-17 1.1476971471319403e-17 0.9889516020431591 0.14823875612035148
12621598666.666666 0.9902037897348483 0.13962970598903612 -8.063623708720592e-17 1.2183795836773105e-17 -8.063623708720592e-17 1.2183795836773105e-17 0.9902037009305162 0.13963033575605452
12622216000.0 0.9913809517953227 0.13101071871125639 -8.051030298986235e-17 1.288940261357829e-17 -8.051030298986235e-17 1.288940261357829e-17 0.9913808684767202 0.13101134919610777
12622833333.333334 0.9924830934295404 0.12238181750721823 -8.03781997806705e-17 1.3593737792635068e-17 -8.03781997806705e-17 1.3593737792635068e-17 0.9924830156024346 0.12238244866212411
12623450666.666666 0.9935101312355774 0.11374365534879656 -8.023994007411106e-17 1.4296747484135504e-17 -8.023994007411106e-17 1.4296747484135504e-17 0.9935100589053205 0.11374428712593261
12624068000.0 0.9944619874948202 0.10509688590863835 -8.009553695500261e-17 1.49983779216875e-17 -8.009553695500261e-17 1.49983779216875e-17 0.994461920666347 0.10509751826013773
12624685333.333334 0.9953385901778485 0.09644216351064043 -7.994500397730725e-17 1.569857546641844e-17 -7.994500397730725e-17 1.569857546641844e-17 0.9953385288556794 0.09644279638859775
12625302666.666666 0.9961398729498628 0.08778014308071846 -7.97883551629056e-17 1.639728661104245e-17 -7.97883551629056e-17 1.639728661104245e-17 0.9961398171380981 0.0877807764371929
12625920000.0 0.9968657751757403 0.07911148009682203 -7.962560500032441e-17 1.7094457983972562e-17 -7.962560500032441e-17 1.7094457983972562e-17 0.9968657248780651 0.07911211388384146
12626537333.333334 0.9975162419245903 0.07043683053972957 -7.945676844344279e-17 1.7790036353355226e-17 -7.945676844344279e-17 1.7790036353355226e-17 0.9975161971442705 0.07043746470929378
12627154666.666666 0.9980912239739239 0.061756850843238384 -7.928186091015278e-17 1.8483968631137558e-17 -7.928186091015278e-17 1.8483968631137558e-17 0.9980911847138092 0.06175748534732309
12627772000.0 0.998590677813394 0.05307219784432077 -7.910089828098507e-17 1.9176201877121987e-17 -7.910089828098507e-17 1.9176201877121987e-17 0.9985906440759149 0.05307283263488097
12628389333.333334 0.9990145656480566 0.0443835287338161 -7.891389689770901e-17 1.9866683302965007e-17 -7.891389689770901e-17 1.9866683302965007e-17 0.9990145374352257 0.04438416376278982
12629006666.666666 0.99936285540126 0.03569150100627411 -7.872087356188515e-17 2.0555360276216773e-17 -7.872087356188515e-17 2.0555360276216773e-17 0.9993628327146724 0.035692136225586105
12629624000.0 0.9996355207170536 0.026996772410512654 -7.852184553339152e-17 2.1242180324311007e-17 -7.852184553339152e-17 2.1242180324311007e-17 0.9996355035578864 0.026997407772077944
12630241333.333334 0.9998325409621924 0.018300000899673798 -7.831683052891087e-17 2.1927091138556797e-17 -7.831683052891087e-17 2.1927091138556797e-17 0.999832529331202 0.01830063635540129
12630858666.666666 0.999953901227688 0.009601844581605106 -7.810584672038805e-17 2.2610040578100544e-17 -7.810584672038805e-17 2.2610040578100544e-17 0.9999538951252147 0.009602480083401347
12631476000.0 0.9999995923299503 0.0009029616687464787 -7.78889127334423e-17 2.329097667390899e-17 -7.78889127334423e-17 2.329097667390899e-17 0.9999995917559158 0.0009035971685192135
12632093333.333334 0.9999696108114712 -0.007795989571309219 -7.766604764576074e-17 2.3969847632684116e-17 -7.766604764576074e-17 2.3969847632684116e-17 0.9999696157653787 -0.0077953541216474005
12632710666.666666 0.9998639589410938 -0.016494350865799503 -7.743727098544568e-17 2.4646601840805267e-17 -7.743727098544568e-17 2.4646601840805267e-17 0.9998639694220277 -0.01649371551432751
12633328000.0 0.9996826447138335 -0.02519146398674759 -7.720260272932724e-17 2.5321187868253222e-17 -7.720260272932724e-17 2.5321187868253222e-17 0.9996826607204614 -0.025190828781532233
12633945333.333334 0.9994256818502795 -0.03388667080054494 -7.696206330125281e-17 2.5993554472488114e-17 -7.696206330125281e-17 2.5993554472488114e-17 0.9994257033808488 -0.0338860357896372
12634562666.666666 0.9990930897955541 -0.04257931331778234 -7.67156735703323e-17 2.666365060234194e-17 -7.67156735703323e-17 2.666365060234194e-17 0.999093116847896 -0.04257867854921385
12635180000.0 0.9986848937178384 -0.05126873374318379 -7.646345484915431e-17 2.7331425401881756e-17 -7.646345484915431e-17 2.7331425401881756e-17 0.9986849262893672 -0.05126809926496318
12635797333.333334 0.9982011245064721 -0.059954274525298494 -7.620542889196676e-17 2.799682821426043e-17 -7.620542889196676e-17 2.799682821426043e-17 0.998201162594183 -0.059953640385407646
12636414666.666666 0.9976418187696158 -0.06863527840617407 -7.594161789282876e-17 2.865980858554002e-17 -7.594161789282876e-17 2.865980858554002e-17 0.9976418623700877 -0.06863464465256465
12637032000.0 0.997007018831477 -0.07731108847126368 -7.567204448372088e-17 2.9320316268519366e-17 -7.567204448372088e-17 2.9320316268519366e-17 0.9970070679408718 -0.07731045515185339
12637649333.333334 0.996296772729109 -0.08598104819902269 -7.53967317326302e-17 2.997830122652263e-17 -7.53967317326302e-17 2.997830122652263e-17 0.9962968273431728 -0.08598041536169174
12638266666.666666 0.9955111342087775 -0.09464450151061782 -7.511570314159931e-17 3.0633713637181244e-17 -7.511570314159931e-17 3.0633713637181244e-17 0.9955111943228404 -0.0946438692032053
12638884000.0 0.9946501627218924 -0.10330079281957459 -7.482898264474213e-17 3.1286503896195136e-17 -7.482898264474213e-17 3.1286503896195136e-17 0.9946502283308676 -0.1033001610898747
12639501333.333334 0.9937139234205055 -0.11194926708141525 -7.453659460622744e-17 3.1936622621078334e-17 -7.453659460622744e-17 3.1936622621078334e-17 0.9937139945188914 -0.11194863597717387
12640118666.666666 0.9927024871523988 -0.12058926984305834 -7.423856381823568e-17 3.258402065487079e-17 -7.423856381823568e-17 3.258402065487079e-17 0.9927025637342795 -0.12058863941196939
12640736000.0 0.9916159304556728 -0.12922014729279477 -7.393491549886324e-17 3.322864906987788e-17 -7.393491549886324e-17 3.322864906987788e-17 0.9916160125147171 -0.1292195175824965
12641353333.333334 0.9904543355530322 -0.1378412463090859 -7.362567529003271e-17 3.387045917130676e-17 -7.362567529003271e-17 3.387045917130676e-17 0.990454423082497 -0.13784061736715753
12641970666.666666 0.9892177903454965 -0.1464519145105797 -7.331086925532807e-17 3.450940250097756e-17 -7.331086925532807e-17 3.450940250097756e-17 0.9892178833382238 -0.14645128638453753
12642588000.0 0.9879063884057776 -0.15505150030519596 -7.299052387782761e-17 3.514543084094992e-17 -7.299052387782761e-17 3.514543084094992e-17 0.9879064868541977 -0.15505087304249002
12643205333.333334 0.9865202289712028 -0.16363935293946266 -7.266466605789598e-17 3.577849621715295e-17 -7.266466605789598e-17 3.577849621715295e-17 0.986520332867332 -0.16363872658747278
12643822666.666666 0.985059416936179 -0.1722148225478716 -7.233332311093992e-17 3.6408550903000486e-17 -7.233332311093992e-17 3.6408550903000486e-17 0.9850595262716244 -0.1722141971539043
12644440000.0 0.9835240628442851 -0.18077726020191612 -7.199652276514397e-17 3.7035547422967986e-17 -7.199652276514397e-17 3.7035547422967986e-17 0.9835241776102418 -0.18077663581320072
12645057333.333334 0.9819142828798973 -0.18932601795922452 -7.165429315916747e-17 3.7659438556160397e-17 -7.165429315916747e-17 3.7659438556160397e-17 0.9819144030671516 -0.18932539462290984
12645674666.666666 0.9802301988593992 -0.19786044891262086 -7.130666283981322e-17 3.828017733985755e-17 -7.130666283981322e-17 3.828017733985755e-17 0.9802303244583259 -0.19785982667577112
12646292000.0 0.9784719382219378 -0.20637990723916008 -7.095366075965661e-17 3.889771707305177e-17 -7.095366075965661e-17 3.889771707305177e-17 0.9784720692225062 -0.20637928614875217
12646909333.333334 0.9766396340198293 -0.21488374824880585 -7.059531627466706e-17 3.9512011319923843e-17 -7.059531627466706e-17 3.9512011319923843e-17 0.976639770411597 -0.2148831283517247
12647526666.666666 0.9747334249084458 -0.22337132843338117 -7.023165914177392e-17 4.012301391334367e-17 -7.023165914177392e-17 4.012301391334367e-17 0.9747335666805674 -0.22337070977641754
12648144000.0 0.9727534551357295 -0.23184200551526551 -6.986271951641383e-17 4.0730678958326165e-17 -6.986271951641383e-17 4.0730678958326165e-17 0.9727536022769533 -0.2318413881451118
12648761333.333334 0.9706998745313008 -0.24029513849588668 -6.948852795005288e-17 4.1334960835459503e-17 -6.948852795005288e-17 4.1334960835459503e-17 0.9707000270299669 -0.24029452245913258
12649378666.666666 0.9685728384951177 -0.24873008770422622 -6.910911538767355e-17 4.1935814204318214e-17 -6.910911538767355e-17 4.1935814204318214e-17 0.9685729963391638 -0.2487294730473564
12649996000.0 0.9663725079856856 -0.25714621484536354 -6.872451316522725e-17 4.2533194006863615e-17 -6.872451316522725e-17 4.2533194006863615e-17 0.9663726711626461 -0.25714560161475386
12650613333.333334 0.964099049507896 -0.26554288304869456 -6.833475300706629e-17 4.3127055470805054e-17 -6.833475300706629e-17 4.3127055470805054e-17 0.9640992180049034 -0.26554227129060837
12651230666.666666 0.9617526351004586 -0.2739194569160161 -6.793986702334919e-17 4.371735411293635e-17 -6.793986702334919e-17 4.371735411293635e-17 0.9617528089042432 -0.27391884667660066
12651848000.0 0.9593334423228053 -0.28227530256988154 -6.753988770739894e-17 4.430404574247527e-17 -6.753988770739894e-17 4.430404574247527e-17 0.9593336214196978 -0.28227469389516496
12652465333.333334 0.9568416542417213 -0.2906097877013216 -6.713484793305696e-17 4.488708646434268e-17 -6.713484793305696e-17 4.488708646434268e-17 0.9568418386176533 -0.290609180637209
12653082666.666666 0.9542774594174968 -0.29892228161769396 -6.672478095199773e-17 4.5466432682435114e-17 -6.672478095199773e-17 4.5466432682435114e-17 0.9542776490580015 -0.29892167620996396
12653700000.0 0.9516410518895742 -0.30721215529068074 -6.630972039100157e-17 4.6042041102891685e-17 -6.630972039100157e-17 4.6042041102891685e-17 0.951641246779788 -0.3072115515849823
12654317333.333334 0.9489326311619802 -0.3154787814035089 -6.588970024923153e-17 4.661386873729109e-17 -6.588970024923153e-17 4.661386873729109e-17 0.9489328312866425 -0.3154781794453574
12654934666.666666 0.9461524021881456 -0.3237215343986914 -6.546475489545073e-17 4.7181872905869076e-17 -6.546475489545073e-17 4.7181872905869076e-17 0.9461526075316036 -0.3237209342334662
12655552000.0 0.9433005753553947 -0.3319397905253658 -6.503491906522537e-17 4.7746011240691974e-17 -6.503491906522537e-17 4.7746011240691974e-17 0.9433007859016008 -0.3319391921983058
12656169333.333334 0.9403773664691039 -0.3401329278862509 -6.460022785811285e-17 4.8306241688788004e-17 -6.460022785811285e-17 4.8306241688788004e-17 0.9403775822016193 -0.34013233144245175
12656786666.666666 0.9373829967362756 -0.3483003264850056 -6.416071673479602e-17 4.886252251529078e-17 -6.416071673479602e-17 4.886252251529078e-17 0.9373832176382689 -0.3482997319694154
12657404000.0 0.9343176927488763 -0.3564413682729013 -6.371642151421754e-17 4.941481230651936e-17 -6.371642151421754e-17 4.941481230651936e-17 0.9343179188031285 -0.35644077573031857
12658021333.333334 0.9311816864666179 -0.3645554371958077 -6.326737837066453e-17 4.9963069973063954e-17 -6.326737837066453e-17 4.9963069973063954e-17 0.9311819176555213 -0.364554846670877
12658638666.666666 0.9279752151994934 -0.3726419192405706 -6.281362383085077e-17 5.0507254752814504e-17 -6.281362383085077e-17 5.0507254752814504e-17 0.9279754515050527 -0.37264133077777956
12659256000.0 0.9246985215897038 -0.38070020248176734 -6.235519477094409e-17 5.1047326213998434e-17 -6.235519477094409e-17 5.1047326213998434e-17 0.9246987629935387 -0.38069961612544295
12659873333.333334 0.9213518535933914 -0.3887296771277745 -6.18921284135972e-17 5.1583244258156455e-17 -6.18921284135972e-17 5.1583244258156455e-17 0.9213521000767391 -0.38872909292208074
12660490666.666666 0.9179354644618799 -0.39672973556691427 -6.142446232493952e-17 5.2114969123107336e-17 -6.142446232493952e-17 5.2114969123107336e-17 0.9179357160055935 -0.39672915355584754
12661108000.0 0.9144496127223984 -0.40469977241369515 -6.095223441152913e-17 5.264246138590304e-17 -6.095223441152913e-17 5.264246138590304e-17 0.9144498693069496 -0.4046991926410814
12661725333.333334 0.9108945621586717 -0.41263918455425647 -6.047548291731524e-17 5.316568196571468e-17 -6.047548291731524e-17 5.316568196571468e-17 0.9108948237641544 -0.4126386070637485
12662342666.666666 0.9072705817908401 -0.42054737119229624 -5.999424642053838e-17 5.36845921267344e-17 -5.999424642053838e-17 5.36845921267344e-17 0.9072708483969685 -0.4205467960273692
12662960000.0 0.9035779458551535 -0.42842373389440286 -5.950856383062996e-17 5.41991534810217e-17 -5.950856383062996e-17 5.41991534810217e-17 0.9035782174412663 -0.4284231610983524
12663577333.333334 0.8998169337832109 -0.43626767663536725 -5.901847438507878e-17 5.4709327991332385e-17 -5.901847438507878e-17 5.4709327991332385e-17 0.8998172103282717 -0.436267106251305
12664194666.666666 0.8959878301808144 -0.4440786058432857 -5.85240176462745e-17 5.521507797391733e-17 -5.85240176462745e-17 5.521507797391733e-17 0.8959881116634142 -0.444078037914137
12664812000.0 0.8920909248064331 -0.45185593044447686 -5.802523349832777e-17 5.571636610129331e-17 -5.802523349832777e-17 5.571636610129331e-17 0.8920912112047908 -0.45185536501297696
12665429333.333334 0.8881265125492606 -0.4595990619082345 -5.752216214386459e-17 5.621315540498628e-17 -5.752216214386459e-17 5.621315540498628e-17 0.8881268038412257 -0.45959849901692557
12666046666.666666 0.8840948934069686 -0.4673074142912381 -5.70148441008076e-17 5.670540927823676e-17 -5.70148441008076e-17 5.670540927823676e-17 0.8840951895700216 -0.46730685398246574
12666664000.0 0.8799963724628579 -0.47498040428216887 -5.650332019910799e-17 5.71930914787017e-17 -5.650332019910799e-17 5.71930914787017e-17 0.8799966734741145 -0.4749798465980795
12667281333.333334 0.8758312598629598 -0.48261745124549926 -5.598763157749546e-17 5.767616613108726e-17 -5.598763157749546e-17 5.767616613108726e-17 0.8758315656991695 -0.4826168962280363
12667898666.666666 0.8715998707924185 -0.4902179772657069 -5.5467819680166314e-17 5.815459772979027e-17 -5.5467819680166314e-17 5.815459772979027e-17 0.8716001814299686 -0.49021742495660775
12668516000.0 0.867302525451692 -0.4977814071909057 -5.494392625346564e-17 5.862835114149449e-17 -5.494392625346564e-17 5.862835114149449e-17 0.8673028408666095 -0.4977808576316995
12669133333.333334 0.8629395490323672 -0.5053071686762968 -5.44159933425626e-17 5.909739160772308e-17 -5.44159933425626e-17 5.909739160772308e-17 0.8629398692003192 -0.5053066219083
12669750666.666666 0.8585112716924659 -0.5127946922276269 -5.3884063288072095e-17 5.956168474739045e-17 -5.3884063288072095e-17 5.956168474739045e-17 0.8585115965887617 -0.5127941482919404
12670368000.0 0.8540180285315011 -0.5202434112442075 -5.334817872267848e-17 6.002119655930264e-17 -5.334817872267848e-17 6.002119655930264e-17 0.8540183581310961 -0.5202428701817148
