! Parameters = {f0=12700.012000; bw=77.238000; Q=6100.000000; N=10; m_0_1=1.236531; m_1_1=-0.216773; m_1_2=1.071343; m_2_2=-0.217422; m_2_3=0.708306; m_2_8=-0.001110; m_2_9=0.035594; m_3_3=-0.219359; m_3_4=0.596835; m_3_7=-0.000510; m_3_8=-0.097598; m_3_9=-0.001110; m_4_4=-0.222284; m_4_5=0.433170; m_4_6=0.003007; m_4_7=-0.118147; m_4_8=-0.000510; m_5_5=-0.221902; m_5_6=0.840525; m_5_7=0.003007; m_6_6=-0.221903; m_6_7=0.433512; m_7_7=-0.222270; m_7_8=0.596953; m_8_8=-0.219361; m_8_9=0.708619; m_9_9=-0.217427; m_9_10=1.072421; m_10_10=-0.216783; m_10_11=1.237326}
!
! Created with skrf (http://scikit-rf.org).
# Hz S RI R 50.0 
!freq ReS11 ImS11 ReS21 ImS21 ReS12 ImS12 ReS22 ImS22
12607400000.0 -0.535593979902124 0.8444756294248142 2.578020067324977e-17 -9.060713324357536e-17 2.578020067324977e-17 -9.060713324357536e-17 -0.5355945301099827 0.8444752804647976
12608017333.333334 -0.5275189277842431 0.8495432777847136 2.4902301009353627e-17 -9.083320473970292e-17 2.4902301009353627e-17 -9.083320473970292e-17 -0.5275194812667666 0.8495429341027291
12608634666.666666 -0.5193959307778782 0.8545337132560744 2.402243929326841e-17 -9.105077681199218e-17 2.402243929326841e-17 -9.105077681199218e-17 -0.5193964874844431 0.8545333748828393
12609252000.0 -0.5112257271621223 0.8594464822706487 2.3140697749175346e-17 -9.125983264704081e-17 2.3140697749175346e-17 -9.125983264704081e-17 -0.5112262870418177 0.8594461492363954
12609869333.333334 -0.5030090595066088 0.8642811383190719 2.2257158743042882e-17 -9.14603562262844e-17 2.2257158743042882e-17 -9.14603562262844e-17 -0.5030096225082407 0.8642808106535452
12610486666.666666 -0.4947466746040696 0.8690372419914167 2.137190477495415e-17 -9.165233232716604e-17 2.137190477495415e-17 -9.165233232716604e-17 -0.49474724067616493 0.8690369197238706
12611104000.0 -0.4864393234021175 0.8737143610173311 2.04850184714068e-17 -9.183574652423563e-17 2.04850184714068e-17 -9.183574652423563e-17 -0.48643989249292946 0.8737140441765258
12611721333.333334 -0.4780877609354866 0.8783120703050407 1.9596582577646133e-17 -9.201058519016708e-17 1.9596582577646133e-17 -9.201058519016708e-17 -0.4780883329929986 0.8783117589192396
12612338666.666666 -0.4696927462570888 0.8828299519801689 1.8706679949927393e-17 -9.21768354967139e-17 1.8706679949927393e-17 -9.21768354967139e-17 -0.4696933212290202 0.8828296460771383
12612956000.0 -0.46125504236894865 0.887267595423755 1.781539354782304e-17 -9.233448541557913e-17 1.781539354782304e-17 -9.233448541557913e-17 -0.461255620202759 0.8872672950307596
12613573333.333334 -0.45277541615323214 0.8916245973093725 1.6922806426508018e-17 -9.248352371921545e-17 1.6922806426508018e-17 -9.248352371921545e-17 -0.4527759967961258 0.8916243024531733
12614190666.666666 -0.4442546383022206 0.8959005616399608 1.6029001729028426e-17 -9.262393998155147e-17 1.6029001729028426e-17 -9.262393998155147e-17 -0.4442552217011518 0.8959002723468127
12614808000.0 -0.4356934832483136 0.900095099783787 1.5134062678578515e-17 -9.27557245786425e-17 1.5134062678578515e-17 -9.27557245786425e-17 -0.43569406934999183 0.9000948160794382
12615425333.333334 -0.42709272909377005 0.904207830509706 1.4238072570757187e-17 -9.28788686892483e-17 1.4238072570757187e-17 -9.28788686892483e-17 -0.42709331784466403 0.9042075524193932
12616042666.666666 -0.418453157539887 0.9082383800218599 1.3341114765847426e-17 -9.299336429533278e-17 1.3341114765847426e-17 -9.299336429533278e-17 -0.4184537488862298 0.9082381075703072
12616660000.0 -0.40977555381600356 0.9121863819936259 1.2443272681068907e-17 -9.309920418249295e-17 1.2443272681068907e-17 -9.309920418249295e-17 -0.409776147703798 0.912186115205043
12617277333.333334 -0.40106070660800386 0.9160514776009706 1.1544629782825772e-17 -9.319638194031343e-17 1.1544629782825772e-17 -9.319638194031343e-17 -0.40106130298302695 0.9160512164990502
12617894666.666666 -0.39230940798692165 0.9198333155549354 1.0645269578992505e-17 -9.328489196264086e-17 1.0645269578992505e-17 -9.328489196264086e-17 -0.3923100067947291 0.9198330601628495
12618512000.0 -0.3835224533365849 0.9235315521337212 9.745275611132842e-18 -9.336472944779262e-17 9.745275611132842e-18 -9.336472944779262e-17 -0.38352305452251784 0.9235313024741234
12619129333.333334 -0.37470064128161457 0.92714585121381 8.844731446784913e-18 -9.343589039868331e-17 8.844731446784913e-18 -9.343589039868331e-17 -0.3747012447908023 0.9271456073088282
12619746666.666666 -0.3658447736147331 0.9306758843005535 7.943720671707055e-18 -9.349837162288024e-17 7.943720671707055e-18 -9.349837162288024e-17 -0.3658453793920997 0.9306756461717924
12620364000.0 -0.35695565522381395 0.9341213305580658 7.042326882127816e-18 -9.355217073258506e-17 7.042326882127816e-18 -9.355217073258506e-17 -0.3569562632140823 0.9341210982266012
12620981333.333334 -0.3480340940188836 0.9374818768383141 6.140633677021807e-18 -9.359728614453874e-17 6.140633677021807e-18 -9.359728614453874e-17 -0.34803470416658155 0.9374816503246945
12621598666.666666 -0.3390809008585894 0.9407572177096284 5.238724650364438e-18 -9.363371707985335e-17 5.238724650364438e-18 -9.363371707985335e-17 -0.33908151310805357 0.9407569970338706
12622216000.0 -0.3300968894765537 0.9439470554844364 4.336683383390154e-18 -9.366146356377026e-17 4.336683383390154e-18 -9.366146356377026e-17 -0.33009750377193525 0.9439468406660249
12622833333.333334 -0.3210828764072829 0.9470511002463694 3.4345934368761426e-18 -9.368052642534223e-17 3.4345934368761426e-18 -9.368052642534223e-17 -0.321083492692553 0.9470508913042553
12623450666.666666 -0.31203968091222223 0.9500690698765176 2.5325383434203373e-18 -9.369090729704239e-17 2.5325383434203373e-18 -9.369090729704239e-17 -0.31204029913117626 0.9500688668291151
12624068000.0 -0.30296812490508146 0.9530006900791471 1.6306015997010638e-18 -9.369260861429953e-17 1.6306015997010638e-18 -9.369260861429953e-17 -0.3029687450013447 0.9530004929443336
12624685333.333334 -0.2938690328770236 0.9558456944066631 7.288666587776505e-19 -9.368563361495762e-17 7.288666587776505e-19 -9.368563361495762e-17 -0.2938696547940558 0.9558455032017753
12625302666.666666 -0.28474323182216127 0.9586038242836834 -1.7258307759656503e-19 -9.366998633866313e-17 -1.7258307759656503e-19 -9.366998633866313e-17 -0.2847438555032631 0.9586036390255201
12625920000.0 -0.2755915511619074 0.9612748290307025 -1.073664266720065e-18 -9.364567162617678e-17 -1.073664266720065e-18 -9.364567162617678e-17 -0.27559217655022406 0.9612746497355182
12626537333.333334 -0.2664148226698881 0.963858465886774 -1.974293632579304e-18 -9.361269511861292e-17 -1.974293632579304e-18 -9.361269511861292e-17 -0.2664154497084152 0.96385829257028
12627154666.666666 -0.25721388039634574 0.9663545000315813 -2.8743879735529243e-18 -9.357106325660448e-17 -2.8743879735529243e-18 -9.357106325660448e-17 -0.2572145090279351 0.9663543327089457
12627772000.0 -0.24798956059208876 0.968762704606848 -3.7738641701060185e-18 -9.352078327939291e-17 -3.7738641701060185e-18 -9.352078327939291e-17 -0.24799019075945253 0.9687625432926912
12628389333.333334 -0.23874270163278738 0.971082860736874 -4.672639192396716e-18 -9.346186322384833e-17 -4.672639192396716e-18 -9.346186322384833e-17 -0.2387433332785037 0.9710827054452685
12629006666.666666 -0.22947414394252832 0.9733147575484908 -5.570630107972484e-18 -9.339431192341148e-17 -5.570630107972484e-18 -9.339431192341148e-17 -0.22947477700904684 0.9733146082929616
12629624000.0 -0.2201847299176517 0.9754581921901746 -6.467754089385311e-18 -9.331813900696584e-17 -6.467754089385311e-18 -9.331813900696584e-17 -0.2201853643472986 0.9754580489836968
12630241333.333334 -0.2108753038499391 0.9775129698505431 -7.363928421815497e-18 -9.323335489763578e-17 -7.363928421815497e-18 -9.323335489763578e-17 -0.21087593958492212 0.9775128327055402
12630858666.666666 -0.20154671185021 0.9794789037759833 -8.259070510674062e-18 -9.313997081151214e-17 -8.259070510674062e-18 -9.313997081151214e-17 -0.20154734883262385 0.9794787727043264
12631476000.0 -0.19219980177100454 0.9813558152877173 -9.153097889236055e-18 -9.303799875630065e-17 -9.153097889236055e-18 -9.303799875630065e-17 -0.1922004399428365 0.9813556903007254
12632093333.333334 -0.18283542312994158 0.9831435337979537 -1.0045928226171723e-17 -9.292745152990617e-17 -1.0045928226171723e-17 -9.292745152990617e-17 -0.1828360624330764 0.9831434149063915
12632710666.666666 -0.17345442703223007 0.9848418968254516 -1.0937479333136367e-17 -9.280834271893751e-17 -1.0937479333136367e-17 -9.280834271893751e-17 -0.17345506740845526 0.9848417840395285
12633328000.0 -0.16405766609334116 0.9864507500102779 -1.1827669172341123e-17 -9.268068669713857e-17 -1.1827669172341123e-17 -9.268068669713857e-17 -0.1640583074843524 0.9864506433396466
12633945333.333334 -0.15464599436168397 0.9879699471278061 -1.271641586404371e-17 -9.254449862375603e-17 -1.271641586404371e-17 -9.254449862375603e-17 -0.15464663670909062 0.9879698465815642
12634562666.666666 -0.14522026724075984 0.9893993501020479 -1.360363769409803e-17 -9.239979444182506e-17 -1.360363769409803e-17 -9.239979444182506e-17 -0.14522091048608995 0.9893992556887358
12635180000.0 -0.1357813414116127 0.990738829018171 -1.4489253121430156e-17 -9.22465908763903e-17 -1.4489253121430156e-17 -9.22465908763903e-17 -0.13578198549631829 0.9907387407457685
12635797333.333334 -0.126330074754855 0.9919882621343191 -1.5373180785526968e-17 -9.208490543265096e-17 -1.5373180785526968e-17 -9.208490543265096e-17 -0.12633071962031767 0.9919881800102487
12636414666.666666 -0.11686732627272553 0.9931475358926781 -1.625533951389212e-17 -9.191475639403675e-17 -1.625533951389212e-17 -9.191475639403675e-17 -0.11686797186026165 0.9931474599238029
12637032000.0 -0.10739395601101673 0.9942165449297942 -1.713564832948413e-17 -9.173616282021141e-17 -1.713564832948413e-17 -9.173616282021141e-17 -0.10739460226188281 0.9942164751224178
12637649333.333334 -0.09791082498093538 0.9951951920861483 -1.8014026458130995e-17 -9.154914454500591e-17 -1.8014026458130995e-17 -9.154914454500591e-17 -0.09791147183633335 0.995195128446013
12638266666.666666 -0.0884187950807346 0.9960833884149983 -1.8890393335936214e-17 -9.135372217427911e-17 -1.8890393335936214e-17 -9.135372217427911e-17 -0.08841944248181709 0.9960833309472846
12638884000.0 -0.0789187290175472 0.9968810531904438 -1.9764668616636248e-17 -9.114991708371162e-17 -1.9764668616636248e-17 -9.114991708371162e-17 -0.07891937690542315 0.996881001899772
12639501333.333334 -0.06941149022886388 0.9975881139147773 -2.063677217896116e-17 -9.093775141652506e-17 -2.063677217896116e-17 -9.093775141652506e-17 -0.06941213854460361 0.9975880688052046
12640118666.666666 -0.05989794280414201 0.9982045063250647 -2.1506624133953426e-17 -9.071724808113532e-17 -2.1506624133953426e-17 -9.071724808113532e-17 -0.05989859148878288 0.9982044674000877
12640736000.0 -0.05037895140598738 0.9987301743990051 -2.2374144832295573e-17 -9.048843074872613e-17 -2.2374144832295573e-17 -9.048843074872613e-17 -0.050379600400538904 0.9987301416615579
12641353333.333334 -0.0408553811921628 0.9991650703599873 -2.323925487153356e-17 -9.02513238507753e-17 -2.323925487153356e-17 -9.02513238507753e-17 -0.040856030437612025 0.9991650438124395
12641970666.666666 -0.03132809773627493 0.9995091546814674 -2.4101875103389674e-17 -9.000595257648046e-17 -2.4101875103389674e-17 -9.000595257648046e-17 -0.03132874717359195 0.9995091343256279
12642588000.0 -0.02179796694955874 0.9997623960905415 -2.4961926640946585e-17 -8.975234287014265e-17 -2.4961926640946585e-17 -8.975234287014265e-17 -0.02179861651970195 0.9997623819276558
12643205333.333334 -0.012265855002063359 0.9999247715707932 -2.581933086585572e-17 -8.94905214284682e-17 -2.581933086585572e-17 -8.94905214284682e-17 -0.012266504645984853 0.9999247636015436
12643822666.666666 -0.002732628243729127 0.9999962663643883 -2.6674009435525458e-17 -8.922051569779887e-17 -2.6674009435525458e-17 -8.922051569779887e-17 -0.0027332779023800527 0.999996264588894
12644440000.0 0.00680084687404025 0.999976873973409 -2.7525884290232642e-17 -8.894235387128801e-17 -2.7525884290232642e-17 -8.894235387128801e-17 0.006800197259704314 0.9999768783912267
12645057333.333334 0.016333703877269356 0.99986659616045 -2.837487766025875e-17 -8.865606488599356e-17 -2.837487766025875e-17 -8.865606488599356e-17 0.016333054366283052 0.9998666067705743
12645674666.666666 0.02586507634810595 0.9996654429484599 -2.922091207295554e-17 -8.836167841991465e-17 -2.922091207295554e-17 -8.836167841991465e-17 0.02586442699948875 0.9996654597493212
12646292000.0 0.035394098003880096 0.9993734326198215 -3.00639103598236e-17 -8.805922488894807e-17 -3.00639103598236e-17 -8.805922488894807e-17 0.03539344887663098 0.999373455609289
12646909333.333334 0.044919902775298615 0.9989905917147027 -3.090379566350957e-17 -8.774873544379349e-17 -3.090379566350957e-17 -8.774873544379349e-17 0.0449192539283906 0.9989906208900816
12647526666.666666 0.054441624885529276 0.9985169550286351 -3.174049144480708e-17 -8.74302419667807e-17 -3.174049144480708e-17 -8.74302419667807e-17 0.05444097637790424 0.9985169903866705
12648144000.0 0.0639583989289459 0.9979525656093481 -3.257392148962027e-17 -8.710377706863147e-17 -3.257392148962027e-17 -8.710377706863147e-17 0.06395775081950907 0.9979526071462228
12648761333.333334 0.07346935994949884 0.9972974747528667 -3.340400991588735e-17 -8.676937408515843e-17 -3.340400991588735e-17 -8.676937408515843e-17 0.07346871229711359 0.9972975224642031
12649378666.666666 0.08297364351941432 0.9965517419988515 -3.42306811804581e-17 -8.642706707390258e-17 -3.42306811804581e-17 -8.642706707390258e-17 0.08297299638289668 0.9965517958797112
12649996000.0 0.09247038581798665 0.9957154351251696 -3.505386008597217e-17 -8.607689081069247e-17 -3.505386008597217e-17 -8.607689081069247e-17 0.09246973925610003 0.9957154951700526
12650613333.333334 0.10195872370983362 0.9947886301417485 -3.5873471787682646e-17 -8.571888078614526e-17 -3.5873471787682646e-17 -8.571888078614526e-17 0.10195807778128334 0.9947886963445952
12651230666.666666 0.11143779482331656 0.9937714112836766 -3.6689441800220165e-17 -8.535307320211362e-17 -3.6689441800220165e-17 -8.535307320211362e-17 0.11143714958674496 0.9937714836378712
12651848000.0 0.12090673762928712 0.992663871003511 -3.7501696004377084e-17 -8.497950496804448e-17 -3.7501696004377084e-17 -8.497950496804448e-17 0.12090609314326778 0.9926639495018771
12652465333.333334 0.13036469151896526 0.991466109962917 -3.831016065380899e-17 -8.459821369729378e-17 -3.831016065380899e-17 -8.459821369729378e-17 0.1303640478419977 0.9914661945977199
12653082666.666666 0.1398107968822426 0.9901782370235098 -3.911476238169914e-17 -8.420923770337704e-17 -3.911476238169914e-17 -8.420923770337704e-17 0.13981015407274727 0.9901783277864593
12653700000.0 0.1492441951861771 0.9888003692369173 -3.9915428207430924e-17 -8.38126159961367e-17 -3.9915428207430924e-17 -8.38126159961367e-17 0.14924355330248984 0.9888004661191665
12654317333.333334 0.15866402905245922 0.9873326318342132 -4.071208554316442e-17 -8.340838827787247e-17 -4.071208554316442e-17 -8.340838827787247e-17 0.15866338815282607 0.9873327348263602
12654934666.666666 0.16806944233570337 0.9857751582144884 -4.15046622004076e-17 -8.299659493939383e-17 -4.15046622004076e-17 -8.299659493939383e-17 0.1680688024782753 0.9857752673065767
12655552000.0 0.17745958020134422 0.9841280899327065 -4.2293086396559477e-17 -8.257727705600379e-17 -4.2293086396559477e-17 -8.257727705600379e-17 0.1774589414441717 0.9841282051142263
12656169333.333334 0.1868335892029099 0.9823915766869097 -4.307728676135699e-17 -8.215047638345011e-17 -4.307728676135699e-17 -8.215047638345011e-17 0.18683295160393787 0.9823916979467988
12656786666.666666 0.19619061735995474 0.9805657763045545 -4.385719234334915e-17 -8.171623535377998e-17 -4.385719234334915e-17 -8.171623535377998e-17 0.1961899809770172 0.9805659036312001
12657404000.0 0.20552981423543643 0.9786508547281716 -4.463273261629473e-17 -8.127459707115179e-17 -4.463273261629473e-17 -8.127459707115179e-17 0.2055291791262511 0.9786509881094093
12658021333.333334 0.21485033101289883 0.9766469860003061 -4.540383748551346e-17 -8.082560530758892e-17 -4.540383748551346e-17 -8.082560530758892e-17 0.21484969723506225 0.9766471254234236
12658638666.666666 0.2241513205735638 0.9745543522477138 -4.6170437294199787e-17 -8.036930449867139e-17 -4.6170437294199787e-17 -8.036930449867139e-17 0.2241506881845458 0.9745544976994508
12659256000.0 0.2334319375736846 0.9723731436647298 -4.6932462829727865e-17 -7.990573973914801e-17 -4.6932462829727865e-17 -7.990573973914801e-17 0.23343130663082315 0.9723732951312786
12659873333.333334 0.24269133852096036 0.9701035584960709 -4.768984532984869e-17 -7.943495677852553e-17 -4.768984532984869e-17 -7.943495677852553e-17 0.24269070908145632 0.9701037159630789
12660490666.666666 0.2519286818513104 0.9677458030187966 -4.8442516488884814e-17 -7.895700201657601e-17 -4.8442516488884814e-17 -7.895700201657601e-17 0.2519280539722228 0.9677459664713685
12661108000.0 0.2611431280055837 0.9653000915235083 -4.919040846390235e-17 -7.84719224987715e-17 -4.919040846390235e-17 -7.84719224987715e-17 0.26114250174382386 0.9653002609462047
12661725333.333334 0.27033383950558676 0.9627666462949377 -4.9933453880763894e-17 -7.797976591170623e-17 -4.9933453880763894e-17 -7.797976591170623e-17 0.27033321491791373 0.9627668216717793
12662342666.666666 0.27949998103033913 0.9601456975917112 -5.067158584021164e-17 -7.748058057841393e-17 -5.067158584021164e-17 -7.748058057841393e-17 0.2794993581733539 0.960145878906178
12662960000.0 0.2886407194919383 0.957437483625438 -5.1404737923868534e-17 -7.697441545365077e-17 -5.1404737923868534e-17 -7.697441545365077e-17 0.2886400984220793 0.9574376708604725
12663577333.333334 0.2977552241113856 0.9546422505390242 -5.2132844200186046e-17 -7.646132011912572e-17 -5.2132844200186046e-17 -7.646132011912572e-17 0.29775460488492334 0.954642443677033
12664194666.666666 0.3068426664939309 0.9517602523843532 -5.285583923036232e-17 -7.594134477866375e-17 -5.285583923036232e-17 -7.594134477866375e-17 0.30684204916696317 0.9517604514072086
12664812000.0 0.3159022207044452 0.9487917510991724 -5.3573658074212076e-17 -7.541454025331255e-17 -5.3573658074212076e-17 -7.541454025331255e-17 0.31590160533289097 0.9487919559882115
12665429333.333334 0.32493306334259486 0.9457370164832458 -5.4286236295970884e-17 -7.488095797640638e-17 -5.4286236295970884e-17 -7.488095797640638e-17 0.32493244998219056 0.9457372272192763
12666046666.666666 0.3339343736173828 0.9425963261739359 -5.499350997005747e-17 -7.434064998857139e-17 -5.499350997005747e-17 -7.434064998857139e-17 0.33393376232367633 0.942596542737235
12666664000.0 0.34290533342212404 0.9393699656208391 -5.569541568681953e-17 -7.379366893265022e-17 -5.569541568681953e-17 -7.379366893265022e-17 0.34290472425047036 0.9393701879911575
12667281333.333334 0.35184512740850643 0.9360582280599454 -5.639189055815686e-17 -7.32400680486297e-17 -5.639189055815686e-17 -7.32400680486297e-17 0.3518445204140624 0.936058456216508
12667898666.666666 0.3607529430608041 0.9326614144869525 -5.708287222317501e-17 -7.2679901168452e-17 -5.708287222317501e-17 -7.2679901168452e-17 0.3607523382985224 0.9326616484084581
12668516000.0 0.3696279707698015 0.9291798336298699 -5.776829885373595e-17 -7.211322271081333e-17 -5.776829885373595e-17 -7.211322271081333e-17 0.36962736829442766 0.9291800732944985
12669133333.333334 0.378469403906221 0.9256138019210305 -5.844810915995994e-17 -7.154008767590975e-17 -5.844810915995994e-17 -7.154008767590975e-17 0.3784688037722868 0.9256140473064401
12669750666.666666 0.38727643889413893 0.921963643468282 -5.912224239571385e-17 -7.096055164009889e-17 -5.912224239571385e-17 -7.096055164009889e-17 0.3872758411559582 0.9219638945516136
12670368000.0 0.39604827528399555 0.9182296900255442 -5.979063836400018e-17 -7.037467075054887e-17 -5.979063836400018e-17 -7.037467075054887e-17 0.39604767999565943 0.9182299467834242
