! Parameters = {f0=12700.012000; bw=77.238000; Q=6100.000000; N=10; m_0_1=1.166662; m_1_1=-1.264821; m_1_2=1.001474; m_2_2=-1.265470; m_2_3=0.638437; m_2_8=-0.004603; m_2_9=0.032101; m_3_3=-1.267407; m_3_4=0.526966; m_3_7=-0.004003; m_3_8=-0.101091; m_3_9=-0.004603; m_4_4=-1.270332; m_4_5=0.363301; m_4_6=-0.000486; m_4_7=-0.121640; m_4_8=-0.004003; m_5_5=-1.269950; m_5_6=0.770656; m_5_7=-0.000486; m_6_6=-1.269951; m_6_7=0.363643; m_7_7=-1.270318; m_7_8=0.527084; m_8_8=-1.267409; m_8_9=0.638750; m_9_9=-1.265475; m_9_10=1.002552; m_10_10=-1.264831; m_10_11=1.167457}
!
! Created with skrf (http://scikit-rf.org).
# Hz S RI R 50.0 
!freq ReS11 ImS11 ReS21 ImS21 ReS12 ImS12 ReS22 ImS22
12607400000.0 0.9342392177036433 0.35664700209638134 -6.59453189130614e-17 -5.065780049046001e-18 -6.59453189130614e-17 -5.065780049046001e-18 0.9342389984220666 0.3566475765054131
12608017333.333334 0.9368765790543429 0.3496602288211849 -6.596879153928073e-17 -4.566417707231937e-18 -6.596879153928073e-17 -4.566417707231937e-18 0.936876364079053 0.3496608048235669
12608634666.666666 0.939461690164446 0.34265395476079635 -6.598848678339736e-17 -4.066990136907704e-18 -6.598848678339736e-17 -4.066990136907704e-18 0.9394614795070099 0.34265453232425014
12609252000.0 0.9419944068606052 0.33562857065987034 -6.600440500059841e-17 -3.567525881740961e-18 -6.600440500059841e-17 -3.567525881740961e-18 0.941994200532348 0.33562914975203334
12609869333.333334 0.9444745878915547 0.3285844683288141 -6.601654676153402e-17 -3.0680534763035242e-18 -6.601654676153402e-17 -3.0680534763035242e-18 0.9444743859035588 0.328585048917242
12610486666.666666 0.946902094935949 0.3215220406220429 -6.60249128521998e-17 -2.568601444463534e-18 -6.60249128521998e-17 -2.568601444463534e-18 0.9469018972990535 0.3215226226742107
12611104000.0 0.9492767926101449 0.31444168141588275 -6.602950427380799e-17 -2.069198297739462e-18 -6.602950427380799e-17 -2.069198297739462e-18 0.949276599334946 0.31444226489918753
12611721333.333334 0.9515985484756767 0.30734378558681874 -6.60303222426458e-17 -1.5698725337042724e-18 -6.60303222426458e-17 -1.5698725337042724e-18 0.9515983595725258 0.30734437046858054
12612338666.666666 0.9538672330466987 0.3002287489893107 -6.602736818992181e-17 -1.0706526343459449e-18 -6.602736818992181e-17 -1.0706526343459449e-18 0.9538670485257024 0.3002293352367749
12612956000.0 0.9560827197972113 0.29309696843368865 -6.602064376160022e-17 -5.715670644483076e-19 -6.602064376160022e-17 -5.715670644483076e-19 0.956082539668231 0.2930975560140279
12613573333.333334 0.9582448851680426 0.28594884166426676 -6.601015081822265e-17 -7.26442699884983e-20 -6.601015081822265e-17 -7.26442699884983e-20 0.9582447094406936 0.28594943054458233
12614190666.666666 0.9603536085738248 0.27878476733688934 -6.599589143471817e-17 4.2608732349015487e-19 -6.599589143471817e-17 4.2608732349015487e-19 0.9603534372574767 0.27878535748421346
12614808000.0 0.9624087724096836 0.27160514499680605 -6.597786790020067e-17 9.245993124940563e-19 -6.597786790020067e-17 9.245993124940563e-19 0.962408605513458 0.27160573637810326
12615425333.333334 0.9644102620577762 0.2644103750564716 -6.595608271775464e-17 1.4228633171858785e-18 -6.595608271775464e-17 1.4228633171858785e-18 0.9644100995905468 0.2644109676386407
12616042666.666666 0.9663579658937248 0.2572008587730486 -6.593053860420824e-17 1.9208509829966162e-18 -6.593053860420824e-17 1.9208509829966162e-18 0.9663578078641203 0.25720145252292537
12616660000.0 0.9682517752928208 0.2499769982261417 -6.590123848989495e-17 2.4185339822337032e-18 -6.590123848989495e-17 2.4185339822337032e-18 0.9682516217092189 0.2499775931104994
12617277333.333334 0.9700915846360869 0.24273919629531526 -6.586818551840223e-17 2.915884015688822e-18 -6.586818551840223e-17 2.915884015688822e-18 0.9700914355066188 0.24273979228086773
12617894666.666666 0.9718772913161426 0.23548785663776503 -6.583138304630962e-17 3.4128728142341266e-18 -6.583138304630962e-17 3.4128728142341266e-18 0.9718771466486871 0.23548845369116714
12618512000.0 0.9736087957429929 0.2282233836655 -6.57908346429125e-17 3.909472140434802e-18 -6.57908346429125e-17 3.909472140434802e-18 0.9736086555451821 0.22822398175335096
12619129333.333334 0.9752860013495009 0.22094618252314852 -6.574654408993608e-17 4.40565379014238e-18 -6.574654408993608e-17 4.40565379014238e-18 0.9752858656287157 0.220946781611993
12619746666.666666 0.9769088145968124 0.21365665906519737 -6.569851538123655e-17 4.901389594083645e-18 -6.569851538123655e-17 4.901389594083645e-18 0.9769086833601834 0.21365725912152736
12620364000.0 0.9784771449796094 0.20635521983319005 -6.564675272248892e-17 5.396651419474974e-18 -6.564675272248892e-17 5.396651419474974e-18 0.9784770182340164 0.20635582082344703
12620981333.333334 0.9799909050310759 0.19904227203341432 -6.559126053086589e-17 5.891411171587243e-18 -6.559126053086589e-17 5.891411171587243e-18 0.9799907827831489 0.19904287392399106
12621598666.666666 0.981450010327847 0.19171822351388734 -6.553204343470158e-17 6.385640795354663e-18 -6.553204343470158e-17 6.385640795354663e-18 0.9814498925839625 0.19171882627112938
12622216000.0 0.9828543794946867 0.1843834827417196 -6.54691062731455e-17 6.879312276950832e-18 -6.54691062731455e-17 6.879312276950832e-18 0.9828542662609707 0.18438408633192763
12622833333.333334 0.9842039342090211 0.17703845878039132 -6.540245409580336e-17 7.372397645374867e-18 -6.540245409580336e-17 7.372397645374867e-18 0.9842038254913472 0.17703906316982293
12623450666.666666 0.9854985992053154 0.16968356126688244 -6.533209216236769e-17 7.864868974023354e-18 -6.533209216236769e-17 7.864868974023354e-18 0.9854984950093052 0.16968416642175388
12624068000.0 0.9867383022792782 0.1623192003887993 -6.525802594223406e-17 8.356698382277698e-18 -6.525802594223406e-17 8.356698382277698e-18 0.9867382026102992 0.1623198062752874
12624685333.333334 0.9879229742918929 0.1549457868614415 -6.51802611141073e-17 8.847858037071468e-18 -6.51802611141073e-17 8.847858037071468e-18 0.987922879155061 0.15494639344568562
12625302666.666666 0.9890525491732324 0.14756373190517677 -6.509880356559734e-17 9.338320154452738e-18 -6.509880356559734e-17 9.338320154452738e-18 0.9890524585734102 0.14756433915328077
12625920000.0 0.9901269639262074 0.14017344722208586 -6.50136593927977e-17 9.828057001170554e-18 -6.50136593927977e-17 9.828057001170554e-18 0.9901268778680036 0.14017405510011985
12626537333.333334 0.9911461586300218 0.1327753449733952 -6.492483489986019e-17 1.0317040896213674e-17 -6.492483489986019e-17 1.0317040896213674e-17 0.9911460771177911 0.13277595344739734
12627154666.666666 0.992110076443543 0.12536983775629315 -6.483233659855206e-17 1.0805244212380802e-17 -6.483233659855206e-17 1.0805244212380802e-17 0.992109999481387 0.12537044679227194
12627772000.0 0.9930186636084798 0.11795733858086335 -6.473617120780115e-17 1.1292639377847055e-17 -6.473617120780115e-17 1.1292639377847055e-17 0.9930185912002457 0.11795794814479911
12628389333.333334 0.9938718694523505 0.11053826084727587 -6.463634565323564e-17 1.1779198877691716e-17 -6.463634565323564e-17 1.1779198877691716e-17 0.9938718016016312 0.11053887090512288
12629006666.666666 0.9946696463913491 0.10311301832242176 -6.453286706670435e-17 1.2264895255466294e-17 -6.453286706670435e-17 1.2264895255466294e-17 0.9946695831014818 0.1031136288401099
12629624000.0 0.9954119499329604 0.09568202511711857 -6.442574278579095e-17 1.2749701114729243e-17 -6.442574278579095e-17 1.2749701114729243e-17 0.9954118912070293 0.09568263606055565
12630241333.333334 0.9960987386784658 0.08824569566284617 -6.431498035331385e-17 1.3233589120589451e-17 -6.431498035331385e-17 1.3233589120589451e-17 0.9960986845193001 0.08824630699791954
12630858666.666666 0.9967299743252379 0.08080444468877518 -6.420058751681778e-17 1.3716532001232935e-17 -6.420058751681778e-17 1.3716532001232935e-17 0.996729924735411 0.08080505638135359
12631476000.0 0.997305621668891 0.07335868719843859 -6.408257222804671e-17 1.4198502549474314e-17 -6.408257222804671e-17 1.4198502549474314e-17 0.9973055766507213 0.07335929921437423
12632093333.333334 0.9978256486052296 0.06590883844678522 -6.39609426424161e-17 1.4679473624260534e-17 -6.39609426424161e-17 1.4679473624260534e-17 0.9978256081607807 0.06590945075191561
12632710666.666666 0.998290026132046 0.058455313916964284 -6.383570711846511e-17 1.515941815220463e-17 -6.383570711846511e-17 1.515941815220463e-17 0.9982899902631268 0.05845592647711417
12633328000.0 0.998698728350746 0.05099852929698306 -6.370687421729757e-17 1.563830912911499e-17 -6.370687421729757e-17 1.563830912911499e-17 0.9986986970589092 0.05099914207796628
12633945333.333334 0.9990517324677785 0.04353890045675072 -6.357445270202005e-17 1.611611962148578e-17 -6.357445270202005e-17 1.611611962148578e-17 0.9990517057543221 0.043539513424372164
12634562666.666666 0.9993490187959111 0.036076843424856765 -6.3438451537158e-17 1.6592822768026092e-17 -6.3438451537158e-17 1.6592822768026092e-17 0.9993489966618777 0.03607745654491427
12635180000.0 0.9995905707553352 0.028612774365226835 -6.329887988806752e-17 1.7068391781155448e-17 -6.329887988806752e-17 1.7068391781155448e-17 0.999590553201511 0.02861338760351303
12635797333.333334 0.9997763748745834 0.021147109553998043 -6.315574712033294e-17 1.754279994850719e-17 -6.315574712033294e-17 1.754279994850719e-17 0.9997763619014998 0.021147722876302323
12636414666.666666 0.999906420791281 0.013680265356388284 -6.300906279915633e-17 1.801602063441623e-17 -6.300906279915633e-17 1.801602063441623e-17 0.9999064123992145 0.01368087872849873
12637032000.0 0.9999807012527296 0.006212658203304832 -6.285883668873035e-17 1.8488027281419684e-17 -6.285883668873035e-17 1.8488027281419684e-17 0.9999806974416995 0.006213271591010055
12637649333.333334 0.9999992121163052 -0.0012552954317667287 -6.27050787516054e-17 1.8958793411734643e-17 -6.27050787516054e-17 1.8958793411734643e-17 0.9999992128860771 -0.00125468206267562
12638266666.666666 0.9999619523496924 -0.008723179056046283 -6.254779914804251e-17 1.942829262874144e-17 -6.254779914804251e-17 1.942829262874144e-17 0.9999619576997754 -0.008722565739773806
12638884000.0 0.9998689240309417 -0.016190576180573592 -6.23870082353586e-17 1.9896498618451206e-17 -6.23870082353586e-17 1.9896498618451206e-17 0.9998689339605898 -0.016189962951317978
12639501333.333334 0.9997201323483528 -0.02365707034363513 -6.222271656725439e-17 2.0363385150987457e-17 -6.222271656725439e-17 2.0363385150987457e-17 0.9997201468565654 -0.02365645723558642
12640118666.666666 0.9995155856001886 -0.031122245133706226 -6.205493489314134e-17 2.0828926082032383e-17 -6.205493489314134e-17 2.0828926082032383e-17 0.9995156046857095 -0.031121632181044367
12640736000.0 0.9992552951942032 -0.0385856842131577 -6.188367415744148e-17 2.1293095354315187e-17 -6.188367415744148e-17 2.1293095354315187e-17 0.9992553188555197 -0.038585071450050606
12641353333.333334 0.9989392756470197 -0.04604697134079336 -6.17089454989013e-17 2.1755866999022816e-17 -6.17089454989013e-17 2.1755866999022816e-17 0.9989393038823652 -0.046046358801395036
12641970666.666666 0.9985675445833069 -0.05350569039566063 -6.153076024986735e-17 2.2217215137284132e-17 -6.153076024986735e-17 2.2217215137284132e-17 0.9985675773906617 -0.053505078114109365
12642588000.0 0.9981401227348051 -0.06096142540000241 -6.134912993557009e-17 2.2677113981593962e-17 -6.134912993557009e-17 2.2677113981593962e-17 0.9981401601118913 -0.060960813410418625
12643205333.333334 0.9976570339391704 -0.06841376054237103 -6.116406627338963e-17 2.3135537837252428e-17 -6.116406627338963e-17 2.3135537837252428e-17 0.9976570758834579 -0.06841314887885563
12643822666.666666 0.9971183051386339 -0.0758622802011023 -6.097558117211186e-17 2.3592461103794895e-17 -6.097558117211186e-17 2.3592461103794895e-17 0.9971183516473368 -0.07586166889773466
12644440000.0 0.9965239663785108 -0.08330656896723963 -6.078368673117361e-17 2.404785827641772e-17 -6.078368673117361e-17 2.404785827641772e-17 0.9965240174485899 -0.0833059580580757
12645057333.333334 0.9958740508055237 -0.09074621166775833 -6.058839523990002e-17 2.450170394739123e-17 -6.058839523990002e-17 2.450170394739123e-17 0.9958741064336859 -0.09074560118682877
12645674666.666666 0.9951685946659561 -0.09818079338872038 -6.038971917672789e-17 2.4953972807473206e-17 -6.038971917672789e-17 2.4953972807473206e-17 0.9951686548486538 -0.09818018337002866
12646292000.0 0.9944076373036088 -0.1056098994986123 -6.018767120841499e-17 2.5404639647326676e-17 -6.018767120841499e-17 2.5404639647326676e-17 0.9944077020370413 -0.10560928997613282
12646909333.333334 0.9935912211576392 -0.11303311567112995 -5.998226418925333e-17 2.585367935889732e-17 -5.998226418925333e-17 2.585367935889732e-17 0.9935912904377522 -0.11303250667880606
12647526666.666666 0.9927193917601813 -0.12045002790845583 -5.977351116025478e-17 2.6301066936823583e-17 -5.977351116025478e-17 2.6301066936823583e-17 0.9927194655826667 -0.12044941948019795
12648144000.0 0.9917921977337848 -0.12786022256448867 -5.95614253483338e-17 2.6746777479823423e-17 -5.95614253483338e-17 2.6746777479823423e-17 0.9917922760940822 -0.12785961473417257
12648761333.333334 0.990809690788733 -0.1352632863676873 -5.934602016548651e-17 2.7190786192061154e-17 -5.934602016548651e-17 2.7190786192061154e-17 0.9908097736820296 -0.13526267916915205
12649378666.666666 0.9897719257201545 -0.14265880644414713 -5.912730920794838e-17 2.7633068384531353e-17 -5.912730920794838e-17 2.7633068384531353e-17 0.9897720131413849 -0.14265819991119325
12649996000.0 0.9886789604049453 -0.15004637034079552 -5.890530625534559e-17 2.807359947642764e-17 -5.890530625534559e-17 2.807359947642764e-17 0.9886790523487927 -0.15004576450718324
12650613333.333334 0.9875308557985703 -0.15742556604819782 -5.868002526983848e-17 2.8512354996499616e-17 -5.868002526983848e-17 2.8512354996499616e-17 0.9875309522594641 -0.15742496094764474
12651230666.666666 0.9863276759316512 -0.1647959820235911 -5.845148039525728e-17 2.894931058440003e-17 -5.845148039525728e-17 2.894931058440003e-17 0.9863277769037723 -0.16479537768977107
12651848000.0 0.9850694879063743 -0.17215720721400513 -5.821968595621533e-17 2.938444199204801e-17 -5.821968595621533e-17 2.938444199204801e-17 0.9850695933836509 -0.17215660368054564
12652465333.333334 0.9837563618927792 -0.17950883107896223 -5.798465645722882e-17 2.981772508495405e-17 -5.798465645722882e-17 2.981772508495405e-17 0.9837564718688896 -0.17950822837944308
12653082666.666666 0.9823883711248508 -0.18685044361337386 -5.774640658181824e-17 3.024913584355463e-17 -5.774640658181824e-17 3.024913584355463e-17 0.9823884855932224 -0.1868498417813249
12653700000.0 0.9809655918963811 -0.1941816353706863 -5.7504951191595e-17 3.067865036454761e-17 -5.7504951191595e-17 3.067865036454761e-17 0.9809657108501929 -0.19418103443958604
12654317333.333334 0.9794881035567837 -0.20150199748535277 -5.726030532535128e-17 3.1106244862198024e-17 -5.726030532535128e-17 3.1106244862198024e-17 0.9794882269889632 -0.20150139748862575
12654934666.666666 0.9779559885066365 -0.20881112169580351 -5.701248419812708e-17 3.153189566965907e-17 -5.701248419812708e-17 3.153189566965907e-17 0.9779561164098631 -0.2088105226668192
12655552000.0 0.9763693321930503 -0.21610860036738186 -5.67615032002724e-17 3.195557924027787e-17 -5.67615032002724e-17 3.195557924027787e-17 0.9763694645597549 -0.2161080023394524
12656169333.333334 0.9747282231049813 -0.22339402651471657 -5.650737789650886e-17 3.2377272148877777e-17 -5.650737789650886e-17 3.2377272148877777e-17 0.974728359927347 -0.2233934295210952
12656786666.666666 0.9730327527682284 -0.2306669938247257 -5.625012402496404e-17 3.2796951093063603e-17 -5.625012402496404e-17 3.2796951093063603e-17 0.9730328940381895 -0.23066639789860446
12657404000.0 0.97128301574036 -0.2379270966791375 -5.598975749621064e-17 3.3214592894495546e-17 -5.598975749621064e-17 3.3214592894495546e-17 0.9712831614496049 -0.237926501853646
12658021333.333334 0.9694791096054277 -0.24517393017716815 -5.572629439228909e-17 3.363017450016647e-17 -5.572629439228909e-17 3.363017450016647e-17 0.9694792597453967 -0.24517333648537104
12658638666.666666 0.9676211349685511 -0.2524070901579922 -5.545975096572725e-17 3.404367298366234e-17 -5.545975096572725e-17 3.404367298366234e-17 0.9676212895304392 -0.2524064976328879
12659256000.0 0.9657091954502662 -0.2596261732234493 -5.519014363854001e-17 3.4455065546430327e-17 -5.519014363854001e-17 3.4455065546430327e-17 0.965709354425022 -0.25962558189796775
12659873333.333334 0.9637433976807637 -0.26683077676045763 -5.4917489001229417e-17 3.4864329519025224e-17 -5.4917489001229417e-17 3.4864329519025224e-17 0.9637435610590922 -0.2668301866674593
12660490666.666666 0.9617238512939787 -0.27402049896336067 -5.4641803811776216e-17 3.527144236234662e-17 -5.4641803811776216e-17 3.527144236234662e-17 0.9617240190663386 -0.2740199101356332
12661108000.0 0.9596506689213873 -0.281194938856635 -5.4363104994606945e-17 3.5676381668891e-17 -5.4363104994606945e-17 3.5676381668891e-17 0.9596508410779931 -0.2811943513268928
12661725333.333334 0.9575239661858335 -0.2883536963168714 -5.408140963957754e-17 3.6079125163957556e-17 -5.408140963957754e-17 3.6079125163957556e-17 0.9575241427166576 -0.2883531101177534
12662342666.666666 0.9553438616949911 -0.295496372095418 -5.3796735000922434e-17 3.6479650706884395e-17 -5.3796735000922434e-17 3.6479650706884395e-17 0.9553440425897618 -0.29549578725948533
12662960000.0 0.9531104770348164 -0.3026225678404003 -5.350909849620983e-17 3.687793629225353e-17 -5.350909849620983e-17 3.687793629225353e-17 0.9531106622830202 -0.3026219844001352
12663577333.333334 0.9508239367627108 -0.3097318861191283 -5.3218517705287166e-17 3.727396005108913e-17 -5.3218517705287166e-17 3.727396005108913e-17 0.9508241263535923 -0.30973130410693195
12664194666.666666 0.9484843684006103 -0.3168239304401537 -5.292501036920858e-17 3.7667700252061544e-17 -5.292501036920858e-17 3.7667700252061544e-17 0.9484845623231726 -0.3168233498883445
12664812000.0 0.9460919024278613 -0.32389830527540864 -5.262859438916372e-17 3.8059135302667494e-17 -5.262859438916372e-17 3.8059135302667494e-17 0.9460921006708677 -0.32389772621622037
12665429333.333334 0.9436466722739372 -0.330954616082292 -5.232928782539152e-17 3.844824375041102e-17 -5.232928782539152e-17 3.844824375041102e-17 0.9436468748259097 -0.33095403854787164
12666046666.666666 0.9411488143110311 -0.33799246932556487 -5.2027108896093386e-17 3.883500428396578e-17 -5.2027108896093386e-17 3.883500428396578e-17 0.9411490211602548 -0.33799189334797225
12666664000.0 0.9385984678463885 -0.34501147249948805 -5.172207597631953e-17 3.921939573435214e-17 -5.172207597631953e-17 3.921939573435214e-17 0.9385986789809085 -0.3450108981106922
12667281333.333334 0.9359957751146107 -0.352011234149496 -5.141420759687501e-17 3.9601397076069206e-17 -5.141420759687501e-17 3.9601397076069206e-17 0.9359959905222351 -0.3520106613813747
12667898666.666666 0.9333408812696679 -0.3589913638941908 -5.1103522443189247e-17 3.998098742825476e-17 -5.1103522443189247e-17 3.998098742825476e-17 0.933341100937967 -0.35899079277852813
12668516000.0 0.9306339343767898 -0.365951472447139 -5.0790039354193807e-17 4.035814605581438e-17 -5.0790039354193807e-17 4.035814605581438e-17 0.9306341582930978 -0.3659509030156237
12669133333.333334 0.9278750854042996 -0.3728911716383432 -5.0473777321191125e-17 4.073285237054371e-17 -5.0473777321191125e-17 4.073285237054371e-17 0.9278753135557148 -0.3728906039225671
12669750666.666666 0.9250644882150829 -0.37981007443618325 -5.015475548670448e-17 4.110508593225455e-17 -5.015475548670448e-17 4.110508593225455e-17 0.9250647205884693 -0.37980950846763967
12670368000.0 0.92220229955809 -0.38670779496878915 -4.983299314333003e-17 4.14748264498792e-17 -4.983299314333003e-17 4.14748264498792e-17 0.922202536140077 -0.3867072307788705
