! Parameters = {f0=12700.012000; bw=77.238000; Q=6100.000000; N=10; m_0_1=1.215510; m_1_1=-0.532088; m_1_2=1.050322; m_2_2=-0.532737; m_2_3=0.687285; m_2_8=-0.002161; m_2_9=0.034543; m_3_3=-0.534674; m_3_4=0.575814; m_3_7=-0.001561; m_3_8=-0.098649; m_3_9=-0.002161; m_4_4=-0.537599; m_4_5=0.412149; m_4_6=0.001956; m_4_7=-0.119198; m_4_8=-0.001561; m_5_5=-0.537217; m_5_6=0.819504; m_5_7=0.001956; m_6_6=-0.537218; m_6_7=0.412491; m_7_7=-0.537585; m_7_8=0.575932; m_8_8=-0.534676; m_8_9=0.687598; m_9_9=-0.532742; m_9_10=1.051400; m_10_10=-0.532098; m_10_11=1.216305}
!
! Created with skrf (http://scikit-rf.org).
# Hz S RI R 50.0 
!freq ReS11 ImS11 ReS21 ImS21 ReS12 ImS12 ReS22 ImS22
12607400000.0 -0.6430041355025353 0.7658627042273801 3.38846881419375e-17 -7.787557536163355e-17 3.38846881419375e-17 -7.787557536163355e-17 -0.6430046260366018 0.7658622923837994
12608017333.333334 -0.6361532498504002 0.7715627276538264 3.317588492530707e-17 -7.816209379958357e-17 3.317588492530707e-17 -7.816209379958357e-17 -0.6361537440111273 0.771562320218181
12608634666.666666 -0.6292518377910208 0.7772014697853198 3.246467120043369e-17 -7.844216682157596e-17 3.246467120043369e-17 -7.844216682157596e-17 -0.629252335538807 0.7772010667895375
12609252000.0 -0.6223004474683854 0.7827784827653901 3.1751105524984186e-17 -7.87157742642862e-17 3.1751105524984186e-17 -7.87157742642862e-17 -0.6223009487633471 0.782778084241042
12609869333.333334 -0.6152996309960445 0.7882933236403633 3.10352466241597e-17 -7.898289649592646e-17 3.10352466241597e-17 -7.898289649592646e-17 -0.6153001357980215 0.7882929296186629
12610486666.666666 -0.6082499444132375 0.7937455543945623 3.031715338589296e-17 -7.92435144176195e-17 3.031715338589296e-17 -7.92435144176195e-17 -0.608250452681795 0.793745164906363
12611104000.0 -0.6011519476405507 0.7991347419852364 2.959688485599845e-17 -7.949760946474323e-17 2.959688485599845e-17 -7.949760946474323e-17 -0.6011524593349814 0.7991343570610273
12611721333.333334 -0.594006204435826 0.804460458376658 2.8874500233347864e-17 -7.974516360821826e-17 2.8874500233347864e-17 -7.974516360821826e-17 -0.5940067195151548 0.8044600780465628
12612338666.666666 -0.5868132823490242 0.8097222805743971 2.815005886500099e-17 -7.99861593557635e-17 2.815005886500099e-17 -7.99861593557635e-17 -0.5868138007720127 0.8097219048681733
12612956000.0 -0.5795737526772153 0.8149197906588649 2.742362024134914e-17 -8.022057975309967e-17 2.742362024134914e-17 -8.022057975309967e-17 -0.5795742744023619 0.8149194196058981
12613573333.333334 -0.5722881904194781 0.8200525758183059 2.669524399124916e-17 -8.044840838510946e-17 2.669524399124916e-17 -8.044840838510946e-17 -0.5722887154050234 0.8200522094476098
12614190666.666666 -0.564957174230838 0.8251202283818667 2.5964989877125015e-17 -8.066962937696066e-17 2.5964989877125015e-17 -8.066962937696066e-17 -0.5649577024347685 0.8251198667220813
12614808000.0 -0.557581286376613 0.8301223458517666 2.5232917790094943e-17 -8.088422739517403e-17 2.5232917790094943e-17 -8.088422739517403e-17 -0.5575818177566626 0.8301219889311535
12615425333.333334 -0.5501611126859748 0.8350585309353886 2.4499087745055688e-17 -8.109218764865797e-17 2.4499087745055688e-17 -8.109218764865797e-17 -0.5501616471996301 0.8350581787818308
12616042666.666666 -0.5426972425054929 0.8399283915767898 2.376355987578157e-17 -8.129349588969162e-17 2.376355987578157e-17 -8.129349588969162e-17 -0.5426977801099957 0.8399280442177894
12616660000.0 -0.5351902686523977 0.8447315409877945 2.302639443001594e-17 -8.148813841486385e-17 2.302639443001594e-17 -8.148813841486385e-17 -0.5351908093047482 0.8447311984504697
12617277333.333334 -0.5276407873673268 0.84946759767882 2.228765176453215e-17 -8.167610206597428e-17 2.228765176453215e-17 -8.167610206597428e-17 -0.527641331024288 0.8494672599899044
12617894666.666666 -0.5200493982671633 0.8541361854890588 2.1547392340222474e-17 -8.185737423088024e-17 2.1547392340222474e-17 -8.185737423088024e-17 -0.5200499448852631 0.8541358526748969
12618512000.0 -0.5124167042972156 0.8587369336164705 2.0805676717143147e-17 -8.203194284430892e-17 2.0805676717143147e-17 -8.203194284430892e-17 -0.5124172538327512 0.8587366057030176
12619129333.333334 -0.5047433116835245 0.8632694766471174 2.0062565549590857e-17 -8.219979638861573e-17 2.0062565549590857e-17 -8.219979638861573e-17 -0.5047438640925656 0.8632691536599372
12619746666.666666 -0.4970298298845415 0.8677334545842883 1.9318119581138354e-17 -8.236092389450655e-17 1.9318119581138354e-17 -8.236092389450655e-17 -0.49703038512293424 0.8677331365485506
12620364000.0 -0.4892768715427973 0.8721285128770478 1.8572399639688107e-17 -8.251531494170924e-17 1.8572399639688107e-17 -8.251531494170924e-17 -0.4892774295661677 0.8721281998175279
12620981333.333334 -0.4814850524362924 0.8764543024483705 1.7825466632521304e-17 -8.266295965960156e-17 1.7825466632521304e-17 -8.266295965960156e-17 -0.48148561320004857 0.8764539943894438
12621598666.666666 -0.47365499142953765 0.8807104797228905 1.707738154131864e-17 -8.28038487277983e-17 1.707738154131864e-17 -8.28038487277983e-17 -0.4736555548888752 0.8807101766885346
12622216000.0 -0.46578731042435273 0.8848967066542206 1.6328205417212415e-17 -8.293797337668693e-17 1.6328205417212415e-17 -8.293797337668693e-17 -0.4657878765342578 0.8848964086680117
12622833333.333334 -0.457882634310497 0.8890126507517875 1.557799937579733e-17 -8.306532538792604e-17 1.557799937579733e-17 -8.306532538792604e-17 -0.45788320302574875 0.8890123578368971
12623450666.666666 -0.4499415909162109 0.8930579851071425 1.4826824592173192e-17 -8.318589709489145e-17 1.4826824592173192e-17 -8.318589709489145e-17 -0.44994216219138666 0.8930576972863388
12624068000.0 -0.44196481095807716 0.8970323884200785 1.4074742295963786e-17 -8.32996813830828e-17 1.4074742295963786e-17 -8.32996813830828e-17 -0.44196538474755576 0.8970321057157227
12624685333.333334 -0.4339529279909734 0.9009355450241151 1.3321813766321109e-17 -8.340667169048554e-17 1.3321813766321109e-17 -8.340667169048554e-17 -0.4339535042489378 0.9009352674581591
12625302666.666666 -0.4259065783580853 0.9047671449114116 1.2568100326975217e-17 -8.350686200788177e-17 1.2568100326975217e-17 -8.350686200788177e-17 -0.42590715703852683 0.9047668725053971
12625920000.0 -0.41782640113982644 0.9085268837576462 1.1813663341222897e-17 -8.36002468791244e-17 1.1813663341222897e-17 -8.36002468791244e-17 -0.417826982196549 0.9085266165327038
12626537333.333334 -0.4097130381035168 0.9122144629459819 1.1058564206962718e-17 -8.368682140136013e-17 1.1058564206962718e-17 -8.368682140136013e-17 -0.4097136214901395 0.9122142009228273
12627154666.666666 -0.4015671336523331 0.9158295895908193 1.030286435170307e-17 -8.376658122521117e-17 1.030286435170307e-17 -8.376658122521117e-17 -0.40156771932229557 0.9158293327897554
12627772000.0 -0.3933893347737914 0.9193719765612138 9.546625227569618e-18 -8.38395225549112e-17 9.546625227569618e-18 -8.38395225549112e-17 -0.39338992268035555 0.9193717250021246
12628389333.333334 -0.38518029098893003 0.9228413425034239 8.78990830633914e-18 -8.390564214839476e-17 8.78990830633914e-18 -8.390564214839476e-17 -0.3851808810851853 0.9228410962057764
12629006666.666666 -0.3769406543001501 0.9262374118635105 8.032775074425809e-18 -8.396493731734558e-17 8.032775074425809e-18 -8.396493731734558e-17 -0.37694124653901573 0.9262371708463503
12629624000.0 -0.3686710791397929 0.9295599149090602 7.27528702793043e-18 -8.401740592719455e-17 7.27528702793043e-18 -8.401740592719455e-17 -0.36867167347402374 0.9295596791910141
12630241333.333334 -0.36037222231808674 0.9328085877506498 6.5175056676287275e-18 -8.406304639707894e-17 6.5175056676287275e-18 -8.406304639707894e-17 -0.36037281870027527 0.9328083573499204
12630858666.666666 -0.3520447429709783 0.9359831723628019 5.759492494011348e-18 -8.410185769975175e-17 5.759492494011348e-18 -8.410185769975175e-17 -0.35204534135355914 0.9359829472971687
12631476000.0 -0.3436893025075697 0.939083416604563 5.001309002285207e-18 -8.413383936144991e-17 5.001309002285207e-18 -8.413383936144991e-17 -0.3436899028428225 0.9390831968913774
12632093333.333334 -0.33530656455800845 0.9421090742393609 4.243016677413107e-18 -8.415899146171523e-17 4.243016677413107e-18 -8.415899146171523e-17 -0.3353071667980634 0.9421088598955504
12632710666.666666 -0.3268971949204631 0.9450599049546924 3.4846769891321754e-18 -8.417731463317205e-17 3.4846769891321754e-18 -8.417731463317205e-17 -0.3268977990173036 0.9450596959967559
12633328000.0 -0.31846186150818606 0.9479356743812211 2.7263513869778888e-18 -8.418881006125985e-17 2.7263513869778888e-18 -8.418881006125985e-17 -0.3184624674136526 0.9479354708252277
12633945333.333334 -0.3100012342967869 0.9507361541112801 1.9681012953236398e-18 -8.419347948392088e-17 1.9681012953236398e-18 -8.419347948392088e-17 -0.3100018419625813 0.9507359559728689
12634562666.666666 -0.3015159852706971 0.9534611217171254 1.209988108412317e-18 -8.419132519124378e-17 1.209988108412317e-18 -8.419132519124378e-17 -0.3015165946483859 0.9534609290115038
12635180000.0 -0.2930067883700407 0.9561103607685216 4.520731854066125e-19 -8.41823500250617e-17 4.520731854066125e-19 -8.41823500250617e-17 -0.293007399411059 0.9561101735104627
12635797333.333334 -0.2844743194368898 0.9586836608499998 -3.0558215458219126e-19 -8.416655737850732e-17 -3.0558215458219126e-19 -8.416655737850732e-17 -0.28447493209254543 0.9586834790538432
12636414666.666666 -0.27591925616177565 0.961180817577511 -1.0629166374267842e-18 -8.414395119552219e-17 -1.0629166374267842e-18 -8.414395119552219e-17 -0.27591987038325333 0.9611806412571616
12637032000.0 -0.26734227802978255 0.9636016326146847 -1.819869038934726e-18 -8.411453597032202e-17 -1.819869038934726e-18 -8.411453597032202e-17 -0.26734289376814707 0.9636014617836112
12637649333.333334 -0.25874406626652435 0.9659459136885988 -2.576378189790981e-18 -8.407831674681806e-17 -2.576378189790981e-18 -8.407831674681806e-17 -0.2587446834727252 0.9659457483598335
12638266666.666666 -0.25012530378409326 0.9682134746050344 -3.3323829804845013e-18 -8.403529911799343e-17 -3.3323829804845013e-18 -8.403529911799343e-17 -0.25012592240896747 0.9682133147911682
12638884000.0 -0.24148667512690136 0.9704041352632388 -4.08782236622568e-18 -8.398548922523622e-17 -4.08782236622568e-18 -8.398548922523622e-17 -0.24148729512117856 0.970403980976426
12639501333.333334 -0.23282886641711856 0.9725177216702836 -4.8426353718805106e-18 -8.392889375762724e-17 -4.8426353718805106e-18 -8.392889375762724e-17 -0.23282948773142453 0.9725175729222384
12640118666.666666 -0.22415256530042604 0.9745540659548232 -5.596761096859003e-18 -8.386551995118567e-17 -5.596761096859003e-18 -8.386551995118567e-17 -0.22415318788528651 0.9745539227568185
12640736000.0 -0.21545846089104012 0.9765130063805106 -6.35013872004808e-18 -8.379537558806678e-17 -6.35013872004808e-18 -8.379537558806678e-17 -0.21545908469688457 0.9765128687433772
12641353333.333334 -0.20674724371747805 0.9783943873587301 -7.10270750466233e-18 -8.371846899572265e-17 -7.10270750466233e-18 -8.371846899572265e-17 -0.20674786869464387 0.9783942552928555
12641970666.666666 -0.19801960566721372 0.980198059461066 -7.854406803171655e-18 -8.363480904601042e-17 -7.854406803171655e-18 -8.363480904601042e-17 -0.19802023176595027 0.9801979329763956
12642588000.0 -0.1892762399320858 0.9819238794310949 -8.605176062146097e-18 -8.354440515426454e-17 -8.605176062146097e-18 -8.354440515426454e-17 -0.18927686710255798 0.981923758537128
12643205333.333334 -0.18051784095301793 0.9835717101958051 -9.354954827138651e-18 -8.344726727832045e-17 -9.354954827138651e-18 -8.344726727832045e-17 -0.18051846914531064 0.9835715949015978
12643822666.666666 -0.17174510436497475 0.9851414208764665 -1.0103682747543888e-17 -8.334340591749571e-17 -1.0103682747543888e-17 -8.334340591749571e-17 -0.1717457335290966 0.9851413111906291
12644440000.0 -0.1629587269416554 0.9866328867990337 -1.0851299581424979e-17 -8.323283211153094e-17 -1.0851299581424979e-17 -8.323283211153094e-17 -0.16295935702754247 0.9866327827297292
12645057333.333334 -0.1541594065402074 0.9880459895040368 -1.1597745200365588e-17 -8.311555743948279e-17 -1.1597745200365588e-17 -8.311555743948279e-17 -0.15416003749772772 0.9880458910589821
12645674666.666666 -0.14534784204588502 0.9893806167559803 -1.2342959594286964e-17 -8.299159401857667e-17 -1.2342959594286964e-17 -8.299159401857667e-17 -0.14534847382484223 0.9893805239424457
12646292000.0 -0.13652473331617446 0.990636662552314 -1.3086882876270087e-17 -8.286095450301378e-17 -1.3086882876270087e-17 -8.286095450301378e-17 -0.13652536586631178 0.9906365753771205
12646909333.333334 -0.1276907811256574 0.9918140271317797 -1.3829455287340122e-17 -8.272365208273974e-17 -1.3829455287340122e-17 -8.272365208273974e-17 -0.12769141439666176 0.9918139456013007
12647526666.666666 -0.1188466871101557 0.9929126169823712 -1.457061720127155e-17 -8.257970048216464e-17 -1.457061720127155e-17 -8.257970048216464e-17 -0.11884732105166165 0.9929125411025297
12648144000.0 -0.10999315371083417 0.9939323448487747 -1.5310309129354738e-17 -8.242911395884425e-17 -1.5310309129354738e-17 -8.242911395884425e-17 -0.10999378827242809 0.993932274625047
12648761333.333334 -0.1011308841187485 0.9948731297392646 -1.6048471725163745e-17 -8.227190730211695e-17 -1.6048471725163745e-17 -8.227190730211695e-17 -0.1011315192499722 0.9948730651766746
12649378666.666666 -0.09226058221879621 0.9957348969321544 -1.6785045789299012e-17 -8.210809583170017e-17 -1.6785045789299012e-17 -8.210809583170017e-17 -0.09226121786915135 0.9957348380352777
12649996000.0 -0.08338295253375438 0.9965175779817401 -1.751997227412785e-17 -8.193769539624132e-17 -1.751997227412785e-17 -8.193769539624132e-17 -0.08338358865270627 0.9965175247547006
12650613333.333334 -0.07449870016849264 0.9972211107237176 -1.825319228851328e-17 -8.176072237182705e-17 -1.825319228851328e-17 -8.176072237182705e-17 -0.07449933670547434 0.9972210631701898
12651230666.666666 -0.06560853075391383 0.9978454392801287 -1.8984647102505033e-17 -8.15771936604549e-17 -1.8984647102505033e-17 -8.15771936604549e-17 -0.06560916765833012 0.9978453974033354
12651848000.0 -0.05671315039071071 0.9983905140638105 -1.9714278152048112e-17 -8.138712668845541e-17 -1.9714278152048112e-17 -8.138712668845541e-17 -0.05671378761194217 0.9983904778665242
12652465333.333334 -0.047813265593624456 0.998856291782313 -2.0442027043652987e-17 -8.119053940487825e-17 -2.0442027043652987e-17 -8.119053940487825e-17 -0.047813903081031346 0.9988562612668533
12653082666.666666 -0.038909583235159424 0.9992427354413467 -2.116783555905027e-17 -8.098745027983702e-17 -2.116783555905027e-17 -8.098745027983702e-17 -0.03891022093808593 0.9992427106095839
12653700000.0 -0.030002810489241354 0.999549814347732 -2.1891645659852084e-17 -8.077787830280516e-17 -2.1891645659852084e-17 -8.077787830280516e-17 -0.03000344835701939 0.9995497952010832
12654317333.333334 -0.021093654775532693 0.9997775041118153 -2.2613399492163095e-17 -8.056184298088188e-17 -2.2613399492163095e-17 -8.056184298088188e-17 -0.021094292757486033 0.9997774906512451
12654934666.666666 -0.012182823702763104 0.999925786649423 -2.333303939120869e-17 -8.033936433700519e-17 -2.333303939120869e-17 -8.033936433700519e-17 -0.012183461748211458 0.9999257788754468
12655552000.0 -0.003271025012754976 0.9999946501832923 -2.405050788592343e-17 -8.011046290813156e-17 -2.405050788592343e-17 -8.011046290813156e-17 -0.0032716630710179304 0.9999946480959728
12656169333.333334 0.0056410334757320615 0.9999840892440068 -2.4765747703522134e-17 -7.987515974337499e-17 -2.4765747703522134e-17 -7.987515974337499e-17 0.005640395455331004 0.9999840928429546
12656786666.666666 0.014552643923418528 0.9998941046704284 -2.5478701774075536e-17 -7.963347640209722e-17 -2.5478701774075536e-17 -7.963347640209722e-17 0.014552005991547906 0.9998941139548033
12657404000.0 0.02346309852649778 0.9997247036096364 -2.618931323503406e-17 -7.938543495196916e-17 -2.618931323503406e-17 -7.938543495196916e-17 0.023462460733814167 0.9997247185781463
12658021333.333334 0.03237168957308059 0.9994758995163531 -2.689752543576902e-17 -7.91310579669797e-17 -2.689752543576902e-17 -7.91310579669797e-17 0.03237105197022457 0.9994759201672548
12658638666.666666 0.041277709499177834 0.9991477121518825 -2.76032819420589e-17 -7.887036852541651e-17 -2.76032819420589e-17 -7.887036852541651e-17 0.04127707213676993 0.999147738482981
12659256000.0 0.05018045094509742 0.9987401675825326 -2.8306526540590006e-17 -7.860339020779505e-17 -2.8306526540590006e-17 -7.860339020779505e-17 0.05017981387373418 0.9987401995911835
12659873333.333334 0.05907920681154122 0.9982532981775508 -2.900720324341517e-17 -7.833014709475579e-17 -2.900720324341517e-17 -7.833014709475579e-17 0.05907857008179109 0.9982533358606572
12660490666.666666 0.06797327031568107 0.9976871426065541 -2.9705256292392433e-17 -7.805066376492184e-17 -2.9705256292392433e-17 -7.805066376492184e-17 0.06797263397808045 0.9976871859605698
12661108000.0 0.07686193504749352 0.9970417458364489 -3.0400630163625605e-17 -7.776496529270861e-17 -3.0400630163625605e-17 -7.776496529270861e-17 0.0768612991525428 0.9970417948573783
12661725333.333334 0.08574449502563977 0.996317159127874 -3.1093269571850964e-17 -7.747307724610707e-17 -3.1093269571850964e-17 -7.747307724610707e-17 0.08574385962379918 0.9963172138112708
12662342666.666666 0.09462024475376449 0.9955134400311113 -3.178311947483815e-17 -7.717502568441396e-17 -3.178311947483815e-17 -7.717502568441396e-17 0.09461960989545025 0.9955135003720805
12662960000.0 0.10348847927630356 0.9946306523815345 -3.247012507773458e-17 -7.687083715593731e-17 -3.247012507773458e-17 -7.687083715593731e-17 0.10348784501188373 0.9946307183747319
12663577333.333334 0.11234849423470139 0.9936688662945192 -3.315423183742094e-17 -7.656053869564978e-17 -3.315423183742094e-17 -7.656053869564978e-17 0.11234786061449198 0.9936689379341525
12664194666.666666 0.12119958592312807 0.9926281581598931 -3.383538546682281e-17 -7.624415782281255e-17 -3.383538546682281e-17 -7.624415782281255e-17 0.12119895299738906 0.9926282354397219
12664812000.0 0.1300410513445695 0.9915086106358527 -3.451353193919977e-17 -7.592172253856107e-17 -3.451353193919977e-17 -7.592172253856107e-17 0.13004041916350076 0.9915086935491895
12665429333.333334 0.1388721882666055 0.9903103126423982 -3.51886174924337e-17 -7.559326132344332e-17 -3.51886174924337e-17 -7.559326132344332e-17 0.13887155688034294 0.9903104011821088
12666046666.666666 0.1476922952769599 0.9890333593543056 -3.586058863326133e-17 -7.52588031349346e-17 -3.586058863326133e-17 -7.52588031349346e-17 0.14769166473557135 0.9890334535128097
12666664000.0 0.15650067183968852 0.9876778521935007 -3.65293921415178e-17 -7.491837740489863e-17 -3.65293921415178e-17 -7.491837740489863e-17 0.15650004219316982 0.9876779519627719
12667281333.333334 0.16529661835034049 0.9862438988210679 -3.719497507432239e-17 -7.457201403702807e-17 -3.719497507432239e-17 -7.457201403702807e-17 0.1652959896486117 0.9862440041926364
12667898666.666666 0.17407943619172214 0.9847316131286799 -3.785728477027216e-17 -7.421974340423193e-17 -3.785728477027216e-17 -7.421974340423193e-17 0.17407880848462323 0.9847317240936301
12668516000.0 0.18284842778955163 0.9831411152295124 -3.851626885358941e-17 -7.386159634599613e-17 -3.851626885358941e-17 -7.386159634599613e-17 0.1828478011268388 0.9831412317784863
12669133333.333334 0.19160289666752778 0.9814725314487674 -3.9171875238245206e-17 -7.349760416570816e-17 -3.9171875238245206e-17 -7.349760416570816e-17 0.19160227109886954 0.9814726535719652
12669750666.666666 0.20034214750284454 0.9797259943136082 -3.982405213207837e-17 -7.312779862793401e-17 -3.982405213207837e-17 -7.312779862793401e-17 0.20034152307781755 0.9797261220007868
12670368000.0 0.2090654861814993 0.9779016425426095 -4.047274804085974e-17 -7.275221195567379e-17 -4.047274804085974e-17 -7.275221195567379e-17 0.20906486294958443 0.9779017757830851
