! Parameters = {f0=12700.012000; bw=77.238000; Q=6100.000000; N=10; m_0_1=1.276371; m_1_1=0.380825; m_1_2=1.111183; m_2_2=0.380176; m_2_3=0.748146; m_2_8=0.000882; m_2_9=0.037586; m_3_3=0.378239; m_3_4=0.636675; m_3_7=0.001482; m_3_8=-0.095606; m_3_9=0.000882; m_4_4=0.375314; m_4_5=0.473010; m_4_6=0.004999; m_4_7=-0.116155; m_4_8=0.001482; m_5_5=0.375696; m_5_6=0.880365; m_5_7=0.004999; m_6_6=0.375695; m_6_7=0.473352; m_7_7=0.375328; m_7_8=0.636793; m_8_8=0.378237; m_8_9=0.748459; m_9_9=0.380171; m_9_10=1.112261; m_10_10=0.380815; m_10_11=1.277166}
!
! Created with skrf (http://scikit-rf.org).
# Hz S RI R 50.0 
!freq ReS11 ImS11 ReS21 ImS21 ReS12 ImS12 ReS22 ImS22
12607400000.0 -0.9982928606518218 -0.058406886335637224 1.1097497028039754e-16 -2.593359553624734e-17 1.1097497028039754e-16 -2.593359553624734e-17 -0.9982928213754968 -0.058407557644294686
12608017333.333334 -0.9988611949507699 -0.04771072438499866 1.1066674538074001e-16 -2.7125275398001154e-17 1.1066674538074001e-16 -2.7125275398001154e-17 -0.9988611628687211 -0.047711396042952395
12608634666.666666 -0.9993149290213847 -0.03700908854331536 1.1034573251061225e-16 -2.8313324574209365e-17 1.1034573251061225e-16 -2.8313324574209365e-17 -0.9993149041365877 -0.037009760473475
12609252000.0 -0.9996540108064353 -0.026303206618762322 1.1001197411631407e-16 -2.94976059300235e-17 1.1001197411631407e-16 -2.94976059300235e-17 -0.9996539931210405 -0.026303878744013853
12609869333.333334 -0.9998784014028523 -0.01559430690661315 1.0966551411372811e-16 -3.067798282365745e-17 1.0966551411372811e-16 -3.067798282365745e-17 -0.9998783909181846 -0.015594979149827739
12610486666.666666 -0.9999880750661871 -0.004883618048515511 1.0930639788263079e-16 -3.1854319122103385e-17 1.0930639788263079e-16 -3.1854319122103385e-17 -0.9999880717827433 -0.004884290332558309
12611104000.0 -0.9999830192135665 0.005827631108898337 1.089346722608141e-16 -3.30264792168502e-17 1.089346722608141e-16 -3.30264792168502e-17 -0.9999830231310189 0.005826958861159291
12611721333.333334 -0.9998632344251365 0.016538211654429775 1.0855038553807321e-16 -3.419432803942657e-17 1.0855038553807321e-16 -3.419432803942657e-17 -0.9998632455423302 0.016537539520114723
12612338666.666666 -0.9996287344439952 0.027246894753677357 1.0815358744999544e-16 -3.5357731076976905e-17 1.0815358744999544e-16 -3.5357731076976905e-17 -0.9996287527589509 0.027246222809886
12612956000.0 -0.9992795461746131 0.0379524517901073 1.0774432917159229e-16 -3.651655438773533e-17 1.0774432917159229e-16 -3.651655438773533e-17 -0.9992795716845247 0.03795178011390993
12613573333.333334 -0.9988157096797555 0.04865365450558759 1.0732266331078524e-16 -3.767066461637209e-17 1.0732266331078524e-16 -3.767066461637209e-17 -0.9988157423809912 0.04865298317401618
12614190666.666666 -0.9982372781758736 0.05934927514170468 1.0688864390169655e-16 -3.8819929009354264e-17 1.0688864390169655e-16 -3.8819929009354264e-17 -0.9982373180639786 0.05934860423174424
12614808000.0 -0.9975443180270092 0.07003808658045517 1.0644232639779896e-16 -3.996421543016618e-17 1.0644232639779896e-16 -3.996421543016618e-17 -0.9975443650967043 0.07003741616903478
12615425333.333334 -0.9967369087371775 0.08071886248503395 1.0598376766488934e-16 -4.110339237448856e-17 1.0598376766488934e-16 -4.110339237448856e-17 -0.9967369629823594 0.08071819264901794
12616042666.666666 -0.9958151429412381 0.09139037744064636 1.0551302597391234e-16 -4.223732898526432e-17 1.0551302597391234e-16 -4.223732898526432e-17 -0.9958152043549818 0.09138970825682557
12616660000.0 -0.9947791263942796 0.10205140709493098 1.050301609936142e-16 -4.3365895067710935e-17 1.050301609936142e-16 -4.3365895067710935e-17 -0.9947791949688378 0.10205073864001388
12617277333.333334 -0.9936289779594765 0.11270072829857256 1.0453523378303348e-16 -4.4488961104251876e-17 1.0453523378303348e-16 -4.4488961104251876e-17 -0.9936290536862805 0.1127000606491764
12617894666.666666 -0.992364829594469 0.12333711924543671 1.0402830678385237e-16 -4.5606398269319124e-17 1.0402830678385237e-16 -4.5606398269319124e-17 -0.9923649124641317 0.12333645247807898
12618512000.0 -0.9909868263361781 0.13395935961317268 1.0350944381255611e-16 -4.6718078444146016e-17 1.0350944381255611e-16 -4.6718078444146016e-17 -0.9909869163384941 0.13395869380426229
12619129333.333334 -0.9894951262842322 0.14456623070265776 1.0297871005247594e-16 -4.78238742313805e-17 1.0297871005247594e-16 -4.78238742313805e-17 -0.9894952234081772 0.14456556592848585
12619746666.666666 -0.9878899005827817 0.15515651557818586 1.0243617204563647e-16 -4.8923658969697123e-17 1.0243617204563647e-16 -4.8923658969697123e-17 -0.987890004816517 0.15515585191491774
12620364000.0 -0.986171333400851 0.1657289992071724 1.0188189768447312e-16 -5.0017306748257917e-17 1.0188189768447312e-16 -5.0017306748257917e-17 -0.9861714447317222 0.1657283367308382
12620981333.333334 -0.9843396219112681 0.1762824685991335 1.0131595620339783e-16 -5.110469242108153e-17 1.0131595620339783e-16 -5.110469242108153e-17 -0.9843397403258095 0.17628180738562008
12621598666.666666 -0.9823949762679878 0.1868157129452479 1.0073841817018322e-16 -5.218569162137172e-17 1.0073841817018322e-16 -5.218569162137172e-17 -0.9823951017519211 0.18681505307028964
12622216000.0 -0.9803376195820048 0.19732752375710516 1.001493554772294e-16 -5.326018077568031e-17 1.001493554772294e-16 -5.326018077568031e-17 -0.9803377521202417 0.19732686529627524
12622833333.333334 -0.9781677878957483 0.20781669500538405 9.954884133265534e-17 -5.432803711802119e-17 9.954884133265534e-17 -5.432803711802119e-17 -0.9781679274723935 0.20781603803408635
12623450666.666666 -0.9758857301560049 0.21828202325822238 9.893695025125843e-17 -5.53891387038504e-17 9.893695025125843e-17 -5.53891387038504e-17 -0.9758858767543573 0.21828136785168253
12624068000.0 -0.9734917081853616 0.22872230781925942 9.831375804530161e-17 -5.644336442398737e-17 9.831375804530161e-17 -5.644336442398737e-17 -0.9734918617879162 0.2287216540525161
12624685333.333334 -0.9709859966521348 0.2391363508655318 9.767934181517465e-17 -5.749059401839351e-17 9.767934181517465e-17 -5.749059401839351e-17 -0.9709861572405841 0.23913569881342808
12625302666.666666 -0.9683688830389338 0.24952295758456808 9.703377993991343e-17 -5.853070808984186e-17 9.703377993991343e-17 -5.853070808984186e-17 -0.9683690505941709 0.24952230732174313
12625920000.0 -0.9656406676095526 0.25988093631199605 9.637715206753177e-17 -5.95635881175493e-17 9.637715206753177e-17 -5.95635881175493e-17 -0.9656408421116738 0.2598802879128766
12626537333.333334 -0.9628016633746567 0.27020909866771176 9.570953910527261e-17 -6.058911647059689e-17 9.570953910527261e-17 -6.058911647059689e-17 -0.9628018448029628 0.2702084522065033
12627154666.666666 -0.9598521960558025 0.280506259692499 9.503102320966629e-17 -6.160717642132346e-17 9.503102320966629e-17 -6.160717642132346e-17 -0.9598523843888022 0.2805056152431774
12627772000.0 -0.9567926040480366 0.29077123798409016 9.434168777645606e-17 -6.26176521585921e-17 9.434168777645606e-17 -6.26176521585921e-17 -0.9567927992634475 0.2907705956203934
12628389333.333334 -0.9536232383811437 0.3010028558324353 9.364161743040881e-17 -6.362042880090706e-17 9.364161743040881e-17 -6.362042880090706e-17 -0.9536234404558984 0.3010022156278552
12629006666.666666 -0.9503444626793083 0.3111999393550688 9.29308980149516e-17 -6.46153924094677e-17 9.29308980149516e-17 -6.46153924094677e-17 -0.9503446715895523 0.31119930138284163
12629624000.0 -0.9469566531194548 0.32136131863157064 9.220961658170185e-17 -6.56024300010627e-17 9.220961658170185e-17 -6.56024300010627e-17 -0.9469568688405527 0.32136068296466985
12630241333.333334 -0.9434601983880152 0.3314858278380375 9.147786137982908e-17 -6.658142956089241e-17 9.147786137982908e-17 -6.658142956089241e-17 -0.9434604208945521 0.3314851945491645
12630858666.666666 -0.9398554996364403 0.34157230538051414 9.073572184532054e-17 -6.755228005521846e-17 9.073572184532054e-17 -6.755228005521846e-17 -0.9398557289022259 0.3415716745420908
12631476000.0 -0.9361429704350385 0.3516195940286683 8.998328859006168e-17 -6.851487144396422e-17 8.998328859006168e-17 -6.851487144396422e-17 -0.9361432064331094 0.35161896571282825
12632093333.333334 -0.9323230367256556 0.36162654104818404 8.922065339083881e-17 -6.946909469311927e-17 8.922065339083881e-17 -6.946909469311927e-17 -0.9323232794282797 0.36162591532676464
12632710666.666666 -0.9283961367727663 0.37159199833315315 8.844790917817511e-17 -7.041484178707169e-17 8.844790917817511e-17 -7.041484178707169e-17 -0.9283963861514433 0.37159137527768654
12633328000.0 -0.9243627211130897 0.38151482253803254 8.76651500250259e-17 -7.135200574082493e-17 8.76651500250259e-17 -7.135200574082493e-17 -0.9243629771385582 0.3815142022197389
12633945333.333334 -0.920223252504061 0.3913938752084278 8.687247113539719e-17 -7.228048061202853e-17 8.687247113539719e-17 -7.228048061202853e-17 -0.9202235151462979 0.3913932576982054
12634562666.666666 -0.9159782058706392 0.401228022911944 8.606996883277767e-17 -7.320016151295424e-17 8.606996883277767e-17 -7.320016151295424e-17 -0.9159784750988668 0.4012274082803627
12635180000.0 -0.9116280682508571 0.4110161373681492 8.525774054848719e-17 -7.411094462229271e-17 8.525774054848719e-17 -7.411094462229271e-17 -0.9116283440335446 0.4110155256854415
12635797333.333334 -0.9071733387398799 0.42075709557815083 8.443588480987444e-17 -7.501272719685318e-17 8.443588480987444e-17 -7.501272719685318e-17 -0.9071736210447477 0.42075648691420425
12636414666.666666 -0.9026145284328638 0.43044977995318073 8.360450122841432e-17 -7.590540758310631e-17 8.360450122841432e-17 -7.590540758310631e-17 -0.9026148172268867 0.430449174377529
12637032000.0 -0.8979521603661973 0.4400930784430744 8.276369048764933e-17 -7.67888852286337e-17 8.276369048764933e-17 -7.67888852286337e-17 -0.8979524556156098 0.440092476024891
12637649333.333334 -0.8931867694575673 0.4496858846637042 8.191355433105359e-17 -7.766306069339681e-17 8.191355433105359e-17 -7.766306069339681e-17 -0.8931870711278653 0.44968528547179293
12638266666.666666 -0.8883189024445219 0.45922709802404216 8.105419554974641e-17 -7.852783566090792e-17 8.105419554974641e-17 -7.852783566090792e-17 -0.8883192105004702 0.45922650212683075
12638884000.0 -0.8833491178218217 0.4687156238522799 8.018571797010259e-17 -7.938311294924856e-17 8.018571797010259e-17 -7.938311294924856e-17 -0.8833494322274544 0.46871503131781084
12639501333.333334 -0.8782779857772972 0.4781503735215479 7.93082264412324e-17 -8.022879652196814e-17 7.93082264412324e-17 -8.022879652196814e-17 -0.8782783064959238 0.4781497844174714
12640118666.666666 -0.8731060881265399 0.48753026457461457 7.842182682238722e-17 -8.106479149880352e-17 7.842182682238722e-17 -8.106479149880352e-17 -0.8731064151207485 0.48752967896818056
12640736000.0 -0.8678340182458733 0.49685422084857495 7.752662597016767e-17 -8.189100416634247e-17 7.752662597016767e-17 -8.189100416634247e-17 -0.8678343514775372 0.4968536388066258
12641353333.333334 -0.8624623810046897 0.506121172597574 7.662273172574831e-17 -8.270734198842558e-17 7.662273172574831e-17 -8.270734198842558e-17 -0.8624627204349697 0.5061205941865367
12641970666.666666 -0.8569917926957097 0.5153300566161625 7.571025290186154e-17 -8.351371361652969e-17 7.571025290186154e-17 -8.351371361652969e-17 -0.8569921382850585 0.5153294819020403
12642588000.0 -0.8514228809644343 0.5244798163609778 7.478929926975752e-17 -8.431002889992967e-17 7.478929926975752e-17 -8.431002889992967e-17 -0.8514232326726038 0.5244792454093447
12643205333.333334 -0.8457562847370724 0.5335694020720904 7.38599815460324e-17 -8.509619889574174e-17 7.38599815460324e-17 -8.509619889574174e-17 -0.845756642523114 0.5335688349480806
12643822666.666666 -0.8399926541472547 0.5425977708933879 7.29224113793312e-17 -8.587213587883757e-17 7.29224113793312e-17 -8.587213587883757e-17 -0.8399930179695289 0.5425972076616921
12644440000.0 -0.834132650461467 0.5515638869922055 7.197670133699369e-17 -8.663775335157332e-17 7.197670133699369e-17 -8.663775335157332e-17 -0.8341330202776445 0.5515633277170601
12645057333.333334 -0.8281769460031959 0.560466721678141 7.102296489155989e-17 -8.739296605340584e-17 7.102296489155989e-17 -8.739296605340584e-17 -0.8281773217702637 0.5604661664233226
12645674666.666666 -0.8221262240757292 0.5693052535211734 7.006131640719191e-17 -8.813768997034531e-17 7.006131640719191e-17 -8.813768997034531e-17 -0.8221266057499965 0.5693047023499912
12646292000.0 -0.8159811788837431 0.5780784684688745 6.909187112596474e-17 -8.887184234428548e-17 6.909187112596474e-17 -8.887184234428548e-17 -0.8159815664208462 0.5780779214441633
12646909333.333334 -0.8097425154538029 0.5867853599625426 6.81147451541356e-17 -8.959534168212422e-17 6.81147451541356e-17 -8.959534168212422e-17 -0.8097429088087087 0.5867848171466553
12647526666.666666 -0.8034109495533428 0.5954249290528726 6.713005544823712e-17 -9.030810776479623e-17 6.713005544823712e-17 -9.030810776479623e-17 -0.8034113486803557 0.5954243905076732
12648144000.0 -0.7969872076084952 0.6039961845146343 6.61379198011044e-17 -9.101006165613166e-17 6.61379198011044e-17 -9.101006165613166e-17 -0.7969876124612615 0.6039956503014903
12648761333.333334 -0.7904720266209122 0.6124981429601645 6.513845682784107e-17 -9.170112571153926e-17 6.513845682784107e-17 -9.170112571153926e-17 -0.7904724371524268 0.6124976131399411
12649378666.666666 -0.783866154083147 0.6209298289522891 6.413178595166192e-17 -9.238122358656057e-17 6.413178595166192e-17 -9.238122358656057e-17 -0.7838665702457567 0.6209293035853409
12649996000.0 -0.7771703478928378 0.6292902751162998 6.311802738963294e-17 -9.305028024527753e-17 6.311802738963294e-17 -9.305028024527753e-17 -0.7771707696382489 0.6292897542624653
12650613333.333334 -0.7703853762657363 0.6375785222509643 6.209730213836918e-17 -9.370822196853336e-17 6.209730213836918e-17 -9.370822196853336e-17 -0.770385803545019 0.637578005969558
12651230666.666666 -0.7635120176477463 0.645793619438355 6.106973195962432e-17 -9.435497636201403e-17 6.106973195962432e-17 -9.435497636201403e-17 -0.763512450411341 0.6457931077881613
12651848000.0 -0.756551060625363 0.6539346241532568 6.003543936577434e-17 -9.499047236418473e-17 6.003543936577434e-17 -9.499047236418473e-17 -0.7565514988230858 0.6539341171925235
12652465333.333334 -0.7495033038353948 0.6620006023710636 5.899454760525468e-17 -9.561464025404625e-17 5.899454760525468e-17 -9.561464025404625e-17 -0.7495037474164429 0.662000100157494
12653082666.666666 -0.7423695558732633 0.669990628675026 5.794718064792017e-17 -9.622741165873006e-17 5.794718064792017e-17 -9.622741165873006e-17 -0.7423700047862214 0.6699901312657736
12653700000.0 -0.7351506352001561 0.6779037863625111 5.689346317027183e-17 -9.68287195609671e-17 5.689346317027183e-17 -9.68287195609671e-17 -0.7351510893930028 0.6779032938141727
12654317333.333334 -0.7278473700493154 0.6857391675499644 5.583352054068943e-17 -9.741849830634575e-17 5.583352054068943e-17 -9.741849830634575e-17 -0.727847829469427 0.6857386799185726
12654934666.666666 -0.7204605983308591 0.693495873277241 5.476747880450651e-17 -9.799668361045726e-17 5.476747880450651e-17 -9.799668361045726e-17 -0.7204610629250198 0.6934953906182609
12655552000.0 -0.7129911675355701 0.7011730136108264 5.3695464669067346e-17 -9.856321256584589e-17 5.3695464669067346e-17 -9.856321256584589e-17 -0.7129916372499734 0.701172535979145
12656169333.333334 -0.7054399346379542 0.7087697077456276 5.261760548871324e-17 -9.911802364879718e-17 5.261760548871324e-17 -9.911802364879718e-17 -0.7054404094182132 0.7087692351955518
12656786666.666666 -0.6978077659976454 0.7162850841063205 5.1534029249645544e-17 -9.966105672599035e-17 5.1534029249645544e-17 -9.966105672599035e-17 -0.6978082457887964 0.7162846166915677
12657404000.0 -0.6900955372601459 0.7237182804472005 5.04448645547886e-17 -1.0019225306095032e-16 5.04448645547886e-17 -1.0019225306095032e-16 -0.6900960220066562 0.7237178182208944
12658021333.333334 -0.6823041332562411 0.7310684439512295 4.935024060853854e-17 -1.0071155532035924e-16 4.935024060853854e-17 -1.0071155532035924e-16 -0.6823046229020145 0.7310679869658928
12658638666.666666 -0.6744344479007058 0.7383347313276629 4.825028720148532e-17 -1.0121890758018393e-16 4.825028720148532e-17 -1.0121890758018393e-16 -0.67443494238909 0.7383342796352123
12659256000.0 -0.6664873840894591 0.7455163089090765 4.714513469501179e-17 -1.0171425533166551e-16 4.714513469501179e-17 -1.0171425533166551e-16 -0.6664878833632508 0.7455158625608159
12659873333.333334 -0.6584638535961976 0.7526123527467966 4.603491400591549e-17 -1.0219754548710107e-16 4.603491400591549e-17 -1.0219754548710107e-16 -0.6584643575976514 0.7526119117934128
12660490666.666666 -0.65036477696771 0.7596220487055151 4.4919756590920636e-17 -1.0266872638548428e-16 4.4919756590920636e-17 -1.0266872638548428e-16 -0.6503652856385429 0.7596216131970706
12661108000.0 -0.6421910834181709 0.7665445925567663 4.379979443110308e-17 -1.0312774779798756e-16 4.379979443110308e-17 -1.0312774779798756e-16 -0.6421915966995703 0.7665441625426935
12661725333.333334 -0.6339437107227485 0.7733791900710122 4.267516001635708e-17 -1.035745609332347e-16 4.267516001635708e-17 -1.035745609332347e-16 -0.6339442285553786 0.7733787656001094
12662342666.666666 -0.625623605109819 0.7801250571089332 4.1545986329706235e-17 -1.0400911844244727e-16 4.1545986329706235e-17 -1.0400911844244727e-16 -0.6256241274338272 0.7801246382293571
12662960000.0 -0.6172317211524243 0.786781419711371 4.0412406831627575e-17 -1.0443137442439386e-16 4.0412406831627575e-17 -1.0443137442439386e-16 -0.6172322479074488 0.7867810064706321
12663577333.333334 -0.6087690216588632 0.7933475141880353 3.9274555444290906e-17 -1.0484128443018302e-16 3.9274555444290906e-17 -1.0484128443018302e-16 -0.6087695527840403 0.7933471066329939
12664194666.666666 -0.6002364775621406 0.7998225872051987 3.813256653578266e-17 -1.0523880546787173e-16 3.813256653578266e-17 -1.0523880546787173e-16 -0.6002370129961108 0.7998221853820571
12664812000.0 -0.5916350678086164 0.8062058958720892 3.698657490425782e-17 -1.0562389600691374e-16 3.698657490425782e-17 -1.0562389600691374e-16 -0.5916356074895319 0.8062054998263878
12665429333.333334 -0.5829657792455744 0.8124967078262063 3.583671576204426e-17 -1.0599651598243544e-16 3.583671576204426e-17 -1.0599651598243544e-16 -0.5829663231111063 0.8124963176028187
12666046666.666666 -0.5742296065082538 0.818694301317164 3.468312471975037e-17 -1.0635662679932431e-16 3.468312471975037e-17 -1.0635662679932431e-16 -0.5742301544955987 0.8186939169602909
12666664000.0 -0.5654275519053878 0.8247979652897452 3.3525937770253994e-17 -1.0670419133617054e-16 3.3525937770253994e-17 -1.0670419133617054e-16 -0.565428103951276 0.8247975868429103
12667281333.333334 -0.5565606253045782 0.8308069994652187 3.2365291272746804e-17 -1.0703917394900495e-16 3.2365291272746804e-17 -1.0703917394900495e-16 -0.5565611813452808 0.8308066269712636
12667898666.666666 -0.5476298440161089 0.836720714421913 3.120132193665132e-17 -1.0736154047489215e-16 3.120132193665132e-17 -1.0736154047489215e-16 -0.5476304039874443 0.8367203479229915
12668516000.0 -0.5386362326763633 0.8425384316742107 3.0034166805563785e-17 -1.0767125823532968e-16 3.0034166805563785e-17 -1.0767125823532968e-16 -0.5386367965137059 0.8425380712117858
12669133333.333334 -0.5295808231303915 0.8482594837503209 2.8863963241164924e-17 -1.0796829603947508e-16 2.8863963241164924e-17 -1.0796829603947508e-16 -0.5295813907686779 0.8482591293651582
12669750666.666666 -0.5204646543133332 0.8538832142689807 2.7690848907041524e-17 -1.0825262418721342e-16 2.7690848907041524e-17 -1.0825262418721342e-16 -0.5204652256870705 0.8538828660011452
12670368000.0 -0.5112887721312189 0.8594089780147602 2.6514961752549413e-17 -1.0852421447203002e-16 2.6514961752549413e-17 -1.0852421447203002e-16 -0.5112893471744923 0.8594086359036106
