! Parameters = {f0=12700.012000; bw=77.238000; Q=6100.000000; N=10; m_0_1=1.220716; m_1_1=-0.454010; m_1_2=1.055528; m_2_2=-0.454659; m_2_3=0.692491; m_2_8=-0.001901; m_2_9=0.034803; m_3_3=-0.456596; m_3_4=0.581020; m_3_7=-0.001301; m_3_8=-0.098389; m_3_9=-0.001901; m_4_4=-0.459521; m_4_5=0.417355; m_4_6=0.002216; m_4_7=-0.118938; m_4_8=-0.001301; m_5_5=-0.459139; m_5_6=0.824710; m_5_7=0.002216; m_6_6=-0.459140; m_6_7=0.417697; m_7_7=-0.459507; m_7_8=0.581138; m_8_8=-0.456598; m_8_9=0.692804; m_9_9=-0.454664; m_9_10=1.056606; m_10_10=-0.454020; m_10_11=1.221511}
!
! Created with skrf (http://scikit-rf.org).
# Hz S RI R 50.0 
!freq ReS11 ImS11 ReS21 ImS21 ReS12 ImS12 ReS22 ImS22
12607400000.0 0.6406546689586976 -0.7678291444984738 -3.452799802412767e-17 8.002332850511073e-17 -3.452799802412767e-17 8.002332850511073e-17 0.6406551628512107 -0.7678287324084229
12608017333.333334 0.6336673171476674 -0.7736056690450983 -3.378735617801355e-17 8.032032873170874e-17 -3.378735617801355e-17 8.032032873170874e-17 0.6336678147314637 -0.7736052614694966
12608634666.666666 0.6266278833845043 -0.7793186099182366 -3.304417237093542e-17 8.061048021646265e-17 -3.304417237093542e-17 8.061048021646265e-17 0.6266283846183271 -0.7793182068901399
12609252000.0 0.6195369462496093 -0.7849674975637811 -3.2298509877673126e-17 8.089376132711639e-17 -3.2298509877673126e-17 8.089376132711639e-17 0.6195374510919065 -0.7849670991158678
12609869333.333334 0.6123950885564914 -0.7905518676922625 -3.155043215588758e-17 8.117015101549629e-17 -3.155043215588758e-17 8.117015101549629e-17 0.6123955969654171 -0.7905514738568304
12610486666.666666 0.6052028973039749 -0.7960712613169202 -3.080000284074543e-17 8.143962881904145e-17 -3.080000284074543e-17 8.143962881904145e-17 0.6052034092373957 -0.7960708721258866
12611104000.0 0.5979609636277087 -0.8015252247916219 -3.0047285739496034e-17 8.170217486229654e-17 -3.0047285739496034e-17 8.170217486229654e-17 0.597961479043205 -0.8015248402765189
12611721333.333334 0.590669882751894 -0.8069133098479048 -2.929234482608275e-17 8.195776985833849e-17 -2.929234482608275e-17 8.195776985833849e-17 0.5906704016067647 -0.8069129300398771
12612338666.666666 0.5833302539401378 -0.8122350736319942 -2.8535244235709705e-17 8.220639511016465e-17 -2.8535244235709705e-17 8.220639511016465e-17 0.5833307761914029 -0.8122346985617965
12612956000.0 0.5759426804461948 -0.8174900787411973 -2.777604825939717e-17 8.244803251203117e-17 -2.777604825939717e-17 8.244803251203117e-17 0.5759432060505991 -0.8174897084391913
12613573333.333334 0.5685077694645944 -0.8226778932597058 -2.701482133855891e-17 8.26826645507302e-17 -2.701482133855891e-17 8.26826645507302e-17 0.5685082983786117 -0.822677527755859
12614190666.666666 0.5610261320805041 -0.8277980907942631 -2.6251628059522037e-17 8.291027430683268e-17 -2.6251628059522037e-17 8.291027430683268e-17 0.5610266642603398 -0.8277977301181446
12614808000.0 0.5534983832196165 -0.8328502505091221 -2.5486533148072102e-17 8.31308454558689e-17 -2.5486533148072102e-17 8.31308454558689e-17 0.5534989186212134 -0.8328498946899038
12615425333.333334 0.5459251415975885 -0.8378339571606588 -2.4719601463974643e-17 8.334436226946416e-17 -2.4719601463974643e-17 8.334436226946416e-17 0.5459256801766281 -0.8378336062271092
12616042666.666666 0.5383070296691869 -0.8427488011314966 -2.395089799548989e-17 8.355080961642242e-17 -2.395089799548989e-17 8.355080961642242e-17 0.5383075713810929 -0.8427484551119784
12616660000.0 0.5306446735771243 -0.847594378464171 -2.31804878538789e-17 8.375017296376017e-17 -2.31804878538789e-17 8.375017296376017e-17 0.5306452183770692 -0.8475940373866429
12617277333.333334 0.5229387031005774 -0.8523702908943525 -2.240843626789925e-17 8.394243837769021e-17 -2.240843626789925e-17 8.394243837769021e-17 0.5229392509434828 -0.8523699547863625
12617894666.666666 0.5151897516035419 -0.8570761458835022 -2.163480857830716e-17 8.412759252455092e-17 -2.163480857830716e-17 8.412759252455092e-17 0.5151903024440845 -0.8570758147721879
12618512000.0 0.507398455982509 -0.8617115566512978 -2.085967023231435e-17 8.430562267169508e-17 -2.085967023231435e-17 8.430562267169508e-17 0.5073990097751233 -0.8617112305633834
12619129333.333334 0.49956545661446 -0.86627614220722 -2.008308677809794e-17 8.447651668831298e-17 -2.008308677809794e-17 8.447651668831298e-17 0.49956601331334266 -0.8662758211690144
12619746666.666666 0.49169139730398764 -0.8707695273820105 -1.9305123859246388e-17 8.464026304621834e-17 -1.9305123859246388e-17 8.464026304621834e-17 0.4916919568631006 -0.870769211419405
12620364000.0 0.4837769252303803 -0.8751913428585063 -1.852584720922376e-17 8.479685082057838e-17 -1.852584720922376e-17 8.479685082057838e-17 0.4837774876034553 -0.8751910319969727
12620981333.333334 0.47582269089465334 -0.8795412252018714 -1.7745322645850246e-17 8.494626969058777e-17 -1.7745322645850246e-17 8.494626969058777e-17 0.47582325603519443 -0.8795409194664582
12621598666.666666 0.4678293480658333 -0.8838188168896012 -1.6963616065732013e-17 8.508850994010225e-17 -1.6963616065732013e-17 8.508850994010225e-17 0.46782991592712303 -0.8838185163049357
12622216000.0 0.4597975537273512 -0.888023766340846 -1.6180793438725194e-17 8.522356245821259e-17 -1.6180793438725194e-17 8.522356245821259e-17 0.45979812426245203 -0.888023470931128
12622833333.333334 0.4517279680229904 -0.8921557279453275 -1.539692080236693e-17 8.535141873977374e-17 -1.539692080236693e-17 8.535141873977374e-17 0.45172854118475037 -0.89215543773433
12623450666.666666 0.44362125420273313 -0.8962143620916992 -1.4612064256341696e-17 8.547207088587585e-17 -1.4612064256341696e-17 8.547207088587585e-17 0.44362182994378846 -0.8962140771027653
12624068000.0 0.4354780785681184 -0.9001993351955205 -1.3826289956898505e-17 8.558551160427266e-17 -1.3826289956898505e-17 8.558551160427266e-17 0.43547865684089837 -0.9001990554515622
12624685333.333334 0.4272991104174523 -0.9041103197266869 -1.3039664111287346e-17 8.569173420975471e-17 -1.3039664111287346e-17 8.569173420975471e-17 0.42729969117418237 -0.9041100452501818
12625302666.666666 0.4190850219910529 -0.9079469942362252 -1.2252252972217942e-17 8.579073262446818e-17 -1.2252252972217942e-17 8.579073262446818e-17 0.4190856051837597 -0.9079467250492174
12625920000.0 0.4108364884156408 -0.911709043382889 -1.146412283225592e-17 8.588250137819168e-17 -1.146412283225592e-17 8.588250137819168e-17 0.41083707399615466 -0.9117087795069845
12626537333.333334 0.4025541876491038 -0.9153961579589509 -1.0675340018288595e-17 8.596703560855216e-17 -1.0675340018288595e-17 8.596703560855216e-17 0.402554775569064 -0.9153958994153175
12627154666.666666 0.3942388004247766 -0.9190080349156202 -9.885970885941185e-18 8.604433106119635e-17 -9.885970885941185e-18 8.604433106119635e-17 0.39423939063563523 -0.9190077817249863
12627772000.0 0.38589101019523203 -0.9225443773880689 -9.096081813992828e-18 8.611438408991089e-17 -9.096081813992828e-18 8.611438408991089e-17 0.38589160264825706 -0.9225441295707199
12628389333.333334 0.3775115030764958 -0.9260048947196564 -8.305739198841731e-18 8.617719165668621e-17 -8.305739198841731e-18 8.617719165668621e-17 0.3775120977227755 -0.9260046522954335
12629006666.666666 0.36910096779126184 -0.929389302485988 -7.51500944890006e-18 8.623275133173686e-17 -7.51500944890006e-18 8.623275133173686e-17 0.3691015645817098 -0.9293890654742886
12629624000.0 0.36066009561257484 -0.9326973225181712 -6.7239589790536635e-18 8.628106129346457e-17 -6.7239589790536635e-18 8.628106129346457e-17 0.36066069449793275 -0.9326970909379456
12630241333.333334 0.3521895803068549 -0.9359286829257446 -5.932654205081783e-18 8.632212032837426e-17 -5.932654205081783e-18 8.632212032837426e-17 0.35219018123769696 -0.9359284567954945
12630858666.666666 0.34369011807703476 -0.939083118118961 -5.1411615381083e-18 8.635592783093702e-17 -5.1411615381083e-18 8.635592783093702e-17 0.3436907210037724 -0.939082897456739
12631476000.0 0.33516240750504694 -0.9421603688307306 -4.349547379013818e-18 8.638248380340467e-17 -4.349547379013818e-18 8.638248380340467e-17 0.3351630123779319 -0.9421601536541372
12632093333.333334 0.3266071494947499 -0.9451601821377953 -3.5578781129096684e-18 8.64017888555699e-17 -3.5578781129096684e-18 8.64017888555699e-17 0.32660775626387933 -0.94515997246398
12632710666.666666 0.31802504721416386 -0.9480823114815862 -2.7662201035712887e-18 8.641384420447904e-17 -2.7662201035712887e-18 8.641384420447904e-17 0.3180256558294832 -0.948082107327242
12633328000.0 0.3094168060375376 -0.9509265166885223 -1.9746396878656355e-18 8.641865167409262e-17 -1.9746396878656355e-18 8.641865167409262e-17 0.3094174164488465 -0.9509263180698905
12633945333.333334 0.3007831334876183 -0.9536925639896782 -1.183203170242046e-18 8.641621369489459e-17 -1.183203170242046e-18 8.641621369489459e-17 0.3007837456445732 -0.9536923709225412
12634562666.666666 0.2921247391773635 -0.9563802260400384 -3.9197681716899775e-19 8.640653330345222e-17 -3.9197681716899775e-19 8.640653330345222e-17 0.2921253530294819 -0.9563800385397206
12635180000.0 0.2834423347516429 -0.9589892819371729 3.9897314839676307e-19 8.638961414192478e-17 3.9897314839676307e-19 8.638961414192478e-17 0.2834429502483086 -0.9589891000185417
12635797333.333334 0.2747366338287218 -0.9615195172394057 1.1895805525426479e-18 8.636546045752137e-17 1.1895805525426479e-18 8.636546045752137e-17 0.27473725091918794 -0.9615193409168661
12636414666.666666 0.2660083519417163 -0.9639707239834048 1.9797792759141144e-18 8.633407710190933e-17 1.9797792759141144e-18 8.633407710190933e-17 0.2660089705751101 -0.9639705532709015
12637032000.0 0.2572582064796182 -0.9663427007013229 2.7695032592463682e-18 8.629546953057092e-17 2.7695032592463682e-18 8.629546953057092e-17 0.2572588266049452 -0.9663425356123386
12637649333.333334 0.24848691662844297 -0.9686352524373283 3.5586865088643435e-18 8.624964380211093e-17 3.5586865088643435e-18 8.624964380211093e-17 0.24848753819459082 -0.968635092984881
12638266666.666666 0.23969520331208902 -0.9708481907636297 4.347263102187281e-18 8.61966065775129e-17 4.347263102187281e-18 8.61966065775129e-17 0.2396958262678323 -0.9708480369602748
12638884000.0 0.23088378913308652 -0.9729813337959707 5.1351671932227976e-18 8.613636511934649e-17 5.1351671932227976e-18 8.613636511934649e-17 0.2308844134270901 -0.9729811856537954
12639501333.333334 0.222053398313176 -0.9750345062085792 5.92233301805477e-18 8.606892729092305e-17 5.92233301805477e-18 8.606892729092305e-17 0.22205402389400028 -0.9750343637392068
12640118666.666666 0.21320475663395122 -0.9770075392485442 6.708694900305189e-18 8.59943015554044e-17 6.708694900305189e-18 8.59943015554044e-17 0.21320538345005574 -0.9770074024631296
12640736000.0 0.20433859137676194 -0.9789002707497824 7.49418725664018e-18 8.591249697485528e-17 7.49418725664018e-18 8.591249697485528e-17 0.20433921937650992 -0.9789001396590136
12641353333.333334 0.19545563126360424 -0.9807125451462239 8.278744602168498e-18 8.582352320925613e-17 8.278744602168498e-18 8.582352320925613e-17 0.19545626039526606 -0.9807124197603166
12641970666.666666 0.18655660639664157 -0.9824442134847178 9.06230155593948e-18 8.572739051545539e-17 9.06230155593948e-18 8.572739051545539e-17 0.18655723660840032 -0.9824440938134215
12642588000.0 0.17764224819847627 -0.9840951334372247 9.844792846354468e-18 8.562410974607945e-17 9.844792846354468e-18 8.562410974607945e-17 0.17764287943843074 -0.9840950194898155
12643205333.333334 0.1687132893520036 -0.9856651693125132 1.0626153316591447e-17 8.551369234839123e-17 1.0626153316591447e-17 8.551369234839123e-17 0.16871392156817377 -0.985665061097798
12643822666.666666 0.15977046374008097 -0.9871541920673375 1.1406317930037286e-17 8.53961503630963e-17 1.1406317930037286e-17 8.53961503630963e-17 0.15977109688041125 -0.9871540895936498
12644440000.0 0.15081450638534827 -0.9885620793170158 1.2185221775661686e-17 8.527149642310597e-17 1.2185221775661686e-17 8.527149642310597e-17 0.15081514039771235 -0.9885619825922175
12645057333.333334 0.14184615338978784 -0.9898887153454978 1.2962800073417403e-17 8.513974375224649e-17 1.2962800073417403e-17 8.513974375224649e-17 0.1418467882219927 -0.9898886243769766
12645674666.666666 0.13286614187422338 -0.9911339911148734 1.3738988179612775e-17 8.500090616392091e-17 1.3738988179612775e-17 8.500090616392091e-17 0.13286677747401382 -0.9911339059095435
12646292000.0 0.12387520991753773 -0.992297804274364 1.4513721592290065e-17 8.485499805971885e-17 1.4513721592290065e-17 8.485499805971885e-17 0.12387584623260076 -0.9922977248386666
12646909333.333334 0.11487409649637577 -0.9933800591686847 1.528693595654156e-17 8.470203442798581e-17 1.528693595654156e-17 8.470203442798581e-17 0.11487473347434442 -0.9933799855085845
12647526666.666666 0.10586354142412455 -0.994380666845942 1.605856706986682e-17 8.454203084233457e-17 1.605856706986682e-17 8.454203084233457e-17 0.10586417901258262 -0.9943805989669292
12648144000.0 0.09684428529013557 -0.9952995450649419 1.682855088748841e-17 8.437500346011212e-17 1.682855088748841e-17 8.437500346011212e-17 0.09684492343662175 -0.9952994829720309
12648761333.333334 0.08781706939896743 -0.9961366183019352 1.759682352764529e-17 8.42009690208206e-17 1.759682352764529e-17 8.42009690208206e-17 0.08781770805097969 -0.996136561999664
12649378666.666666 0.07878263570945729 -0.996891817756826 1.8363321276880057e-17 8.401994484448764e-17 1.8363321276880057e-17 8.401994484448764e-17 0.07878327481445722 -0.9968917672492572
12649996000.0 0.06974172677359704 -0.997565081358843 1.9127980595321986e-17 8.383194882998669e-17 1.9127980595321986e-17 8.383194882998669e-17 0.06974236627901409 -0.9975650366495614
12650613333.333334 0.06069508567561474 -0.998156353771626 1.98907381219343e-17 8.363699945331295e-17 1.98907381219343e-17 8.363699945331295e-17 0.06069572552885064 -0.998156314863741
12651230666.666666 0.05164345597090002 -0.9986655863977796 2.0651530679742154e-17 8.343511576581309e-17 2.0651530679742154e-17 8.343511576581309e-17 0.051644096119332954 -0.9986655532939218
12651848000.0 0.042587581624776334 -0.9990927373828675 2.1410295281076288e-17 8.322631739235864e-17 2.1410295281076288e-17 8.322631739235864e-17 0.04258822201576545 -0.9990927100851917
12652465333.333334 0.03352820695149578 -0.999437771618852 2.2166969132753895e-17 8.301062452948411e-17 2.2166969132753895e-17 8.301062452948411e-17 0.033528847532385386 -0.999437750129035
12653082666.666666 0.024466076553091118 -0.9997006607469737 2.2921489641262377e-17 8.278805794347193e-17 2.2921489641262377e-17 8.278805794347193e-17 0.024466717271215088 -0.9997006450662158
12653700000.0 0.01540193525789207 -0.9998813831600974 2.367379441794554e-17 8.255863896838473e-17 2.367379441794554e-17 8.255863896838473e-17 0.015402576060578092 -0.99988137328912
12654317333.333334 0.00633652805970445 -0.9999799240044708 2.4423821284126024e-17 8.232238950406356e-17 2.4423821284126024e-17 8.232238950406356e-17 0.006337168894278417 -0.9999799199435174
12654934666.666666 -0.0027293999437058604 -0.9999962751809551 2.5171508276240956e-17 8.207933201406994e-17 2.5171508276240956e-17 8.207933201406994e-17 -0.002728759129915525 -0.9999962769297939
12655552000.0 -0.011795103611853534 -0.999930435345691 2.5916793650957467e-17 8.182948952358132e-17 2.5916793650957467e-17 8.182948952358132e-17 -0.01179446287151157 -0.9999304429036108
12656169333.333334 -0.02085983782252212 -0.9997824099102047 2.6659615890235275e-17 8.157288561725049e-17 2.6659615890235275e-17 8.157288561725049e-17 -0.020859197208282068 -0.9997824232760167
12656786666.666666 -0.02992285753329074 -0.9995522110409639 2.7399913706414947e-17 8.130954443700452e-17 2.7399913706414947e-17 8.130954443700452e-17 -0.02992221709779069 -0.9995522302130045
12657404000.0 -0.03898341784262814 -0.9992398576583826 2.8137626047249955e-17 8.103949067980881e-17 2.8137626047249955e-17 8.103949067980881e-17 -0.038982777638486295 -0.9992398826345086
12658021333.333334 -0.04804077405117381 -0.998845375435258 2.8872692100933224e-17 8.076274959538009e-17 2.8872692100933224e-17 8.076274959538009e-17 -0.048040134130984284 -0.9988454062128511
12658638666.666666 -0.057094181722803894 -0.9983687967946715 2.9605051301085836e-17 8.047934698386031e-17 2.9605051301085836e-17 8.047934698386031e-17 -0.05709354213913232 -0.9983688333706365
12659256000.0 -0.06614289674610141 -0.9978101609073103 3.0334643331757054e-17 8.018930919343193e-17 3.0334643331757054e-17 8.018930919343193e-17 -0.06614225755148057 -0.9978102032780745
12659873333.333334 -0.07518617539525982 -0.9971695136882546 3.106140813235841e-17 7.989266311790499e-17 3.106140813235841e-17 7.989266311790499e-17 -0.07518553664218552 -0.9971695618497716
12660490666.666666 -0.08422327439121165 -0.9964469077932153 3.1785285902595e-17 7.958943619425182e-17 3.1785285902595e-17 7.958943619425182e-17 -0.08422263613213815 -0.9964469617409609
12661108000.0 -0.09325345096300225 -0.9956424026141759 3.250621710739547e-17 7.927965640008772e-17 3.250621710739547e-17 7.927965640008772e-17 -0.09325281325033818 -0.9956424623431525
12661725333.333334 -0.10227596290844293 -0.9947560642745475 3.322414248176373e-17 7.896335225112932e-17 3.322414248176373e-17 7.896335225112932e-17 -0.10227532579454697 -0.9947561297792828
12662342666.666666 -0.11129006865542522 -0.9937879656237086 3.3939003035662776e-17 7.864055279858642e-17 3.3939003035662776e-17 7.864055279858642e-17 -0.11128943219260153 -0.9937880368982547
12662960000.0 -0.12029502732272916 -0.9927381862310226 3.4650740058837026e-17 7.831128762652374e-17 3.4650740058837026e-17 7.831128762652374e-17 -0.1202943915632236 -0.9927382632689605
12663577333.333334 -0.12929009878094724 -0.9916068123793078 3.5359295125623443e-17 7.797558684917467e-17 3.5359295125623443e-17 7.797558684917467e-17 -0.12928946377694236 -0.9916068951737422
12664194666.666666 -0.13827454371331452 -0.9903939370577306 3.606461009973422e-17 7.763348110821175e-17 3.606461009973422e-17 7.763348110821175e-17 -0.1382739095169262 -0.9903940256012973
12664812000.0 -0.14724762367647615 -0.989099659954177 3.6766627139011445e-17 7.728500156997546e-17 3.6766627139011445e-17 7.728500156997546e-17 -0.1472469903397484 -0.9890997542390376
12665429333.333334 -0.15620860116120763 -0.9877240874470448 3.7465288700168396e-17 7.693017992265394e-17 3.7465288700168396e-17 7.693017992265394e-17 -0.15620796873610882 -0.9877241874648901
12666046666.666666 -0.16515673965289157 -0.9862673325965251 3.8160537543468814e-17 7.656904837343674e-17 3.8160537543468814e-17 7.656904837343674e-17 -0.1651561081913103 -0.9862674383385769
12666664000.0 -0.17409130369236228 -0.9847295151352642 3.8852316737435805e-17 7.620163964559846e-17 3.8852316737435805e-17 7.620163964559846e-17 -0.17409067324610256 -0.9847296265922728
12667281333.333334 -0.18301155893596027 -0.9831107614585799 3.95405696634678e-17 7.582798697557322e-17 3.95405696634678e-17 7.582798697557322e-17 -0.18301092955673792 -0.9831108786208286
12667898666.666666 -0.1919167722161702 -0.981411204614032 4.022524002048082e-17 7.544812410995944e-17 4.022524002048082e-17 7.544812410995944e-17 -0.19191614395560821 -0.9814113274713352
12668516000.0 -0.20080621160188014 -0.9796309842904828 4.0906271829500316e-17 7.50620853024939e-17 4.0906271829500316e-17 7.50620853024939e-17 -0.20080558451150451 -0.9796311128321884
12669133333.333334 -0.20967914645828858 -0.9777702468066626 4.1583609438205464e-17 7.466990531099561e-17 4.1583609438205464e-17 7.466990531099561e-17 -0.20967852058952421 -0.977770381021652
12669750666.666666 -0.21853484750723587 -0.9758291450990929 4.225719752548476e-17 7.427161939424621e-17 4.225719752548476e-17 7.427161939424621e-17 -0.21853422291140218 -0.9758292849757829
12670368000.0 -0.2273725868870324 -0.9738078387095358 4.2926981105931975e-17 7.386726330884555e-17 4.2926981105931975e-17 7.386726330884555e-17 -0.22737196361533907 -0.9738079842358777
