! Parameters = {f0=12700.012000; bw=77.238000; Q=6100.000000; N=10; m_0_1=1.280175; m_1_1=0.437882; m_1_2=1.114987; m_2_2=0.437233; m_2_3=0.751950; m_2_8=0.001072; m_2_9=0.037776; m_3_3=0.435296; m_3_4=0.640479; m_3_7=0.001672; m_3_8=-0.095416; m_3_9=0.001072; m_4_4=0.432371; m_4_5=0.476814; m_4_6=0.005189; m_4_7=-0.115965; m_4_8=0.001672; m_5_5=0.432753; m_5_6=0.884169; m_5_7=0.005189; m_6_6=0.432752; m_6_7=0.477156; m_7_7=0.432385; m_7_8=0.640597; m_8_8=0.435294; m_8_9=0.752263; m_9_9=0.437228; m_9_10=1.116065; m_10_10=0.437872; m_10_11=1.280970}
!
! Created with skrf (http://scikit-rf.org).
# Hz S RI R 50.0 
!freq ReS11 ImS11 ReS21 ImS21 ReS12 ImS12 ReS22 ImS22
12607400000.0 0.6200304842405079 0.7845777199311111 -9.482070543496056e-17 -6.683893347428175e-17 -9.482070543496056e-17 -6.683893347428175e-17 0.6200299550790302 0.7845781381127798
12608017333.333334 0.6284860740596577 0.7778208371552532 -9.552571115085539e-17 -6.578736382121909e-17 -9.552571115085539e-17 -6.578736382121909e-17 0.628485549481067 0.7778212610190733
12608634666.666666 0.6368680351845906 0.7709728307534192 -9.621906504762241e-17 -6.472837163802624e-17 -9.621906504762241e-17 -6.472837163802624e-17 0.6368675152498909 0.7709732602491802
12609252000.0 0.6451753856479834 0.7640345029864797 -9.690068913313825e-17 -6.366208592192261e-17 -9.690068913313825e-17 -6.366208592192261e-17 0.6451748704176291 0.7640349380633168
12609869333.333334 0.6534071522233582 0.7570066666966551 -9.757050684222778e-17 -6.25886364878797e-17 -9.757050684222778e-17 -6.25886364878797e-17 0.6534066417572463 0.7570071073030542
12610486666.666666 0.6615623705389267 0.7498901452124405 -9.822844304520333e-17 -6.15081539528745e-17 -9.822844304520333e-17 -6.15081539528745e-17 0.6615618648963901 0.7498905912962442
12611104000.0 0.6696400851909341 0.7426857722518319 -9.887442405627471e-17 -6.042076971998083e-17 -9.887442405627471e-17 -6.042076971998083e-17 0.6696395844307341 0.742686223760246
12611721333.333334 0.6776393498551979 0.7353943918249887 -9.950837764172295e-17 -5.932661596247113e-17 -9.950837764172295e-17 -5.932661596247113e-17 0.67763885403552 0.7353948487045905
12612338666.666666 0.6855592273982353 0.7280168581351366 -1.0013023302794928e-16 -5.822582560775202e-17 -1.0013023302794928e-16 -5.822582560775202e-17 0.685558736576679 0.7280173203318779
12612956000.0 0.6933987899869574 0.7205540354785638 -1.0073992090932789e-16 -5.711853232124343e-17 -1.0073992090932789e-16 -5.711853232124343e-17 0.6933983042205323 0.7205545029377799
12613573333.333334 0.7011571191973116 0.7130067981434309 -1.0133737345586033e-16 -5.600487049021742e-17 -1.0133737345586033e-16 -5.600487049021742e-17 0.7011566385424284 0.7130072708098448
12614190666.666666 0.7088333061219977 0.7053760303072246 -1.0192252432069692e-16 -5.4884975207473625e-17 -1.0192252432069692e-16 -5.4884975207473625e-17 0.7088328306344631 0.7053765081249554
12614808000.0 0.7164264514768872 0.6976626259332349 -1.024953086474389e-16 -5.375898225500914e-17 -1.024953086474389e-16 -5.375898225500914e-17 0.7164259812118969 0.6976631088458034
12615425333.333334 0.7239356657063165 0.6898674886658841 -1.0305566307727921e-16 -5.262702808757799e-17 -1.0305566307727921e-16 -5.262702808757799e-17 0.7239352007184501 0.6898679766162205
12616042666.666666 0.7313600690874221 0.6819915317247438 -1.0360352575595234e-16 -5.1489249816197935e-17 -1.0360352575595234e-16 -5.1489249816197935e-17 0.731359609430635 0.6819920246551935
12616660000.0 0.7386987918331209 0.6740356777976281 -1.0413883634051627e-16 -5.0345785191555576e-17 -1.0413883634051627e-16 -5.0345785191555576e-17 0.7386983375607389 0.6740361756499584
12617277333.333334 0.7459509741940669 0.6660008589324367 -1.0466153600593905e-16 -4.9196772587368717e-17 -1.0466153600593905e-16 -4.9196772587368717e-17 0.745950525358779 0.6660013616478441
12617894666.666666 0.7531157665592004 0.6578880164281525 -1.0517156745150276e-16 -4.80423509836812e-17 -1.0517156745150276e-16 -4.80423509836812e-17 0.7531153232130543 0.6578885239472695
12618512000.0 0.7601923295556057 0.6496981007242074 -1.0566887490703651e-16 -4.6882659950062016e-17 -1.0566887490703651e-16 -4.6882659950062016e-17 0.7601918917500012 0.6496986129871101
12619129333.333334 0.767179834146524 0.6414320712894956 -1.0615340413894538e-16 -4.571783962878604e-17 -1.0615340413894538e-16 -4.571783962878604e-17 0.7671794019322068 0.6414325882357101
12619746666.666666 0.7740774617286112 0.6330908965098234 -1.0662510245607217e-16 -4.45480307179109e-17 -1.0662510245607217e-16 -4.45480307179109e-17 0.7740770351556661 0.6330914180783326
12620364000.0 0.7808844042279445 0.6246755535743256 -1.0708391871536799e-16 -4.3373374454306405e-17 -1.0708391871536799e-16 -4.3373374454306405e-17 0.7808839833457916 0.6246760797035774
12620981333.333334 0.7875998641944565 0.6161870283612717 -1.0752980332735779e-16 -4.2194012596672013e-17 -1.0752980332735779e-16 -4.2194012596672013e-17 0.7875994490518448 0.6161875589891862
12621598666.666666 0.7942230548955753 0.6076263153223046 -1.0796270826145494e-16 -4.1010087408410755e-17 -1.0796270826145494e-16 -4.1010087408410755e-17 0.7942226455405751 0.6076268503862796
12622216000.0 0.800753200408231 0.5989944173661361 -1.0838258705105737e-16 -3.982174164052588e-17 -1.0838258705105737e-16 -3.982174164052588e-17 0.800752796888231 0.5989949568030573
12622833333.333334 0.8071895357098956 0.5902923457408749 -1.0878939479847078e-16 -3.8629118514426286e-17 -1.0878939479847078e-16 -3.8629118514426286e-17 0.8071891380715962 0.5902928894871209
12623450666.666666 0.8135313067680888 0.5815211199157146 -1.0918308817963053e-16 -3.7432361704719966e-17 -1.0918308817963053e-16 -3.7432361704719966e-17 0.813530915057497 0.5815216679071663
12624068000.0 0.81977777062875 0.572681767461457 -1.0956362544865527e-16 -3.623161532190147e-17 -1.0956362544865527e-16 -3.623161532190147e-17 0.8197773848911731 0.5726823196335035
12624685333.333334 0.8259281955033891 0.5637753239299647 -1.0993096644219401e-16 -3.5027023895037087e-17 -1.0993096644219401e-16 -3.5027023895037087e-17 0.8259278157834317 0.5637758802175121
12625302666.666666 0.8319818608545921 0.5548028327331705 -1.1028507258357973e-16 -3.3818732354426555e-17 -1.1028507258357973e-16 -3.3818732354426555e-17 0.8319814871961486 0.5548033930706494
12625920000.0 0.8379380574807058 0.5457653450204423 -1.1062590688681553e-16 -3.2606886014145024e-17 -1.1062590688681553e-16 -3.2606886014145024e-17 0.8379376899269559 0.5457659093418146
12626537333.333334 0.8437960875986353 0.5366639195558591 -1.109534339603383e-16 -3.1391630554653174e-17 -1.109534339603383e-16 -3.1391630554653174e-17 0.8437957261920399 0.5366644877946269
12627154666.666666 0.8495552649257843 0.5274996225938948 -1.1126762001061875e-16 -3.0173112005275996e-17 -1.1126762001061875e-16 -3.0173112005275996e-17 0.8495549097080807 0.5275001946831082
12627772000.0 0.8552149147604956 0.5182735277544283 -1.1156843284556103e-16 -2.895147672667522e-17 -1.1156843284556103e-16 -2.895147672667522e-17 0.8552145657726902 0.5182741036266916
12628389333.333334 0.8607743740608376 0.508986715897375 -1.118558418776943e-16 -2.7726871393352647e-17 -1.118558418776943e-16 -2.7726871393352647e-17 0.8607740313432043 0.5089872954848573
12629006666.666666 0.8662329915225971 0.49964027499555624 -1.1212981812720306e-16 -2.6499442976002277e-17 -1.1212981812720306e-16 -2.6499442976002277e-17 0.8662326551146712 0.4996408582299974
12629624000.0 0.8715901276553556 0.4902353000076015 -1.1239033422473593e-16 -2.5269338723948557e-17 -1.1239033422473593e-16 -2.5269338723948557e-17 0.87158979759593 0.4902358868203213
12630241333.333334 0.8768451548575269 0.4807728927494782 -1.1263736441403994e-16 -2.403670614748513e-17 -1.1263736441403994e-16 -2.403670614748513e-17 0.8768448311846467 0.48077348307138384
12630858666.666666 0.8819974574897417 0.47125416176565826 -1.1287088455438868e-16 -2.2801693000246932e-17 -1.1287088455438868e-16 -2.2801693000246932e-17 0.881997140240699 0.471254755527252
12631476000.0 0.8870464319472033 0.46168022219882576 -1.1309087212283542e-16 -2.15644472614737e-17 -1.1309087212283542e-16 -2.15644472614737e-17 0.8870461211585356 0.46168081933021454
12632093333.333334 0.8919914867301844 0.4520521956596346 -1.1329730621625014e-16 -2.0325117118362557e-17 -1.1329730621625014e-16 -2.0325117118362557e-17 0.891991182437668 0.45205279609053683
12632710666.666666 0.8968320425133666 0.4423712100952359 -1.134901675531801e-16 -1.9083850948325994e-17 -1.134901675531801e-16 -1.9083850948325994e-17 0.8968317447520139 0.4423718137549911
12633328000.0 0.9015675322138518 0.4326383996568577 -1.1366943847551255e-16 -1.784079730123676e-17 -1.1366943847551255e-16 -1.784079730123676e-17 0.901567241017905 0.43263900647443265
12633945333.333334 0.9061974010574247 0.42285490456726327 -1.1383510294993605e-16 -1.6596104881720984e-17 -1.1383510294993605e-16 -1.6596104881720984e-17 0.9061971164603564 0.4228555144712634
12634562666.666666 0.910721106643631 0.4130218709870224 -1.1398714656921971e-16 -1.5349922531362087e-17 -1.1398714656921971e-16 -1.5349922531362087e-17 0.9107208286781352 0.41302248390569757
12635180000.0 0.915138119009313 0.40314045088023287 -1.1412555655328934e-16 -1.4102399210946985e-17 -1.1412555655328934e-16 -1.4102399210946985e-17 0.9151378477073041 0.403141066741487
12635797333.333334 0.919447920690664 0.39321180187964355 -1.1425032175011425e-16 -1.2853683982679289e-17 -1.1425032175011425e-16 -1.2853683982679289e-17 0.9194476560832735 0.39321242061104306
12636414666.666666 0.923650006783874 0.38323708715098337 -1.143614326363956e-16 -1.160392599242301e-17 -1.143614326363956e-16 -1.160392599242301e-17 0.9236497489014462 0.3832377086797657
12637032000.0 0.9277438850043145 0.3732174752566153 -1.1445888131806792e-16 -1.0353274451878367e-17 -1.1445888131806792e-16 -1.0353274451878367e-17 0.927743633876402 0.3732180995096969
12637649333.333334 0.9317290757441318 0.3631541400188192 -1.145426615305988e-16 -9.101878620821588e-18 -1.145426615305988e-16 -9.101878620821588e-18 0.9317288313994929 0.36315476692280446
12638266666.666666 0.9356051121285096 0.3530482603820911 -1.1461276863909895e-16 -7.849887789310233e-18 -1.1461276863909895e-16 -7.849887789310233e-18 0.935604874595107 0.35304888986328176
12638884000.0 0.9393715400703252 0.3429010202751341 -1.1466919963823652e-16 -6.59745125991471e-18 -1.1466919963823652e-16 -6.59745125991471e-18 0.9393713093753191 0.34290165225953656
12639501333.333334 0.9430279183233714 0.3327136084720763 -1.147119531519592e-16 -5.344718329919299e-18 -1.147119531519592e-16 -5.344718329919299e-18 0.9430276944931199 0.33271424288541135
12640118666.666666 0.9465738185339607 0.32248721845347267 -1.1474102943302035e-16 -4.091838273586249e-18 -1.1474102943302035e-16 -4.091838273586249e-18 0.9465736015940139 0.3224878552211835
12640736000.0 0.9500088252913103 0.3122230482658943 -1.1475643036231395e-16 -2.838960324338186e-18 -1.1475643036231395e-16 -2.838960324338186e-18 0.9500086152664081 0.3122236873131554
12641353333.333334 0.9533325361759571 0.30192230038229995 -1.1475815944801278e-16 -1.5862336571024105e-18 -1.1475815944801278e-16 -1.5862336571024105e-18 0.9533323330900286 0.3019229416340266
12641970666.666666 0.9565445618070724 0.29158618156067995 -1.1474622182451715e-16 -3.3380737048964306e-19 -1.1474622182451715e-16 -3.3380737048964306e-19 0.9565443656832315 0.2915868249415366
12642588000.0 0.959644525888038 0.2812159027027885 -1.1472062425120737e-16 9.181695308774612e-19 -1.1472062425120737e-16 9.181695308774612e-19 0.9596443367485795 0.2812165481371971
12643205333.333334 0.9626320652505063 0.2708126787123653 -1.14681375111005e-16 2.1695481540698927e-18 -1.14681375111005e-16 2.1695481540698927e-18 0.9626318831169053 0.2708133261245146
12643822666.666666 0.965506829896985 0.26037772835266926 -1.1462848440874032e-16 3.420179735547426e-18 -1.1462848440874032e-16 3.420179735547426e-18 0.9655066547898935 0.26037837766652394
12644440000.0 0.9682684830418083 0.24991227410380715 -1.1456196376932891e-16 4.669915658785833e-18 -1.1456196376932891e-16 4.669915658785833e-18 0.9682683149810541 0.24991292524311673
12645057333.333334 0.9709167011505748 0.23941754201960058 -1.1448182643575468e-16 5.918607471931853e-18 -1.1448182643575468e-16 5.918607471931853e-18 0.9709165401551573 0.23941819490790786
12645674666.666666 0.9734511739780908 0.22889476158378502 -1.1438808726686258e-16 7.16610690539586e-18 -1.1438808726686258e-16 7.16610690539586e-18 0.9734510200661807 0.22889541614443562
12646292000.0 0.9758716046047444 0.21834516556586236 -1.142807627349565e-16 8.412265889458184e-18 -1.142807627349565e-16 8.412265889458184e-18 0.9758714577936793 0.21834582172201308
12646909333.333334 0.9781777094711798 0.2077699898771203 -1.1415987092321253e-16 9.656936571760345e-18 -1.1415987092321253e-16 9.656936571760345e-18 0.9781775697774655 0.20777064755174907
12647526666.666666 0.9803692184116279 0.19717047342540137 -1.140254315228945e-16 1.0899971334870799e-17 -1.140254315228945e-16 1.0899971334870799e-17 0.9803690858509344 0.1971711325413154
12648144000.0 0.9824458746855171 0.18654785797009812 -1.1387746583038248e-16 1.2141222813747556e-17 -1.1387746583038248e-16 1.2141222813747556e-17 0.9824457492726776 0.18654851844994358
12648761333.333334 0.9844074350075424 0.17590338797673455 -1.137159967440121e-16 1.3380543913173799e-17 -1.137159967440121e-16 1.3380543913173799e-17 0.9844073167565506 0.1759040497430052
12649378666.666666 0.9862536695761485 0.16523831047128618 -1.1354104876072582e-16 1.4617787825148194e-17 -1.1354104876072582e-16 1.4617787825148194e-17 0.9862535585001576 0.1652389734463326
12649996000.0 0.9879843621005042 0.1545538748937794 -1.133526479725282e-16 1.5852808046282554e-17 -1.133526479725282e-16 1.5852808046282554e-17 0.9879842582118272 0.15455453899981844
12650613333.333334 0.9895993098258152 0.14385133295208538 -1.1315082206275991e-16 1.7085458395101585e-17 -1.1315082206275991e-16 1.7085458395101585e-17 0.9895992131359208 0.14385199811120872
12651230666.666666 0.9910983235570452 0.13313193847547536 -1.1293560030218544e-16 1.831559302929456e-17 -1.1293560030218544e-16 1.831559302929456e-17 0.9910982340765571 0.13313260460965895
12651848000.0 0.9924812276811449 0.12239694726728158 -1.1270701354488052e-16 1.9543066462993586e-17 -1.1270701354488052e-16 1.9543066462993586e-17 0.9924811454198423 0.12239761429839494
12652465333.333334 0.9937478601875814 0.11164761695811509 -1.1246509422394943e-16 2.076773358390983e-17 -1.1246509422394943e-16 2.076773358390983e-17 0.9937477851543963 0.11164828480793007
12653082666.666666 0.9948980726873063 0.10088520685861531 -1.1220987634704712e-16 2.198944967046335e-17 -1.1220987634704712e-16 2.198944967046335e-17 0.9948980048903243 0.10088587544881572
12653700000.0 0.9959317304301954 0.09011097781146774 -1.1194139549171029e-16 2.320807040889168e-17 -1.1194139549171029e-16 2.320807040889168e-17 0.9959316698766517 0.09011164706365808
12654317333.333334 0.9968487123207752 0.079326192044201 -1.1165968880052189e-16 2.442345191021088e-17 -1.1165968880052189e-16 2.442345191021088e-17 0.9968486590170578 0.07932686187991604
12654934666.666666 0.9976489109324476 0.06853211302100341 -1.1136479497606877e-16 2.5635450727227497e-17 -1.1136479497606877e-16 2.5635450727227497e-17 0.997648864884092 0.06853278336171706
12655552000.0 0.9983322325200656 0.05773000529467585 -1.1105675427572776e-16 2.6843923871427542e-17 -1.1105675427572776e-16 2.6843923871427542e-17 0.9983321937317595 0.05773067606181064
12656169333.333334 0.9988985970308998 0.046921134358855345 -1.1073560850627413e-16 2.804872882979541e-17 -1.1073560850627413e-16 2.804872882979541e-17 0.9988985655064788 0.04692180547379152
12656786666.666666 0.9993479381140415 0.03610676649930554 -1.1040140101829494e-16 2.924972358161011e-17 -1.1040140101829494e-16 2.924972358161011e-17 0.99934791385649 0.036107437883390214
12657404000.0 0.9996802031281626 0.025288168645795004 -1.1005417670042703e-16 3.044676661516106e-17 -1.1005417670042703e-16 3.044676661516106e-17 0.9996801861396128 0.025288840220351466
12658021333.333334 0.9998953531476802 0.01446660822370177 -1.0969398197341453e-16 3.1639716944386926e-17 -1.0969398197341453e-16 3.1639716944386926e-17 0.9998953434294143 0.014467279910038678
12658638666.666666 0.999993362967325 0.003643353005503055 -1.0932086478398937e-16 3.282843412544271e-17 -1.0932086478398937e-16 3.282843412544271e-17 0.9999933605197717 0.003644024724923634
12659256000.0 0.999974221105089 -0.007180329037918017 -1.089348745985629e-16 3.4012778273223595e-17 -1.089348745985629e-16 3.4012778273223595e-17 0.9999742259278266 -0.007179657364106738
12659873333.333334 0.9998379298035712 -0.018003169885619355 -1.085360623967484e-16 3.5192610077788104e-17 -1.085360623967484e-16 3.5192610077788104e-17 0.999837941895326 -0.018002498336097343
12660490666.666666 0.999584505029719 -0.028823901615038044 -1.0812448066470664e-16 3.6367790820703174e-17 -1.0812448066470664e-16 3.6367790820703174e-17 0.9995845243883646 -0.028823230268463007
12661108000.0 0.9992139764729477 -0.0396412565509852 -1.0770018338829852e-16 3.7538182391361764e-17 -1.0770018338829852e-16 3.7538182391361764e-17 0.9992140030955083 -0.039640585485983426
12661725333.333334 0.998726387541674 -0.05045396741367421 -1.0726322604609347e-16 3.8703647303129785e-17 -1.0726322604609347e-16 3.8703647303129785e-17 0.9987264214243223 -0.050453296708831336
12662342666.666666 0.9981217953582249 -0.06126076746741303 -1.0681366560216547e-16 3.986404870951951e-17 -1.0681366560216547e-16 3.986404870951951e-17 0.9981218364962835 -0.06126009720126479
12662960000.0 0.997400270752143 -0.07206039066903366 -1.063515604987432e-16 4.101925042020111e-17 -1.063515604987432e-16 4.101925042020111e-17 0.9974003191400861 -0.07205972092005683
12663577333.333334 0.9965618982518946 -0.08285157181612712 -1.05876970648675e-16 4.21691169169633e-17 -1.05876970648675e-16 4.21691169169633e-17 0.9965619538833465 -0.08285090266273018
12664194666.666666 0.9956067760749593 -0.09363304669532169 -1.053899574277231e-16 4.331351336958492e-17 -1.053899574277231e-16 4.331351336958492e-17 0.995606838942697 -0.09363237821583571
12664812000.0 0.9945350161163374 -0.10440355223027534 -1.0489058366669233e-16 4.4452305651603186e-17 -1.0489058366669233e-16 4.4452305651603186e-17 0.9945350862122899 -0.10440288450294477
12665429333.333334 0.9933467439354193 -0.11516182662984631 -1.0437891364337584e-16 4.558536035602519e-17 -1.0437891364337584e-16 4.558536035602519e-17 0.9933468212506715 -0.11516115973282001
12666046666.666666 0.9920420987413071 -0.12590660953566082 -1.0385501307435126e-16 4.671254481089978e-17 -1.0385501307435126e-16 4.671254481089978e-17 0.992042183266098 -0.12590594354698267
12666664000.0 0.9906212333764571 -0.13663664217013377 -1.0331894910658054e-16 4.783372709486116e-17 -1.0331894910658054e-16 4.783372709486116e-17 0.9906213251001821 -0.13663597716773362
12667281333.333334 0.9890843142988418 -0.1473506674834304 -1.0277079030888431e-16 4.894877605248577e-17 -1.0277079030888431e-16 4.894877605248577e-17 0.9890844132100539 -0.147350003545115
12667898666.666666 0.9874315215623891 -0.15804743030118343 -1.0221060666320393e-16 5.0057561309651765e-17 -1.0221060666320393e-16 5.0057561309651765e-17 0.9874316276488012 -0.15804676750462734
12668516000.0 0.9856630487958958 -0.16872567747145498 -1.0163846955572635e-16 5.115995328874106e-17 -1.0163846955572635e-16 5.115995328874106e-17 0.9856631620443805 -0.16872501589419137
12669133333.333334 0.9837791031803997 -0.17938415801120972 -1.0105445176784962e-16 5.225582322373179e-17 -1.0105445176784962e-16 5.225582322373179e-17 0.9837792235769925 -0.17938349773062134
12669750666.666666 0.9817799054248337 -0.19002162325331956 -1.0045862746696768e-16 5.3345043175226403e-17 -1.0045862746696768e-16 5.3345043175226403e-17 0.981780032954734 -0.19002096434662982
