! Parameters = {f0=12700.012000; bw=77.238000; Q=6100.000000; N=10; m_0_1=1.171667; m_1_1=-1.189746; m_1_2=1.006479; m_2_2=-1.190395; m_2_3=0.643442; m_2_8=-0.004353; m_2_9=0.032351; m_3_3=-1.192332; m_3_4=0.531971; m_3_7=-0.003753; m_3_8=-0.100841; m_3_9=-0.004353; m_4_4=-1.195257; m_4_5=0.368306; m_4_6=-0.000236; m_4_7=-0.121390; m_4_8=-0.003753; m_5_5=-1.194875; m_5_6=0.775661; m_5_7=-0.000236; m_6_6=-1.194876; m_6_7=0.368648; m_7_7=-1.195243; m_7_8=0.532089; m_8_8=-1.192334; m_8_9=0.643755; m_9_9=-1.190400; m_9_10=1.007557; m_10_10=-1.189756; m_10_11=1.172462}
!
! Created with skrf (http://scikit-rf.org).
# Hz S RI R 50.0 
!freq ReS11 ImS11 ReS21 ImS21 ReS12 ImS12 ReS22 ImS22
12607400000.0 -0.8858095053662757 -0.46404904934996194 6.661700661152406e-17 1.3126484105353732e-17 6.661700661152406e-17 1.3126484105353732e-17 -0.8858092188294293 -0.4640495963112628
12608017333.333334 -0.8893179583622033 -0.4572893711145404 6.670309489865498e-17 1.261036873178217e-17 6.670309489865498e-17 1.261036873178217e-17 -0.8893176760130873 -0.4572899202153167
12608634666.666666 -0.8927748286991417 -0.45050316895785303 6.678518874244687e-17 1.2093706743569055e-17 6.678518874244687e-17 1.2093706743569055e-17 -0.8927745505537222 -0.4505037201660476
12609252000.0 -0.8961799158700404 -0.44369083649655994 6.686328483469844e-17 1.1576529023500785e-17 6.686328483469844e-17 1.1576529023500785e-17 -0.8961796419440384 -0.44369138977999667
12609869333.333334 -0.8995330223714146 -0.43685276886291813 6.693738010573244e-17 1.1058866472861149e-17 6.693738010573244e-17 1.1058866472861149e-17 -0.8995327526803039 -0.4368533241893033
12610486666.666666 -0.9028339537147381 -0.4299893626819903 6.700747172448085e-17 1.0540750009611913e-17 6.700747172448085e-17 1.0540750009611913e-17 -0.9028336882737464 -0.42998992001891523
12611104000.0 -0.9060825184378489 -0.4231010160483839 6.707355709856377e-17 1.0022210566523621e-17 6.707355709856377e-17 1.0022210566523621e-17 -0.9060822572619558 -0.4231015753633266
12611721333.333334 -0.9092785281159304 -0.41618812850341697 6.713563387434545e-17 9.50327908936346e-18 6.713563387434545e-17 9.50327908936346e-18 -0.909278271219866 -0.4161886897637435
12612338666.666666 -0.9124217973725021 -0.4092511010118154 6.719369993698336e-17 8.983986535035364e-18 6.719369993698336e-17 8.983986535035364e-18 -0.9124215447707469 -0.4092516641847821
12612956000.0 -0.9155121438901588 -0.4022903359384807 6.724775341045959e-17 8.464363869739204e-18 6.724775341045959e-17 8.464363869739204e-18 -0.9155118955969436 -0.4022909009912368
12613573333.333334 -0.918549388421147 -0.3953062370251535 6.729779265759669e-17 7.944442067149403e-18 6.729779265759669e-17 7.944442067149403e-18 -0.9185491444504509 -0.3953068039247421
12614190666.666666 -0.9215333547977616 -0.3882992093669948 6.734381628006434e-17 7.424252106547796e-18 6.734381628006434e-17 7.424252106547796e-18 -0.9215331151633114 -0.388299778080355
12614808000.0 -0.9244638699425622 -0.38126965938908863 6.738582311836606e-17 6.903824971004756e-18 6.738582311836606e-17 6.903824971004756e-18 -0.9244636346578322 -0.38127022988305764
12615425333.333334 -0.9273407638784146 -0.37421799482287 6.742381225181595e-17 6.383191645530237e-18 6.742381225181595e-17 6.383191645530237e-18 -0.9273405329566252 -0.374218567064185
12616042666.666666 -0.9301638697383471 -0.3671446246824737 6.745778299849923e-17 5.862383115236841e-18 6.745778299849923e-17 5.862383115236841e-18 -0.9301636431924649 -0.3671451986377741
12616660000.0 -0.9329330237752307 -0.3600499592410116 6.748773491521954e-17 5.341430363501729e-18 6.748773491521954e-17 5.341430363501729e-18 -0.9329328016179681 -0.3600505348768407
12617277333.333334 -0.9356480653712801 -0.3529344100067765 6.751366779743166e-17 4.820364370127419e-18 6.751366779743166e-17 4.820364370127419e-18 -0.9356478476150908 -0.3529349872895825
12617894666.666666 -0.9383088370473615 -0.34579838969937066 6.753558167915964e-17 4.299216109515023e-18 6.753558167915964e-17 4.299216109515023e-18 -0.9383086237044456 -0.34579896859551057
12618512000.0 -0.940915184472136 -0.33864231222577085 6.755347683290257e-17 3.7780165488097484e-18 6.755347683290257e-17 3.7780165488097484e-18 -0.940914975554435 -0.33864289270151093
12619129333.333334 -0.9434669564710046 -0.33146659265631784 6.756735376952403e-17 3.2567966460859332e-18 6.756735376952403e-17 3.2567966460859332e-18 -0.9434667519902029 -0.331467174677836
12619746666.666666 -0.9459640050348711 -0.32427164720066926 6.757721323812886e-17 2.735587348506462e-18 6.757721323812886e-17 2.735587348506462e-18 -0.9459638050023942 -0.32427223073405737
12620364000.0 -0.9484061853287733 -0.3170578931835248 6.75830562259255e-17 2.214419590483524e-18 6.75830562259255e-17 2.214419590483524e-18 -0.948405989755787 -0.3170584781947899
12620981333.333334 -0.9507933557001866 -0.30982574902068677 6.758488395807413e-17 1.6933242918677803e-18 6.758488395807413e-17 1.6933242918677803e-18 -0.9507931645975983 -0.309826335475754
12621598666.666666 -0.9531253776873384 -0.3025756341945247 6.758269789752089e-17 1.1723323561006414e-18 6.758269789752089e-17 1.1723323561006414e-18 -0.9531251910657949 -0.3025762220592385
12622216000.0 -0.9554021160271913 -0.2953079692297774 6.757649974481812e-17 6.514746683970823e-19 6.757649974481812e-17 6.514746683970823e-19 -0.9554019338970784 -0.29530855846990417
12622833333.333334 -0.9576234386633051 -0.2880231756691078 6.756629143793043e-17 1.307820939187143e-19 6.756629143793043e-17 1.307820939187143e-19 -0.9576232610347457 -0.2880237662503369
12623450666.666666 -0.9597892167534551 -0.28072167604878795 6.755207515202675e-17 -3.8971452404931793e-19 6.755207515202675e-17 -3.8971452404931793e-19 -0.9597890436363118 -0.28072226793673477
12624068000.0 -0.9618993246771871 -0.27340389387391895 6.753385329925864e-17 -9.099843659175073e-19 6.753385329925864e-17 -9.099843659175073e-19 -0.9618991560810601 -0.2734044870341267
12624685333.333334 -0.9639536400430264 -0.2660702535941398 6.75116285285242e-17 -1.429996637620553e-18 6.75116285285242e-17 -1.429996637620553e-18 -0.9639534759772511 -0.26607084799208064
12625302666.666666 -0.9659520436956027 -0.25872118057889776 6.748540372521889e-17 -1.9497205724130027e-18 6.748540372521889e-17 -1.9497205724130027e-18 -0.9659518841692523 -0.2587217761799759
12625920000.0 -0.9678944197225964 -0.25135710109266735 6.745518201097076e-17 -2.4691254327124417e-18 6.745518201097076e-17 -2.4691254327124417e-18 -0.9678942647444786 -0.25135769786222023
12626537333.333334 -0.9697806554613909 -0.24397844227047188 6.74209667433642e-17 -2.9881805118846255e-18 6.74209667433642e-17 -2.9881805118846255e-18 -0.96978050504005 -0.24397904017377284
12627154666.666666 -0.971610641505649 -0.23658563209297245 6.73827615156477e-17 -3.506855136064427e-18 6.73827615156477e-17 -3.506855136064427e-18 -0.971610495649364 -0.23658623109523258
12627772000.0 -0.973384271711698 -0.22917909936147834 6.734057015642805e-17 -4.0251186659721765e-18 6.734057015642805e-17 -4.0251186659721765e-18 -0.9733841304284817 -0.2291796994278482
12628389333.333334 -0.9751014432045878 -0.22175927367346063 6.72943967293523e-17 -4.54294049869856e-18 6.72943967293523e-17 -4.54294049869856e-18 -0.9751013065021873 -0.22175987476903236
12629006666.666666 -0.9767620563841628 -0.21432658539722135 6.72442455327736e-17 -5.0602900695229836e-18 6.72442455327736e-17 -5.0602900695229836e-18 -0.9767619242700593 -0.21432718748703117
12629624000.0 -0.9783660149307636 -0.20688146564723453 6.719012109940535e-17 -5.577136853698392e-18 6.719012109940535e-17 -5.577136853698392e-18 -0.9783658874121706 -0.20688206869626413
12630241333.333334 -0.9799132258108476 -0.19942434625900254 6.713202819595996e-17 -6.093450368255944e-18 6.713202819595996e-17 -6.093450368255944e-18 -0.9799131028947118 -0.19942495023218149
12630858666.666666 -0.9814035992823769 -0.19195565976403567 6.70699718227757e-17 -6.609200173785506e-18 6.70699718227757e-17 -6.609200173785506e-18 -0.981403480975378 -0.19195626462624346
12631476000.0 -0.9828370489000279 -0.1844758393647651 6.70039572134264e-17 -7.124355876245272e-18 6.70039572134264e-17 -7.124355876245272e-18 -0.9828369352085771 -0.18447644508083305
12632093333.333334 -0.9842134915202049 -0.17698531890938723 6.693398983432275e-17 -7.638887128720359e-18 6.693398983432275e-17 -7.638887128720359e-18 -0.9842133824504444 -0.17698592544410047
12632710666.666666 -0.9855328473058413 -0.16948453286683984 6.686007538429502e-17 -8.152763633223651e-18 6.686007538429502e-17 -8.152763633223651e-18 -0.985532742863646 -0.1694851401849396
12633328000.0 -0.9867950397310793 -0.16197391630132182 6.678221979416386e-17 -8.665955142472004e-18 6.678221979416386e-17 -8.665955142472004e-18 -0.9867949399220537 -0.16197452436750714
12633945333.333334 -0.9879999955856575 -0.15445390484733804 6.67004292262993e-17 -9.178431461651271e-18 6.67004292262993e-17 -9.178431461651271e-18 -0.9879999004151382 -0.15445451362626827
12634562666.666666 -0.9891476449791843 -0.14692493468429185 6.661471007416359e-17 -9.690162450194544e-18 6.661471007416359e-17 -9.690162450194544e-18 -0.9891475544522372 -0.14692554414058828
12635180000.0 -0.9902379213451851 -0.13938744251121335 6.652506896184197e-17 -1.0201118023547049e-17 6.652506896184197e-17 -1.0201118023547049e-17 -0.9902378354666072 -0.13938805260946158
12635797333.333334 -0.9912707614449643 -0.13184186552142985 6.643151274355902e-17 -1.071126815493072e-17 6.643151274355902e-17 -1.071126815493072e-17 -0.9912706802192821 -0.13184247622618162
12636414666.666666 -0.992246105371273 -0.1242886413772076 6.633404850318383e-17 -1.1220582877093472e-17 6.633404850318383e-17 -1.1220582877093472e-17 -0.9922460288027426 -0.12428925265298295
12637032000.0 -0.9931638965517816 -0.11672820818436595 6.623268355371677e-17 -1.1729032284082405e-17 6.623268355371677e-17 -1.1729032284082405e-17 -0.9931638246443896 -0.11672881999565538
12637649333.333334 -0.9940240817523665 -0.10916100446686683 6.612742543676932e-17 -1.2236586532975093e-17 6.612742543676932e-17 -1.2236586532975093e-17 -0.9940240145098277 -0.10916161677813312
12638266666.666666 -0.9948266110801925 -0.10158746914137856 6.60182819220257e-17 -1.2743215845634653e-17 6.60182819220257e-17 -1.2743215845634653e-17 -0.9948265485059506 -0.10158808191705897
12638884000.0 -0.9955714379866081 -0.09400804149181784 6.59052610066932e-17 -1.3248890510449019e-17 6.59052610066932e-17 -1.3248890510449019e-17 -0.9955713800838374 -0.09400865469632631
12639501333.333334 -0.9962585192698511 -0.08642316114384217 6.578837091493843e-17 -1.3753580884069333e-17 6.578837091493843e-17 -1.3753580884069333e-17 -0.9962584660414524 -0.08642377474157108
12640118666.666666 -0.9968878150775338 -0.07883326803951979 6.566762009731323e-17 -1.4257257393130548e-17 6.566762009731323e-17 -1.4257257393130548e-17 -0.9968877665261389 -0.07883388199484231
12640736000.0 -0.9974592889089988 -0.07123880241135928 6.554301723015854e-17 -1.4759890536006336e-17 6.554301723015854e-17 -1.4759890536006336e-17 -0.9974592450369656 -0.07123941668863126
12641353333.333334 -0.9979729076173758 -0.06364020475745462 6.541457121501019e-17 -1.5261450884493926e-17 6.541457121501019e-17 -1.5261450884493926e-17 -0.9979728684267928 -0.06364081932101677
12641970666.666666 -0.9984286414115534 -0.05603791581536867 6.528229117797608e-17 -1.5761909085558954e-17 6.528229117797608e-17 -1.5761909085558954e-17 -0.9984286069042351 -0.056038530629548465
12642588000.0 -0.9988264638578886 -0.04843237653673902 6.514618646911e-17 -1.626123586303628e-17 6.514618646911e-17 -1.626123586303628e-17 -0.99882643403538 -0.048432991565853026
12643205333.333334 -0.9991663518817366 -0.04082402806181547 6.500626666176937e-17 -1.67594020193366e-17 6.500626666176937e-17 -1.67594020193366e-17 -0.999166326745309 -0.040824643270171185
12643822666.666666 -0.9994482857687949 -0.033213311693787606 6.486254155195803e-17 -1.7256378437155152e-17 6.486254155195803e-17 -1.7256378437155152e-17 -0.9994482653194484 -0.033213927045685654
12644440000.0 -0.9996722491662464 -0.025600668873074366 6.47150211576607e-17 -1.775213608115841e-17 6.47150211576607e-17 -1.775213608115841e-17 -0.9996722334047101 -0.02560128433281054
12645057333.333334 -0.9998382290837048 -0.017986541151975243 6.456371571816169e-17 -1.8246645999676353e-17 6.456371571816169e-17 -1.8246645999676353e-17 -0.9998382180104347 -0.017987156683842556
12645674666.666666 -0.9999462158939701 -0.010371370168917012 6.440863569335082e-17 -1.8739879326387196e-17 6.440863569335082e-17 -1.8739879326387196e-17 -0.9999462095091507 -0.010371985737207778
12646292000.0 -0.9999962033335889 -0.0027555976226670865 6.424979176301361e-17 -1.9231807282007393e-17 6.424979176301361e-17 -1.9231807282007393e-17 -0.9999962016371328 -0.002756213191675
12646909333.333334 -0.9999881885032144 0.004860334752916621 6.408719482611682e-17 -1.9722401175948464e-17 6.408719482611682e-17 -1.9722401175948464e-17 -0.9999881914947617 0.004859719218894424
12647526666.666666 -0.9999221718677759 0.012475985214791598 6.392085600007393e-17 -2.021163240799154e-17 6.392085600007393e-17 -2.021163240799154e-17 -0.9999221795466965 0.012475369751452473
12648144000.0 -0.9997981572564526 0.020090912036324512 6.375078661999873e-17 -2.0699472469954145e-17 6.375078661999873e-17 -2.0699472469954145e-17 -0.9997981696218424 0.02009029667935821
12648761333.333334 -0.9996161518624501 0.02770467353277032 6.357699823795074e-17 -2.118589294733632e-17 6.357699823795074e-17 -2.118589294733632e-17 -0.9996161689131342 0.027704058317856953
12649378666.666666 -0.9993761662425836 0.03531682808700479 6.339950262216528e-17 -2.167086552096961e-17 6.339950262216528e-17 -2.167086552096961e-17 -0.9993761879771157 0.035316213049812736
12649996000.0 -0.9990782143166653 0.04292693417511094 6.321831175626787e-17 -2.2154361968668808e-17 6.321831175626787e-17 -2.2154361968668808e-17 -0.9990782407333278 0.0429263193512948
12650613333.333334 -0.9987223133666971 0.050534550392016965 6.303343783848168e-17 -2.263635416686099e-17 6.303343783848168e-17 -2.263635416686099e-17 -0.9987223444635012 0.050533935817215506
12651230666.666666 -0.9983084840358746 0.05813923547695691 6.284489328082036e-17 -2.3116814092215473e-17 6.284489328082036e-17 -2.3116814092215473e-17 -0.9983085198105593 0.05813862118679092
12651848000.0 -0.9978367503273734 0.0657405483393486 6.26526907082652e-17 -2.359571382327397e-17 6.26526907082652e-17 -2.359571382327397e-17 -0.9978367907774073 0.06573993436941893
12652465333.333334 -0.9973071396029715 0.07333804808412266 6.245684295793672e-17 -2.4073025542058412e-17 6.245684295793672e-17 -2.4073025542058412e-17 -0.9973071847255528 0.07333743447000814
12653082666.666666 -0.9967196825814663 0.08093129403729571 6.225736307825115e-17 -2.4548721535678974e-17 6.225736307825115e-17 -2.4548721535678974e-17 -0.9967197323735215 0.08093068081455099
12653700000.0 -0.9960744133368679 0.08851984577181386 6.205426432805647e-17 -2.502277419795456e-17 6.205426432805647e-17 -2.502277419795456e-17 -0.9960744677950528 0.08851923297596742
12654317333.333334 -0.9953713692964568 0.09610326313267346 6.184756017577415e-17 -2.549515603098425e-17 6.184756017577415e-17 -2.549515603098425e-17 -0.995371428417158 0.09610265079922561
12654934666.666666 -0.9946105912385799 0.1036811062628763 6.163726429851096e-17 -2.5965839646753716e-17 6.163726429851096e-17 -2.5965839646753716e-17 -0.9946106550179133 0.10368049442729707
12655552000.0 -0.9937921232903106 0.11125293562863078 6.142339058116672e-17 -2.643479776871526e-17 6.142339058116672e-17 -2.643479776871526e-17 -0.9937921917241217 0.11125232432635775
12656169333.333334 -0.9929160129248754 0.11881831204498736 6.120595311553357e-17 -2.690200323335369e-17 6.120595311553357e-17 -2.690200323335369e-17 -0.9929160860087421 0.11881770131142393
12656786666.666666 -0.9919823109589065 0.1263767967012845 6.098496619937606e-17 -2.736742899176053e-17 6.098496619937606e-17 -2.736742899176053e-17 -0.9919823886881365 0.12637618657179753
12657404000.0 -0.9909910715494921 0.13392795118660053 6.076044433550345e-17 -2.783104811119211e-17 6.076044433550345e-17 -2.783104811119211e-17 -0.9909911539191231 0.13392734169651838
12658021333.333334 -0.9899423521910294 0.14147133751521046 6.053240223082851e-17 -2.829283377662362e-17 6.053240223082851e-17 -2.829283377662362e-17 -0.9899424391958314 0.1414707286998209
12658638666.666666 -0.9888362137119135 0.14900651815185004 6.030085479541958e-17 -2.8752759292285334e-17 6.030085479541958e-17 -2.8752759292285334e-17 -0.9888363053463882 0.1490059100463984
12659256000.0 -0.9876727202709668 0.15653305603737488 6.006581714152855e-17 -2.92107980832168e-17 6.006581714152855e-17 -2.92107980832168e-17 -0.9876728165293475 0.15653244867706176
12659873333.333334 -0.9864519393537524 0.16405051461385772 5.982730458262365e-17 -2.966692369677899e-17 5.982730458262365e-17 -2.966692369677899e-17 -0.9864520402300054 0.16404990803383718
12660490666.666666 -0.9851739417686668 0.1715584578499108 5.958533263239963e-17 -3.01211098041828e-17 5.958533263239963e-17 -3.01211098041828e-17 -0.98517404725649 0.171557852085288
12661108000.0 -0.9838388016427847 0.1790564502662281 5.933991700377523e-17 -3.057333020200905e-17 5.933991700377523e-17 -3.057333020200905e-17 -0.9838389117356108 0.1790558453520578
12661725333.333334 -0.9824465964176092 0.18654405696056453 5.909107360789266e-17 -3.1023558813697384e-17 5.909107360789266e-17 -3.1023558813697384e-17 -0.9824467111086044 0.18654345293184868
12662342666.666666 -0.9809974068445599 0.19402084363310187 5.883881855308728e-17 -3.1471769691060374e-17 5.883881855308728e-17 -3.1471769691060374e-17 -0.9809975261266233 0.1940202405247875
12662960000.0 -0.9794913169802859 0.20148637661161 5.85831681438596e-17 -3.1917937015764295e-17 5.85831681438596e-17 -3.1917937015764295e-17 -0.9794914408460513 0.20148577445858748
12663577333.333334 -0.9779284141817981 0.20894022287660224 5.832413887983064e-17 -3.2362035100811784e-17 5.832413887983064e-17 -3.2362035100811784e-17 -0.9779285426236345 0.20893962171370306
12664194666.666666 -0.9763087891013966 0.21638195008645073 5.806174745468732e-17 -3.2804038392014414e-17 5.806174745468732e-17 -3.2804038392014414e-17 -0.9763089221114079 0.2163813499484455
12664812000.0 -0.9746325356814165 0.22381112660246366 5.779601075511689e-17 -3.3243921469455e-17 5.779601075511689e-17 -3.3243921469455e-17 -0.9746326732514422 0.22381052752406017
12665429333.333334 -0.9728997511487686 0.23122732151394862 5.752694585972563e-17 -3.368165904895156e-17 5.752694585972563e-17 -3.368165904895156e-17 -0.9728998932703862 0.23122672352979015
12666046666.666666 -0.9711105360093379 0.23863010466306925 5.725457003796123e-17 -3.4117225983486166e-17 5.725457003796123e-17 -3.4117225983486166e-17 -0.97111068267386 0.23862950780773182
12666664000.0 -0.9692649940420837 0.24601904667007077 5.697890074899935e-17 -3.4550597264667593e-17 5.697890074899935e-17 -3.4550597264667593e-17 -0.969265145240561 0.24601845097806177
12667281333.333334 -0.9673632322930878 0.2533937189579092 5.669995564064878e-17 -3.49817480241366e-17 5.669995564064878e-17 -3.49817480241366e-17 -0.9673633880163092 0.2533931244636653
12667898666.666666 -0.9654053610693214 0.2607536937772209 5.641775254822101e-17 -3.5410653535002627e-17 5.641775254822101e-17 -3.5410653535002627e-17 -0.9654055213078129 0.26075310051510553
12668516000.0 -0.9633914939322122 0.26809854423124185 5.613230949339897e-17 -3.5837289213255345e-17 5.613230949339897e-17 -3.5837289213255345e-17 -0.9633916586762412 0.26809795223554417
12669133333.333334 -0.9613217476911371 0.2754278443002951 5.584364468310556e-17 -3.62616306191514e-17 5.584364468310556e-17 -3.62616306191514e-17 -0.9613219169307087 0.27542725360522713
12669750666.666666 -0.9591962423965705 0.2827411688667754 5.555177650833724e-17 -3.66836534586304e-17 5.555177650833724e-17 -3.66836534586304e-17 -0.9591964161214304 0.2827405795064704
