! Parameters = {f0=12700.012000; bw=77.238000; Q=6100.000000; N=10; m_0_1=1.309004; m_1_1=0.870314; m_1_2=1.143816; m_2_2=0.869665; m_2_3=0.780779; m_2_8=0.002514; m_2_9=0.039218; m_3_3=0.867728; m_3_4=0.669308; m_3_7=0.003114; m_3_8=-0.093974; m_3_9=0.002514; m_4_4=0.864803; m_4_5=0.505643; m_4_6=0.006631; m_4_7=-0.114523; m_4_8=0.003114; m_5_5=0.865185; m_5_6=0.912998; m_5_7=0.006631; m_6_6=0.865184; m_6_7=0.505985; m_7_7=0.864817; m_7_8=0.669426; m_8_8=0.867726; m_8_9=0.781092; m_9_9=0.869660; m_9_10=1.144894; m_10_10=0.870304; m_10_11=1.309799}
!
! Created with skrf (http://scikit-rf.org).
# Hz S RI R 50.0 
!freq ReS11 ImS11 ReS21 ImS21 ReS12 ImS12 ReS22 ImS22
12607400000.0 -0.6919719300016727 0.7219244060769615 6.072771285093782e-17 -1.1773489496920487e-16 6.072771285093782e-17 -1.1773489496920487e-16 -0.6919724278318604 0.721923928901303
12608017333.333334 -0.683495758883214 0.7299544832306138 5.932680791066584e-17 -1.1841798186376606e-16 5.932680791066584e-17 -1.1841798186376606e-16 -0.683496262226205 0.7299540119230935
12608634666.666666 -0.6749264084194818 0.7378850474279802 5.791824021583871e-17 -1.1908441126820575e-16 5.791824021583871e-17 -1.1908441126820575e-16 -0.6749269172061195 0.7378845820522721
12609252000.0 -0.6662650468496161 0.7457150175142587 5.650220769730913e-17 -1.1973409747887073e-16 5.650220769730913e-17 -1.1973409747887073e-16 -0.6662655610100104 0.7457145581332236
12609869333.333334 -0.6575128549564533 0.7534433260483673 5.507890924131254e-17 -1.203669571424279e-16 5.507890924131254e-17 -1.203669571424279e-16 -0.6575133744199866 0.7534428727240409
12610486666.666666 -0.648671025905595 0.7610689194484269 5.364854466162166e-17 -1.2098290926645635e-16 5.364854466162166e-17 -1.2098290926645635e-16 -0.6486715506009342 0.7610684722420136
12611104000.0 -0.6397407650824675 0.7685907581356353 5.221131467147321e-17 -1.2158187522975616e-16 5.221131467147321e-17 -1.2158187522975616e-16 -0.6397412949375741 0.7685903171075006
12611721333.333334 -0.6307232899283414 0.7760078166756977 5.076742085552343e-17 -1.221637787922657e-16 5.076742085552343e-17 -1.221637787922657e-16 -0.6307238248704791 0.776007381885357
12612338666.666666 -0.6216198297742054 0.783319083918745 4.931706564155477e-17 -1.227285461047027e-16 4.931706564155477e-17 -1.227285461047027e-16 -0.6216203697299528 0.7833186554248595
12612956000.0 -0.6124316256730234 0.790523563137311 4.7860452272167616e-17 -1.2327610571783388e-16 4.7860452272167616e-17 -1.2327610571783388e-16 -0.6124321705682831 0.7905231409976776
12613573333.333334 -0.6031599302309212 0.797620272161912 4.639778477634641e-17 -1.2380638859141992e-16 4.639778477634641e-17 -1.2380638859141992e-16 -0.6031604799909288 0.7976198564334548
12614190666.666666 -0.5938060074360184 0.8046082435152571 4.492926794091692e-17 -1.2431932810282597e-16 4.492926794091692e-17 -1.2431932810282597e-16 -0.5938065619853541 0.8046078342540212
12614808000.0 -0.5843711324864063 0.8114865245439196 4.345510728190682e-17 -1.2481486005529726e-16 4.345510728190682e-17 -1.2481486005529726e-16 -0.5843716917490038 0.8114861218050623
12615425333.333334 -0.5748565916160946 0.8182541775483582 4.19755090158516e-17 -1.2529292268588164e-16 4.19755090158516e-17 -1.2529292268588164e-16 -0.5748571555152545 0.818253781386144
12616042666.666666 -0.5652636819198515 0.8249102799106247 4.0490680030965546e-17 -1.2575345667303134e-16 4.0490680030965546e-17 -1.2575345667303134e-16 -0.5652642503782491 0.8249098903784153
12616660000.0 -0.5555937111761857 0.8314539242202694 3.900082785826627e-17 -1.261964051438505e-16 3.900082785826627e-17 -1.261964051438505e-16 -0.5555942841158812 0.831453541370517
12617277333.333334 -0.545847997669198 0.8378842183979482 3.750616064261463e-17 -1.2662171368100402e-16 3.750616064261463e-17 -1.2662171368100402e-16 -0.5458485750116495 0.8378838422821893
12617894666.666666 -0.5360278700089139 0.8442002858170089 3.6006887113688527e-17 -1.2702933032928286e-16 3.6006887113688527e-17 -1.2702933032928286e-16 -0.536028451674987 0.8441999164858572
12618512000.0 -0.5261346669498239 0.850401265423218 3.450321655682552e-17 -1.2741920560184245e-16 3.450321655682552e-17 -1.2741920560184245e-16 -0.5261352528598022 0.8504009029263576
12619129333.333334 -0.5161697372088742 0.8564863118518208 3.2995358783926575e-17 -1.2779129248606245e-16 3.2995358783926575e-17 -1.2779129248606245e-16 -0.5161703272824709 0.856485956237999
12619746666.666666 -0.5061344392811937 0.8624545955430495 3.1483524104160936e-17 -1.281455464490999e-16 3.1483524104160936e-17 -1.281455464490999e-16 -0.5061350334375618 0.8624542468600702
12620364000.0 -0.49603014125496164 0.8683053028551629 2.996792329468572e-17 -1.2848192544307597e-16 2.996792329468572e-17 -1.2848192544307597e-16 -0.4960307394127059 0.8683049611498811
12620981333.333334 -0.4858582206251956 0.8740376361752005 2.844876757134566e-17 -1.2880038990991164e-16 2.844876757134566e-17 -1.2880038990991164e-16 -0.48585882270238334 0.8740373014935153
12621598666.666666 -0.47562006410554314 0.8796508140279593 2.69262685592175e-17 -1.2910090278584077e-16 2.69262685592175e-17 -1.2910090278584077e-16 -0.4756206700197154 0.8796504864148084
12622216000.0 -0.46531706743955525 0.8851440711823501 2.5400638263218907e-17 -1.2938342950555122e-16 2.5400638263218907e-17 -1.2938342950555122e-16 -0.4653176771077378 0.8851437506817021
12622833333.333334 -0.45495063521015805 0.8905166587558525 2.3872089038592205e-17 -1.2964793800599737e-16 2.3872089038592205e-17 -1.2964793800599737e-16 -0.4549512485488731 0.8905163454107028
12623450666.666666 -0.4445221806484454 0.8957678443164633 2.2340833561432e-17 -1.2989439872984882e-16 2.2340833561432e-17 -1.2989439872984882e-16 -0.4445227975737233 0.895767538168828
12624068000.0 -0.4340331254408179 0.9008969119826571 2.0807084799087913e-17 -1.3012278462860857e-16 2.0807084799087913e-17 -1.3012278462860857e-16 -0.4340337458682081 0.9008966130735667
12624685333.333334 -0.4234848995350615 0.9059031625210233 1.9271055980612214e-17 -1.3033307116536884e-16 1.9271055980612214e-17 -1.3033307116536884e-16 -0.4234855233796441 0.9059028708905172
12625302666.666666 -0.41287894094584243 0.9107859134413822 1.7732960567164552e-17 -1.305252363172228e-16 1.7732960567164552e-17 -1.305252363172228e-16 -0.4128795681222402 0.910785629128504
12625920000.0 -0.40221669555807504 0.9155444990901075 1.619301222236272e-17 -1.3069926057733174e-16 1.619301222236272e-17 -1.3069926057733174e-16 -0.4022173259804651 0.9155442221328999
12626537333.333334 -0.3914996169303754 0.9201782707406109 1.46514247826652e-17 -1.3085512695663706e-16 1.46514247826652e-17 -1.3085512695663706e-16 -0.39150025051250087 0.9201780011761101
12627154666.666666 -0.3807291660965407 0.9246865966819492 1.3108412227726678e-17 -1.3099282098522583e-16 1.3108412227726678e-17 -1.3099282098522583e-16 -0.3807298027517215 0.9246863345461787
12627772000.0 -0.3699068113664175 0.9290688623049117 1.1564188650685562e-17 -1.311123307133521e-16 1.1564188650685562e-17 -1.311123307133521e-16 -0.36990745100756395 0.9290686076328802
12628389333.333334 -0.3590340281258907 0.9333244701857496 1.0018968228581725e-17 -1.3121364671209788e-16 1.0018968228581725e-17 -1.3121364671209788e-16 -0.35903467066551464 0.9333242230114451
12629006666.666666 -0.34811229863556326 0.9374528401676945 8.472965192610081e-18 -1.3129676207369838e-16 8.472965192610081e-18 -1.3129676207369838e-16 -0.34811294398578985 0.9374526005240793
12629624000.0 -0.3371431118287614 0.9414534094400169 6.9263937985126245e-18 -1.313616724115086e-16 6.9263937985126245e-18 -1.313616724115086e-16 -0.3371437599013408 0.9414531773590226
12630241333.333334 -0.32612796310860537 0.9453256326147335 5.379468296911387e-18 -1.314083758596245e-16 5.379468296911387e-18 -1.314083758596245e-16 -0.32612861381492564 0.9453254081272582
12630858666.666666 -0.3150683541441189 0.9490689818009703 3.832402903683736e-18 -1.314368730721568e-16 3.832402903683736e-18 -1.314368730721568e-16 -0.3150690073952179 0.9490687649368749
12631476000.0 -0.3039657926652944 0.9526829466770007 2.2854117702866674e-18 -1.3144716722215544e-16 2.2854117702866674e-18 -1.3144716722215544e-16 -0.30396644837187176 0.9526827374651035
12632093333.333334 -0.2928217922579518 0.9561670345596804 7.387089542287172e-19 -1.314392640001851e-16 7.387089542287172e-19 -1.314392640001851e-16 -0.2928224503303811 0.956166833027754
12632710666.666666 -0.2816378721571811 0.9595207704716914 -8.0749161055692305e-19 -1.3141317161255467e-16 -8.0749161055692305e-19 -1.3141317161255467e-16 -0.2816385325055217 0.9595205766464568
12633328000.0 -0.27041555704000875 0.962743697206352 -2.3529761432694928e-18 -1.3136890077919803e-16 -2.3529761432694928e-18 -1.3136890077919803e-16 -0.2704162195740189 0.962743511113479
12633945333.333334 -0.2591563768179775 0.9658353753898183 -3.897531045712733e-18 -1.3130646473120864e-16 -3.897531045712733e-18 -1.3130646473120864e-16 -0.25915704144712676 0.9658351970539206
12634562666.666666 -0.247861866428225 0.9687953835410913 -5.4409429318198096e-18 -1.312258792080277e-16 -5.4409429318198096e-18 -1.312258792080277e-16 -0.24786253306170544 0.968795212985721
12635180000.0 -0.2365335656244732 0.9716233181294005 -6.982998657058951e-18 -1.3112716245428656e-16 -6.982998657058951e-18 -1.3112716245428656e-16 -0.23653423417121305 0.9716231553770482
12635797333.333334 -0.2251730187668714 0.9743187936292863 -8.523485347861335e-18 -1.3101033521630238e-16 -8.523485347861335e-18 -1.3101033521630238e-16 -0.22517368913554664 0.9743186387013755
12636414666.666666 -0.21378177461178785 0.9768814425730731 -1.0062190430921743e-17 -1.3087542073823303e-16 -1.0062190430921743e-17 -1.3087542073823303e-16 -0.21378244671083527 0.9768812954899596
12637032000.0 -0.20236138610028478 0.9793109156010591 -1.1598901662543018e-17 -1.3072244475788144e-16 -1.1598901662543018e-17 -1.3072244475788144e-16 -0.2023620598379143 0.9793107763820278
12637649333.333334 -0.19091341014674185 0.9816068815090668 -1.3133407157826724e-17 -1.3055143550216386e-16 -1.3133407157826724e-17 -1.3055143550216386e-16 -0.19091408543094876 0.9816067501723276
12638266666.666666 -0.1794394074263558 0.9837690272936493 -1.4665495419880902e-17 -1.303624236822295e-16 -1.4665495419880902e-17 -1.303624236822295e-16 -0.1794400841649335 0.9837689038563353
12638884000.0 -0.16794094216259958 0.9857970581947136 -1.619495536889944e-17 -1.3015544248824332e-16 -1.619495536889944e-17 -1.3015544248824332e-16 -0.16794162026315254 0.9857969426728814
12639501333.333334 -0.15641958191372532 0.9876906977357582 -1.7721576371235682e-17 -1.2993052758382278e-16 -1.7721576371235682e-17 -1.2993052758382278e-16 -0.15642026128368117 0.9876905901443824
12640118666.666666 -0.14487689735945403 0.9894496877614911 -1.9245148268317682e-17 -1.2968771710014387e-16 -1.9245148268317682e-17 -1.2968771710014387e-16 -0.14487757790607633 0.9894495881144639
12640736000.0 -0.13331446208617523 0.9910737884731329 -2.0765461405626643e-17 -1.2942705162968847e-16 -2.0765461405626643e-17 -1.2942705162968847e-16 -0.13331514371657635 0.9910736967832623
12641353333.333334 -0.12173385237332295 0.9925627784609717 -2.2282306661388234e-17 -1.291485742196858e-16 -2.2282306661388234e-17 -1.291485742196858e-16 -0.12173453499447662 0.9925626947399806
12641970666.666666 -0.11013664697766976 0.9939164547346672 -2.3795475475403248e-17 -1.288523303651806e-16 -2.3795475475403248e-17 -1.288523303651806e-16 -0.11013733049642366 0.9939163789931903
12642588000.0 -0.09852442691860536 0.9951346327508522 -2.5304759877616642e-17 -1.2853836800179372e-16 -2.5304759877616642e-17 -1.2853836800179372e-16 -0.09852511124169386 0.9951345649984352
12643205333.333334 -0.08689877526234606 0.9962171464383243 -2.6809952516689244e-17 -1.2820673749813224e-16 -2.6809952516689244e-17 -1.2820673749813224e-16 -0.08689946029640307 0.9962170866834233
12643822666.666666 -0.07526127690623216 0.9971638482206713 -2.8310846688446894e-17 -1.2785749164786905e-16 -2.8310846688446894e-17 -1.2785749164786905e-16 -0.07526196255780371 0.9971637964706507
12644440000.0 -0.06361351836257753 0.9979746090363958 -2.98072363641999e-17 -1.2749068566149766e-16 -2.98072363641999e-17 -1.2749068566149766e-16 -0.06361420453813474 0.9979745652975297
12645057333.333334 -0.05195708754255485 0.9986493183565036 -3.129891621899466e-17 -1.2710637715774816e-16 -3.129891621899466e-17 -1.2710637715774816e-16 -0.05195777414850637 0.9986492826339716
12645674666.666666 -0.040293573539633844 0.9991878841995736 -3.2785681659752886e-17 -1.2670462615467336e-16 -3.2785681659752886e-17 -1.2670462615467336e-16 -0.040294260482338924 0.999187856497463
12646292000.0 -0.028624566412660493 0.9995902331443133 -3.426732885330928e-17 -1.26285495060403e-16 -3.426732885330928e-17 -1.26285495060403e-16 -0.028625253598441567 0.9995902134656175
12646909333.333334 -0.016951656969655678 0.9998563103395391 -3.5743654754261573e-17 -1.2584904866359112e-16 -3.5743654754261573e-17 -1.2584904866359112e-16 -0.016952344304811212 0.9998562986861584
12647526666.666666 -0.0052764365504615685 0.9999860795116814 -3.7214457132797596e-17 -1.2539535412351183e-16 -3.7214457132797596e-17 -1.2539535412351183e-16 -0.005277123941278772 0.9999860758844202
12648144000.0 0.0063995031900885985 0.9999795229697122 -3.86795346023589e-17 -1.2492448095984024e-16 -3.86795346023589e-17 -1.2492448095984024e-16 0.006398815837320931 0.9999795273682823
12648761333.333334 0.01807457049898636 0.9998366416075636 -4.0138686647152244e-17 -1.244365010421197e-16 -4.0138686647152244e-17 -1.244365010421197e-16 0.01807388327796509 0.999836654030581
12649378666.666666 0.029747173742104737 0.999557454904004 -4.159171364954069e-17 -1.2393148857890465e-16 -4.159171364954069e-17 -1.2393148857890465e-16 0.029746486746499667 0.9995574753489935
12649996000.0 0.04141572162140933 0.9991420009199843 -4.303841691735261e-17 -1.2340952010656705e-16 -4.303841691735261e-17 -1.2340952010656705e-16 0.04141503494485037 0.9991420293833757
12650613333.333334 0.053078623391612026 0.9985903362934498 -4.447859871097451e-17 -1.2287067447781078e-16 -4.447859871097451e-17 -1.2287067447781078e-16 0.05307793712767638 0.9985903727705788
12651230666.666666 0.06473428907711866 0.997902536231617 -4.5912062270333293e-17 -1.2231503284985936e-16 -4.5912062270333293e-17 -1.2231503284985936e-16 0.0647336033193183 0.9979025807167305
12651848000.0 0.07638112968898535 0.9970786945007137 -4.733861184177765e-17 -1.2174267867231346e-16 -4.733861184177765e-17 -1.2174267867231346e-16 0.07638044453075402 0.997078746986966
12652465333.333334 0.08801755744122937 0.9961189234132108 -4.875805270472963e-17 -1.2115369767472436e-16 -4.875805270472963e-17 -1.2115369767472436e-16 0.08801687297590996 0.9961189838926654
12653082666.666666 0.09964198596734511 0.9950233538125104 -5.017019119821116e-17 -1.2054817785384855e-16 -5.017019119821116e-17 -1.2054817785384855e-16 0.09964130228817711 0.9950234222761443
12653700000.0 0.11125283053693798 0.9937921350550792 -5.157483474728212e-17 -1.1992620946056464e-16 -5.157483474728212e-17 -1.1992620946056464e-16 0.11125214773704432 0.9937922114927789
12654317333.333334 0.12284850827117215 0.9924254349901369 -5.2971791889184057e-17 -1.192878849865386e-16 -5.2971791889184057e-17 -1.192878849865386e-16 0.12284782644354707 0.9924255193907046
12654934666.666666 0.13442743835904175 0.990923439936729 -5.436087229945343e-17 -1.1863329915052883e-16 -5.436087229945343e-17 -1.1863329915052883e-16 0.1344267575965378 0.990923532287883
12655552000.0 0.14598804227279377 0.9892863546583317 -5.574188681779849e-17 -1.1796254888441628e-16 -5.574188681779849e-17 -1.1796254888441628e-16 0.14598736266810933 0.9892864549467075
12656169333.333334 0.1575287439828151 0.9875144023349784 -5.711464747377868e-17 -1.1727573331894812e-16 -5.711464747377868e-17 -1.1727573331894812e-16 0.15752806562848165 0.9875145105461299
12656786666.666666 0.16904797017282755 0.9856078245327913 -5.847896751238687e-17 -1.1657295376914632e-16 -5.847896751238687e-17 -1.1657295376914632e-16 0.16904729316119677 0.9856079406511934
12657404000.0 0.18054415045431624 0.9835668811710485 -5.983466141940566e-17 -1.1585431371944077e-16 -5.983466141940566e-17 -1.1585431371944077e-16 0.1805434748775482 0.9835670051801013
12658021333.333334 0.19201571758047825 0.9813918504867808 -6.118154494657336e-17 -1.15119918808515e-16 -6.118154494657336e-17 -1.15119918808515e-16 0.19201504353052834 0.9813919823688101
12658638666.666666 0.20346110765996514 0.979083028996823 -6.251943513658754e-17 -1.143698768138472e-16 -6.251943513658754e-17 -1.143698768138472e-16 0.20346043522857163 0.9790831687330828
12659256000.0 0.2148787603701404 0.9766407314573802 -6.384815034793643e-17 -1.1360429763595195e-16 -6.384815034793643e-17 -1.1360429763595195e-16 0.21487808964881178 0.9766408790280545
12659873333.333334 0.22626711916976566 0.9740652908211179 -6.516751027948029e-17 -1.1282329328236708e-16 -6.516751027948029e-17 -1.1282329328236708e-16 0.22626645024976869 0.9740654462053268
12660490666.666666 0.2376246315109798 0.9713570581918295 -6.647733599488059e-17 -1.1202697785133303e-16 -6.647733599488059e-17 -1.1202697785133303e-16 0.23762396448332657 0.9713572213676285
12661108000.0 0.2489497490514515 0.9685164027764498 -6.777744994686444e-17 -1.112154675151661e-16 -6.777744994686444e-17 -1.112154675151661e-16 0.24894908400688745 0.9685165737208352
12661725333.333334 0.2602409278648529 0.9655437118348678 -6.906767600118051e-17 -1.1038888050341787e-16 -6.906767600118051e-17 -1.1038888050341787e-16 0.26024026489384433 0.9655438905237795
12662342666.666666 0.27149662865186486 0.9624393906270075 -7.034783946047321e-17 -1.0954733708568101e-16 -7.034783946047321e-17 -1.0954733708568101e-16 0.2714959678445863 0.9624395770353306
12662960000.0 0.2827153169496665 0.9592038623576661 -7.161776708786639e-17 -1.0869095955416935e-16 -7.161776708786639e-17 -1.0869095955416935e-16 0.28271465839598875 0.9592040564592362
12663577333.333334 0.29389546334137195 0.9558375681187538 -7.287728713035559e-17 -1.0781987220601466e-16 -7.287728713035559e-17 -1.0781987220601466e-16 0.2938948071308505 0.9558377698863626
12664194666.666666 0.3050355436643154 0.9523409668292283 -7.412622934201316e-17 -1.0693420132527391e-16 -7.412622934201316e-17 -1.0693420132527391e-16 0.3050348898861766 0.9523411762346217
12664812000.0 0.3161340392180516 0.9487145351724585 -7.536442500692962e-17 -1.0603407516469934e-16 -7.536442500692962e-17 -1.0603407516469934e-16 0.31613338796118196 0.9487147521863457
12665429333.333334 0.3271894369712077 0.9449587675313019 -7.659170696198677e-17 -1.0511962392720835e-16 -7.659170696198677e-17 -1.0511962392720835e-16 0.32718878832414194 0.944958992123359
12666046666.666666 0.33820022976783476 0.9410741759206862 -7.780790961934049e-17 -1.0419097974713751e-16 -7.780790961934049e-17 -1.0419097974713751e-16 0.33819958381874216 0.9410744080595564
12666664000.0 0.34916491653295095 0.9370612899177684 -7.901286898877205e-17 -1.0324827667116678e-16 -7.901286898877205e-17 -1.0324827667116678e-16 0.3491642733696251 0.9370615295710715
12667281333.333334 0.36008200247702216 0.9329206565898046 -8.020642269968913e-17 -1.0229165063907786e-16 -8.020642269968913e-17 -1.0229165063907786e-16 0.3600813621868685 0.9329209037241387
12667898666.666666 0.37094999929979594 0.928652840419549 -8.138841002300817e-17 -1.0132123946417056e-16 -8.138841002300817e-17 -1.0132123946417056e-16 0.37094936196981904 0.928653095000495
12668516000.0 0.38176742539340863 0.9242584232282134 -8.255867189274263e-17 -1.0033718281347227e-16 -8.255867189274263e-17 -1.0033718281347227e-16 0.38176679111020173 0.9242586852203415
12669133333.333334 0.3925328060439213 0.9197380040963297 -8.371705092733025e-17 -9.93396221877181e-17 -8.371705092733025e-17 -9.93396221877181e-17 0.3925321748936536 0.9197382734632025
12669750666.666666 0.4032446736328381 0.915092199281887 -8.486339145078512e-17 -9.832870090103193e-17 -8.486339145078512e-17 -9.832870090103193e-17 0.4032440457012434 0.9150924759860656
