! Parameters = {f0=12700.012000; bw=77.238000; Q=6100.000000; N=10; m_0_1=1.184479; m_1_1=-0.997553; m_1_2=1.019291; m_2_2=-0.998202; m_2_3=0.656254; m_2_8=-0.003712; m_2_9=0.032992; m_3_3=-1.000139; m_3_4=0.544783; m_3_7=-0.003112; m_3_8=-0.100200; m_3_9=-0.003712; m_4_4=-1.003064; m_4_5=0.381118; m_4_6=0.000405; m_4_7=-0.120749; m_4_8=-0.003112; m_5_5=-1.002682; m_5_6=0.788473; m_5_7=0.000405; m_6_6=-1.002683; m_6_7=0.381460; m_7_7=-1.003050; m_7_8=0.544901; m_8_8=-1.000141; m_8_9=0.656567; m_9_9=-0.998207; m_9_10=1.020369; m_10_10=-0.997563; m_10_11=1.185274}
!
! Created with skrf (http://scikit-rf.org).
# Hz S RI R 50.0 
!freq ReS11 ImS11 ReS21 ImS21 ReS12 ImS12 ReS22 ImS22
12607400000.0 -0.5612118579707716 0.8276721878091841 2.198797910542032e-17 -6.915596366964024e-17 2.198797910542032e-17 -6.915596366964024e-17 -0.56121237460438 0.8276718375000802
12608017333.333334 -0.5545769731313871 0.8321324298885819 2.142405267545158e-17 -6.931786031984152e-17 2.142405267545158e-17 -6.931786031984152e-17 -0.5545774925236472 0.8321320837379307
12608634666.666666 -0.5479066422535868 0.8365394858428667 2.0858946915604735e-17 -6.947516312342901e-17 2.0858946915604735e-17 -6.947516312342901e-17 -0.5479071643710326 0.8365391438723838
12609252000.0 -0.5412012916746879 0.8408930739930588 2.0292699210843777e-17 -6.962786360208611e-17 2.0292699210843777e-17 -6.962786360208611e-17 -0.541201816483683 0.8408927362241915
12609869333.333334 -0.5344613499701891 0.8451929160776783 1.9725347006084242e-17 -6.977595358143523e-17 1.9725347006084242e-17 -6.977595358143523e-17 -0.5344618774369285 0.8451925825316028
12610486666.666666 -0.5276872479266872 0.8494387372703257 1.9156927803718587e-17 -6.991942519145391e-17 1.9156927803718587e-17 -6.991942519145391e-17 -0.5276877780171982 0.8494384079679456
12611104000.0 -0.5208794185138876 0.8536302661975392 1.8587479161138805e-17 -7.005827086687128e-17 1.8587479161138805e-17 -7.005827086687128e-17 -0.5208799511940343 0.8536299411594853
12611721333.333334 -0.51403829685746 0.8577672349558055 1.8017038688274433e-17 -7.019248334753972e-17 1.8017038688274433e-17 -7.019248334753972e-17 -0.5140388320929444 0.8577669142024352
12612338666.666666 -0.5071643202107947 0.8618493791289574 1.7445644045109962e-17 -7.03220556787907e-17 1.7445644045109962e-17 -7.03220556787907e-17 -0.5071648579671579 0.8618490626803504
12612956000.0 -0.5002579279272207 0.8658764378049623 1.687333293920006e-17 -7.044698121177081e-17 1.687333293920006e-17 -7.044698121177081e-17 -0.500258468169847 0.8658761256809225
12613573333.333334 -0.4933195614320745 0.8698481535925173 1.630014312320276e-17 -7.056725360375308e-17 1.630014312320276e-17 -7.056725360375308e-17 -0.4933201041261924 0.8698478458125704
12614190666.666666 -0.48634966419416725 0.8737642726376877 1.57261123923804e-17 -7.068286681843469e-17 1.57261123923804e-17 -7.068286681843469e-17 -0.4863502093048514 0.8737639692210781
12614808000.0 -0.4793486816977328 0.8776245446399569 1.515127858212901e-17 -7.079381512620806e-17 1.515127858212901e-17 -7.079381512620806e-17 -0.47934922918990786 0.8776242456056503
12615425333.333334 -0.4723170614137354 0.8814287228683559 1.4575679565485934e-17 -7.090009310441625e-17 1.4575679565485934e-17 -7.090009310441625e-17 -0.47231761125217636 0.881428428235035
12616042666.666666 -0.465255252771465 0.8851765641771179 1.3999353250635934e-17 -7.100169563758825e-17 1.3999353250635934e-17 -7.100169563758825e-17 -0.46525580492080093 0.8851762739631829
12616660000.0 -0.45816370712961424 0.8888678290213319 1.3422337578436171e-17 -7.109861791764979e-17 1.3422337578436171e-17 -7.109861791764979e-17 -0.45816426155433 0.8888675432448988
12617277333.333334 -0.45104287774760426 0.8925022814721574 1.2844670519907636e-17 -7.11908554441203e-17 1.2844670519907636e-17 -7.11908554441203e-17 -0.4510434344120425 0.8925020001510562
12617894666.666666 -0.44389321975653956 0.8960796892319449 1.2266390073770234e-17 -7.127840402428201e-17 1.2266390073770234e-17 -7.127840402428201e-17 -0.44389377862490303 0.8960794123837191
12618512000.0 -0.43671519013001564 0.8995998236491333 1.1687534263912056e-17 -7.136125977333938e-17 1.1687534263912056e-17 -7.136125977333938e-17 -0.4367157511663704 0.8995995512910394
12619129333.333334 -0.4295092476551915 0.9030624597327241 1.1108141136941227e-17 -7.143941911454527e-17 1.1108141136941227e-17 -7.143941911454527e-17 -0.42950981082346823 0.9030621918817301
12619746666.666666 -0.42227585290313563 0.9064673761668289 1.0528248759656078e-17 -7.151287877931978e-17 1.0528248759656078e-17 -7.151287877931978e-17 -0.42227641816713235 0.9064671128396128
12620364000.0 -0.41501546819956564 0.9098143553247231 9.947895216567615e-18 -7.158163580733998e-17 9.947895216567615e-18 -7.158163580733998e-17 -0.41501603552294986 0.9098140965376718
12620981333.333334 -0.40772855759532467 0.9131031832827453 9.36711860740785e-18 -7.164568754661302e-17 9.36711860740785e-18 -7.164568754661302e-17 -0.40772912694163577 0.913102929051954
12621598666.666666 -0.40041558683664424 0.9163336498340064 8.785957044631769e-18 -7.170503165352874e-17 8.785957044631769e-18 -7.170503165352874e-17 -0.4004161581692966 0.9163334001752788
12622216000.0 -0.39307702333542927 0.9195055485018043 8.204448650917552e-18 -7.1759666092893e-17 8.204448650917552e-18 -7.1759666092893e-17 -0.393077596617713 0.9195053034306486
12622833333.333334 -0.38571333613925046 0.9226186765528737 7.622631556685359e-18 -7.180958913793819e-17 7.622631556685359e-18 -7.180958913793819e-17 -0.38571391133433464 0.9226184360845034
12623450666.666666 -0.3783249959016529 0.9256728350102215 7.04054389759628e-18 -7.185479937031667e-17 7.04054389759628e-18 -7.185479937031667e-17 -0.3783255729725888 0.9256725991595561
12624068000.0 -0.3709124748517353 0.9286678286659915 6.458223812064064e-18 -7.189529568007175e-17 6.458223812064064e-18 -7.189529568007175e-17 -0.37091305376145733 0.9286675974476533
12624685333.333334 -0.3634762467641487 0.9316034660938605 5.875709438755459e-18 -7.193107726559057e-17 5.875709438755459e-18 -7.193107726559057e-17 -0.36347682747547755 0.9316032395221734
12625302666.666666 -0.35601678692886896 0.9344795596612542 5.293038914113971e-18 -7.196214363353461e-17 5.293038914113971e-18 -7.196214363353461e-17 -0.3560173694045139 0.9344793377502448
12625920000.0 -0.3485345721206332 0.9372959255414134 4.710250369854053e-18 -7.198849459875222e-17 4.710250369854053e-18 -7.198849459875222e-17 -0.34853515632319404 0.9372957083048086
12626537333.333334 -0.34103008056862477 0.9400523837250795 4.1273819304872984e-18 -7.201013028416967e-17 4.1273819304872984e-18 -7.201013028416967e-17 -0.3410306664605953 0.940052171176307
12627154666.666666 -0.33350379192593593 0.9427487580319958 3.5444717108295865e-18 -7.202705112066265e-17 3.5444717108295865e-18 -7.202705112066265e-17 -0.3335043794697047 0.9427485501841801
12627772000.0 -0.32595618723866754 0.9453848761222485 2.9615578135077744e-18 -7.203925784690804e-17 2.9615578135077744e-18 -7.203925784690804e-17 -0.32595677639652204 0.9453846729882152
12628389333.333334 -0.3183877489154792 0.9479605695071824 2.3786783265009628e-18 -7.204675150921434e-17 2.3786783265009628e-18 -7.204675150921434e-17 -0.3183883396496072 0.947960371099453
12629006666.666666 -0.3107989606965405 0.9504756735602425 1.795871320622213e-18 -7.204953346133451e-17 1.795871320622213e-18 -7.204953346133451e-17 -0.3107995529690329 0.9504754798910364
12629624000.0 -0.3031903076226934 0.9529300275274697 1.213174847076096e-18 -7.204760536425583e-17 1.213174847076096e-18 -7.204760536425583e-17 -0.3031909013955458 0.9529298386087
12630241333.333334 -0.29556227600450347 0.955323474537753 6.306269349529616e-19 -7.204096918597224e-17 6.306269349529616e-19 -7.204096918597224e-17 -0.2955628712396201 0.9553232903810307
12630858666.666666 -0.28791535339112473 0.9576558616128811 4.826558878294774e-20 -7.202962720123534e-17 4.826558878294774e-20 -7.202962720123534e-17 -0.2879159500503198 0.9576556822295105
12631476000.0 -0.2802500285390563 0.9599270396773417 -5.338712139750009e-19 -7.201358199128582e-17 -5.338712139750009e-19 -7.201358199128582e-17 -0.2802506265840564 0.95992686507832
12632093333.333334 -0.2725667913810371 0.9621368635678051 -1.1157455253594881e-18 -7.199283644356564e-17 -1.1157455253594881e-18 -7.199283644356564e-17 -0.27256739077348435 0.9621366937638238
12632710666.666666 -0.26486613299476114 0.9642851920423999 -1.6973194294017859e-18 -7.196739375140903e-17 -1.6973194294017859e-18 -7.196739375140903e-17 -0.2648667336962154 0.9642850270438432
12633328000.0 -0.2571485455712713 0.9663718877898027 -2.2785550445830934e-18 -7.193725741371476e-17 -2.2785550445830934e-18 -7.193725741371476e-17 -0.25714914754321216 0.9663717276067458
12633945333.333334 -0.24941452238366335 0.9683968174379632 -2.8594145262926806e-18 -7.19024312345979e-17 -2.8594145262926806e-18 -7.19024312345979e-17 -0.2494151255874934 0.9683966620801737
12634562666.666666 -0.2416645577556147 0.9703598515626206 -3.4398600692785824e-18 -7.186291932302265e-17 -3.4398600692785824e-18 -7.186291932302265e-17 -0.2416651621526612 0.9703597010395552
12635180000.0 -0.23389914702959588 0.9722608646956201 -4.019853910115194e-18 -7.181872609241406e-17 -4.019853910115194e-18 -7.181872609241406e-17 -0.23389975258111398 0.9722607190164275
12635797333.333334 -0.22611878653540426 0.9740997353328887 -4.599358329638567e-18 -7.176985626025148e-17 -4.599358329638567e-18 -7.176985626025148e-17 -0.22611939320257882 0.9740995945064058
12636414666.666666 -0.21832397355832994 0.9758763459422248 -5.178335655400347e-18 -7.171631484764138e-17 -5.178335655400347e-18 -7.171631484764138e-17 -0.2183245813022785 0.9758762099769784
12637032000.0 -0.21051520630742715 0.9775905829708 -5.756748264105437e-18 -7.165810717887097e-17 -5.756748264105437e-18 -7.165810717887097e-17 -0.21051581508920217 0.9775904518750048
12637649333.333334 -0.20269298388355997 0.9792423368524394 -6.334558584057718e-18 -7.15952388809412e-17 -6.334558584057718e-18 -7.15952388809412e-17 -0.20269359366415132 0.979242210633998
12638266666.666666 -0.19485780624766832 0.980831502014588 -6.91172909758111e-18 -7.152771588308222e-17 -6.91172909758111e-18 -7.152771588308222e-17 -0.19485841698800593 0.9808313806810909
12638884000.0 -0.18701017418873025 0.9823579768850801 -7.488222343454475e-18 -7.145554441624761e-17 -7.488222343454475e-18 -7.145554441624761e-17 -0.18701078584968647 0.9823578604438047
12639501333.333334 -0.1791505892916412 0.9838216638986481 -8.064000919343888e-18 -7.137873101258858e-17 -8.064000919343888e-18 -7.137873101258858e-17 -0.17915120183403346 0.9838215523565585
12640118666.666666 -0.17127955390551872 0.9852224695030933 -8.639027484195603e-18 -7.12972825049127e-17 -8.639027484195603e-18 -7.12972825049127e-17 -0.17128016729011183 0.9852223628668395
12640736000.0 -0.16339757111092307 0.9865603041653855 -9.21326476069913e-18 -7.12112060261143e-17 -9.21326476069913e-18 -7.12112060261143e-17 -0.16339818529843197 0.9865602024413042
12641353333.333334 -0.1555051446885984 0.9878350823772284 -9.786675537631749e-18 -7.11205090085999e-17 -9.786675537631749e-18 -7.11205090085999e-17 -0.1555057596396905 0.9878349855713404
12641970666.666666 -0.14760277908646127 0.9890467226606644 -1.0359222672321241e-17 -7.102519918367787e-17 -1.0359222672321241e-17 -7.102519918367787e-17 -0.14760339476175888 0.9890466307786764
12642588000.0 -0.13969097938786287 0.9901951475731979 -1.0930869093008123e-17 -7.092528458094169e-17 -1.0930869093008123e-17 -7.092528458094169e-17 -0.1396915957479462 0.9901950606205021
12643205333.333334 -0.13177025127905426 0.9912802837127868 -1.150157780125695e-17 -7.082077352762696e-17 -1.150157780125695e-17 -7.082077352762696e-17 -0.13177086828446327 0.9912802016944582
12643822666.666666 -0.12384110101694872 0.9923020617225166 -1.207131187433551e-17 -7.071167464795188e-17 -1.207131187433551e-17 -7.071167464795188e-17 -0.12384171862818626 0.9923019846433161
12644440000.0 -0.1159040353968213 0.993260416295032 -1.2640034467602422e-17 -7.059799686243751e-17 -1.2640034467602422e-17 -7.059799686243751e-17 -0.11590465357435514 0.9932603441594029
12645057333.333334 -0.10795956171980328 0.9941552861767196 -1.3207708816868469e-17 -7.047974938721183e-17 -1.3207708816868469e-17 -7.047974938721183e-17 -0.10796018042406902 0.9941552189887901
12645674666.666666 -0.1000081877606562 0.9949866141716062 -1.377429824078202e-17 -7.03569417332899e-17 -1.377429824078202e-17 -7.03569417332899e-17 -0.10000880695205953 0.994986551935187
12646292000.0 -0.09205042173489272 0.9957543471450557 -1.433976614318981e-17 -7.022958370583725e-17 -1.433976614318981e-17 -7.022958370583725e-17 -0.09205104137381212 0.995754289863641
12646909333.333334 -0.08408677226688763 0.996458436027105 -1.490407601548351e-17 -7.009768540341737e-17 -1.490407601548351e-17 -7.009768540341737e-17 -0.08408739231367683 0.9964583837038722
12647526666.666666 -0.07611774835685998 0.9970988358156517 -1.5467191438955516e-17 -6.996125721721613e-17 -1.5467191438955516e-17 -6.996125721721613e-17 -0.07611836877185055 0.997098788453461
12648144000.0 -0.06814385934856634 0.9976755055793087 -1.6029076087145923e-17 -6.98203098302481e-17 -1.6029076087145923e-17 -6.98203098302481e-17 -0.06814448009207011 0.9976754631807021
12648761333.333334 -0.06016561489677401 0.9981884084600154 -1.6589693728174658e-17 -6.967485421654592e-17 -1.6589693728174658e-17 -6.967485421654592e-17 -0.06016623592908576 0.9981883710272187
12649378666.666666 -0.052183524934601606 0.9986375116754064 -1.7149008227066564e-17 -6.9524901640331e-17 -1.7149008227066564e-17 -6.9524901640331e-17 -0.052184146216001454 0.9986374792103256
12649996000.0 -0.04419809964098274 0.9990227865208948 -1.7706983548079052e-17 -6.937046365516319e-17 -1.7706983548079052e-17 -6.937046365516319e-17 -0.04419872113173889 0.9990227590251215
12650613333.333334 -0.036209849407916175 0.999344208371522 -1.8263583757014544e-17 -6.921155210307379e-17 -1.8263583757014544e-17 -6.921155210307379e-17 -0.036210471068287245 0.9993441858463278
12651230666.666666 -0.028219284808184336 0.9996017566835114 -1.88187730235254e-17 -6.904817911368039e-17 -1.88187730235254e-17 -6.904817911368039e-17 -0.02821990659842204 0.9996017391298515
12651848000.0 -0.020226916562208784 0.9997954149956044 -1.937251562341888e-17 -6.888035710328044e-17 -1.937251562341888e-17 -6.888035710328044e-17 -0.020227538442560353 0.9997954024141149
12652465333.333334 -0.012233255505890007 0.9999251709300923 -1.9924775940946646e-17 -6.870809877392968e-17 -1.9924775940946646e-17 -6.870809877392968e-17 -0.01223387743660083 0.9999251633210926
12653082666.666666 -0.0042388125577300035 0.9999910161936192 -2.0475518471072424e-17 -6.853141711250518e-17 -2.0475518471072424e-17 -6.853141711250518e-17 -0.004239434499046113 0.9999910135571097
12653700000.0 0.0037559013139086715 0.9999929465777085 -2.102470782178237e-17 -6.835032538973585e-17 -2.102470782178237e-17 -6.835032538973585e-17 0.00375527940173803 0.9999929489133722
12654317333.333334 0.011750375123149005 0.9999309619590303 -2.157230871630932e-17 -6.816483715923826e-17 -2.157230871630932e-17 -6.816483715923826e-17 0.011749753279868852 0.9999309692662336
12654934666.666666 0.01974409789962895 0.999805066299415 -2.211828599542626e-17 -6.797496625651003e-17 -2.211828599542626e-17 -6.797496625651003e-17 0.019743476164976004 0.9998050785772047
12655552000.0 0.027736558720961285 0.999615267645591 -2.2662604619680803e-17 -6.778072679792128e-17 -2.2662604619680803e-17 -6.778072679792128e-17 0.02773593713466146 0.9996152848926976
12656169333.333334 0.03572724674536112 0.9993615781286791 -2.3205229671634717e-17 -6.758213317968413e-17 -2.3205229671634717e-17 -6.758213317968413e-17 0.03572662534712698 0.9993616003435158
12656786666.666666 0.04371565124435338 0.9990440139634134 -2.3746126358100145e-17 -6.737920007680169e-17 -2.3746126358100145e-17 -6.737920007680169e-17 0.04371503007388162 0.9990440411440764
12657404000.0 0.05170126163550154 0.9986625954471035 -2.4285260012369018e-17 -6.717194244199957e-17 -2.4285260012369018e-17 -6.717194244199957e-17 0.05170064073247035 0.99866262759137
12658021333.333334 0.05968356751487115 0.9982173469583395 -2.4822596096415718e-17 -6.696037550464434e-17 -2.4822596096415718e-17 -6.696037550464434e-17 0.059682946918937795 0.9982173840636708
12658638666.666666 0.0676620586897379 0.9977082969554346 -2.5358100203108243e-17 -6.674451476964002e-17 -2.5358100203108243e-17 -6.674451476964002e-17 0.06766143844053621 0.9977083390189767
12659256000.0 0.07563622521128188 0.9971354779746012 -2.5891738058409294e-17 -6.6524376016305e-17 -2.5891738058409294e-17 -6.6524376016305e-17 0.07563560534841952 0.9971355249931803
12659873333.333334 0.0836055574070109 0.9964989266278772 -2.6423475523551264e-17 -6.629997529723948e-17 -2.6423475523551264e-17 -6.629997529723948e-17 0.08360493797006711 0.9964989785980054
12660490666.666666 0.09156954591342163 0.9957986836007854 -2.695327859721843e-17 -6.607132893716848e-17 -2.695327859721843e-17 -6.607132893716848e-17 0.09156892694194461 0.9957987405186591
12661108000.0 0.09952768170864085 0.9950347936497248 -2.7481113417719096e-17 -6.583845353176691e-17 -2.7481113417719096e-17 -6.583845353176691e-17 0.09952706324214511 0.9950348555112236
12661725333.333334 0.10747945614478968 0.9942073055991227 -2.800694626513113e-17 -6.560136594647516e-17 -2.800694626513113e-17 -6.560136594647516e-17 0.1074788382227535 0.9942073723998097
12662342666.666666 0.11542436098057916 0.9933162723383084 -2.85307435634542e-17 -6.536008331529011e-17 -2.85307435634542e-17 -6.536008331529011e-17 0.11542374364244234 0.9933163440734333
12662960000.0 0.12336188841387938 0.9923617508181222 -2.9052471882751745e-17 -6.511462303953915e-17 -2.9052471882751745e-17 -6.511462303953915e-17 0.12336127169904051 0.9923618274826189
12663577333.333334 0.13129153111400646 0.9913438020472957 -2.957209794126386e-17 -6.486500278664513e-17 -2.957209794126386e-17 -6.486500278664513e-17 0.13129091506182036 0.991343883635783
12664194666.666666 0.13921278225423347 0.990262491088541 -3.008958860753777e-17 -6.461124048886244e-17 -3.008958860753777e-17 -6.461124048886244e-17 0.13921216690400898 0.9902625775953252
12664812000.0 0.14712513554426931 0.9891178870543841 -3.0604910902517825e-17 -6.435335434200939e-17 -3.0604910902517825e-17 -6.435335434200939e-17 0.14712452093526632 0.9891179784734557
12665429333.333334 0.1550280852624488 0.9879100631027645 -3.1118032001656164e-17 -6.409136280416953e-17 -3.1118032001656164e-17 -6.409136280416953e-17 0.15502747143387619 0.9879101594278024
12666046666.666666 0.16292112628814123 0.9866390964323537 -3.162891923697216e-17 -6.38252845943954e-17 -3.162891923697216e-17 -6.38252845943954e-17 0.16292051327915427 0.986639197656724
12666664000.0 0.1708037541341197 0.9853050682776066 -3.213754009915916e-17 -6.355513869136756e-17 -3.213754009915916e-17 -6.355513869136756e-17 0.1708031419838172 0.9853051743943614
12667281333.333334 0.17867546497863646 0.9839080639035922 -3.2643862239605514e-17 -6.328094433207376e-17 -3.2643862239605514e-17 -6.328094433207376e-17 0.17867485372605885 0.9839081749054733
12667898666.666666 0.18653575569771 0.9824481726005357 -3.314785347247699e-17 -6.300272101043589e-17 -3.314785347247699e-17 -6.300272101043589e-17 0.1865351453818361 0.9824482884799713
12668516000.0 0.19438412389736553 0.9809254876780915 -3.364948177674029e-17 -6.27204884759436e-17 -3.364948177674029e-17 -6.27204884759436e-17 0.19438351455711084 0.9809256084272004
12669133333.333334 0.20222006794557845 0.9793401064594126 -3.414871529818842e-17 -6.243426673226685e-17 -3.414871529818842e-17 -6.243426673226685e-17 0.2022194596197923 0.979340232070003
12669750666.666666 0.21004308700442031 0.9776921302749149 -3.464552235145894e-17 -6.214407603584786e-17 -3.464552235145894e-17 -6.214407603584786e-17 0.2100424797318833 0.9776922607384848
