! Parameters = {f0=12700.012000; bw=77.238000; Q=6100.000000; N=10; m_0_1=1.247542; m_1_1=-0.051608; m_1_2=1.082354; m_2_2=-0.052257; m_2_3=0.719317; m_2_8=-0.000559; m_2_9=0.036145; m_3_3=-0.054194; m_3_4=0.607846; m_3_7=0.000041; m_3_8=-0.097047; m_3_9=-0.000559; m_4_4=-0.057119; m_4_5=0.444181; m_4_6=0.003558; m_4_7=-0.117596; m_4_8=0.000041; m_5_5=-0.056737; m_5_6=0.851536; m_5_7=0.003558; m_6_6=-0.056738; m_6_7=0.444523; m_7_7=-0.057105; m_7_8=0.607964; m_8_8=-0.054196; m_8_9=0.719630; m_9_9=-0.052262; m_9_10=1.083432; m_10_10=-0.051618; m_10_11=1.248337}
!
! Created with skrf (http://scikit-rf.org).
# Hz S RI R 50.0 
!freq ReS11 ImS11 ReS21 ImS21 ReS12 ImS12 ReS22 ImS22
12607400000.0 -0.19498146629699978 0.9808069268722063 -9.10650347625324e-18 -9.895252981944863e-17 -9.10650347625324e-18 -9.895252981944863e-17 -0.19498211100092622 0.9808067987067852
12608017333.333334 -0.18530232669516897 0.982681559672912 -1.0088413926549976e-17 -9.883768591190546e-17 -1.0088413926549976e-17 -9.883768591190546e-17 -0.18530297259970333 0.9826814378757459
12608634666.666666 -0.1756051757112072 0.9844606758338633 -1.1068941416021474e-17 -9.87131054141296e-17 -1.1068941416021474e-17 -9.87131054141296e-17 -0.17560582275345307 0.9844605604161663
12609252000.0 -0.16589095590806474 0.9861441024250657 -1.204798946624663e-17 -9.857880446634824e-17 -1.204798946624663e-17 -9.857880446634824e-17 -0.16589160402502154 0.9861439933974325
12609869333.333334 -0.15616061150786387 0.987731675817537 -1.3025461782962076e-17 -9.843480016408658e-17 -1.3025461782962076e-17 -9.843480016408658e-17 -0.15616126063643235 0.9877315731899382
12610486666.666666 -0.1464150883000363 0.9892232416992247 -1.400126226547799e-17 -9.828111055610755e-17 -1.400126226547799e-17 -9.828111055610755e-17 -0.14641573837702512 0.9892231454810082
12611104000.0 -0.13665533354930823 0.9906186550900186 -1.497529501616051e-17 -9.811775464224555e-17 -1.497529501616051e-17 -9.811775464224555e-17 -0.13665598451144026 0.9906185652899095
12611721333.333334 -0.12688229590379485 0.9919177803558175 -1.5947464349775987e-17 -9.794475237116448e-17 -1.5947464349775987e-17 -9.794475237116448e-17 -0.126882947687713 0.9919176969819155
12612338666.666666 -0.1170969253027357 0.9931204912217221 -1.6917674802921973e-17 -9.776212463800462e-17 -1.6917674802921973e-17 -9.776212463800462e-17 -0.11709757784500922 0.9931204142815017
12612956000.0 -0.10730017288393504 0.9942266707843377 -1.7885831143360283e-17 -9.75698932819493e-17 -1.7885831143360283e-17 -9.75698932819493e-17 -0.10730082612106565 0.9942266002846467
12613573333.333334 -0.09749299089179037 0.9952362115230757 -1.8851838379342973e-17 -9.736808108369574e-17 -1.8851838379342973e-17 -9.736808108369574e-17 -0.09749364476021852 0.9952361474701359
12614190666.666666 -0.08767633258422665 0.9961490153106666 -1.9815601768919237e-17 -9.715671176283212e-17 -1.9815601768919237e-17 -9.715671176283212e-17 -0.08767698702033773 0.9961489577100734
12614808000.0 -0.07785115214040693 0.9969649934226587 -2.077702682921664e-17 -9.693580997512227e-17 -2.077702682921664e-17 -9.693580997512227e-17 -0.07785180708053725 0.9969649422793784
12615425333.333334 -0.06801840456773126 0.9976840665460638 -2.1736019345665568e-17 -9.670540130970442e-17 -2.1736019345665568e-17 -9.670540130970442e-17 -0.06801905994817446 0.9976840218644358
12616042666.666666 -0.05817904560923672 0.9983061647870501 -2.2692485381234872e-17 -9.646551228619044e-17 -2.2692485381234872e-17 -9.646551228619044e-17 -0.058179701366249836 0.9983061265707847
12616660000.0 -0.048334031650472356 0.9988312276777497 -2.3646331285592342e-17 -9.621617035168305e-17 -2.3646331285592342e-17 -9.621617035168305e-17 -0.04833468772028212 0.9988311959299293
12617277333.333334 -0.03848431962673719 0.9992592041821267 -2.459746370428e-17 -9.595740387769243e-17 -2.459746370428e-17 -9.595740387769243e-17 -0.0384849759455461 0.9992591789052029
12617894666.666666 -0.02863086692998087 0.9995900527009395 -2.5545789587796385e-17 -9.568924215697728e-17 -2.5545789587796385e-17 -9.568924215697728e-17 -0.0286315234339735 0.9995900338967368
12618512000.0 -0.018774631315660078 0.9998237410757912 -2.6491216200729495e-17 -9.541171540027377e-17 -2.6491216200729495e-17 -9.541171540027377e-17 -0.01877528794100923 0.9998237287455031
12619129333.333334 -0.008916570809815012 0.9999602465922449 -2.743365113076011e-17 -9.512485473296098e-17 -2.743365113076011e-17 -9.512485473296098e-17 -0.008917227492687979 0.9999602407364372
12619746666.666666 0.0009423563841074081 0.9999995559820396 -2.837300229769461e-17 -9.482869219161892e-17 -2.837300229769461e-17 -9.482869219161892e-17 0.0009416997075427077 0.9999995566006469
12620364000.0 0.01080119197861835 0.9999416654243743 -2.9309177962461443e-17 -9.45232607204977e-17 -2.9309177962461443e-17 -9.45232607204977e-17 0.010800535372187128 0.9999416725167043
12620981333.333334 0.02065897769487784 0.9997865805462848 -3.024208673600559e-17 -9.420859416791783e-17 -3.024208673600559e-17 -9.420859416791783e-17 0.020658321222392254 0.9997865941110143
12621598666.666666 0.030514755356208977 0.9995343164220933 -3.117163758823929e-17 -9.388472728255359e-17 -3.117163758823929e-17 -9.388472728255359e-17 0.03051409908146192 0.9995343364572705
12622216000.0 0.040367566981175766 0.9991848975719414 -3.209773985687015e-17 -9.35516957096548e-17 -3.209773985687015e-17 -9.35516957096548e-17 0.040366910967934676 0.9991849240749864
12622833333.333334 0.05021645487655689 0.9987383579594116 -3.302030325625134e-17 -9.320953598716144e-17 -3.302030325625134e-17 -9.320953598716144e-17 0.05021579918855755 0.9987383909271158
12623450666.666666 0.06006046173054712 0.9981947409882228 -3.393923788613243e-17 -9.285828554175187e-17 -3.393923788613243e-17 -9.285828554175187e-17 0.060059806431487464 0.9981947804167496
12624068000.0 0.06989863070572279 0.9975540994980144 -3.4854454240434844e-17 -9.249798268478089e-17 -3.4854454240434844e-17 -9.249798268478089e-17 0.0698979758592568 0.9975541453829007
12624685333.333334 0.07973000553230197 0.9968164957591993 -3.5765863215932076e-17 -9.212866660815078e-17 -3.5765863215932076e-17 -9.212866660815078e-17 0.07972935120203326 0.9968165480953523
12625302666.666666 0.08955363060058298 0.9959820014669373 -3.667337612090007e-17 -9.175037738009305e-17 -3.667337612090007e-17 -9.175037738009305e-17 0.08955297685005881 0.9959820602486388
12625920000.0 0.09936855105448164 0.9950506977341217 -3.757690468374673e-17 -9.136315594085476e-17 -3.757690468374673e-17 -9.136315594085476e-17 0.09936789794718694 0.9950507629550304
12626537333.333334 0.10917381288372077 0.9940226750835519 -3.847636106156294e-17 -9.09670440983149e-17 -3.847636106156294e-17 -9.09670440983149e-17 0.10917316048307138 0.9940227467366972
12627154666.666666 0.11896846301695534 0.9928980334390907 -3.9371657848638165e-17 -9.056208452351196e-17 -3.9371657848638165e-17 -9.056208452351196e-17 0.11896781138629244 0.9928981115168795
12627772000.0 0.12875154941435485 0.9916768821159604 -4.0262708084970565e-17 -9.014832074607006e-17 -4.0262708084970565e-17 -9.014832074607006e-17 0.12875089861693867 0.9916769666101767
12628389333.333334 0.13852212115997234 0.9903593398101376 -4.1149425264637466e-17 -8.972579714958299e-17 -4.1149425264637466e-17 -8.972579714958299e-17 0.13852147125897574 0.9903594307119409
12629006666.666666 0.14827922855437034 0.9889455345867894 -4.2031723344232673e-17 -8.929455896686354e-17 -4.2031723344232673e-17 -8.929455896686354e-17 0.14827857961287289 0.9889456318867177
12629624000.0 0.15802192320684735 0.9874356038678361 -4.290951675114754e-17 -8.885465227515957e-17 -4.290951675114754e-17 -8.885465227515957e-17 0.15802127528782944 0.9874357075558079
12630241333.333334 0.16774925812756541 0.9858296944186056 -4.378272039188651e-17 -8.84061239912503e-17 -4.378272039188651e-17 -8.84061239912503e-17 0.16774861129390156 0.9858298044839171
12630858666.666666 0.17746028781965337 0.9841279623335557 -4.4651249660260774e-17 -8.79490218664943e-17 -4.4651249660260774e-17 -8.79490218664943e-17 0.1774596421341066 0.9841280787648857
12631476000.0 0.18715406837119333 0.9823305730210891 -4.5515020445613654e-17 -8.748339448175632e-17 -4.5515020445613654e-17 -8.748339448175632e-17 0.1871534238964091 0.9823306958064996
12632093333.333334 0.19682965754682888 0.9804377011874998 -4.637394914089378e-17 -8.700929124230478e-17 -4.637394914089378e-17 -8.700929124230478e-17 0.19682901434532865 0.980437830314435
12632710666.666666 0.20648611487929477 0.9784495308200034 -4.722795265076256e-17 -8.652676237258509e-17 -4.722795265076256e-17 -8.652676237258509e-17 0.20648547301347034 0.9784496662752938
12633328000.0 0.216122501761193 0.9763662551687832 -4.807694839960524e-17 -8.603585891093498e-17 -4.807694839960524e-17 -8.603585891093498e-17 0.21612186129330008 0.9763663969386444
12633945333.333334 0.22573788153575142 0.9741880767282992 -4.8920854339490636e-17 -8.553663270422167e-17 -4.8920854339490636e-17 -8.553663270422167e-17 0.22573724252790364 0.9741882247983339
12634562666.666666 0.23533131958822792 0.9719152072175291 -4.975958895808457e-17 -8.502913640239418e-17 -4.975958895808457e-17 -8.502913640239418e-17 0.23533068210239158 0.9719153615727316
12635180000.0 0.2449018834365074 0.9695478675594529 -5.0593071286493527e-17 -8.45134234529683e-17 -5.0593071286493527e-17 -8.45134234529683e-17 0.24490124753449388 0.9695480281842046
12635797333.333334 0.25444864282198465 0.9670862878595065 -5.142122090707971e-17 -8.398954809541639e-17 -5.142122090707971e-17 -8.398954809541639e-17 0.2544480085654461 0.9670864547375838
12636414666.666666 0.2639706697996577 0.9645307073833115 -5.2243957961171094e-17 -8.345756535551098e-17 -5.2243957961171094e-17 -8.345756535551098e-17 0.26397003725008 0.9645308804978834
12637032000.0 0.27346703882870715 0.9618813745333098 -5.306120315677492e-17 -8.291753103955418e-17 -5.306120315677492e-17 -8.291753103955418e-17 0.27346640804740435 0.9618815538669412
12637649333.333334 0.2829368268621304 0.9591385468247116 -5.387287777617039e-17 -8.23695017285706e-17 -5.387287777617039e-17 -8.23695017285706e-17 0.28293619791023855 0.9591387323593644
12638266666.666666 0.2923791134367076 0.9563024908603946 -5.467890368349155e-17 -8.181353477239515e-17 -5.467890368349155e-17 -8.181353477239515e-17 0.2923784863751794 0.9563026825774305
12638884000.0 0.30179298076225275 0.9533734823050545 -5.5479203332209126e-17 -8.124968828371178e-17 -5.5479203332209126e-17 -8.124968828371178e-17 0.30179235565185053 0.9533736801852344
12639501333.333334 0.3111775138110667 0.9503518058583321 -5.627369977259163e-17 -8.067802113199436e-17 -5.627369977259163e-17 -8.067802113199436e-17 0.3111768907123581 0.9503520098818227
12640118666.666666 0.3205318004065008 0.9472377552272703 -5.706231665905068e-17 -8.009859293740998e-17 -5.706231665905068e-17 -8.009859293740998e-17 0.32053117937985104 0.9472379653736394
12640736000.0 0.3298549313122657 0.9440316330975416 -5.78449782575109e-17 -7.95114640645899e-17 -5.78449782575109e-17 -7.95114640645899e-17 0.32985431241783353 0.944031849345767
12641353333.333334 0.33914600031997544 0.9407337511043145 -5.86216094525895e-17 -7.891669561642087e-17 -5.86216094525895e-17 -7.891669561642087e-17 0.33914538361770624 0.9407339734327816
12641970666.666666 0.348404104337877 0.9373444298017414 -5.939213575484925e-17 -7.831434942766492e-17 -5.939213575484925e-17 -7.831434942766492e-17 0.3484034898874972 0.937344658188248
12642588000.0 0.3576283434784418 0.9338639986318661 -6.015648330788147e-17 -7.770448805858755e-17 -6.015648330788147e-17 -7.770448805858755e-17 0.3576277313394526 0.9338642330536205
12643205333.333334 0.36681782114567335 0.9302927958926542 -6.091457889538374e-17 -7.708717478847145e-17 -6.091457889538374e-17 -7.708717478847145e-17 0.36681721137734663 0.9302930363262842
12643822666.666666 0.3759716441225525 0.9266311687050119 -6.166634994814254e-17 -7.646247360908337e-17 -6.166634994814254e-17 -7.646247360908337e-17 0.3759710367839232 0.9266314151265606
12644440000.0 0.38508892265764155 0.922879472979114 -6.24117245509651e-17 -7.583044921806157e-17 -6.24117245509651e-17 -7.583044921806157e-17 0.385088317807503 0.9228797253640466
12645057333.333334 0.3941687705515454 0.9190380733798325 -6.315063144952167e-17 -7.519116701225308e-17 -6.315063144952167e-17 -7.519116701225308e-17 0.39416816824844275 0.9190383317030348
12645674666.666666 0.4032103052431018 0.9151073432912641 -6.388300005715262e-17 -7.454469308095862e-17 -6.388300005715262e-17 -7.454469308095862e-17 0.40320970554532787 0.9151076075270498
12646292000.0 0.41221264789542766 0.9110876647803281 -6.460876046158654e-17 -7.389109419912624e-17 -6.460876046158654e-17 -7.389109419912624e-17 0.4122120508610154 0.9110879349024364
12646909333.333334 0.4211749234808197 0.9069794285598524 -6.532784343158189e-17 -7.323043782048886e-17 -6.532784343158189e-17 -7.323043782048886e-17 0.42117432916753816 0.9069797045414544
12647526666.666666 0.43009626086627717 0.9027830339503945 -6.60401804235125e-17 -7.256279207062343e-17 -6.60401804235125e-17 -7.256279207062343e-17 0.430095669331625 0.902783315764094
12648144000.0 0.43897579289793937 0.8984988888415257 -6.674570358789317e-17 -7.188822573993732e-17 -6.674570358789317e-17 -7.188822573993732e-17 0.43897520419914016 0.8984991764593631
12648761333.333334 0.4478126564854791 0.894127409652142 -6.744434577579483e-17 -7.120680827662731e-17 -6.744434577579483e-17 -7.120680827662731e-17 0.44781207067947437 0.8941277030455952
12649378666.666666 0.4566059926857885 0.8896690212900842 -6.813604054522916e-17 -7.051860977953877e-17 -6.813604054522916e-17 -7.051860977953877e-17 0.45660540982923353 0.8896693204300729
12649996000.0 0.46535494678680145 0.885124157110676 -6.882072216743817e-17 -6.9823700990984e-17 -6.882072216743817e-17 -6.9823700990984e-17 0.46535436693605914 0.8851244619675642
12650613333.333334 0.4740586683902897 0.8804932588747384 -6.949832563312646e-17 -6.91221532894838e-17 -6.949832563312646e-17 -6.91221532894838e-17 0.47405809160142554 0.8804935694183377
12651230666.666666 0.48271631149462524 0.8757767767056026 -7.016878665858741e-17 -6.841403868248349e-17 -7.016878665858741e-17 -6.841403868248349e-17 0.4827157378234017 0.8757770929051749
12651848000.0 0.4913270345770613 0.8709751690453306 -7.083204169181082e-17 -6.7699429798951e-17 -7.083204169181082e-17 -6.7699429798951e-17 0.49132646407893205 0.8709754908695905
12652465333.333334 0.4998900006755009 0.8660889026101638 -7.148802791845981e-17 -6.697839988197445e-17 -7.148802791845981e-17 -6.697839988197445e-17 0.49988943340560604 0.866089230027283
12653082666.666666 0.5084043774696548 0.8611184523452762 -7.21366832677907e-17 -6.625102278128491e-17 -7.21366832677907e-17 -6.625102278128491e-17 0.5084038134828152 0.8611187853228849
12653700000.0 0.5168693373623842 0.8560643013783491 -7.277794641853351e-17 -6.551737294567973e-17 -7.277794641853351e-17 -6.551737294567973e-17 0.5168687767130963 0.8560646398835413
12654317333.333334 0.5252840575596042 0.8509269409729301 -7.341175680462424e-17 -6.477752541547105e-17 -7.341175680462424e-17 -6.477752541547105e-17 0.5252835003020352 0.8509272849722661
12654934666.666666 0.5336477201507009 0.8457068704804227 -7.403805462093347e-17 -6.403155581479508e-17 -7.403805462093347e-17 -6.403155581479508e-17 0.5336471663386821 0.8457072199399299
12655552000.0 0.5419595121878333 0.8404045972916597 -7.46567808288701e-17 -6.32795403439211e-17 -7.46567808288701e-17 -6.32795403439211e-17 0.5419589618748569 0.8404049521768404
12656169333.333334 0.550218625764932 0.8350206367876065 -7.526787716191984e-17 -6.252155577149206e-17 -7.526787716191984e-17 -6.252155577149206e-17 0.5502180790041445 0.835020997063439
12656786666.666666 0.5584242580962744 0.8295555122892353 -7.58712861311109e-17 -6.17576794267054e-17 -7.58712861311109e-17 -6.17576794267054e-17 0.5584237149404719 0.829555877920176
12657404000.0 0.5665756115945865 0.8240097550066089 -7.646695103040163e-17 -6.098798919143937e-17 -7.646695103040163e-17 -6.098798919143937e-17 0.5665750720962087 0.8240101259565972
12658021333.333334 0.574671893948425 0.8183839039873412 -7.705481594197343e-17 -6.0212563492347e-17 -7.705481594197343e-17 -6.0212563492347e-17 0.5746713581595524 0.818384280219804
12658638666.666666 0.5827123181992638 0.812678506064158 -7.76348257414596e-17 -5.943148129288039e-17 -7.76348257414596e-17 -5.943148129288039e-17 0.5827117861716108 0.812678887542012
12659256000.0 0.590696102818031 0.8068941158017083 -7.82069261030906e-17 -5.864482208526606e-17 -7.82069261030906e-17 -5.864482208526606e-17 0.5906955746029413 0.8068945024873648
12659873333.333334 0.5986224717810498 0.8010312954426794 -7.877106350475492e-17 -5.785266588243896e-17 -7.877106350475492e-17 -5.785266588243896e-17 0.5986219474294914 0.8010316872980461
12660490666.666666 0.6064906546452847 0.795090614853279 -7.932718523296577e-17 -5.705509320994298e-17 -7.932718523296577e-17 -5.705509320994298e-17 0.6064901342078455 0.7950910118397649
12661108000.0 0.6142998866236402 0.7890726514675404 -7.987523938778886e-17 -5.625218509772588e-17 -7.987523938778886e-17 -5.625218509772588e-17 0.6142993701505219 0.7890730535460597
12661725333.333334 0.622049408658798 0.782977990231572 -8.041517488762318e-17 -5.5444023071977753e-17 -8.041517488762318e-17 -5.5444023071977753e-17 0.6220488961998133 0.7829783973625486
12662342666.666666 0.6297384674974258 0.7768072235463728 -8.094694147396429e-17 -5.463068914683063e-17 -8.094694147396429e-17 -5.463068914683063e-17 0.6297379591019922 0.7768076356897431
12662960000.0 0.6373663157631043 0.7705609512104793 -8.147048971603399e-17 -5.3812265816085966e-17 -8.147048971603399e-17 -5.3812265816085966e-17 0.6373658114802385 0.7705613683256954
12663577333.333334 0.6449322120291681 0.7642397803615008 -8.198577101536053e-17 -5.298883604484748e-17 -8.198577101536053e-17 -5.298883604484748e-17 0.6449317119074837 0.7642402024075372
12664194666.666666 0.652435420890601 0.7578443254172561 -8.249273761024871e-17 -5.2160483261149983e-17 -8.249273761024871e-17 -5.2160483261149983e-17 0.6524349249783012 0.7578447523526106
12664812000.0 0.6598752130356871 0.7513752080159002 -8.29913425801895e-17 -5.132729134750834e-17 -8.29913425801895e-17 -5.132729134750834e-17 0.6598747213805624 0.7513756397986004
12665429333.333334 0.6672508653167737 0.7448330569556155 -8.348153985016263e-17 -5.048934463245998e-17 -8.348153985016263e-17 -5.048934463245998e-17 0.6672503779661952 0.7448334935432216
12666046666.666666 0.6745616608205183 0.7382185081335305 -8.396328419486727e-17 -4.9646727882045645e-17 -8.396328419486727e-17 -4.9646727882045645e-17 0.6745611778214344 0.7382189494831395
12666664000.0 0.6818068889378672 0.7315322044836431 -8.443653124287473e-17 -4.8799526291235224e-17 -8.443653124287473e-17 -4.8799526291235224e-17 0.6818064103367993 0.731532650551894
12667281333.333334 0.6889858454326865 0.7247747959147299 -8.490123748066238e-17 -4.7947825475372695e-17 -8.490123748066238e-17 -4.7947825475372695e-17 0.6889853712757233 0.7247752466578067
12667898666.666666 0.69609783251059 0.717946939246829 -8.535736025659958e-17 -4.7091711461515147e-17 -8.535736025659958e-17 -4.7091711461515147e-17 0.6960973628433849 0.7179473946204665
12668516000.0 0.7031421588865981 0.7110492981475509 -8.58048577848327e-17 -4.6231270679758484e-17 -8.58048577848327e-17 -4.6231270679758484e-17 0.7031416937543628 0.7110497581070377
12669133333.333334 0.71011813985231 0.7040825430675907 -8.624368914906598e-17 -4.536658995455838e-17 -8.624368914906598e-17 -4.536658995455838e-17 0.7101176792998108 0.704083007567774
12669750666.666666 0.7170250973424996 0.6970473511755214 -8.667381430627907e-17 -4.44977564959719e-17 -8.667381430627907e-17 -4.44977564959719e-17 0.7170246414140536 0.697047820170811
12670368000.0 0.7238623600011013 0.6899444062918904 -8.709519409035059e-17 -4.3624857890873763e-17 -8.709519409035059e-17 -4.3624857890873763e-17 0.7238619087405717 0.689944879736264
