! Parameters = {f0=12700.012000; bw=77.238000; Q=6100.000000; N=10; m_0_1=1.163058; m_1_1=-1.318875; m_1_2=0.997870; m_2_2=-1.319524; m_2_3=0.634833; m_2_8=-0.004783; m_2_9=0.031921; m_3_3=-1.321461; m_3_4=0.523362; m_3_7=-0.004183; m_3_8=-0.101271; m_3_9=-0.004783; m_4_4=-1.324386; m_4_5=0.359697; m_4_6=-0.000666; m_4_7=-0.121820; m_4_8=-0.004183; m_5_5=-1.324004; m_5_6=0.767052; m_5_7=-0.000666; m_6_6=-1.324005; m_6_7=0.360039; m_7_7=-1.324372; m_7_8=0.523480; m_8_8=-1.321463; m_8_9=0.635146; m_9_9=-1.319529; m_9_10=0.998948; m_10_10=-1.318885; m_10_11=1.163853}
!
! Created with skrf (http://scikit-rf.org).
# Hz S RI R 50.0 
!freq ReS11 ImS11 ReS21 ImS21 ReS12 ImS12 ReS22 ImS22
12607400000.0 -0.825422411385509 0.564515582408832 4.095434778513937e-17 -5.0341090686349956e-17 4.095434778513937e-17 -5.0341090686349956e-17 -0.8254227574043689 0.5645150764672457
12608017333.333334 -0.8212444237042339 0.570576547480312 4.057021739138679e-17 -5.0634886297009846e-17 4.057021739138679e-17 -5.0634886297009846e-17 -0.821244773421026 0.5705760441242687
12608634666.666666 -0.8170219320672973 0.5766065925055597 4.018398491440483e-17 -5.092575545244074e-17 4.018398491440483e-17 -5.092575545244074e-17 -0.8170222854627093 0.5766060917620822
12609252000.0 -0.8127551652952373 0.5826053907112113 3.9795672614857615e-17 -5.1213683154942264e-17 3.9795672614857615e-17 -5.1213683154942264e-17 -0.8127555223497592 0.5826048926071784
12609869333.333334 -0.8084443546079495 0.5885726170171267 3.940530286007933e-17 -5.149865457589789e-17 3.940530286007933e-17 -5.149865457589789e-17 -0.8084447153018739 0.5885721215792704
12610486666.666666 -0.8040897336121059 0.5945079480540731 3.901289812280364e-17 -5.17806550565223e-17 3.901289812280364e-17 -5.17806550565223e-17 -0.8040900979255325 0.5945074553089805
12611104000.0 -0.7996915382884495 0.600411062181323 3.8618480979863805e-17 -5.205967010861643e-17 3.8618480979863805e-17 -5.205967010861643e-17 -0.799691906201282 0.600410572155431
12611721333.333334 -0.7952500069791213 0.6062816395039189 3.8222074110910524e-17 -5.233568541529696e-17 3.8222074110910524e-17 -5.233568541529696e-17 -0.7952503784710697 0.606281152223514
12612338666.666666 -0.7907653803746237 0.6121193618901691 3.782370029710896e-17 -5.260868683172637e-17 3.782370029710896e-17 -5.260868683172637e-17 -0.7907657554252083 0.6121188773813886
12612956000.0 -0.7862379015008164 0.617923912988845 3.7423382419830945e-17 -5.2878660385833184e-17 3.7423382419830945e-17 -5.2878660385833184e-17 -0.786238280089364 0.6179234312776708
12613573333.333334 -0.7816678157058613 0.6236949782461618 3.702114345935735e-17 -5.314559227901211e-17 3.702114345935735e-17 -5.314559227901211e-17 -0.7816681978115118 0.623694499358424
12614190666.666666 -0.7770553706467074 0.6294322449231216 3.661700649355255e-17 -5.340946888682972e-17 3.661700649355255e-17 -5.340946888682972e-17 -0.7770557562484104 0.6294317688844938
12614808000.0 -0.7724008162758763 0.6351354021121897 3.6210994696558225e-17 -5.36702767597035e-17 3.6210994696558225e-17 -5.36702767597035e-17 -0.7724012053523942 0.6351349289481885
12615425333.333334 -0.7677044048277574 0.6408041407543423 3.580313133745826e-17 -5.392800262358768e-17 3.580313133745826e-17 -5.392800262358768e-17 -0.767704797357667 0.6408036704903264
12616042666.666666 -0.7629663908050848 0.6464381536556411 3.539343977896319e-17 -5.41826333806327e-17 3.539343977896319e-17 -5.41826333806327e-17 -0.7629667867667778 0.6464376863168094
12616660000.0 -0.7581870309649992 0.6520371355040528 3.498194347606536e-17 -5.443415610985055e-17 3.498194347606536e-17 -5.443415610985055e-17 -0.7581874303366831 0.6520366711154435
12617277333.333334 -0.7533665843052619 0.6576007828858437 3.456866597471271e-17 -5.468255806775529e-17 3.456866597471271e-17 -5.468255806775529e-17 -0.7533669870649612 0.6576003214723315
12617894666.666666 -0.7485053120501651 0.6631287943020859 3.4153630910462603e-17 -5.492782668900346e-17 3.4153630910462603e-17 -5.492782668900346e-17 -0.7485057181757235 0.6631283358883834
12618512000.0 -0.7436034776363181 0.6686208701850597 3.3736862007130946e-17 -5.5169949587023903e-17 3.3736862007130946e-17 -5.5169949587023903e-17 -0.7436038871053994 0.668620414795714
12619129333.333334 -0.7386613466984866 0.6740767129143614 3.331838307545145e-17 -5.5408914554629386e-17 3.331838307545145e-17 -5.5408914554629386e-17 -0.7386617594885748 0.6740762605737531
12619746666.666666 -0.7336791870551598 0.6794960268330732 3.289821801171762e-17 -5.564470956462516e-17 3.289821801171762e-17 -5.564470956462516e-17 -0.7336796031435617 0.6794955775654157
12620364000.0 -0.728657268693881 0.6848785182639516 3.2476390796412766e-17 -5.587732277041194e-17 3.2476390796412766e-17 -5.587732277041194e-17 -0.7286576880577268 0.6848780720932891
12620981333.333334 -0.7235958637569465 0.6902238955249883 3.205292549286617e-17 -5.610674250656164e-17 3.205292549286617e-17 -5.610674250656164e-17 -0.7235962863731916 0.6902234524751952
12621598666.666666 -0.7184952465263102 0.6955318689455916 3.1627846245874715e-17 -5.633295728939949e-17 3.1627846245874715e-17 -5.633295728939949e-17 -0.7184956723717351 0.6955314290403705
12622216000.0 -0.7133556934089715 0.7008021508820139 3.1201177280328693e-17 -5.655595581757191e-17 3.1201177280328693e-17 -5.655595581757191e-17 -0.7133561224601843 0.7008017141448946
12622833333.333334 -0.7081774829218196 0.7060344557331235 3.0772942899846327e-17 -5.67757269725963e-17 3.0772942899846327e-17 -5.67757269725963e-17 -0.708177915155257 0.706034022187462
12623450666.666666 -0.7029608956766794 0.7112284999557401 3.034316748538877e-17 -5.699225981941027e-17 3.034316748538877e-17 -5.699225981941027e-17 -0.7029613310686085 0.7112280696247176
12624068000.0 -0.6977062143650474 0.7163840020800619 2.9911875493882144e-17 -5.720554360690313e-17 2.9911875493882144e-17 -5.720554360690313e-17 -0.697706652891566 0.7163835749866827
12624685333.333334 -0.6924137237427088 0.7215006827249767 2.947909145681681e-17 -5.741556776844826e-17 2.947909145681681e-17 -5.741556776844826e-17 -0.6924141653797474 0.7215002588920676
12625302666.666666 -0.6870837106144497 0.7265782646130633 2.904483997888695e-17 -5.762232192240188e-17 2.904483997888695e-17 -5.762232192240188e-17 -0.6870841553377725 0.7265778440632721
12625920000.0 -0.6817164638183515 0.7316164725857764 2.8609145736559425e-17 -5.782579587262524e-17 2.8609145736559425e-17 -5.782579587262524e-17 -0.6817169116035575 0.7316160553415706
12626537333.333334 -0.676312274210281 0.7366150336182177 2.817203347671329e-17 -5.802597960895987e-17 2.817203347671329e-17 -5.802597960895987e-17 -0.6763127250328068 0.7366146197018845
12627154666.666666 -0.6708714346480708 0.741573676833995 2.7733528015216664e-17 -5.82228633077215e-17 2.7733528015216664e-17 -5.82228633077215e-17 -0.6708718884831893 0.7415732662676372
12627772000.0 -0.6653942399755804 0.7464921335199521 2.729365423552639e-17 -5.841643733216984e-17 2.729365423552639e-17 -5.841643733216984e-17 -0.6653946967984049 0.7464917263254907
12628389333.333334 -0.6598809870068711 0.7513701371406037 2.6852437087291646e-17 -5.86066922329658e-17 2.6852437087291646e-17 -5.86066922329658e-17 -0.6598814467923543 0.7513697333397732
12629006666.666666 -0.6543319745099472 0.7562074233527244 2.6409901584932357e-17 -5.879361874862724e-17 2.6409901584932357e-17 -5.879361874862724e-17 -0.6543324372328849 0.7562070229670746
12629624000.0 -0.6487475031907393 0.7610037300195277 2.5966072806231568e-17 -5.897720780596719e-17 2.5966072806231568e-17 -5.897720780596719e-17 -0.64874796882577 0.761003333070421
12630241333.333334 -0.6431278756766152 0.7657587972250381 2.552097589092303e-17 -5.915745052052178e-17 2.552097589092303e-17 -5.915745052052178e-17 -0.6431283441982225 0.7657584037336487
12630858666.666666 -0.6374733965002595 0.7704723672879352 2.5074636039269328e-17 -5.9334338196971e-17 2.5074636039269328e-17 -5.9334338196971e-17 -0.637473867882773 0.7704719772752479
12631476000.0 -0.6317843720827601 0.7751441847758674 2.4627078510635234e-17 -5.95078623295486e-17 2.4627078510635234e-17 -5.95078623295486e-17 -0.6317848463003564 0.7751437982626757
12632093333.333334 -0.6260611107174593 0.7797739965189103 2.417832862207395e-17 -5.967801460243611e-17 2.417832862207395e-17 -5.967801460243611e-17 -0.6260615877441642 0.7797736135258162
12632710666.666666 -0.620303922552942 0.7843615516235395 2.3728411746895104e-17 -5.984478689015152e-17 2.3728411746895104e-17 -5.984478689015152e-17 -0.6203044023626315 0.7843611721709529
12633328000.0 -0.6145131195762927 0.7889066014861738 2.327735331323203e-17 -6.000817125792688e-17 2.327735331323203e-17 -6.000817125792688e-17 -0.6145136021426955 0.7889062255943108
12633945333.333334 -0.6086890155962129 0.7934088998066291 2.282517880261345e-17 -6.016815996207266e-17 2.282517880261345e-17 -6.016815996207266e-17 -0.6086895008929093 0.7934085274955103
12634562666.666666 -0.6028319262260797 0.7978682026014112 2.2371913748534267e-17 -6.032474545033039e-17 2.2371913748534267e-17 -6.032474545033039e-17 -0.6028324142265055 0.7978678338908615
12635180000.0 -0.5969421688666878 0.8022842682170621 2.1917583735007206e-17 -6.047792036222145e-17 2.1917583735007206e-17 -6.047792036222145e-17 -0.5969426595441354 0.8022839031267095
12635797333.333334 -0.5910200626892061 0.8066568573431324 2.146221439513588e-17 -6.062767752937556e-17 2.146221439513588e-17 -6.062767752937556e-17 -0.5910205560168247 0.8066564958924066
12636414666.666666 -0.5850659286177915 0.8109857330252201 2.1005831409667158e-17 -6.077400997585618e-17 2.1005831409667158e-17 -6.077400997585618e-17 -0.5850664245685893 0.8109853752333517
12637032000.0 -0.5790800893122424 0.8152706606777756 2.0548460505551497e-17 -6.091691091847075e-17 2.0548460505551497e-17 -6.091691091847075e-17 -0.5790805878590886 0.8152703065637954
12637649333.333334 -0.5730628691504231 0.8195114080968838 2.0090127454491032e-17 -6.105637376707392e-17 2.0090127454491032e-17 -6.105637376707392e-17 -0.5730633702660486 0.8195110576796207
12638266666.666666 -0.5670145942108453 0.8237077454727274 1.9630858071504813e-17 -6.11923921248536e-17 1.9630858071504813e-17 -6.11923921248536e-17 -0.5670150978678442 0.8237073987708087
12638884000.0 -0.5609355922548126 0.8278594454021743 1.9170678213466104e-17 -6.132495978861471e-17 1.9170678213466104e-17 -6.132495978861471e-17 -0.5609360984256446 0.8278591024340244
12639501333.333334 -0.5548261927088228 0.831966282900987 1.8709613777664112e-17 -6.145407074904372e-17 1.8709613777664112e-17 -6.145407074904372e-17 -0.5548267013658137 0.8319659436848258
12640118666.666666 -0.548686726646669 0.8360280354160482 1.8247690700348364e-17 -6.157971919096753e-17 1.8247690700348364e-17 -6.157971919096753e-17 -0.5486872377620127 0.8360276999698907
12640736000.0 -0.5425175267713082 0.8400444828375432 1.7784934955260695e-17 -6.170189949360351e-17 1.7784934955260695e-17 -6.170189949360351e-17 -0.5425180403170683 0.8400441511791988
12641353333.333334 -0.5363189273972131 0.8440154075106424 1.732137255221008e-17 -6.182060623078771e-17 1.732137255221008e-17 -6.182060623078771e-17 -0.5363194433453238 0.8440150796577125
12641970666.666666 -0.5300912644319449 0.8479405942474953 1.6857029535584045e-17 -6.193583417120782e-17 1.6857029535584045e-17 -6.193583417120782e-17 -0.5300917827542132 0.8479402702173737
12642588000.0 -0.5238348753579972 0.8518198303388601 1.6391931982913602e-17 -6.20475782786114e-17 1.6391931982913602e-17 -6.20475782786114e-17 -0.5238353960261044 0.8518195101487326
12643205333.333334 -0.5175500992146779 0.8556529055655274 1.5926106003399803e-17 -6.21558337120127e-17 1.5926106003399803e-17 -6.21558337120127e-17 -0.517550622200181 0.8556525892323699
12643822666.666666 -0.511237276579444 0.8594396122098893 1.5459577736458414e-17 -6.226059582588313e-17 1.5459577736458414e-17 -6.226059582588313e-17 -0.5112378018537768 0.859439299750466
12644440000.0 -0.5048967495497623 0.8631797450670036 1.4992373350261955e-17 -6.236186017033216e-17 1.4992373350261955e-17 -6.236186017033216e-17 -0.5048972770842372 0.8631794364978671
12645057333.333334 -0.4985288617243505 0.8668731014558456 1.4524519040271662e-17 -6.245962249127876e-17 1.4524519040271662e-17 -6.245962249127876e-17 -0.4985293914901607 0.8668727967933374
12645674666.666666 -0.4921339581847547 0.8705194812301784 1.4056041027777466e-17 -6.255387873061011e-17 1.4056041027777466e-17 -6.255387873061011e-17 -0.4921344901529755 0.8705191804904262
12646292000.0 -0.4857123854762799 0.8741186867896116 1.35869655584264e-17 -6.264462502633157e-17 1.35869655584264e-17 -6.264462502633157e-17 -0.48571291961786983 0.8741183899885289
12646909333.333334 -0.4792644915897268 0.8776705230900103 1.3117318900768084e-17 -6.273185771270213e-17 1.3117318900768084e-17 -6.273185771270213e-17 -0.47926502787552977 0.8776702302432963
12647526666.666666 -0.47279062594209204 0.8811747976543235 1.264712734478523e-17 -6.281557332036181e-17 1.264712734478523e-17 -6.281557332036181e-17 -0.47279116434283736 0.8811745087774593
12648144000.0 -0.4662911393578513 0.8846313205828797 1.2176417200414569e-17 -6.289576857644982e-17 1.2176417200414569e-17 -6.289576857644982e-17 -0.46629167984415826 0.8846310356911327
12648761333.333334 -0.4597663840498518 0.8880399045637399 1.1705214796101216e-17 -6.297244040470507e-17 1.1705214796101216e-17 -6.297244040470507e-17 -0.4597669265922285 0.8880396236721586
12649378666.666666 -0.4532167136004257 0.8914003648827399 1.1233546477316886e-17 -6.304558592556308e-17 1.1233546477316886e-17 -6.304558592556308e-17 -0.45321725816927205 0.8914000880061547
12649996000.0 -0.44664248294190134 0.8947125194336709 1.07614386050973e-17 -6.311520245623755e-17 1.07614386050973e-17 -6.311520245623755e-17 -0.44664302950750995 0.8947122465866925
12650613333.333334 -0.4400440483376461 0.8979761887280026 1.0288917554566845e-17 -6.31812875107937e-17 1.0288917554566845e-17 -6.31812875107937e-17 -0.4400445968702049 0.8979759199250233
12651230666.666666 -0.4334217673626609 0.9011911959046652 9.816009713482738e-18 -6.32438388002072e-17 9.816009713482738e-18 -6.32438388002072e-17 -0.43342231783225404 0.9011909311598566
12651848000.0 -0.42677599888415085 0.9043573667396575 9.342741480752097e-18 -6.33028542324164e-17 9.342741480752097e-18 -6.33028542324164e-17 -0.4267765512607603 0.9043571060669697
12652465333.333334 -0.4201071030421031 0.9074745296554745 8.869139264976005e-18 -6.335833191235977e-17 8.869139264976005e-18 -6.335833191235977e-17 -0.4201076572956102 0.9074742730686347
12653082666.666666 -0.41341544122997587 0.9105425157303072 8.395229482977357e-18 -6.341027014200464e-17 8.395229482977357e-18 -6.341027014200464e-17 -0.4134159973301636 0.9105422632428213
12653700000.0 -0.40670137607465184 0.9135611587074167 7.92103855831798e-18 -6.3458667420366e-17 7.92103855831798e-18 -6.3458667420366e-17 -0.40670193399120547 0.9135609103325654
12654317333.333334 -0.3999652714173532 0.9165302950038775 7.446592919861126e-18 -6.350352244350932e-17 7.446592919861126e-18 -6.350352244350932e-17 -0.3999658311198637 0.91653005075472
12654934666.666666 -0.39320749229346214 0.9194497637196607 6.97191900027284e-18 -6.354483410454965e-17 6.97191900027284e-18 -6.354483410454965e-17 -0.39320805375142526 0.9194495236090284
12655552000.0 -0.38642840491294217 0.9223194066462503 6.49704323456879e-18 -6.358260149363408e-17 6.49704323456879e-18 -6.358260149363408e-17 -0.38642896809576255 0.9223191706867514
12656169333.333334 -0.37962837664052357 0.9251390682752159 6.021992058648992e-18 -6.361682389791555e-17 6.021992058648992e-18 -6.361682389791555e-17 -0.3796289415175144 0.9251388364792302
12656786666.666666 -0.37280777597573933 0.927908595806653 5.546791907827538e-18 -6.364750080151556e-17 5.546791907827538e-18 -6.364750080151556e-17 -0.37280834251612677 0.9279083681863372
12657404000.0 -0.3659669725328817 0.9306278391575059 5.071469215361186e-18 -6.367463188547654e-17 5.071469215361186e-18 -6.367463188547654e-17 -0.3659675407058029 0.9306276157247855
12658021333.333334 -0.35910633702112543 0.9332966509696271 4.5960504109948795e-18 -6.369821702770168e-17 4.5960504109948795e-18 -6.369821702770168e-17 -0.35910690679563284 0.9332964317362009
12658638666.666666 -0.3522262412243631 0.9359148866177999 4.120561919491781e-18 -6.37182563028855e-17 4.120561919491781e-18 -6.37182563028855e-17 -0.3522268125694254 0.9359146715951382
12659256000.0 -0.34532705798100344 0.9384824042175959 3.645030159165911e-18 -6.373474998243277e-17 3.645030159165911e-18 -6.373474998243277e-17 -0.34532763086550694 0.9384821934169386
12659873333.333334 -0.3384091611637923 0.9409990646330479 3.1694815404230344e-18 -6.374769853436698e-17 3.1694815404230344e-18 -6.374769853436698e-17 -0.338409735556544 0.9409988580654084
12660490666.666666 -0.33147292565976866 0.9434647314841216 2.6939424643042794e-18 -6.375710262322683e-17 2.6939424643042794e-18 -6.375710262322683e-17 -0.33147350152949584 0.9434645291602795
12661108000.0 -0.3245187273494653 0.945879271154272 2.2184393210128086e-18 -6.37629631099538e-17 2.2184393210128086e-18 -6.37629631099538e-17 -0.32451930466481815 0.9458790730847761
12661725333.333334 -0.3175469430871287 0.9482425527974747 1.742998488466975e-18 -6.376528105176685e-17 1.742998488466975e-18 -6.376528105176685e-17 -0.3175475218166831 0.9482423589926448
12662342666.666666 -0.31055795067978975 0.9505544483455021 1.2676463308366352e-18 -6.376405770202764e-17 1.2676463308366352e-18 -6.376405770202764e-17 -0.31055853079204715 0.950554258815423
12662960000.0 -0.30355212886713673 0.952814832514735 7.924091970807784e-19 -6.375929451009459e-17 7.924091970807784e-19 -6.375929451009459e-17 -0.30355271033052683 0.9528146472692599
12663577333.333334 -0.2965298573007494 0.9550235828130368 3.1731341950470006e-19 -6.375099312116562e-17 3.1731341950470006e-19 -6.375099312116562e-17 -0.2965304400836324 0.9550234018617874
12664194666.666666 -0.28949151652374294 0.9571805795463241 -1.576146877085223e-19 -6.373915537611106e-17 -1.576146877085223e-19 -6.373915537611106e-17 -0.2894921005944098 0.9571804028986856
12664812000.0 -0.2824374879499267 0.9592857058251141 -6.32348829935987e-19 -6.372378331129457e-17 -6.32348829935987e-19 -6.372378331129457e-17 -0.2824380732766022 0.9592855334902397
12665429333.333334 -0.2753681538433276 0.9613388475708088 -1.1068627335820748e-18 -6.370487915838452e-17 -1.1068627335820748e-18 -6.370487915838452e-17 -0.2753687403941714 0.9613386795576161
12666046666.666666 -0.2682838972973913 0.9633398935218946 -1.5811301475039767e-18 -6.368244534415384e-17 -1.5811301475039767e-18 -6.368244534415384e-17 -0.2682844850405002 0.9633397298390671
12666664000.0 -0.2611851022141421 0.965288735240001 -2.0551248444933524e-18 -6.365648449026893e-17 -2.0551248444933524e-18 -6.365648449026893e-17 -0.26118569111755074 0.9652885758959859
12667281333.333334 -0.2540721532835409 0.9671852671157256 -2.528820622681883e-18 -6.362699941306917e-17 -2.528820622681883e-18 -6.362699941306917e-17 -0.2540727433152247 0.9671851121187346
12667898666.666666 -0.24694543596258559 0.9690293863743769 -3.002191307017245e-18 -6.359399312333386e-17 -3.002191307017245e-18 -6.359399312333386e-17 -0.24694602709046176 0.9690292357323852
12668516000.0 -0.23980533645420177 0.970820993081598 -3.475210750689968e-18 -6.355746882603954e-17 -3.475210750689968e-18 -6.355746882603954e-17 -0.2398059286461312 0.9708208468023437
12669133333.333334 -0.23265224168678242 0.972559990148663 -3.947852836570887e-18 -6.351742992010728e-17 -3.947852836570887e-18 -6.351742992010728e-17 -0.2326528349105717 0.9725598482396484
12669750666.666666 -0.2254865392927238 0.9742462833378647 -4.420091478651748e-18 -6.347387999813779e-17 -4.420091478651748e-18 -6.347387999813779e-17 -0.2254871335161266 0.9742461458063533
12670368000.0 -0.21830861758775078 0.9758797812675387 -4.891900623485355e-18 -6.342682284613653e-17 -4.891900623485355e-18 -6.342682284613653e-17 -0.21830921277846932 0.9758796481205548
