! Parameters = {f0=12700.012000; bw=77.238000; Q=6100.000000; N=10; m_0_1=1.346241; m_1_1=1.428873; m_1_2=1.181053; m_2_2=1.428224; m_2_3=0.818016; m_2_8=0.004376; m_2_9=0.041080; m_3_3=1.426287; m_3_4=0.706545; m_3_7=0.004976; m_3_8=-0.092112; m_3_9=0.004376; m_4_4=1.423362; m_4_5=0.542880; m_4_6=0.008493; m_4_7=-0.112661; m_4_8=0.004976; m_5_5=1.423744; m_5_6=0.950235; m_5_7=0.008493; m_6_6=1.423743; m_6_7=0.543222; m_7_7=1.423376; m_7_8=0.706663; m_8_8=1.426285; m_8_9=0.818329; m_9_9=1.428219; m_9_10=1.182131; m_10_10=1.428863; m_10_11=1.347036}
!
! Created with skrf (http://scikit-rf.org).
# Hz S RI R 50.0 
!freq ReS11 ImS11 ReS21 ImS21 ReS12 ImS12 ReS22 ImS22
12607400000.0 0.25609445354099164 -0.9666517629763794 4.5399808065117815e-18 1.5634912565221329e-16 4.5399808065117815e-18 1.5634912565221329e-16 0.25609513902569336 -0.9666515813710814
12608017333.333334 0.24372313264055426 -0.9698448507960831 6.5497807850380715e-18 1.5624718065196432e-16 6.5497807850380715e-18 1.5624718065196432e-16 0.24372382035591664 -0.969844677972158
12608634666.666666 0.23131202506486281 -0.9728796159136005 8.557709761077773e-18 1.5611941418406698e-16 8.557709761077773e-18 1.5611941418406698e-16 0.23131271489840646 -0.9728794518983995
12609252000.0 0.21886315687010158 -0.9757555629176071 1.0563436161638579e-17 1.5596585750369708e-16 1.0563436161638579e-17 1.5596585750369708e-16 0.21886384870901268 -0.9757554077370416
12609869333.333334 0.20637856027664456 -0.9784722223231179 1.2566628908038138e-17 1.5578654612149228e-16 1.2566628908038138e-17 1.5578654612149228e-16 0.20637925400779294 -0.9784720760016552
12610486666.666666 0.19386027333741604 -0.9810291506481057 1.456695747044599e-17 1.555815197960141e-16 1.456695747044599e-17 1.555815197960141e-16 0.1938609688473735 -0.9810290132087632
12611104000.0 0.18131033960496426 -0.9834259304859391 1.656409192245493e-17 1.5535082252549796e-16 1.656409192245493e-17 1.5535082252549796e-16 0.1813110367800233 -0.9834258019502817
12611721333.333334 0.16873080779819494 -0.9856621705734526 1.8557702995310066e-17 1.5509450253892486e-16 1.8557702995310066e-17 1.5509450253892486e-16 0.16873150652438773 -0.9856620509615919
12612338666.666666 0.1561237314677618 -0.9877375058548623 2.0547462132220076e-17 1.5481261228637737e-16 2.0547462132220076e-17 1.5481261228637737e-16 0.1561244316308782 -0.9877373951854495
12612956000.0 0.14349116866066391 -0.9896515975413768 2.2533041542440673e-17 1.5450520842870654e-16 2.2533041542440673e-17 1.5450520842870654e-16 0.14349187014627054 -0.9896514958316023
12613573333.333334 0.13083518158461635 -0.9914041331664508 2.4514114255131564e-17 1.5417235182652124e-16 2.4514114255131564e-17 1.5417235182652124e-16 0.13083588427807513 -0.9914040404320412
12614190666.666666 0.11815783627123636 -0.9929948266368271 2.6490354173223328e-17 1.5381410752846087e-16 2.6490354173223328e-17 1.5381410752846087e-16 0.11815854005772304 -0.9929947428920405
12614808000.0 0.10546120223860289 -0.9944234182792521 2.84614361269958e-17 1.534305447587988e-16 2.84614361269958e-17 1.534305447587988e-16 0.10546190700312633 -0.9944233435368791
12615425333.333334 0.09274735215375644 -0.9956896748828266 3.0427035927491e-17 1.5302173690435892e-16 3.0427035927491e-17 1.5302173690435892e-16 0.09274805778117715 -0.9956896091541887
12616042666.666666 0.08001836149417699 -0.996793389737106 3.2386830419821554e-17 1.525877615007354e-16 3.2386830419821554e-17 1.525877615007354e-16 0.08001906786922561 -0.9967933330320494
12616660000.0 0.06727630820880072 -0.9977343826658456 3.434049753619971e-17 1.5212870021784587e-16 3.434049753619971e-17 1.5212870021784587e-16 0.06727701521609736 -0.9977343349927446
12617277333.333334 0.054523272379145206 -0.9985125000563946 3.628771634881814e-17 1.516446388447971e-16 3.628771634881814e-17 1.516446388447971e-16 0.054523979903217924 -0.9985124614221472
12617894666.666666 0.041761335879575395 -0.9991276148847839 3.8228167122461005e-17 1.5113566727408936e-16 3.8228167122461005e-17 1.5113566727408936e-16 0.04176204380487921 -0.9991275852948115
12618512000.0 0.028992582037276792 -0.9995796267364666 4.0161531367034804e-17 1.5060187948511365e-16 4.0161531367034804e-17 1.5060187948511365e-16 0.02899329024821265 -0.9995796061947168
12619129333.333334 0.01621909529250288 -0.9998684618227018 4.2087491889657836e-17 1.500433735270336e-16 4.2087491889657836e-17 1.500433735270336e-16 0.016219803673436273 -0.9998684503316408
12619746666.666666 0.0034429608581292106 -0.9999940729926015 4.4005732846720894e-17 1.4946025150094866e-16 4.4005732846720894e-17 1.4946025150094866e-16 0.0034436692934092647 -0.9999940705532208
12620364000.0 -0.009333735620918335 -0.9999564397408327 4.5915939795617633e-17 1.4885261954141288e-16 4.5915939795617633e-17 1.4885261954141288e-16 -0.009333027246940075 -0.9999564463526446
12620981333.333334 -0.02210890840779451 -0.9997555682109596 4.781779974614781e-17 1.4822058779732073e-16 4.781779974614781e-17 1.4822058779732073e-16 -0.02210820021074519 -0.9997555838719999
12621598666.666666 -0.03488047201439216 -0.999391491194444 4.971100121182057e-17 1.4756427041208525e-16 4.971100121182057e-17 1.4756427041208525e-16 -0.034879764109858734 -0.9993915159012718
12622216000.0 -0.047646341541958986 -0.9988642681252888 5.159523426076194e-17 1.4688378550320258e-16 5.159523426076194e-17 1.4688378550320258e-16 -0.04764563404546934 -0.9988643018729858
12622833333.333334 -0.060404433021106665 -0.9981739850703387 5.3470190566404385e-17 1.461792551411483e-16 5.3470190566404385e-17 1.461792551411483e-16 -0.06040372604811077 -0.9981740278525115
12623450666.666666 -0.07315266375223659 -0.9973207547152291 5.533556345784108e-17 1.454508053276464e-16 5.533556345784108e-17 1.454508053276464e-16 -0.07315195741808772 -0.9973208065240113
12624068000.0 -0.08588895264541753 -0.9963047163459964 5.719104796996933e-17 1.4469856597326486e-16 5.719104796996933e-17 1.4469856597326486e-16 -0.08588824706535335 -0.9963047771720475
12624685333.333334 -0.09861122056034043 -0.9951260358263181 5.903634089325736e-17 1.4392267087440093e-16 5.903634089325736e-17 1.4392267087440093e-16 -0.09861051584946429 -0.9951261056588279
12625302666.666666 -0.11131739064533216 -0.9937849055704743 6.087114082319428e-17 1.4312325768963837e-16 6.087114082319428e-17 1.4312325768963837e-16 -0.11131668691859428 -0.9937849843971631
12625920000.0 -0.12400538867684481 -0.9922815445118928 6.269514820954323e-17 1.4230046791542185e-16 6.269514820954323e-17 1.4230046791542185e-16 -0.1240046860490234 -0.9922816323190129
12626537333.333334 -0.136673143397723 -0.9906161980674388 6.450806540507406e-17 1.4145444686118988e-16 6.450806540507406e-17 1.4145444686118988e-16 -0.13667244198340597 -0.9906162948397803
12627154666.666666 -0.1493185868552727 -0.9887891380973737 6.630959671411649e-17 1.4058534362382111e-16 6.630959671411649e-17 1.4058534362382111e-16 -0.1493178867688383 -0.9887892438182622
12627772000.0 -0.16193965473935032 -0.9868006628608953 6.809944844076982e-17 1.3969331106146027e-16 6.809944844076982e-17 1.3969331106146027e-16 -0.16193895609494913 -0.986800777512199
12628389333.333334 -0.17453428671873364 -0.9846510969675428 6.987732893660422e-17 1.3877850576680986e-16 6.987732893660422e-17 1.3877850576680986e-16 -0.17453358963026958 -0.984651220529673
12629006666.666666 -0.18710042677796643 -0.9823407913241231 7.164294864823501e-17 1.3784108803970218e-16 7.164294864823501e-17 1.3784108803970218e-16 -0.1870997313590784 -0.9823409237760395
12629624000.0 -0.19963602355254578 -0.9798701230775072 7.339602016432563e-17 1.3688122185917054e-16 7.339602016432563e-17 1.3688122185917054e-16 -0.19963532991658897 -0.9798702643967195
12630241333.333334 -0.21213903066424453 -0.9772394955529771 7.513625826235208e-17 1.3589907485485474e-16 7.513625826235208e-17 1.3589907485485474e-16 -0.21213833892427184 -0.9772396457155494
12630858666.666666 -0.22460740705472715 -0.9744493381884739 7.686337995490117e-17 1.3489481827786007e-16 7.686337995490117e-17 1.3489481827786007e-16 -0.22460671732347123 -0.9744494971690303
12631476000.0 -0.23703911731924326 -0.9715001064643876 7.857710453566581e-17 1.3386862697098068e-16 7.857710453566581e-17 1.3386862697098068e-16 -0.23703842970909786 -0.9715002742361151
12632093333.333334 -0.24943213203828873 -0.96839228182934 8.027715362497535e-17 1.3282067933837928e-16 8.027715362497535e-17 1.3282067933837928e-16 -0.24943144666129027 -0.968392458363993
12632710666.666666 -0.2617844281093974 -0.9651263716214777 8.19632512149241e-17 1.3175115731469086e-16 8.19632512149241e-17 1.3175115731469086e-16 -0.26178374507720664 -0.9651265568893822
12633328000.0 -0.27409398907734617 -0.9617029089856545 8.363512371415725e-17 1.3066024633351219e-16 8.363512371415725e-17 1.3066024633351219e-16 -0.27409330850123076 -0.9617031029557157
12633945333.333334 -0.2863588054630035 -0.9581224527864922 8.529249999216471e-17 1.29548135295372e-16 8.529249999216471e-17 1.29548135295372e-16 -0.28635812745381883 -0.9581226554261963
12634562666.666666 -0.29857687509180547 -0.9543855875170243 8.693511142318774e-17 1.2841501653511598e-16 8.693511142318774e-17 1.2841501653511598e-16 -0.29857619975997696 -0.954385798792445
12635180000.0 -0.3107462034201644 -0.9504929232034067 8.856269192968638e-17 1.2726108578874124e-16 8.856269192968638e-17 1.2726108578874124e-16 -0.3107455308756701 -0.9504931430792126
12635797333.333334 -0.32286480386155875 -0.9464450953051847 9.017497802537604e-17 1.2608654215967633e-16 9.017497802537604e-17 1.2608654215967633e-16 -0.3228641342139109 -0.9464453237446444
12636414666.666666 -0.33493069811018444 -0.942242764611767 9.177170885778217e-17 1.2489158808454234e-16 9.177170885778217e-17 1.2489158808454234e-16 -0.3349300314684117 -0.9422430015767541
12637032000.0 -0.3469419164646606 -0.9378866171343054 9.335262625041483e-17 1.236764292983254e-16 9.335262625041483e-17 1.236764292983254e-16 -0.34694125293728983 -0.9378868625853046
12637649333.333334 -0.3588964981489795 -0.9333773639939006 9.491747474441161e-17 1.2244127479906753e-16 9.491747474441161e-17 1.2244127479906753e-16 -0.35889583784401935 -0.933377617890017
12638266666.666666 -0.3707924916328123 -0.928715741305451 9.646600163975111e-17 1.2118633681200625e-16 9.646600163975111e-17 1.2118633681200625e-16 -0.3707918346577343 -0.9287160036044142
12638884000.0 -0.3826279549502448 -0.9239025100574177 9.799795703598697e-17 1.1991183075319988e-16 9.799795703598697e-17 1.1991183075319988e-16 -0.38262730141196666 -0.92390278071559
12639501333.333334 -0.39440095601647573 -0.918938455987719 9.951309387250842e-17 1.1861797519263228e-16 9.951309387250842e-17 1.1861797519263228e-16 -0.39440030602134374 -0.9189387349601023
12640118666.666666 -0.4061095729433302 -0.9138243894554297 1.0101116796827675e-16 1.1730499181684605e-16 1.0101116796827675e-16 1.1730499181684605e-16 -0.4061089265971019 -0.9138246766956737
12640736000.0 -0.4177518943534131 -0.908561145308305 1.0249193806117478e-16 1.1597310539098123e-16 1.0249193806117478e-16 1.1597310539098123e-16 -0.4177512517612398 -0.9085614407687131
12641353333.333334 -0.4293260196912996 -0.9031495827468609 1.0395516584669373e-16 1.1462254372046528e-16 1.0395516584669373e-16 1.1462254372046528e-16 -0.4293253809577104 -0.9031498863784018
12641970666.666666 -0.44083005953452237 -0.8975905851837975 1.0540061601627963e-16 1.1325353761206885e-16 1.0540061601627963e-16 1.1325353761206885e-16 -0.4408294247634056 -0.8975908969361088
12642588000.0 -0.45226213590164704 -0.8918850600999452 1.0682805629507081e-16 1.1186632083456793e-16 1.0682805629507081e-16 1.1186632083456793e-16 -0.45226150519623387 -0.8918853799213438
12643205333.333334 -0.4636203825590485 -0.8860339388960253 1.0823725747912e-16 1.1046113007893287e-16 1.0823725747912e-16 1.1046113007893287e-16 -0.46361975602189653 -0.8860342667335162
12643822666.666666 -0.4749029453254614 -0.8800381767406488 1.0962799347218213e-16 1.0903820491796364e-16 1.0962799347218213e-16 1.0903820491796364e-16 -0.4749023230584386 -0.8800385125399351
12644440000.0 -0.48610798237456865 -0.873898752414448 1.1100004132185311e-16 1.0759778776557962e-16 1.1100004132185311e-16 1.0759778776557962e-16 -0.4861073644788353 -0.8738990961199374
12645057333.333334 -0.49723366453582174 -0.8676166681502159 1.1235318125524544e-16 1.0614012383558984e-16 1.1235318125524544e-16 1.0614012383558984e-16 -0.4972330511118145 -0.8676170197050301
12645674666.666666 -0.5082781755929431 -0.8611929494693463 1.136871967141098e-16 1.0466546110002657e-16 1.136871967141098e-16 1.0466546110002657e-16 -0.5082775667403596 -0.8611933088153335
12646292000.0 -0.5192397125806627 -0.8546286450142853 1.150018743894531e-16 1.0317405024699435e-16 1.150018743894531e-16 1.0317405024699435e-16 -0.5192391083984441 -0.8546290120920257
12646909333.333334 -0.5301164860785045 -0.8479248263776585 1.162970042554865e-16 1.0166614463821498e-16 1.162970042554865e-16 1.0166614463821498e-16 -0.5301158866648197 -0.847925201126476
12647526666.666666 -0.5409067205035347 -0.8410825879269614 1.1757237960315385e-16 1.001420002659985e-16 1.1757237960315385e-16 1.001420002659985e-16 -0.5409061259557654 -0.8410829702849345
12648144000.0 -0.5516086543998763 -0.8341030466261111 1.1882779707303182e-16 9.860187570986573e-17 1.1882779707303182e-16 9.860187570986573e-17 -0.5516080648146005 -0.834103436530083
12648761333.333334 -0.5622205407262132 -0.8269873418531432 1.2006305668764723e-16 9.7046032092781e-17 1.2006305668764723e-16 9.7046032092781e-17 -0.5622199561991885 -0.8269877392387298
12649378666.666666 -0.5727406471411284 -0.8197366352141185 1.212779618832459e-16 9.547473303695504e-17 1.212779618832459e-16 9.547473303695504e-17 -0.5727400677672778 -0.8197370400157215
12649996000.0 -0.5831672562858082 -0.8123521103535619 1.2247231954101077e-16 9.388824461921654e-17 1.2247231954101077e-16 9.388824461921654e-17 -0.5831666821592045 -0.8123525225043792
12650613333.333334 -0.5934986660646232 -0.8048349727610715 1.2364594001765366e-16 9.228683532604973e-17 1.2364594001765366e-16 9.228683532604973e-17 -0.5934980972784739 -0.804835392193108
12651230666.666666 -0.603733189922482 -0.7971864495748953 1.2479863717542178e-16 9.067077600825212e-17 1.2479863717542178e-16 9.067077600825212e-17 -0.6037326265691124 -0.7971868762189726
12651848000.0 -0.6138691571207491 -0.7894077893811691 1.259302284115586e-16 8.904033983515439e-17 1.259302284115586e-16 8.904033983515439e-17 -0.6138685992915895 -0.7894082231669395
12652465333.333334 -0.6239049130096629 -0.7815002620103253 1.2704053468712255e-16 8.739580224853909e-17 1.2704053468712255e-16 8.739580224853909e-17 -0.6239043607952335 -0.7815007028662824
12653082666.666666 -0.6338388192983654 -0.7734651583298738 1.281293805551999e-16 8.573744091620844e-17 1.281293805551999e-16 8.573744091620844e-17 -0.6338382727882602 -0.7734656061833632
12653700000.0 -0.6436692543226973 -0.7653037900333872 1.2919659418858623e-16 8.40655356850933e-17 1.2919659418858623e-16 8.40655356850933e-17 -0.6436687136055704 -0.7653042448106196
12654317333.333334 -0.6533946133094006 -0.7570174894268051 1.3024200740673697e-16 8.238036853420216e-17 1.3024200740673697e-16 8.238036853420216e-17 -0.6533940784729524 -0.757017951052869
12654934666.666666 -0.6630133086386604 -0.7486076092104723 1.3126545570221924e-16 8.068222352706007e-17 1.3126545570221924e-16 8.068222352706007e-17 -0.6630127797696235 -0.7486080776093454
12655552000.0 -0.672523770103011 -0.7400755222585299 1.3226677826649745e-16 7.897138676389426e-17 1.3226677826649745e-16 7.897138676389426e-17 -0.6725232472871334 -0.7400759973530905
12656169333.333334 -0.6819244451634121 -0.7314226213950289 1.3324581801505676e-16 7.724814633356924e-17 1.3324581801505676e-16 7.724814633356924e-17 -0.681923928485447 -0.7314231031070711
12656786666.666666 -0.6912137992032452 -0.7226503191660674 1.3420242161198633e-16 7.551279226506918e-17 1.3420242161198633e-16 7.551279226506918e-17 -0.6912132887469351 -0.7226508074163125
12657404000.0 -0.7003903157783272 -0.7137600476096557 1.351364394938655e-16 7.376561647879094e-17 1.351364394938655e-16 7.376561647879094e-17 -0.7003898116263914 -0.7137605423177656
12658021333.333334 -0.7094524968648765 -0.7047532580215541 1.360477258930473e-16 7.200691273749021e-17 1.360477258930473e-16 7.200691273749021e-17 -0.7094519990989961 -0.7047537591061437
12658638666.666666 -0.718398863103571 -0.6956314207188307 1.369361388602808e-16 7.023697659698859e-17 1.369361388602808e-16 7.023697659698859e-17 -0.7183983718043777 -0.6956319280974826
12659256000.0 -0.7272279540415726 -0.6863960247993219 1.3780154028673177e-16 6.845610535652493e-17 1.3780154028673177e-16 6.845610535652493e-17 -0.7272274692886337 -0.686396538388599
12659873333.333334 -0.7359383283706908 -0.6770485778987768 1.386437959253212e-16 6.666459800891628e-17 1.386437959253212e-16 6.666459800891628e-17 -0.7359378502424985 -0.677049097614237
12660490666.666666 -0.7445285641624065 -0.6675906059450419 1.394627754114353e-16 6.486275519041839e-17 1.394627754114353e-16 6.486275519041839e-17 -0.744528092736363 -0.6675911317012508
12661108000.0 -0.7529972591006856 -0.6580236529082052 1.4025835228298455e-16 6.305087913033386e-17 1.4025835228298455e-16 6.305087913033386e-17 -0.7529967944530914 -0.6580241846187503
12661725333.333334 -0.76134303071006 -0.6483492805494762 1.410304039997924e-16 6.122927360041663e-17 1.410304039997924e-16 6.122927360041663e-17 -0.7613425729161031 -0.6483498181269826
12662342666.666666 -0.7695645165820316 -0.6385690681654308 1.417788119623629e-16 5.939824386396098e-17 1.417788119623629e-16 5.939824386396098e-17 -0.7695640657157726 -0.6385696115215738
12662960000.0 -0.7776603745970269 -0.6286846123307107 1.4250346152995287e-16 5.755809662474325e-17 1.4250346152995287e-16 5.755809662474325e-17 -0.7776599307313883 -0.6286851613762302
12663577333.333334 -0.7856292831436424 -0.6186975266372178 1.432042420380005e-16 5.570913997570547e-17 1.432042420380005e-16 5.570913997570547e-17 -0.7856288463503971 -0.6186980812819346
12664194666.666666 -0.7934699413344984 -0.6086094414305709 1.438810468148856e-16 5.385168334743733e-17 1.438810468148856e-16 5.385168334743733e-17 -0.7934695116842592 -0.6086100015834011
12664812000.0 -0.8011810692183541 -0.5984220035442698 1.445337731980227e-16 5.1986037456456345e-17 1.445337731980227e-16 5.1986037456456345e-17 -0.8011806467805592 -0.5984225691132382
12665429333.333334 -0.8087614079893668 -0.5881368760304524 1.4516232254928722e-16 5.0112514253287766e-17 1.4516232254928722e-16 5.0112514253287766e-17 -0.8087609928322713 -0.5881374469227093
12666046666.666666 -0.8162097201921777 -0.5777557378889552 1.45766600269754e-16 4.8231426870410055e-17 1.45766600269754e-16 4.8231426870410055e-17 -0.8162093123828403 -0.5777563140107904
12666664000.0 -0.8235247899243897 -0.567280283792582 1.4634651581380423e-16 4.634308956989223e-17 1.4634651581380423e-16 4.634308956989223e-17 -0.823524389528665 -0.567280865049442
12667281333.333334 -0.8307054230346959 -0.5567122238109662 1.4690198270249036e-16 4.444781769107272e-17 1.4690198270249036e-16 4.444781769107272e-17 -0.8307050301172199 -0.5567128101074665
12667898666.666666 -0.8377504473179465 -0.5460532831312208 1.4743291853628878e-16 4.254592759787224e-17 1.4743291853628878e-16 4.254592759787224e-17 -0.8377500619421301 -0.5460538743711657
12668516000.0 -0.8446587127066041 -0.5353052017761702 1.4793924500713185e-16 4.0637736626082294e-17 1.4793924500713185e-16 4.0637736626082294e-17 -0.8446583349346206 -0.5353057978625656
12669133333.333334 -0.8514290914582667 -0.5244697343206318 1.4842088790976514e-16 3.8723563030506164e-17 1.4842088790976514e-16 3.8723563030506164e-17 -0.8514287213510414 -0.5244703351557016
12669750666.666666 -0.8580604783400114 -0.5135486496046051 1.4887777715243927e-16 3.6803725931892015e-17 1.4887777715243927e-16 3.6803725931892015e-17 -0.8580601159572135 -0.5135492550898085
12670368000.0 -0.8645517908086081 -0.5025437304448561 1.4930984676689727e-16 3.4878545263819285e-17 1.4930984676689727e-16 3.4878545263819285e-17 -0.8645514362086388 -0.5025443404809015
