! Parameters = {f0=12700.012000; bw=77.238000; Q=6100.000000; N=10; m_0_1=1.248343; m_1_1=-0.039596; m_1_2=1.083155; m_2_2=-0.040245; m_2_3=0.720118; m_2_8=-0.000519; m_2_9=0.036185; m_3_3=-0.042182; m_3_4=0.608647; m_3_7=0.000081; m_3_8=-0.097007; m_3_9=-0.000519; m_4_4=-0.045107; m_4_5=0.444982; m_4_6=0.003598; m_4_7=-0.117556; m_4_8=0.000081; m_5_5=-0.044725; m_5_6=0.852337; m_5_7=0.003598; m_6_6=-0.044726; m_6_7=0.445324; m_7_7=-0.045093; m_7_8=0.608765; m_8_8=-0.042184; m_8_9=0.720431; m_9_9=-0.040250; m_9_10=1.084233; m_10_10=-0.039606; m_10_11=1.249138}
!
! Created with skrf (http://scikit-rf.org).
# Hz S RI R 50.0 
!freq ReS11 ImS11 ReS21 ImS21 ReS12 ImS12 ReS22 ImS22
12607400000.0 0.28360820898352407 0.9589402399508472 -5.429744323671409e-17 -8.368305095014388e-17 -5.429744323671409e-17 -8.368305095014388e-17 0.28360757824967625 0.9589404264912307
12608017333.333334 0.29307114231941866 0.9560906366759484 -5.511837126325937e-17 -8.31211960352164e-17 -5.511837126325937e-17 -8.31211960352164e-17 0.29307051349065977 0.9560908294310486
12608634666.666666 0.3025054521722525 0.953147654566642 -5.593349695664189e-17 -8.255129580428709e-17 -5.593349695664189e-17 -8.255129580428709e-17 0.30250482530980877 0.9531478535170247
12609252000.0 0.3119102171180421 0.9501115810562493 -5.674274155098882e-17 -8.197341006682791e-17 -5.674274155098882e-17 -8.197341006682791e-17 0.31190959228294196 0.9501117861818776
12609869333.333334 0.32128451861840457 0.9469827126700728 -5.754602689585459e-17 -8.138759940263685e-17 -5.754602689585459e-17 -8.138759940263685e-17 0.3212838958714727 0.94698292395031
12610486666.666666 0.330627441110135 0.9437613549964812 -5.834327546373498e-17 -8.079392515552373e-17 -5.834327546373498e-17 -8.079392515552373e-17 0.33062682051198566 0.9437615724100893
12611104000.0 0.3399380720949217 0.9404478226569609 -5.913441035755275e-17 -8.01924494268964e-17 -5.913441035755275e-17 -8.01924494268964e-17 0.339937453705954 0.9404480461821066
12611721333.333334 0.34921550222809195 0.9370424392755171 -5.991935531802119e-17 -7.958323506931595e-17 -5.991935531802119e-17 -7.958323506931595e-17 0.34921488610848317 0.9370426688897727
12612338666.666666 0.3584588254076948 0.9335455374469775 -6.069803473099575e-17 -7.89663456799398e-17 -6.069803473099575e-17 -7.89663456799398e-17 0.3584582116173944 0.9335457731273216
12612956000.0 0.36766713886299424 0.9299574587044985 -6.147037363473534e-17 -7.834184559390877e-17 -6.147037363473534e-17 -7.834184559390877e-17 0.3676665274617189 0.9299577004273208
12613573333.333334 0.37683954324240404 0.9262785534863072 -6.223629772707725e-17 -7.77097998776813e-17 -6.223629772707725e-17 -7.77097998776813e-17 0.37683893428963056 0.9262788012274085
12614190666.666666 0.3859751427015886 0.9225091811013684 -6.299573337258479e-17 -7.707027432226262e-17 -6.299573337258479e-17 -7.707027432226262e-17 0.3859745362565493 0.9225094348359647
12614808000.0 0.39507304499082624 0.9186497096943456 -6.374860760959323e-17 -7.64233354363918e-17 -6.374860760959323e-17 -7.64233354363918e-17 0.3950724411125028 0.91864996939707
12615425333.333334 0.4041323615421791 0.9147005162096348 -6.44948481571991e-17 -7.576905043964931e-17 -6.44948481571991e-17 -7.576905043964931e-17 0.404131760289296 0.9147007818545387
12616042666.666666 0.41315220755627546 0.9106619863545451 -6.523438342217497e-17 -7.510748725550042e-17 -6.523438342217497e-17 -7.510748725550042e-17 0.41315160898729636 0.9106622579151052
12616660000.0 0.42213170208872963 0.9065345145616364 -6.59671425058236e-17 -7.443871450426204e-17 -6.59671425058236e-17 -7.443871450426204e-17 0.42213110626184946 0.9065347920107517
12617277333.333334 0.43106996813620335 0.9023185039501755 -6.66930552107413e-17 -7.376280149601944e-17 -6.66930552107413e-17 -7.376280149601944e-17 0.43106937510934346 0.902318787260173
12617894666.666666 0.43996613272193374 0.8980143662868302 -6.741205204751787e-17 -7.307981822347071e-17 -6.741205204751787e-17 -7.307981822347071e-17 0.4399655425527367 0.8980146554294676
12618512000.0 0.44881932698127575 0.8936225219453149 -6.812406424138579e-17 -7.238983535468412e-17 -6.812406424138579e-17 -7.238983535468412e-17 0.44881873972709996 0.8936228168917841
12619129333.333334 0.4576286862462058 0.8891433998655122 -6.882902373874692e-17 -7.169292422583829e-17 -6.882902373874692e-17 -7.169292422583829e-17 0.45762810196411835 0.8891437005864392
12619746666.666666 0.46639335013002453 0.8845774375114499 -6.952686321367354e-17 -7.098915683385157e-17 -6.952686321367354e-17 -7.098915683385157e-17 0.46639276887679726 0.8845777439769013
12620364000.0 0.4751124626113879 0.8799250808285741 -7.021751607431439e-17 -7.027860582896817e-17 -7.021751607431439e-17 -7.027860582896817e-17 0.4751118844434912 0.8799253930080572
12620981333.333334 0.4837851721176872 0.875186784200315 -7.090091646920767e-17 -6.956134450730109e-17 -7.090091646920767e-17 -6.956134450730109e-17 0.48378459709128485 0.8751871020627834
12621598666.666666 0.492410631608471 0.8703630104035768 -7.157699929355505e-17 -6.883744680327449e-17 -7.157699929355505e-17 -6.883744680327449e-17 0.4924100597794137 0.8703633339174299
12622216000.0 0.5009879986580463 0.8654542305636016 -7.224570019539014e-17 -6.810698728203698e-17 -7.224570019539014e-17 -6.810698728203698e-17 0.5009874300818677 0.8654545596966922
12622833333.333334 0.5095164355378073 0.8604609241079328 -7.290695558168283e-17 -6.73700411318e-17 -7.290695558168283e-17 -6.73700411318e-17 0.5095158702697182 0.8604612588275673
12623450666.666666 0.5179951092979553 0.8553835787196461 -7.356070262435488e-17 -6.662668415613058e-17 -7.356070262435488e-17 -6.662668415613058e-17 0.5179945473928375 0.8553839189925884
12624068000.0 0.5264231918489746 0.8502226902896491 -7.42068792662339e-17 -6.58769927661666e-17 -7.42068792662339e-17 -6.58769927661666e-17 0.526422633361376 0.8502230360821236
12624685333.333334 0.5347998600425301 0.8449787628682276 -7.484542422692068e-17 -6.51210439727831e-17 -7.484542422692068e-17 -6.51210439727831e-17 0.5347993050266602 0.8449791141459244
12625302666.666666 0.5431242957516241 0.8396523086159723 -7.54762770085571e-17 -6.43589153787259e-17 -7.54762770085571e-17 -6.43589153787259e-17 0.5431237442613476 0.839652665344048
12625920000.0 0.5513956859508594 0.8342438477535272 -7.609937790155966e-17 -6.359068517063558e-17 -7.609937790155966e-17 -6.359068517063558e-17 0.5513951380396914 0.8342442098966099
12626537333.333334 0.559613222795511 0.8287539085109958 -7.671466799021964e-17 -6.28164321110791e-17 -7.671466799021964e-17 -6.28164321110791e-17 0.5596126785166117 0.8287542760331876
12627154666.666666 0.5677761037005684 0.8231830270762575 -7.732208915825884e-17 -6.203623553048436e-17 -7.732208915825884e-17 -6.203623553048436e-17 0.5677755631067388 0.8231833999411401
12627772000.0 0.5758835314192657 0.8175317475425073 -7.79215840943026e-17 -6.125017531902076e-17 -7.79215840943026e-17 -6.125017531902076e-17 0.5758829945629406 0.8175321257131424
12628389333.333334 0.5839347141206137 0.8118006218553336 -7.851309629723643e-17 -6.045833191847196e-17 -7.851309629723643e-17 -6.045833191847196e-17 0.5839341810538592 0.8118010052942705
12629006666.666666 0.5919288654670914 0.8059902097585757 -7.909657008153008e-17 -5.966078631399232e-17 -7.909657008153008e-17 -5.966078631399232e-17 0.591928336241597 0.8059905984278505
12629624000.0 0.599865204691184 0.8001010787398264 -7.967195058243383e-17 -5.885762002587087e-17 -7.967195058243383e-17 -5.885762002587087e-17 0.5998646793582602 0.8001014726009702
12630241333.333334 0.6077429566717824 0.7941338039749166 -8.023918376112003e-17 -5.804891510120691e-17 -8.023918376112003e-17 -5.804891510120691e-17 0.6077424352823536 0.7941342029889557
12630858666.666666 0.6155613520097463 0.7880889682718336 -8.07982164097193e-17 -5.723475410556632e-17 -8.07982164097193e-17 -5.723475410556632e-17 0.615560834614348 0.7880893723992967
12631476000.0 0.623319627103302 0.7819671620136167 -8.13489961563093e-17 -5.641522011453671e-17 -8.13489961563093e-17 -5.641522011453671e-17 0.6233191137520738 0.7819675712145354
12632093333.333334 0.6310170242223256 0.7757689831009179 -8.189147146975514e-17 -5.559039670532466e-17 -8.189147146975514e-17 -5.559039670532466e-17 0.6310165149650065 0.7757693973348317
12632710666.666666 0.6386527915824836 0.7694950368935011 -8.242559166452691e-17 -5.476036794821975e-17 -8.242559166452691e-17 -5.476036794821975e-17 0.63865228646841 0.7694954561194643
12633328000.0 0.6462261834187711 0.7631459361510345 -8.295130690541132e-17 -5.3925218398036746e-17 -8.295130690541132e-17 -5.3925218398036746e-17 0.6462256824968682 0.7631463603276157
12633945333.333334 0.6537364600581462 0.7567223009733984 -8.346856821211068e-17 -5.3085033085556256e-17 -8.346856821211068e-17 -5.3085033085556256e-17 0.6537359633769256 0.7567227300586878
12634562666.666666 0.6611828879918835 0.750224758740035 -8.39773274637901e-17 -5.223989750886712e-17 -8.39773274637901e-17 -5.223989750886712e-17 0.661182395599438 0.7502251926916472
12635180000.0 0.6685647399471918 0.7436539440486912 -8.447753740352094e-17 -5.138989762469171e-17 -8.447753740352094e-17 -5.138989762469171e-17 0.668564251891191 0.7436543828237703
12635797333.333334 0.6758812949582674 0.7370104986534215 -8.496915164264086e-17 -5.0535119839661816e-17 -8.496915164264086e-17 -5.0535119839661816e-17 0.675880811285952 0.737010942208644
12636414666.666666 0.683131838436623 0.730295071401985 -8.545212466501892e-17 -4.9675651001565497e-17 -8.545212466501892e-17 -4.9675651001565497e-17 0.6831313591948011 0.7302955196935648
12637032000.0 0.690315662241005 0.7235083181723575 -8.592641183124644e-17 -4.8811578390528995e-17 -8.592641183124644e-17 -4.8811578390528995e-17 0.6903151874760481 0.7235087711560508
12637649333.333334 0.6974320647464747 0.7166509018087533 -8.639196938272492e-17 -4.7942989710183714e-17 -8.639196938272492e-17 -4.7942989710183714e-17 0.6974315945043125 0.7166513594398626
12638266666.666666 0.7044803509129525 0.7097234920568665 -8.684875444567225e-17 -4.706997307878233e-17 -8.684875444567225e-17 -4.706997307878233e-17 0.704479885239068 0.7097239542902438
12638884000.0 0.7114598323531026 0.7027267654984589 -8.729672503503756e-17 -4.619261702027952e-17 -8.729672503503756e-17 -4.619261702027952e-17 0.711459371292528 0.7027272322885114
12639501333.333334 0.7183698273995832 0.6956614054852578 -8.773584005832756e-17 -4.531101045537335e-17 -8.773584005832756e-17 -4.531101045537335e-17 0.7183693709968961 0.6956618767859527
12640118666.666666 0.7252096611715065 0.6885281020723405 -8.816605931933454e-17 -4.442524269252854e-17 -8.816605931933454e-17 -4.442524269252854e-17 0.7252092094708262 0.6885285778372092
12640736000.0 0.7319786656406679 0.6813275519504087 -8.858734352180014e-17 -4.3535403418909053e-17 -8.858734352180014e-17 -4.3535403418909053e-17 0.7319782186856494 0.681328032132551
12641353333.333334 0.7386761796963187 0.6740604583782392 -8.899965427294005e-17 -4.264158269137768e-17 -8.899965427294005e-17 -4.264158269137768e-17 0.7386757375301483 0.6740609429303269
12641970666.666666 0.7453015492101455 0.6667275311135633 -8.94029540869318e-17 -4.174387092734863e-17 -8.94029540869318e-17 -4.174387092734863e-17 0.7453011118755392 0.6667280199878475
12642588000.0 0.7518541270999622 0.6593294863439549 -8.979720638827389e-17 -4.084235889568629e-17 -8.979720638827389e-17 -4.084235889568629e-17 0.7518536946391596 0.659329979492269
12643205333.333334 0.758333273392931 0.6518670466168639 -9.018237551506628e-17 -3.993713770754489e-17 -9.018237551506628e-17 -3.993713770754489e-17 0.7583328458476907 0.6518675439906277
12643822666.666666 0.7647383552881195 0.6443409407689787 -9.0558426722202e-17 -3.902829880716976e-17 -9.0558426722202e-17 -3.902829880716976e-17 0.7647379326997171 0.6443414423192053
12644440000.0 0.771068747218305 0.6367519038550442 -9.092532618445655e-17 -3.811593396269242e-17 -9.092532618445655e-17 -3.811593396269242e-17 0.7710683296275277 0.636752409532343
12645057333.333334 0.7773238309109091 0.6291006770762672 -9.128304099949152e-17 -3.72001352568817e-17 -9.128304099949152e-17 -3.72001352568817e-17 0.7773234183580519 0.6291011868308496
12645674666.666666 0.7835029954485659 0.6213880077077085 -9.163153919076387e-17 -3.628099507786955e-17 -9.163153919076387e-17 -3.628099507786955e-17 0.7835025879734273 0.621388521489392
12646292000.0 0.7896056373288189 0.6136146490252498 -9.197078971034912e-17 -3.535860610983198e-17 -9.197078971034912e-17 -3.535860610983198e-17 0.7896052349706983 0.613615166783464
12646909333.333334 0.7956311605228544 0.6057813602322923 -9.230076244165165e-17 -3.443306132369652e-17 -9.230076244165165e-17 -3.443306132369652e-17 0.7956307633205484 0.605781881916084
12647526666.666666 0.8015789765338736 0.5978889063854079 -9.262142820204272e-17 -3.350445396776725e-17 -9.262142820204272e-17 -3.350445396776725e-17 0.8015785845256698 0.5978894319434443
12648144000.0 0.8074485044546152 0.5899380583195454 -9.293275874539862e-17 -3.257287755834142e-17 -9.293275874539862e-17 -3.257287755834142e-17 0.8074481176782917 0.5899385877001214
12648761333.333334 0.8132391710239417 0.5819295925729528 -9.323472676453265e-17 -3.1638425870337536e-17 -9.323472676453265e-17 -3.1638425870337536e-17 0.813238789516761 0.5819301257239944
12649378666.666666 0.8189504106828103 0.5738642913113577 -9.352730589354662e-17 -3.070119292786463e-17 -9.352730589354662e-17 -3.070119292786463e-17 0.8189500344815173 0.5738648281804279
12649996000.0 0.8245816656297456 0.5657429422512535 -9.381047071008649e-17 -2.9761272994770054e-17 -9.381047071008649e-17 -2.9761272994770054e-17 0.824581294770563 0.5657434827855575
12650613333.333334 0.8301323858751141 0.5575663385832395 -9.408419673749833e-17 -2.881876056518597e-17 -9.408419673749833e-17 -2.881876056518597e-17 0.8301320203937406 0.5575668827296301
12651230666.666666 0.8356020292947864 0.5493352788946524 -9.43484604468882e-17 -2.787375035405935e-17 -9.43484604468882e-17 -2.787375035405935e-17 0.8356016692263893 0.5493358265996333
12651848000.0 0.8409900616833775 0.5410505670911168 -9.460323925909834e-17 -2.6926337287626088e-17 -9.460323925909834e-17 -2.6926337287626088e-17 0.8409897070625948 0.5410511183008511
12652465333.333334 0.8462959568061271 0.5327130123184827 -9.484851154657343e-17 -2.5976616493918967e-17 -9.484851154657343e-17 -2.5976616493918967e-17 0.8462956076670602 0.5327135669787957
12653082666.666666 0.8515191964503747 0.5243234288836796 -9.508425663513892e-17 -2.5024683293235147e-17 -9.508425663513892e-17 -2.5024683293235147e-17 0.851518852826586 0.5243239869400648
12653700000.0 0.8566592704763056 0.5158826361749683 -9.531045480569025e-17 -2.407063318856104e-17 -9.531045480569025e-17 -2.407063318856104e-17 0.8566589324008168 0.5158831975725935
12654317333.333334 0.8617156768665675 0.5073914585822521 -9.55270872957702e-17 -2.3114561856047853e-17 -9.55270872957702e-17 -2.3114561856047853e-17 0.861715344371854 0.5073920232659633
12654934666.666666 0.8666879217754474 0.4988507254163176 -9.573413630106701e-17 -2.2156565135408604e-17 -9.573413630106701e-17 -2.2156565135408604e-17 0.8666875948934378 0.4988512933306462
12655552000.0 0.8715755195771065 0.490261270827839 -9.593158497680983e-17 -2.1196739020329705e-17 -9.593158497680983e-17 -2.1196739020329705e-17 0.871575198339177 0.49026184191700567
12656169333.333334 0.8763779929128765 0.4816239337261275 -9.611941743906246e-17 -2.0235179648895454e-17 -9.611941743906246e-17 -2.0235179648895454e-17 0.8763776773498491 0.4816245079340484
12656786666.666666 0.8810948727380274 0.472939557696953 -9.62976187659333e-17 -1.9271983293950297e-17 -9.62976187659333e-17 -1.9271983293950297e-17 0.8810945628801679 0.47294013496724546
12657404000.0 0.8857256983675078 0.4642089909202765 -9.646617499868005e-17 -1.8307246353492223e-17 -9.646617499868005e-17 -1.8307246353492223e-17 0.8857253942445206 0.46420957119626405
12658021333.333334 0.8902700175209624 0.45543308608735983 -9.662507314272176e-17 -1.7341065341038422e-17 -9.662507314272176e-17 -1.7341065341038422e-17 0.8902697191619893 0.45543366931207774
12658638666.666666 0.894727386366843 0.44661270031761197 -9.677430116855213e-17 -1.6373536876002408e-17 -9.677430116855213e-17 -1.6373536876002408e-17 0.8947270938004608 0.44661328643381354
12659256000.0 0.8990973695658853 0.4377486950746245 -9.69138480125631e-17 -1.5404757674023204e-17 -9.69138480125631e-17 -1.5404757674023204e-17 0.8990970828201019 0.4377492840247863
12659873333.333334 0.9033795403135099 0.4288419360822615 -9.704370357776293e-17 -1.443482453734082e-17 -9.704370357776293e-17 -1.443482453734082e-17 0.9033792594157619 0.4288425278085886
12660490666.666666 0.9075734803815102 0.4198932932401079 -9.716385873440381e-17 -1.3463834345142472e-17 -9.716385873440381e-17 -1.3463834345142472e-17 0.9075732053586606 0.4198938876845403
12661108000.0 0.911678780159022 0.4109036405382528 -9.727430532051435e-17 -1.249188404387684e-17 -9.727430532051435e-17 -1.249188404387684e-17 0.9116785110373565 0.41090423764246986
12661725333.333334 0.9156950386923567 0.4018738559722869 -9.737503614232924e-17 -1.1519070637632151e-17 -9.737503614232924e-17 -1.1519070637632151e-17 0.9156947754975842 0.4018744556777152
12662342666.666666 0.9196218637242989 0.39280482145727114 -9.746604497462981e-17 -1.0545491178442897e-17 -9.746604497462981e-17 -1.0545491178442897e-17 0.9196216064815445 0.39280542370508753
12662960000.0 0.9234588717323514 0.38369742274172774 -9.754732656098334e-17 -9.571242756642736e-18 -9.754732656098334e-17 -9.571242756642736e-18 0.9234586204661586 0.38369802747286785
12663577333.333334 0.9272056879662085 0.3745525493211081 -9.761887661388836e-17 -8.59642249118676e-18 -9.761887661388836e-17 -8.59642249118676e-18 0.9272054427005338 0.3745531564762701
12664194666.666666 0.9308619464843563 0.36537109435091736 -9.76806918148222e-17 -7.621127520005378e-18 -9.76806918148222e-17 -7.621127520005378e-18 0.9308617072425682 0.36537170387056855
12664812000.0 0.934427290189811 0.35615395455948157 -9.77327698141932e-17 -6.645454990332132e-18 -9.77327698141932e-17 -6.645454990332132e-18 0.9344270569946872 0.3561545663838643
12665429333.333334 0.9379013708650097 0.3469020301603417 -9.77751092311968e-17 -5.6695020490456206e-18 -9.77751092311968e-17 -5.6695020490456206e-18 0.9379011437387349 0.34690264422947875
12666046666.666666 0.9412838492057651 0.3376162247644633 -9.780770965357411e-17 -4.6933658330290156e-18 -9.780770965357411e-17 -4.6933658330290156e-18 0.9412836281699297 0.3376168410181644
12666664000.0 0.9445743948545186 0.3282974452916919 -9.783057163727646e-17 -3.717143459489898e-18 -9.783057163727646e-17 -3.717143459489898e-18 0.9445741799301152 0.328298063669559
12667281333.333334 0.9477726864324614 0.3189466018825483 -9.784369670603146e-17 -2.7409320163553387e-18 -9.784369670603146e-17 -2.7409320163553387e-18 0.9477724776398854 0.3189472223239822
12667898666.666666 0.95087841157103 0.3095646078090729 -9.784708735081524e-17 -1.7648285526068704e-18 -9.784708735081524e-17 -1.7648285526068704e-18 0.9508782089300742 0.30956523025327837
12668516000.0 0.9538912669424005 0.30015237938562506 -9.78407470292272e-17 -7.889300686509177e-19 -9.78407470292272e-17 -7.889300686509177e-19 0.953891070472256 0.30015300377161747
12669133333.333334 0.9568109582890422 0.29071083587963437 -9.782468016476978e-17 1.8666649327716084e-19 -9.782468016476978e-17 1.8666649327716084e-19 0.956810768008295 0.2907114621462452
12669750666.666666 0.959637200452541 0.28124089942154706 -9.779889214603241e-17 1.161864258752351e-18 -9.779889214603241e-17 1.161864258752351e-18 0.9596370163791716 0.2812415275074304
12670368000.0 0.9623697174014167 0.2717434949148722 -9.77633893257796e-17 2.1365664307498316e-18 -9.77633893257796e-17 2.1365664307498316e-18 0.962369539552797 0.27174412475851006
12670985333.333334 0.9650082422580569 0.26221954994593066 -9.771817901994427e-17 3.110676299226192e-18 -9.771817901994427e-17 3.110676299226192e-18 0.9650080706509501 0.26222018148563986
