! Parameters = {f0=12700.012000; bw=77.238000; Q=6100.000000; N=10; m_0_1=1.252347; m_1_1=0.020465; m_1_2=1.087159; m_2_2=0.019816; m_2_3=0.724122; m_2_8=-0.000319; m_2_9=0.036385; m_3_3=0.017879; m_3_4=0.612651; m_3_7=0.000281; m_3_8=-0.096807; m_3_9=-0.000319; m_4_4=0.014954; m_4_5=0.448986; m_4_6=0.003798; m_4_7=-0.117356; m_4_8=0.000281; m_5_5=0.015336; m_5_6=0.856341; m_5_7=0.003798; m_6_6=0.015335; m_6_7=0.449328; m_7_7=0.014968; m_7_8=0.612769; m_8_8=0.017877; m_8_9=0.724435; m_9_9=0.019811; m_9_10=1.088237; m_10_10=0.020455; m_10_11=1.253142}
!
! Created with skrf (http://scikit-rf.org).
# Hz S RI R 50.0 
!freq ReS11 ImS11 ReS21 ImS21 ReS12 ImS12 ReS22 ImS22
12607400000.0 0.42147524343297094 -0.9068399082379128 -1.4901577922125336e-17 1.0059669899738725e-16 -1.4901577922125336e-17 1.0059669899738725e-16 0.42147584180474573 -0.9068396301302727
12608017333.333334 0.41238493053633946 -0.911009697569882 -1.3883119081992983e-17 1.007222002940524e-16 -1.3883119081992983e-17 1.007222002940524e-16 0.41238553163008856 -0.9110094254737419
12608634666.666666 0.403253370517018 -0.9150883668621809 -1.2863645640001613e-17 1.0083739775787653e-16 -1.2863645640001613e-17 1.0083739775787653e-16 0.40325397427235654 -0.9150881008041675
12609252000.0 0.3940814767222289 -0.9190755081625531 -1.1843261768142332e-17 1.009422836981263e-16 -1.1843261768142332e-17 1.009422836981263e-16 0.394082083078511 -0.9190752481686851
12609869333.333334 0.3848701665333111 -0.922970722673504 -1.082207169026186e-17 1.0103685147651787e-16 -1.082207169026186e-17 1.0103685147651787e-16 0.38487077542963644 -0.9229704687691904
12610486666.666666 0.3756203612741706 -0.9267736207920954 -9.800179671459947e-18 1.0112109550747729e-16 -9.800179671459947e-18 1.0112109550747729e-16 0.37562097264939115 -0.9267733730021347
12611104000.0 0.3663329861189203 -0.930483822149006 -8.777690007412113e-18 1.0119501125830175e-16 -8.777690007412113e-18 1.0119501125830175e-16 0.3663335999116462 -0.9304835804975834
12611721333.333334 0.3570089699995273 -0.9341009556465004 -7.754707013808448e-18 1.0125859524920308e-16 -7.754707013808448e-18 1.0125859524920308e-16 0.35700958614813255 -0.9341007201571827
12612338666.666666 0.34764924551284754 -0.9376246594955662 -6.731335015682327e-18 1.0131184505325366e-16 -6.731335015682327e-18 1.0131184505325366e-16 0.34764986395547703 -0.9376244301913038
12612956000.0 0.33825474882715995 -0.9410545812521728 -5.707678336799824e-18 1.0135475929621947e-16 -5.707678336799824e-18 1.0135475929621947e-16 0.3382553695017349 -0.9410543581552943
12613573333.333334 0.32882641958885045 -0.9443903778524034 -4.683841289079498e-18 1.013873376562869e-16 -4.683841289079498e-18 1.013873376562869e-16 0.3288270424330749 -0.9443901609846141
12614190666.666666 0.31936520082824027 -0.9476317156468366 -3.6599281619367144e-18 1.0140958086368512e-16 -3.6599281619367144e-18 1.0140958086368512e-16 0.3193658257796072 -0.9476315050292167
12614808000.0 0.3098720388652363 -0.9507782704339273 -2.636043211703657e-18 1.0142149070019912e-16 -2.636043211703657e-18 1.0142149070019912e-16 0.3098726658610345 -0.9507780660869306
12615425333.333334 0.3003478832147332 -0.9538297274924168 -1.6122906510395399e-18 1.0142306999857651e-16 -1.6122906510395399e-18 1.0142306999857651e-16 0.30034851219205305 -0.9538295294358677
12616042666.666666 0.29079368649172294 -0.9567857816127818 -5.887746383263457e-19 1.0141432264182837e-16 -5.887746383263457e-19 1.0141432264182837e-16 0.29079431738746275 -0.9567855898658739
12616660000.0 0.28121040431582417 -0.9596461371278268 4.344007328998176e-19 1.0139525356242278e-16 4.344007328998176e-19 1.0139525356242278e-16 0.28121103706669626 -0.9596459517091194
12617277333.333334 0.2715989952158896 -0.9624105079421924 1.4571314445095111e-18 1.0136586874137192e-16 1.4571314445095111e-18 1.0136586874137192e-16 0.2715996297584272 -0.9624103288696113
12617894666.666666 0.2619604205340792 -0.9650786175609926 2.4793135643376087e-18 1.0132617520721393e-16 2.4793135643376087e-18 1.0132617520721393e-16 0.261961056804643 -0.965078444851828
12618512000.0 0.2522956443294878 -0.9676501991175314 3.5008432567481966e-18 1.0127618103488614e-16 3.5008432567481966e-18 1.0127618103488614e-16 0.25229628226427103 -0.9676500327884333
12619129333.333334 0.24260563328218268 -0.9701249953998611 4.5216167931135694e-18 1.0121589534449618e-16 4.5216167931135694e-18 1.0121589534449618e-16 0.24260627281721894 -0.9701248354668414
12619746666.666666 0.2328913565960785 -0.9725027588766347 5.541530562373205e-18 1.0114532829998286e-16 5.541530562373205e-18 1.0114532829998286e-16 0.23289199766724772 -0.9725026053550643
12620364000.0 0.2231537859020774 -0.9747832517218362 6.56048108152195e-18 1.0106449110767357e-16 6.56048108152195e-18 1.0106449110767357e-16 0.22315442844511166 -0.9747831046264417
12620981333.333334 0.2133938951612172 -0.9769662458384889 7.578365006055278e-18 1.0097339601473869e-16 7.578365006055278e-18 1.0097339601473869e-16 0.21339453911170786 -0.9769661051833531
12621598666.666666 0.20361266056678495 -0.9790515228815809 8.595079140476762e-18 1.0087205630753471e-16 8.595079140476762e-18 1.0087205630753471e-16 0.2036133058601889 -0.9790513886801414
12622216000.0 0.19381106044703747 -0.9810388742798235 9.610520448717371e-18 1.0076048630984742e-16 9.610520448717371e-18 1.0076048630984742e-16 0.19381170701868367 -0.9810387465448716
12622833333.333334 0.18399007516709753 -0.9829281012565644 1.0624586064554554e-17 1.0063870138102872e-16 1.0624586064554554e-17 1.0063870138102872e-16 0.18399072295219343 -0.9829279800002431
12623450666.666666 0.17415068703109224 -0.9847190148496309 1.163717330202149e-17 1.0050671791402799e-16 1.163717330202149e-17 1.0050671791402799e-16 0.17415133596473029 -0.9847189000834341
12624068000.0 0.1642938801838465 -0.9864114359302436 1.264817966577671e-17 1.0036455333332078e-16 1.264817966577671e-17 1.0036455333332078e-16 0.16429453020101062 -0.9864113276650149
12624685333.333334 0.15442064051222337 -0.9880051952209676 1.3657502861481601e-17 1.0021222609272884e-16 1.3657502861481601e-17 1.0021222609272884e-16 0.15442129154779557 -0.9880050934669007
12625302666.666666 0.14453195554701992 -0.9895001333125646 1.4665040806093706e-17 1.000497556731453e-16 1.4665040806093706e-17 1.000497556731453e-16 0.14453260753578642 -0.9895000380791986
12625920000.0 0.13462881436357518 -0.9908961006800285 1.567069163820549e-17 9.987716258014514e-17 1.567069163820549e-17 9.987716258014514e-17 0.13462946724023359 -0.9908960119762517
12626537333.333334 0.12471220748332043 -0.9921929576974762 1.6674353728299814e-17 9.969446834150191e-17 1.6674353728299814e-17 9.969446834150191e-17 0.12471286118248559 -0.99219287553152
12627154666.666666 0.11478312677462157 -0.9933905746521201 1.7675925689009004e-17 9.950169550459605e-17 1.7675925689009004e-17 9.950169550459605e-17 0.11478378123083281 -0.9933904990315646
12627772000.0 0.10484256535320537 -0.9944888317572941 1.867530638534507e-17 9.929886763371966e-17 1.867530638534507e-17 9.929886763371966e-17 0.10484322050093249 -0.9944887626890621
12628389333.333334 0.0948915174834476 -0.9954876191643555 1.9672394944869498e-17 9.908600930728613e-17 1.9672394944869498e-17 9.908600930728613e-17 0.0948921732570977 -0.9954875566547143
12629006666.666666 0.08493097847830465 -0.996386836973746 2.066709076788847e-17 9.886314611492535e-17 2.066709076788847e-17 9.886314611492535e-17 0.0849316348122287 -0.9963867810283068
12629624000.0 0.07496194460015675 -0.9971863952449369 2.1659293537543264e-17 9.863030465449257e-17 2.1659293537543264e-17 9.863030465449257e-17 0.07496260142865604 -0.9971863458686533
12630241333.333334 0.06498541296107645 -0.9978862140054382 2.2648903229943854e-17 9.838751252896017e-17 2.2648903229943854e-17 9.838751252896017e-17 0.06498607021840921 -0.9978861712026057
12630858666.666666 0.05500238142309643 -0.9984862232587972 2.3635820124193045e-17 9.813479834322475e-17 2.3635820124193045e-17 9.813479834322475e-17 0.05500303904348454 -0.9984861870330555
12631476000.0 0.04501384849817557 -0.9989863629916139 2.461994481246516e-17 9.787219170079253e-17 2.461994481246516e-17 9.787219170079253e-17 0.04501450641581088 -0.9989863333459419
12632093333.333334 0.03502081324878059 -0.9993865831795137 2.5601178209954323e-17 9.759972320038785e-17 2.5601178209954323e-17 9.759972320038785e-17 0.03502147139783177 -0.9993865601162343
12632710666.666666 0.025024275187590293 -0.9996868437921773 2.657942156483887e-17 9.731742443244874e-17 2.657942156483887e-17 9.731742443244874e-17 0.025024933502209253 -0.9996868273129532
12633328000.0 0.015025234177608223 -0.9998871147973335 2.7554576468229918e-17 9.702532797551608e-17 2.7554576468229918e-17 9.702532797551608e-17 0.015025892591936776 -0.9998871049031706
12633945333.333334 0.005024690332212418 -0.9999873761637661 2.8526544864017745e-17 9.672346739254176e-17 2.8526544864017745e-17 9.672346739254176e-17 0.0050253487803888055 -0.9999873728550098
12634562666.666666 -0.004976356084933808 -0.9999876178633135 2.949522905871697e-17 9.641187722708707e-17 2.949522905871697e-17 9.641187722708707e-17 -0.004975697668768276 -0.9999876211396509
12635180000.0 -0.014976904759815403 -0.9998878398718749 3.0460531731279394e-17 9.609059299942073e-17 3.0460531731279394e-17 9.609059299942073e-17 -0.014976246441509772 -0.9998878497323348
12635797333.333334 -0.024975955428345274 -0.9996880521694107 3.142235594284562e-17 9.575965120252385e-17 3.142235594284562e-17 9.575965120252385e-17 -0.02497529727373237 -0.9996880686123635
12636414666.666666 -0.03497250797607065 -0.9993882747389485 3.238060514644062e-17 9.54190892980031e-17 3.238060514644062e-17 9.54190892980031e-17 -0.034971850050960505 -0.9993882977621069
12637032000.0 -0.044965562538574866 -0.99898853756458 3.333518319667731e-17 9.506894571188952e-17 3.333518319667731e-17 9.506894571188952e-17 -0.04496490490874814 -0.9989885671649981
12637649333.333334 -0.05495411960128578 -0.9984888806284606 3.428599435936372e-17 9.470925983035767e-17 3.428599435936372e-17 9.470925983035767e-17 -0.05495346233248713 -0.9984889168025354
12638266666.666666 -0.06493718009939146 -0.9978893539068192 3.5232943321078325e-17 9.434007199534487e-17 3.5232943321078325e-17 9.434007199534487e-17 -0.06493652325732299 -0.9978893966502899
12638884000.0 -0.07491374551793771 -0.9971900173649465 3.617593519872035e-17 9.396142350006704e-17 3.617593519872035e-17 9.396142350006704e-17 -0.07491308916825264 -0.9971900666728981
12639501333.333334 -0.08488281799164395 -0.996390940951204 3.711487554899089e-17 9.357335658444691e-17 3.711487554899089e-17 9.357335658444691e-17 -0.08488216219993962 -0.996390996818063
12640118666.666666 -0.09484340040445553 -0.9954922045900461 3.8049670377807324e-17 9.317591443045585e-17 3.8049670377807324e-17 9.317591443045585e-17 -0.09484274523626701 -0.9954922670095827
12640736000.0 -0.10479449648992717 -0.9944938981739665 3.8980226149752804e-17 9.27691411573267e-17 3.8980226149752804e-17 9.27691411573267e-17 -0.104793842010721 -0.9944939671392992
12641353333.333334 -0.11473511092996547 -0.9933961215545982 3.9906449797330475e-17 9.235308181673399e-17 3.9906449797330475e-17 9.235308181673399e-17 -0.11473445720513276 -0.9933961970581896
12641970666.666666 -0.12466424945517304 -0.9921989845326428 4.082824873032419e-17 9.192778238781376e-17 4.082824873032419e-17 9.192778238781376e-17 -0.1246635965500231 -0.9921990665663029
12642588000.0 -0.1345809189439288 -0.9909026068469275 4.1745530844999475e-17 9.14932897721376e-17 4.1745530844999475e-17 9.14932897721376e-17 -0.13458026692368258 -0.990902695401814
12643205333.333334 -0.14448412752166498 -0.9895071181624379 4.26582045332802e-17 9.10496517885822e-17 4.26582045332802e-17 9.10496517885822e-17 -0.14448347645144846 -0.9895072132290564
12643822666.666666 -0.15437288466038457 -0.9880126580573048 4.35661786919025e-17 9.059691716809345e-17 4.35661786919025e-17 9.059691716809345e-17 -0.15437223460522256 -0.988012759625512
12644440000.0 -0.16424620127736964 -0.9864193760088978 4.4469362731466947e-17 9.013513554838109e-17 4.4469362731466947e-17 9.013513554838109e-17 -0.16424555230217885 -0.9864194840679
12645057333.333334 -0.17410308983433484 -0.9847274313788403 4.536766658545074e-17 8.966435746851663e-17 4.536766658545074e-17 8.966435746851663e-17 -0.1741024420039177 -0.9847275459171952
12645674666.666666 -0.1839425644361178 -0.9829369933970817 4.6261000719183506e-17 8.918463436343097e-17 4.6261000719183506e-17 8.918463436343097e-17 -0.1839419178151562 -0.9829371144027026
12646292000.0 -0.19376364092940165 -0.9810482411449561 4.7149276138760166e-17 8.869601855832559e-17 4.7149276138760166e-17 8.869601855832559e-17 -0.1937629955824499 -0.9810483686051086
12646909333.333334 -0.20356533700098237 -0.9790613635372944 4.8032404399844785e-17 8.819856326302164e-17 4.8032404399844785e-17 8.819856326302164e-17 -0.20356469299246108 -0.9790614974386002
12647526666.666666 -0.21334667227607743 -0.9769765593035248 4.891029761649611e-17 8.769232256617905e-17 4.891029761649611e-17 8.769232256617905e-17 -0.21334602967026717 -0.9769766996319629
12648144000.0 -0.2231066684165504 -0.9747940369677572 4.9782868469881865e-17 8.717735142945457e-17 4.9782868469881865e-17 8.717735142945457e-17 -0.2231060272775852 -0.9747941837086652
12648761333.333334 -0.23284434921857 -0.9725140148279666 5.0650030216925096e-17 8.665370568157813e-17 5.0650030216925096e-17 8.665370568157813e-17 -0.23284370961043085 -0.9725141679660421
12649378666.666666 -0.24255874071016892 -0.9701367209341822 5.151169669892106e-17 8.612144201232566e-17 5.151169669892106e-17 8.612144201232566e-17 -0.24255810269667732 -0.9701368804534842
12649996000.0 -0.2522488712489654 -0.9676623930656049 5.2367782350080584e-17 8.55806179664109e-17 5.2367782350080584e-17 8.55806179664109e-17 -0.25224823489377746 -0.9676625589495563
12650613333.333334 -0.2619137716191814 -0.9650912787068608 5.321820220599069e-17 8.503129193730512e-17 5.321820220599069e-17 8.503129193730512e-17 -0.26191313698578117 -0.9650914509382502
12651230666.666666 -0.2715524751283935 -0.9624236350233051 5.4062871912030565e-17 8.447352316096173e-17 5.4062871912030565e-17 8.447352316096173e-17 -0.27155184228008616 -0.9624238135842861
12651848000.0 -0.2811640177046872 -0.9596597288351675 5.4901707731733323e-17 8.390737170944822e-17 5.4901707731733323e-17 8.390737170944822e-17 -0.2811633867045937 -0.9596599137072637
12652465333.333334 -0.29074743799261954 -0.9567998365909965 5.573462655503669e-17 8.333289848452627e-17 5.573462655503669e-17 8.333289848452627e-17 -0.29074680890366933 -0.9568000277551012
12653082666.666666 -0.3003017774495663 -0.9538442443399555 5.656154590651223e-17 8.27501652111201e-17 5.656154590651223e-17 8.27501652111201e-17 -0.30030115033449234 -0.9538444417763363
12653700000.0 -0.30982608044178644 -0.950793247703153 5.738238395351418e-17 8.215923443071078e-17 5.738238395351418e-17 8.215923443071078e-17 -0.30982545536311734 -0.9507934513914503
12654317333.333334 -0.3193193943395438 -0.9476471518442167 5.819705951423953e-17 8.156016949466557e-17 5.819705951423953e-17 8.156016949466557e-17 -0.3193187713595992 -0.9476473617634492
12654934666.666666 -0.32878076961282476 -0.9444062714386372 5.90054920657504e-17 8.095303455746357e-17 5.90054920657504e-17 8.095303455746357e-17 -0.32878014879370726 -0.9444064875672008
12655552000.0 -0.33820925992622636 -0.9410709306423101 5.980760175190365e-17 8.033789456985935e-17 5.980760175190365e-17 8.033789456985935e-17 -0.3382086413298176 -0.9410711529579835
12656169333.333334 -0.3476039222332911 -0.9376414630592347 6.060330939120988e-17 7.971481527196871e-17 6.060330939120988e-17 7.971481527196871e-17 -0.3476033059212436 -0.9376416915391788
12656786666.666666 -0.35696381687128476 -0.93411821170798 6.139253648464273e-17 7.9083863186259e-17 6.139253648464273e-17 7.9083863186259e-17 -0.3569632029050166 -0.9341184463287414
12657404000.0 -0.36628800765483494 -0.9305015289875033 6.217520522334238e-17 7.844510561048876e-17 6.217520522334238e-17 7.844510561048876e-17 -0.36628739609552424 -0.9305017697250181
12658021333.333334 -0.3755755619698367 -0.9267917766418038 6.29512384962815e-17 7.779861061054355e-17 6.29512384962815e-17 7.779861061054355e-17 -0.375574952878414 -0.926792023471397
12658638666.666666 -0.38482555086638776 -0.9229893257238733 6.372055989782178e-17 7.714444701322454e-17 6.372055989782178e-17 7.714444701322454e-17 -0.3848249443035317 -0.9229895786202647
12659256000.0 -0.3940370491521529 -0.9190945565584062 6.448309373522838e-17 7.648268439893526e-17 6.448309373522838e-17 7.648268439893526e-17 -0.3940364451782825 -0.9190948154957096
12659873333.333334 -0.4032091354845842 -0.915107858703882 6.523876503608982e-17 7.58133930943114e-17 6.523876503608982e-17 7.58133930943114e-17 -0.40320853415985397 -0.91510812365561
12660490666.666666 -0.4123408924629995 -0.9110296309136423 6.598749955564853e-17 7.513664416478863e-17 6.598749955564853e-17 7.513664416478863e-17 -0.4123402938472934 -0.9110299018527097
12661108000.0 -0.42143140672075724 -0.9068602810958228 6.672922378410786e-17 7.445250940705115e-17 6.672922378410786e-17 7.445250940705115e-17 -0.42143081087368217 -0.9068605579945467
12661725333.333334 -0.4304797690161698 -0.9026002262727482 6.746386495378951e-17 7.376106134147299e-17 6.746386495378951e-17 7.376106134147299e-17 -0.43047917599705 -0.9026005091028534
12662342666.666666 -0.43948507432365597 -0.8982498925391311 6.819135104626529e-17 7.306237320444143e-17 6.819135104626529e-17 7.306237320444143e-17 -0.43948448419152764 -0.8982501812717527
12662960000.0 -0.4484464219243125 -0.8938097150194285 6.891161079939516e-17 7.235651894062356e-17 6.891161079939516e-17 7.235651894062356e-17 -0.4484458347379163 -0.8938100096251121
12663577333.333334 -0.457362915495825 -0.8892801378244033 6.962457371427928e-17 7.164357319516965e-17 6.962457371427928e-17 7.164357319516965e-17 -0.4573623313136021 -0.8892804382731112
12664194666.666666 -0.4662336632022984 -0.8846616140066188 7.033017006212793e-17 7.092361130585054e-17 7.033017006212793e-17 7.092361130585054e-17 -0.46623308208238334 -0.8846619202677317
12664812000.0 -0.47505777778338254 -0.8799546055151619 7.102833089106864e-17 7.019670929510984e-17 7.102833089106864e-17 7.019670929510984e-17 -0.4750571997835983 -0.8799549175574826
12665429333.333334 -0.4838343766429662 -0.875159583149464 7.171898803285514e-17 6.946294386206499e-17 7.171898803285514e-17 6.946294386206499e-17 -0.4838338018208175 -0.8751599009412186
12666046666.666666 -0.49256258193748076 -0.8702770265121981 7.240207410948252e-17 6.872239237445541e-17 7.240207410948252e-17 6.872239237445541e-17 -0.4925620103501495 -0.8702773500210427
12666664000.0 -0.5012415206639023 -0.8653074239612001 7.307752253976854e-17 6.797513286047449e-17 7.307752253976854e-17 6.797513286047449e-17 -0.5012409523682414 -0.8653077531542216
12667281333.333334 -0.5098703247466484 -0.860251272560859 7.374526754578486e-17 6.722124400060753e-17 7.374526754578486e-17 6.722124400060753e-17 -0.5098697597991751 -0.8602516074045781
12667898666.666666 -0.5184481311248236 -0.8551090780321583 7.440524415925045e-17 6.646080511935674e-17 7.440524415925045e-17 6.646080511935674e-17 -0.5184475695817159 -0.8551094184925349
12668516000.0 -0.5269740818383462 -0.8498813547022096 7.505738822783805e-17 6.569389617690564e-17 7.505738822783805e-17 6.569389617690564e-17 -0.5269735237554353 -0.8498817007446444
12669133333.333334 -0.5354473241137141 -0.8445686254528368 7.570163642136171e-17 6.492059776076104e-17 7.570163642136171e-17 6.492059776076104e-17 -0.5354467695464802 -0.8445689770421763
12669750666.666666 -0.5438670104494705 -0.8391714216681757 7.63379262379129e-17 6.414099107729272e-17 7.63379262379129e-17 6.414099107729272e-17 -0.5438664594530362 -0.8391717787687142
12670368000.0 -0.5522322987008008 -0.833690283181626 7.696619600990365e-17 6.335515794322319e-17 7.696619600990365e-17 6.335515794322319e-17 -0.5522317513299277 -0.8336906457571118
