! Parameters = {f0=12700.012000; bw=77.238000; Q=6100.000000; N=10; m_0_1=1.300996; m_1_1=0.750194; m_1_2=1.135808; m_2_2=0.749545; m_2_3=0.772771; m_2_8=0.002113; m_2_9=0.038817; m_3_3=0.747608; m_3_4=0.661300; m_3_7=0.002713; m_3_8=-0.094375; m_3_9=0.002113; m_4_4=0.744683; m_4_5=0.497635; m_4_6=0.006230; m_4_7=-0.114924; m_4_8=0.002713; m_5_5=0.745065; m_5_6=0.904990; m_5_7=0.006230; m_6_6=0.745064; m_6_7=0.497977; m_7_7=0.744697; m_7_8=0.661418; m_8_8=0.747606; m_8_9=0.773084; m_9_9=0.749540; m_9_10=1.136886; m_10_10=0.750184; m_10_11=1.301791}
!
! Created with skrf (http://scikit-rf.org).
# Hz S RI R 50.0 
!freq ReS11 ImS11 ReS21 ImS21 ReS12 ImS12 ReS22 ImS22
12607400000.0 0.6295980767446648 0.7769210138484045 -1.0529088256483494e-16 -7.230442506706267e-17 -1.0529088256483494e-16 -7.230442506706267e-17 0.6295975442551397 0.7769214453647881
12608017333.333334 0.6384440992041753 0.7696681961671433 -1.0609661094907245e-16 -7.107193905396458e-17 -1.0609661094907245e-16 -7.107193905396458e-17 0.6384435717114404 0.7696686337250292
12608634666.666666 0.647206577754069 0.7623146631881629 -1.0688792410692954e-16 -6.983049054908123e-17 -1.0688792410692954e-16 -6.983049054908123e-17 0.647206055326657 0.7623151067297059
12609252000.0 0.6558843657760677 0.7548613771616218 -1.0766472253685852e-16 -6.858024802068317e-17 -1.0766472253685852e-16 -6.858024802068317e-17 0.6558838484818423 0.7548618266281997
12609869333.333334 0.6644763277342012 0.7473093133908373 -1.0842690870466337e-16 -6.732138103940344e-17 -1.0842690870466337e-16 -6.732138103940344e-17 0.6644758156403473 0.7473097687230573
12610486666.666666 0.6729813393231608 0.7396594601048639 -1.0917438705566388e-16 -6.605406025531412e-17 -1.0917438705566388e-16 -6.605406025531412e-17 0.6729808324961764 0.7396599212425721
12611104000.0 0.681398287615741 0.7319128183288978 -1.0990706402664243e-16 -6.477845737478854e-17 -1.0990706402664243e-16 -6.477845737478854e-17 0.681397786121428 0.7319132852111863
12611721333.333334 0.6897260712081339 0.7240704017535912 -1.1062484805746331e-16 -6.349474513732862e-17 -1.1062484805746331e-16 -6.349474513732862e-17 0.6897255751115904 0.7240708743188065
12612338666.666666 0.6979636003643485 0.7161332366021367 -1.1132764960247673e-16 -6.220309729217021e-17 -1.1132764960247673e-16 -6.220309729217021e-17 0.6979631097299593 0.7161337147878872
12612956000.0 0.7061097971586794 0.7081023614960937 -1.1201538114161388e-16 -6.090368857482587e-17 -1.1201538114161388e-16 -6.090368857482587e-17 0.7061093120501098 0.7081028452392599
12613573333.333334 0.7141635956166421 0.6999788273196016 -1.1268795719120975e-16 -5.959669468350675e-17 -1.1268795719120975e-16 -5.959669468350675e-17 0.7141631160968271 0.6999793165563423
12614190666.666666 0.7221239418547234 0.6917636970816057 -1.1334529431458427e-16 -5.828229225536499e-17 -1.1334529431458427e-16 -5.828229225536499e-17 0.7221234679858609 0.6917641917473671
12614808000.0 0.7299897942180644 0.6834580457769759 -1.13987311132305e-16 -5.696065884269703e-17 -1.13987311132305e-16 -5.696065884269703e-17 0.7299893260616072 0.6834585458065003
12615425333.333334 0.7377601234168703 0.6750629602457391 -1.1461392833219965e-16 -5.563197288898726e-17 -1.1461392833219965e-16 -5.563197288898726e-17 0.7377596610335161 0.6750634655730726
12616042666.666666 0.7454339126610551 0.6665795390308987 -1.1522506867908678e-16 -5.429641370484515e-17 -1.1522506867908678e-16 -5.429641370484515e-17 0.7454334561107423 0.6665800495894018
12616660000.0 0.7530101577933761 0.6580088922346038 -1.1582065702421361e-16 -5.295416144386651e-17 -1.1582065702421361e-16 -5.295416144386651e-17 0.7530097071352725 0.6580094079569582
12617277333.333334 0.7604878674207314 0.6493521413729867 -1.164006203144275e-16 -5.160539707835896e-17 -1.164006203144275e-16 -5.160539707835896e-17 0.7604874227132291 0.6493526621912055
12617894666.666666 0.7678660630438596 0.6406104192294554 -1.1696488760105872e-16 -5.0250302374988816e-17 -1.1696488760105872e-16 -5.0250302374988816e-17 0.7678656243445661 0.6406109450748914
12618512000.0 0.7751437791856359 0.6317848697061568 -1.1751339004852643e-16 -4.888905987030733e-17 -1.1751339004852643e-16 -4.888905987030733e-17 0.7751433465513661 0.6317854005095116
12619129333.333334 0.7823200635170438 0.6228766476747254 -1.180460609426423e-16 -4.752185284623912e-17 -1.180460609426423e-16 -4.752185284623912e-17 0.7823196370038146 0.6228771833660589
12619746666.666666 0.7893939769820323 0.6138869188248809 -1.1856283569865947e-16 -4.61488653053999e-17 -1.1856283569865947e-16 -4.61488653053999e-17 0.7893935566450538 0.6138874593336207
12620364000.0 0.7963645939204442 0.6048168595118205 -1.1906365186901046e-16 -4.47702819463921e-17 -1.1906365186901046e-16 -4.47702819463921e-17 0.7963641798141129 0.6048174047667697
12620981333.333334 0.803231002188882 0.5956676566026218 -1.1954844915075926e-16 -4.3386288139018204e-17 -1.1954844915075926e-16 -4.3386288139018204e-17 0.8032305943667739 0.5956682065319704
12621598666.666666 0.8099923032803126 0.5864405073206231 -1.2001716939278898e-16 -4.199706989934985e-17 -1.2001716939278898e-16 -4.199706989934985e-17 0.8099919017951759 0.586441061851956
12622216000.0 0.816647612441518 0.5771366190889157 -1.204697566026707e-16 -4.060281386480237e-17 -1.204697566026707e-16 -4.060281386480237e-17 0.8166472173452671 0.5771371781492227
12622833333.333334 0.8231960587889732 0.5677572093722086 -1.209061569532645e-16 -3.920370726907886e-17 -1.209061569532645e-16 -3.920370726907886e-17 0.8231956701326809 0.5677577728878943
12623450666.666666 0.8296367854226386 0.5583035055177484 -1.213263187890161e-16 -3.779993791708596e-17 -1.213263187890161e-16 -3.779993791708596e-17 0.829636403256531 0.5583040734146418
12624068000.0 0.8359689495382419 0.5487767445945066 -1.2173019263197897e-16 -3.639169415973174e-17 -1.2173019263197897e-16 -3.639169415973174e-17 0.8359685739116901 0.5487773167978706
12624685333.333334 0.8421917225375399 0.5391781732313221 -1.22117731187529e-16 -3.497916486870917e-17 -1.22117731187529e-16 -3.497916486870917e-17 0.8421913534990557 0.5391787496658634
12625302666.666666 0.8483042901366584 0.5295090474539182 -1.224888893497873e-16 -3.3562539411227693e-17 -1.224888893497873e-16 -3.3562539411227693e-17 0.8483039277338846 0.5295096280437964
12625920000.0 0.8543058524727755 0.5197706325203255 -1.2284362420677246e-16 -3.214200762460158e-17 -1.2284362420677246e-16 -3.214200762460158e-17 0.8543054967524845 0.5197712171891654
12626537333.333334 0.8601956242086445 0.509964202755561 -1.2318189504522465e-16 -3.071775979091824e-17 -1.2318189504522465e-16 -3.071775979091824e-17 0.8601952752167282 0.5099647914264602
12627154666.666666 0.8659728346354194 0.5000910413847789 -1.2350366335516236e-16 -2.928998661155642e-17 -1.2350366335516236e-16 -2.928998661155642e-17 0.865972492416884 0.5000916339803186
12627772000.0 0.871636727773645 0.4901524403651058 -1.2380889283414364e-16 -2.785887918165813e-17 -1.2380889283414364e-16 -2.785887918165813e-17 0.8716363923726088 0.49015303680736216
12628389333.333334 0.8771865624719005 0.48014970021707476 -1.2409754939120895e-16 -2.642462896466039e-17 -1.2409754939120895e-16 -2.642462896466039e-17 0.8771862339315831 0.4801503004276277
12629006666.666666 0.8826216125040348 0.4700841298540001 -1.243696011505592e-16 -2.498742776665425e-17 -1.243696011505592e-16 -2.498742776665425e-17 0.882621290866756 0.4700847337539448
12629624000.0 0.887941166664086 0.45995704641089735 -1.2462501845491817e-16 -2.3547467710800066e-17 -1.2462501845491817e-16 -2.3547467710800066e-17 0.8879408519712559 0.4599576539208529
12630241333.333334 0.8931445288593455 0.44976977507212806 -1.2486377386860396e-16 -2.2104941211682144e-17 -1.2486377386860396e-16 -2.2104941211682144e-17 0.8931442211514627 0.4497703861122494
12630858666.666666 0.8982310182014095 0.43952364889806944 -1.2508584218030474e-16 -2.066004094964582e-17 -1.2508584218030474e-16 -2.066004094964582e-17 0.8982307175180553 0.439524263388058
12631476000.0 0.9031999690954561 0.4292200086503214 -1.2529120040556465e-16 -1.9212959845048347e-17 -1.2529120040556465e-16 -1.9212959845048347e-17 0.9031996754752872 0.42922062650943404
12632093333.333334 0.9080507313270981 0.4188602026167417 -1.2547982778895692e-16 -1.7763891032605687e-17 -1.2547982778895692e-16 -1.7763891032605687e-17 0.9080504448078442 0.4188608237638028
12632710666.666666 0.9127826701475982 0.40844558643476286 -1.2565170580597511e-16 -1.6313027835617597e-17 -1.2565170580597511e-16 -1.6313027835617597e-17 0.912782390766056 0.4084462107881747
12633328000.0 0.9173951663569606 0.3979775229139208 -1.2580681816462283e-16 -1.4860563740202458e-17 -1.2580681816462283e-16 -1.4860563740202458e-17 0.9173948941489903 0.3979781503916743
12633945333.333334 0.9218876163848984 0.3874573818576522 -1.259451508067031e-16 -1.3406692369549289e-17 -1.259451508067031e-16 -1.3406692369549289e-17 0.9218873513854168 0.387458012377337
12634562666.666666 0.9262594323698005 0.37688653988407445 -1.260666919088125e-16 -1.195160745814729e-17 -1.260666919088125e-16 -1.195160745814729e-17 0.9262591746127786 0.3768871733628905
12635180000.0 0.9305100422356954 0.36626638024577035 -1.2617143188303918e-16 -1.0495502825999934e-17 -1.2617143188303918e-16 -1.0495502825999934e-17 0.9305097917541522 0.36626701660053823
12635797333.333334 0.9346388897671056 0.3555982926487809 -1.262593633773642e-16 -9.038572352830597e-18 -1.262593633773642e-16 -9.038572352830597e-18 0.9346386465931056 0.35559893179595325
12636414666.666666 0.9386454346817811 0.34488367307088735 -1.2633048127576137e-16 -7.581009952340538e-18 -1.2633048127576137e-16 -7.581009952340538e-18 0.9386451988464294 0.3448843149265594
12637032000.0 0.9425291527015004 0.33412392357867415 -1.2638478269800569e-16 -6.123009546404279e-18 -1.2638478269800569e-16 -6.123009546404279e-18 0.9425289242349393 0.33412456805859525
12637649333.333334 0.9462895356205752 0.3233204521443273 -1.2642226699918172e-16 -4.664765039309841e-18 -1.2642226699918172e-16 -4.664765039309841e-18 0.9462893145519794 0.3233210991639116
12638266666.666666 0.9499260913723909 0.31247467246128696 -1.264429357688955e-16 -3.206470292025775e-18 -1.264429357688955e-16 -3.206470292025775e-18 0.9499258777299644 0.3124753219356243
12638884000.0 0.9534383440938229 0.30158800375917616 -1.264467928301903e-16 -1.7483190964552352e-18 -1.264467928301903e-16 -1.7483190964552352e-18 0.9534381379047954 0.30158865560304376
12639501333.333334 0.9568258341874614 0.2906618706182226 -1.2643384423816674e-16 -2.9050514970572404e-19 -1.2643384423816674e-16 -2.9050514970572404e-19 0.9568256354780843 0.2906625247460958
12640118666.666666 0.9600881183817292 0.27969770278292616 -1.2640409827830656e-16 1.166777971561062e-18 -1.2640409827830656e-16 1.166777971561062e-18 0.9600879271772736 0.27969835910898994
12640736000.0 0.9632247697890409 0.26869693497445185 -1.2635756546449907e-16 2.6233368368683174e-18 -1.2635756546449907e-16 2.6233368368683174e-18 0.963224586113792 0.2686975934126117
12641353333.333334 0.9662353779614201 0.2576610067037058 -1.2629425853677713e-16 4.078978187468522e-18 -1.2629425853677713e-16 4.078978187468522e-18 0.9662352018386765 0.2576616671675995
12641970666.666666 0.9691195489444112 0.2465913620822862 -1.2621419245875226e-16 5.533508962038197e-18 -1.2621419245875226e-16 5.533508962038197e-18 0.969119380396481 0.24659202448529477
12642588000.0 0.971876905328534 0.2354894496338405 -1.2611738441475987e-16 6.98673632218918e-18 -1.2611738441475987e-16 6.98673632218918e-18 0.9718767443767313 0.23549011388909977
12643205333.333334 0.9745070862987062 0.2243567221043813 -1.260038538067098e-16 8.438467678012176e-18 -1.260038538067098e-16 8.438467678012176e-18 0.9745069329633504 0.22435738812479328
12643822666.666666 0.9770097476814458 0.21319463627224133 -1.2587362225064033e-16 9.888510713587974e-18 -1.2587362225064033e-16 9.888510713587974e-18 0.9770096019818574 0.21319530397048558
12644440000.0 0.9793845619899006 0.202004652757474 -1.257267135729849e-16 1.133667341238786e-17 -1.257267135729849e-16 1.133667341238786e-17 0.979384423944398 0.20200532204601887
12645057333.333334 0.9816312184666934 0.19078823583075052 -1.2556315380654334e-16 1.2782764082681732e-17 -1.2556315380654334e-16 1.2782764082681732e-17 0.9816310880925937 0.1907889066218652
12645674666.666666 0.98374942312462 0.17954685322164282 -1.253829711861627e-16 1.4226591382868024e-17 -1.253829711861627e-16 1.4226591382868024e-17 0.9837493004382317 0.17954752542740793
12646292000.0 0.9857388987851089 0.1682819759265322 -1.251861961441215e-16 1.5667964346793527e-17 -1.251861961441215e-16 1.5667964346793527e-17 0.9857387838017357 0.16828264945885216
12646909333.333334 0.9875993851144552 0.15699507801637475 -1.2497286130523825e-16 1.7106692408906724e-17 -1.2497286130523825e-16 1.7106692408906724e-17 0.9875992778483907 0.15699575278698902
12647526666.666666 0.9893306386579249 0.14568763644358695 -1.2474300148167534e-16 1.854258542946196e-17 -1.2474300148167534e-16 1.854258542946196e-17 0.9893305391224523 0.14568831236408175
12648144000.0 0.9909324328716237 0.13436113084869414 -1.2449665366745945e-16 1.9975453719617952e-17 -1.2449665366745945e-16 1.9975453719617952e-17 0.9909323410790122 0.13436180783051346
12648761333.333334 0.9924045581520969 0.12301704336699155 -1.2423385703272112e-16 2.1405108066424223e-17 -1.2423385703272112e-16 2.1405108066424223e-17 0.9924044741136017 0.12301772132144939
12649378666.666666 0.9937468218637733 0.11165685843451545 -1.2395465291764041e-16 2.2831359757780624e-17 -1.2395465291764041e-16 2.2831359757780624e-17 0.9937467455896335 0.11165753727280714
12649996000.0 0.9949590483642003 0.10028206259357078 -1.2365908482610324e-16 2.4254020607338125e-17 -1.2365908482610324e-16 2.4254020607338125e-17 0.9949589798636388 0.10028274222678467
12650613333.333334 0.9960410790269951 0.08889414429846258 -1.2334719841908329e-16 2.567290297926009e-17 -1.2334719841908329e-16 2.567290297926009e-17 0.9960410183082158 0.08889482463759169
12651230666.666666 0.9969927722626032 0.07749459372075239 -1.2301904150773649e-16 2.7087819812929267e-17 -1.2301904150773649e-16 2.7087819812929267e-17 0.9969927193327933 0.07749527467670618
12651848000.0 0.9978140035368604 0.06608490255389327 -1.2267466404619982e-16 2.849858464761732e-17 -1.2267466404619982e-16 2.849858464761732e-17 0.9978139584021852 0.06608558403750904
12652465333.333334 0.998504665387247 0.054666563818457733 -1.22314118124131e-16 2.990501164696734e-17 -1.22314118124131e-16 2.990501164696734e-17 0.998504628052851 0.05466724574051246
12653082666.666666 0.9990646674369661 0.043241071666655216 -1.2193745795895415e-16 3.1306915623446984e-17 -1.2193745795895415e-16 3.1306915623446984e-17 0.9990646379069738 0.043241753937877256
12653700000.0 0.999493936406779 0.03180992118658676 -1.215447398878148e-16 3.2704112062740026e-17 -1.215447398878148e-16 3.2704112062740026e-17 0.9994939146842934 0.03181060371766749
12654317333.333334 0.9997924161245834 0.020374608206888536 -1.21136022359288e-16 3.40964171479251e-17 -1.21136022359288e-16 3.40964171479251e-17 0.9997924022116845 0.020375290908494024
12654934666.666666 0.9999600675327639 0.008936629100880743 -1.20711365924778e-16 3.5483647783666365e-17 -1.20711365924778e-16 3.5483647783666365e-17 0.9999600614305104 0.008937311883663467
12655552000.0 0.999996868693308 -0.002502519409354556 -1.2027083322965054e-16 3.686562162026393e-17 -1.2027083322965054e-16 3.686562162026393e-17 0.9999968704017376 -0.002501836634744014
12656169333.333334 0.999902814790675 -0.013941340448515164 -1.1981448900410994e-16 3.8242157077534756e-17 -1.1981448900410994e-16 3.8242157077534756e-17 0.9999028243088007 -0.01394065777141644
12656786666.666666 0.9996779181324218 -0.025378337184350935 -1.193424000537737e-16 3.96130733686775e-17 -1.193424000537737e-16 3.96130733686775e-17 0.9996779354582374 -0.025377654694082204
12657404000.0 0.9993222081476 -0.0368120130232199 -1.1885463524999037e-16 4.097819052397157e-17 -1.1885463524999037e-16 4.097819052397157e-17 0.9993222332780762 -0.03681133080906616
12658021333.333334 0.9988357313828949 -0.04824087180609604 -1.1835126551988895e-16 4.233732941435134e-17 -1.1835126551988895e-16 4.233732941435134e-17 0.9988357643139837 -0.048240189957297515
12658638666.666666 0.9982185514965537 -0.05966341800415156 -1.1783236383615875e-16 4.369031177486707e-17 -1.1783236383615875e-16 4.369031177486707e-17 0.9982185922231837 -0.059662736609891825
12659256000.0 0.997470749250024 -0.07107815691485184 -1.1729800520654135e-16 4.503696022807154e-17 -1.1729800520654135e-16 4.503696022807154e-17 0.9974707977661065 -0.07107747606424644
12659873333.333334 0.9965924224974132 -0.08248359485712 -1.1674826666309124e-16 4.637709830718603e-17 -1.1674826666309124e-16 4.637709830718603e-17 0.9965924787958406 -0.08248291463920462
12660490666.666666 0.9955836861726846 -0.09387823936687875 -1.16183227251151e-16 4.771055047919702e-17 -1.16183227251151e-16 4.771055047919702e-17 0.9955837502453314 -0.0938775598705976
12661108000.0 0.9944446722745834 -0.10526059939271543 -1.1560296801804755e-16 4.9037142167852224e-17 -1.1560296801804755e-16 4.9037142167852224e-17 0.9944447441123067 -0.10525992070690948
12661725333.333334 0.99317552984941 -0.11662918549042765 -1.1500757200157272e-16 5.0356699776411825e-17 -1.1500757200157272e-16 5.0356699776411825e-17 0.9931756094420541 -0.11662850770382348
12662342666.666666 0.9917764249714889 -0.12798251001832234 -1.1439712421815586e-16 5.166905071037618e-17 -1.1439712421815586e-16 5.166905071037618e-17 0.9917765123078824 -0.12798183321951995
12662960000.0 0.9902475407214318 -0.13931908733182408 -1.137717116508084e-16 5.297402339999899e-17 -1.137717116508084e-16 5.297402339999899e-17 0.9902476357893927 -0.13931841160928574
12663577333.333334 0.9885890771622045 -0.15063743397773946 -1.1313142323679563e-16 5.4271447322695225e-17 -1.1313142323679563e-16 5.4271447322695225e-17 0.9885891799485386 -0.15063675941977786
12664194666.666666 0.9868012513129271 -0.16193606888848724 -1.1247634985506867e-16 5.556115302526484e-17 -1.1247634985506867e-16 5.556115302526484e-17 0.9868013618034335 -0.16193539558325432
12664812000.0 0.9848842971204921 -0.17321351357584888 -1.118065843134313e-16 5.684297214599571e-17 -1.118065843134313e-16 5.684297214599571e-17 0.9848844152999612 -0.1732128416113237
12665429333.333334 0.9828384654289183 -0.1844682923245756 -1.1112222133545278e-16 5.811673743661536e-17 -1.1112222133545278e-16 5.811673743661536e-17 0.982838591281138 -0.1844676217885536
12666046666.666666 0.9806640239465881 -0.19569893238518704 -1.1042335754715644e-16 5.938228278403924e-17 -1.1042335754715644e-16 5.938228278403924e-17 0.9806641574543422 -0.1956982633652679
12666664000.0 0.978361257211135 -0.2069039641671071 -1.0971009146341685e-16 6.063944323204116e-17 -1.0971009146341685e-16 6.063944323204116e-17 0.9783613983562081 -0.20690329675068375
12667281333.333334 0.975930466552299 -0.21808192143052207 -1.0898252347416471e-16 6.188805500266505e-17 -1.0898252347416471e-16 6.188805500266505e-17 0.975930615315478 -0.21808125570476902
12667898666.666666 0.9733719700524168 -0.229231341478636 -1.0824075583029631e-16 6.312795551756517e-17 -1.0824075583029631e-16 6.312795551756517e-17 0.973372126413493 -0.22923067753049794
12668516000.0 0.9706861025048275 -0.24035076534890398 -1.0748489262937464e-16 6.435898341911589e-17 -1.0748489262937464e-16 6.435898341911589e-17 0.9706862664426024 -0.24035010326508516
12669133333.333334 0.9678732153701133 -0.2514387380037825 -1.067150398010939e-16 6.558097859135278e-17 -1.067150398010939e-16 6.558097859135278e-17 0.9678733868623968 -0.251438077870734
12669750666.666666 0.9649336767300126 -0.2624938085214854 -1.0593130509246938e-16 6.67937821807973e-17 -1.0593130509246938e-16 6.67937821807973e-17 0.9649338557536298 -0.2624931504253952
12670368000.0 0.9618678712393299 -0.273514530285571 -1.0513379805283471e-16 6.799723661703626e-17 -1.0513379805283471e-16 6.799723661703626e-17 0.9618680577701205 -0.27351387431235163
