! Parameters = {f0=12700.012000; bw=77.238000; Q=6100.000000; N=10; m_0_1=1.303599; m_1_1=0.789233; m_1_2=1.138411; m_2_2=0.788584; m_2_3=0.775374; m_2_8=0.002244; m_2_9=0.038948; m_3_3=0.786647; m_3_4=0.663903; m_3_7=0.002844; m_3_8=-0.094244; m_3_9=0.002244; m_4_4=0.783722; m_4_5=0.500238; m_4_6=0.006361; m_4_7=-0.114793; m_4_8=0.002844; m_5_5=0.784104; m_5_6=0.907593; m_5_7=0.006361; m_6_6=0.784103; m_6_7=0.500580; m_7_7=0.783736; m_7_8=0.664021; m_8_8=0.786645; m_8_9=0.775687; m_9_9=0.788579; m_9_10=1.139489; m_10_10=0.789223; m_10_11=1.304394}
!
! Created with skrf (http://scikit-rf.org).
# Hz S RI R 50.0 
!freq ReS11 ImS11 ReS21 ImS21 ReS12 ImS12 ReS22 ImS22
12607400000.0 0.7759557114265577 -0.630787391998539 -7.300604613851835e-17 1.0666234004817123e-16 -7.300604613851835e-17 1.0666234004817123e-16 0.775956144619881 -0.6307868591104797
12608017333.333334 0.7686401376245653 -0.6396814354288426 -7.174930018529562e-17 1.074813161002035e-16 -7.174930018529562e-17 1.074813161002035e-16 0.7686405769043708 -0.6396809075905969
12608634666.666666 0.7612226255174679 -0.6484906432633447 -7.048338354460464e-17 1.0828549646247463e-16 -7.048338354460464e-17 1.0828549646247463e-16 0.761223070824906 -0.6484901205444186
12609252000.0 0.753704158827874 -0.6572138472106177 -6.92084702700744e-17 1.090747786416441e-16 -6.92084702700744e-17 1.090747786416441e-16 0.753704610103299 -0.6572133296798297
12609869333.333334 0.7460857346671113 -0.6658498903852519 -6.79247355584458e-17 1.0984906219034316e-16 -6.79247355584458e-17 1.0984906219034316e-16 0.746086191850093 -0.6658493781107263
12610486666.666666 0.7383683634031802 -0.6743976274610727 -6.663235572555539e-17 1.1060824871988651e-16 -6.663235572555539e-17 1.1060824871988651e-16 0.7383688264325111 -0.6743971205102306
12611104000.0 0.7305530685263419 -0.6828559248235022 -6.533150818212732e-17 1.1135224191273118e-16 -6.533150818212732e-17 1.1135224191273118e-16 0.7305535373400451 -0.6828554232630519
12611721333.333334 0.7226408865139113 -0.6912236607193095 -6.40223714095064e-17 1.1208094753460596e-16 -6.40223714095064e-17 1.1208094753460596e-16 0.7226413610492484 -0.6912231646152377
12612338666.666666 0.7146328666924185 -0.6994997254058014 -6.270512493518076e-17 1.1279427344639963e-16 -6.270512493518076e-17 1.1279427344639963e-16 0.7146333468858992 -0.6994992348233648
12612956000.0 0.7065300710984374 -0.7076830212979905 -6.137994930820444e-17 1.1349212961574374e-16 -6.137994930820444e-17 1.1349212961574374e-16 0.706530556885827 -0.7076825363017077
12613573333.333334 0.6983335743380974 -0.7157724631137969 -6.004702607452173e-17 1.1417442812829237e-16 -6.004702607452173e-17 1.1417442812829237e-16 0.6983340656544257 -0.715771983767439
12614190666.666666 0.6900444634441684 -0.7237669780183843 -5.870653775210528e-17 1.1484108319874477e-16 -5.870653775210528e-17 1.1484108319874477e-16 0.6900449602237384 -0.7237665043849668
12614808000.0 0.6816638377320964 -0.7316655057662387 -5.735866780602195e-17 1.1549201118155208e-16 -5.735866780602195e-17 1.1549201118155208e-16 0.6816643399084922 -0.7316650379080128
12615425333.333334 0.6731928086541682 -0.739466998841819 -5.600360062336116e-17 1.16127130581341e-16 -5.600360062336116e-17 1.16127130581341e-16 0.6731933161602667 -0.7394665368202661
12616042666.666666 0.6646324996521146 -0.7471704225984841 -5.4641521488052407e-17 1.167463620630433e-16 -5.4641521488052407e-17 1.167463620630433e-16 0.66463301242009 -0.7471699664743028
12616660000.0 0.6559840460081097 -0.7547747553957037 -5.327261655557197e-17 1.1734962846172993e-16 -5.327261655557197e-17 1.1734962846172993e-16 0.6559845639694475 -0.7547743052288072
12617277333.333334 0.6472485946941938 -0.7622789887345747 -5.189707282753866e-17 1.1793685479215115e-16 -5.189707282753866e-17 1.1793685479215115e-16 0.6472491177796957 -0.762278544584078
12617894666.666666 0.6384273042202634 -0.7696821273914717 -5.051507812622589e-17 1.1850796825797022e-16 -5.051507812622589e-17 1.1850796825797022e-16 0.6384278323600592 -0.7696816893156876
12618512000.0 0.6295213444801909 -0.7769831895502415 -4.9126821068919434e-17 1.1906289826072253e-16 -4.9126821068919434e-17 1.1906289826072253e-16 0.629521877603747 -0.7769827576066715
12619129333.333334 0.6205318965969766 -0.7841812069321561 -4.773249104226246e-17 1.196015764084393e-16 -4.773249104226246e-17 1.196015764084393e-16 0.6205324346331048 -0.784180781177482
12619746666.666666 0.6114601527658872 -0.7912752249245092 -4.6332278176426134e-17 1.201239365240054e-16 -4.6332278176426134e-17 1.201239365240054e-16 0.6114606956427551 -0.791274805414587
12620364000.0 0.602307316096342 -0.7982643027072147 -4.4926373319223493e-17 1.206299146532001e-16 -4.4926373319223493e-17 1.206299146532001e-16 0.6023078637414827 -0.7982638894970673
12620981333.333334 0.5930746004525588 -0.8051475133774258 -4.351496801016848e-17 1.2111944907242617e-16 -4.351496801016848e-17 1.2111944907242617e-16 0.59307515279288 -0.805147106521235
12621598666.666666 0.5837632302923434 -0.8119239440726342 -4.20982544543863e-17 1.215924802961582e-16 -4.20982544543863e-17 1.215924802961582e-16 0.583763787254137 -0.8119235436237339
12622216000.0 0.5743744405048127 -0.8185926960916506 -4.067642549649622e-17 1.2204895108406902e-16 -4.067642549649622e-17 1.2204895108406902e-16 0.5743750020137649 -0.8185923021025191
12622833333.333334 0.5649094762465758 -0.8251528850138229 -3.9249674594394266e-17 1.22488806447859e-16 -3.9249674594394266e-17 1.22488806447859e-16 0.564910042227777 -0.825152497536077
12623450666.666666 0.5553695927766911 -0.8316036408162647 -3.7818195792984487e-17 1.229119936577731e-16 -3.7818195792984487e-17 1.229119936577731e-16 0.5553701631546469 -0.8316032599006541
12624068000.0 0.5457560552900796 -0.8379441079893258 -3.638218369781035e-17 1.233184622488219e-16 -3.638218369781035e-17 1.233184622488219e-16 0.5457566299887191 -0.8379437336857234
12624685333.333334 0.5360701387497029 -0.8441734456500571 -3.494183344863427e-17 1.2370816402668868e-16 -3.494183344863427e-17 1.2370816402668868e-16 0.5360707176923897 -0.8441730780074549
12625302666.666666 0.5263131277177155 -0.8502908276535802 -3.3497340692995015e-17 1.2408105307332036e-16 -3.3497340692995015e-17 1.2408105307332036e-16 0.5263137108272584 -0.8502904667200819
12625920000.0 0.5164863161847476 -0.8562954427028815 -3.2048901559618653e-17 1.2443708575223285e-16 -3.2048901559618653e-17 1.2443708575223285e-16 0.5164869033834099 -0.8562950885256965
12626537333.333334 0.5065910073986019 -0.8621864944562084 -3.0596712631877496e-17 1.2477622071347962e-16 -3.0596712631877496e-17 1.2477622071347962e-16 0.5065915986081121 -0.8621861470816445
12627154666.666666 0.49662851369139643 -0.8679632016327019 -2.914097092112764e-17 1.2509841889832985e-16 -2.914097092112764e-17 1.2509841889832985e-16 0.4966291088329593 -0.8679628611061623
12627772000.0 0.4866001563051017 -0.8736247981162536 -2.7681873839999125e-17 1.2540364354363506e-16 -2.7681873839999125e-17 1.2540364354363506e-16 0.48660075529940844 -0.873624464482228
12628389333.333334 0.4765072652170308 -0.8791705330567001 -2.6219619175713895e-17 1.2569186018586974e-16 -2.6219619175713895e-17 1.2569186018586974e-16 0.47650786798426825 -0.8791702063587582
12629006666.666666 0.46635117896271067 -0.8845996709698154 -2.475440506326001e-17 1.2596303666488216e-16 -2.475440506326001e-17 1.2596303666488216e-16 0.46635178542257444 -0.8845993512506051
12629624000.0 0.4561332444589124 -0.889911491834554 -2.3286429958622838e-17 1.2621714312731593e-16 -2.3286429958622838e-17 1.2621714312731593e-16 0.45613385453061583 -0.8899111791357929
12630241333.333334 0.44585481682472045 -0.8951052911887022 -2.181589261192236e-17 1.2645415202973027e-16 -2.181589261192236e-17 1.2645415202973027e-16 0.44585543042700554 -0.8951049855511722
12630858666.666666 0.4355172592021175 -0.9001803802221476 -2.0342992040564702e-17 1.2667403814140205e-16 -2.0342992040564702e-17 1.2667403814140205e-16 0.4355178762532665 -0.9001800816856916
12631476000.0 0.42512194257464475 -0.9051360858685152 -1.8867927502306755e-17 1.2687677854682376e-16 -1.8867927502306755e-17 1.2687677854682376e-16 0.4251225629924899 -0.9051357944720287
12632093333.333334 0.41467024558626475 -0.9099717508940819 -1.7390898468385617e-17 1.270623526478763e-16 -1.7390898468385617e-17 1.270623526478763e-16 0.4146708692882007 -0.9099714666755117
12632710666.666666 0.4041635543580943 -0.9146867339851639 -1.59121045965613e-17 1.272307421656997e-16 -1.59121045965613e-17 1.272307421656997e-16 0.40416418126108766 -0.9146864569814999
12633328000.0 0.393603262304569 -0.9192804098331563 -1.4431745704148274e-17 1.2738193114224866e-16 -1.4431745704148274e-17 1.2738193114224866e-16 0.39360389232516974 -0.9192801400804276
12633945333.333334 0.38299076994885445 -0.9237521692173708 -1.2950021741086925e-17 1.2751590594153068e-16 -1.2950021741086925e-17 1.2751590594153068e-16 0.382991403003208 -0.923751906750643
12634562666.666666 0.3723274847369789 -0.9281014190858938 -1.1467132762956856e-17 1.2763265525053552e-16 -1.1467132762956856e-17 1.2763265525053552e-16 0.3723281207408361 -0.9281011639392613
12635180000.0 0.3616148208511993 -0.9323275826342213 -9.983278904008303e-18 1.2773217007985002e-16 -9.983278904008303e-18 1.2773217007985002e-16 0.36161545971992815 -0.9323273348408054
12635797333.333334 0.3508541990224246 -0.936430099381769 -8.49866035018631e-18 1.278144437639607e-16 -8.49866035018631e-18 1.278144437639607e-16 0.35085484067102146 -0.9364298589737122
12636414666.666666 0.3400470463419017 -0.9404084252461611 -7.01347731217653e-18 1.2787947196124199e-16 -7.01347731217653e-18 1.2787947196124199e-16 0.34004769068500285 -0.9404081922546242
12637032000.0 0.32919479607179414 -0.9442620326154518 -5.5279299984219874e-18 1.2792725265363383e-16 -5.5279299984219874e-18 1.2792725265363383e-16 0.32919544302368703 -0.9442618070706094
12637649333.333334 0.31829888745520607 -0.9479904104180555 -4.042218588186977e-18 1.2795778614600463e-16 -4.042218588186977e-18 1.2795778614600463e-16 0.3182995369298399 -0.9479901923490897
12638266666.666666 0.30736076552527986 -0.9515930641905331 -2.5565432046172503e-18 1.2797107506520267e-16 -2.5565432046172503e-18 1.2797107506520267e-16 0.3073614174362782 -0.9515928536256334
12638884000.0 0.29638188091355555 -0.9550695161431749 -1.0711038878219401e-18 1.2796712435879572e-16 -1.0711038878219401e-18 1.2796712435879572e-16 0.296382535174227 -0.9550693131095322
12639501333.333334 0.2853636896575563 -0.9584193052233667 4.138994320264977e-19 1.2794594129349782e-16 4.138994320264977e-19 1.2794594129349782e-16 0.28536434618090656 -0.9584191097471705
12640118666.666666 0.27430765300785176 -0.9616419871766934 1.898266961537916e-18 1.2790753545328575e-16 1.898266961537916e-18 1.2790753545328575e-16 0.2743083117065947 -0.9616417992831285
12640736000.0 0.2632152372338266 -0.9647371346059793 3.381799071023023e-18 1.278519187372025e-16 3.381799071023023e-18 1.278519187372025e-16 0.2632158980203966 -0.9647369543192233
12641353333.333334 0.2520879134298782 -0.9677043370277849 4.864296321179448e-18 1.2777910535685296e-16 4.864296321179448e-18 1.2777910535685296e-16 0.25208857621644093 -0.9677041643710038
12641970666.666666 0.24092715731974298 -0.9705432009270086 6.345559489978015e-18 1.2768911183358584e-16 6.345559489978015e-18 1.2768911183358584e-16 0.24092782201820748 -0.9705430359223531
12642588000.0 0.22973444906105664 -0.9732533498089943 7.82538959934208e-18 1.275819569953681e-16 7.82538959934208e-18 1.275819569953681e-16 0.22973511558308732 -0.9732531924776002
12643205333.333334 0.21851127304902732 -0.9758344242494772 9.303587941845424e-18 1.2745766197335008e-16 9.303587941845424e-18 1.2745766197335008e-16 0.2185119413060552 -0.9758342746114602
12643822666.666666 0.20725911771946107 -0.9782860819422738 1.0779956107370445e-17 1.2731625019811946e-16 1.0779956107370445e-17 1.2731625019811946e-16 0.20725978762269567 -0.9782859400167264
12644440000.0 0.19597947535150165 -0.9806079977446468 1.225429600968343e-17 1.2715774739565152e-16 1.225429600968343e-17 1.2715774739565152e-16 0.19598014681194295 -0.9806078635496376
12645057333.333334 0.18467384186969457 -0.9827998637204332 1.3726409912977468e-17 1.2698218158294853e-16 1.3726409912977468e-17 1.2698218158294853e-16 0.18467451479814462 -0.9827997372730035
12645674666.666666 0.17334371664559564 -0.9848613891808868 1.5196100458354387e-17 1.2678958306337474e-16 1.5196100458354387e-17 1.2678958306337474e-16 0.1733443909526708 -0.9848612704970499
12646292000.0 0.1619906022987259 -0.9867923007232631 1.6663170690270565e-17 1.2657998442167991e-16 1.6663170690270565e-17 1.2657998442167991e-16 0.16199127789486809 -0.9867921898179995
12646909333.333334 0.15061600449765508 -0.9885923422670122 1.8127424082846365e-17 1.2635342051872904e-16 1.8127424082846365e-17 1.2635342051872904e-16 0.1506166812931442 -0.9885922391542705
12647526666.666666 0.139221431760038 -0.9902612750877925 1.9588664566190105e-17 1.2610992848591555e-16 1.9588664566190105e-17 1.2610992848591555e-16 0.1392221096650037 -0.9902611797804863
12648144000.0 0.12780839525257986 -0.9917988778491207 2.104669655261078e-17 1.258495477192767e-16 2.104669655261078e-17 1.258495477192767e-16 0.12780907417701345 -0.9917987903591283
12648761333.333334 0.11637840859073553 -0.9932049466317125 2.2501324962744988e-17 1.2557231987330836e-16 2.2501324962744988e-17 1.2557231987330836e-16 0.11637908844450175 -0.9932048669698726
12649378666.666666 0.10493298763797143 -0.9944792949605259 2.3952355251619587e-17 1.2527828885447642e-16 2.3952355251619587e-17 1.2527828885447642e-16 0.10493366833082067 -0.994479223136639
12649996000.0 0.09347365030458851 -0.9956217538295111 2.539959343465005e-17 1.249675008144237e-16 2.539959343465005e-17 1.249675008144237e-16 0.09347433174616863 -0.9956216898523365
12650613333.333334 0.08200191634647033 -0.9966321717240127 2.6842846113524676e-17 1.2464000414288262e-16 2.6842846113524676e-17 1.2464000414288262e-16 0.08200259844633893 -0.9966321156012702
12651230666.666666 0.07051930716378603 -0.9975104146408472 2.828192050199639e-17 1.2429584946029078e-16 2.828192050199639e-17 1.2429584946029078e-16 0.07051998983142205 -0.9975103663792128
12651848000.0 0.05902734559865287 -0.9982563661061185 2.9716624451631566e-17 1.239350896100982e-16 2.9716624451631566e-17 1.239350896100982e-16 0.05902802874346883 -0.9982563257112254
12652465333.333334 0.04752755573368435 -0.9988699271906211 3.114676647739579e-17 1.2355777965079293e-16 3.114676647739579e-17 1.2355777965079293e-16 0.04752823926503833 -0.9988698946670583
12653082666.666666 0.03602146268986453 -0.9993510165229725 3.257215578317231e-17 1.231639768476255e-16 3.257215578317231e-17 1.231639768476255e-16 0.036022146517072196 -0.9993509918742856
12653700000.0 0.02451059242371597 -0.9996995703004248 3.3992602287212615e-17 1.2275374066402943e-16 3.3992602287212615e-17 1.2275374066402943e-16 0.024511276456062606 -0.9996995535291139
12654317333.333334 0.012996471525720059 -0.9999155422972964 3.540791664739705e-17 1.2232713275277197e-16 3.540791664739705e-17 1.2232713275277197e-16 0.012997155672472602 -0.9999155334048174
12654934666.666666 0.001480627017290113 -0.9999989038711251 3.681791028646992e-17 1.218842169467908e-16 3.681791028646992e-17 1.218842169467908e-16 0.0014813111877091732 -0.9999989028578886
12655552000.0 -0.010035413851744893 -0.9999496439664552 3.822239541712644e-17 1.2142505924974929e-16 3.822239541712644e-17 1.2142505924974929e-16 -0.010034729748392986 -0.9999496508318266
12656169333.333334 -0.02155012380517501 -0.999767769116307 3.962118506695332e-17 1.209497278263153e-16 3.962118506695332e-17 1.209497278263153e-16 -0.021549439859606192 -0.9997677838586081
12656786666.666666 -0.03306197574352764 -0.9994533034413112 4.1014093103314697e-17 1.2045829299212994e-16 4.1014093103314697e-17 1.2045829299212994e-16 -0.033061292046428076 -0.9994533260578183
12657404000.0 -0.04456944294630972 -0.9990062886465089 4.240093425806408e-17 1.1995082720350873e-16 4.240093425806408e-17 1.1995082720350873e-16 -0.04456875958832375 -0.9990063191334544
12658021333.333334 -0.056070999274569044 -0.9984267840158174 4.378152415215435e-17 1.1942740504685032e-16 4.378152415215435e-17 1.1942740504685032e-16 -0.05607031634628722 -0.9984268223683909
12658638666.666666 -0.06756511937315142 -0.9977148664041785 4.515567932009448e-17 1.1888810322777111e-16 4.515567932009448e-17 1.1888810322777111e-16 -0.06756443696509852 -0.9977149126165271
12659256000.0 -0.07905027887327963 -0.9968706302273492 4.65232172343248e-17 1.1833300055994017e-16 4.65232172343248e-17 1.1833300055994017e-16 -0.07904959707590256 -0.9968706842925781
12659873333.333334 -0.09052495459446208 -0.995894187449393 4.788395632939183e-17 1.177621779536583e-16 4.788395632939183e-17 1.177621779536583e-16 -0.09052427349811792 -0.9958942493595659
12660490666.666666 -0.10198762474649982 -0.994785667567835 4.923771602601211e-17 1.1717571840415088e-16 4.923771602601211e-17 1.1717571840415088e-16 -0.10198694444144395 -0.9947857373139773
12661108000.0 -0.1134367691315919 -0.9935452175964627 5.0584316755046334e-17 1.165737069795607e-16 5.0584316755046334e-17 1.165737069795607e-16 -0.11343608970796584 -0.9935452951685603
12661725333.333334 -0.12487086934555017 -0.9921730020458643 5.1923579981198804e-17 1.159562308087215e-16 5.1923579981198804e-17 1.159562308087215e-16 -0.12487019089336998 -0.9921730874328676
12662342666.666666 -0.1362884089794839 -0.9906692029015826 5.3255328226718016e-17 1.1532337906859607e-16 5.3255328226718016e-17 1.1532337906859607e-16 -0.13628773158862786 -0.9906692960914056
12662960000.0 -0.14768787382076667 -0.9890340195999913 5.4579385094842513e-17 1.146752429714866e-16 5.4579385094842513e-17 1.146752429714866e-16 -0.14768719758096374 -0.989034120579516
12663577333.333334 -0.15906775205388246 -0.9872676690018466 5.589557529313232e-17 1.1401191575195967e-16 5.589557529313232e-17 1.1401191575195967e-16 -0.15906707705469986 -0.987267777756921
12664194666.666666 -0.17042653446092434 -0.9853703853635215 5.720372465663556e-17 1.1333349265350673e-16 5.720372465663556e-17 1.1333349265350673e-16 -0.17042586079175637 -0.9853705018789655
12664812000.0 -0.18176271462175014 -0.9833424203059423 5.85036601708946e-17 1.1264007091493925e-16 5.85036601708946e-17 1.1264007091493925e-16 -0.1817620423718058 -0.983342544565547
12665429333.333334 -0.19307478911379355 -0.9811840427812105 5.979520999479125e-17 1.1193174975651907e-16 5.979520999479125e-17 1.1193174975651907e-16 -0.19307411837208519 -0.9811841747677436
12666046666.666666 -0.2043612577113117 -0.978895539036963 6.10782034832034e-17 1.1120863036583973e-16 6.10782034832034e-17 1.1120863036583973e-16 -0.20436058856664277 -0.9788956787321677
12666664000.0 -0.21562062358465367 -0.9764772125783481 6.235247120956094e-17 1.1047081588340996e-16 6.235247120956094e-17 1.1047081588340996e-16 -0.21561995612560725 -0.9764773599629469
12667281333.333334 -0.22685139349838285 -0.9739293841278528 6.361784498810296e-17 1.0971841138804986e-16 6.361784498810296e-17 1.0971841138804986e-16 -0.22685072781330967 -0.9739295391815503
12667898666.666666 -0.23805207800958988 -0.9712523915827089 6.487415789609454e-17 1.0895152388195662e-16 6.487415789609454e-17 1.0895152388195662e-16 -0.23805141418659728 -0.9712525542841967
12668516000.0 -0.24922119166542564 -0.9684465899700826 6.612124429580482e-17 1.0817026227554975e-16 6.612124429580482e-17 1.0817026227554975e-16 -0.24922052979236498 -0.9684467602970377
12669133333.333334 -0.2603572531998544 -0.9655123514000447 6.735893985624835e-17 1.0737473737209956e-16 6.735893985624835e-17 1.0737473737209956e-16 -0.26035659336431016 -0.9655125293291363
12669750666.666666 -0.2714587857303789 -0.9624500650161572 6.858708157485917e-17 1.0656506185203622e-16 6.858708157485917e-17 1.0656506185203622e-16 -0.27145812801965674 -0.962450250523049
12670368000.0 -0.28252431695382274 -0.9592601369438807 6.980550779888853e-17 1.057413502570662e-16 6.980550779888853e-17 1.057413502570662e-16 -0.28252366145493807 -0.9592603300032331
