! Parameters = {f0=12700.012000; bw=77.238000; Q=6100.000000; N=10; m_0_1=1.329424; m_1_1=1.176621; m_1_2=1.164236; m_2_2=1.175972; m_2_3=0.801199; m_2_8=0.003535; m_2_9=0.040239; m_3_3=1.174035; m_3_4=0.689728; m_3_7=0.004135; m_3_8=-0.092953; m_3_9=0.003535; m_4_4=1.171110; m_4_5=0.526063; m_4_6=0.007652; m_4_7=-0.113502; m_4_8=0.004135; m_5_5=1.171492; m_5_6=0.933418; m_5_7=0.007652; m_6_6=1.171491; m_6_7=0.526405; m_7_7=1.171124; m_7_8=0.689846; m_8_8=1.174033; m_8_9=0.801512; m_9_9=1.175967; m_9_10=1.165314; m_10_10=1.176611; m_10_11=1.330219}
!
! Created with skrf (http://scikit-rf.org).
# Hz S RI R 50.0 
!freq ReS11 ImS11 ReS21 ImS21 ReS12 ImS12 ReS22 ImS22
12607400000.0 -0.8381375674712945 0.545458905870192 9.419704652136664e-17 -1.1051586840615355e-16 9.419704652136664e-17 -1.1051586840615355e-16 -0.8381379494596137 0.5454583189167069
12608017333.333334 -0.8313764789070368 0.5557095917113045 9.280479974151221e-17 -1.1165058471198034e-16 9.280479974151221e-17 -1.1165058471198034e-16 -0.8313768680549295 0.5557090095211542
12608634666.666666 -0.8244900280172619 0.5658764827238382 9.139890141565856e-17 -1.1276777712313513e-16 9.139890141565856e-17 -1.1276777712313513e-16 -0.8244904242653516 0.5658759053843401
12609252000.0 -0.8174792532022627 0.5759580458537553 8.997957192764064e-17 -1.138672816217749e-16 8.997957192764064e-17 -1.138672816217749e-16 -0.8174796564901082 0.5759574734514873
12609869333.333334 -0.810345211608965 0.5859527609135632 8.85470336290918e-17 -1.1494893695938984e-16 8.85470336290918e-17 -1.1494893695938984e-16 -0.8103456218750683 0.5859521935343491
12610486666.666666 -0.8030889789716669 0.5958591208113306 8.7101510804702e-17 -1.1601258468035488e-16 8.7101510804702e-17 -1.1601258468035488e-16 -0.8030893961534838 0.5958585585402287
12611104000.0 -0.7957116494495489 0.6056756317783346 8.564322963710805e-17 -1.1705806914510808e-16 8.564322963710805e-17 -1.1705806914510808e-16 -0.7957120734834993 0.605675074699625
12611721333.333334 -0.7882143354619887 0.6154008135938901 8.417241817162329e-17 -1.1808523755280426e-16 8.417241817162329e-17 -1.1808523755280426e-16 -0.7882147662834659 0.615400261791062
12612338666.666666 -0.7805981675206362 0.6250331998088035 8.268930628059997e-17 -1.19093939963596e-16 8.268930628059997e-17 -1.19093939963596e-16 -0.7805986050640152 0.6250326533645418
12612956000.0 -0.772864294058921 0.6345713379665145 8.119412562755887e-17 -1.2008402932044333e-16 8.119412562755887e-17 -1.2008402932044333e-16 -0.7728647382575712 0.6345707969626888
12613573333.333334 -0.7650138812591162 0.6440137898218248 7.968710963110795e-17 -1.2105536147044347e-16 7.968710963110795e-17 -1.2105536147044347e-16 -0.765014332045409 0.6440132543394759
12614190666.666666 -0.7570481128762047 0.6533591315581226 7.816849342850687e-17 -1.2200779518577367e-16 7.816849342850687e-17 -1.2200779518577367e-16 -0.7570485701815255 0.6533586016774511
12614808000.0 -0.7489681900595425 0.6626059540018792 7.663851383906895e-17 -1.2294119218412191e-16 7.663851383906895e-17 -1.2294119218412191e-16 -0.7489686538142996 0.662605429802233
12615425333.333334 -0.7407753311717026 0.6717528628351812 7.50974093272824e-17 -1.2385541714868417e-16 7.50974093272824e-17 -1.2385541714868417e-16 -0.7407758013053399 0.6717523443950443
12616042666.666666 -0.7324707716047412 0.6807984788059988 7.354541996570133e-17 -1.2475033774769569e-16 7.354541996570133e-17 -1.2475033774769569e-16 -0.7324712480457471 0.6807979662029786
12616660000.0 -0.7240557635939916 0.689741437936078 7.19827873976057e-17 -1.256258246534989e-16 7.19827873976057e-17 -1.256258246534989e-16 -0.7240562462699102 0.6897409312468944
12617277333.333334 -0.715531576029104 0.6985803917267593 7.0409754799428e-17 -1.2648175156114774e-16 7.0409754799428e-17 -1.2648175156114774e-16 -0.715532064866547 0.6985798910272336
12617894666.666666 -0.7068994942628891 0.7073140073621321 6.882656684300028e-17 -1.2731799520652108e-16 6.882656684300028e-17 -1.2731799520652108e-16 -0.7068999891875457 0.707313512727174
12618512000.0 -0.6981608199172411 0.7159409679102693 6.723346965749332e-17 -1.2813443538401565e-16 6.723346965749332e-17 -1.2813443538401565e-16 -0.6981613208538903 0.7159404794138672
12619129333.333334 -0.6893168706872287 0.7244599725214453 6.563071079127443e-17 -1.2893095496369522e-16 6.563071079127443e-17 -1.2893095496369522e-16 -0.689317377559751 0.7244594902366557
12619746666.666666 -0.6803689801420825 0.732869736624614 6.401853917345827e-17 -1.2970743990802016e-16 6.401853917345827e-17 -1.2970743990802016e-16 -0.6803694928734694 0.7328692606235477
12620364000.0 -0.6713184975241795 0.7411689921210177 6.239720507529696e-17 -1.30463779288076e-16 6.239720507529696e-17 -1.30463779288076e-16 -0.6713190160365483 0.7411685224748334
12620981333.333334 -0.6621667875457673 0.7493564875752567 6.07669600714333e-17 -1.3119986529929836e-16 6.07669600714333e-17 -1.3119986529929836e-16 -0.6621673117603702 0.7493560243541464
12621598666.666666 -0.6529152301829443 0.7574309884041971 5.91280570008612e-17 -1.3191559327676295e-16 5.91280570008612e-17 -1.3191559327676295e-16 -0.652915760020182 0.7574305316773781
12622216000.0 -0.6435652204677696 0.7653912770629663 5.748074992780174e-17 -1.3261086170994741e-16 5.748074992780174e-17 -1.3261086170994741e-16 -0.6435657558472018 0.765390826898668
12622833333.333334 -0.6341181682777323 0.7732361532286893 5.582529410235792e-17 -1.332855722570259e-16 5.582529410235792e-17 -1.332855722570259e-16 -0.6341187091180922 0.7732357096941476
12623450666.666666 -0.6245754981233115 0.7809644339813593 5.416194592104963e-17 -1.3393962975865573e-16 5.416194592104963e-17 -1.3393962975865573e-16 -0.6245760443425161 0.7809639971428021
12624068000.0 -0.6149386489331551 0.7885749539822269 5.24909628871163e-17 -1.3457294225130124e-16 5.24909628871163e-17 -1.3457294225130124e-16 -0.6149392004483196 0.7885745239048675
12624685333.333334 -0.6052090738368398 0.7960665656497345 5.081260357071866e-17 -1.3518542098004122e-16 5.081260357071866e-17 -1.3518542098004122e-16 -0.6052096305642866 0.7960661423977579
12625302666.666666 -0.5953882399462843 0.8034381393321292 4.9127127569016845e-17 -1.357769804108737e-16 4.9127127569016845e-17 -1.357769804108737e-16 -0.5953888018015606 0.8034377229686877
12625920000.0 -0.5854776281339499 0.8106885634782638 4.7434795466014064e-17 -1.3634753824255658e-16 4.7434795466014064e-17 -1.3634753824255658e-16 -0.5854781950318368 0.810688154065464
12626537333.333334 -0.575478732809943 0.817816744804891 4.573586879237365e-17 -1.3689701541791118e-16 4.573586879237365e-17 -1.3689701541791118e-16 -0.57547930466447 0.8178163424037853
12627154666.666666 -0.5653930616966106 0.8248216084615747 4.403060998504891e-17 -1.3742533613464595e-16 4.403060998504891e-17 -1.3742533613464595e-16 -0.5653936384210675 0.8248212131321515
12627772000.0 -0.5552221356009116 0.8317020981929583 4.231928234675095e-17 -1.3793242785568978e-16 4.231928234675095e-17 -1.3793242785568978e-16 -0.5552227171078633 0.8317017099941354
12628389333.333334 -0.5449674881855179 0.8384571764977471 4.06021500054175e-17 -1.384182213189858e-16 4.06021500054175e-17 -1.384182213189858e-16 -0.544968074386816 0.83845679548736
12629006666.666666 -0.5346306657371773 0.8450858247854061 3.8879477873437716e-17 -1.3888265054682052e-16 3.8879477873437716e-17 -1.3888265054682052e-16 -0.5346312565439749 0.8450854510202016
12629624000.0 -0.5242132269338113 0.8515870435295778 3.7151531606879723e-17 -1.39325652854617e-16 3.7151531606879723e-17 -1.39325652854617e-16 -0.524213822256576 0.8515866770652055
12630241333.333334 -0.513716742609318 0.8579598524189108 3.541857756454884e-17 -1.3974716885923988e-16 3.541857756454884e-17 -1.3974716885923988e-16 -0.5137173423578438 0.8579594933099121
12630858666.666666 -0.503142795516948 0.8642032905047274 3.368088276702225e-17 -1.401471424867762e-16 3.368088276702225e-17 -1.401471424867762e-16 -0.5031433996003722 0.8642029388045309
12631476000.0 -0.4924929800902306 0.8703164163461762 3.193871485549062e-17 -1.405255209798322e-16 3.193871485549062e-17 -1.405255209798322e-16 -0.4924935884170447 0.8703160721070878
12632093333.333334 -0.4817689022029408 0.876298308151956 3.019234205065283e-17 -1.4088225490429e-16 3.019234205065283e-17 -1.4088225490429e-16 -0.4817695146810055 0.8762979714251514
12632710666.666666 -0.47097217892687965 0.8821480639193598 2.8442033111466065e-17 -1.4121729815556942e-16 2.8442033111466065e-17 -1.4121729815556942e-16 -0.47097279546343906 0.882147734754877
12633328000.0 -0.46010443828776365 0.8878648015704355 2.668805729377382e-17 -1.415306079643909e-16 2.668805729377382e-17 -1.415306079643909e-16 -0.46010505878945906 0.8878644800171678
12633945333.333334 -0.4491673190200608 0.8934476590848158 2.4930684309030246e-17 -1.4182214490199245e-16 2.4930684309030246e-17 -1.4182214490199245e-16 -0.44916794339294464 0.8934473451905042
12634562666.666666 -0.43816247031973793 0.8988957946297851 2.3170184282814713e-17 -1.4209187288486716e-16 2.3170184282814713e-17 -1.4209187288486716e-16 -0.4381630984692876 0.8988954884410092
12635180000.0 -0.4270915515956033 0.9042083866871986 2.1406827713387387e-17 -1.4233975917896817e-16 2.1406827713387387e-17 -1.4233975917896817e-16 -0.4270921834267372 0.9042080882493752
12635797333.333334 -0.41595623221903855 0.9093846341773916 1.9640885430172043e-17 -1.4256577440340759e-16 1.9640885430172043e-17 -1.4256577440340759e-16 -0.415956867636128 0.909384343534761
12636414666.666666 -0.4047581912724784 0.9144237565798687 1.787262855222445e-17 -1.4276989253363636e-16 1.787262855222445e-17 -1.4276989253363636e-16 -0.4047588301793639 0.9144234737754932
12637032000.0 -0.39349911729591697 0.9193249940511476 1.6102328446652764e-17 -1.4295209090411494e-16 1.6102328446652764e-17 -1.4295209090411494e-16 -0.3934997595959223 0.9193247191269026
12637649333.333334 -0.38218070803249904 0.9240876075392337 1.4330256687015867e-17 -1.4311235021046648e-16 1.4330256687015867e-17 -1.4311235021046648e-16 -0.38218135362844635 0.9240873405358044
12638266666.666666 -0.37080467017244373 0.9287108788951021 1.2556685011726989e-17 -1.4325065451111513e-16 1.2556685011726989e-17 -1.4325065451111513e-16 -0.37080531896666663 0.928710619851973
12638884000.0 -0.359372719095797 0.9331941109809367 1.078188528243194e-17 -1.4336699122840994e-16 1.078188528243194e-17 -1.4336699122840994e-16 -0.35937337099015726 0.9331938599363898
12639501333.333334 -0.34788657861358935 0.9375366277753309 9.006129442380766e-18 -1.4346135114923482e-16 9.006129442380766e-18 -1.4346135114923482e-16 -0.34788723350949025 0.9375363847664373
12640118666.666666 -0.3363479807081676 0.9417377744751166 7.229689474856146e-18 -1.4353372842510044e-16 7.229689474856146e-18 -1.4353372842510044e-16 -0.3363486385065701 0.9417375395377333
12640736000.0 -0.3247586652715527 0.9457969175942832 5.452837361456982e-18 -1.4358412057173005e-16 5.452837361456982e-18 -1.4358412057173005e-16 -0.32475932587298934 0.9457966907630458
12641353333.333334 -0.3131203798438307 0.949713445059226 3.6758450406636285e-18 -1.4361252846811835e-16 3.6758450406636285e-18 -1.4361252846811835e-16 -0.3131210431484213 0.9497132263675451
12641970666.666666 -0.30143487934892105 0.9534867663013001 1.8989843661403426e-18 -1.4361895635508864e-16 1.8989843661403426e-18 -1.4361895635508864e-16 -0.3014355452563876 0.9534865557813554
12642588000.0 -0.28970392583032833 0.9571163123457376 1.2252706525466925e-19 -1.4360341183332905e-16 1.2252706525466925e-19 -1.4360341183332905e-16 -0.28970459424001027 0.9571161100284741
12643205333.333334 -0.2779292881853931 0.9606015358974651 -1.6532553024125431e-18 -1.4356590586091924e-16 -1.6532553024125431e-18 -1.4356590586091924e-16 -0.27792995899626227 0.9606013418125876
12643822666.666666 -0.26611274189845197 0.9639419114236587 -3.428091386584643e-18 -1.4350645275034199e-16 -3.428091386584643e-18 -1.4350645275034199e-16 -0.26611341500912794 0.9639417255996272
12644440000.0 -0.25425606877322343 0.9671369352329559 -5.201710087644203e-18 -1.4342507016498629e-16 -5.201710087644203e-18 -1.4342507016498629e-16 -0.254256744081989 0.9671367576969833
12645057333.333334 -0.2423610566642146 0.9701861255513884 -6.9738405979989e-18 -1.4332177911513786e-16 -6.9738405979989e-18 -1.4332177911513786e-16 -0.24236173406903128 0.9701859563294347
12645674666.666666 -0.23042949920696837 0.9730890225950727 -8.744212443398793e-18 -1.4319660395345917e-16 -8.744212443398793e-18 -1.4319660395345917e-16 -0.23043017860549148 0.9730888617118424
12646292000.0 -0.21846319554749213 0.9758451886395648 -1.0512555524182323e-17 -1.430495723699584e-16 -1.0512555524182323e-17 -1.430495723699584e-16 -0.21846387683708599 0.9758450361185006
12646909333.333334 -0.2064639500714074 0.978454208085754 -1.2278600156367675e-17 -1.4288071538645715e-16 -1.2278600156367675e-17 -1.4288071538645715e-16 -0.2064646331491618 0.9784540639490386
12647526666.666666 -0.19443357213142815 0.9809156875226438 -1.4042077112794667e-17 -1.4269006735054157e-16 -1.4042077112794667e-17 -1.4269006735054157e-16 -0.19443425689417312 0.9809155517911918
12648144000.0 -0.18237387577466707 0.9832292557866326 -1.580271766409527e-17 -1.4247766592901233e-16 -1.580271766409527e-17 -1.4247766592901233e-16 -0.18237456211898853 0.983229128480089
12648761333.333334 -0.17028667946918094 0.9853945640174641 -1.756025361958024e-17 -1.4224355210083066e-16 -1.756025361958024e-17 -1.4224355210083066e-16 -0.1702873672914366 0.9853944451542032
12649378666.666666 -0.15817380582973944 0.9874112857108446 -1.931441736804373e-17 -1.4198777014955913e-16 -1.931441736804373e-17 -1.4198777014955913e-16 -0.15817449502607406 0.9874111753079641
12649996000.0 -0.14603708134296645 0.9892791167676773 -2.106494191846325e-17 -1.4171036765529935e-16 -2.106494191846325e-17 -1.4171036765529935e-16 -0.14603777180932775 0.9892790148409976
12650613333.333334 -0.13387833609184172 0.9909977755399291 -2.2811560940597013e-17 -1.41411395486128e-16 -2.2811560940597013e-17 -1.41411395486128e-16 -0.13387902772399635 0.9909976821039922
12651230666.666666 -0.12169940347997006 0.9925670028730688 -2.4554008805420103e-17 -1.4109090778903972e-16 -2.4554008805420103e-17 -1.4109090778903972e-16 -0.12170009617351892 0.992566917941135
12651848000.0 -0.10950211995481463 0.9939865621451875 -2.6292020625514027e-17 -1.4074896198038046e-16 -2.6292020625514027e-17 -1.4074896198038046e-16 -0.10950281360520871 0.993986485729233
12652465333.333334 -0.0972883247310061 0.9952562393026445 -2.8025332295250713e-17 -1.4038561873579626e-16 -2.8025332295250713e-17 -1.4038561873579626e-16 -0.0972890192335624 0.9952561714133601
12653082666.666666 -0.08505985951312316 0.9963758428923375 -2.9753680530853894e-17 -1.4000094197968908e-16 -2.9753680530853894e-17 -1.4000094197968908e-16 -0.08506055476304042 0.9963757835391283
12653700000.0 -0.07281856821753165 0.9973452040906177 -3.147680291042222e-17 -1.395949988741551e-16 -3.147680291042222e-17 -1.395949988741551e-16 -0.07281926410990615 0.9973451532816009
12654317333.333334 -0.06056629669485154 0.9981641767286977 -3.319443791361034e-17 -1.3916785980747597e-16 -3.319443791361034e-17 -1.3916785980747597e-16 -0.06056699312469285 0.9981641344706998
12654934666.666666 -0.04830489245131178 0.9988326373147182 -3.490632496135136e-17 -1.3871959838207805e-16 -3.490632496135136e-17 -1.3871959838207805e-16 -0.04830558931355874 0.998832603613277
12655552000.0 -0.036036204370138304 0.9993504850523663 -3.661220445531622e-17 -1.3825029140202666e-16 -3.661220445531622e-17 -1.3825029140202666e-16 -0.03603690155967482 0.99935045991173
12656169333.333334 -0.0237620824331323 0.9997176418560634 -3.8311817817200816e-17 -1.3776001886004118e-16 -3.8311817817200816e-17 -1.3776001886004118e-16 -0.0237627798448031 0.9997176252791863
12656786666.666666 -0.011484377441258953 0.9999340523627521 -4.0004907527892125e-17 -1.3724886392401107e-16 -4.0004907527892125e-17 -1.3724886392401107e-16 -0.011485074969885581 0.9999340443512981
12657404000.0 0.0007950592641769933 0.9999996839402369 -4.169121716643818e-17 -1.367169129230399e-16 -4.169121716643818e-17 -1.367169129230399e-16 0.0007943617237803451 0.99999968449458
12658021333.333334 0.013074376080806567 0.9999145266921099 -4.337049144882259e-17 -1.3616425533301218e-16 -4.337049144882259e-17 -1.3616425533301218e-16 0.013073678633817254 0.9999145358113303
12658638666.666666 0.025351721424141868 0.9996785934592386 -4.504247626654287e-17 -1.3559098376168902e-16 -4.504247626654287e-17 -1.3559098376168902e-16 0.02535102417571289 0.9996786111411258
12659256000.0 0.03762524400722909 0.9992919198178306 -4.670691872504785e-17 -1.3499719393331265e-16 -4.670691872504785e-17 -1.3499719393331265e-16 0.03762454706247327 0.9992919460588842
12659873333.333334 0.04989309311943251 0.9987545640740694 -4.8363567181905106e-17 -1.3438298467276335e-16 -4.8363567181905106e-17 -1.3438298467276335e-16 0.049892396583406634 0.9987545988694981
12660490666.666666 0.06215341890552969 0.9980666072553288 -5.001217128477778e-17 -1.33748457889244e-16 -5.001217128477778e-17 -1.33748457889244e-16 0.062152722883218645 0.9980666505990516
12661108000.0 0.07440437264496103 0.9972281530979348 -5.165248200926542e-17 -1.3309371855947144e-16 -5.165248200926542e-17 -1.3309371855947144e-16 0.07440367724126207 0.9972282049825836
12661725333.333334 0.08664410703008586 0.9962393280315562 -5.3284251696397594e-17 -1.3241887471045301e-16 -5.3284251696397594e-17 -1.3241887471045301e-16 0.08664341234979274 0.9962393884484751
12662342666.666666 0.09887077644521788 0.9951002811601088 -5.4907234090018094e-17 -1.317240374017606e-16 -5.4907234090018094e-17 -1.317240374017606e-16 0.09887008259300496 0.9951003500993557
12662960000.0 0.1110825372446682 0.9938111842392875 -5.652118437387937e-17 -1.3100932070737114e-16 -5.652118437387937e-17 -1.3100932070737114e-16 0.11108184432507487 0.993811261689637
12663577333.333334 0.12327754803083157 0.9923722316506619 -5.812585920850653e-17 -1.3027484169705264e-16 -5.812585920850653e-17 -1.3027484169705264e-16 0.12327685614824634 0.9923723175996056
12664194666.666666 0.13545396993173572 0.9907836403723776 -5.972101676785426e-17 -1.295207204172841e-16 -5.972101676785426e-17 -1.295207204172841e-16 0.13545327919038072 0.9907837348061287
12664812000.0 0.14760996687849234 0.9890456499464213 -6.130641677568147e-17 -1.2874707987174508e-16 -6.130641677568147e-17 -1.2874707987174508e-16 0.14760927738240728 0.9890457528499133
12665429333.333334 0.15974370588207074 0.9871585224425061 -6.288182054169625e-17 -1.2795404600134944e-16 -6.288182054169625e-17 -1.2795404600134944e-16 0.15974301773509753 0.9871586337993974
12666046666.666666 0.17185335730958015 0.9851225424185741 -6.444699099741957e-17 -1.2714174766385155e-16 -6.444699099741957e-17 -1.2714174766385155e-16 0.17185267061534712 0.9851226622112502
12666664000.0 0.18393709516049447 0.9829380168778337 -6.600169273184773e-17 -1.2631031661298204e-16 -6.600169273184773e-17 -1.2631031661298204e-16 0.18393641002240096 0.9829381450874106
12667281333.333334 0.19599309734148881 0.9806052752225526 -6.754569202674013e-17 -1.254598874772061e-16 -6.754569202674013e-17 -1.254598874772061e-16 0.1959924138626893 0.9806054118288784
12667898666.666666 0.20801954594163896 0.9781246692043114 -6.90787568917561e-17 -1.2459059773798561e-16 -6.90787568917561e-17 -1.2459059773798561e-16 0.20801886422502772 0.9781248141859695
12668516000.0 0.22001462750642878 0.9754965728709746 -7.06006570992419e-17 -1.237025877076506e-16 -7.06006570992419e-17 -1.237025877076506e-16 0.22001394765462437 0.9754967262052892
12669133333.333334 0.231976533311005 0.9727213825103352 -7.211116421872157e-17 -1.2279600050685694e-16 -7.211116421872157e-17 -1.2279600050685694e-16 0.23197585542633475 0.9727215441733718
12669750666.666666 0.24390345963307977 0.969799516590322 -7.361005165116564e-17 -1.2187098204158355e-16 -7.361005165116564e-17 -1.2187098204158355e-16 0.24390278381756478 0.9697996865568943
