! Parameters = {f0=12700.012000; bw=77.238000; Q=6100.000000; N=10; m_0_1=1.260556; m_1_1=0.143588; m_1_2=1.095368; m_2_2=0.142939; m_2_3=0.732331; m_2_8=0.000091; m_2_9=0.036795; m_3_3=0.141002; m_3_4=0.620860; m_3_7=0.000691; m_3_8=-0.096397; m_3_9=0.000091; m_4_4=0.138077; m_4_5=0.457195; m_4_6=0.004208; m_4_7=-0.116946; m_4_8=0.000691; m_5_5=0.138459; m_5_6=0.864550; m_5_7=0.004208; m_6_6=0.138458; m_6_7=0.457537; m_7_7=0.138091; m_7_8=0.620978; m_8_8=0.141000; m_8_9=0.732644; m_9_9=0.142934; m_9_10=1.096446; m_10_10=0.143578; m_10_11=1.261351}
!
! Created with skrf (http://scikit-rf.org).
# Hz S RI R 50.0 
!freq ReS11 ImS11 ReS21 ImS21 ReS12 ImS12 ReS22 ImS22
12607400000.0 0.9822715455847633 0.18746362509656886 -1.0524079454637611e-16 1.0498682196538216e-17 -1.0524079454637611e-16 1.0498682196538216e-17 0.9822714210800624 0.18746427747488587
12608017333.333334 0.9841403049290055 0.17739182679613563 -1.0510611439127613e-16 1.1583226967714112e-17 -1.0510611439127613e-16 1.1583226967714112e-17 0.9841401871192853 0.1773924803835937
12608634666.666666 0.9859057951017832 0.16730141417377842 -1.0496026521404006e-16 1.2666110311102291e-17 -1.0496026521404006e-16 1.2666110311102291e-17 0.9859056839987502 0.16730206890167948
12609252000.0 0.9875678308443181 0.15719344605063704 -1.0480326695784956e-16 1.374721728294758e-17 -1.0480326695784956e-16 1.374721728294758e-17 0.9875677264589725 0.1571941018501698
12609869333.333334 0.9891262377536579 0.14706898308997968 -1.0463514074799065e-16 1.482643317410535e-17 -1.0463514074799065e-16 1.482643317410535e-17 0.9891261400962954 0.1470696398922274
12610486666.666666 0.9905808523009594 0.136929087686045 -1.0445590888914111e-16 1.590364352216042e-17 -1.0445590888914111e-16 1.590364352216042e-17 0.9905807613811679 0.13692974542199238
12611104000.0 0.9919315218486886 0.12677482385225153 -1.0426559486251816e-16 1.6978734123609798e-17 -1.0426559486251816e-16 1.6978734123609798e-17 0.9919314376753505 0.12677548245279227
12611721333.333334 0.9931781046665908 0.11660725710994227 -1.0406422332292577e-16 1.8051591045864823e-17 -1.0406422332292577e-16 1.8051591045864823e-17 0.9931780272478756 0.11660791650588571
12612338666.666666 0.9943204699465906 0.10642745437629295 -1.0385182009565444e-16 1.9122100639361916e-17 -1.0385182009565444e-16 1.9122100639361916e-17 0.9943203992899609 0.10642811449837197
12612956000.0 0.9953584978165211 0.09623648385235725 -1.0362841217326621e-16 2.0190149549578963e-17 -1.0362841217326621e-16 2.0190149549578963e-17 0.995358433928729 0.09623714463123537
12613573333.333334 0.996292079352676 0.08603541491123126 -1.0339402771226813e-16 2.125562472896279e-17 -1.0339402771226813e-16 2.125562472896279e-17 0.9962920222397628 0.08603607627750982
12614190666.666666 0.997121116591267 0.07582531798555764 -1.0314869602964018e-16 2.231841344893094e-17 -1.0314869602964018e-16 2.231841344893094e-17 0.9971210662585627 0.0758259798697832
12614808000.0 0.9978455225386909 0.06560726445534303 -1.0289244759925865e-16 2.3378403311746516e-17 -1.0289244759925865e-16 2.3378403311746516e-17 0.9978454789908128 0.06560792678801448
12615425333.333334 0.9984652211806581 0.0553823265355061 -1.0262531404819007e-16 2.4435482262388346e-17 -1.0262531404819007e-16 2.4435482262388346e-17 0.9984651844215116 0.05538298924708217
12616042666.666666 0.9989801474901723 0.04515157716336655 -1.0234732815286506e-16 2.5489538600374052e-17 -1.0234732815286506e-16 2.5489538600374052e-17 0.9989801175229501 0.045152240184272975
12616660000.0 0.9993902474343525 0.034916089886058085 -1.020585238351306e-16 2.654046099154063e-17 -1.020585238351306e-16 2.654046099154063e-17 0.9993902242615337 0.03491675314669496
12617277333.333334 0.9996954779801012 0.024676938747820575 -1.0175893615818159e-16 2.7588138479784354e-17 -1.0175893615818159e-16 2.7588138479784354e-17 0.9996954616034537 0.024677602178569704
12617894666.666666 0.9998958070986206 0.014435198177581347 -1.0144860132237642e-16 2.863246049873831e-17 -1.0144860132237642e-16 2.863246049873831e-17 0.9998957975191962 0.014435861708813433
12618512000.0 0.9999912137687779 0.004191942875586366 -1.0112755666091986e-16 2.9673316883449894e-17 -1.0112755666091986e-16 2.9673316883449894e-17 0.9999912109869188 0.004192606437668428
12619129333.333334 0.9999816879793062 -0.006051752298575916 -1.007958406354479e-16 3.0710597881939075e-17 -1.007958406354479e-16 3.0710597881939075e-17 0.9999816919946383 -0.006051088775273318
12619746666.666666 0.999867230729857 -0.01629481243936007 -1.0045349283147354e-16 3.174419416677701e-17 -1.0045349283147354e-16 3.174419416677701e-17 0.999867241541293 -0.016294149024455473
12620364000.0 0.9996478540308912 -0.02653616270791498 -1.0010055395372201e-16 3.277399684658579e-17 -1.0010055395372201e-16 3.277399684658579e-17 0.9996478716366329 -0.026535499471008746
12620981333.333334 0.9993235809024273 -0.03677472844464306 -9.973706582135864e-17 3.3799897477462197e-17 -9.973706582135864e-17 3.3799897477462197e-17 0.9993236052999622 -0.03677406545531005
12621598666.666666 0.9988944453716169 -0.04700943528225197 -9.936307136308012e-17 3.482178807440265e-17 -9.936307136308012e-17 3.482178807440265e-17 0.9988944765577215 -0.047008772610034326
12622216000.0 0.9983604924691816 -0.057239209258349764 -9.897861461210493e-17 3.583956112263259e-17 -9.897861461210493e-17 3.583956112263259e-17 0.998360530439918 -0.057238546972749424
12622833333.333334 0.9977217782246776 -0.06746297692819579 -9.858374070103979e-17 3.6853109588900736e-17 -9.858374070103979e-17 3.6853109588900736e-17 0.9977218229753989 -0.06746231509866746
12623450666.666666 0.996978369660633 -0.07767966547722789 -9.817849585663852e-17 3.786232693270108e-17 -9.817849585663852e-17 3.786232693270108e-17 0.9969784211859811 -0.07767900417317161
12624068000.0 0.9961303447854982 -0.08788820283377785 -9.776292739443534e-17 3.886710711746275e-17 -9.776292739443534e-17 3.886710711746275e-17 0.9961304030794035 -0.08788754212453166
12624685333.333334 0.9951777925854612 -0.098087517781596 -9.733708371326869e-17 3.986734462167052e-17 -9.733708371326869e-17 3.986734462167052e-17 0.9951778576411459 -0.09808685773642886
12625302666.666666 0.9941208130151328 -0.1082765400719744 -9.69010142897049e-17 4.086293444989608e-17 -9.69010142897049e-17 4.086293444989608e-17 0.994120884825108 -0.10827588076007864
12625920000.0 0.9929595169870173 -0.11845420053647593 -9.645476967231905e-17 4.185377214383722e-17 -9.645476967231905e-17 4.185377214383722e-17 0.9929595955430884 -0.11845354202696039
12626537333.333334 0.9916940263599159 -0.12861943119872996 -9.599840147589833e-17 4.28397537932159e-17 -9.599840147589833e-17 4.28397537932159e-17 0.9916941116531807 -0.12861877356061244
12627154666.666666 0.9903244739261233 -0.13877116538666873 -9.553196237551083e-17 4.382077604666886e-17 -9.553196237551083e-17 4.382077604666886e-17 0.9903245659469724 -0.13877050868886867
12627772000.0 0.9888510033974669 -0.1489083378446251 -9.505550610046149e-17 4.479673612257332e-17 -9.505550610046149e-17 4.479673612257332e-17 0.988851102135588 -0.14890768215595696
12628389333.333334 0.9872737693902854 -0.1590298848447202 -9.456908742816491e-17 4.5767531819754305e-17 -9.456908742816491e-17 4.5767531819754305e-17 0.9872738748346602 -0.15902923023388532
12629006666.666666 0.9855929374091373 -0.16913474429890477 -9.407276217787055e-17 4.6733061528203675e-17 -9.407276217787055e-17 4.6733061528203675e-17 0.9855930495480468 -0.16913409083448508
12629624000.0 0.9838086838294849 -0.17922185587009928 -9.356658720431332e-17 4.7693224239662083e-17 -9.356658720431332e-17 4.7693224239662083e-17 0.9838088026505092 -0.1792212036205498
12630241333.333334 0.9819211958791613 -0.1892901610836273 -9.30506203912341e-17 4.864791955817832e-17 -9.30506203912341e-17 4.864791955817832e-17 0.9819213213691774 -0.18928951011726833
12630858666.666666 0.9799306716187469 -0.19933860343811594 -9.252492064480873e-17 4.9597047710566996e-17 -9.252492064480873e-17 4.9597047710566996e-17 0.9799308037639368 -0.199337953823127
12631476000.0 0.9778373199207309 -0.20936612851669423 -9.198954788694721e-17 5.054050955684082e-17 -9.198954788694721e-17 5.054050955684082e-17 0.9778374587065785 -0.20936548032110627
12632093333.333334 0.9756413604476807 -0.21937168409716187 -9.144456304852054e-17 5.147820660050785e-17 -9.144456304852054e-17 5.147820660050785e-17 0.975641505858974 -0.21937103738885008
12632710666.666666 0.9733430236291305 -0.2293542202627378 -9.089002806245657e-17 5.241004099884642e-17 -9.089002806245657e-17 5.241004099884642e-17 0.9733431756499639 -0.2293535751094147
12633328000.0 0.9709425506373884 -0.23931268951225768 -9.032600585673124e-17 5.333591557310275e-17 -9.032600585673124e-17 5.333591557310275e-17 0.9709427092511644 -0.23931204598146613
12633945333.333334 0.9684401933622793 -0.24924604686987012 -8.97525603472784e-17 5.4255733818578165e-17 -8.97525603472784e-17 5.4255733818578165e-17 0.9684403585517117 -0.24924540502897635
12634562666.666666 0.965836214384688 -0.25915324999482936 -8.916975643077599e-17 5.5169399914676504e-17 -8.916975643077599e-17 5.5169399914676504e-17 0.9658363861318001 -0.25915260991101524
12635180000.0 0.9631308869490037 -0.26903325929084204 -8.857765997733884e-17 5.60768187348589e-17 -8.857765997733884e-17 5.60768187348589e-17 0.9631310652351339 -0.2690326210310987
12635797333.333334 0.9603244949344447 -0.2788850380151839 -8.797633782310786e-17 5.697789585652582e-17 -8.797633782310786e-17 5.697789585652582e-17 0.9603246797402475 -0.27888440164630496
12636414666.666666 0.957417332825302 -0.28870755238737983 -8.736585776274686e-17 5.787253757080784e-17 -8.736585776274686e-17 5.787253757080784e-17 0.9574175241307489 -0.2887069179759535
12637032000.0 0.9544097056799882 -0.29849977169784503 -8.674628854182411e-17 5.876065089230113e-17 -8.674628854182411e-17 5.876065089230113e-17 0.9544099034643703 -0.2984991393102476
12637649333.333334 0.9513019290990588 -0.3082606684159318 -8.611769984911141e-17 5.964214356869714e-17 -8.611769984911141e-17 5.964214356869714e-17 0.9513021333409897 -0.3082600381183207
12638266666.666666 0.9480943291920875 -0.3179892182977789 -8.548016230877736e-17 6.051692409034269e-17 -8.548016230877736e-17 6.051692409034269e-17 0.9480945398695064 -0.3179885901560863
12638884000.0 0.944787242543448 -0.32768440049378983 -8.483374747248589e-17 6.13849016997148e-17 -8.483374747248589e-17 6.13849016997148e-17 0.9447874596336203 -0.32768377457371506
12639501333.333334 0.941381016176983 -0.33734519765577986 -8.417852781139675e-17 6.224598640081372e-17 -8.417852781139675e-17 6.224598640081372e-17 0.9413812396565029 -0.3373445740227824
12640118666.666666 0.9378760075196493 -0.34697059604356967 -8.351457670808385e-17 6.310008896845457e-17 -8.351457670808385e-17 6.310008896845457e-17 0.9378762373644433 -0.3469699747628628
12640736000.0 0.9342725843638536 -0.35655958563178736 -8.284196844831935e-17 6.394712095752495e-17 -8.284196844831935e-17 6.394712095752495e-17 0.9342728205491835 -0.35655896676833143
12641353333.333334 0.9305711248290995 -0.3661111602152151 -8.216077821283804e-17 6.478699471206181e-17 -8.216077821283804e-17 6.478699471206181e-17 0.9305713673295629 -0.3661105438337101
12641970666.666666 0.9267720173220969 -0.37562431751493136 -8.147108206892661e-17 6.561962337434604e-17 -8.147108206892661e-17 6.561962337434604e-17 0.9267722661116315 -0.3756237036798106
12642588000.0 0.9228756604961069 -0.3850980592832184 -8.077295696197851e-17 6.64449208938355e-17 -8.077295696197851e-17 6.64449208938355e-17 0.9228759155479943 -0.38509744805864204
12643205333.333334 0.9188824632091027 -0.39453139140833854 -8.006648070693883e-17 6.726280203603487e-17 -8.006648070693883e-17 6.726280203603487e-17 0.9188827244959683 -0.3945307828581862
12643822666.666666 0.9147928444808183 -0.40392332401895376 -7.9351731979653e-17 6.807318239128079e-17 -7.9351731979653e-17 6.807318239128079e-17 0.9147931119746375 -0.40392271820681863
12644440000.0 0.9106072334488375 -0.41327287158786596 -7.862879030814512e-17 6.8875978383416e-17 -7.862879030814512e-17 6.8875978383416e-17 0.9106075071209372 -0.41327226857704763
12645057333.333334 0.9063260693235415 -0.42257905303548415 -7.789773606379665e-17 6.967110727838419e-17 -7.789773606379665e-17 6.967110727838419e-17 0.9063263491446013 -0.4225784528889816
12645674666.666666 0.9019498013420656 -0.43184089183266844 -7.715865045244112e-17 7.04584871927299e-17 -7.715865045244112e-17 7.04584871927299e-17 0.901950087282125 -0.4318402946131747
12646292000.0 0.8974788887210099 -0.44105741610353794 -7.641161550535856e-17 7.123803710201914e-17 -7.641161550535856e-17 7.123803710201914e-17 0.8974791807494672 -0.441056821873432
12646909333.333334 0.8929138006084473 -0.45022765872701115 -7.565671407022576e-17 7.20096768491214e-17 -7.565671407022576e-17 7.20096768491214e-17 0.8929140986940667 -0.4502270675483529
12647526666.666666 0.8882550160345701 -0.4593506574385764 -7.48940298019373e-17 7.277332715244684e-17 -7.48940298019373e-17 7.277332715244684e-17 0.8882553201454836 -0.45935006937309975
12648144000.0 0.88350302386143 -0.46842545493123666 -7.412364715336474e-17 7.352890961406141e-17 -7.412364715336474e-17 7.352890961406141e-17 0.8835033339651386 -0.46842487004034195
12648761333.333334 0.8786583227316898 -0.4774510989558614 -7.334565136604206e-17 7.42763467276996e-17 -7.334565136604206e-17 7.42763467276996e-17 0.8786586387950706 -0.47745051730061067
12649378666.666666 0.8737214210163049 -0.48642664242111133 -7.256012846076185e-17 7.501556188668699e-17 -7.256012846076185e-17 7.501556188668699e-17 0.8737217430056112 -0.4864260640622205
12649996000.0 0.868692836761107 -0.49535114349294407 -7.17671652280809e-17 7.574647939177377e-17 -7.17671652280809e-17 7.574647939177377e-17 0.8686931646419752 -0.4953505684907776
12650613333.333334 0.863573097632487 -0.5042236656933691 -7.096684921876516e-17 7.646902445885234e-17 -7.096684921876516e-17 7.646902445885234e-17 0.8635734313699382 -0.5042230941079335
12651230666.666666 0.8583627408620792 -0.5130432779986169 -7.015926873415902e-17 7.71831232265719e-17 -7.015926873415902e-17 7.71831232265719e-17 0.8583630804205232 -0.5130427098895541
12651848000.0 0.8530623131902483 -0.5218090549370812 -6.93445128164481e-17 7.788870276388019e-17 -6.93445128164481e-17 7.788870276388019e-17 0.8530626585334877 -0.5218084903636625
12652465333.333334 0.8476723708088444 -0.5305200766862092 -6.852267123888806e-17 7.858569107742461e-17 -6.852267123888806e-17 7.858569107742461e-17 0.8476727219000783 -0.5305195157073294
12653082666.666666 0.842193479302842 -0.5391754291690238 -6.769383449593997e-17 7.927401711886883e-17 -6.769383449593997e-17 7.927401711886883e-17 0.8421938361046709 -0.5391748718431952
12653700000.0 0.836626213590844 -0.5477742041502834 -6.685809379330959e-17 7.995361079212458e-17 -6.685809379330959e-17 7.995361079212458e-17 0.8366265760652709 -0.5477736505356279
12654317333.333334 0.8309711578649599 -0.5563154993314456 -6.60155410379693e-17 8.06244029604334e-17 -6.60155410379693e-17 8.06244029604334e-17 0.830971525973399 -0.5563149494856917
12654934666.666666 0.8252289055293597 -0.5647984184455932 -6.516626882805418e-17 8.128632545338854e-17 -6.516626882805418e-17 8.128632545338854e-17 0.8252292792326353 -0.5647978724260672
12655552000.0 0.8194000591379957 -0.5732220713514766 -6.431037044271112e-17 8.193931107383201e-17 -6.431037044271112e-17 8.193931107383201e-17 0.819400438396351 -0.5732215292150984
12656169333.333334 0.8134852303315245 -0.5815855741267106 -6.344793983190041e-17 8.258329360462895e-17 -6.344793983190041e-17 8.258329360462895e-17 0.8134856151046214 -0.5815850359299864
12656786666.666666 0.8074850397729606 -0.5898880491607602 -6.257907160608543e-17 8.321820781536958e-17 -6.257907160608543e-17 8.321820781536958e-17 0.807485430019889 -0.5898875149597786
12657404000.0 0.8014001170826351 -0.5981286252469177 -6.170386102589076e-17 8.38439894689356e-17 -6.170386102589076e-17 8.38439894689356e-17 0.8014005127619116 -0.5981280950973404
12658021333.333334 0.7952311007720674 -0.6063064376737836 -6.082240399167858e-17 8.446057532797081e-17 -6.082240399167858e-17 8.446057532797081e-17 0.7952315018416454 -0.6063059116308442
12658638666.666666 0.7889786381771462 -0.614420628315785 -5.993479703307804e-17 8.506790316123087e-17 -5.993479703307804e-17 8.506790316123087e-17 0.7889790445944156 -0.614420106434279
12659256000.0 0.7826433853898503 -0.6224703457236678 -5.90411372984146e-17 8.5665911749848e-17 -5.90411372984146e-17 8.5665911749848e-17 0.782643797111645 -0.6224698280579497
12659873333.333334 0.776226007189715 -0.630454745213437 -5.814152254412399e-17 8.625454089345336e-17 -5.814152254412399e-17 8.625454089345336e-17 0.7762264241723172 -0.6304542318174141
12660490666.666666 0.7697271769740636 -0.63837298895502 -5.723605112408405e-17 8.683373141620447e-17 -5.723605112408405e-17 8.683373141620447e-17 0.7697275991732062 -0.638372479882145
12661108000.0 0.7631475766870733 -0.646224246060511 -5.632482197886125e-17 8.740342517271577e-17 -5.632482197886125e-17 8.740342517271577e-17 0.7631480040579471 -0.6462237413637782
12661725333.333334 0.7564878967485411 -0.6540076926709633 -5.5407934624959e-17 8.796356505383907e-17 -5.5407934624959e-17 8.796356505383907e-17 0.7564883292457985 -0.6540071924029031
12662342666.666666 0.7497488359812198 -0.6617225120431034 -5.44854891439463e-17 8.851409499237094e-17 -5.44854891439463e-17 8.851409499237094e-17 0.7497492735589797 -0.6617220162557763
12662960000.0 0.7429311015375764 -0.6693678946349245 -5.355758617157021e-17 8.90549599686213e-17 -5.355758617157021e-17 8.90549599686213e-17 0.74293154414943 -0.6693674033799164
12663577333.333334 0.7360354088255738 -0.6769430381906577 -5.262432688679864e-17 8.95861060158777e-17 -5.262432688679864e-17 8.95861060158777e-17 0.7360358564245872 -0.6769425515190726
12664194666.666666 0.7290624814335979 -0.6844471478249537 -5.168581300081161e-17 9.010748022575308e-17 -5.168581300081161e-17 9.010748022575308e-17 0.7290629339723187 -0.6844466657874102
12664812000.0 0.722013051054527 -0.6918794361062921 -5.0742146745940385e-17 9.061903075341928e-17 -5.0742146745940385e-17 9.061903075341928e-17 0.7220135084849905 -0.6918789587529184
12665429333.333334 0.7148878574089392 -0.6992391231396337 -4.9793430864549986e-17 9.112070682272729e-17 -4.9793430864549986e-17 9.112070682272729e-17 0.7148883196826709 -0.6992386505200607
12666046666.666666 0.7076876481675849 -0.7065254366481513 -4.8839768597902706e-17 9.161245873119476e-17 -4.8839768597902706e-17 9.161245873119476e-17 0.7076881152356063 -0.7065249688115085
12666664000.0 0.7004131788727128 -0.7137376120544919 -4.788126367488959e-17 9.209423785492174e-17 -4.788126367488959e-17 9.209423785492174e-17 0.7004136506855488 -0.7137371490494029
12667281333.333334 0.6930652128590714 -0.7208748925607253 -4.691802030084466e-17 9.256599665332027e-17 -4.691802030084466e-17 9.256599665332027e-17 0.6930656893667528 -0.7208744344353015
12667898666.666666 0.6856445211736059 -0.7279365292279572 -4.595014314618719e-17 9.302768867379243e-17 -4.595014314618719e-17 9.302768867379243e-17 0.6856450023256757 -0.7279360760297927
12668516000.0 0.6781518824945486 -0.7349217810549149 -4.4977737335070866e-17 9.347926855626232e-17 -4.4977737335070866e-17 9.347926855626232e-17 0.6781523682400679 -0.734921332831083
12669133333.333334 0.6705880830498958 -0.7418299150555293 -4.400090843403713e-17 9.392069203756789e-17 -4.400090843403713e-17 9.392069203756789e-17 0.6705885733374487 -0.7418294718525769
12669750666.666666 0.6629539165347007 -0.7486602063360449 -4.3019762440524597e-17 9.435191595578178e-17 -4.3019762440524597e-17 9.435191595578178e-17 0.6629544113123993 -0.748659768199987
12670368000.0 0.6552501840278673 -0.7554119381710046 -4.2034405771414295e-17 9.477289825437676e-17 -4.2034405771414295e-17 9.477289825437676e-17 0.6552506832433581 -0.7554115051473203
