! Parameters = {f0=12700.012000; bw=77.238000; Q=6100.000000; N=10; m_0_1=1.182878; m_1_1=-1.021578; m_1_2=1.017690; m_2_2=-1.022227; m_2_3=0.654653; m_2_8=-0.003792; m_2_9=0.032912; m_3_3=-1.024164; m_3_4=0.543182; m_3_7=-0.003192; m_3_8=-0.100280; m_3_9=-0.003792; m_4_4=-1.027089; m_4_5=0.379517; m_4_6=0.000325; m_4_7=-0.120829; m_4_8=-0.003192; m_5_5=-1.026707; m_5_6=0.786872; m_5_7=0.000325; m_6_6=-1.026708; m_6_7=0.379859; m_7_7=-1.027075; m_7_8=0.543300; m_8_8=-1.024166; m_8_9=0.654966; m_9_9=-1.022232; m_9_10=1.018768; m_10_10=-1.021588; m_10_11=1.183673}
!
! Created with skrf (http://scikit-rf.org).
# Hz S RI R 50.0 
!freq ReS11 ImS11 ReS21 ImS21 ReS12 ImS12 ReS22 ImS22
12607400000.0 -0.9999729120998609 0.0073603713473734435 6.88535307561488e-17 -2.0950057524055345e-17 6.88535307561488e-17 -2.0950057524055345e-17 -0.9999729166878244 0.007359748004619689
12608017333.333334 -0.9998828375222644 0.01530722797481165 6.866949988190977e-17 -2.149847548058596e-17 6.866949988190977e-17 -2.149847548058596e-17 -0.9998828470635102 0.015306604718728727
12608634666.666666 -0.9997296097010893 0.023253117785683418 6.848110543499341e-17 -2.2045289942605703e-17 6.848110543499341e-17 -2.2045289942605703e-17 -0.9997296241945303 0.023252494655626187
12609252000.0 -0.9995132383143586 0.031197538912418447 6.828836129035909e-17 -2.259046622765155e-17 6.828836129035909e-17 -2.259046622765155e-17 -0.9995132577585936 0.031196915947729914
12609869333.333334 -0.9992337370282779 0.0391399895803522 6.809128159833119e-17 -2.3133969772595137e-17 6.809128159833119e-17 -2.3133969772595137e-17 -0.9992337614215944 0.0391393668203611
12610486666.666666 -0.9988911234963851 0.04707996813907742 6.788988078357687e-17 -2.367576613583268e-17 6.788988078357687e-17 -2.367576613583268e-17 -0.9988911528367581 0.04707934562309572
12611104000.0 -0.9984854193584217 0.05501697309452647 6.76841735440642e-17 -2.4215820999467584e-17 6.76841735440642e-17 -2.4215820999467584e-17 -0.9984854536435132 0.05501635086184683
12611721333.333334 -0.9980166502389757 0.0629505031403334 6.747417485001472e-17 -2.475410017145576e-17 6.747417485001472e-17 -2.475410017145576e-17 -0.9980166894661363 0.0629498812302268
12612338666.666666 -0.9974848457458615 0.07088005718961064 6.725989994282133e-17 -2.5290569587787904e-17 6.725989994282133e-17 -2.5290569587787904e-17 -0.9974848899121298 0.0708794356413238
12612956000.0 -0.9968900394682408 0.07880513440668273 6.704136433396325e-17 -2.5825195314624194e-17 6.704136433396325e-17 -2.5825195314624194e-17 -0.996890088570345 0.07880451325943576
12613573333.333334 -0.9962322689745173 0.08672523423854964 6.681858380390045e-17 -2.6357943550431634e-17 6.681858380390045e-17 -2.6357943550431634e-17 -0.996232323008872 0.08672461353153336
12614190666.666666 -0.9955115758099536 0.09463985644658687 6.659157440094779e-17 -2.688878062811723e-17 6.659157440094779e-17 -2.688878062811723e-17 -0.9955116347726625 0.09463923621896048
12614808000.0 -0.9947280054940401 0.10254850113822564 6.636035244013269e-17 -2.7417673017154e-17 6.636035244013269e-17 -2.7417673017154e-17 -0.9947280693808974 0.10254788142911432
12615425333.333334 -0.9938816075176407 0.11045066879832864 6.612493450204201e-17 -2.794458732568e-17 6.612493450204201e-17 -2.794458732568e-17 -0.9938816763241296 0.11045004964682094
12616042666.666666 -0.992972435339843 0.11834586032096583 6.588533743164585e-17 -2.8469490302604686e-17 6.588533743164585e-17 -2.8469490302604686e-17 -0.9929725090611361 0.1183452417661112
12616660000.0 -0.9920005463846012 0.12623357704074015 6.564157833710467e-17 -2.8992348839705484e-17 6.564157833710467e-17 -2.8992348839705484e-17 -0.9920006250155616 0.1262329591215467
12617277333.333334 -0.9909660020370997 0.13411332076439722 6.539367458856649e-17 -2.951312997369708e-17 6.539367458856649e-17 -2.951312997369708e-17 -0.9909660855722813 0.134112703519829
12617894666.666666 -0.9898688676398818 0.1419845938022346 6.514164381694159e-17 -3.003180088830792e-17 6.514164381694159e-17 -3.003180088830792e-17 -0.9898689560735278 0.14198397727120918
12618512000.0 -0.9887092124887055 0.1498468989996489 6.488550391265929e-17 -3.054832891634579e-17 6.488550391265929e-17 -3.054832891634579e-17 -0.9887093058147518 0.14984628322103505
12619129333.333334 -0.987487109828192 0.15769973976836754 6.462527302441749e-17 -3.1062681541736815e-17 6.462527302441749e-17 -3.1062681541736815e-17 -0.9874872080402656 0.15769912478098277
12619746666.666666 -0.986202636847189 0.16554262011789836 6.436096955790754e-17 -3.157482640157026e-17 6.436096955790754e-17 -3.157482640157026e-17 -0.9862027399386085 0.16554200596050622
12620364000.0 -0.984855874673878 0.17337504468694026 6.409261217452273e-17 -3.2084731288132514e-17 6.409261217452273e-17 -3.2084731288132514e-17 -0.9848559826376554 0.1733744313982483
12620981333.333334 -0.9834469083706799 0.18119651877450246 6.382021979006006e-17 -3.25923641509143e-17 6.382021979006006e-17 -3.25923641509143e-17 -0.9834470211995199 0.18119590639315958
12621598666.666666 -0.9819758269288712 0.18900654837123482 6.354381157339647e-17 -3.309769309862274e-17 6.354381157339647e-17 -3.309769309862274e-17 -0.9819759446151707 0.1890059369358285
12622216000.0 -0.9804427232629408 0.1968046401907125 6.326340694515026e-17 -3.3600686401182795e-17 6.326340694515026e-17 -3.3600686401182795e-17 -0.980442845798793 0.19680402973976724
12622833333.333334 -0.9788476942047546 0.2045903017004537 6.297902557633478e-17 -3.410131249171107e-17 6.297902557633478e-17 -3.410131249171107e-17 -0.9788478215819455 0.20458969227242757
12623450666.666666 -0.9771908404974421 0.2123630411529998 6.269068738698727e-17 -3.459953996849646e-17 6.269068738698727e-17 -3.459953996849646e-17 -0.9771909727074536 0.21236243278628283
12624068000.0 -0.9754722667889877 0.22012236761719756 6.239841254478745e-17 -3.5095337596958285e-17 6.239841254478745e-17 -3.5095337596958285e-17 -0.9754724038229972 0.22012176035010897
12624685333.333334 -0.9736920816256582 0.2278677910090398 6.210222146365533e-17 -3.558867431160397e-17 6.210222146365533e-17 -3.558867431160397e-17 -0.9736922234745384 0.22786718487982538
12625302666.666666 -0.9718503974451562 0.23559882212256342 6.180213480234471e-17 -3.6079519217955444e-17 6.180213480234471e-17 -3.6079519217955444e-17 -0.9718505440994777 0.23559821716939355
12625920000.0 -0.9699473305694689 0.24331497266096988 6.149817346300529e-17 -3.656784159448983e-17 6.149817346300529e-17 -3.656784159448983e-17 -0.9699474820194992 0.2433143689219369
12626537333.333334 -0.9679830011975945 0.25101575526716235 6.119035858974528e-17 -3.705361089454424e-17 6.119035858974528e-17 -3.705361089454424e-17 -0.9679831574332999 0.2510151527802783
12627154666.666666 -0.9659575333978914 0.25870068355477654 6.087871156717433e-17 -3.7536796748215273e-17 6.087871156717433e-17 -3.7536796748215273e-17 -0.9659576944089358 0.25870008235797043
12627772000.0 -0.9638710551002421 0.2663692721388718 6.056325401891384e-17 -3.801736896427384e-17 6.056325401891384e-17 -3.801736896427384e-17 -0.9638712208759896 0.2663686722699876
12628389333.333334 -0.9617236980880238 0.2740210366664254 6.024400780613144e-17 -3.849529753200792e-17 6.024400780613144e-17 -3.849529753200792e-17 -0.9617238686175387 0.2740204381632196
12629006666.666666 -0.9595155979897199 0.28165549384714234 5.992099502601658e-17 -3.8970552623119094e-17 5.992099502601658e-17 -3.8970552623119094e-17 -0.9595157732617663 0.28165489674728117
12629624000.0 -0.957246894270417 0.2892721614837624 5.959423801027196e-17 -3.944310459356313e-17 5.959423801027196e-17 -3.944310459356313e-17 -0.9572470742734627 0.28927156582482033
12630241333.333334 -0.9549177302229267 0.2968705585027615 5.9263759323581e-17 -3.991292398538893e-17 5.9263759323581e-17 -3.991292398538893e-17 -0.9549179149451397 0.2968699643222178
12630858666.666666 -0.9525282529588291 0.3044502049844095 5.892958176205858e-17 -4.037998152857052e-17 5.892958176205858e-17 -4.037998152857052e-17 -0.9525284423880812 0.30444961231964657
12631476000.0 -0.950078613399068 0.3120106221934631 5.859172835168562e-17 -4.0844248142827364e-17 5.859172835168562e-17 -4.0844248142827364e-17 -0.9500788075229359 0.3120100310817641
12632093333.333334 -0.9475689662645012 0.31955133260913127 5.825022234673936e-17 -4.1305694939418833e-17 5.825022234673936e-17 -4.1305694939418833e-17 -0.9475691650702656 0.3195507430876777
12632710666.666666 -0.9449994700661403 0.32707185995521004 5.790508722820423e-17 -4.176429322293189e-17 5.790508722820423e-17 -4.176429322293189e-17 -0.9449996735407874 0.32707127206107917
12633328000.0 -0.9423702870950201 0.3345717292305142 5.75563467021583e-17 -4.2220014493070515e-17 5.75563467021583e-17 -4.2220014493070515e-17 -0.9423704952252422 0.3345711430006768
12633945333.333334 -0.9396815834120933 0.3420504667384473 5.720402469816275e-17 -4.2672830446409115e-17 5.720402469816275e-17 -4.2672830446409115e-17 -0.9396817961842898 0.34204988220976534
12634562666.666666 -0.9369335288376692 0.34950760011713655 5.684814536763222e-17 -4.312271297813864e-17 5.684814536763222e-17 -4.312271297813864e-17 -0.936933746237949 0.34950701732636136
12635180000.0 -0.9341262969406703 0.3569426583693211 5.648873308218135e-17 -4.356963418381439e-17 5.648873308218135e-17 -4.356963418381439e-17 -0.9341265189548508 0.3569420773530906
12635797333.333334 -0.9312600650277252 0.36435517189194 5.612581243197401e-17 -4.4013566361066954e-17 5.612581243197401e-17 -4.4013566361066954e-17 -0.9312602916413331 0.36435459268677606
12636414666.666666 -0.92833501413193 0.3717446725058984 5.575940822404628e-17 -4.445448201131775e-17 5.575940822404628e-17 -4.445448201131775e-17 -0.9283352453302035 0.3717440951482053
12637032000.0 -0.9253513290014369 0.3791106934855862 5.5389545480621655e-17 -4.489235384147216e-17 5.5389545480621655e-17 -4.489235384147216e-17 -0.9253515647693267 0.3791101180116481
12637649333.333334 -0.922309198087742 0.3864527695884623 5.5016249437413537e-17 -4.5327154765599266e-17 5.5016249437413537e-17 -4.5327154765599266e-17 -0.9223094384099109 0.3864521960344406
12638266666.666666 -0.9192088135338472 0.3937704370842806 5.463954554190808e-17 -4.575885790660517e-17 5.463954554190808e-17 -4.575885790660517e-17 -0.9192090583946712 0.3937698654862117
12638884000.0 -0.9160503711620888 0.4010632337844587 5.425945945164795e-17 -4.618743659787484e-17 5.425945945164795e-17 -4.618743659787484e-17 -0.9160506205456606 0.40106266417825265
12639501333.333334 -0.9128340704617296 0.40833069907137515 5.387601703248272e-17 -4.661286438492493e-17 5.387601703248272e-17 -4.661286438492493e-17 -0.9128343243518562 0.408330131492812
12640118666.666666 -0.9095601145764922 0.41557237392714946 5.348924435683552e-17 -4.7035115027008275e-17 5.348924435683552e-17 -4.7035115027008275e-17 -0.9095603729566987 0.4155718084118781
12640736000.0 -0.9062287102915085 0.42278780096312646 5.30991677019139e-17 -4.74541624987525e-17 5.30991677019139e-17 -4.74541624987525e-17 -0.9062289731450378 0.42278723754666203
12641353333.333334 -0.9028400680205073 0.42997652444822315 5.270581354796403e-17 -4.7869980991722544e-17 5.270581354796403e-17 -4.7869980991722544e-17 -0.9028403353303205 0.4299759631659442
12641970666.666666 -0.8993944017923564 0.4371380903380731 5.230920857645642e-17 -4.828254491602989e-17 5.230920857645642e-17 -4.828254491602989e-17 -0.8993946735411361 0.43713753122522075
12642588000.0 -0.8958919292375686 0.4442720463036531 5.190937966830167e-17 -4.8691828901880634e-17 5.190937966830167e-17 -4.8691828901880634e-17 -0.8958922054077179 0.44427148939532746
12643205333.333334 -0.8923328715746307 0.451377941759699 5.150635390203381e-17 -4.9097807801131454e-17 5.150635390203381e-17 -4.9097807801131454e-17 -0.8923331521482754 0.4513773870908576
12643822666.666666 -0.8887174535959413 0.4584553278933429 5.110015855197572e-17 -4.950045668883616e-17 5.110015855197572e-17 -4.950045668883616e-17 -0.8887177385549322 0.45845477549879926
12644440000.0 -0.8850459036536426 0.46550375769241104 5.0690821086418965e-17 -4.98997508647494e-17 5.0690821086418965e-17 -4.98997508647494e-17 -0.8850461929795526 0.4655032076068301
12645057333.333334 -0.8813184536452683 0.47252278597350295 5.027836916576319e-17 -5.0295665854846436e-17 5.027836916576319e-17 -5.0295665854846436e-17 -0.8813187473193983 0.4725222382314016
12645674666.666666 -0.8775353389989999 0.4795119694103146 4.9862830640665403e-17 -5.068817741280378e-17 4.9862830640665403e-17 -5.068817741280378e-17 -0.8775356370023779 0.4795114240460581
12646292000.0 -0.8736967986588043 0.4864708665616116 4.944423355015414e-17 -5.1077261521489497e-17 4.944423355015414e-17 -5.1077261521489497e-17 -0.873697100972186 0.48647032360941156
12646909333.333334 -0.869803075069411 0.4933990378989862 4.902260611976088e-17 -5.1462894394409607e-17 4.902260611976088e-17 -5.1462894394409607e-17 -0.869803381673282 0.49339849739289854
12647526666.666666 -0.8658544141609594 0.5002960458346939 4.859797675962095e-17 -5.184505247715702e-17 4.859797675962095e-17 -5.184505247715702e-17 -0.865854725035537 0.5002955078086171
12648144000.0 -0.861851065333437 0.5071614547493408 4.817037406255791e-17 -5.222371244885104e-17 4.817037406255791e-17 -5.222371244885104e-17 -0.8618513804586703 0.5071609192370131
12648761333.333334 -0.8577932814409399 0.513994831019372 4.7739826802184484e-17 -5.2598851223534503e-17 4.7739826802184484e-17 -5.2598851223534503e-17 -0.8577936007965107 0.5139942980543694
12649378666.666666 -0.8536813187757885 0.5207957430443126 4.730636393096319e-17 -5.297044595158298e-17 4.730636393096319e-17 -5.297044595158298e-17 -0.8536816423411145 0.5207952126600476
12649996000.0 -0.8495154370522288 0.5275637612742264 4.687001457827262e-17 -5.3338474021083174e-17 4.687001457827262e-17 -5.3338474021083174e-17 -0.8495157648064636 0.5275632335039445
12650613333.333334 -0.8452958993900201 0.5342984582368409 4.643080804845051e-17 -5.370291305920574e-17 4.643080804845051e-17 -5.370291305920574e-17 -0.8452962313120546 0.5342979331136198
12651230666.666666 -0.8410229722979878 0.5409994085642856 4.5988773818851264e-17 -5.4063740933541566e-17 4.5988773818851264e-17 -5.4063740933541566e-17 -0.8410233083664512 0.5409988861210322
12651848000.0 -0.8366969256569139 0.547666189020389 4.55439415378561e-17 -5.442093575345326e-17 4.55439415378561e-17 -5.442093575345326e-17 -0.836697265850177 0.5476656692898383
12652465333.333334 -0.8323180327027541 0.5542983785270045 4.5096341022901935e-17 -5.4774475871385607e-17 4.5096341022901935e-17 -5.4774475871385607e-17 -0.8323183769989274 0.5542978615417159
12653082666.666666 -0.8278865700092517 0.5608955581907948 4.4646002258502006e-17 -5.512433988415875e-17 4.4646002258502006e-17 -5.512433988415875e-17 -0.8278869183861916 0.560895043983153
12653700000.0 -0.8234028174704298 0.5674573113297643 4.4192955394217535e-17 -5.547050663427719e-17 4.4192955394217535e-17 -5.547050663427719e-17 -0.8234031699057345 0.567456799931974
12654317333.333334 -0.8188670582830795 0.5739832234993137 4.3737230742681896e-17 -5.581295521117128e-17 4.3737230742681896e-17 -5.581295521117128e-17 -0.8188674147540937 0.5739827149433989
12654934666.666666 -0.8142795789286694 0.580472882518724 4.3278858777552477e-17 -5.615166495247322e-17 4.3278858777552477e-17 -5.615166495247322e-17 -0.8142799394124859 0.5804723768365267
12655552000.0 -0.8096406691553456 0.5869258784970479 4.281787013149193e-17 -5.648661544524443e-17 4.281787013149193e-17 -5.648661544524443e-17 -0.8096410336288054 0.5869253757202254
12656169333.333334 -0.8049506219597319 0.5933418038588619 4.235429559413918e-17 -5.681778652718893e-17 4.235429559413918e-17 -5.681778652718893e-17 -0.8049509903994264 0.593341304018885
12656786666.666666 -0.8002097335682067 0.5997202533703082 4.188816611003985e-17 -5.714515828787193e-17 4.188816611003985e-17 -5.714515828787193e-17 -0.8002101059504793 0.5997197564984589
12657404000.0 -0.795418303418396 0.6060608241644141 4.1419512776608343e-17 -5.746871106989245e-17 4.1419512776608343e-17 -5.746871106989245e-17 -0.7954186797193428 0.6060603302917835
12658021333.333334 -0.7905766341400876 0.612363115766763 4.0948366842044846e-17 -5.77884254700648e-17 4.0948366842044846e-17 -5.77884254700648e-17 -0.7905770143355607 0.6123626249242513
12658638666.666666 -0.7856850315363272 0.6186267301205218 4.047475970327961e-17 -5.810428234055785e-17 4.047475970327961e-17 -5.810428234055785e-17 -0.7856854156019342 0.618626242338833
12659256000.0 -0.7807438045638764 0.6248512716118714 3.999872290386713e-17 -5.841626279004592e-17 3.999872290386713e-17 -5.841626279004592e-17 -0.7807441924749825 0.624850786921514
12659873333.333334 -0.7757532653138011 0.6310363470948589 3.9520288131903146e-17 -5.872434818482103e-17 3.9520288131903146e-17 -5.872434818482103e-17 -0.775753657045533 0.6310358655261443
12660490666.666666 -0.7707137289918893 0.6371815659160781 3.903948721793496e-17 -5.90285201498873e-17 3.903948721793496e-17 -5.90285201498873e-17 -0.7707141245191325 0.6371810874991152
12661108000.0 -0.7656255138984148 0.6432865399397348 3.855635213282134e-17 -5.932876057006565e-17 3.855635213282134e-17 -5.932876057006565e-17 -0.7656259131958195 0.6432860647044331
12661725333.333334 -0.7604889414084163 0.6493508835717056 3.807091498565154e-17 -5.962505159103747e-17 3.807091498565154e-17 -5.962505159103747e-17 -0.7604893444503954 0.6493504115477687
12662342666.666666 -0.7553043359511424 0.6553742137841955 3.758320802158706e-17 -5.991737562041574e-17 3.758320802158706e-17 -5.991737562041574e-17 -0.7553047427118755 0.655373745001122
12662960000.0 -0.7500720249895974 0.6613561501398872 3.7093263619749635e-17 -6.020571532876432e-17 3.7093263619749635e-17 -6.020571532876432e-17 -0.7500724354430323 0.6613556846269687
12663577333.333334 -0.7447923389999697 0.6672963148158407 3.6601114291063957e-17 -6.049005365062327e-17 3.6601114291063957e-17 -6.049005365062327e-17 -0.7447927531198232 0.6672958526021591
12664194666.666666 -0.7394656114506105 0.6731943326275287 3.610679267612e-17 -6.077037378549975e-17 3.610679267612e-17 -6.077037378549975e-17 -0.7394660292103694 0.6731938737419537
12664812000.0 -0.7340921787810991 0.6790498310523807 3.5610331543011e-17 -6.104665919885238e-17 3.5610331543011e-17 -6.104665919885238e-17 -0.7340926001540248 0.6790493755235708
12665429333.333334 -0.7286723803809242 0.6848624402534028 3.511176378516174e-17 -6.131889362305821e-17 3.511176378516174e-17 -6.131889362305821e-17 -0.7286728053400507 0.6848619881098005
12666046666.666666 -0.7232065585680806 0.6906317931024906 3.4611122419178037e-17 -6.158706105834709e-17 3.4611122419178037e-17 -6.158706105834709e-17 -0.7232069870862196 0.6906313443723221
12666664000.0 -0.7176950585673733 0.696357525203701 3.4108440582634347e-17 -6.185114577374782e-17 3.4108440582634347e-17 -6.185114577374782e-17 -0.7176954906171129 0.6963570799149739
12667281333.333334 -0.7121382284887284 0.7020392749161437 3.36037515319269e-17 -6.21111323079777e-17 3.36037515319269e-17 -6.21111323079777e-17 -0.7121386640424378 0.7020388330966463
12667898666.666666 -0.7065364193051485 0.7076766833768845 3.3097088640049274e-17 -6.236700547035237e-17 3.3097088640049274e-17 -6.236700547035237e-17 -0.7065368583349775 0.7076762450541829
12668516000.0 -0.700889984830486 0.7132693945236744 3.258848539440532e-17 -6.261875034165359e-17 3.258848539440532e-17 -6.261875034165359e-17 -0.7008904273083675 0.713268959725111
12669133333.333334 -0.6951992816972139 0.7188170551173132 3.207797539461444e-17 -6.286635227498134e-17 3.207797539461444e-17 -6.286635227498134e-17 -0.6951997275948659 0.7188166238700052
12669750666.666666 -0.6894646693338415 0.7243193147640236 3.1565592350275863e-17 -6.310979689660432e-17 3.1565592350275863e-17 -6.310979689660432e-17 -0.6894651186227692 0.7243188870948615
12670368000.0 -0.6836865099421318 0.7297758259376615 3.105137007877015e-17 -6.334907010677142e-17 3.105137007877015e-17 -6.334907010677142e-17 -0.6836869625936283 0.7297754018733069
