! Parameters = {f0=12700.012000; bw=77.238000; Q=6100.000000; N=10; m_0_1=1.170265; m_1_1=-1.210767; m_1_2=1.005077; m_2_2=-1.211416; m_2_3=0.642040; m_2_8=-0.004423; m_2_9=0.032281; m_3_3=-1.213353; m_3_4=0.530569; m_3_7=-0.003823; m_3_8=-0.100911; m_3_9=-0.004423; m_4_4=-1.216278; m_4_5=0.366904; m_4_6=-0.000306; m_4_7=-0.121460; m_4_8=-0.003823; m_5_5=-1.215896; m_5_6=0.774259; m_5_7=-0.000306; m_6_6=-1.215897; m_6_7=0.367246; m_7_7=-1.216264; m_7_8=0.530687; m_8_8=-1.213355; m_8_9=0.642353; m_9_9=-1.211421; m_9_10=1.006155; m_10_10=-1.210777; m_10_11=1.171060}
!
! Created with skrf (http://scikit-rf.org).
# Hz S RI R 50.0 
!freq ReS11 ImS11 ReS21 ImS21 ReS12 ImS12 ReS22 ImS22
12607400000.0 -0.23925377866550912 -0.9709570687698426 3.405103173551238e-17 5.816828085289974e-17 3.405103173551238e-17 5.816828085289974e-17 -0.23925317984271555 -0.970957216325724
12608017333.333334 -0.2466013845546748 -0.9691169986825984 3.4489026477222155e-17 5.789429252937706e-17 3.4489026477222155e-17 5.789429252937706e-17 -0.24660078689598539 -0.969117150762554
12608634666.666666 -0.25393484213852063 -0.9672213272813698 3.492482370192855e-17 5.761701071397186e-17 3.492482370192855e-17 5.761701071397186e-17 -0.25393424567810924 -0.9672214838762317
12609252000.0 -0.2612537306733491 -0.9652701633268829 3.535839867933766e-17 5.733645297964558e-17 3.535839867933766e-17 5.733645297964558e-17 -0.26125313544531764 -0.9652703244272252
12609869333.333334 -0.2685576302513362 -0.9632636187636469 3.5789726819304126e-17 5.705263708477924e-17 3.5789726819304126e-17 5.705263708477924e-17 -0.26855703628971234 -0.9632637843597859
12610486666.666666 -0.2758461218245947 -0.96120180871354 3.621878367320136e-17 5.676558097206967e-17 3.621878367320136e-17 5.676558097206967e-17 -0.2758455291633302 -0.9612019787955349
12611104000.0 -0.2831187872293538 -0.959084851469165 3.66455449353251e-17 5.64753027673889e-17 3.66455449353251e-17 5.64753027673889e-17 -0.28311819590232257 -0.959085026026819
12611721333.333334 -0.29037520920967624 -0.9569128684871399 3.7069986444238065e-17 5.61818207786655e-17 3.7069986444238065e-17 5.61818207786655e-17 -0.29037461925067226 -0.9569130475100006
12612338666.666666 -0.29761497144164506 -0.9546859843810633 3.749208418415393e-17 5.588515349472421e-17 3.749208418415393e-17 5.588515349472421e-17 -0.2976143828843803 -0.954686167858422
12612956000.0 -0.3048376585572466 -0.9524043269143551 3.791181428627963e-17 5.558531958413604e-17 3.791181428627963e-17 5.558531958413604e-17 -0.30483707143535 -0.9524045148352506
12613573333.333334 -0.3120428561679325 -0.9500680269930192 3.832915303015108e-17 5.528233789405818e-17 3.832915303015108e-17 5.528233789405818e-17 -0.312042270514947 -0.9500682193462358
12614190666.666666 -0.3192301508887728 -0.94767721865801 3.874407684498106e-17 5.4976227449048155e-17 3.874407684498106e-17 5.4976227449048155e-17 -0.3192295667381533 -0.947677415432077
12614808000.0 -0.32639913036187473 -0.9452320390776336 3.9156562310974414e-17 5.466700744988426e-17 3.9156562310974414e-17 5.466700744988426e-17 -0.3263985477469873 -0.9452322402608299
12615425333.333334 -0.3335493832801781 -0.9427326285396427 3.956658616065119e-17 5.4354697272364476e-17 3.956658616065119e-17 5.4354697272364476e-17 -0.33354880223429695 -0.942732834119994
12616042666.666666 -0.34068049941102363 -0.9401791304431861 3.9974125280143005e-17 5.403931646610743e-17 3.9974125280143005e-17 5.403931646610743e-17 -0.3406799199673303 -0.9401793404084688
12616660000.0 -0.34779206961969217 -0.9375716912905918 4.037915671049559e-17 5.372088475333266e-17 4.037915671049559e-17 5.372088475333266e-17 -0.34779149181127267 -0.9375719056283305
12617277333.333334 -0.35488368589287617 -0.9349104606789556 4.0781657648953934e-17 5.339942202763681e-17 4.0781657648953934e-17 5.339942202763681e-17 -0.3548831097527195 -0.9349106793764256
12617894666.666666 -0.36195494136206224 -0.9321955912915679 4.118160545023782e-17 5.307494835276024e-17 4.118160545023782e-17 5.307494835276024e-17 -0.3619543669230586 -0.9321958143357961
12618512000.0 -0.3690054303270082 -0.9294272388891072 4.1578977627816385e-17 5.274748396133698e-17 4.1578977627816385e-17 5.274748396133698e-17 -0.3690048576219467 -0.9294274662668713
12619129333.333334 -0.37603474827875305 -0.9266055623008015 4.197375185515095e-17 5.241704925365333e-17 4.197375185515095e-17 5.241704925365333e-17 -0.3760341773403205 -0.9266057939986337
12619746666.666666 -0.3830424919230647 -0.9237307234152274 4.23659059669558e-17 5.20836647963742e-17 4.23659059669558e-17 5.20836647963742e-17 -0.38304192278384286 -0.9237309594194116
12620364000.0 -0.39002825920355 -0.9208028871710274 4.275541796043434e-17 5.174735132127221e-17 4.275541796043434e-17 5.174735132127221e-17 -0.39002769189601455 -0.9208031274676025
12620981333.333334 -0.3969916493245906 -0.9178222215475018 4.3142265996499476e-17 5.1408129723952607e-17 4.3142265996499476e-17 5.1408129723952607e-17 -0.3969910838811093 -0.9178224661222627
12621598666.666666 -0.40393226277444483 -0.9147888975549311 4.3526428400996877e-17 5.1066021062557915e-17 4.3526428400996877e-17 5.1066021062557915e-17 -0.403931699227275 -0.9147891463934278
12622216000.0 -0.4108497013481412 -0.911703089224773 4.390788366591099e-17 5.072104655646981e-17 4.390788366591099e-17 5.072104655646981e-17 -0.4108491397294278 -0.9117033423123112
12622833333.333334 -0.4177435681703496 -0.9085649735996624 4.4286610450562135e-17 5.0373227585000765e-17 4.4286610450562135e-17 5.0373227585000765e-17 -0.41774300851212437 -0.9085652309213076
12623450666.666666 -0.4246134677180242 -0.9053747307233208 4.466258758279351e-17 5.002258568607688e-17 4.466258758279351e-17 5.002258568607688e-17 -0.42461291005220325 -0.9053749922638958
12624068000.0 -0.43145900584332725 -0.9021325436301133 4.503579406014618e-17 4.966914255491311e-17 4.503579406014618e-17 4.966914255491311e-17 -0.43145845020170936 -0.9021328093742015
12624685333.333334 -0.4382797897961131 -0.8988385983346097 4.5406209051032236e-17 4.9312920042672055e-17 4.5406209051032236e-17 4.9312920042672055e-17 -0.43827923621037734 -0.8988388682665532
12625302666.666666 -0.44507542824630814 -0.8954930838209839 4.5773811895875096e-17 4.895394015513495e-17 4.5773811895875096e-17 4.895394015513495e-17 -0.44507487674801305 -0.8954933579248876
12625920000.0 -0.45184553130672167 -0.8920961920320017 4.6138582108274045e-17 4.859222505133154e-17 4.6138582108274045e-17 4.859222505133154e-17 -0.45184498192730227 -0.8920964702917313
12626537333.333334 -0.45858971055502984 -0.8886481178581912 4.6500499376124866e-17 4.822779704219275e-17 4.6500499376124866e-17 4.822779704219275e-17 -0.4585891633257975 -0.8886484002573771
12627154666.666666 -0.4653075790563185 -0.8851490591265395 4.6859543562743737e-17 4.7860678589182123e-17 4.6859543562743737e-17 4.7860678589182123e-17 -0.46530703400845785 -0.8851493456485761
12627772000.0 -0.4719987513852806 -0.881599216589141 4.721569470799384e-17 4.7490892302905305e-17 4.721569470799384e-17 4.7490892302905305e-17 -0.4719982085498475 -0.881599507217186
12628389333.333334 -0.47866284364807654 -0.8779987939118076 4.7568933029367474e-17 4.711846094174507e-17 4.7568933029367474e-17 4.711846094174507e-17 -0.47866230305599733 -0.8779990886287866
12629006666.666666 -0.4852994735047123 -0.874347997662201 4.791923892309609e-17 4.674340741044893e-17 4.791923892309609e-17 4.674340741044893e-17 -0.4852989351867818 -0.8743482964508063
12629624000.0 -0.4919082601907001 -0.8706470372981288 4.82665929652218e-17 4.636575475873736e-17 4.82665929652218e-17 4.636575475873736e-17 -0.49190772417757916 -0.8706473401408203
12630241333.333334 -0.4984888245390287 -0.8668961251554589 4.861097591266655e-17 4.5985526179894296e-17 4.861097591266655e-17 4.5985526179894296e-17 -0.4984882908612432 -0.866896432034466
12630858666.666666 -0.5050407890018663 -0.8630954764359633 4.8952368704288405e-17 4.5602745009352873e-17 4.8952368704288405e-17 4.5602745009352873e-17 -0.5050402576898058 -0.8630957873332863
12631476000.0 -0.5115637776723485 -0.8592453091949048 4.9290752461940446e-17 4.5217434723257707e-17 4.9290752461940446e-17 4.5217434723257707e-17 -0.5115632487562624 -0.8592456240923135
12632093333.333334 -0.5180574163059185 -0.8553458443286474 4.962610849149544e-17 4.4829618937044825e-17 4.962610849149544e-17 4.4829618937044825e-17 -0.5180568898159172 -0.8553461632076858
12632710666.666666 -0.5245213323419285 -0.8513973055619217 4.995841828387125e-17 4.4439321404001506e-17 4.995841828387125e-17 4.4439321404001506e-17 -0.5245208083079796 -0.8513976284039056
12633328000.0 -0.5309551549251054 -0.8473999194349195 5.028766351605561e-17 4.404656601380537e-17 5.028766351605561e-17 4.404656601380537e-17 -0.530954633377033 -0.8474002462209407
12633945333.333334 -0.5373585149267105 -0.8433539152903781 5.0613826052096424e-17 4.365137679108359e-17 5.0613826052096424e-17 4.365137679108359e-17 -0.5373579958941933 -0.8433542460013035
12634562666.666666 -0.543731044965692 -0.8392595252604335 5.093688794409787e-17 4.325377789394453e-17 5.093688794409787e-17 4.325377789394453e-17 -0.5437305284782604 -0.8392598598769051
12635180000.0 -0.5500723794298341 -0.8351169842532555 5.1256831433203636e-17 4.28537936125033e-17 5.1256831433203636e-17 4.28537936125033e-17 -0.5500718655168708 -0.8351173227556954
12635797333.333334 -0.5563821544967353 -0.8309265299395742 5.15736389505592e-17 4.2451448367412096e-17 5.15736389505592e-17 4.2451448367412096e-17 -0.5563816431874725 -0.830926872308183
12636414666.666666 -0.5626600081545629 -0.8266884027391208 5.188729311826867e-17 4.204676670837615e-17 5.188729311826867e-17 4.204676670837615e-17 -0.5626594994780794 -0.826688748953878
12637032000.0 -0.5689055802230576 -0.8224028458066742 5.2197776750344677e-17 4.163977331265664e-17 5.2197776750344677e-17 4.163977331265664e-17 -0.56890507420828 -0.8224031958473426
12637649333.333334 -0.5751185123739656 -0.8180701050182734 5.250507285364188e-17 4.123049298357265e-17 5.250507285364188e-17 4.123049298357265e-17 -0.5751180090496629 -0.8180704588643958
12638266666.666666 -0.581298448151709 -0.8136904289570239 5.2809164628772804e-17 4.081895064900363e-17 5.2809164628772804e-17 4.081895064900363e-17 -0.5812979475464952 -0.8136907865879293
12638884000.0 -0.5874450329938209 -0.809264068898861 5.311003547102289e-17 4.040517135987208e-17 5.311003547102289e-17 4.040517135987208e-17 -0.5874445351361496 -0.8092644302936612
12639501333.333334 -0.5935579142512807 -0.8047912787981246 5.3407668971247525e-17 3.998918028862672e-17 5.3407668971247525e-17 3.998918028862672e-17 -0.5935574191694462 -0.8047916439357193
12640118666.666666 -0.5996367412087283 -0.800272315273012 5.370204891675655e-17 3.9571002727720995e-17 5.370204891675655e-17 3.9571002727720995e-17 -0.5996362489308623 -0.8002726841320874
12640736000.0 -0.6056811651046985 -0.7957074375907672 5.3993159292199595e-17 3.9150664088066214e-17 5.3993159292199595e-17 3.9150664088066214e-17 -0.6056806756587694 -0.7957078101497983
12641353333.333334 -0.6116908391514029 -0.7910969076529778 5.4280984280407226e-17 3.8728189897525226e-17 5.4280984280407226e-17 3.8728189897525226e-17 -0.611690352565213 -0.7910972838902283
12641970666.666666 -0.6176654185548509 -0.7864409899803738 5.456550826326332e-17 3.830360579933745e-17 5.456550826326332e-17 3.830360579933745e-17 -0.6176649348560375 -0.7864413698739009
12642588000.0 -0.6236045605345248 -0.7817399516977451 5.4846715822532065e-17 3.7876937550586145e-17 5.4846715822532065e-17 3.7876937550586145e-17 -0.6236040797505551 -0.7817403352253961
12643205333.333334 -0.6295079243430388 -0.7769940625186073 5.5124591740690017e-17 3.7448211020634604e-17 5.5124591740690017e-17 3.7448211020634604e-17 -0.6295074465012109 -0.776994449658024
12643822666.666666 -0.6353751712857608 -0.7722035947296794 5.539912100173837e-17 3.701745218956707e-17 5.539912100173837e-17 3.701745218956707e-17 -0.6353746964132021 -0.7722039854582998
12644440000.0 -0.6412059647402205 -0.7673688231752798 5.567028879200457e-17 3.6584687146622647e-17 5.567028879200457e-17 3.6584687146622647e-17 -0.6412054928638834 -0.7673692174703356
12645057333.333334 -0.6469999701753097 -0.7624900252416418 5.593808050093158e-17 3.614994208862315e-17 5.593808050093158e-17 3.614994208862315e-17 -0.6469995013219738 -0.7624904230801645
12645674666.666666 -0.6527568551705687 -0.7575674808409346 5.620248172186025e-17 3.571324331838747e-17 5.620248172186025e-17 3.571324331838747e-17 -0.6527563893668373 -0.7575678821997545
12646292000.0 -0.6584762894353635 -0.7526014723951089 5.64634782527955e-17 3.5274617243144743e-17 5.64634782527955e-17 3.5274617243144743e-17 -0.658475826707662 -0.7526018772508556
12646909333.333334 -0.6641579448276411 -0.7475922848198576 5.672105609715145e-17 3.483409037295855e-17 5.672105609715145e-17 3.483409037295855e-17 -0.6641574852022158 -0.7475926931489628
12647526666.666666 -0.6698014953728426 -0.7425402055081973 5.697520146450122e-17 3.439168931911648e-17 5.697520146450122e-17 3.439168931911648e-17 -0.6698010388757595 -0.742540617286896
12648144000.0 -0.6754066172826682 -0.7374455243139214 5.722590077130365e-17 3.3947440792532024e-17 5.722590077130365e-17 3.3947440792532024e-17 -0.6754061639398116 -0.7374459395182532
12648761333.333334 -0.6809729889735501 -0.7323085335350668 5.747314064161978e-17 3.350137160213829e-17 5.747314064161978e-17 3.350137160213829e-17 -0.6809725388106203 -0.7323089521408768
12649378666.666666 -0.6865002910851009 -0.7271295278971428 5.771690790781098e-17 3.305350865328623e-17 5.771690790781098e-17 3.305350865328623e-17 -0.6864998441276139 -0.7271299498800836
12649996000.0 -0.6919882064985228 -0.7219088045361468 5.795718961123882e-17 3.260387894611325e-17 5.795718961123882e-17 3.260387894611325e-17 -0.6919877627718068 -0.7219092298716786
12650613333.333334 -0.6974364203548176 -0.7166466629814929 5.819397300293923e-17 3.215250957392998e-17 5.819397300293923e-17 3.215250957392998e-17 -0.6974359798840146 -0.7166470916448874
12651230666.666666 -0.7028446200726489 -0.7113434051390262 5.842724554428896e-17 3.169942772159397e-17 5.842724554428896e-17 3.169942772159397e-17 -0.7028441828827113 -0.7113438371053658
12651848000.0 -0.7082124953665623 -0.705999335273425 5.865699490766263e-17 3.1244660663871857e-17 5.865699490766263e-17 3.1244660663871857e-17 -0.7082120614822512 -0.7059997705176049
12652465333.333334 -0.7135397382645611 -0.7006147599909609 5.888320897706947e-17 3.078823576381208e-17 5.888320897706947e-17 3.078823576381208e-17 -0.7135393077104463 -0.7006151984876916
12653082666.666666 -0.71882604312588 -0.6951899882218106 5.910587584878095e-17 3.033018047110633e-17 5.910587584878095e-17 3.033018047110633e-17 -0.7188256159263371 -0.6951904299456175
12653700000.0 -0.7240711066584979 -0.6897253312023485 5.932498383195414e-17 2.987052232042969e-17 5.932498383195414e-17 2.987052232042969e-17 -0.7240706828377084 -0.689725776127575
12654317333.333334 -0.7292746279365396 -0.6842211024572921 5.9540521449226e-17 2.940928892980834e-17 5.9540521449226e-17 2.940928892980834e-17 -0.7292742075184887 -0.6842215505581006
12654934666.666666 -0.734436308417523 -0.6786776177817354 5.975247743730743e-17 2.894650799895978e-17 5.975247743730743e-17 2.894650799895978e-17 -0.7344358914259981 -0.6786780690321081
12655552000.0 -0.7395558519595822 -0.6730951952229254 5.996084074756336e-17 2.8482207307628336e-17 5.996084074756336e-17 2.8482207307628336e-17 -0.7395554384181713 -0.6730956495966661
12656169333.333334 -0.7446329648382456 -0.6674741550622436 6.016560054656881e-17 2.801641471394253e-17 6.016560054656881e-17 2.801641471394253e-17 -0.7446325547703372 -0.6674746125329799
12656786666.666666 -0.7496673557635589 -0.6618148197965392 6.036674621667197e-17 2.7549158152725804e-17 6.036674621667197e-17 2.7549158152725804e-17 -0.74966694919234 -0.661815280337724
12657404000.0 -0.7546587358965849 -0.6561175141198564 6.056426735652396e-17 2.708046563384594e-17 6.056426735652396e-17 2.708046563384594e-17 -0.7546583328450398 -0.656117977704769
12658021333.333334 -0.7596068188660906 -0.6503825649046795 6.075815378160978e-17 2.6610365240531802e-17 6.075815378160978e-17 2.6610365240531802e-17 -0.7596064193569992 -0.6503830315064267
12658638666.666666 -0.7645113207848642 -0.6446103011833069 6.094839552475683e-17 2.6138885127707008e-17 6.094839552475683e-17 2.6138885127707008e-17 -0.7645109248408007 -0.6446107707748253
12659256000.0 -0.7693719602661889 -0.6388010541287594 6.113498283664168e-17 2.5666053520294137e-17 6.113498283664168e-17 2.5666053520294137e-17 -0.7693715679095204 -0.6388015266828163
12659873333.333334 -0.7741884584397997 -0.6329551570359935 6.131790618627325e-17 2.5191898711539594e-17 6.131790618627325e-17 2.5191898711539594e-17 -0.7741880696926865 -0.6329556325251897
12660490666.666666 -0.7789605389679602 -0.6270729453026946 6.149715626146315e-17 2.4716449061337234e-17 6.149715626146315e-17 2.4716449061337234e-17 -0.7789601538523532 -0.6270734236994652
12661108000.0 -0.7836879280613882 -0.6211547564099469 6.167272396929618e-17 2.4239732994513395e-17 6.167272396929618e-17 2.4239732994513395e-17 -0.7836875465990268 -0.621155237686562
12661725333.333334 -0.7883703544947815 -0.6152009299030882 6.184460043656769e-17 2.3761778999161702e-17 6.184460043656769e-17 2.3761778999161702e-17 -0.7883699767071946 -0.615201414031656
12662342666.666666 -0.7930075496225611 -0.609211807372011 6.201277701022853e-17 2.3282615624920066e-17 6.201277701022853e-17 2.3282615624920066e-17 -0.7930071755310638 -0.6092122943244788
12662960000.0 -0.7975992473941778 -0.6031877324316973 6.217724525779978e-17 2.2802271481290708e-17 6.217724525779978e-17 2.2802271481290708e-17 -0.7975988770198709 -0.6031882221798529
12663577333.333334 -0.8021451843694588 -0.5971290507023904 6.233799696778467e-17 2.232077523592901e-17 6.233799696778467e-17 2.232077523592901e-17 -0.8021448177332291 -0.5971295432178643
12664194666.666666 -0.8066450997336245 -0.5910361097899022 6.249502415006392e-17 2.1838155612940283e-17 6.249502415006392e-17 2.1838155612940283e-17 -0.8066447368561419 -0.5910366050441691
12664812000.0 -0.8110987353123184 -0.5849092592655804 6.264831903627729e-17 2.135444139117382e-17 6.264831903627729e-17 2.135444139117382e-17 -0.8110983762140336 -0.5849097572299595
12665429333.333334 -0.8155058355864157 -0.578748850646248 6.279787408019624e-17 2.0869661402503764e-17 6.279787408019624e-17 2.0869661402503764e-17 -0.8155054802875626 -0.5787493512919074
12666046666.666666 -0.8198661477066082 -0.5725552373741583 6.294368195807364e-17 2.038384453013615e-17 6.294368195807364e-17 2.038384453013615e-17 -0.8198657962271994 -0.5725557406721137
12666664000.0 -0.8241794215080672 -0.5663287747964773 6.308573556899536e-17 1.9897019706866958e-17 6.308573556899536e-17 1.9897019706866958e-17 -0.8241790738678954 -0.5663292807175963
12667281333.333334 -0.8284454095246393 -0.560069820145135 6.322402803520104e-17 1.9409215913393594e-17 6.322402803520104e-17 1.9409215913393594e-17 -0.8284450657432746 -0.5600703286601367
12667898666.666666 -0.8326638670031058 -0.5537787325162328 6.33585527024087e-17 1.8920462176570395e-17 6.33585527024087e-17 1.8920462176570395e-17 -0.8326635270998944 -0.5537792435956908
12668516000.0 -0.836834551917289 -0.5474558728493482 6.34893031401143e-17 1.8430787567697853e-17 6.34893031401143e-17 1.8430787567697853e-17 -0.836834215911353 -0.5474563864636913
12669133333.333334 -0.8409572249817804 -0.5411016039070626 6.36162731418798e-17 1.7940221200808408e-17 6.36162731418798e-17 1.7940221200808408e-17 -0.8409568928920168 -0.5411021200265776
12669750666.666666 -0.8450316496658102 -0.534716290253935 6.37394567256143e-17 1.744879223092491e-17 6.37394567256143e-17 1.744879223092491e-17 -0.8450313215108902 -0.5347168088487682
12670368000.0 -0.8490575922068195 -0.5283002982355866 6.385884813383521e-17 1.6956529852342746e-17 6.385884813383521e-17 1.6956529852342746e-17 -0.8490572680051853 -0.5283008192757445
