! Parameters = {f0=12700.012000; bw=77.238000; Q=6100.000000; N=10; m_0_1=1.318413; m_1_1=1.011456; m_1_2=1.153225; m_2_2=1.010807; m_2_3=0.790188; m_2_8=0.002984; m_2_9=0.039688; m_3_3=1.008870; m_3_4=0.678717; m_3_7=0.003584; m_3_8=-0.093504; m_3_9=0.002984; m_4_4=1.005945; m_4_5=0.515052; m_4_6=0.007101; m_4_7=-0.114053; m_4_8=0.003584; m_5_5=1.006327; m_5_6=0.922407; m_5_7=0.007101; m_6_6=1.006326; m_6_7=0.515394; m_7_7=1.005959; m_7_8=0.678835; m_8_8=1.008868; m_8_9=0.790501; m_9_9=1.010802; m_9_10=1.154303; m_10_10=1.011446; m_10_11=1.319208}
!
! Created with skrf (http://scikit-rf.org).
# Hz S RI R 50.0 
!freq ReS11 ImS11 ReS21 ImS21 ReS12 ImS12 ReS22 ImS22
12607400000.0 -0.978453160265259 0.2064689157397247 1.2157336121460855e-16 -6.578165699484767e-17 1.2157336121460855e-16 -6.578165699484767e-17 -0.9784533036632805 0.20646823617743768
12608017333.333334 -0.9759151427282912 0.21815048520099595 1.2074871711268174e-16 -6.722777661051193e-17 1.2074871711268174e-16 -6.722777661051193e-17 -0.9759152942320624 0.21814980743461
12608634666.666666 -0.9732376663343626 0.22980088082479883 1.1990688382842476e-16 -6.866357998992387e-17 1.1990688382842476e-16 -6.866357998992387e-17 -0.9732378259214415 0.2298002049509867
12609252000.0 -0.9704211136965627 0.24141843776259905 1.1904799016692462e-16 -7.00888629668251e-17 1.1904799016692462e-16 -7.00888629668251e-17 -0.9704212813433531 0.24141776387775332
12609869333.333334 -0.9674658873020207 0.2530014958586692 1.1817216735641963e-16 -7.150342298028155e-17 1.1817216735641963e-16 -7.150342298028155e-17 -0.9674660629837789 0.2530008240588892
12610486666.666666 -0.9643724094544877 0.2645483998869694 1.1727954902835338e-16 -7.290705910337724e-17 1.1727954902835338e-16 -7.290705910337724e-17 -0.9643725931453228 0.26454773026804673
12611104000.0 -0.9611411222138571 0.2760574997881743 1.163702711970232e-16 -7.429957207176286e-17 1.163702711970232e-16 -7.429957207176286e-17 -0.961141313886737 0.27605683244557994
12611721333.333334 -0.9577724873331159 0.28752715090500036 1.1544447223896459e-16 -7.568076431183624e-17 1.1544447223896459e-16 -7.568076431183624e-17 -0.9577726869598705 0.28752648593387037
12612338666.666666 -0.9542669861923135 0.29895571421742134 1.1450229287195134e-16 -7.705043996874618e-17 1.1450229287195134e-16 -7.705043996874618e-17 -0.9542671937436391 0.29895505171254383
12612956000.0 -0.95062511972972 0.31034155657704815 1.135438761336655e-16 -7.840840493413251e-17 1.135438761336655e-16 -7.840840493413251e-17 -0.9506253351751829 0.3103408966328493
12613573333.333334 -0.9468474083703387 0.32168305094017957 1.125693673600793e-16 -7.975446687354375e-17 1.125693673600793e-16 -7.975446687354375e-17 -0.9468476316783809 0.32168239365071083
12614190666.666666 -0.942934391951484 0.33297857660049973 1.1157891416347026e-16 -8.108843525364813e-17 1.1157891416347026e-16 -8.108843525364813e-17 -0.9429346230894261 0.3329779220594234
12614808000.0 -0.9388866296456142 0.3442265194207296 1.105726664101287e-16 -8.241012136915423e-17 1.105726664101287e-16 -8.241012136915423e-17 -0.938886868579662 0.3442258677213064
12615425333.333334 -0.9347046998804919 0.3554252720631009 1.0955077619775285e-16 -8.371933836944524e-17 1.0955077619775285e-16 -8.371933836944524e-17 -0.934704946575741 0.355424623298177
12616042666.666666 -0.9303892002564622 0.3665732342192342 1.0851339783253361e-16 -8.501590128493246e-17 1.0851339783253361e-16 -8.501590128493246e-17 -0.930389454676902 0.36657258848122654
12616660000.0 -0.9259407474610812 0.37766881283874204 1.0746068780590553e-16 -8.629962705315286e-17 1.0746068780590553e-16 -8.629962705315286e-17 -0.9259410095695997 0.37766817021962595
12617277333.333334 -0.9213599771810095 0.38871042235682357 1.0639280477100937e-16 -8.757033454455519e-17 1.0639280477100937e-16 -8.757033454455519e-17 -0.9213602469394018 0.3887097829481205
12617894666.666666 -0.9166475440111699 0.39969648492087195 1.0530990951886627e-16 -8.882784458797842e-17 1.0530990951886627e-16 -8.882784458797842e-17 -0.9166478213801404 0.399695848813635
12618512000.0 -0.91180412136111 0.41062543061615736 1.0421216495418545e-16 -9.007197999591394e-17 1.0421216495418545e-16 -9.007197999591394e-17 -0.9118044063002803 0.41062479790095935
12619129333.333334 -0.906830401358965 0.42149569768972595 1.0309973607097668e-16 -9.130256558935116e-17 1.0309973607097668e-16 -9.130256558935116e-17 -0.9068306938268781 0.42149506845664586
12619746666.666666 -0.901727094752372 0.43230573277399237 1.0197278992776985e-16 -9.251942822243802e-17 1.0197278992776985e-16 -9.251942822243802e-17 -0.9017273947064994 0.4323051071126028
12620364000.0 -0.8964949308069283 0.443053991108635 1.0083149562259805e-16 -9.372239680677444e-17 1.0083149562259805e-16 -9.372239680677444e-17 -0.8964952382036777 0.44305336910799037
12620981333.333334 -0.8911346572021375 0.4537389367610406 9.967602426770449e-17 -9.491130233539065e-17 9.967602426770449e-17 -9.491130233539065e-17 -0.8911349719968542 0.45373831850966195
12621598666.666666 -0.8856470399243446 0.4643590428462198 9.85065489639318e-17 -9.60859779064513e-17 9.85065489639318e-17 -9.60859779064513e-17 -0.8856473620713234 0.4643584284320848
12622216000.0 -0.8800328631574468 0.4749127917446717 9.732324477484676e-17 -9.724625874663067e-17 9.732324477484676e-17 -9.724625874663067e-17 -0.8800331926099363 0.474912181255201
12622833333.333334 -0.8742929291706989 0.48539867531950404 9.612628870059558e-17 -9.839198223416454e-17 9.612628870059558e-17 -9.839198223416454e-17 -0.8742932658809082 0.4853980688415491
12623450666.666666 -0.8684280582042337 0.49581519513164735 9.491585965150641e-17 -9.952298792156534e-17 9.491585965150641e-17 -9.952298792156534e-17 -0.8684284021233393 0.49581459275147766
12624068000.0 -0.862439088351684 0.5061608626542823 9.369213842137419e-17 -1.0063911755806187e-16 9.369213842137419e-17 -1.0063911755806187e-16 -0.8624394394298361 0.5061602644575729
12624685333.333334 -0.8563268754404388 0.5164341994854962 9.245530766051914e-17 -1.0174021511167598e-16 9.245530766051914e-17 -1.0174021511167598e-16 -0.8563272336267714 0.5164336055573171
12625302666.666666 -0.8500922929095414 0.5266337375592349 9.120555184861981e-17 -1.028261267909417e-16 9.120555184861981e-17 -1.028261267909417e-16 -0.8500926581521765 0.5266331479840369
12625920000.0 -0.8437362316845469 0.5367580193556231 8.994305726718858e-17 -1.0389670106638095e-16 8.994305726718858e-17 -1.0389670106638095e-16 -0.8437366039306041 0.5367574342172274
12626537333.333334 -0.8372596000505365 0.5468055981087119 8.866801197192637e-17 -1.0495178869153019e-16 8.866801197192637e-17 -1.0495178869153019e-16 -0.8372599792461395 0.5468050174902971
12627154666.666666 -0.830663323522131 0.5567750380135384 8.73806057647282e-17 -1.059912427237178e-16 8.73806057647282e-17 -1.059912427237178e-16 -0.830663709612416 0.5567744619976297
12627772000.0 -0.8239483447111822 0.5666649144313719 8.608103016547416e-17 -1.07014918544472e-16 8.608103016547416e-17 -1.07014918544472e-16 -0.8239487376403042 0.5666643430998274
12628389333.333334 -0.8171156231923394 0.5764738140928911 8.47694783836452e-17 -1.0802267387953678e-16 8.47694783836452e-17 -1.0802267387953678e-16 -0.8171160229034841 0.5764732475268932
12629006666.666666 -0.8101661353655973 0.5862003353006405 8.344614528958825e-17 -1.0901436881863208e-16 8.344614528958825e-17 -1.0901436881863208e-16 -0.810166541800985 0.5861997735806819
12629624000.0 -0.8031008743169858 0.5958430881290003 8.211122738565887e-17 -1.0998986583477835e-16 8.211122738565887e-17 -1.0998986583477835e-16 -0.8031012874178824 0.5958425313348736
12630241333.333334 -0.7959208496766137 0.6054006946228818 8.076492277708683e-17 -1.1094902980330982e-16 8.076492277708683e-17 -1.1094902980330982e-16 -0.7959212693833383 0.6054001428336679
12630858666.666666 -0.7886270874743935 0.614871788994638 7.940743114263047e-17 -1.1189172802052535e-16 7.940743114263047e-17 -1.1189172802052535e-16 -0.7886275137263267 0.6148712422886947
12631476000.0 -0.781220629993278 0.6242550178194138 7.803895370498751e-17 -1.1281783022199741e-16 7.803895370498751e-17 -1.1281783022199741e-16 -0.7812210627288722 0.6242544762743655
12632093333.333334 -0.773702535620582 0.6335490402282155 7.665969320106813e-17 -1.1372720860046997e-16 7.665969320106813e-17 -1.1372720860046997e-16 -0.7737029747773678 0.6335485039209409
12632710666.666666 -0.7660738786965999 0.642752528099703 7.526985385198696e-17 -1.1461973782344535e-16 7.526985385198696e-17 -1.1461973782344535e-16 -0.7660743242111969 0.6427519971063247
12633328000.0 -0.7583357493609513 0.6518641662501292 7.386964133285294e-17 -1.1549529505040001e-16 7.386964133285294e-17 -1.1549529505040001e-16 -0.7583362011690779 0.6518636406460044
12633945333.333334 -0.7504892533970189 0.66088265262102 7.245926274242376e-17 -1.1635375994959472e-16 7.245926274242376e-17 -1.1635375994959472e-16 -0.7504897114334994 0.6608821324807276
12634562666.666666 -0.7425355120738024 0.6698066984653904 7.103892657250268e-17 -1.1719501471455263e-16 7.103892657250268e-17 -1.1719501471455263e-16 -0.7425359762725775 0.6698061838627207
12635180000.0 -0.7344756619857827 0.6786350285318002 6.960884267718545e-17 -1.180189440801414e-16 6.960884267718545e-17 -1.180189440801414e-16 -0.7344761322799193 0.6786345195397456
12635797333.333334 -0.7263108548903485 0.6873663812467572 6.816922224188163e-17 -1.1882543533830404e-16 6.816922224188163e-17 -1.1882543533830404e-16 -0.726311331212049 0.6873658779375015
12636414666.666666 -0.7180422575434418 0.695999508894746 6.672027775220195e-17 -1.1961437835338557e-16 6.672027775220195e-17 -1.1961437835338557e-16 -0.7180427398240546 0.6959990113396541
12637032000.0 -0.709671051532557 0.7045331777968199 6.526222296263582e-17 -1.2038566557710043e-16 6.526222296263582e-17 -1.2038566557710043e-16 -0.7096715397025845 0.7045326860664264
12637649333.333334 -0.7011984331081231 0.7129661684866428 6.379527286506016e-17 -1.211391920631164e-16 6.379527286506016e-17 -1.211391920631164e-16 -0.701198927097234 0.7129656826506441
12638266666.666666 -0.6926256130124029 0.7212972758849184 6.231964365709527e-17 -1.2187485548124902e-16 6.231964365709527e-17 -1.2187485548124902e-16 -0.6926261127494407 0.7212967960121617
12638884000.0 -0.6839538163065355 0.729525309471534 6.083555271030119e-17 -1.225925561312685e-16 6.083555271030119e-17 -1.225925561312685e-16 -0.6839543217195296 0.7295248356300075
12639501333.333334 -0.6751842821955155 0.737649093455647 5.934321853817895e-17 -1.2329219695634048e-16 5.934321853817895e-17 -1.2329219695634048e-16 -0.6751847932116914 0.7376486257124707
12640118666.666666 -0.666318263851113 0.7456674669437103 5.784286076409862e-17 -1.23973683556039e-16 5.784286076409862e-17 -1.23973683556039e-16 -0.6663187803969027 0.7456670053651264
12640736000.0 -0.6573570282325187 0.7535792841056094 5.633470008892771e-17 -1.246369241990393e-16 5.633470008892771e-17 -1.246369241990393e-16 -0.6573575502335703 0.7535788287569718
12641353333.333334 -0.6483018559058648 0.7613834143378894 5.4818958258745856e-17 -1.2528182983531464e-16 5.4818958258745856e-17 -1.2528182983531464e-16 -0.6483023832870557 0.7613829652836566
12641970666.666666 -0.6391540408606398 0.7690787424258505 5.329585803219056e-17 -1.2590831410804354e-16 5.329585803219056e-17 -1.2590831410804354e-16 -0.6391545735460846 0.7690782997295745
12642588000.0 -0.629914890325157 0.7766641687025722 5.1765623147799535e-17 -1.2651629336506236e-16 5.1765623147799535e-17 -1.2651629336506236e-16 -0.6299154282382212 0.776663732426891
12643205333.333334 -0.6205857245795829 0.7841386092062076 5.0228478291199836e-17 -1.2710568666993395e-16 5.0228478291199836e-17 -1.2710568666993395e-16 -0.6205862676428915 0.7841381794128355
12643822666.666666 -0.6111678767672645 0.7915009958348792 4.868464906214292e-17 -1.2767641581262873e-16 4.868464906214292e-17 -1.2767641581262873e-16 -0.6111684249027142 0.7915005725845978
12644440000.0 -0.6016626927042871 0.7987502764992556 4.713436194147466e-17 -1.2822840531978553e-16 4.713436194147466e-17 -1.2822840531978553e-16 -0.6016632458330579 0.7987498598519063
12645057333.333334 -0.5920715306872064 0.8058854152728665 4.557784425792926e-17 -1.2876158246459632e-16 4.557784425792926e-17 -1.2876158246459632e-16 -0.5920720887297719 0.8058850052873401
12645674666.666666 -0.5823957612988995 0.8129053925401692 4.401532415487075e-17 -1.2927587727626586e-16 4.401532415487075e-17 -1.2927587727626586e-16 -0.5823963241750395 0.8129049892744001
12646292000.0 -0.5726367672125036 0.8198092051424066 4.2447030556845724e-17 -1.2977122254909877e-16 4.2447030556845724e-17 -1.2977122254909877e-16 -0.5726373348413148 0.819808808653363
12646909333.333334 -0.5627959429941727 0.8265958665207025 4.087319313616777e-17 -1.302475538511366e-16 4.087319313616777e-17 -1.302475538511366e-16 -0.5627965152940808 0.8265954768643787
12647526666.666666 -0.5528746949036353 0.8332644068571651 3.9294042279267067e-17 -1.3070480953243675e-16 3.9294042279267067e-17 -1.3070480953243675e-16 -0.5528752717924065 0.8332640240885737
12648144000.0 -0.5428744406931197 0.8398138732135493 3.770980905303034e-17 -1.3114293073291766e-16 3.770980905303034e-17 -1.3114293073291766e-16 -0.5428750220878722 0.8398134973867132
12648761333.333334 -0.5327966094049199 0.8462433296673199 3.6120725171044255e-17 -1.3156186138979978e-16 3.6120725171044255e-17 -1.3156186138979978e-16 -0.5327971952221361 0.8462429608352646
12649378666.666666 -0.5226426411672584 0.8525518574453534 3.452702295976639e-17 -1.3196154824463864e-16 3.452702295976639e-17 -1.3196154824463864e-16 -0.5226432313227977 0.8525514956601008
12649996000.0 -0.5124139869882052 0.8587385550554155 3.292893532456387e-17 -1.3234194084996155e-16 3.292893532456387e-17 -1.3234194084996155e-16 -0.5124145813973141 0.8587382003679735
12650613333.333334 -0.5021121085485877 0.8648025384148121 3.1326695715745005e-17 -1.327029915754775e-16 3.1326695715745005e-17 -1.327029915754775e-16 -0.5021127071259145 0.8648021908751715
12651230666.666666 -0.4917384779930491 0.8707429409767792 2.972053809452942e-17 -1.3304465561387707e-16 2.972053809452942e-17 -1.3304465561387707e-16 -0.49173908065265387 0.8707426006339036
12651848000.0 -0.4812945777195023 0.8765589138544063 2.811069689887046e-17 -1.3336689098624051e-16 2.811069689887046e-17 -1.3336689098624051e-16 -0.4812951843748707 0.8765585807562266
12652465333.333334 -0.4707819001675909 0.8822496259417764 2.6497407009327442e-17 -1.3366965854700876e-16 2.6497407009327442e-17 -1.3366965854700876e-16 -0.47078251073164534 0.8822493001351822
12653082666.666666 -0.4602019476052712 0.8878142640328136 2.488090371485342e-17 -1.3395292198855165e-16 2.488090371485342e-17 -1.3395292198855165e-16 -0.4602025619903851 0.8878139455636502
12653700000.0 -0.449556231913961 0.8932520329375871 2.3261422678460765e-17 -1.3421664784533562e-16 2.3261422678460765e-17 -1.3421664784533562e-16 -0.4495568500319699 0.8932517218506457
12654317333.333334 -0.4388462743729187 0.8985621555957166 2.163919990299462e-17 -1.3446080549765196e-16 2.163919990299462e-17 -1.3446080549765196e-16 -0.4388468961351331 0.8985618519347293
12654934666.666666 -0.4280736054414478 0.9037438731876258 2.0014471696721537e-17 -1.3468536717495592e-16 2.0014471696721537e-17 -1.3468536717495592e-16 -0.42807423075866646 0.9037435769952595
12655552000.0 -0.4172397645402673 0.9087964452429343 1.8387474638963694e-17 -1.3489030795877895e-16 1.8387474638963694e-17 -1.3489030795877895e-16 -0.41724039332278967 0.9087961565607847
12656169333.333334 -0.40634629983183645 0.9137191497461276 1.675844554574178e-17 -1.3507560578522216e-16 1.675844554574178e-17 -1.3507560578522216e-16 -0.40634693198947575 0.913718868614713
12656786666.666666 -0.3953947679986844 0.9185112832399379 1.5127621435289627e-17 -1.3524124144704972e-16 1.5127621435289627e-17 -1.3524124144704972e-16 -0.3953954034407797 0.9185110096986934
12657404000.0 -0.3843867340212942 0.923172160925715 1.349523949364501e-17 -1.3538719859535482e-16 1.349523949364501e-17 -1.3538719859535482e-16 -0.38438737265672485 0.923171895012988
12658021333.333334 -0.3733237709542064 0.9277011167613969 1.1861537040202678e-17 -1.3551346374081426e-16 1.1861537040202678e-17 -1.3551346374081426e-16 -0.3733244126914037 0.92770085851444
12658638666.666666 -0.3622074597015695 0.9320975035565472 1.0226751493253947e-17 -1.3562002625452998e-16 1.0226751493253947e-17 -1.3562002625452998e-16 -0.3622081044485311 0.9320972530115154
12659256000.0 -0.3510393887907806 0.9363606930650213 8.591120335502018e-18 -1.3570687836845516e-16 8.591120335502018e-18 -1.3570687836845516e-16 -0.35104003645508264 0.9363604502569643
12659873333.333334 -0.33982115414579916 0.9404900760746117 6.954881079654845e-18 -1.3577401517540182e-16 6.954881079654845e-18 -1.3577401517540182e-16 -0.3398218046346102 0.940489841037471
12660490666.666666 -0.3285543588591706 0.9444850624940826 5.3182712339576324e-18 -1.3582143462863852e-16 5.3182712339576324e-18 -1.3582143462863852e-16 -0.3285550120792645 0.944484835260686
12661108000.0 -0.3172406129624889 0.9483450814376571 3.681528267735452e-18 -1.358491375410715e-16 3.681528267735452e-18 -1.358491375410715e-16 -0.31724126882025844 0.948344862039714
12661725333.333334 -0.30588153319691114 0.9520695813063872 2.0448895770476813e-18 -1.3585712758401011e-16 2.0448895770476813e-18 -1.3585712758401011e-16 -0.30588219159838104 0.9520693697744838
12662342666.666666 -0.2944787427816408 0.9556580298671461 4.085924502313034e-19 -1.3584541128552173e-16 4.085924502313034e-19 -1.3584541128552173e-16 -0.29447940363248204 0.9556578262307432
12662960000.0 -0.2830338711821847 0.959109914328612 -1.227125966407079e-18 -1.3581399802837043e-16 -1.227125966407079e-18 -1.3581399802837043e-16 -0.28303453438772685 0.9591097186160371
12663577333.333334 -0.2715485538775549 0.9624247414145276 -2.8620287029463168e-18 -1.3576290004754394e-16 -2.8620287029463168e-18 -1.3576290004754394e-16 -0.2715492193428006 0.9624245536529747
12664194666.666666 -0.260024432126395 0.9656020374342409 -4.495879000124359e-18 -1.356921324273674e-16 -4.495879000124359e-18 -1.356921324273674e-16 -0.2600250997560333 0.9656018576497649
12664812000.0 -0.24846315273252553 0.9686413483503717 -6.128440343568031e-18 -1.3560171309820677e-16 -6.128440343568031e-18 -1.3560171309820677e-16 -0.24846382243094514 0.9686411765678843
12665429333.333334 -0.23686636780966824 0.971542239843676 -7.759476498012503e-18 -1.3549166283275817e-16 -7.759476498012503e-18 -1.3549166283275817e-16 -0.23686703948097232 0.9715420760869452
12666046666.666666 -0.22523573454533308 0.9743042973751254 -9.388751541405339e-18 -1.3536200524193087e-16 -9.388751541405339e-18 -1.3536200524193087e-16 -0.22523640809335152 0.9743041416667677
12666664000.0 -0.21357291496378153 0.97692712624519 -1.1016029899036483e-17 -1.352127667703138e-16 -1.1016029899036483e-17 -1.352127667703138e-16 -0.21357359029208592 0.9769269786066717
12667281333.333334 -0.20187957568899464 0.9794103516501366 -1.2641076377485434e-17 -1.3504397669124328e-16 -1.2641076377485434e-17 -1.3504397669124328e-16 -0.20188025270091112 0.9794102121017667
12667898666.666666 -0.19015738770603913 0.9817536187356923 -1.426365619863059e-17 -1.3485566710145125e-16 -1.426365619863059e-17 -1.3485566710145125e-16 -0.19015806630466314 0.9817534872966243
12668516000.0 -0.17840802612250523 0.9839565926477055 -1.5883535033512013e-17 -1.346478729153122e-16 -1.5883535033512013e-17 -1.346478729153122e-16 -0.17840870621071475 0.9839564693359307
12669133333.333334 -0.16663316992916055 0.986018958579992 -1.7500479036081665e-17 -1.3442063185868898e-16 -1.7500479036081665e-17 -1.3442063185868898e-16 -0.16663385140963008 0.9860188434123383
12669750666.666666 -0.1548345017599656 0.9879404218193295 -1.9114254876981288e-17 -1.341739844623597e-16 -1.9114254876981288e-17 -1.341739844623597e-16 -0.1548351845351803 0.9879403148114607
12670368000.0 -0.14301370765151245 0.9897207077875957 -2.0724629777121547e-17 -1.3390797405505536e-16 -2.0724629777121547e-17 -1.3390797405505536e-16 -0.14301439162378193 0.9897206089540076
