! Parameters = {f0=12700.012000; bw=77.238000; Q=6100.000000; N=10; m_0_1=1.261557; m_1_1=0.158603; m_1_2=1.096369; m_2_2=0.157954; m_2_3=0.733332; m_2_8=0.000142; m_2_9=0.036846; m_3_3=0.156017; m_3_4=0.621861; m_3_7=0.000742; m_3_8=-0.096346; m_3_9=0.000142; m_4_4=0.153092; m_4_5=0.458196; m_4_6=0.004259; m_4_7=-0.116895; m_4_8=0.000742; m_5_5=0.153474; m_5_6=0.865551; m_5_7=0.004259; m_6_6=0.153473; m_6_7=0.458538; m_7_7=0.153106; m_7_8=0.621979; m_8_8=0.156015; m_8_9=0.733645; m_9_9=0.157949; m_9_10=1.097447; m_10_10=0.158593; m_10_11=1.262352}
!
! Created with skrf (http://scikit-rf.org).
# Hz S RI R 50.0 
!freq ReS11 ImS11 ReS21 ImS21 ReS12 ImS12 ReS22 ImS22
12607400000.0 0.9146470977326773 -0.4042532456381968 -8.099198863917409e-17 6.879817546930187e-17 -8.099198863917409e-17 6.879817546930187e-17 0.9146473664308522 -0.4042526376919908
12608017333.333334 0.910445874932475 -0.41362822536459626 -8.025904436095641e-17 6.962007127407855e-17 -8.025904436095641e-17 6.962007127407855e-17 0.9104461498485363 -0.4136276202404801
12608634666.666666 0.9061485632041939 -0.42295955055158796 -7.951776903771678e-17 7.043416951998548e-17 -7.951776903771678e-17 7.043416951998548e-17 0.9061488443085182 -0.4229589483131467
12609252000.0 0.9017556160883964 -0.4322462363663376 -7.87682455149156e-17 7.124038585993937e-17 -7.87682455149156e-17 7.124038585993937e-17 0.9017559033507113 -0.43224563707684605
12609869333.333334 0.8972674972190766 -0.4414873026872229 -7.801055749091969e-17 7.203863682594574e-17 -7.801055749091969e-17 7.203863682594574e-17 0.8972677906084642 -0.44148670640963933
12610486666.666666 0.8926846802747213 -0.4506817742073048 -7.724478950771178e-17 7.282883983768311e-17 -7.724478950771178e-17 7.282883983768311e-17 0.8926849797596181 -0.45068118100426235
12611104000.0 0.888007648928208 -0.459828680537461 -7.647102694144988e-17 7.361091321105761e-17 -7.647102694144988e-17 7.361091321105761e-17 0.8880079544764107 -0.4598280904712622
12611721333.333334 0.8832368967959796 -0.46892705630837156 -7.568935599301352e-17 7.438477616658152e-17 -7.568935599301352e-17 7.438477616658152e-17 0.8832372083746481 -0.46892646944098215
12612338666.666666 0.8783729273857278 -0.4779759412728354 -7.489986367841503e-17 7.515034883770354e-17 -7.489986367841503e-17 7.515034883770354e-17 0.87837324496139 -0.4779753576658779
12612956000.0 0.8734162540433567 -0.4869743804069128 -7.410263781912878e-17 7.590755227903525e-17 -7.410263781912878e-17 7.590755227903525e-17 0.8734165775819097 -0.4869738001216591
12613573333.333334 0.8683673998988313 -0.4959214240106693 -7.32977670323767e-17 7.665630847443783e-17 -7.32977670323767e-17 7.665630847443783e-17 0.8683677293655466 -0.4959208471080346
12614190666.666666 0.8632268978108694 -0.5048161278085813 -7.248534072129102e-17 7.73965403450455e-17 -7.248534072129102e-17 7.73965403450455e-17 0.8632272331703966 -0.5048155543491185
12614808000.0 0.8579952903108157 -0.5136575530489979 -7.166544906500953e-17 7.81281717571729e-17 -7.166544906500953e-17 7.81281717571729e-17 0.8579956315271869 -0.5136569830928907
12615425333.333334 0.8526731295452725 -0.5224447666034152 -7.083818300869828e-17 7.885112753011169e-17 -7.083818300869828e-17 7.885112753011169e-17 0.8526734765819024 -0.5224442002104703
12616042666.666666 0.8472609772179339 -0.5311768410647606 -7.000363425349778e-17 7.956533344381977e-17 -7.000363425349778e-17 7.956533344381977e-17 0.8472613300376288 -0.5311762782944042
12616660000.0 0.8417594045302071 -0.5398528548454447 -6.91618952463727e-17 8.027071624652302e-17 -6.91618952463727e-17 8.027071624652302e-17 0.8417597630951668 -0.5398522957567147
12617277333.333334 0.8361689921209536 -0.5484718922745763 -6.831305916990219e-17 8.096720366219302e-17 -6.831305916990219e-17 8.096720366219302e-17 0.8361693563927736 -0.5484713369261155
12617894666.666666 0.8304903300053325 -0.5570330436944111 -6.74572199320108e-17 8.165472439790738e-17 -6.74572199320108e-17 8.165472439790738e-17 0.8304906999450113 -0.557032492144463
12618512000.0 0.8247240175122498 -0.5655354055567874 -6.659447215556396e-17 8.233320815114975e-17 -6.659447215556396e-17 8.233320815114975e-17 0.8247243930801913 -0.565534857863188
12619129333.333334 0.8188706632214513 -0.5739780805179647 -6.572491116798477e-17 8.300258561692607e-17 -6.572491116798477e-17 8.300258561692607e-17 0.8188710443774684 -0.5739775367381376
12619746666.666666 0.8129308848990222 -0.5823601775337311 -6.484863299070795e-17 8.366278849484381e-17 -6.484863299070795e-17 8.366278849484381e-17 0.8129312716023436 -0.5823596377246819
12620364000.0 0.8069053094322349 -0.5906808119533734 -6.396573432860968e-17 8.431374949604304e-17 -6.396573432860968e-17 8.431374949604304e-17 0.8069057016415065 -0.5906802761716821
12620981333.333334 0.8007945727635826 -0.5989391056127634 -6.307631255939066e-17 8.495540235000036e-17 -6.307631255939066e-17 8.495540235000036e-17 0.8007949704368744 -0.5989385739145802
12621598666.666666 0.7945993198233848 -0.6071341869274371 -6.218046572282417e-17 8.558768181127209e-17 -6.218046572282417e-17 8.558768181127209e-17 0.7945997229181935 -0.6071336593684756
12622216000.0 0.7883202044619336 -0.615265190984279 -6.127829250999385e-17 8.621052366608016e-17 -6.127829250999385e-17 8.621052366608016e-17 0.7883206129351881 -0.6152646676198102
12622833333.333334 0.7819578893803348 -0.6233312596330123 -6.036989225245014e-17 8.68238647387987e-17 -6.036989225245014e-17 8.68238647387987e-17 0.7819583031884004 -0.6233307405178595
12623450666.666666 0.7755130460606876 -0.6313315415766108 -5.945536491129231e-17 8.742764289833363e-17 -5.945536491129231e-17 8.742764289833363e-17 0.7755134651593715 -0.6313310267651432
12624068000.0 0.7689863546951816 -0.6392651924611901 -5.853481106620104e-17 8.802179706437599e-17 -5.853481106620104e-17 8.802179706437599e-17 0.7689867790397366 -0.639264682007318
12624685333.333334 0.7623785041141637 -0.6471313749652966 -5.760833190438267e-17 8.860626721356009e-17 -5.760833190438267e-17 8.860626721356009e-17 0.7623789336592935 -0.6471308689224649
12625302666.666666 0.7556901917137667 -0.6549292588878867 -5.667602920950704e-17 8.918099438546862e-17 -5.667602920950704e-17 8.918099438546862e-17 0.7556906264136302 -0.6549287573090687
12625920000.0 0.7489221233819013 -0.6626580212364221 -5.573800535050772e-17 8.974592068857207e-17 -5.573800535050772e-17 8.974592068857207e-17 0.7489225631901181 -0.6626575241741159
12626537333.333334 0.7420750134240702 -0.670316846313363 -5.4794363270412335e-17 9.030098930599469e-17 -5.4794363270412335e-17 9.030098930599469e-17 0.7420754582937257 -0.6703163538195848
12627154666.666666 0.7351495844879274 -0.6779049258023239 -5.3845206475037373e-17 9.084614450121293e-17 -5.3845206475037373e-17 9.084614450121293e-17 0.7351500343715774 -0.6779044379286024
12627772000.0 0.7281465674867608 -0.6854214588536566 -5.289063902166441e-17 9.138133162361088e-17 -5.289063902166441e-17 9.138133162361088e-17 0.7281470223364361 -0.6854209756510279
12628389333.333334 0.7210667015227715 -0.6928656521685101 -5.193076550767533e-17 9.190649711391059e-17 -5.193076550767533e-17 9.190649711391059e-17 0.721067161289985 -0.6928651736875134
12629006666.666666 0.7139107338086484 -0.7002367200830184 -5.096569105908416e-17 9.24215885095108e-17 -5.096569105908416e-17 9.24215885095108e-17 0.7139111984443963 -0.7002362463736875
12629624000.0 0.7066794195889697 -0.7075338846509206 -4.999552131908487e-17 9.292655444966806e-17 -4.999552131908487e-17 9.292655444966806e-17 0.7066798890437413 -0.707533415762783
12630241333.333334 0.6993735220604463 -0.7147563757257384 -4.902036243647995e-17 9.342134468059551e-17 -4.902036243647995e-17 9.342134468059551e-17 0.6993739962842259 -0.7147559117078063
12630858666.666666 0.6919938122913674 -0.7219034310420512 -4.804032105411448e-17 9.39059100604105e-17 -4.804032105411448e-17 9.39059100604105e-17 0.6919942912336419 -0.7219029719428196
12631476000.0 0.684541069140062 -0.7289742962961097 -4.70555042972166e-17 9.43802025639846e-17 -4.70555042972166e-17 9.43802025639846e-17 0.6845415527498243 -0.7289738421635482
12632093333.333334 0.6770160791730211 -0.7359682252251225 -4.60660197617283e-17 9.484417528765339e-17 -4.60660197617283e-17 9.484417528765339e-17 0.6770165673987776 -0.7359677761066733
12632710666.666666 0.6694196365816214 -0.7428844796862811 -4.507197550257952e-17 9.52977824538092e-17 -4.507197550257952e-17 9.52977824538092e-17 0.6694201293713956 -0.7428840356288519
12633328000.0 0.6617525430983637 -0.7497223297345994 -4.407348002187968e-17 9.574097941538907e-17 -4.407348002187968e-17 9.574097941538907e-17 0.6617530403997034 -0.7497218907845596
12633945333.333334 0.6540156079122997 -0.7564810536999141 -4.3070642257130766e-17 9.617372266020902e-17 -4.3070642257130766e-17 9.617372266020902e-17 0.6540161096722806 -0.756480619903089
12634562666.666666 0.6462096475835872 -0.7631599382630888 -4.2063571569360604e-17 9.659596981519312e-17 -4.2063571569360604e-17 9.659596981519312e-17 0.6462101537488211 -0.7631595096647567
12635180000.0 0.6383354859573995 -0.7697582785312265 -4.10523777312069e-17 9.700767965048175e-17 -4.10523777312069e-17 9.700767965048175e-17 0.6383359964740365 -0.7697578551761105
12635797333.333334 0.630393954076797 -0.7762753781122055 -4.003717091498078e-17 9.740881208340689e-17 -4.003717091498078e-17 9.740881208340689e-17 0.6303944688905346 -0.7762749600444725
12636414666.666666 0.622385890095286 -0.7827105491879646 -3.901806168070637e-17 9.779932818233801e-17 -3.901806168070637e-17 9.779932818233801e-17 0.6223864091513734 -0.7827101364512192
12637032000.0 0.6143121391880717 -0.7890631125873281 -3.799516096407044e-17 9.817919017042351e-17 -3.799516096407044e-17 9.817919017042351e-17 0.6143126624313153 -0.7890627052246072
12637649333.333334 0.606173553463011 -0.7953323978575583 -3.696858006438942e-17 9.85483614291862e-17 -3.696858006438942e-17 9.85483614291862e-17 0.6061740808377815 -0.7953319959113284
12638266666.666666 0.5979709918707281 -0.8015177433350831 -3.5938430632528035e-17 9.890680650199817e-17 -3.5938430632528035e-17 9.890680650199817e-17 0.5979715233209653 -0.8015173468472347
12638884000.0 0.5897053201138021 -0.8076184962154506 -3.490482465876286e-17 9.925449109743886e-17 -3.490482465876286e-17 9.925449109743886e-17 0.5897058555830206 -0.8076181052272937
12639501333.333334 0.5813774105555568 -0.8136340126221013 -3.386787446063609e-17 9.959138209251707e-17 -3.386787446063609e-17 9.959138209251707e-17 0.5813779499868538 -0.8136336271743628
12640118666.666666 0.5729881421279736 -0.81956365767435 -3.2827692670799514e-17 9.991744753576159e-17 -3.2827692670799514e-17 9.991744753576159e-17 0.5729886854640327 -0.8195632778071664
12640736000.0 0.564538400238623 -0.8254068055545972 -3.178439222473789e-17 1.0023265665021319e-16 -3.178439222473789e-17 1.0023265665021319e-16 0.5645389474217211 -0.8254064313075119
12641353333.333334 0.5560290766778454 -0.8311628395739368 -3.0738086348621585e-17 1.0053697983624011e-16 -3.0738086348621585e-17 1.0053697983624011e-16 0.5560296276498604 -0.8311624709858986
12641970666.666666 0.5474610695239829 -0.8368311522377035 -2.9688888546961653e-17 1.0083038867427994e-16 -2.9688888546961653e-17 1.0083038867427994e-16 0.5474616242263975 -0.8368307893470586
12642588000.0 0.5388352830490136 -0.842411145309294 -2.8636912590356636e-17 1.0111285592741668e-16 -2.8636912590356636e-17 1.0111285592741668e-16 0.5388358414229224 -0.8424107881537828
12643205333.333334 0.5301526276229258 -0.8479022298734299 -2.7582272503184592e-17 1.0138435554384092e-16 -2.7582272503184592e-17 1.0138435554384092e-16 0.5301531896090422 -0.8479018784901856
12643822666.666666 0.5214140196176126 -0.8533038263983297 -2.652508255123788e-17 1.0164486265919043e-16 -2.652508255123788e-17 1.0164486265919043e-16 0.5214145851562748 -0.853303480823872
12644440000.0 0.5126203813103511 -0.858615364796751 -2.5465457229388837e-17 1.0189435359874876e-16 -2.5465457229388837e-17 1.0189435359874876e-16 0.5126209503415277 -0.8586150250669828
12645057333.333334 0.5037726407862703 -0.8638362844862763 -2.4403511249218426e-17 1.0213280587952003e-16 -2.4403511249218426e-17 1.0213280587952003e-16 0.5037732132495675 -0.863835950636481
12645674666.666666 0.4948717318405974 -0.8689660344483647 -2.3339359526603318e-17 1.0236019821218104e-16 -2.3339359526603318e-17 1.0236019821218104e-16 0.49487230767526447 -0.8689657065131999
12646292000.0 0.4859185938797583 -0.8740040732867008 -2.2273117169291422e-17 1.0257651050290198e-16 -2.2273117169291422e-17 1.0257651050290198e-16 0.4859191730246963 -0.8740037513002001
12646909333.333334 0.4769141718226298 -0.878949869284115 -2.120489946452021e-17 1.0278172385502592e-16 -2.120489946452021e-17 1.0278172385502592e-16 0.47691475421639423 -0.8789495532796766
12647526666.666666 0.4678594160006358 -0.8838029004587913 -2.0134821866527182e-17 1.029758205706398e-16 -2.0134821866527182e-17 1.029758205706398e-16 0.4678600015814466 -0.8838025904691811
12648144000.0 0.45875528205732624 -0.8885626546194314 -1.9062999984105612e-17 1.0315878415200249e-16 -1.9062999984105612e-17 1.0315878415200249e-16 0.4587558707630731 -0.8885623506767778
12648761333.333334 0.4496027308476918 -0.893228629419213 -1.798954956815747e-17 1.0333059930284314e-16 -1.798954956815747e-17 1.0333059930284314e-16 0.44960332261594044 -0.8932283315550024
12649378666.666666 0.4404027283368316 -0.8978003324087717 -1.6914586499194966e-17 1.0349125192953786e-16 -1.6914586499194966e-17 1.0349125192953786e-16 0.4404033231048307 -0.8978000406538467
12649996000.0 0.4311562454977017 -0.9022772810883315 -1.58382267748623e-17 1.0364072914215091e-16 -1.58382267748623e-17 1.0364072914215091e-16 0.4311568432023893 -0.9022769954728854
12650613333.333334 0.421864258208916 -0.9066590029584825 -1.4760586497429176e-17 1.0377901925535009e-16 -1.4760586497429176e-17 1.0377901925535009e-16 0.4218648587869259 -0.9066587235120576
12651230666.666666 0.41252774715167523 -0.9109450355700892 -1.3681781861310368e-17 1.0390611178918745e-16 -1.3681781861310368e-17 1.0390611178918745e-16 0.41252835053934556 -0.9109447623215766
12651848000.0 0.4031476977060872 -0.9151349265731853 -1.2601929140538991e-17 1.0402199746975643e-16 -1.2601929140538991e-17 1.0402199746975643e-16 0.4031483038394647 -0.9151346595508169
12652465333.333334 0.3937250998474759 -0.9192282337645651 -1.1521144676265626e-17 1.0412666822971517e-16 -1.1521144676265626e-17 1.0412666822971517e-16 0.3937257086623246 -0.9192279729959142
12653082666.666666 0.3842609480417217 -0.9232245251345444 -1.0439544864255182e-17 1.0422011720868067e-16 -1.0439544864255182e-17 1.0422011720868067e-16 0.38426155947352775 -0.9232242706465201
12653700000.0 0.3747562411402481 -0.9271233789125689 -9.357246142353052e-18 1.0430233875349557e-16 -9.357246142353052e-18 1.0430233875349557e-16 0.374756855124229 -0.927123130731417
12654317333.333334 0.36521198227478974 -0.9309243836116582 -8.27436497799331e-18 1.0437332841836252e-16 -8.27436497799331e-18 1.0437332841836252e-16 0.36521259874589934 -0.9309241417629547
12654934666.666666 0.3556291787513347 -0.934627138071904 -7.191017855681732e-18 1.044330829648501e-16 -7.191017855681732e-18 1.044330829648501e-16 0.35562979764427083 -0.9346269025805548
12655552000.0 0.3460088419438931 -0.9382312515027805 -6.107321264467164e-18 1.0448160036177092e-16 -6.107321264467164e-18 1.0448160036177092e-16 0.34600946319310427 -0.9382310223930176
12656169333.333334 0.33635198718780845 -0.9417363435243647 -5.023391685473621e-18 1.0451887978492621e-16 -5.023391685473621e-18 1.0451887978492621e-16 0.33635261072750106 -0.9417361208197449
12656786666.666666 0.3266596336725465 -0.9451420442075065 -3.939345579381722e-18 1.0454492161672442e-16 -3.939345579381722e-18 1.0454492161672442e-16 0.32666025943669186 -0.9451418279309087
12657404000.0 0.3169328043340768 -0.9484479941128906 -2.8552993739350153e-18 1.0455972744566997e-16 -2.8552993739350153e-18 1.0455972744566997e-16 0.31693343225641735 -0.9484477842865119
12658021333.333334 0.30717252574693416 -0.9516538443289533 -1.7713694514606196e-18 1.0456330006572111e-16 -1.7713694514606196e-18 1.0456330006572111e-16 0.30717315576099175 -0.9516536409743098
12658638666.666666 0.29737982801609414 -0.9547592565086477 -6.876721364204627e-19 1.0455564347552053e-16 -6.876721364204627e-19 1.0455564347552053e-16 0.29738046005517565 -0.954759059646568
12659256000.0 0.28755574466781975 -0.9577639029052842 3.9567631709777886e-19 1.0453676287749585e-16 3.9567631709777886e-19 1.0453676287749585e-16 0.2875563786650254 -0.9577637125559119
12659873333.333334 0.277701312540908 -0.9606674664070205 1.478559737794074e-18 1.0450666467683183e-16 1.478559737794074e-18 1.0450666467683183e-16 0.27770194842913776 -0.9606672825898089
12660490666.666666 0.26781757167734427 -0.963469640570308 2.560862049582483e-18 1.044653564803143e-16 2.560862049582483e-18 1.044653564803143e-16 0.2678182093893048 -0.9634694633040186
12661108000.0 0.25790556521207075 -0.9661701296523658 3.642467284058935e-18 1.0441284709504375e-16 3.642467284058935e-18 1.0441284709504375e-16 0.2579062046802832 -0.9661699589550683
12661725333.333334 0.2479663392634964 -0.9687686486422274 4.723259592854626e-18 1.0434914652702363e-16 4.723259592854626e-18 1.0434914652702363e-16 0.24796698042030305 -0.9687684845312962
12662342666.666666 0.23800094282259499 -0.9712649232909548 5.80312326004593e-18 1.04274265979618e-16 5.80312326004593e-18 1.04274265979618e-16 0.23800158560016607 -0.9712647657830656
12662960000.0 0.22801042764241272 -0.9736586901405194 6.8819427145244535e-18 1.0418821785188203e-16 6.8819427145244535e-18 1.0418821785188203e-16 0.22801107197275494 -0.9736585392516528
12663577333.333334 0.217995848127123 -0.9759496965516018 7.95960254233787e-18 1.0409101573676528e-16 7.95960254233787e-18 1.0409101573676528e-16 0.21799649394208526 -0.9759495522970362
12664194666.666666 0.20795826122054914 -0.9781377007302972 9.035987499006098e-18 1.0398267441918793e-16 9.035987499006098e-18 1.0398267441918793e-16 0.20795890845183027 -0.9781375631246099
12664812000.0 0.19789872629483618 -0.9802224717535858 1.0110982521844122e-17 1.0386320987398799e-16 1.0110982521844122e-17 1.0386320987398799e-16 0.1978993748739922 -0.9802223408106499
12665429333.333334 0.18781830503842148 -0.9822037895937497 1.1184472742219032e-17 1.0373263926374403e-16 1.1184472742219032e-17 1.0373263926374403e-16 0.18781895489687317 -0.9822036653267358
12666046666.666666 0.17771806134420687 -0.9840814451415516 1.225634349780816e-17 1.0359098093647038e-16 1.225634349780816e-17 1.0359098093647038e-16 0.17771871241324638 -0.9840813275629233
12666664000.0 0.16759906119705154 -0.9858552402283484 1.3326480344847851e-17 1.034382544231825e-16 1.3326480344847851e-17 1.034382544231825e-16 0.1675997134078501 -0.9858551293498627
12667281333.333334 0.1574623725614627 -0.9875249876469667 1.439476907028049e-17 1.0327448043534616e-16 1.439476907028049e-17 1.0327448043534616e-16 0.15746302584507776 -0.9875248834796722
12667898666.666666 0.14730906526882695 -0.989090511171476 1.546109570396912e-17 1.0309968086218847e-16 1.546109570396912e-17 1.0309968086218847e-16 0.14730971955620928 -0.9890904137257113
12668516000.0 0.13714021090430226 -0.9905516455758127 1.6525346530825177e-17 1.0291387876788992e-16 1.6525346530825177e-17 1.0291387876788992e-16 0.13714086612630363 -0.9905515548612068
12669133333.333334 0.12695688269405997 -0.9919082366511703 1.7587408102878153e-17 1.027170983886576e-16 1.7587408102878153e-17 1.027170983886576e-16 0.12695753878144023 -0.9919081526766413
12669750666.666666 0.11676015539181919 -0.9931601412223037 1.864716725139352e-17 1.025093651296589e-16 1.864716725139352e-17 1.025093651296589e-16 0.11676081227525352 -0.9931600639960563
12670368000.0 0.1065511051653319 -0.9943072271626481 1.970451109888886e-17 1.0229070556184312e-16 1.970451109888886e-17 1.0229070556184312e-16 0.10655176277541835 -0.9943071566921755
