! Parameters = {f0=12700.012000; bw=77.238000; Q=6100.000000; N=10; m_0_1=1.288984; m_1_1=0.570014; m_1_2=1.123796; m_2_2=0.569365; m_2_3=0.760759; m_2_8=0.001513; m_2_9=0.038217; m_3_3=0.567428; m_3_4=0.649288; m_3_7=0.002113; m_3_8=-0.094975; m_3_9=0.001513; m_4_4=0.564503; m_4_5=0.485623; m_4_6=0.005630; m_4_7=-0.115524; m_4_8=0.002113; m_5_5=0.564885; m_5_6=0.892978; m_5_7=0.005630; m_6_6=0.564884; m_6_7=0.485965; m_7_7=0.564517; m_7_8=0.649406; m_8_8=0.567426; m_8_9=0.761072; m_9_9=0.569360; m_9_10=1.124874; m_10_10=0.570004; m_10_11=1.289779}
!
! Created with skrf (http://scikit-rf.org).
# Hz S RI R 50.0 
!freq ReS11 ImS11 ReS21 ImS21 ReS12 ImS12 ReS22 ImS22
12607400000.0 -0.28851720610192255 0.957474710779851 5.642592824525628e-19 -1.2085743538767556e-16 5.642592824525628e-19 -1.2085743538767556e-16 -0.2885178563021241 0.9574745148538656
12608017333.333334 -0.2778868938440409 0.9606138007698661 -7.859160769861957e-19 -1.2083253008072827e-16 -7.859160769861957e-19 -1.2083253008072827e-16 -0.2778875461439953 0.9606136120719331
12608634666.666666 -0.2672224411205485 0.9636348722215239 -2.135464605478079e-18 -1.2079255032226922e-16 -2.135464605478079e-18 -1.2079255032226922e-16 -0.26722309543991396 0.963634690774117
12609252000.0 -0.25652515813871957 0.9665375539738346 -3.4842181026314586e-18 -1.2073750700569815e-16 -3.4842181026314586e-18 -1.2073750700569815e-16 -0.25652581439691446 0.9665373797985354
12609869333.333334 -0.24579635913913117 0.9693214894108998 -4.8320085331338504e-18 -1.2066741290003981e-16 -4.8320085331338504e-18 -1.2066741290003981e-16 -0.24579701725534345 0.969321322528394
12610486666.666666 -0.23503736223455565 0.971986336505632 -6.178668047647582e-18 -1.2058228264761783e-16 -6.178668047647582e-18 -1.2058228264761783e-16 -0.23503802212775288 0.9719861769357072
12611104000.0 -0.22424948924749738 0.9745317678619071 -7.524029003728846e-18 -1.204821327614905e-16 -7.524029003728846e-18 -1.204821327614905e-16 -0.2242501508364367 0.9745316156234507
12611721333.333334 -0.21343406554837632 0.9769574707546436 -8.867923986592888e-18 -1.2036698162266265e-16 -8.867923986592888e-18 -1.2036698162266265e-16 -0.2134347287516146 0.9769573258656403
12612338666.666666 -0.20259241989233745 0.9792631471683108 -1.0210185829972751e-17 -1.2023684947705677e-16 -1.0210185829972751e-17 -1.2023684947705677e-16 -0.20259308462824133 0.9792630096458417
12612956000.0 -0.19172588425591996 0.9814485138335602 -1.1550647636870402e-17 -1.2009175843225706e-16 -1.1550647636870402e-17 -1.2009175843225706e-16 -0.19172655044267561 0.9814483836937988
12613573333.333334 -0.18083579367385794 0.9835133022619286 -1.2889142800235429e-17 -1.1993173245402594e-16 -1.2889142800235429e-17 -1.1993173245402594e-16 -0.18083646122948152 0.9835131795201407
12614190666.666666 -0.1699234860745615 0.985457258778932 -1.42255050236985e-17 -1.1975679736258088e-16 -1.42255050236985e-17 -1.1975679736258088e-16 -0.16992415491690865 0.9854571434494719
12614808000.0 -0.15899030211610363 0.9872801445551548 -1.5559568342155486e-17 -1.1956698082865037e-16 -1.5559568342155486e-17 -1.1956698082865037e-16 -0.15899097216288038 0.9872800366514658
12615425333.333334 -0.14803758502126016 0.9889817356356442 -1.689116714237739e-17 -1.1936231236929478e-16 -1.689116714237739e-17 -1.1936231236929478e-16 -0.14803825619003233 0.9889816351702553
12616042666.666666 -0.13706668041270784 0.9905618229673799 -1.82201361835102e-17 -1.191428233435026e-16 -1.82201361835102e-17 -1.191428233435026e-16 -0.13706735262091163 0.9905617299519056
12616660000.0 -0.12607893614748064 0.9920202124249979 -1.9546310617574828e-17 -1.1890854694755376e-16 -1.9546310617574828e-17 -1.1890854694755376e-16 -0.12607960931243267 0.9920201268701369
12617277333.333334 -0.11507570215154385 0.9933567248346122 -2.0869526009862377e-17 -1.1865951821016091e-16 -2.0869526009862377e-17 -1.1865951821016091e-16 -0.11507637619045125 0.9933566467501448
12617894666.666666 -0.10405833025400275 0.9945711959958253 -2.2189618359283607e-17 -1.183957739873831e-16 -2.2189618359283607e-17 -1.183957739873831e-16 -0.10405900508397335 0.9945711253906134
12618512000.0 -0.0930281740206247 0.9956634767019454 -2.3506424118710165e-17 -1.1811735295730335e-16 -2.3506424118710165e-17 -1.1811735295730335e-16 -0.09302884955867734 0.9956634135839316
12619129333.333334 -0.08198658858813694 0.9966334327582527 -2.4819780215133307e-17 -1.1782429561450216e-16 -2.4819780215133307e-17 -1.1782429561450216e-16 -0.08198726475121135 0.9966333771344568
12619746666.666666 -0.07093493049725719 0.9974809449985335 -2.6129524069883613e-17 -1.1751664426428371e-16 -2.6129524069883613e-17 -1.1751664426428371e-16 -0.07093560720222485 0.9974808968750581
12620364000.0 -0.059874557526117526 0.9982059092997146 -2.7435493618713445e-17 -1.171944430166891e-16 -2.7435493618713445e-17 -1.171944430166891e-16 -0.05987523468979117 0.9982058686817372
12620981333.333334 -0.048806828523762794 0.9988082365946279 -2.87375273317813e-17 -1.1685773778029572e-16 -2.87375273317813e-17 -1.1685773778029572e-16 -0.04880750606290705 0.9988082034864043
12621598666.666666 -0.037733103242865995 0.9992878528829829 -3.0035464233638024e-17 -1.1650657625577534e-16 -3.0035464233638024e-17 -1.1650657625577534e-16 -0.037733781074207474 0.9992878272878456
12622216000.0 -0.026654742172728934 0.999644699240447 -3.1329143923089526e-17 -1.161410079292429e-16 -3.1329143923089526e-17 -1.161410079292429e-16 -0.026655420212966543 0.9996446811608058
12622833333.333334 -0.01557310637227819 0.9998787318258826 -3.261840659296998e-17 -1.1576108406538687e-16 -3.261840659296998e-17 -1.1576108406538687e-16 -0.015573784538093285 0.999878721263224
12623450666.666666 -0.00448955730273523 0.999989921886738 -3.390309304986337e-17 -1.1536685770037413e-16 -3.390309304986337e-17 -1.1536685770037413e-16 -0.004490235510801891 0.9999899188416231
12624068000.0 0.006594543339563964 0.9999782557625744 -3.5183044733717166e-17 -1.1495838363454128e-16 -3.5183044733717166e-17 -1.1495838363454128e-16 0.006593865172568685 0.9999782602346438
12624685333.333334 0.01767783379071914 0.9998437348867504 -3.645810373740904e-17 -1.1453571842485825e-16 -3.645810373740904e-17 -1.1453571842485825e-16 0.017677155748104995 0.9998437468747184
12625302666.666666 0.02875895238605704 0.9995863757862423 -3.7728112826136077e-17 -1.1409892037720244e-16 -3.7728112826136077e-17 -1.1409892037720244e-16 0.028758274551110376 0.999586395287902
12625920000.0 0.03983653772807564 0.9992062100796102 -3.899291545684604e-17 -1.1364804953837508e-16 -3.899291545684604e-17 -1.1364804953837508e-16 0.039835860184049124 0.9992062370918309
12626537333.333334 0.05090922885310517 0.9987032844731218 -4.025235579742877e-17 -1.1318316768795173e-16 -4.025235579742877e-17 -1.1318316768795173e-16 0.0509085516832076 0.9987033189918504
12627154666.666666 0.06197566539876848 0.998077660755013 -4.1506278745927906e-17 -1.127043383298806e-16 -4.1506278745927906e-17 -1.127043383298806e-16 0.06197498868615457 0.9980777027752751
12627772000.0 0.07303448777136695 0.9973294157878794 -4.275452994960205e-17 -1.122116266838861e-16 -4.275452994960205e-17 -1.122116266838861e-16 0.0730338115991271 0.9973294653037794
12628389333.333334 0.08408433731232087 0.9964586414992683 -4.399695582387267e-17 -1.117050996766675e-16 -4.399695582387267e-17 -1.117050996766675e-16 0.08408366176347093 0.9964586985039898
12629006666.666666 0.0951238564657429 0.9954654448703405 -4.5233403571209817e-17 -1.1118482593287132e-16 -4.5233403571209817e-17 -1.1118482593287132e-16 0.09512318162321404 0.9954655093561483
12629624000.0 0.10615168894468528 0.994349947922767 -4.646372119988087e-17 -1.1065087576586889e-16 -4.646372119988087e-17 -1.1065087576586889e-16 0.10615101489131398 0.9943500198810092
12630241333.333334 0.11716647989816675 0.9931122877037077 -4.7687757542594355e-17 -1.1010332116832485e-16 -4.7687757542594355e-17 -1.1010332116832485e-16 0.11716580671668411 0.9931123671248121
12630858666.666666 0.12816687607722946 0.9917526162690086 -4.890536227504644e-17 -1.0954223580255517e-16 -4.890536227504644e-17 -1.0954223580255517e-16 0.12816620385025163 0.9917527031424894
12631476000.0 0.13915152600173258 0.9902711006644636 -5.0116385934357676e-17 -1.0896769499067832e-16 -5.0116385934357676e-17 -1.0896769499067832e-16 0.13915085481175035 0.9902711949789201
12632093333.333334 0.15011908012582742 0.9886679229053584 -5.1320679937370634e-17 -1.0837977570457519e-16 -5.1320679937370634e-17 -1.0837977570457519e-16 0.15011841005519594 0.9886680246484757
12632710666.666666 0.16106819100401296 0.9869432799540788 -5.2518096598839844e-17 -1.0777855655564286e-16 -5.2518096598839844e-17 -1.0777855655564286e-16 0.16106752213494202 0.9869433891126324
12633328000.0 0.17199751345687617 0.9850973836958812 -5.370848914954858e-17 -1.0716411778432542e-16 -5.370848914954858e-17 -1.0716411778432542e-16 0.17199684587142008 0.9850975002557371
12633945333.333334 0.18290570473604856 0.9831304609129093 -5.489171175421232e-17 -1.0653654124949022e-16 -5.489171175421232e-17 -1.0653654124949022e-16 0.18290503851609535 0.9831305848590228
12634562666.666666 0.1937914246892557 0.9810427532563135 -5.606761952935061e-17 -1.0589591041756166e-16 -5.606761952935061e-17 -1.0589591041756166e-16 0.19379075991651826 0.981042884572737
12635180000.0 0.20465333592499516 0.9788345172165676 -5.723606856096589e-17 -1.0524231035149184e-16 -5.723606856096589e-17 -1.0524231035149184e-16 0.20465267268100026 0.9788346558864485
12635797333.333334 0.21549010397695448 0.9765060240919261 -5.839691592214927e-17 -1.0457582769950855e-16 -5.839691592214927e-17 -1.0457582769950855e-16 0.21548944234303333 0.9765061700975102
12636414666.666666 0.22630039746765515 0.9740575599551609 -5.955001969049287e-17 -1.0389655068370316e-16 -5.955001969049287e-17 -1.0389655068370316e-16 0.22629973752493288 0.9740577132777938
12637032000.0 0.23708288827241075 0.9714894256183297 -6.069523896544802e-17 -1.0320456908838475e-16 -6.069523896544802e-17 -1.0320456908838475e-16 0.23708223010179721 0.9714895862384614
12637649333.333334 0.2478362516821642 0.9688019365958934 -6.183243388547152e-17 -1.0249997424828608e-16 -6.183243388547152e-17 -1.0249997424828608e-16 0.2478355953643437 0.9688021044930794
12638266666.666666 0.25855916656648775 0.9659954230658978 -6.296146564509805e-17 -1.0178285903654633e-16 -6.296146564509805e-17 -1.0178285903654633e-16 0.2585585121819086 0.9659955982187999
12638884000.0 0.26925031553567125 0.9630702298294556 -6.408219651182387e-17 -1.0105331785253499e-16 -6.408219651182387e-17 -1.0105331785253499e-16 0.26924966316453686 0.9630704122158474
12639501333.333334 0.2799083851028227 0.9600267162683284 -6.519448984289983e-17 -1.0031144660946072e-16 -6.519448984289983e-17 -1.0031144660946072e-16 0.27990773482508086 0.9600269058650964
12640118666.666666 0.29053206584485486 0.9568652563008746 -6.629821010191583e-17 -9.955734272183822e-17 -6.629821010191583e-17 -9.955734272183822e-17 0.29053141774018915 0.956865453084024
12640736000.0 0.30112005256401453 0.9535862383359271 -6.73932228753482e-17 -9.879110509270046e-17 -6.73932228753482e-17 -9.879110509270046e-17 0.30111940671183274 0.953586442280579
12641353333.333334 0.31167104444738875 0.9501900652253171 -6.847939488880322e-17 -9.80128341007381e-17 -6.847939488880322e-17 -9.80128341007381e-17 0.31167040092681497 0.9501902763057181
12641970666.666666 0.322183745227375 0.9466771542141924 -6.955659402328307e-17 -9.722263158714186e-17 -6.955659402328307e-17 -9.722263158714186e-17 0.3221831041172388 0.9466773724037132
12642588000.0 0.3326568633407443 0.9430479368898042 -7.062468933116984e-17 -9.642060084235849e-17 -7.062468933116984e-17 -9.642060084235849e-17 0.33265622471957196 0.9430481621609472
12643205333.333334 0.3430891120871601 0.9393028591285468 -7.168355105213262e-17 -9.56068465926192e-17 -7.168355105213262e-17 -9.56068465926192e-17 0.343088476033164 0.9393030914529453
12643822666.666666 0.3534792097875792 0.9354423810410599 -7.273305062884362e-17 -9.478147498631839e-17 -7.273305062884362e-17 -9.478147498631839e-17 0.3534785763786486 0.9354426203894831
12644440000.0 0.36382587994136834 0.9314669769158265 -7.377306072255801e-17 -9.394459358020778e-17 -7.377306072255801e-17 -9.394459358020778e-17 0.3638252492550602 0.9314672232581845
12645057333.333334 0.3741278513833718 0.9273771351608157 -7.480345522851096e-17 -9.309631132543795e-17 -7.480345522851096e-17 -9.309631132543795e-17 0.374127223496901 0.9273773884661618
12645674666.666666 0.38438385843987233 0.9231733582435618 -7.582410929117929e-17 -9.223673855341324e-17 -7.582410929117929e-17 -9.223673855341324e-17 0.3843832334301024 0.9231736184800983
12646292000.0 0.394592641084483 0.9188561626292717 -7.683489931939851e-17 -9.136598696146353e-17 -7.683489931939851e-17 -9.136598696146353e-17 0.3945920190279168 0.9188564297643517
12646909333.333334 0.4047529450924259 0.9144260787175895 -7.783570300123912e-17 -9.048416959841758e-17 -7.783570300123912e-17 -9.048416959841758e-17 0.404752326065195 0.9144263527177202
12647526666.666666 0.41486352219496275 0.9098836507772894 -7.882639931881264e-17 -8.959140084993169e-17 -7.882639931881264e-17 -8.959140084993169e-17 0.41486290627282035 0.9098839316081406
12648144000.0 0.4249231302327811 0.9052294368793993 -7.98068685628566e-17 -8.868779642370374e-17 -7.98068685628566e-17 -8.868779642370374e-17 0.42492251749109083 0.9052297245058034
12648761333.333334 0.43493053330844417 0.9004640088286996 -8.077699234714516e-17 -8.777347333453244e-17 -8.077699234714516e-17 -8.777347333453244e-17 0.4349299238221715 0.9004643032146575
12649378666.666666 0.44488450193818124 0.895587952093504 -8.173665362275057e-17 -8.684854988920245e-17 -8.173665362275057e-17 -8.684854988920245e-17 0.4448838957818851 0.895588253202191
12649996000.0 0.4547838132031191 0.8906018657336455 -8.268573669214319e-17 -8.591314567120129e-17 -8.268573669214319e-17 -8.591314567120129e-17 0.45478321045094167 0.8906021735274138
12650613333.333334 0.46462725089952456 0.8855063623268723 -8.362412722308814e-17 -8.496738152531107e-17 -8.362412722308814e-17 -8.496738152531107e-17 0.4646266516251827 0.8855066767672568
12651230666.666666 0.47441360568794605 0.8803020678937329 -8.455171226236175e-17 -8.401137954205404e-17 -8.455171226236175e-17 -8.401137954205404e-17 0.4744130099647217 0.880302388941455
12651848000.0 0.4841416752422439 0.8749896218204269 -8.546838024934815e-17 -8.304526304193154e-17 -8.546838024934815e-17 -8.304526304193154e-17 0.48414108314297616 0.874989949435401
12652465333.333334 0.4938102643968773 0.8695696767804781 -8.637402102937808e-17 -8.206915655959458e-17 -8.637402102937808e-17 -8.206915655959458e-17 0.49380967599395303 0.8695700109218155
12653082666.666666 0.5034181852939421 0.8640428986544442 -8.726852586693248e-17 -8.108318582782402e-17 -8.726852586693248e-17 -8.108318582782402e-17 0.5034176006592866 0.8640432392804579
12653700000.0 0.5129642575291538 0.8584099664480747 -8.815178745868633e-17 -8.008747776134166e-17 -8.815178745868633e-17 -8.008747776134166e-17 0.5129636767342224 0.8584103135162857
12654317333.333334 0.5224473082967221 0.8526715722089776 -8.902369994629076e-17 -7.908216044056523e-17 -8.902369994629076e-17 -7.908216044056523e-17 0.5224467314124922 0.8526719256761203
12654934666.666666 0.5318661725334908 0.8468284209415708 -8.98841589290571e-17 -7.80673630951296e-17 -8.98841589290571e-17 -7.80673630951296e-17 0.5318655996304518 0.846828780763597
12655552000.0 0.5412196930622649 0.840881230520344 -9.073306147640712e-17 -7.704321608731971e-17 -9.073306147640712e-17 -7.704321608731971e-17 0.54121912421041 0.840881596652428
12656169333.333334 0.5505067207335923 0.8348307316019017 -9.157030614011981e-17 -7.600985089539161e-17 -9.157030614011981e-17 -7.600985089539161e-17 0.5505061560024106 0.834831103998449
12656786666.666666 0.5597261145672614 0.8286776675350056 -9.23957929664375e-17 -7.496740009670007e-17 -9.23957929664375e-17 -7.496740009670007e-17 0.5597255540257293 0.8286780461496552
12657404000.0 0.5688767418924268 0.8224227942692722 -9.32094235079503e-17 -7.391599735073193e-17 -9.32094235079503e-17 -7.391599735073193e-17 0.5688761856089987 0.8224231790549045
12658021333.333334 0.5779574784866486 0.8160668802623804 -9.401110083528182e-17 -7.285577738201928e-17 -9.401110083528182e-17 -7.285577738201928e-17 0.57795692652925 0.8160672711711227
12658638666.666666 0.5869672087140863 0.8096107063856159 -9.480072954859868e-17 -7.178687596290584e-17 -9.480072954859868e-17 -7.178687596290584e-17 0.586966661150103 0.8096111033688458
12659256000.0 0.5959048256626018 0.8030550658278944 -9.557821578892102e-17 -7.070942989619078e-17 -9.557821578892102e-17 -7.070942989619078e-17 0.5959042825588756 0.8030554688362512
12659873333.333334 0.6047692312797367 0.7964007639983385 -9.634346724923133e-17 -6.962357699765966e-17 -9.634346724923133e-17 -6.962357699765966e-17 0.604768692702553 0.7964011729817235
12660490666.666666 0.6135593365074259 0.7896486184274542 -9.709639318537125e-17 -6.852945607851482e-17 -9.709639318537125e-17 -6.852945607851482e-17 0.6135588025225085 0.7896490333350412
12661108000.0 0.622274061416212 0.7827994586663902 -9.783690442679009e-17 -6.742720692761696e-17 -9.783690442679009e-17 -6.742720692761696e-17 0.6222735320887136 0.782799879446629
12661725333.333334 0.6309123353374196 0.7758541261853952 -9.856491338701512e-17 -6.631697029372204e-17 -9.856491338701512e-17 -6.631697029372204e-17 0.6309118107319156 0.7758545527860204
12662342666.666666 0.6394730969951281 0.7688134742701122 -9.928033407399904e-17 -6.519888786749166e-17 -9.928033407399904e-17 -6.519888786749166e-17 0.6394725771756054 0.7688139066381466
12662960000.0 0.6479552946362604 0.7616783679169684 -9.998308210020374e-17 -6.407310226348234e-17 -9.998308210020374e-17 -6.407310226348234e-17 0.6479547796661143 0.7616788059987342
12663577333.333334 0.6563578861600035 0.7544496837267486 -1.0067307469252069e-16 -6.293975700196427e-17 -1.0067307469252069e-16 -6.293975700196427e-17 0.6563573761020254 0.7544501274678692
12664194666.666666 0.6646798392456604 0.7471283097970419 -1.0135023070195573e-16 -6.179899649068311e-17 -1.0135023070195573e-16 -6.179899649068311e-17 0.6646793341620317 0.7471287591424502
12664812000.0 0.6729201314796487 0.73971514561298 -1.0201447061313534e-16 -6.065096600647182e-17 -1.0201447061313534e-16 -6.065096600647182e-17 0.6729196314319364 0.7397156005069289
12665429333.333334 0.6810777504809893 0.7322111019368489 -1.0266571655357921e-16 -5.949581167680449e-17 -1.0266571655357921e-16 -5.949581167680449e-17 0.681077255530134 0.7322115623229126
12666046666.666666 0.6891516940256399 0.7246171006962298 -1.0330389230278216e-16 -5.833368046122274e-17 -1.0330389230278216e-16 -5.833368046122274e-17 0.6891512042319498 0.7246175665173136
12666664000.0 0.697140970169918 0.7169340748704621 -1.0392892330108537e-16 -5.716472013266491e-17 -1.0392892330108537e-16 -5.716472013266491e-17 0.6971404855930617 0.7169345460688094
12667281333.333334 0.7050445973719325 0.7091629683764304 -1.0454073665832252e-16 -5.598907925872777e-17 -1.0454073665832252e-16 -5.598907925872777e-17 0.7050441180709328 0.7091634448936295
12667898666.666666 0.7128616046125457 0.7013047359522439 -1.0513926116226765e-16 -5.480690718281291e-17 -1.0513926116226765e-16 -5.480690718281291e-17 0.7128611306457721 0.7013052177292362
12668516000.0 0.7205910315145054 0.6933603430400969 -1.0572442728687922e-16 -5.361835400516562e-17 -1.0572442728687922e-16 -5.361835400516562e-17 0.7205905629396652 0.6933608300171827
12669133333.333334 0.728231928460414 0.6853307656676776 -1.0629616720029181e-16 -5.242357056390135e-17 -1.0629616720029181e-16 -5.242357056390135e-17 0.7282314653345467 0.6853312577845244
12669750666.666666 0.7357833567094391 0.6772169903282186 -1.0685441477264774e-16 -5.122270841584297e-17 -1.0685441477264774e-16 -5.122270841584297e-17 0.7357828990889093 0.6772174875238679
