! Parameters = {f0=12700.012000; bw=77.238000; Q=6100.000000; N=10; m_0_1=1.195290; m_1_1=-0.835391; m_1_2=1.030102; m_2_2=-0.836040; m_2_3=0.667065; m_2_8=-0.003172; m_2_9=0.033532; m_3_3=-0.837977; m_3_4=0.555594; m_3_7=-0.002572; m_3_8=-0.099660; m_3_9=-0.003172; m_4_4=-0.840902; m_4_5=0.391929; m_4_6=0.000945; m_4_7=-0.120209; m_4_8=-0.002572; m_5_5=-0.840520; m_5_6=0.799284; m_5_7=0.000945; m_6_6=-0.840521; m_6_7=0.392271; m_7_7=-0.840888; m_7_8=0.555712; m_8_8=-0.837979; m_8_9=0.667378; m_9_9=-0.836045; m_9_10=1.031180; m_10_10=-0.835401; m_10_11=1.196085}
!
! Created with skrf (http://scikit-rf.org).
# Hz S RI R 50.0 
!freq ReS11 ImS11 ReS21 ImS21 ReS12 ImS12 ReS22 ImS22
12607400000.0 -0.34085366827087393 0.9401163634498302 4.58516839563909e-18 -7.656347422411423e-17 4.58516839563909e-18 -7.656347422411423e-17 -0.3408542604305334 0.9401161487530132
12608017333.333334 -0.3330255379711523 0.9429178071597054 3.940877689880985e-18 -7.658429659488275e-17 3.940877689880985e-18 -7.658429659488275e-17 -0.33302613186629987 0.9429175974039371
12608634666.666666 -0.3251743863804567 0.9456540691193248 3.2965610197055667e-18 -7.65997020238673e-17 3.2965610197055667e-18 -7.65997020238673e-17 -0.3251749819698696 0.9456538643186198
12609252000.0 -0.31730075623099535 0.9483249601771963 2.6522638879626116e-18 -7.660969154527036e-17 2.6522638879626116e-18 -7.660969154527036e-17 -0.3173013534733381 0.9483247603452264
12609869333.333334 -0.3094051918087333 0.9509302957008173 2.0080317783047352e-18 -7.661426657518117e-17 2.0080317783047352e-18 -7.661426657518117e-17 -0.30940579066255997 0.9509301008509091
12610486666.666666 -0.3014882389161163 0.953469895589316 1.3639101519787103e-18 -7.661342891132663e-17 1.3639101519787103e-18 -7.661342891132663e-17 -0.30148883933987364 0.9534697057344502
12611104000.0 -0.2935504448338282 0.9559435842860728 7.1994444461961e-19 -7.660718073279484e-17 7.1994444461961e-19 -7.660718073279484e-17 -0.2935510467858586 0.9559433994388841
12611721333.333334 -0.2855923582835538 0.9583511907906631 7.618006306761764e-20 -7.659552459973211e-17 7.618006306761764e-20 -7.659552459973211e-17 -0.285592961722098 0.9583510109634381
12612338666.666666 -0.2776145293895587 0.9606925486708308 -5.673376178293168e-19 -7.657846345301287e-17 -5.673376178293168e-19 -7.657846345301287e-17 -0.27761513427275925 0.9606923738755094
12612956000.0 -0.2696175096408786 0.96296749607393 -1.2105632584223514e-18 -7.655600061388285e-17 -1.2105632584223514e-18 -7.655600061388285e-17 -0.2696181159267815 0.9629673263221012
12613573333.333334 -0.2616018518532219 0.9651758757381002 -1.8534515574104964e-18 -7.652813978357649e-17 -1.8534515574104964e-18 -7.652813978357649e-17 -0.2616024594997809 0.9651757110410049
12614190666.666666 -0.25356811013070185 0.9673175350031585 -2.4959572550615686e-18 -7.649488504290603e-17 -2.4959572550615686e-18 -7.649488504290603e-17 -0.25356871909578077 0.9673173753716868
12614808000.0 -0.2455168398274501 0.9693923258211746 -3.1380351363615147e-18 -7.645624085182564e-17 -3.1380351363615147e-18 -7.645624085182564e-17 -0.24551745006882514 0.9693921712658637
12615425333.333334 -0.23744859750941708 0.9714001047666484 -3.779640034207191e-18 -7.641221204896761e-17 -3.779640034207191e-18 -7.641221204896761e-17 -0.23744920898478106 0.9713999552976856
12616042666.666666 -0.22936394091567933 0.9733407330464868 -4.420726832557566e-18 -7.63628038511534e-17 -4.420726832557566e-18 -7.63628038511534e-17 -0.22936455358264374 0.973340588673707
12616660000.0 -0.221263428920077 0.9752140765095495 -5.0612504696148356e-18 -7.630802185287647e-17 -5.0612504696148356e-18 -7.630802185287647e-17 -0.22126404273617484 0.9752139372424328
12617277333.333334 -0.2131476214924689 0.9770200056559467 -5.701165940967906e-18 -7.624787202576058e-17 -5.701165940967906e-18 -7.624787202576058e-17 -0.2131482364151583 0.9770198715036206
12617894666.666666 -0.20501707966007962 0.9787583956459817 -6.3404283027523084e-18 -7.61823607179905e-17 -6.3404283027523084e-18 -7.61823607179905e-17 -0.20501769564674593 0.9787582666172182
12618512000.0 -0.19687236546860493 0.9804291263088017 -6.978992674804566e-18 -7.611149465371572e-17 -6.978992674804566e-18 -7.611149465371572e-17 -0.19687298247656437 0.9804290024120187
12619129333.333334 -0.18871404194352565 0.9820320821506697 -7.616814243791363e-18 -7.603528093243014e-17 -7.616814243791363e-18 -7.603528093243014e-17 -0.18871465993002826 0.9820319633939303
12619746666.666666 -0.18054267305113295 0.9835671523629673 -8.253848266350137e-18 -7.595372702832393e-17 -8.253848266350137e-18 -7.595372702832393e-17 -0.18054329197336472 0.9835670387539752
12620364000.0 -0.17235882365931676 0.9850342308298834 -8.890050072236329e-18 -7.586684078960718e-17 -8.890050072236329e-18 -7.586684078960718e-17 -0.17235944347440393 0.9850341223759904
12620981333.333334 -0.16416305949899532 0.9864332161356767 -9.52537506741044e-18 -7.57746304378142e-17 -9.52537506741044e-18 -7.57746304378142e-17 -0.16416368016400587 0.9864331128438734
12621598666.666666 -0.1559559471245018 0.9877640115717632 -1.0159778737193867e-17 -7.567710456707242e-17 -1.0159778737193867e-17 -7.567710456707242e-17 -0.15595656859644988 0.9877639134486865
12622216000.0 -0.14773805387478603 0.9890265251433531 -1.0793216649351184e-17 -7.557427214335374e-17 -1.0793216649351184e-17 -7.557427214335374e-17 -0.14773867611063357 0.9890264321952781
12622833333.333334 -0.13950994783391252 0.9902206695758385 -1.1425644457212698e-17 -7.546614250369361e-17 -1.1425644457212698e-17 -7.546614250369361e-17 -0.13951057079057336 0.9902205818086856
12623450666.666666 -0.13127219779212979 0.9913463623207923 -1.2057017902755386e-17 -7.535272535538918e-17 -1.2057017902755386e-17 -7.535272535538918e-17 -0.13127282142647187 0.9913462797401206
12624068000.0 -0.12302537320618391 0.992403525561716 -1.2687292819697858e-17 -7.523403077516842e-17 -1.2687292819697858e-17 -7.523403077516842e-17 -0.12302599747503261 0.9924034481727264
12624685333.333334 -0.11477004416015081 0.9933920862193948 -1.3316425136587546e-17 -7.511006920833328e-17 -1.3316425136587546e-17 -7.511006920833328e-17 -0.11477066902029193 0.993392014026929
12625302666.666666 -0.10650678132608418 0.9943119759569438 -1.3944370879858763e-17 -7.498085146788142e-17 -1.3944370879858763e-17 -7.498085146788142e-17 -0.10650740673426688 0.994311908965484
12625920000.0 -0.09823615592436857 0.9951631311845544 -1.4571086176914453e-17 -7.484638873359539e-17 -1.4571086176914453e-17 -7.484638873359539e-17 -0.09823678183730834 0.9951630693982232
12626537333.333334 -0.08995873968440168 0.9959454930638711 -1.5196527259167932e-17 -7.470669255111395e-17 -1.5196527259167932e-17 -7.470669255111395e-17 -0.0899593660587833 0.9959454364864297
12627154666.666666 -0.08167510480512885 0.9966590075120558 -1.582065046509715e-17 -7.456177483097245e-17 -1.582065046509715e-17 -7.456177483097245e-17 -0.08167573159760944 0.9966589561469053
12627772000.0 -0.07338582391509159 0.9973036252055579 -1.6443412243290222e-17 -7.441164784761812e-17 -1.6443412243290222e-17 -7.441164784761812e-17 -0.0733864510823037 0.9973035790557396
12628389333.333334 -0.06509147003346652 0.9978793015834767 -1.706476915546102e-17 -7.425632423840539e-17 -1.706476915546102e-17 -7.425632423840539e-17 -0.06509209753202101 0.997879260651671
12629006666.666666 -0.056792616529801984 0.9983859968506883 -1.768467787948489e-17 -7.409581700255801e-17 -1.768467787948489e-17 -7.409581700255801e-17 -0.05679324431629107 0.9983859611392149
12629624000.0 -0.04848983708489255 0.9988236759805625 -1.8303095212404152e-17 -7.393013950011228e-17 -1.8303095212404152e-17 -7.393013950011228e-17 -0.04849046511589273 0.9988236454913789
12630241333.333334 -0.04018370565086667 0.9991923087174006 -1.8919978073426014e-17 -7.375930545083396e-17 -1.8919978073426014e-17 -7.375930545083396e-17 -0.040184333882941785 0.999192283452103
12630858666.666666 -0.03187479641159561 0.9994918695785189 -1.9535283506919064e-17 -7.358332893310839e-17 -1.9535283506919064e-17 -7.358332893310839e-17 -0.0318754248012999 0.9994918495383442
12631476000.0 -0.023563683742888114 0.9997223378560214 -2.014896868540196e-17 -7.340222438280503e-17 -2.014896868540196e-17 -7.340222438280503e-17 -0.023564312246769158 0.9997223230418437
12632093333.333334 -0.015250942172955305 0.9998836976182186 -2.0760990912505057e-17 -7.321600659212195e-17 -2.0760990912505057e-17 -7.321600659212195e-17 -0.01525157074755703 0.9998836880305509
12632710666.666666 -0.006937146342609781 0.9999759377107362 -2.1371307625928028e-17 -7.302469070840373e-17 -2.1371307625928028e-17 -7.302469070840373e-17 -0.006937774944475467 0.9999759333497299
12633328000.0 0.00137712903454331 0.999999051757283 -2.197987640041792e-17 -7.282829223292593e-17 -2.197987640041792e-17 -7.282829223292593e-17 0.0013765004488680034 0.9999990526227303
12633945333.333334 0.009691309211635933 0.9999530381600973 -2.258665495067428e-17 -7.262682701967326e-17 -2.258665495067428e-17 -7.262682701967326e-17 0.009690680685599987 0.9999530442514256
12634562666.666666 0.01800481944849548 0.9998379001000469 -2.3191601134305175e-17 -7.242031127407453e-17 -2.3191601134305175e-17 -7.242031127407453e-17 0.018004191025539507 0.9998379114163252
12635180000.0 0.026317085051147895 0.9996536455364208 -2.3794672954726808e-17 -7.220876155172791e-17 -2.3794672954726808e-17 -7.220876155172791e-17 0.02631645677470113 0.9996536620763558
12635797333.333334 0.034627531411800645 0.9994002872063672 -2.4395828564088493e-17 -7.199219475708927e-17 -2.4395828564088493e-17 -7.199219475708927e-17 0.034626903325277986 0.9994003089683063
12636414666.666666 0.04293558404822318 0.9990778426240283 -2.4995026266143143e-17 -7.177062814215147e-17 -2.4995026266143143e-17 -7.177062814215147e-17 0.04293495619502212 0.9990778696059562
12637032000.0 0.0512406686438572 0.9986863340793112 -2.5592224519159046e-17 -7.15440793050813e-17 -2.5592224519159046e-17 -7.15440793050813e-17 0.051240041067354906 0.9986863662788534
12637649333.333334 0.05954221108717721 0.9982257886363662 -2.6187381938766385e-17 -7.13125661888505e-17 -2.6187381938766385e-17 -7.13125661888505e-17 0.059541583830727364 0.9982258260507856
12638266666.666666 0.06783963751163255 0.9976962381316938 -2.6780457300834582e-17 -7.107610707982861e-17 -2.6780457300834582e-17 -7.107610707982861e-17 0.06783901061856265 0.9976962807578962
12638884000.0 0.07613237433509124 0.99709771917197 -2.7371409544302542e-17 -7.083472060636428e-17 -2.7371409544302542e-17 -7.083472060636428e-17 0.07613174784869935 0.9970977670064991
12639501333.333334 0.08441984829974496 0.9964302731314888 -2.7960197774030554e-17 -7.058842573732978e-17 -2.7960197774030554e-17 -7.058842573732978e-17 0.08441922226329668 0.9964303261705278
12640118666.666666 0.09270148651134048 0.9956939461493335 -2.854678126359341e-17 -7.033724178066093e-17 -2.854678126359341e-17 -7.033724178066093e-17 0.09270086096806633 0.9956940043887096
12640736000.0 0.10097671647946253 0.9948887891261362 -2.913111945813627e-17 -7.008118838184222e-17 -2.913111945813627e-17 -7.008118838184222e-17 0.10097609147255461 0.9948888525613154
12641353333.333334 0.10924496615620266 0.9940148577206356 -2.971317197710585e-17 -6.982028552241524e-17 -2.971317197710585e-17 -6.982028552241524e-17 0.10924434172881162 0.9940149263467242
12641970666.666666 0.11750566397652382 0.9930722123457487 -3.029289861708947e-17 -6.955455351841294e-17 -3.029289861708947e-17 -6.955455351841294e-17 0.11750504017175636 0.9930722861574975
12642588000.0 0.12575823889726334 0.992060918164456 -3.087025935454722e-17 -6.92840130188105e-17 -3.087025935454722e-17 -6.92840130188105e-17 0.12575761575817854 0.9920609971562547
12643205333.333334 0.13400212043686086 0.9909810450852578 -3.144521434858393e-17 -6.900868500393059e-17 -3.144521434858393e-17 -6.900868500393059e-17 0.13400149800646788 0.9909811292511411
12643822666.666666 0.1422367387147106 0.9898326677573579 -3.2017723943681256e-17 -6.872859078383642e-17 -3.2017723943681256e-17 -6.872859078383642e-17 0.1422361170359653 0.9898327570910026
12644440000.0 0.15046152449049904 0.9886158655655087 -3.2587748672429694e-17 -6.844375199669682e-17 -3.2587748672429694e-17 -6.844375199669682e-17 0.15046090360630118 0.988615960060235
12645057333.333334 0.15867590920364016 0.9873307226245135 -3.315524925822654e-17 -6.815419060713742e-17 -3.315524925822654e-17 -6.815419060713742e-17 0.1586752891568303 0.987330822273285
12645674666.666666 0.16687932501252203 0.9859773277734177 -3.372018661798866e-17 -6.785992890455587e-17 -3.372018661798866e-17 -6.785992890455587e-17 0.16687870584587886 0.9859774325688442
12646292000.0 0.17507120483390115 0.9845557745693488 -3.428252186483277e-17 -6.756098950142253e-17 -3.428252186483277e-17 -6.756098950142253e-17 0.1750705865901381 0.9845558845036831
12646909333.333334 0.18325098238179485 0.9830661612810969 -3.4842216310733555e-17 -6.725739533156393e-17 -3.4842216310733555e-17 -6.725739533156393e-17 0.18325036510355747 0.9830662763462377
12647526666.666666 0.19141809220699174 0.9815085908822598 -3.539923146917985e-17 -6.694916964841657e-17 -3.539923146917985e-17 -6.694916964841657e-17 0.1914174759368548 0.9815087110697532
12648144000.0 0.199571969735916 0.9798831710441664 -3.595352905782524e-17 -6.66363360232543e-17 -3.595352905782524e-17 -6.66363360232543e-17 0.1995713545163802 0.9798832963452033
12648761333.333334 0.2077120513097662 0.9781900141284078 -3.650507100108697e-17 -6.631891834341278e-17 -3.650507100108697e-17 -6.631891834341278e-17 0.2077114371832556 0.978190144533828
12649378666.666666 0.21583777422325737 0.9764292371791181 -3.705381943276746e-17 -6.59969408104726e-17 -3.705381943276746e-17 -6.59969408104726e-17 0.21583716123211658 0.97642937267941
12649996000.0 0.22394857676388197 0.9746009619148117 -3.759973669863882e-17 -6.567042793843136e-17 -3.759973669863882e-17 -6.567042793843136e-17 0.22394796495037259 0.9746011025001104
12650613333.333334 0.2320438982504326 0.9727053147200271 -3.814278535902483e-17 -6.533940455184786e-17 -3.814278535902483e-17 -6.533940455184786e-17 0.23204328765673093 0.9727054603801194
12651230666.666666 0.24012317907187275 0.9707424266365725 -3.8682928191346306e-17 -6.500389578397658e-17 -3.8682928191346306e-17 -6.500389578397658e-17 0.24012256974006674 0.9707425773608943
12651848000.0 0.24818586072607673 0.9687124333544511 -3.922012819267758e-17 -6.466392707486438e-17 -3.922012819267758e-17 -6.466392707486438e-17 0.24818525269816252 0.968712589132088
12652465333.333334 0.25623138585840843 0.9666154752024843 -3.975434858225931e-17 -6.431952416944373e-17 -3.975434858225931e-17 -6.431952416944373e-17 0.25623077917628856 0.9666156360221763
12653082666.666666 0.26425919830003197 0.9644516971386742 -4.02855528040128e-17 -6.397071311559341e-17 -4.02855528040128e-17 -6.397071311559341e-17 0.2642585930055117 0.964451862988813
12653700000.0 0.2722687431068518 0.9622212487400498 -4.08137045290373e-17 -6.361752026217859e-17 -4.08137045290373e-17 -6.361752026217859e-17 0.2722681392416359 0.9622214196086792
12654317333.333334 0.28025946659727063 0.9599242841924868 -4.133876765807241e-17 -6.325997225708202e-17 -4.133876765807241e-17 -6.325997225708202e-17 0.28025886420296175 0.9599244600673066
12654934666.666666 0.28823081639095893 0.9575609622799194 -4.1860706323968516e-17 -6.28980960451989e-17 -4.1860706323968516e-17 -6.28980960451989e-17 0.28823021550905376 0.9575611431482843
12655552000.0 0.2961822414468194 0.9551314463734206 -4.2379484894121756e-17 -6.253191886642263e-17 -4.2379484894121756e-17 -6.253191886642263e-17 0.2961816421187056 0.9551316322223401
12656169333.333334 0.3041131921010521 0.9526359044199167 -4.289506797289362e-17 -6.216146825361025e-17 -4.289506797289362e-17 -6.216146825361025e-17 0.3041125943680064 0.9526360952360589
12656786666.666666 0.31202312010523386 0.9500745089305572 -4.340742040401963e-17 -6.178677203052238e-17 -4.340742040401963e-17 -6.178677203052238e-17 0.31202252400841846 0.9500747047002466
12657404000.0 0.31991147866416275 0.9474474369688031 -4.3916507273002403e-17 -6.140785830974293e-17 -4.3916507273002403e-17 -6.140785830974293e-17 0.3199108842446227 0.947447637678024
12658021333.333334 0.32777772247376485 0.944754870138152 -4.442229390947021e-17 -6.102475549058951e-17 -4.442229390947021e-17 -6.102475549058951e-17 0.3277771297724256 0.9447550757725491
12658638666.666666 0.3356213077586011 0.9419969945696484 -4.492474588953399e-17 -6.063749225699413e-17 -4.492474588953399e-17 -6.063749225699413e-17 0.33562071681626526 0.9419972051145272
12659256000.0 0.34344169230967303 0.9391740009089439 -4.542382903812368e-17 -6.024609757536534e-17 -4.542382903812368e-17 -6.024609757536534e-17 0.3434411031670171 0.9391742163492708
12659873333.333334 0.35123833552171496 0.9362860843031794 -4.591950943130088e-17 -5.985060069243485e-17 -4.591950943130088e-17 -5.985060069243485e-17 0.3512377482192876 0.9362863046235851
12660490666.666666 0.35901069843064715 0.9333334443874728 -4.641175339854155e-17 -5.945103113309521e-17 -4.641175339854155e-17 -5.945103113309521e-17 0.35901011300886604 0.9333336695722523
12661108000.0 0.366758243750912 0.9303162852710851 -4.6900527525043424e-17 -5.904741869818372e-17 -4.6900527525043424e-17 -5.904741869818372e-17 0.36675766025006057 0.9303165153041981
12661725333.333334 0.37448043591245617 0.9272348155233727 -4.738579865394732e-17 -5.863979346230117e-17 -4.738579865394732e-17 -5.863979346230117e-17 0.37447985437268066 0.9272350503884442
12662342666.666666 0.38217674109783184 0.9240892481593351 -4.7867533888608194e-17 -5.822818577155732e-17 -4.7867533888608194e-17 -5.822818577155732e-17 0.3821761615591403 0.9240894878396608
12662960000.0 0.3898466272791801 0.9208798006248664 -4.8345700594793323e-17 -5.781262624134092e-17 -4.8345700594793323e-17 -5.781262624134092e-17 0.38984604978143705 0.9208800451034076
12663577333.333334 0.397489564254821 0.9176066947817881 -4.882026640289787e-17 -5.739314575404217e-17 -4.882026640289787e-17 -5.739314575404217e-17 0.3974889888377469 0.9176069440411785
12664194666.666666 0.40510502368611795 0.9142701568924337 -4.929119921011275e-17 -5.696977545678008e-17 -4.929119921011275e-17 -5.696977545678008e-17 0.40510445038928516 0.9142704109149767
12664812000.0 0.41269247913379 0.9108704176040913 -4.9758467182599e-17 -5.654254675909019e-17 -4.9758467182599e-17 -5.654254675909019e-17 0.4126919079966204 0.9108706763717633
12665429333.333334 0.420251406094538 0.90740771193296 -5.022203875761806e-17 -5.611149133061552e-17 -5.022203875761806e-17 -5.611149133061552e-17 0.4202508371563006 0.9074079754274113
12666046666.666666 0.4277812820369649 0.903882279248053 -5.0681882645658345e-17 -5.567664109876621e-17 -5.0681882645658345e-17 -5.567664109876621e-17 0.42778071533677314 0.9038825474506094
12666664000.0 0.43528158643818976 0.900294363254429 -5.1137967832541054e-17 -5.5238028246361175e-17 -5.1137967832541054e-17 -5.5238028246361175e-17 0.43528102201499785 0.9002946361460916
12667281333.333334 0.4427518008192607 0.8966442119766045 -5.1590263581492506e-17 -5.47956852092667e-17 -5.1590263581492506e-17 -5.47956852092667e-17 0.4427512387118622 0.8966444895380532
12667898666.666666 0.4501914087814616 0.8929320777411953 -5.2038739435207796e-17 -5.4349644674005573e-17 -5.2038739435207796e-17 -5.4349644674005573e-17 0.450190849028486 0.8929323599527883
12668516000.0 0.45759989604180124 0.8891582171595653 -5.2483365217903507e-17 -5.3899939575340795e-17 -5.2483365217903507e-17 -5.3899939575340795e-17 0.4575993386817118 0.8891585040013421
12669133333.333334 0.46497675046854275 0.8853228911101078 -5.292411103731144e-17 -5.344660309388028e-17 -5.292411103731144e-17 -5.344660309388028e-17 0.4649761955396328 0.8853231825617881
12669750666.666666 0.47232146211667897 0.8814263647201663 -5.3360947286704974e-17 -5.298966865361242e-17 -5.3360947286704974e-17 -5.298966865361242e-17 0.4723209096570712 0.8814266607611555
