! Parameters = {f0=12700.012000; bw=77.238000; Q=6100.000000; N=10; m_0_1=1.185881; m_1_1=-0.976532; m_1_2=1.020693; m_2_2=-0.977181; m_2_3=0.657656; m_2_8=-0.003642; m_2_9=0.033062; m_3_3=-0.979118; m_3_4=0.546185; m_3_7=-0.003042; m_3_8=-0.100130; m_3_9=-0.003642; m_4_4=-0.982043; m_4_5=0.382520; m_4_6=0.000475; m_4_7=-0.120679; m_4_8=-0.003042; m_5_5=-0.981661; m_5_6=0.789875; m_5_7=0.000475; m_6_6=-0.981662; m_6_7=0.382862; m_7_7=-0.982029; m_7_8=0.546303; m_8_8=-0.979120; m_8_9=0.657969; m_9_9=-0.977186; m_9_10=1.021771; m_10_10=-0.976542; m_10_11=1.186676}
!
! Created with skrf (http://scikit-rf.org).
# Hz S RI R 50.0 
!freq ReS11 ImS11 ReS21 ImS21 ReS12 ImS12 ReS22 ImS22
12607400000.0 0.24816840873891663 0.968716904417302 -3.750436945302159e-17 -6.273762431034674e-17 -3.750436945302159e-17 -6.273762431034674e-17 0.24816780335184738 0.9687170595067293
12608017333.333334 0.2559450802032447 0.9666913240117551 -3.800541421907713e-17 -6.241861095282265e-17 -3.800541421907713e-17 -6.241861095282265e-17 0.2559444761116189 0.9666914839532799
12608634666.666666 0.26370522283581194 0.9646033150725539 -3.8503753278648817e-17 -6.209560113186326e-17 -3.8503753278648817e-17 -6.209560113186326e-17 0.2637046200785127 0.9646034798553722
12609252000.0 0.2714483354897361 0.9624530124425281 -3.8999354796512033e-17 -6.176861773473978e-17 -3.8999354796512033e-17 -6.176861773473978e-17 0.27144773410555684 0.962453182055525
12609869333.333334 0.2791739181179535 0.9602405549874031 -3.9492187130571596e-17 -6.143768390197088e-17 -3.9492187130571596e-17 -6.143768390197088e-17 0.27917331814559465 0.9602407294191522
12610486666.666666 0.28688147180545504 0.9579660855868453 -3.998221883385259e-17 -6.11028230257105e-17 -3.998221883385259e-17 -6.11028230257105e-17 0.2868808732835224 0.9579662648256095
12611104000.0 0.29457049880164277 0.9556297511251924 -4.046941865653146e-17 -6.07640587480842e-17 -4.046941865653146e-17 -6.07640587480842e-17 0.2945699017686451 0.9556299351589281
12611721333.333334 0.3022405025521763 0.9532317024820643 -4.0953755547884243e-17 -6.042141495955605e-17 -4.0953755547884243e-17 -6.042141495955605e-17 0.30223990704652176 0.9532318912984168
12612338666.666666 0.30989098773139107 0.9507720945225033 -4.143519865827927e-17 -6.007491579723988e-17 -4.143519865827927e-17 -6.007491579723988e-17 0.30989039379138617 0.9507722881088123
12612956000.0 0.3175214602740988 0.9482510860870395 -4.1913717341138743e-17 -5.972458564320695e-17 -4.1913717341138743e-17 -5.972458564320695e-17 0.3175208679379443 0.9482512844303356
12613573333.333334 0.32513142740746426 0.9456688399814331 -4.238928115485383e-17 -5.937044912280044e-17 -4.238928115485383e-17 -5.937044912280044e-17 0.32513083671325455 0.9456690430684436
12614190666.666666 0.3327203976829128 0.9430255229661451 -4.2861859864743184e-17 -5.901253110289419e-17 -4.2861859864743184e-17 -5.901253110289419e-17 0.33271980866863127 0.9430257307832887
12614808000.0 0.3402878810078099 0.9403213057455737 -4.3331423444946023e-17 -5.865085669017176e-17 -4.3331423444946023e-17 -5.865085669017176e-17 0.34028729371132926 0.9403215182789693
12615425333.333334 0.34783338867722285 0.937556362957005 -4.379794208032843e-17 -5.82854512293719e-17 -4.379794208032843e-17 -5.82854512293719e-17 0.34783280313630016 0.9375565801924655
12616042666.666666 0.3553564334053165 0.9347308731593811 -4.426138616837226e-17 -5.791634030151909e-17 -4.426138616837226e-17 -5.791634030151909e-17 0.3553558496575923 0.9347310950824183
12616660000.0 0.36285652935690565 0.9318450188217501 -4.4721726321035266e-17 -5.754354972215125e-17 -4.4721726321035266e-17 -5.754354972215125e-17 0.3628559474399007 0.9318452454175741
12617277333.333334 0.37033319217893346 0.9288989863114328 -4.517893336661215e-17 -5.716710553951953e-17 -4.517893336661215e-17 -5.716710553951953e-17 0.3703326121300466 0.9288992175649533
12617894666.666666 0.377785939031461 0.9258929658821063 -4.5632978351571515e-17 -5.678703403278175e-17 -4.5632978351571515e-17 -5.678703403278175e-17 0.37778536088796716 0.9258932017779347
12618512000.0 0.3852142886192184 0.9228271516613691 -4.608383254238645e-17 -5.640336171017248e-17 -4.608383254238645e-17 -5.640336171017248e-17 0.38521371241826524 0.9228273921838169
12619129333.333334 0.3926177612223965 0.9197017416383203 -4.6531467427334986e-17 -5.601611530717319e-17 -4.6531467427334986e-17 -5.601611530717319e-17 0.39261718700100307 0.9197019867714031
12619746666.666666 0.3999958787277325 0.9165169376507318 -4.6975854718298574e-17 -5.562532178465507e-17 -4.6975854718298574e-17 -5.562532178465507e-17 0.3999953065227861 0.9165171873781683
12620364000.0 0.4073481646594645 0.9132729453719804 -4.7416966352545656e-17 -5.523100832700826e-17 -4.7416966352545656e-17 -5.523100832700826e-17 0.407347594507719 0.9132731996771951
12620981333.333334 0.4146741442099457 0.9099699742978316 -4.7854774494485317e-17 -5.483320234026915e-17 -4.7854774494485317e-17 -5.483320234026915e-17 0.41467357614801825 0.9099702331639534
12621598666.666666 0.4219733442704107 0.9066082377328654 -4.828925153741957e-17 -5.443193145022156e-17 -4.828925153741957e-17 -5.443193145022156e-17 0.4219727783347809 0.906608501142733
12622216000.0 0.429245293461479 0.9031879527767267 -4.8720370105279547e-17 -5.402722350048407e-17 -4.8720370105279547e-17 -5.402722350048407e-17 0.4292447296884845 0.9031882207128845
12622833333.333334 0.43648952216372267 0.8997093403100423 -4.914810305433345e-17 -5.3619106550594675e-17 -4.914810305433345e-17 -5.3619106550594675e-17 0.4364889605895582 0.8997096127547451
12623450666.666666 0.443705562547713 0.8961726249802906 -4.9572423474885134e-17 -5.3207608874076837e-17 -4.9572423474885134e-17 -5.3207608874076837e-17 0.44370500320842804 0.8961729019155039
12624068000.0 0.45089294860456575 0.892578035187136 -4.999330469296971e-17 -5.2792758956479103e-17 -4.999330469296971e-17 -5.2792758956479103e-17 0.45089239153606175 0.8925783165945369
12624685333.333334 0.4580512161758813 0.8889258030677493 -5.0410720272011993e-17 -5.2374585493421404e-17 -5.0410720272011993e-17 -5.2374585493421404e-17 0.45805066141391004 0.8889260889287288
12625302666.666666 0.46517990298356937 0.8852161644818985 -5.082464401447487e-17 -5.19531173886228e-17 -5.082464401447487e-17 -5.19531173886228e-17 0.46517935056372955 0.8852164547775608
12625920000.0 0.4722785486600307 0.8814493589965461 -5.1235049963505556e-17 -5.152838375190136e-17 -5.1235049963505556e-17 -5.152838375190136e-17 0.4722779986177666 0.881449653707711
12626537333.333334 0.4793466947776344 0.877625629870507 -5.164191240453805e-17 -5.110041389718952e-17 -5.164191240453805e-17 -5.110041389718952e-17 0.4793461471482333 0.8776259289777115
12627154666.666666 0.48638388487830087 0.873745224038758 -5.2045205866907885e-17 -5.0669237340507136e-17 -5.2045205866907885e-17 -5.0669237340507136e-17 0.48638333969689024 0.8737455275222561
12627772000.0 0.4933896645033254 0.8698083920962955 -5.2444905125435207e-17 -5.02348837979363e-17 -5.2444905125435207e-17 -5.02348837979363e-17 0.4933891218048724 0.8698086999360625
12628389333.333334 0.500363581222208 0.8658153882822438 -5.2840985201984816e-17 -4.9797383183592076e-17 -5.2840985201984816e-17 -4.9797383183592076e-17 0.5003630410415153 0.8658157004579744
12629006666.666666 0.5073051846623163 0.8617664704631873 -5.3233421367028235e-17 -4.935676560755922e-17 -5.3233421367028235e-17 -4.935676560755922e-17 0.5073046470340205 0.8617667869542976
12629624000.0 0.514214026537771 0.8576619001166249 -5.3622189141167006e-17 -4.891306137384142e-17 -5.3622189141167006e-17 -4.891306137384142e-17 0.5142134914963404 0.8576622209022555
12630241333.333334 0.5210896606783972 0.8535019423140873 -5.4007264296662274e-17 -4.846630097827254e-17 -5.4007264296662274e-17 -4.846630097827254e-17 0.5210891282581304 0.8535022673731031
12630858666.666666 0.5279316430584672 0.8492868657040653 -5.4388622858918045e-17 -4.801651510644809e-17 -5.4388622858918045e-17 -4.801651510644809e-17 0.527931113293489 0.8492871950150568
12631476000.0 0.5347395318257111 0.8450169424944488 -5.476624110798298e-17 -4.756373463160497e-17 -5.476624110798298e-17 -4.756373463160497e-17 0.5347390047499732 0.8450172760357357
12632093333.333334 0.5415128873293715 0.8406924484352498 -5.514009558000225e-17 -4.710799061252715e-17 -5.514009558000225e-17 -4.710799061252715e-17 0.541512362976647 0.8406927861848787
12632710666.666666 0.5482512721489312 0.8363136628005821 -5.5510163068665307e-17 -4.664931429142392e-17 -5.5510163068665307e-17 -4.664931429142392e-17 0.5482507505528151 0.8363140047363316
12633328000.0 0.5549542511223147 0.831880868370657 -5.587642062664651e-17 -4.6187737091784424e-17 -5.587642062664651e-17 -4.6187737091784424e-17 0.5549537323162201 0.8318812144700367
12633945333.333334 0.5616213913738693 0.8273943514135964 -5.623884556701021e-17 -4.5723290616243465e-17 -5.623884556701021e-17 -4.5723290616243465e-17 0.5616208753910267 0.8273947016538498
12634562666.666666 0.5682522623423951 0.822854401666903 -5.659741546460267e-17 -4.5256006644429546e-17 -5.659741546460267e-17 -4.5256006644429546e-17 0.5682517492158485 0.8228547560250078
12635180000.0 0.5748464358090171 0.8182613123186969 -5.695210815743844e-17 -4.4785917130788067e-17 -5.695210815743844e-17 -4.4785917130788067e-17 0.5748459255716234 0.8182616707713677
12635797333.333334 0.5814034859247017 0.813615379988882 -5.730290174805168e-17 -4.431305420241453e-17 -5.730290174805168e-17 -4.431305420241453e-17 0.5814029786091273 0.81361574251257
12636414666.666666 0.5879229892378485 0.8089169047099212 -5.764977460483627e-17 -4.383745015686922e-17 -5.764977460483627e-17 -4.383745015686922e-17 0.587922484876569 0.8089172712808191
12637032000.0 0.5944045247216166 0.8041661899074816 -5.79927053633802e-17 -4.335913745996526e-17 -5.79927053633802e-17 -4.335913745996526e-17 0.5944040233469133 0.8041665605015222
12637649333.333334 0.6008476738010892 0.7993635423808534 -5.83316729277567e-17 -4.287814874357884e-17 -5.83316729277567e-17 -4.287814874357884e-17 0.600847175445047 0.7993639169737117
12638266666.666666 0.6072520203803969 0.7945092722830698 -5.866665647182242e-17 -4.239451680341694e-17 -5.866665647182242e-17 -4.239451680341694e-17 0.6072515250749029 0.7945096508501649
12638884000.0 0.6136171508694518 0.7896036931009781 -5.899763544047709e-17 -4.19082745968012e-17 -5.899763544047709e-17 -4.19082745968012e-17 0.6136166586461931 0.7896040756174753
12639501333.333334 0.6199426542107485 0.7846471216349284 -5.932458955091855e-17 -4.141945524042383e-17 -5.932458955091855e-17 -4.141945524042383e-17 0.61994216510121 0.7846475080757408
12640118666.666666 0.6262281219058442 0.7796398779783689 -5.964749879387132e-17 -4.092809200810594e-17 -5.964749879387132e-17 -4.092809200810594e-17 0.6262276359413067 0.7796402683181575
12640736000.0 0.6324731480419578 0.7745822854969908 -5.99663434348092e-17 -4.043421832852511e-17 -5.99663434348092e-17 -4.043421832852511e-17 0.6324726652534959 0.7745826797101684
12641353333.333334 0.6386773293177219 0.7694746708082267 -6.028110401513261e-17 -3.993786778297755e-17 -6.028110401513261e-17 -3.993786778297755e-17 0.6386768497362019 0.7694750688689574
12641970666.666666 0.6448402650697561 0.7643173637597231 -6.059176135335954e-17 -3.9439074103078555e-17 -6.059176135335954e-17 -3.9439074103078555e-17 0.6448397887258347 0.7643177656419265
12642588000.0 0.6509615572981906 0.7591106974083304 -6.089829654627519e-17 -3.8937871168490755e-17 -6.089829654627519e-17 -3.8937871168490755e-17 0.6509610842223116 0.7591111030856802
12643205333.333334 0.6570408106924557 0.7538550079985197 -6.120069097007493e-17 -3.8434293004624294e-17 -6.120069097007493e-17 -3.8434293004624294e-17 0.65704034091485 0.7538554174444486
12643822666.666666 0.6630776326569627 0.7485506349405399 -6.149892628148091e-17 -3.792837378033832e-17 -6.149892628148091e-17 -3.792837378033832e-17 0.6630771662076447 0.7485510481282394
12644440000.0 0.6690716333362196 0.7431979207887017 -6.179298441884122e-17 -3.7420147805634695e-17 -6.179298441884122e-17 -3.7420147805634695e-17 0.6690711702449862 0.7431983376911248
12645057333.333334 0.6750224256400971 0.7377972112191853 -6.208284760321534e-17 -3.690964952933218e-17 -6.208284760321534e-17 -3.690964952933218e-17 0.6750219659365244 0.7377976318090458
12645674666.666666 0.6809296252688858 0.7323488550076537 -6.236849833942917e-17 -3.639691353675188e-17 -6.236849833942917e-17 -3.639691353675188e-17 0.6809291689823298 0.7323492792574325
12646292000.0 0.6867928507381184 0.7268532040067351 -6.264991941713413e-17 -3.588197454735582e-17 -6.264991941713413e-17 -3.588197454735582e-17 0.6867923978977097 0.7268536318886771
12646909333.333334 0.6926117234030953 0.7213106131233895 -6.292709391181063e-17 -3.5364867412439486e-17 -6.292709391181063e-17 -3.5364867412439486e-17 0.6926112740377419 0.7213110446095103
12647526666.666666 0.6983858674834084 0.7157214402959394 -6.320000518578643e-17 -3.484562711275818e-17 -6.320000518578643e-17 -3.484562711275818e-17 0.698385421621788 0.7157218753580222
12648144000.0 0.7041149100872609 0.7100860464708872 -6.346863688922371e-17 -3.432428875616483e-17 -6.346863688922371e-17 -3.432428875616483e-17 0.704114467757824 0.7100864850804885
12648761333.333334 0.7097984812354332 0.7044047955797292 -6.373297296107482e-17 -3.380088757526422e-17 -6.373297296107482e-17 -3.380088757526422e-17 0.7097980424663989 0.7044052377081786
12649378666.666666 0.7154362138852521 0.6986780545153707 -6.399299763003681e-17 -3.327545892502552e-17 -6.399299763003681e-17 -3.327545892502552e-17 0.715435778704607 0.6986785001337735
12649996000.0 0.7210277439542593 0.6929061931084749 -6.424869541547679e-17 -3.2748038280405596e-17 -6.424869541547679e-17 -3.2748038280405596e-17 0.7210273123897556 0.6929066421877143
12650613333.333334 0.7265727103438174 0.687089584103475 -6.450005112833963e-17 -3.2218661233961894e-17 -6.450005112833963e-17 -3.2218661233961894e-17 0.7265722824229714 0.6870900366142134
12651230666.666666 0.7320707549622177 0.6812286031347302 -6.474704987203548e-17 -3.16873634934603e-17 -6.474704987203548e-17 -3.16873634934603e-17 0.7320703307123068 0.6812290590474108
12651848000.0 0.7375215227480567 0.6753236287019985 -6.498967704331158e-17 -3.115418087946699e-17 -6.498967704331158e-17 -3.115418087946699e-17 0.7375211021961195 0.6753240879868481
12652465333.333334 0.7429246616930499 0.669375042146116 -6.522791833309595e-17 -3.061914932295237e-17 -6.522791833309595e-17 -3.061914932295237e-17 0.742924244865883 0.6693755047731467
12653082666.666666 0.7482798228646486 0.6633832276244979 -6.546175972732949e-17 -3.008230486287216e-17 -6.546175972732949e-17 -3.008230486287216e-17 0.7482794097888061 0.6633836935635088
12653700000.0 0.753586660428825 0.6573485720860566 -6.569118750777734e-17 -2.954368364374189e-17 -6.569118750777734e-17 -2.954368364374189e-17 0.7535862511306152 0.6573490413066353
12654317333.333334 0.7588448316721926 0.6512714652464424 -6.59161882528138e-17 -2.9003321913222526e-17 -6.59161882528138e-17 -2.9003321913222526e-17 0.7588444261776782 0.6512719377179683
12654934666.666666 0.7640539970242193 0.645152299562795 -6.613674883819426e-17 -2.846125601968325e-17 -6.613674883819426e-17 -2.846125601968325e-17 0.764053595359214 0.6451527752544399
12655552000.0 0.7692138200792058 0.638991470208329 -6.635285643780743e-17 -2.791752240975854e-17 -6.635285643780743e-17 -2.791752240975854e-17 0.769213422269275 0.6389919490890611
12656169333.333334 0.7743239676179076 0.6327893750469494 -6.65644985244004e-17 -2.737215762591672e-17 -6.65644985244004e-17 -2.737215762591672e-17 0.7743235736883634 0.6327898570855326
12656786666.666666 0.7793841096291207 0.6265464146074661 -6.677166287029156e-17 -2.6825198304004217e-17 -6.677166287029156e-17 -2.6825198304004217e-17 0.7793837196050234 0.6265468997724638
12657404000.0 0.784393919330961 0.6202629920577736 -6.697433754805884e-17 -2.6276681170796006e-17 -6.697433754805884e-17 -2.6276681170796006e-17 0.7843935332371158 0.6202634803175507
12658021333.333334 0.7893530731920558 0.6139395131787038 -6.7172510931213e-17 -2.5726643041527674e-17 -6.7172510931213e-17 -2.5726643041527674e-17 0.7893526910530124 0.6139400045014287
12658638666.666666 0.7942612509522443 0.6075763863380667 -6.736617169483876e-17 -2.5175120817455114e-17 -6.736617169483876e-17 -2.5175120817455114e-17 0.7942608727922935 0.6075768806917122
12659256000.0 0.799118135643485 0.6011740224639848 -6.755530881623683e-17 -2.462215148335198e-17 -6.755530881623683e-17 -2.462215148335198e-17 0.7991177614866593 0.6011745198163321
12659873333.333334 0.8039234136102233 0.5947328350184925 -6.773991157552192e-17 -2.4067772105067893e-17 -6.773991157552192e-17 -2.4067772105067893e-17 0.8039230434802936 0.5947333353371315
12660490666.666666 0.8086767745295255 0.588253239970992 -6.791996955621421e-17 -2.351201982704584e-17 -6.791996955621421e-17 -2.351201982704584e-17 0.8086764084500014 0.5882537432233252
12661108000.0 0.8133779114314283 0.5817356557709832 -6.809547264581659e-17 -2.2954931869815836e-17 -6.809547264581659e-17 -2.2954931869815836e-17 0.8133775494255534 0.5817361619242251
12661725333.333334 0.8180265207184034 0.5751805033215154 -6.826641103634949e-17 -2.239654552755044e-17 -6.826641103634949e-17 -2.239654552755044e-17 0.8180261628091586 0.5751810123426983
12662342666.666666 0.822622302185204 0.5685882059516899 -6.843277522489144e-17 -2.183689816553882e-17 -6.843277522489144e-17 -2.183689816553882e-17 0.8226219483953029 0.5685887178076636
12662960000.0 0.8271649590382165 0.5619591893893653 -6.859455601407922e-17 -2.1276027217717256e-17 -6.859455601407922e-17 -2.1276027217717256e-17 0.8271646093901026 0.561959704046799
12663577333.333334 0.8316541979145424 0.5552938817337782 -6.875174451259815e-17 -2.071397018416506e-17 -6.875174451259815e-17 -2.071397018416506e-17 0.8316538524303909 0.5552943991591636
12664194666.666666 0.8360897289009954 0.5485927134278291 -6.890433213565105e-17 -2.015076462859897e-17 -6.890433213565105e-17 -2.015076462859897e-17 0.836089387602711 0.5485932335874836
12664812000.0 0.840471265552871 0.5418561172302137 -6.905231060540122e-17 -1.9586448175881855e-17 -6.905231060540122e-17 -1.9586448175881855e-17 0.8404709284620854 0.5418566400902803
12665429333.333334 0.8447985249123655 0.5350845281875929 -6.91956719514014e-17 -1.9021058509508936e-17 -6.91956719514014e-17 -1.9021058509508936e-17 0.8447981920504363 0.5350850537140437
12666046666.666666 0.8490712275268208 0.5282783836065468 -6.933440851099883e-17 -1.845463336910289e-17 -6.933440851099883e-17 -1.845463336910289e-17 0.8490708989148305 0.5282789117651853
12666664000.0 0.8532890974669814 0.5214381230249966 -6.946851292972211e-17 -1.7887210547894112e-17 -6.946851292972211e-17 -1.7887210547894112e-17 0.8532887731257373 0.5214386537814599
12667281333.333334 0.857451862344501 0.5145641881843266 -6.959797816164404e-17 -1.7318827890218643e-17 -6.959797816164404e-17 -1.7318827890218643e-17 0.8574515422945302 0.5145647215040867
12667898666.666666 0.8615592533297975 0.5076570230004197 -6.972279746972684e-17 -1.6749523288995453e-17 -6.972279746972684e-17 -1.6749523288995453e-17 0.8615589375913508 0.5076575588487874
12668516000.0 0.8656110051693149 0.5007170735351613 -6.984296442614803e-17 -1.6179334683201806e-17 -6.984296442614803e-17 -1.6179334683201806e-17 0.86561069376236 0.5007176118772863
12669133333.333334 0.8696068562025618 0.4937447879677771 -6.995847291260116e-17 -1.5608300055364342e-17 -6.995847291260116e-17 -1.5608300055364342e-17 0.8696065491467865 0.49374532876865224
12669750666.666666 0.8735465483791998 0.48674061656557327 -7.006931712057989e-17 -1.5036457429030277e-17 -7.006931712057989e-17 -1.5036457429030277e-17 0.8735462456940087 0.48674115979003596
12670368000.0 0.8774298272755633 0.47970501165510315 -7.017549155164215e-17 -1.446384486623503e-17 -7.017549155164215e-17 -1.446384486623503e-17 0.8774295289800771 0.47970555726783787
