! Parameters = {f0=12700.012000; bw=77.238000; Q=6100.000000; N=10; m_0_1=1.292387; m_1_1=0.621065; m_1_2=1.127199; m_2_2=0.620416; m_2_3=0.764162; m_2_8=0.001683; m_2_9=0.038387; m_3_3=0.618479; m_3_4=0.652691; m_3_7=0.002283; m_3_8=-0.094805; m_3_9=0.001683; m_4_4=0.615554; m_4_5=0.489026; m_4_6=0.005800; m_4_7=-0.115354; m_4_8=0.002283; m_5_5=0.615936; m_5_6=0.896381; m_5_7=0.005800; m_6_6=0.615935; m_6_7=0.489368; m_7_7=0.615568; m_7_8=0.652809; m_8_8=0.618477; m_8_9=0.764475; m_9_9=0.620411; m_9_10=1.128277; m_10_10=0.621055; m_10_11=1.293182}
!
! Created with skrf (http://scikit-rf.org).
# Hz S RI R 50.0 
!freq ReS11 ImS11 ReS21 ImS21 ReS12 ImS12 ReS22 ImS22
12607400000.0 0.9815008448086815 -0.19145780642131746 -1.0886293295088074e-16 5.676606196705182e-17 -1.0886293295088074e-16 5.676606196705182e-17 0.9815009751653696 -0.1914571381517168
12608017333.333334 0.9792980846925959 -0.20242347027267232 -1.0819488783873085e-16 5.797833574730726e-17 -1.0819488783873085e-16 5.797833574730726e-17 0.9792982225086735 -0.20242280353549552
12608634666.666666 0.9769728164081245 -0.2133638113631137 -1.0751335345570504e-16 5.918276614071728e-17 -1.0751335345570504e-16 5.918276614071728e-17 0.9769729616656221 -0.21336314624161412
12609252000.0 0.9745253308416121 -0.22427746107860147 -1.0681842168980455e-16 6.037920316654513e-17 -1.0681842168980455e-16 6.037920316654513e-17 0.97452548352163 -0.22427679765582206
12609869333.333334 0.9719559341685241 -0.23516305414416025 -1.0611018609525776e-16 6.15674979183797e-17 -1.0611018609525776e-16 6.15674979183797e-17 0.9719560942512361 -0.2351623925029233
12610486666.666666 0.9692649478151989 -0.2460192287944516 -1.0538874187998157e-16 6.274750258263455e-17 -1.0538874187998157e-16 6.274750258263455e-17 0.9692651152798561 -0.24601856901734886
12611104000.0 0.9664527084185274 -0.25684462694459836 -1.0465418589282415e-16 6.391907045692117e-17 -1.0465418589282415e-16 6.391907045692117e-17 0.9664528832434582 -0.25684396911397994
12611721333.333334 0.9635195677839519 -0.2676378943596081 -1.0390661661065019e-16 6.508205596819998e-17 -1.0390661661065019e-16 6.508205596819998e-17 0.9635197499465664 -0.26763723855757265
12612338666.666666 0.9604658928414099 -0.2783976808239791 -1.0314613412516435e-16 6.623631469087883e-17 -1.0314613412516435e-16 6.623631469087883e-17 0.960466082318204 -0.2783970271323637
12612956000.0 0.957292065599389 -0.28912264031077345 -1.0237284012956873e-16 6.738170336470161e-17 -1.0237284012956873e-16 6.738170336470161e-17 0.9572922623659434 -0.28912198881114276
12613573333.333334 0.9539984830972229 -0.29981143114967307 -1.0158683790504016e-16 6.851807991245652e-17 -1.0158683790504016e-16 6.851807991245652e-17 0.953998687128211 -0.29981078192331
12614190666.666666 0.9505855573553771 -0.3104627161950131 -1.0078823230695783e-16 6.964530345760855e-17 -1.0078823230695783e-16 6.964530345760855e-17 0.9505857686245651 -0.310462069322908
12614808000.0 0.9470537153238896 -0.3210751629930808 -9.997712975098346e-17 7.07632343416994e-17 -9.997712975098346e-17 7.07632343416994e-17 0.947053933804142 -0.321074518555922
12615425333.333334 0.9434033988289925 -0.3316474439487239 -9.915363819892642e-17 7.187173414162131e-17 -9.915363819892642e-17 7.187173414162131e-17 0.9434036244922723 -0.33164680202688646
12616042666.666666 0.9396350645178138 -0.34217823649148055 -9.831786714443134e-17 7.29706656867066e-17 -9.831786714443134e-17 7.29706656867066e-17 0.9396352973351904 -0.34217759716501783
12616660000.0 0.9357491838012997 -0.3526662232409269 -9.746992759845728e-17 7.405989307568055e-17 -9.746992759845728e-17 7.405989307568055e-17 0.9357494237429483 -0.35266558658955904
12617277333.333334 0.9317462427951537 -0.36311009217168827 -9.660993207458443e-17 7.513928169342252e-17 -9.660993207458443e-17 7.513928169342252e-17 0.9317464898303632 -0.36310945827479363
12617894666.666666 0.9276267422591647 -0.3735085367772287 -9.573799457415086e-17 7.62086982275423e-17 -9.573799457415086e-17 7.62086982275423e-17 0.9276269963563389 -0.3735079057138331
12618512000.0 0.9233911975343732 -0.3838602562337674 -9.485423057115112e-17 7.726801068485193e-17 -9.485423057115112e-17 7.726801068485193e-17 0.9233914586610359 -0.3838596280825346
12619129333.333334 0.9190401384787796 -0.3941639555625596 -9.39587569970294e-17 7.831708840756843e-17 -9.39587569970294e-17 7.831708840756843e-17 0.9190404066015777 -0.3941633304017809
12619746666.666666 0.9145741094009904 -0.40441834579208163 -9.305169222522914e-17 7.93558020894223e-17 -9.305169222522914e-17 7.93558020894223e-17 0.9145743844856999 -0.4044177236996673
12620364000.0 0.9099936689920547 -0.4146221441194338 -9.213315605559867e-17 8.038402379154366e-17 -9.213315605559867e-17 8.038402379154366e-17 0.9099939510035839 -0.41462152517290235
12620981333.333334 0.9052993902557235 -0.42477407407047907 -9.120326969862254e-17 8.140162695817321e-17 -9.120326969862254e-17 8.140162695817321e-17 0.9052996791581176 -0.424773458346948
12621598666.666666 0.9004918604366273 -0.4348728656598374 -9.026215575945447e-17 8.240848643221607e-17 -9.026215575945447e-17 8.240848643221607e-17 0.9004921561930732 -0.4348722532360135
12622216000.0 0.8955716809469212 -0.4449172555495271 -8.930993822181526e-17 8.34044784705732e-17 -8.930993822181526e-17 8.34044784705732e-17 0.8955719835197518 -0.4449166465016968
12622833333.333334 0.8905394672909377 -0.4549059872072356 -8.834674243168432e-17 8.438948075932886e-17 -8.834674243168432e-17 8.438948075932886e-17 0.8905397766416364 -0.4549053816112554
12623450666.666666 0.8853958489883419 -0.464837811063204 -8.737269508086e-17 8.536337242871198e-17 -8.737269508086e-17 8.536337242871198e-17 0.8853961650775485 -0.46483720899449144
12624068000.0 0.880141469495224 -0.4747114846668503 -8.638792419033401e-17 8.632603406789126e-17 -8.638792419033401e-17 8.632603406789126e-17 0.8801417922827397 -0.47471088620037444
12624685333.333334 0.8747769861236431 -0.48452577284212045 -8.539255909349078e-17 8.727734773959102e-17 -8.539255909349078e-17 8.727734773959102e-17 0.8747773155684341 -0.4845251780523919
12625302666.666666 0.869303069959504 -0.4942794478418046 -8.438673041919906e-17 8.82171969944631e-17 -8.438673041919906e-17 8.82171969944631e-17 0.8693034060197097 -0.4942788568028678
12625920000.0 0.8637204057784613 -0.5039712895014039 -8.33705700746679e-17 8.914546688533916e-17 -8.33705700746679e-17 8.914546688533916e-17 0.8637207484113957 -0.5039707022868258
12626537333.333334 0.858029691960346 -0.5136000853915926 -8.234421122823521e-17 9.006204398120261e-17 -8.234421122823521e-17 9.006204398120261e-17 0.8580300411225059 -0.5135995020744554
12627154666.666666 0.8522316404018352 -0.523164630969846 -8.130778829192744e-17 9.096681638103459e-17 -8.130778829192744e-17 9.096681638103459e-17 0.8522319960489052 -0.5231640516227364
12627772000.0 0.846326976427202 -0.5326637297314402 -8.026143690388923e-17 9.185967372743675e-17 -8.026143690388923e-17 9.185967372743675e-17 0.8463273385140592 -0.5326631544264416
12628389333.333334 0.8403164386978447 -0.5420961933586959 -7.920529391071809e-17 9.27405072200092e-17 -7.920529391071809e-17 9.27405072200092e-17 0.840316807178566 -0.5420956221673797
12629006666.666666 0.8342007791196292 -0.5514608418700467 -7.813949734955194e-17 9.360920962861038e-17 -7.813949734955194e-17 9.360920962861038e-17 0.8342011539474956 -0.5514602748634622
12629624000.0 0.8279807627490525 -0.5607565037672899 -7.706418643010753e-17 9.446567530633144e-17 -7.706418643010753e-17 9.446567530633144e-17 0.8279811438765551 -0.5607559410159552
12630241333.333334 0.821657167697352 -0.5699820161824256 -7.597950151651602e-17 9.530980020231604e-17 -7.597950151651602e-17 9.530980020231604e-17 0.8216575550761995 -0.5699814577563207
12630858666.666666 0.8152307850333239 -0.5791362250228941 -7.488558410906768e-17 9.614148187433333e-17 -7.488558410906768e-17 9.614148187433333e-17 0.8152311786144469 -0.5791356709914505
12631476000.0 0.8087024186841503 -0.5882179851162521 -7.378257682574533e-17 9.696061950119864e-17 -7.378257682574533e-17 9.696061950119864e-17 0.8087028184177091 -0.5882174355483454
12632093333.333334 0.802072885335091 -0.5972261603530608 -7.267062338371379e-17 9.776711389491428e-17 -7.267062338371379e-17 9.776711389491428e-17 0.8020732911704813 -0.5972256153170011
12632710666.666666 0.7953430143271912 -0.606159623829198 -7.154986858062495e-17 9.856086751263803e-17 -7.154986858062495e-17 9.856086751263803e-17 0.7953434262130497 -0.6061590833927221
12633328000.0 0.7885136475534104 -0.6150172579869898 -7.042045827576992e-17 9.93417844684539e-17 -7.042045827576992e-17 9.93417844684539e-17 0.7885140654376214 -0.6150167222172518
12633945333.333334 0.7815856393535028 -0.6237979547547383 -6.928253937117114e-17 1.0010977054487908e-16 -6.928253937117114e-17 1.0010977054487908e-16 0.7815860631832077 -0.6237974237183035
12634562666.666666 0.7745598564070294 -0.6325006156855028 -6.813625979249327e-17 1.0086473320419487e-16 -6.813625979249327e-17 1.0086473320419487e-16 0.7745602861286291 -0.6325000894483367
12635180000.0 0.7674371776250205 -0.6411241520943982 -6.698176846986554e-17 1.0160658159953626e-16 -6.698176846986554e-17 1.0160658159953626e-16 0.7674376131841846 -0.6411236307218597
12635797333.333334 0.7602184940399024 -0.6496674851949428 -6.581921531854945e-17 1.0233522658578527e-16 -6.581921531854945e-17 1.0233522658578527e-16 0.760218935381576 -0.6496669687517763
12636414666.666666 0.752904708694157 -0.658129546233859 -6.464875121952956e-17 1.0305058073021749e-16 -6.464875121952956e-17 1.0305058073021749e-16 0.7529051557625666 -0.6581290347841855
12637032000.0 0.7454967365272995 -0.6665092766248373 -6.347052799995979e-17 1.0375255832294542e-16 -6.347052799995979e-17 1.0375255832294542e-16 0.7454971892659612 -0.6665087702321475
12637649333.333334 0.7379955042613843 -0.6748056280810074 -6.228469841350072e-17 1.0444107538713777e-16 -6.228469841350072e-17 1.0444107538713777e-16 0.7379959626131101 -0.6748051268081526
12638266666.666666 0.7304019502851083 -0.6830175627460306 -6.109141612055763e-17 1.0511604968900577e-16 -6.109141612055763e-17 1.0511604968900577e-16 0.7304024141920138 -0.6830170666552158
12638884000.0 0.722717024536481 -0.6911440533238741 -5.989083566841514e-17 1.0577740074756452e-16 -5.989083566841514e-17 1.0577740074756452e-16 0.7227174939399925 -0.6911435624766499
12639501333.333334 0.7149416883838522 -0.6991840832074669 -5.86831124712366e-17 1.0642504984418374e-16 -5.86831124712366e-17 1.0642504984418374e-16 0.7149421632247143 -0.6991835976647217
12640118666.666666 0.7070769145058441 -0.7071366466056709 -5.746840279001237e-17 1.0705892003188303e-16 -5.746840279001237e-17 1.0705892003188303e-16 0.7070773947241276 -0.7071361664276251
12640736000.0 0.6991236867693136 -0.715000748669469 -5.624686371232335e-17 1.0767893614444364e-16 -5.624686371232335e-17 1.0767893614444364e-16 0.6991241723044216 -0.7150002739156646
12641353333.333334 0.691083000106831 -0.7227754056158531 -5.5018653132147925e-17 1.0828502480521723e-16 -5.5018653132147925e-17 1.0828502480521723e-16 0.6910834908975075 -0.7227749363451479
12641970666.666666 0.6829558603916543 -0.7304596448514546 -5.3783929729406026e-17 1.0887711443579107e-16 -5.3783929729406026e-17 1.0887711443579107e-16 0.682956356375993 -0.7304591811220157
12642588000.0 0.6747432843122622 -0.7380525050938582 -5.254285294953385e-17 1.0945513526435813e-16 -5.254285294953385e-17 1.0945513526435813e-16 0.6747437854277117 -0.738052046963153
12643205333.333334 0.6664462992450031 -0.7455530364920114 -5.129558298293583e-17 1.1001901933387217e-16 -5.129558298293583e-17 1.1001901933387217e-16 0.6664468054283768 -0.745552584016801
12643822666.666666 0.6580659431255711 -0.7529603007450473 -5.0042280744312597e-17 1.1056870050998692e-16 -5.0042280744312597e-17 1.1056870050998692e-16 0.6580664543130545 -0.7529598539813807
12644440000.0 0.6496032643192247 -0.7602733712196068 -4.8783107851964156e-17 1.1110411448873241e-16 -4.8783107851964156e-17 1.1110411448873241e-16 0.6496037804463848 -0.7602729302228132
12645057333.333334 0.6410593214897073 -0.7674913330657059 -4.751822660697442e-17 1.1162519880397347e-16 -4.751822660697442e-17 1.1162519880397347e-16 0.6410598424914983 -0.7674908978903876
12645674666.666666 0.6324351834666794 -0.7746132833312929 -4.624779997233919e-17 1.121318928346225e-16 -4.624779997233919e-17 1.121318928346225e-16 0.632435709277452 -0.7746128540313179
12646292000.0 0.623731929111921 -0.7816383310752745 -4.4971991551964035e-17 1.1262413781163688e-16 -4.4971991551964035e-17 1.1262413781163688e-16 0.6237324596654311 -0.7816379077037711
12646909333.333334 0.6149506471847199 -0.788565597478683 -4.3690965569681406e-17 1.1310187682474077e-16 -4.3690965569681406e-17 1.1310187682474077e-16 0.6149511824141372 -0.7885651800880337
12647526666.666666 0.6060924362053199 -0.7953942159549054 -4.240488684812409e-17 1.1356505482893859e-16 -4.240488684812409e-17 1.1356505482893859e-16 0.6060929760432343 -0.7953938045967373
12648144000.0 0.5971584043175818 -0.8021233322580128 -4.11139207875366e-17 1.1401361865078505e-16 -4.11139207875366e-17 1.1401361865078505e-16 0.5971589486960146 -0.8021229269831952
12648761333.333334 0.588149669150516 -0.8087521045895069 -3.981823334456042e-17 1.1444751699440085e-16 -3.981823334456042e-17 1.1444751699440085e-16 0.588150218000927 -0.8087517054481428
12649378666.666666 0.5790673576783375 -0.815279703703733 -3.851799101094423e-17 1.1486670044725333e-16 -3.851799101094423e-17 1.1486670044725333e-16 0.579067910931633 -0.8152793107451529
12649996000.0 0.569912606079432 -0.8217053130116466 -3.721336079214873e-17 1.1527112148571077e-16 -3.721336079214873e-17 1.1527112148571077e-16 0.5699131636659757 -0.8217049262844035
12650613333.333334 0.5606865595943651 -0.828028128682869 -3.5904510185949624e-17 1.1566073448033495e-16 -3.5904510185949624e-17 1.1566073448033495e-16 0.5606871214439834 -0.8280277482347302
12651230666.666666 0.5513903723825658 -0.8342473597462765 -3.45916071609906e-17 1.1603549570093248e-16 -3.45916071609906e-17 1.1603549570093248e-16 0.5513909384245609 -0.8342469856242214
12651848000.0 0.5420252073777826 -0.8403622281890649 -3.327482013520842e-17 1.1639536332138364e-16 -3.327482013520842e-17 1.1639536332138364e-16 0.542025777540938 -0.8403618604392753
12652465333.333334 0.5325922361428813 -0.846371969053881 -3.195431795430535e-17 1.1674029742420047e-16 -3.195431795430535e-17 1.1674029742420047e-16 0.532592810355472 -0.8463716077217376
12653082666.666666 0.5230926387231478 -0.8522758305346181 -3.063026987012955e-17 1.170702600048543e-16 -3.063026987012955e-17 1.170702600048543e-16 0.5230932169129493 -0.8522754756646945
12653700000.0 0.5135276034984941 -0.8580730740705661 -2.9302845518978674e-17 1.1738521497586627e-16 -2.9302845518978674e-17 1.1738521497586627e-16 0.5135281855927919 -0.8580727257066234
12654317333.333334 0.5038983270352086 -0.8637629744385528 -2.7972214899960034e-17 1.1768512817062878e-16 -2.7972214899960034e-17 1.1768512817062878e-16 0.5038989129608059 -0.8637626326235329
12654934666.666666 0.4942060139358782 -0.8693448198439034 -2.6638548353199436e-17 1.1796996734700943e-16 -2.6638548353199436e-17 1.1796996734700943e-16 0.494206603619107 -0.8693444846199263
12655552000.0 0.484451876688766 -0.874817912009437 -2.5302016538078743e-17 1.1823970219069314e-16 -2.5302016538078743e-17 1.1823970219069314e-16 0.4844524700554952 -0.8748175834177934
12656169333.333334 0.47463713551642933 -0.8801815662626525 -2.396279041147174e-17 1.1849430431827268e-16 -2.396279041147174e-17 1.1849430431827268e-16 0.4746377324920748 -0.8801812443438003
12656786666.666666 0.46476301822267746 -0.8854351116216055 -2.2621041205856424e-17 1.187337472801121e-16 -2.2621041205856424e-17 1.187337472801121e-16 0.4647636187322098 -0.8854347964151623
12657404000.0 0.45483076003917144 -0.8905778908787308 -2.1276940407481827e-17 1.1895800656294716e-16 -2.1276940407481827e-17 1.1895800656294716e-16 0.454831364007127 -0.8905775824234713
12658021333.333334 0.44484160347092594 -0.8956092606830471 -1.9930659734487186e-17 1.1916705959224276e-16 -1.9930659734487186e-17 1.1916705959224276e-16 0.4448422108214164 -0.895608959016899
12658638666.666666 0.43479679814085176 -0.9005285916206569 -1.8582371114993934e-17 1.1936088573430614e-16 -1.8582371114993934e-17 1.1936088573430614e-16 0.43479740879757206 -0.9005282967806928
12659256000.0 0.42469760063324796 -0.9053352682935647 -1.7232246665162156e-17 1.1953946629815346e-16 -1.7232246665162156e-17 1.1953946629815346e-16 0.4246982145194884 -0.9053349803160029
12659873333.333334 0.4145452743369165 -0.910028689396521 -1.5880458667275983e-17 1.1970278453712284e-16 -1.5880458667275983e-17 1.1970278453712284e-16 0.41454589137556946 -0.9100284083167148
12660490666.666666 0.40434108928695855 -0.9146082677923132 -1.452717954780638e-17 1.1985082565024206e-16 -1.452717954780638e-17 1.1985082565024206e-16 0.40434170940053016 -0.9146079936447505
12661108000.0 0.39408632200571536 -0.9190734305852972 -1.3172581855395978e-17 1.1998357678335667e-16 -1.3172581855395978e-17 1.1998357678335667e-16 0.39408694511633474 -0.9190731634035965
12661725333.333334 0.38378225534351906 -0.9234236191928714 -1.1816838238949393e-17 1.2010102702999693e-16 -1.1816838238949393e-17 1.2010102702999693e-16 0.3837828813729479 -0.9234233590097752
12662342666.666666 0.373430178317769 -0.9276582894155473 -1.0460121425634173e-17 1.202031674320067e-16 -1.0460121425634173e-17 1.202031674320067e-16 0.3734308071874114 -0.9276580362629199
12662960000.0 0.363031385951885 -0.9317769115049339 -9.102604198904212e-18 1.2028999097992194e-16 -9.102604198904212e-18 1.2028999097992194e-16 0.3630320175827979 -0.9317766654137578
12663577333.333334 0.3525871791133574 -0.9357789702299921 -7.744459376534857e-18 1.2036149261310071e-16 -7.744459376534857e-18 1.2036149261310071e-16 0.3525878134262597 -0.9357787312303628
12664194666.666666 0.3420988643508525 -0.93966396494155 -6.3858597886656375e-18 1.2041766921960534e-16 -6.3858597886656375e-18 1.2041766921960534e-16 0.3420995012661357 -0.9396637330626739
12664812000.0 0.33156775373087183 -0.9434314096348937 -5.026978255819217e-18 1.2045851963583955e-16 -5.026978255819217e-18 1.2045851963583955e-16 0.3315683931686087 -0.9434311849050814
12665429333.333334 0.32099516467353356 -0.9470808330105881 -3.667987566957479e-18 1.2048404464593576e-16 -3.667987566957479e-18 1.2048404464593576e-16 0.32099580655349014 -0.9470806154572552
12666046666.666666 0.31038241978801023 -0.9506117785333603 -2.3090604575707375e-18 1.2049424698089556e-16 -2.3090604575707375e-18 1.2049424698089556e-16 0.31038306402965443 -0.9506115681830211
12666664000.0 0.29973084670658695 -0.9540238044893692 -9.503695876966821e-19 1.2048913131748507e-16 -9.503695876966821e-19 1.2048913131748507e-16 0.29973149322909937 -0.9540236013676356
12667281333.333334 0.2890417779191723 -0.9573164840412721 4.0791247992267445e-19 1.2046870427688155e-16 4.0791247992267445e-19 1.2046870427688155e-16 0.2890424266414555 -0.9573162881728472
12667898666.666666 0.2783165506061448 -0.9604894052817635 1.765613301762498e-18 1.2043297442307454e-16 1.765613301762498e-18 1.2043297442307454e-16 0.278317201446835 -0.9604892166904428
12668516000.0 0.26755650647115714 -0.9635421712850808 3.122560575378672e-18 1.203819522610198e-16 3.122560575378672e-18 1.203819522610198e-16 0.267557159348633 -0.9635419899937465
12669133333.333334 0.2567629915736181 -0.9664744001565609 4.478582161197012e-18 1.2031565023454994e-16 4.478582161197012e-18 1.2031565023454994e-16 0.25676364640601146 -0.9664742261871797
12669750666.666666 0.2459373561598667 -0.969285725080543 5.8335061043725254e-18 1.202340827240364e-16 5.8335061043725254e-18 1.202340827240364e-16 0.24593801286507266 -0.9692855584541625
12670368000.0 0.23508095449444966 -0.9719757943661955 7.187160656537982e-18 1.2013726604380822e-16 7.187160656537982e-18 1.2013726604380822e-16 0.23508161299013763 -0.9719756351029453
