! Parameters = {f0=12700.012000; bw=77.238000; Q=6100.000000; N=10; m_0_1=1.203098; m_1_1=-0.718274; m_1_2=1.037910; m_2_2=-0.718923; m_2_3=0.674873; m_2_8=-0.002781; m_2_9=0.033923; m_3_3=-0.720860; m_3_4=0.563402; m_3_7=-0.002181; m_3_8=-0.099269; m_3_9=-0.002781; m_4_4=-0.723785; m_4_5=0.399737; m_4_6=0.001336; m_4_7=-0.119818; m_4_8=-0.002181; m_5_5=-0.723403; m_5_6=0.807092; m_5_7=0.001336; m_6_6=-0.723404; m_6_7=0.400079; m_7_7=-0.723771; m_7_8=0.563520; m_8_8=-0.720862; m_8_9=0.675186; m_9_9=-0.718928; m_9_10=1.038988; m_10_10=-0.718284; m_10_11=1.203893}
!
! Created with skrf (http://scikit-rf.org).
# Hz S RI R 50.0 
!freq ReS11 ImS11 ReS21 ImS21 ReS12 ImS12 ReS22 ImS22
12607400000.0 -0.9416729254771462 -0.33652949562134216 7.967782617336866e-17 4.4042799781738145e-18 7.967782617336866e-17 4.4042799781738145e-18 -0.9416727121239932 -0.3365300926230585
12608017333.333334 -0.944514205711034 -0.32847056977741207 7.969726895640626e-17 3.7154710057050886e-18 7.969726895640626e-17 3.7154710057050886e-18 -0.9445139974772749 -0.32847116855112163
12608634666.666666 -0.9472865183111002 -0.3203876592908576 7.971076214452207e-17 3.026654812286709e-18 7.971076214452207e-17 3.026654812286709e-18 -0.9472863152114398 -0.3203882597926674
12609252000.0 -0.9499896608454784 -0.3122813543689981 7.971830706247537e-17 2.3378827435275727e-18 7.971830706247537e-17 2.3378827435275727e-18 -0.9499894628942416 -0.3122819565548925
12609869333.333334 -0.952623435933017 -0.3041522469274461 7.971990547776284e-17 1.6492061216334788e-18 7.971990547776284e-17 1.6492061216334788e-18 -0.9526232431441547 -0.3041528507532916
12610486666.666666 -0.9551876512577242 -0.2960009305468362 7.971555960031332e-17 9.606762416109527e-19 7.971555960031332e-17 9.606762416109527e-19 -0.9551874636448071 -0.2960015359683836
12611104000.0 -0.9576821195828262 -0.287828000429398 7.970527208215013e-17 2.723443674156695e-19 7.970527208215013e-17 2.723443674156695e-19 -0.9576819371590458 -0.28782860740228555
12611721333.333334 -0.9601066587643928 -0.27963405335565866 7.968904601702051e-17 -4.157382718046705e-19 7.968904601702051e-17 -4.157382718046705e-19 -0.9601064815425603 -0.27963466183541585
12612338666.666666 -0.9624610917646516 -0.2714196876408123 7.966688493999174e-17 -1.103520485551765e-18 7.966688493999174e-17 -1.103520485551765e-18 -0.9624609197571983 -0.2714202975828634
12612956000.0 -0.9647452466649744 -0.26318550309084077 7.96387928270148e-17 -1.7909511257684234e-18 7.96387928270148e-17 -1.7909511257684234e-18 -0.9647450798839485 -0.26318611445050716
12613573333.333334 -0.966958956678333 -0.25493210095904345 7.960477409445664e-17 -2.4779790906052938e-18 7.960477409445664e-17 -2.4779790906052938e-18 -0.9669587951354007 -0.2549327136915476
12614190666.666666 -0.9691020601615334 -0.24666008390194322 7.956483359859712e-17 -3.1645533282482894e-18 7.956483359859712e-17 -3.1645533282482894e-18 -0.9691019038679769 -0.2466606979624116
12614808000.0 -0.9711744006270352 -0.23837005593522642 7.951897663509636e-17 -3.850622840672922e-18 7.951897663509636e-17 -3.850622840672922e-18 -0.9711742495937519 -0.238370671278693
12615425333.333334 -0.9731758267543217 -0.23006262238982925 7.946720893842714e-17 -4.536136687440639e-18 7.946720893842714e-17 -4.536136687440639e-18 -0.9731756809918263 -0.2300632389712392
12616042666.666666 -0.9751061924010134 -0.22173838986751832 7.940953668127652e-17 -5.221043989464545e-18 7.940953668127652e-17 -5.221043989464545e-18 -0.9751060519194322 -0.22173900764173027
12616660000.0 -0.97696535661348 -0.213397966196817 7.934596647391438e-17 -5.90529393276905e-18 7.934596647391438e-17 -5.90529393276905e-18 -0.9769652214225533 -0.21339858511860693
12617277333.333334 -0.9787531836371904 -0.2050419603883729 7.927650536352885e-17 -6.5888357722680556e-18 7.927650536352885e-17 -6.5888357722680556e-18 -0.978753053746271 -0.20504258041243756
12617894666.666666 -0.9804695429265469 -0.1966709825908498 7.920116083353242e-17 -7.271618835489157e-18 7.920116083353242e-17 -7.271618835489157e-18 -0.9804694183446013 -0.1966716036718101
12618512000.0 -0.982114309154526 -0.18828564404587478 7.911994080283002e-17 -7.953592526360826e-18 7.911994080283002e-17 -7.953592526360826e-18 -0.9821141898901304 -0.18828626613827854
12619129333.333334 -0.9836873622217284 -0.17988655704387843 7.90328536250624e-17 -8.634706328913616e-18 7.90328536250624e-17 -8.634706328913616e-18 -0.9836872482830704 -0.17988718010220422
12619746666.666666 -0.9851885872651895 -0.17147433487919142 7.893990808781199e-17 -9.31490981102799e-18 7.893990808781199e-17 -9.31490981102799e-18 -0.9851884786600682 -0.17147495885785188
12620364000.0 -0.9866178746668046 -0.16304959180506662 7.884111341177647e-17 -9.99415262817434e-18 7.884111341177647e-17 -9.99415262817434e-18 -0.9866177714026273 -0.16305021665841146
12620981333.333334 -0.9879751200612441 -0.15461294298930206 7.873647924991704e-17 -1.0672384527091235e-17 7.873647924991704e-17 -1.0672384527091235e-17 -0.9879750221450277 -0.15461356867162157
12621598666.666666 -0.989260224343662 -0.14616500446881775 7.8626015686565e-17 -1.1349555349533878e-17 7.8626015686565e-17 -1.1349555349533878e-17 -0.9892601317820335 -0.14616563093434642
12622216000.0 -0.9904730936768767 -0.13770639310503846 7.850973323650567e-17 -1.2025615035944603e-17 7.850973323650567e-17 -1.2025615035944603e-17 -0.9904730064760703 -0.1377070203079578
12622833333.333334 -0.9916136394982596 -0.12923772653856916 7.838764284402322e-17 -1.2700513629163704e-17 7.838764284402322e-17 -1.2700513629163704e-17 -0.9916135576641182 -0.12923835443301157
12623450666.666666 -0.9926817785261581 -0.12075962314443368 7.825975588192044e-17 -1.3374201278095642e-17 7.825975588192044e-17 -1.3374201278095642e-17 -0.992681702064132 -0.12076025168448541
12624068000.0 -0.9936774327660257 -0.11227270198655523 7.812608415050255e-17 -1.4046628241385806e-17 7.812608415050255e-17 -1.4046628241385806e-17 -0.9936773616811724 -0.11227333112625991
12624685333.333334 -0.9946005295160909 -0.1037775827727501 7.798663987652772e-17 -1.4717744891101044e-17 7.798663987652772e-17 -1.4717744891101044e-17 -0.9946004638130732 -0.10377821246611188
12625302666.666666 -0.9954510013726533 -0.09527488580956142 7.784143571213707e-17 -1.5387501716342685e-17 7.784143571213707e-17 -1.5387501716342685e-17 -0.9954509410557436 -0.0952755160105489
12625920000.0 -0.996228786235047 -0.08676523195662664 7.76904847337357e-17 -1.6055849326937908e-17 7.76904847337357e-17 -1.6055849326937908e-17 -0.996228731308123 -0.0867658626191757
12626537333.333334 -0.9969338273101245 -0.07824924258182306 7.75338004408607e-17 -1.6722738457034563e-17 7.75338004408607e-17 -1.6722738457034563e-17 -0.9969337777766694 -0.07824987365984035
12627154666.666666 -0.9975660731164386 -0.06972753951552844 7.737139675500813e-17 -1.738811996872938e-17 7.737139675500813e-17 -1.738811996872938e-17 -0.9975660289795414 -0.06972817096289477
12627772000.0 -0.9981254774879975 -0.0612007450052721 7.720328801842487e-17 -1.805194485570737e-17 7.720328801842487e-17 -1.805194485570737e-17 -0.998125438750352 -0.06120137677584579
12628389333.333334 -0.9986119995776169 -0.05266948167046853 7.702948899288617e-17 -1.8714164246792827e-17 7.702948899288617e-17 -1.8714164246792827e-17 -0.9986119662415253 -0.052670113718088975
12629006666.666666 -0.9990256038599264 -0.044134372456756485 7.685001485842084e-17 -1.9374729409585724e-17 7.685001485842084e-17 -1.9374729409585724e-17 -0.9990255759272941 -0.04413500473524723
12629624000.0 -0.9993662601339477 -0.035596040590624864 7.666488121202404e-17 -2.0033591754007266e-17 7.666488121202404e-17 -2.0033591754007266e-17 -0.999366237606286 -0.035596673053797157
12630241333.333334 -0.9996339435253062 -0.027055109533820336 7.647410406633035e-17 -2.0690702835870664e-17 7.647410406633035e-17 -2.0690702835870664e-17 -0.9996339264037315 -0.027055742135476436
12630858666.666666 -0.9998286344880414 -0.018512202938078315 7.627769984825843e-17 -2.1346014360435505e-17 7.627769984825843e-17 -2.1346014360435505e-17 -0.9998286227732751 -0.018512835632014907
12631476000.0 -0.9999503188060457 -0.009967944599073048 7.607568539762271e-17 -2.1999478185953586e-17 7.607568539762271e-17 -2.1999478185953586e-17 -0.9999503124984146 -0.00996857733908459
12632093333.333334 -0.9999989875940886 -0.0014229584114652243 7.58680779657214e-17 -2.2651046327182686e-17 7.58680779657214e-17 -2.2651046327182686e-17 -0.9999989866935247 -0.0014235911513473289
12632710666.666666 -0.9999746372984751 0.007122131677052044 7.565489521388862e-17 -2.3300670958906782e-17 7.565489521388862e-17 -2.3300670958906782e-17 -0.999974641804516 0.00712149898349924
12633328000.0 -0.9998772696973035 0.015666701711228168 7.543615521201672e-17 -2.3948304419440682e-17 7.543615521201672e-17 -2.3948304419440682e-17 -0.999877279609091 0.015666069110196617
12633945333.333334 -0.9997068919003305 0.024210127773787296 7.521187643705178e-17 -2.459389921411253e-17 7.521187643705178e-17 -2.459389921411253e-17 -0.9997069072166134 0.02420949531145771
12634562666.666666 -0.99946351634846 0.03275178603090103 7.498207777146011e-17 -2.5237408018730513e-17 7.498207777146011e-17 -2.5237408018730513e-17 -0.9994635370675912 0.032751153753439455
12635180000.0 -0.9991471608128271 0.0412910527779107 7.474677850165793e-17 -2.58787836830567e-17 7.474677850165793e-17 -2.58787836830567e-17 -0.9991471869327666 0.04129042073146521
12635797333.333334 -0.9987578483935036 0.04982730448481295 7.45059983164218e-17 -2.6517979234236887e-17 7.45059983164218e-17 -2.6517979234236887e-17 -0.9987578799118152 0.049826672715510154
12636414666.666666 -0.9982956075178163 0.05835991784159047 7.425975730526237e-17 -2.715494788023704e-17 7.425975730526237e-17 -2.715494788023704e-17 -0.9982956444316716 0.05835928639553232
12637032000.0 -0.9977604719382586 0.06688826980409482 7.400807595676861e-17 -2.778964301326495e-17 7.400807595676861e-17 -2.778964301326495e-17 -0.9977605142444357 0.06688763872735516
12637649333.333334 -0.9971524807300433 0.07541173763920005 7.375097515693096e-17 -2.842201821315572e-17 7.375097515693096e-17 -2.842201821315572e-17 -0.9971525284249255 0.0754111069778212
12638266666.666666 -0.9964716782882292 0.08392969897052915 7.348847618742381e-17 -2.9052027250773514e-17 7.348847618742381e-17 -2.9052027250773514e-17 -0.9964717313678072 0.0839290687705186
12638884000.0 -0.9957181143244989 0.09244153182367287 7.322060072387166e-17 -2.967962409136424e-17 7.322060072387166e-17 -2.967962409136424e-17 -0.9957181727843724 0.09244090213100009
12639501333.333334 -0.9948918438635118 0.10094661467183251 7.294737083407377e-17 -3.030476289792574e-17 7.294737083407377e-17 -3.030476289792574e-17 -0.9948919076988864 0.10094598553242527
12640118666.666666 -0.9939929272389084 0.1094443264809484 7.266880897621482e-17 -3.0927398034526897e-17 7.266880897621482e-17 -3.0927398034526897e-17 -0.9939929964445973 0.10944369794068962
12640736000.0 -0.9930214300888646 0.11793404675541476 7.238493799702722e-17 -3.154748406965537e-17 7.238493799702722e-17 -3.154748406965537e-17 -0.9930215046592904 0.11793341886013915
12641353333.333334 -0.9919774233513543 0.1264151555829075 7.209578112995304e-17 -3.2164975779487776e-17 7.209578112995304e-17 -3.2164975779487776e-17 -0.991977503280548 0.12641452837839823
12641970666.666666 -0.9908609832589268 0.13488703368001698 7.180136199324996e-17 -3.277982815120415e-17 7.180136199324996e-17 -3.277982815120415e-17 -0.9908610685405295 0.13488640721200232
12642588000.0 -0.9896721913331495 0.14334906243741127 7.150170458808433e-17 -3.33919963862529e-17 7.150170458808433e-17 -3.33919963862529e-17 -0.9896722819604101 0.14334843675156098
12643205333.333334 -0.9884111343786747 0.15180062396480826 7.119683329659503e-17 -3.4001435903600383e-17 7.119683329659503e-17 -3.4001435903600383e-17 -0.9884112303444548 0.15179999910673098
12643822666.666666 -0.9870779044768581 0.16024110113643214 7.088677287992729e-17 -3.460810234296922e-17 7.088677287992729e-17 -3.460810234296922e-17 -0.98707800577363 0.16024047715167145
12644440000.0 -0.9856725989790909 0.16866987763570976 7.057154847623834e-17 -3.5211951568061053e-17 7.057154847623834e-17 -3.5211951568061053e-17 -0.9856727055989376 0.168669254569741
12645057333.333334 -0.9841953204996536 0.17708633800049825 7.025118559868395e-17 -3.581293966974302e-17 7.025118559868395e-17 -3.581293966974302e-17 -0.9841954324342694 0.1770857158987251
12645674666.666666 -0.9826461769082355 0.18548986766794084 6.992571013336452e-17 -3.6411022969244367e-17 6.992571013336452e-17 -3.6411022969244367e-17 -0.9826462941489292 0.18548924657569235
12646292000.0 -0.9810252813220448 0.1938798530194548 6.959514833724638e-17 -3.7006158021328255e-17 6.959514833724638e-17 -3.7006158021328255e-17 -0.9810254038597377 0.19387923298198179
12646909333.333334 -0.9793327520975705 0.20225568142536804 6.925952683607772e-17 -3.759830161740565e-17 6.925952683607772e-17 -3.759830161740565e-17 -0.9793328799227986 0.20225506248784003
12647526666.666666 -0.9775687128219401 0.21061674128971072 6.891887262224319e-17 -3.818741078869555e-17 6.891887262224319e-17 -3.818741078869555e-17 -0.9775688459248536 0.21061612349721234
12648144000.0 -0.9757332923038471 0.21896242209506667 6.857321305261892e-17 -3.87734428093145e-17 6.857321305261892e-17 -3.87734428093145e-17 -0.9757334306742117 0.21896180549259447
12648761333.333334 -0.9738266245642176 0.2272921144468194 6.822257584638813e-17 -3.935635519937292e-17 6.822257584638813e-17 -3.935635519937292e-17 -0.9738267681914158 0.22729149907927884
12649378666.666666 -0.9718488488263781 0.23560521011787242 6.786698908284342e-17 -3.993610572802806e-17 6.786698908284342e-17 -3.993610572802806e-17 -0.9718489976994102 0.23560459603007447
12649996000.0 -0.9698001095059094 0.24390110209297833 6.750648119914083e-17 -4.0512652416556334e-17 6.750648119914083e-17 -4.0512652416556334e-17 -0.9698002636133933 0.24390048932963604
12650613333.333334 -0.9676805562000708 0.2521791846131723 6.714108098804807e-17 -4.1085953541370444e-17 6.714108098804807e-17 -4.1085953541370444e-17 -0.9676807155302435 0.2521785732188977
12651230666.666666 -0.965490343676928 0.26043885321981186 6.67708175956692e-17 -4.1655967637015045e-17 6.67708175956692e-17 -4.1655967637015045e-17 -0.9654905082176456 0.2604382432391125
12651848000.0 -0.9632296318639997 0.2686795047989058 6.639572051911498e-17 -4.222265349918733e-17 6.639572051911498e-17 -4.222265349918733e-17 -0.9632298016027409 0.2686788962761822
12652465333.333334 -0.9608985858365983 0.276900537625099 6.601581960418858e-17 -4.2785970187672486e-17 6.601581960418858e-17 -4.2785970187672486e-17 -0.9608987607604604 0.27689993060464
12653082666.666666 -0.9584973758058309 0.28510135140538967 6.56311450430179e-17 -4.3345877029304195e-17 6.56311450430179e-17 -4.3345877029304195e-17 -0.9584975559015363 0.28510074593137075
12653700000.0 -0.9560261771060359 0.29328134732345496 6.524172737166198e-17 -4.3902333620903204e-17 6.524172737166198e-17 -4.3902333620903204e-17 -0.9560263623599309 0.2932807434399345
12654317333.333334 -0.9534851701821552 0.3014399280827766 6.484759746772321e-17 -4.4455299832150504e-17 6.484759746772321e-17 -4.4455299832150504e-17 -0.9534853605802093 0.30143932583369215
12654934666.666666 -0.9508745405764086 0.30957649795074355 6.444878654789245e-17 -4.500473580850214e-17 6.444878654789245e-17 -4.500473580850214e-17 -0.950874736104218 0.30957589737990915
12655552000.0 -0.9481944789148141 0.3176904628019354 6.404532616550074e-17 -4.555060197403562e-17 6.404532616550074e-17 -4.555060197403562e-17 -0.9481946795576015 0.3176898639530384
12656169333.333334 -0.9454451808932848 0.3257812301614503 6.363724820804027e-17 -4.609285903428628e-17 6.363724820804027e-17 -4.609285903428628e-17 -0.9454453866359014 0.325780633078048
12656786666.666666 -0.9426268472632787 0.33384820924835656 6.322458489464899e-17 -4.663146797907743e-17 6.322458489464899e-17 -4.663146797907743e-17 -0.9426270580902048 0.33384761397387325
12657404000.0 -0.9397396838172137 0.34189081101861557 6.280736877359138e-17 -4.716639008530107e-17 6.280736877359138e-17 -4.716639008530107e-17 -0.9397398997125592 0.34189021759633903
12658021333.333334 -0.9367839013733519 0.3499084482083338 6.238563271969342e-17 -4.7697586919707195e-17 6.238563271969342e-17 -4.7697586919707195e-17 -0.9367841223208594 0.3499078566814126
12658638666.666666 -0.933759715760538 0.35790053537629846 6.19594099317834e-17 -4.822502034163059e-17 6.19594099317834e-17 -4.822502034163059e-17 -0.9337599417435816 0.3578999457877382
12659256000.0 -0.9306673478022575 0.36586648894720475 6.152873393006765e-17 -4.874865250574999e-17 6.152873393006765e-17 -4.874865250574999e-17 -0.9306675788038447 0.36586590133986513
12659873333.333334 -0.9275070233006807 0.37380572725381445 6.109363855353113e-17 -4.926844586476231e-17 6.109363855353113e-17 -4.926844586476231e-17 -0.9275072593034563 0.3738051416704072
12660490666.666666 -0.9242789730201009 0.38171767057964434 6.065415795728286e-17 -4.9784363172076275e-17 6.065415795728286e-17 -4.9784363172076275e-17 -0.9242792140063453 0.3817170870627287
12661108000.0 -0.9209834326700574 0.38960174120134733 6.021032660987763e-17 -5.0296367484481596e-17 6.021032660987763e-17 -5.0296367484481596e-17 -0.9209836786216882 0.3896011597933274
12661725333.333334 -0.917620642888198 0.39745736343071203 5.976217929065031e-17 -5.080442216475393e-17 5.976217929065031e-17 -5.080442216475393e-17 -0.9176208937867734 0.3974567841738344
12662342666.666666 -0.9141908492226258 0.4052839636569117 5.930975108697766e-17 -5.1308490884295605e-17 5.930975108697766e-17 -5.1308490884295605e-17 -0.9141911050493435 0.4052833865932611
12662960000.0 -0.9106943021140544 0.4130809703881774 5.8853077391563e-17 -5.180853762569975e-17 5.8853077391563e-17 -5.180853762569975e-17 -0.9106945628497547 0.41308039555967463
12663577333.333334 -0.907131256877431 0.4208478142937369 5.839219389966879e-17 -5.23045266853256e-17 5.839219389966879e-17 -5.23045266853256e-17 -0.9071315225025967 0.4208472417421353
12664194666.666666 -0.9035019736833856 0.428583928245179 5.792713660634347e-17 -5.279642267583096e-17 5.792713660634347e-17 -5.279642267583096e-17 -0.9035022441781467 0.4285833580120624
12664812000.0 -0.8998067175391428 0.4362887473580729 5.74579418036277e-17 -5.328419052868032e-17 5.74579418036277e-17 -5.328419052868032e-17 -0.8998069928832725 0.4362881794848503
12665429333.333334 -0.896045758269248 0.4439617090330323 5.698464607772257e-17 -5.37677954966462e-17 5.698464607772257e-17 -5.37677954966462e-17 -0.8960460384421701 0.4439611435609378
12666046666.666666 -0.892219370495837 0.4516022529968764 5.650728630616917e-17 -5.4247203156251426e-17 5.650728630616917e-17 -5.4247203156251426e-17 -0.8922196554766234 0.4516016899669639
12666664000.0 -0.8883278336185406 0.4592098213436155 5.602589965495978e-17 -5.472237941023638e-17 5.602589965495978e-17 -5.472237941023638e-17 -0.8883281233859138 0.45920926079675656
12667281333.333334 -0.8843714317941701 0.466783858575009 5.554052357568292e-17 -5.519329048994473e-17 5.554052357568292e-17 -5.519329048994473e-17 -0.8843717263265067 0.46678330055189066
12667898666.666666 -0.8803504539158843 0.47432381164130843 5.505119580261118e-17 -5.565990295772258e-17 5.505119580261118e-17 -5.565990295772258e-17 -0.8803507531912155 0.4743232561824296
12668516000.0 -0.8762651935921303 0.4818291299815629 5.455795434976828e-17 -5.612218370929088e-17 5.455795434976828e-17 -5.612218370929088e-17 -0.8762654975881404 0.4818285771272301
12669133333.333334 -0.8721159491252287 0.48929926556376907 5.406083750801542e-17 -5.658009997605572e-17 5.406083750801542e-17 -5.658009997605572e-17 -0.8721162578192624 0.4892987153540959
12669750666.666666 -0.8679030234895722 0.4967336729249418 5.355988384206335e-17 -5.703361932744486e-17 5.355988384206335e-17 -5.703361932744486e-17 -0.8679033368586306 0.4967331253998437
