! Parameters = {f0=12700.012000; bw=77.238000; Q=6100.000000; N=10; m_0_1=1.330425; m_1_1=1.191636; m_1_2=1.165237; m_2_2=1.190987; m_2_3=0.802200; m_2_8=0.003585; m_2_9=0.040289; m_3_3=1.189050; m_3_4=0.690729; m_3_7=0.004185; m_3_8=-0.092903; m_3_9=0.003585; m_4_4=1.186125; m_4_5=0.527064; m_4_6=0.007702; m_4_7=-0.113452; m_4_8=0.004185; m_5_5=1.186507; m_5_6=0.934419; m_5_7=0.007702; m_6_6=1.186506; m_6_7=0.527406; m_7_7=1.186139; m_7_8=0.690847; m_8_8=1.189048; m_8_9=0.802513; m_9_9=1.190982; m_9_10=1.166315; m_10_10=1.191626; m_10_11=1.331220}
!
! Created with skrf (http://scikit-rf.org).
# Hz S RI R 50.0 
!freq ReS11 ImS11 ReS21 ImS21 ReS12 ImS12 ReS22 ImS22
12607400000.0 -0.37937270713584004 0.9252439403099225 1.472282729523123e-17 -1.451166190707054e-16 1.472282729523123e-17 -1.451166190707054e-16 -0.37937335557639923 0.9252436744331243
12608017333.333334 -0.36795516582732246 0.9298435330424112 1.2920060220986507e-17 -1.4525954739358274e-16 1.2920060220986507e-17 -1.4525954739358274e-16 -0.3679558174595254 0.9298432751800159
12608634666.666666 -0.35648187324153024 0.9343022391335775 1.1116013129382242e-17 -1.4538009243975099e-16 1.1116013129382242e-17 -1.4538009243975099e-16 -0.35648252796633584 0.9343019893238681
12609252000.0 -0.34495456777161465 0.9386193830159831 9.310963780516555e-18 -1.4547824444741393e-16 9.310963780516555e-18 -1.4547824444741393e-16 -0.3449552254895237 0.9386191412960204
12609869333.333334 -0.333374995994622 0.942794310571183 7.505189979751367e-18 -1.455539970996907e-16 7.505189979751367e-18 -1.455539970996907e-16 -0.3333756566056911 0.942794076976797
12610486666.666666 -0.32174491240691194 0.9468263892288148 5.6989695350184975e-18 -1.456073475242376e-16 5.6989695350184975e-18 -1.456073475242376e-16 -0.3217455758107693 0.9468261637946025
12611104000.0 -0.3100660791579467 0.9507150080625765 3.892580214075857e-18 -1.456382962923428e-16 3.892580214075857e-18 -1.456382962923428e-16 -0.3100667452538071 0.9507147908218937
12611721333.333334 -0.29834026578385997 0.9544595778825953 2.0862997019313812e-18 -1.4564684741748767e-16 2.0862997019313812e-18 -1.4564684741748767e-16 -0.2983409344705407 0.954459368867555
12612338666.666666 -0.2865692489388602 0.9580595313248675 2.804055581349429e-19 -1.4563300835338454e-16 2.804055581349429e-19 -1.4563300835338454e-16 -0.2865699201147952 0.9580593305663312
12612956000.0 -0.27475481212622355 0.9615143229371524 -1.5248248257861283e-18 -1.4559678999148338e-16 -1.5248248257861283e-18 -1.4559678999148338e-16 -0.2747554856894801 0.9615141304647292
12613573333.333334 -0.2628987454282302 0.9648234292615769 -3.329114268878023e-18 -1.4553820665795347e-16 -3.329114268878023e-18 -1.4553820665795347e-16 -0.2628994212765239 0.9648232451036176
12614190666.666666 -0.25100284523458194 0.9679863489140489 -5.132185843274859e-18 -1.4545727611013782e-16 -5.132185843274859e-18 -1.4545727611013782e-16 -0.2510035232652918 0.9679861730976412
12614808000.0 -0.2390689139705472 0.9710026026601319 -6.9337629166616606e-18 -1.4535401953248085e-16 -6.9337629166616606e-18 -1.4535401953248085e-16 -0.23906959408073178 0.9710024352110971
12615425333.333334 -0.2270987598236168 0.9738717334877228 -8.733569194634003e-18 -1.4522846153193334e-16 -8.733569194634003e-18 -1.4522846153193334e-16 -0.22709944191002981 0.9738715744306122
12616042666.666666 -0.2150941964697546 0.9765933066762427 -1.0531328763051136e-17 -1.4508063013283083e-16 -1.0531328763051136e-17 -1.4508063013283083e-16 -0.2150948804288604 0.9765931560343339
12616660000.0 -0.20305704279837436 0.9791669098625561 -1.232676613024803e-17 -1.4491055677125175e-16 -1.232676613024803e-17 -1.4491055677125175e-16 -0.20305772852636372 0.9791667676578492
12617277333.333334 -0.19098912263691378 0.9815921531034105 -1.4119606269236162e-17 -1.4471827628884997e-16 -1.4119606269236162e-17 -1.4471827628884997e-16 -0.19098981002971963 0.9815920193566255
12617894666.666666 -0.1788922644745515 0.9838686689345149 -1.5909574659725753e-17 -1.4450382692617332e-16 -1.5909574659725753e-17 -1.4450382692617332e-16 -0.17889295342786474 0.9838685436650885
12618512000.0 -0.1667683011847692 0.9859961124262872 -1.7696397330185344e-17 -1.4426725031545005e-16 -1.7696397330185344e-17 -1.4426725031545005e-16 -0.1667689915940546 0.9859959956523703
12619129333.333334 -0.15461906974822853 0.9879741612360106 -1.947980089963627e-17 -1.440085914728746e-16 -1.947980089963627e-17 -1.440085914728746e-16 -0.15461976150874016 0.9879740529744631
12619746666.666666 -0.1424464109739619 0.9898025156567561 -2.125951261947965e-17 -1.4372789879036084e-16 -2.125951261947965e-17 -1.4372789879036084e-16 -0.1424471039807596 0.9898024159231484
12620364000.0 -0.13025216922054353 0.9914808986627776 -2.3035260415168673e-17 -1.4342522402678345e-16 -2.3035260415168673e-17 -1.4342522402678345e-16 -0.1302528633685086 0.9914808074713861
12620981333.333334 -0.11803819211694792 0.9930090559514392 -2.4806772927683564e-17 -1.4310062229871843e-16 -2.4806772927683564e-17 -1.4310062229871843e-16 -0.11803888730079905 0.9930089733152445
12621598666.666666 -0.10580633028226641 0.9943867559817986 -2.6573779555019082e-17 -1.4275415207064886e-16 -2.6573779555019082e-17 -1.4275415207064886e-16 -0.10580702639657558 0.9943866819124845
12622216000.0 -0.09355843704536358 0.9956137900096784 -2.8336010493413187e-17 -1.4238587514468156e-16 -2.8336010493413187e-17 -1.4238587514468156e-16 -0.09355913398457202 0.9956137245176278
12622833333.333334 -0.08129636816417984 0.9966899721192742 -3.0093196778530406e-17 -1.4199585664973798e-16 -3.0093196778530406e-17 -1.4199585664973798e-16 -0.08129706582261448 0.9966899152135732
12623450666.666666 -0.06902198154458322 0.9976151392513378 -3.18450703264151e-17 -1.415841650302549e-16 -3.18450703264151e-17 -1.415841650302549e-16 -0.06902267981647199 0.9976150909397667
12624068000.0 -0.05673713695863815 0.9983891512278885 -3.359136397437039e-17 -1.4115087203436497e-16 -3.359136397437039e-17 -1.4115087203436497e-16 -0.05673783573812656 0.9983891115169272
12624685333.333334 -0.044443695762989885 0.9990118907734451 -3.5331811521662785e-17 -1.4069605270157567e-16 -3.5331811521662785e-17 -1.4069605270157567e-16 -0.044444394944156876 0.9990118596682694
12625302666.666666 -0.03214352061689489 0.999483263532791 -3.7066147769979714e-17 -1.4021978534997e-16 -3.7066147769979714e-17 -1.4021978534997e-16 -0.032144220093768855 0.9994832410372718
12625920000.0 -0.019838475199798512 0.9998031980852801 -3.879410856387657e-17 -1.3972215156286668e-16 -3.879410856387657e-17 -1.3972215156286668e-16 -0.019839174866373467 0.9998031842019846
12626537333.333334 -0.007530423929127243 0.9999716459556511 -4.0515430830868544e-17 -1.3920323617503162e-16 -4.0515430830868544e-17 -1.3920323617503162e-16 -0.00753112367937878 0.9999716406858405
12627154666.666666 0.004778768322172881 0.999988581621375 -4.2229852621483864e-17 -1.3866312725835738e-16 -4.2229852621483864e-17 -1.3866312725835738e-16 0.004778068594271476 0.9999885849650058
12627772000.0 0.017087236508451068 0.9998540025165228 -4.393711314906444e-17 -1.3810191610706535e-16 -4.393711314906444e-17 -1.3810191610706535e-16 0.017086536908912747 0.9998540144722461
12628389333.333334 0.029393115693624343 0.999567929032153 -4.5636952829357804e-17 -1.3751969722242822e-16 -4.5636952829357804e-17 -1.3751969722242822e-16 0.029392416328432286 0.9995679495973165
12629006666.666666 0.04169454133397354 0.9991304045132228 -4.732911331995878e-17 -1.3691656829698525e-16 -4.732911331995878e-17 -1.3691656829698525e-16 0.041693842309064984 0.999130433683868
12629624000.0 0.05398964956056701 0.9985414952520172 -4.9013337559506653e-17 -1.3629263019828964e-16 -4.9013337559506653e-17 -1.3629263019828964e-16 0.05398895098181733 0.9985415330228832
12630241333.333334 0.06627657746163924 0.997801290478108 -5.068936980667361e-17 -1.356479869521708e-16 -5.068936980667361e-17 -1.356479869521708e-16 0.06627587943484592 0.9978013368426326
12630858666.666666 0.07855346336476787 0.9969099023448444 -5.235695567895126e-17 -1.349827457255149e-16 -5.235695567895126e-17 -1.349827457255149e-16 0.07855276599563431 0.9969099572951624
12631476000.0 0.09081844711934435 0.9958674659123263 -5.401584219121597e-17 -1.3429701680856482e-16 -5.401584219121597e-17 -1.3429701680856482e-16 0.09081775051346407 0.9958675294392733
12632093333.333334 0.1030696703778508 0.9946741391269852 -5.566577779403488e-17 -1.3359091359676187e-16 -5.566577779403488e-17 -1.3359091359676187e-16 0.1030689746406913 0.9946742112200979
12632710666.666666 0.11530527687782711 0.9933301027976229 -5.730651241174765e-17 -1.328645525721126e-16 -5.730651241174765e-17 -1.328645525721126e-16 0.11530458211471403 0.9933301834451415
12633328000.0 0.1275234127230399 0.9918355605680191 -5.893779748036307e-17 -1.3211805328406315e-16 -5.893779748036307e-17 -1.3211805328406315e-16 0.12752271903914109 0.9918356497568896
12633945333.333334 0.13972222666435063 0.9901907388860813 -6.055938598509605e-17 -1.313515383299604e-16 -6.055938598509605e-17 -1.313515383299604e-16 0.13972153416465996 0.9901908366019558
12634562666.666666 0.15189987038012512 0.9883958869695426 -6.217103249776453e-17 -1.3056513333500176e-16 -6.217103249776453e-17 -1.3056513333500176e-16 0.15189917916944695 0.9883959931967832
12635180000.0 0.1640544987564827 0.986451276768177 -6.37724932138457e-17 -1.297589669317656e-16 -6.37724932138457e-17 -1.297589669317656e-16 0.16405380893941576 0.9864513914898579
12635797333.333334 0.17618427016669186 0.9843572029226171 -6.536352598933516e-17 -1.289331707392554e-16 -6.536352598933516e-17 -1.289331707392554e-16 0.17618358184761354 0.9843573261205265
12636414666.666666 0.1882873467501798 0.9821139827197171 -6.694389037726289e-17 -1.2808787934153042e-16 -6.694389037726289e-17 -1.2808787934153042e-16 0.18828666003323052 0.9821141143743625
12637032000.0 0.2003618946912508 0.9797219560444378 -6.85133476640074e-17 -1.272232302658509e-16 -6.85133476640074e-17 -1.272232302658509e-16 0.20036120968031781 0.9797220961350455
12637649333.333334 0.21240608449663115 0.9771814853283998 -7.007166090529326e-17 -1.2633936396039984e-16 -7.007166090529326e-17 -1.2633936396039984e-16 0.2124054012953331 0.9771816338329202
12638266666.666666 0.2244180912729192 0.9744929554949218 -7.161859496188399e-17 -1.2543642377157325e-16 -7.161859496188399e-17 -1.2543642377157325e-16 0.22441740998459064 0.9744931123900338
12638884000.0 0.23639609500286424 0.9716567739007461 -7.3153916535035e-17 -1.245145559208074e-16 -7.3153916535035e-17 -1.245145559208074e-16 0.23639541573053968 0.971656939161859
12639501333.333334 0.24833828082137815 0.9686733702742587 -7.46773942015988e-17 -1.235739094810004e-16 -7.46773942015988e-17 -1.235739094810004e-16 0.2483376036677767 0.9686735438755172
12640118666.666666 0.26024283929013153 0.9655431966504746 -7.618879844883695e-17 -1.226146363525031e-16 -7.618879844883695e-17 -1.226146363525031e-16 0.26024216435764147 0.965543378564763
12640736000.0 0.2721079666723745 0.96226672730238 -7.768790170902165e-17 -1.216368912386229e-16 -7.768790170902165e-17 -1.216368912386229e-16 0.272107294063037 0.9622669175013234
12641353333.333334 0.2839318652053789 0.9588444586692888 -7.917447839349906e-17 -1.206408316208483e-16 -7.917447839349906e-17 -1.206408316208483e-16 0.2839311950208737 0.9588446571232621
12641970666.666666 0.2957127433734901 0.9552769092814564 -8.064830492671318e-17 -1.1962661773348146e-16 -8.064830492671318e-17 -1.1962661773348146e-16 0.2957120757151192 0.9552771159595853
12642588000.0 0.3074488161793766 0.9515646196815577 -8.210915977969215e-17 -1.1859441253799414e-16 -8.210915977969215e-17 -1.1859441253799414e-16 0.30744815114804985 0.9515648345517256
12643205333.333334 0.3191383054143254 0.9477081523428397 -8.355682350331794e-17 -1.1754438169690366e-16 -8.355682350331794e-17 -1.1754438169690366e-16 0.31913764311054493 0.947708375371693
12643822666.666666 0.3307794399279949 0.9437080915837955 -8.499107876123511e-17 -1.164766935472615e-16 -8.499107876123511e-17 -1.164766935472615e-16 0.33077878045183884 0.9437083227367453
12644440000.0 0.3423704558964198 0.9395650434797393 -8.641171036239589e-17 -1.1539151907376038e-16 -8.641171036239589e-17 -1.1539151907376038e-16 0.3423697993475292 0.9395652827209718
12645057333.333334 0.35390959708950576 0.935279635770902 -8.781850529329731e-17 -1.1428903188142284e-16 -8.781850529329731e-17 -1.1428903188142284e-16 0.3539089435670678 0.9352798830633798
12645674666.666666 0.36539511513693695 0.9308525177673808 -8.921125274986927e-17 -1.1316940816789553e-16 -8.921125274986927e-17 -1.1316940816789553e-16 0.3653944647396709 0.9308527730728512
12646292000.0 0.3768252697933513 0.9262843602506606 -9.058974416900169e-17 -1.120328266953642e-16 -9.058974416900169e-17 -1.120328266953642e-16 0.37682462261949307 0.92628462352966
12646909333.333334 0.38819832920174885 0.9215758553720783 -9.195377325969973e-17 -1.108794687620993e-16 -9.195377325969973e-17 -1.108794687620993e-16 0.3881976853490368 0.9215761265839398
12647526666.666666 0.3995125701559788 0.9167277165479244 -9.33031360338989e-17 -1.0970951817360372e-16 -9.33031360338989e-17 -1.0970951817360372e-16 0.39951192972163796 0.916727995650782
12648144000.0 0.41076627836201446 0.9117406783512666 -9.463763083693104e-17 -1.0852316121337448e-16 -9.463763083693104e-17 -1.0852316121337448e-16 0.4107656414427431 0.9117409653020639
12648761333.333334 0.4219577486974103 0.9066154964007735 -9.595705837755968e-17 -1.0732058661334455e-16 -9.595705837755968e-17 -1.0732058661334455e-16 0.42195711538936426 0.9066157911552687
12649378666.666666 0.43308528546973596 0.9013529472461962 -9.726122175770384e-17 -1.0610198552390799e-16 -9.726122175770384e-17 -1.0610198552390799e-16 0.43308465586851513 0.9013532497589706
12649996000.0 0.44414720267370805 0.8959538282506124 -9.85499265017474e-17 -1.0486755148361328e-16 -9.85499265017474e-17 -1.0486755148361328e-16 0.44414657687434056 0.8959541384750742
12650613333.333334 0.4551418242463881 0.8904189574697282 -9.982298058548966e-17 -1.0361748038848051e-16 -9.982298058548966e-17 -1.0361748038848051e-16 0.45514120234331756 0.8904192753581239
12651230666.666666 0.46606748432123873 0.8847491735278862 -1.0108019446465782e-16 -1.0235197046101618e-16 -1.0108019446465782e-16 -1.0235197046101618e-16 0.46606686640830924 0.8847494990313056
12651848000.0 0.4769225274805814 0.8789453354909749 -1.0232138110311477e-16 -1.0107122221879685e-16 -1.0232138110311477e-16 -1.0107122221879685e-16 0.47692191365102216 0.8789456685593564
12652465333.333334 0.48770530900638814 0.8730083227362675 -1.0354635600057157e-16 -9.977543844280995e-17 -1.0354635600057157e-16 -9.977543844280995e-17 0.4877046993528022 0.8730086633184116
12653082666.666666 0.49841419512929125 0.8669390348193047 -1.0475493721995602e-16 -9.846482414540591e-17 -1.0475493721995602e-16 -9.846482414540591e-17 0.49841358974363936 0.8669393828628771
12653700000.0 0.5090475632765696 0.8607383913373418 -1.0594694541440241e-16 -9.713958653788777e-17 -1.0594694541440241e-16 -9.713958653788777e-17 0.5090469622501566 0.8607387467888822
12654317333.333334 0.5196038023174747 0.8544073317903064 -1.0712220385373938e-16 -9.579993499787875e-17 -1.0712220385373938e-16 -9.579993499787875e-17 0.5196032057409361 0.854407694595238
12654934666.666666 0.5300813128076686 0.8479468154382717 -1.0828053845067041e-16 -9.444608103625514e-17 -1.0828053845067041e-16 -9.444608103625514e-17 0.5300807207709576 0.8479471855409095
12655552000.0 0.5404785072316327 0.8413578211560607 -1.0942177778648201e-16 -9.30782382638239e-17 -1.0942177778648201e-16 -9.30782382638239e-17 0.5404779198240053 0.8413581984996188
12656169333.333334 0.5507938102428189 0.8346413472851709 -1.1054575313631233e-16 -9.169662235771688e-17 -1.1054575313631233e-16 -9.169662235771688e-17 0.550793227552821 0.8346417318117719
12656786666.666666 0.5610256589027725 0.8277984114822383 -1.116522984940563e-16 -9.030145102740881e-17 -1.116522984940563e-16 -9.030145102740881e-17 0.561025081018227 0.8277988031329228
12657404000.0 0.5711725029176332 0.8208300505650454 -1.127412505968065e-16 -8.889294398047965e-17 -1.127412505968065e-16 -8.889294398047965e-17 0.5711719299256259 0.8208304492797791
12658021333.333334 0.581232804873264 0.8137373203552641 -1.1381244894885739e-16 -8.747132288808964e-17 -1.1381244894885739e-16 -8.747132288808964e-17 0.581232236860132 0.8137377260729503
12658638666.666666 0.591205040467896 0.8065212955186997 -1.148657358452823e-16 -8.603681135016127e-17 -1.148657358452823e-16 -8.603681135016127e-17 0.5912044775192122 0.8065217081771844
12659256000.0 0.6010876987434983 0.7991830694021586 -1.1590095639510482e-16 -8.458963486023123e-17 -1.1590095639510482e-16 -8.458963486023123e-17 0.6010871409440607 0.7991834889382433
12659873333.333334 0.610879282314343 0.7917237538680527 -1.1691795854397345e-16 -8.313002077010103e-17 -1.1691795854397345e-16 -8.313002077010103e-17 0.6108787297481618 0.7917241802175049
12660490666.666666 0.620578307593961 0.7841444791258962 -1.1791659309641175e-16 -8.16581982541903e-17 -1.1791659309641175e-16 -8.16581982541903e-17 0.6205777603442446 0.7841449122234547
12661108000.0 0.6301833050202151 0.7764463935608222 -1.188967137376667e-16 -8.017439827355659e-17 -1.188967137376667e-16 -8.017439827355659e-17 0.6301827631693583 0.7764468333402108
12661725333.333334 0.6396928192774948 0.7686306635599558 -1.1985817705501783e-16 -7.867885353978188e-17 -1.1985817705501783e-16 -7.867885353978188e-17 0.6396922829070668 0.768631109953893
12662342666.666666 0.649105409517645 0.7606984733353532 -1.2080084255871347e-16 -7.717179847848744e-17 -1.2080084255871347e-16 -7.717179847848744e-17 0.6491048787083766 0.7606989262755613
12662960000.0 0.6584196495779907 0.7526510247448045 -1.2172457270241195e-16 -7.56534691926525e-17 -1.2172457270241195e-16 -7.56534691926525e-17 0.6584191244097615 0.7526514841620199
12663577333.333334 0.667634128197617 0.7444895371095663 -1.2262923290315476e-16 -7.412410342570366e-17 -1.2262923290315476e-16 -7.412410342570366e-17 0.6676336087494456 0.7444900029335525
12664194666.666666 0.6767474492310525 0.7362152470297482 -1.235146915609072e-16 -7.258394052431896e-17 -1.235146915609072e-16 -7.258394052431896e-17 0.6767469355810819 0.7362157191893036
12664812000.0 0.6857582318598696 0.7278294081968888 -1.2438082007759858e-16 -7.103322140105495e-17 -1.2438082007759858e-16 -7.103322140105495e-17 0.6857577240853578 0.72782988661986
12665429333.333334 0.6946651108019867 0.7193332912039261 -1.2522749287572957e-16 -6.947218849668875e-17 -1.2522749287572957e-16 -6.947218849668875e-17 0.6946646089792932 0.7193337758172168
12666046666.666666 0.7034667365182798 0.7107281833529113 -1.2605458741646368e-16 -6.790108574241761e-17 -1.2605458741646368e-16 -6.790108574241761e-17 0.7034662407228556 0.7107286740824954
12666664000.0 0.7121617754174522 0.7020153884595913 -1.2686198421730754e-16 -6.632015852173008e-17 -1.2686198421730754e-16 -6.632015852173008e-17 0.7121612857238272 0.7020158852305223
12667281333.333334 0.7207489100576662 0.693196226656273 -1.2764956686923625e-16 -6.472965363221612e-17 -1.2764956686923625e-16 -6.472965363221612e-17 0.7207484265394386 0.6931967293926966
12667898666.666666 0.7292268393464225 0.6842720341915446 -1.2841722205341542e-16 -6.312981924703067e-17 -1.2841722205341542e-16 -6.312981924703067e-17 0.7292263620762489 0.6842725428167113
12668516000.0 0.7375942787377541 0.6752441632277476 -1.291648395573924e-16 -6.152090487625464e-17 -1.291648395573924e-16 -6.152090487625464e-17 0.7375938077873352 0.6752446776640212
12669133333.333334 0.74584996042654 0.6661139816364298 -1.2989231229081963e-16 -5.990316132804099e-17 -1.2989231229081963e-16 -5.990316132804099e-17 0.7458494958666135 0.6661145018053023
12669750666.666666 0.7539926335409517 0.6568828727907194 -1.3059953630069408e-16 -5.827684066956456e-17 -1.3059953630069408e-16 -5.827684066956456e-17 0.753992175441281 0.6568833986128227
