! Parameters = {f0=12700.012000; bw=77.238000; Q=6100.000000; N=10; m_0_1=1.172668; m_1_1=-1.174731; m_1_2=1.007480; m_2_2=-1.175380; m_2_3=0.644443; m_2_8=-0.004303; m_2_9=0.032401; m_3_3=-1.177317; m_3_4=0.532972; m_3_7=-0.003703; m_3_8=-0.100791; m_3_9=-0.004303; m_4_4=-1.180242; m_4_5=0.369307; m_4_6=-0.000186; m_4_7=-0.121340; m_4_8=-0.003703; m_5_5=-1.179860; m_5_6=0.776662; m_5_7=-0.000186; m_6_6=-1.179861; m_6_7=0.369649; m_7_7=-1.180228; m_7_8=0.533090; m_8_8=-1.177319; m_8_9=0.644756; m_9_9=-1.175385; m_9_10=1.008558; m_10_10=-1.174741; m_10_11=1.173463}
!
! Created with skrf (http://scikit-rf.org).
# Hz S RI R 50.0 
!freq ReS11 ImS11 ReS21 ImS21 ReS12 ImS12 ReS22 ImS22
12607400000.0 -0.992545196341531 0.12187712344488945 6.259197589621452e-17 -2.7218564185030237e-17 6.259197589621452e-17 -2.7218564185030237e-17 -0.9925452716609752 0.1218765100554241
12608017333.333334 -0.9915843789278381 0.12946203870688916 6.236737227996269e-17 -2.7696420117648623e-17 6.236737227996269e-17 -2.7696420117648623e-17 -0.9915844589308144 0.12946142594121454
12608634666.666666 -0.990565599332443 0.13703938637854812 6.213912488211459e-17 -2.817243164928874e-17 6.213912488211459e-17 -2.817243164928874e-17 -0.9905656840138174 0.1370387742724202
12609252000.0 -0.9894889171072563 0.14460872353270554 6.190724878296161e-17 -2.864657102939305e-17 6.190724878296161e-17 -2.864657102939305e-17 -0.9894890064616213 0.14460811212183816
12609869333.333334 -0.9883543951888233 0.15216960771056218 6.16717592738715e-17 -2.9118810630225967e-17 6.16717592738715e-17 -2.9118810630225967e-17 -0.9883544892104972 0.1521689970306248
12610486666.666666 -0.9871620998946721 0.15972159694728927 6.14326718562946e-17 -2.958912294847019e-17 6.14326718562946e-17 -2.958912294847019e-17 -0.9871621985777029 0.15972098703390541
12611104000.0 -0.9859121009193902 0.16726424979822943 6.119000224074891e-17 -3.005748060683411e-17 6.119000224074891e-17 -3.005748060683411e-17 -0.9859122042575533 0.16726364068697427
12611721333.333334 -0.9846044713306275 0.17479712536419573 6.094376634580653e-17 -3.052385635562548e-17 6.094376634580653e-17 -3.052385635562548e-17 -0.9846045793174264 0.17479651709059396
12612338666.666666 -0.9832392875647514 0.18231978331769236 6.069398029705375e-17 -3.0988223074342075e-17 6.069398029705375e-17 -3.0988223074342075e-17 -0.9832394001934196 0.1823191759172164
12612956000.0 -0.9818166294223978 0.1898317839285415 6.044066042604911e-17 -3.14505537732373e-17 6.044066042604911e-17 -3.14505537732373e-17 -0.9818167466858974 0.18983117743660916
12613573333.333334 -0.9803365800638403 0.19733268808939164 6.018382326926905e-17 -3.191082159487724e-17 6.018382326926905e-17 -3.191082159487724e-17 -0.9803367019548627 0.19733208254136403
12614190666.666666 -0.9787992260040991 0.20482205734155262 5.992348556703375e-17 -3.23689998157045e-17 5.992348556703375e-17 -3.23689998157045e-17 -0.9787993525150679 0.20482145277273267
12614808000.0 -0.9772046571078828 0.21229945390065444 5.965966426243025e-17 -3.2825061847576554e-17 5.965966426243025e-17 -3.2825061847576554e-17 -0.9772047882309499 0.21229885034628387
12615425333.333334 -0.9755529665843419 0.21976444068215178 5.939237650021828e-17 -3.3278981239305265e-17 5.939237650021828e-17 -3.3278981239305265e-17 -0.9755531023113928 0.21976383817741005
12616042666.666666 -0.973844250981619 0.22721658132693115 5.912163962573034e-17 -3.3730731678177946e-17 5.912163962573034e-17 -3.3730731678177946e-17 -0.973844391304269 0.22721597990693254
12616660000.0 -0.9720786101812244 0.23465544022670567 5.884747118375058e-17 -3.4180286991486035e-17 5.884747118375058e-17 -3.4180286991486035e-17 -0.9720787550908205 0.23465483992649752
12617277333.333334 -0.9702561473921523 0.24208058254967202 5.856988891739059e-17 -3.46276211480297e-17 5.856988891739059e-17 -3.46276211480297e-17 -0.970256296879776 0.2420799834042331
12617894666.666666 -0.9683769691449102 0.24949157426567986 5.828891076695443e-17 -3.507270825961375e-17 5.828891076695443e-17 -3.507270825961375e-17 -0.9683771232013765 0.24949097630991823
12618512000.0 -0.9664411852852026 0.2568879821719615 5.80045548687816e-17 -3.551552258255053e-17 5.80045548687816e-17 -3.551552258255053e-17 -0.966441343901059 0.2568873854407118
12619129333.333334 -0.9644489089676345 0.26426937391795785 5.771683955409469e-17 -3.595603851912931e-17 5.771683955409469e-17 -3.595603851912931e-17 -0.9644490721331632 0.2642687784459799
12619746666.666666 -0.9624002566489831 0.27163531803103175 5.742578334782091e-17 -3.639423061909903e-17 5.742578334782091e-17 -3.639423061909903e-17 -0.9624004243542026 0.27163472385300863
12620364000.0 -0.9602953480814217 0.2789853839415793 5.713140496740779e-17 -3.683007358113353e-17 5.713140496740779e-17 -3.683007358113353e-17 -0.9602955203160841 0.2789847910921145
12620981333.333334 -0.9581343063055667 0.28631914200800596 5.683372332163735e-17 -3.7263542254272734e-17 5.683372332163735e-17 -3.7263542254272734e-17 -0.9581344830591616 0.2863185505216223
12621598666.666666 -0.9559172576432453 0.2936361635420058 5.653275750941473e-17 -3.769461163937706e-17 5.653275750941473e-17 -3.769461163937706e-17 -0.9559174389049997 0.29363557345314323
12622216000.0 -0.9536443316901014 0.3009360208336475 5.622852681855084e-17 -3.812325689056392e-17 5.622852681855084e-17 -3.812325689056392e-17 -0.9536445174489792 0.30093543217666074
12622833333.333334 -0.9513156613080357 0.3082182871763205 5.592105072453768e-17 -3.85494533166298e-17 5.592105072453768e-17 -3.85494533166298e-17 -0.9513158515527385 0.308217699985477
12623450666.666666 -0.9489313826174548 0.3154825368916236 5.561034888931391e-17 -3.897317638246091e-17 5.561034888931391e-17 -3.897317638246091e-17 -0.9489315773364249 0.31548195120110234
12624068000.0 -0.9464916349893119 0.32272834535427597 5.529644116001008e-17 -3.939440171044829e-17 5.529644116001008e-17 -3.939440171044829e-17 -0.946491834170729 0.3227277611981642
12624685333.333334 -0.9439965610368906 0.32995528901712556 5.497934756769281e-17 -3.9813105081878636e-17 5.497934756769281e-17 -3.9813105081878636e-17 -0.9439967646686753 0.3299547064294177
12625302666.666666 -0.941446306607598 0.33716294543553044 5.4659088326100374e-17 -4.0229262438313764e-17 5.4659088326100374e-17 -4.0229262438313764e-17 -0.9414465146774138 0.33716236445012654
12625920000.0 -0.9388410207742847 0.34435089329251023 5.433568383034977e-17 -4.06428498829829e-17 5.433568383034977e-17 -4.06428498829829e-17 -0.9388412332695348 0.34435031394321247
12626537333.333334 -0.9361808558266953 0.3515187124228893 5.4009154655662036e-17 -4.105384368212801e-17 5.4009154655662036e-17 -4.105384368212801e-17 -0.9361810727345268 0.3515181347434016
12627154666.666666 -0.93346596726246 0.35866598383818177 5.3679521556053605e-17 -4.1462220266369646e-17 5.3679521556053605e-17 -4.1462220266369646e-17 -0.9334661885697622 0.35866540786210677
12627772000.0 -0.9306965137779741 0.36579228975113165 5.334680546302314e-17 -4.186795623205427e-17 5.334680546302314e-17 -4.186795623205427e-17 -0.9306967394713812 0.3657917155119693
12628389333.333334 -0.9278726572592499 0.3728972135998185 5.3011027484240806e-17 -4.227102834257672e-17 5.3011027484240806e-17 -4.227102834257672e-17 -0.9278728873251416 0.3728966411309642
12629006666.666666 -0.9249945627723394 0.37998034007229803 5.2672208902203986e-17 -4.2671413529720166e-17 5.2672208902203986e-17 -4.2671413529720166e-17 -0.9249947971968396 0.3799797694070398
12629624000.0 -0.9220623985537355 0.3870412551307456 5.23303711729077e-17 -4.3069088894955823e-17 5.23303711729077e-17 -4.3069088894955823e-17 -0.9220626373227161 0.38704068630226346
12630241333.333334 -0.9190763360005183 0.39407954603571227 5.1985535924491755e-17 -4.346403171074834e-17 5.1985535924491755e-17 -4.346403171074834e-17 -0.9190765790995981 0.3940789790770751
12630858666.666666 -0.91603654966038 0.40109480137014547 5.1637724955880676e-17 -4.385621942184776e-17 5.1637724955880676e-17 -4.385621942184776e-17 -0.9160367970749266 0.40109423631431046
12631476000.0 -0.9129432172213441 0.40808661106362193 5.128696023540486e-17 -4.4245629646580425e-17 5.128696023540486e-17 -4.4245629646580425e-17 -0.9129434689364734 0.4080860479434308
12632093333.333334 -0.9097965195014566 0.4150545664161344 5.0933263899436276e-17 -4.463224017810163e-17 5.0933263899436276e-17 -4.463224017810163e-17 -0.9097967755020356 0.41505400526431335
12632710666.666666 -0.9065966404381972 0.4219982601220355 5.0576658250990724e-17 -4.501602898566497e-17 5.0576658250990724e-17 -4.501602898566497e-17 -0.9065969007088424 0.42199770097119155
12633328000.0 -0.9033437670776392 0.428917286294025 5.0217165758327987e-17 -4.539697421587168e-17 5.0217165758327987e-17 -4.539697421587168e-17 -0.903344031602721 0.4289167291766461
12633945333.333334 -0.9000380895636755 0.43581124048654235 4.985480905354819e-17 -4.577505419390355e-17 4.985480905354819e-17 -4.577505419390355e-17 -0.9000383583273163 0.4358106854349939
12634562666.666666 -0.8966798011267714 0.442679719719691 4.948961093117335e-17 -4.615024742475003e-17 4.948961093117335e-17 -4.615024742475003e-17 -0.8966800741128466 0.4426791667662143
12635180000.0 -0.8932690980727255 0.4495223225026644 4.912159434672013e-17 -4.652253259442439e-17 4.912159434672013e-17 -4.652253259442439e-17 -0.8932693752648667 0.44952177167937557
12635797333.333334 -0.8898061797711756 0.4563386488572674 4.875078241526837e-17 -4.689188857116262e-17 4.875078241526837e-17 -4.689188857116262e-17 -0.8898064611527691 0.4563381001961542
12636414666.666666 -0.8862912486439792 0.46312830034121955 4.837719841001468e-17 -4.72582944066186e-17 4.837719841001468e-17 -4.72582944066186e-17 -0.8862915341981683 0.4631277538741407
12637032000.0 -0.8827245101533572 0.4698908800714966 4.8000865760816433e-17 -4.7621729337047046e-17 4.8000865760816433e-17 -4.7621729337047046e-17 -0.8827247998630439 0.4698903358301797
12637649333.333334 -0.8791061727898589 0.4766259927475819 4.7621808052734054e-17 -4.798217278446857e-17 4.7621808052734054e-17 -4.798217278446857e-17 -0.8791064666377023 0.4766254507636204
12638266666.666666 -0.875436448060196 0.4833332446745192 4.7240049024557777e-17 -4.833960435782988e-17 4.7240049024557777e-17 -4.833960435782988e-17 -0.8754367460286165 0.4833327049793727
12638884000.0 -0.8717155504749259 0.49001224378585473 4.68556125673341e-17 -4.8694003854144334e-17 4.68556125673341e-17 -4.8694003854144334e-17 -0.8717158525461043 0.4900117064108454
12639501333.333334 -0.867943697535813 0.4966625996667275 4.646852272286817e-17 -4.904535125963528e-17 4.646852272286817e-17 -4.904535125963528e-17 -0.867944003691692 0.49666206464303864
12640118666.666666 -0.864121109723242 0.5032839235764678 4.607880368224208e-17 -4.9393626750845644e-17 4.607880368224208e-17 -4.9393626750845644e-17 -0.8641214199455272 0.5032833909351426
12640736000.0 -0.8602480104831594 0.5098758284716169 4.56864797842861e-17 -4.97388106957703e-17 4.56864797842861e-17 -4.97388106957703e-17 -0.8602483247533206 0.5098752982435564
12641353333.333334 -0.8563246262141966 0.5164379290282312 4.529157551409883e-17 -5.008088365492541e-17 4.529157551409883e-17 -5.008088365492541e-17 -0.8563249445134689 0.5164374012441917
12641970666.666666 -0.8523511862543374 0.5229698416645779 4.4894115501502074e-17 -5.0419826382456835e-17 4.4894115501502074e-17 -5.0419826382456835e-17 -0.8523515085637232 0.5229693163551713
12642588000.0 -0.8483279228674996 0.529471184563584 4.449412451951787e-17 -5.075561982721011e-17 4.449412451951787e-17 -5.075561982721011e-17 -0.8483282491677666 0.5294706617592725
12643205333.333334 -0.8442550712299952 0.535941577695076 4.409162748283577e-17 -5.108824513378923e-17 4.409162748283577e-17 -5.108824513378923e-17 -0.8442554015016812 0.5359410574261736
12643822666.666666 -0.840132869416774 0.542380642838023 4.368664944625944e-17 -5.141768364361469e-17 4.368664944625944e-17 -5.141768364361469e-17 -0.8401332036401873 0.5423801251346935
12644440000.0 -0.8359615583874932 0.5487880036026703 4.3279215603167464e-17 -5.1743916895950994e-17 4.3279215603167464e-17 -5.1743916895950994e-17 -0.8359618965427102 0.5487874884949221
12645057333.333334 -0.8317413819724716 0.5551632854524641 4.286935128394303e-17 -5.206692662894166e-17 4.286935128394303e-17 -5.206692662894166e-17 -0.8317417240393441 0.555162772970153
12645674666.666666 -0.8274725868584135 0.561506115725997 4.2457081954411847e-17 -5.2386694780617995e-17 4.2457081954411847e-17 -5.2386694780617995e-17 -0.8274729328165646 0.5615056058988218
12646292000.0 -0.8231554225739365 0.5678161236588607 4.204243321425516e-17 -5.270320348991044e-17 4.204243321425516e-17 -5.270320348991044e-17 -0.823155772402765 0.5678156165163625
12646909333.333334 -0.8187901414750998 0.5740929404051547 4.162543079544685e-17 -5.301643509762253e-17 4.162543079544685e-17 -5.301643509762253e-17 -0.8187904951537801 0.5740924359767144
12647526666.666666 -0.8143769987305549 0.5803361990591867 4.120610056064652e-17 -5.332637214742026e-17 4.120610056064652e-17 -5.332637214742026e-17 -0.8143773562380379 0.5803356973740237
12648144000.0 -0.8099162523066136 0.5865455346769425 4.078446850161052e-17 -5.363299738679084e-17 4.078446850161052e-17 -5.363299738679084e-17 -0.809916613621628 0.5865450357641127
12648761333.333334 -0.8054081629522986 0.5927205842972327 4.0360560737584326e-17 -5.393629376799645e-17 4.0360560737584326e-17 -5.393629376799645e-17 -0.8054085280533542 0.5927200881856282
12649378666.666666 -0.800852994184008 0.5988609869630519 3.9934403513697916e-17 -5.423624444900919e-17 3.9934403513697916e-17 -5.423624444900919e-17 -0.8008533630493935 0.5988604936813964
12649996000.0 -0.7962510122700873 0.6049663837426938 3.9506023199336675e-17 -5.4532832794444986e-17 3.9506023199336675e-17 -5.4532832794444986e-17 -0.7962513848778755 0.604965893319545
12650613333.333334 -0.791602486215304 0.611036417750693 3.9075446286527426e-17 -5.4826042376469645e-17 3.9075446286527426e-17 -5.4826042376469645e-17 -0.7916028625433504 0.6110359302144377
12651230666.666666 -0.7869076877451735 0.6170707341686155 3.864269938830408e-17 -5.511585697570237e-17 3.864269938830408e-17 -5.511585697570237e-17 -0.7869080677711178 0.6170702495474687
12651848000.0 -0.7821668912899711 0.6230689802659355 3.820780923705978e-17 -5.540226058211005e-17 3.820780923705978e-17 -5.540226058211005e-17 -0.7821672749912392 0.6230684985879394
12652465333.333334 -0.7773803739687415 0.6290308054205844 3.7770802682914896e-17 -5.568523739587393e-17 3.7770802682914896e-17 -5.568523739587393e-17 -0.7773807613225474 0.6290303267136069
12653082666.666666 -0.7725484155731568 0.6349558611393833 3.7331706692064846e-17 -5.596477182825357e-17 3.7331706692064846e-17 -5.596477182825357e-17 -0.7725488065565016 0.6349553854311146
12653700000.0 -0.7676712985510321 0.640843801078565 3.6890548345112635e-17 -5.624084850244195e-17 3.6890548345112635e-17 -5.624084850244195e-17 -0.7676716931407087 0.6408433283965186
12654317333.333334 -0.7627493079899625 0.6466942810638447 3.644735483541879e-17 -5.651345225439423e-17 3.644735483541879e-17 -5.651345225439423e-17 -0.7627497061625553 0.6466938114353545
12654934666.666666 -0.7577827316005515 0.6525069591106727 3.600215346742177e-17 -5.678256813365705e-17 3.600215346742177e-17 -5.678256813365705e-17 -0.7577831333324363 0.6525064925628905
12655552000.0 -0.7527718596995675 0.6582814954442393 3.555497165495913e-17 -5.704818140418067e-17 3.555497165495913e-17 -5.704818140418067e-17 -0.7527722649669162 0.6582810320041355
12656169333.333334 -0.7477169851931288 0.6640175525191702 3.510583691960746e-17 -5.731027754510364e-17 3.510583691960746e-17 -5.731027754510364e-17 -0.7477173939719071 0.6640170922135296
12656786666.666666 -0.7426184035594658 0.6697147950393824 3.4654776888968843e-17 -5.756884225155228e-17 3.4654776888968843e-17 -5.756884225155228e-17 -0.7426188158254373 0.6697143378948044
12657404000.0 -0.7374764128316329 0.6753728899777061 3.420181929499281e-17 -5.78238614354029e-17 3.420181929499281e-17 -5.78238614354029e-17 -0.7374768285603601 0.675372436020603
12658021333.333334 -0.7322913135801227 0.6809915065953087 3.3746991972272817e-17 -5.807532122604215e-17 3.3746991972272817e-17 -5.807532122604215e-17 -0.732291732746969 0.6809910558519051
12658638666.666666 -0.7270634088953578 0.6865703164609672 3.329032285634906e-17 -5.832320797110765e-17 3.329032285634906e-17 -5.832320797110765e-17 -0.7270638314754858 0.6865698689572948
12659256000.0 -0.7217930043698526 0.6921089934703867 3.283183998198902e-17 -5.856750823722428e-17 3.283183998198902e-17 -5.856750823722428e-17 -0.7217934303382298 0.6921085492322875
12659873333.333334 -0.7164804080804141 0.6976072138652054 3.2371571481478004e-17 -5.880820881071924e-17 3.2371571481478004e-17 -5.880820881071924e-17 -0.7164808374118107 0.6976067729183262
12660490666.666666 -0.7111259305701868 0.7030646562518535 3.1909545582906165e-17 -5.904529669832258e-17 3.1909545582906165e-17 -5.904529669832258e-17 -0.7111263632391802 0.7030642186216476
12661108000.0 -0.7057298848303665 0.7084810016204868 3.144579060842499e-17 -5.927875912786757e-17 3.144579060842499e-17 -5.927875912786757e-17 -0.7057303208113416 0.708480567332211
12661725333.333334 -0.7002925862820626 0.7138559333634695 3.098033497253973e-17 -5.950858354895654e-17 3.098033497253973e-17 -5.950858354895654e-17 -0.7002930255492124 0.7138555024421827
12662342666.666666 -0.6948143527577194 0.7191891372940238 3.0513207180362803e-17 -5.97347576336307e-17 3.0513207180362803e-17 -5.97347576336307e-17 -0.6948147952850475 0.7191887097645849
12662960000.0 -0.6892955044826174 0.724480301664513 3.0044435825872866e-17 -5.995726927702126e-17 3.0044435825872866e-17 -5.995726927702126e-17 -0.6892959502439401 0.7244798775515814
12663577333.333334 -0.6837363640561169 0.7297291171847068 2.9574049590175953e-17 -6.017610659798333e-17 2.9574049590175953e-17 -6.017610659798333e-17 -0.6837368130250627 0.7297286965127388
12664194666.666666 -0.6781372564328799 0.7349352770397797 2.9102077239753576e-17 -6.039125793972067e-17 2.9102077239753576e-17 -6.039125793972067e-17 -0.6781377085828936 0.7349348598330288
12664812000.0 -0.6724985089037527 0.7400984769083643 2.862854762471659e-17 -6.060271187039144e-17 2.862854762471659e-17 -6.060271187039144e-17 -0.6724989642080954 0.7400980631908787
12665429333.333334 -0.6668204510766964 0.7452184149802807 2.8153489677036086e-17 -6.081045718370993e-17 2.8153489677036086e-17 -6.081045718370993e-17 -0.6668209095084475 0.7452180047759027
12666046666.666666 -0.6611034148575836 0.7502947919741229 2.767693240879748e-17 -6.101448289952104e-17 2.767693240879748e-17 -6.101448289952104e-17 -0.6611038763896425 0.7502943853064872
12666664000.0 -0.6553477344306488 0.7553273111548839 2.7198904910414037e-17 -6.121477826437783e-17 2.7198904910414037e-17 -6.121477826437783e-17 -0.6553481990357357 0.7553269080474154
12667281333.333334 -0.6495537462391232 0.7603156783511519 2.671943634888017e-17 -6.141133275208608e-17 2.671943634888017e-17 -6.141133275208608e-17 -0.6495542138897816 0.7603152788270655
12667898666.666666 -0.6437217889654199 0.7652596019724357 2.6238555965987447e-17 -6.160413606424928e-17 2.6238555965987447e-17 -6.160413606424928e-17 -0.6437222596340186 0.7652592060547355
12668516000.0 -0.6378522035114003 0.7701587930261545 2.5756293076536898e-17 -6.179317813079991e-17 2.5756293076536898e-17 -6.179317813079991e-17 -0.6378526771701337 0.7701584007376303
12669133333.333334 -0.631945332978511 0.775012965134474 2.5272677066581102e-17 -6.197844911050313e-17 2.5272677066581102e-17 -6.197844911050313e-17 -0.6319458095994023 0.7750125764977024
12669750666.666666 -0.6260015226476007 0.7798218345511594 2.4787737391618553e-17 -6.215993939146415e-17 2.4787737391618553e-17 -6.215993939146415e-17 -0.6260020022025016 0.7798214495885003
12670368000.0 -0.6200211199587993 0.7845851201781028 2.4301503574819904e-17 -6.233763959160777e-17 2.4301503574819904e-17 -6.233763959160777e-17 -0.6200216024193926 0.7845847389116992
