! Parameters = {f0=12700.012000; bw=77.238000; Q=6100.000000; N=10; m_0_1=1.268564; m_1_1=0.263708; m_1_2=1.103376; m_2_2=0.263059; m_2_3=0.740339; m_2_8=0.000492; m_2_9=0.037196; m_3_3=0.261122; m_3_4=0.628868; m_3_7=0.001092; m_3_8=-0.095996; m_3_9=0.000492; m_4_4=0.258197; m_4_5=0.465203; m_4_6=0.004609; m_4_7=-0.116545; m_4_8=0.001092; m_5_5=0.258579; m_5_6=0.872558; m_5_7=0.004609; m_6_6=0.258578; m_6_7=0.465545; m_7_7=0.258211; m_7_8=0.628986; m_8_8=0.261120; m_8_9=0.740652; m_9_9=0.263054; m_9_10=1.104454; m_10_10=0.263698; m_10_11=1.269359}
!
! Created with skrf (http://scikit-rf.org).
# Hz S RI R 50.0 
!freq ReS11 ImS11 ReS21 ImS21 ReS12 ImS12 ReS22 ImS22
12607400000.0 -0.06299383323349865 0.9980139162228022 -2.4506618623970566e-17 -1.0708712690998304e-16 -2.4506618623970566e-17 -1.0708712690998304e-16 -0.0629945002634128 0.9980138741201883
12608017333.333334 -0.05253089800082717 0.9986192992101899 -2.5632030297681292e-17 -1.0680121686003275e-16 -2.5632030297681292e-17 -1.0680121686003275e-16 -0.05253156540267725 0.9986192641022748
12608634666.666666 -0.04206219280302024 0.9991149943507133 -2.6754137807629247e-17 -1.0650348767078084e-16 -2.6754137807629247e-17 -1.0650348767078084e-16 -0.04206286050346631 0.9991149662406676
12609252000.0 -0.03158886751744876 0.9995009471975447 -2.787281711510608e-17 -1.0619397722554044e-16 -2.787281711510608e-17 -1.0619397722554044e-16 -0.031589535443125295 0.9995009260877707
12609869333.333334 -0.02111207252892202 0.9997771153578972 -2.8987944612836766e-17 -1.0587272470845519e-16 -2.8987944612836766e-17 -1.0587272470845519e-16 -0.021112740606445943 0.9997771012500282
12610486666.666666 -0.010632958603471958 0.9999434684976748 -3.009939713857912e-17 -1.0553977059962421e-16 -3.009939713857912e-17 -1.0553977059962421e-16 -0.010633626759450695 0.9999434613925752
12611104000.0 -0.00015267676166953997 0.9999999883448148 -3.1207051988746193e-17 -1.0519515667006143e-16 -3.1207051988746193e-17 -1.0519515667006143e-16 -0.00015334492270907486 0.9999999882425794
12611721333.333334 0.010327621847518696 0.9999466686912852 -3.2310786931882444e-17 -1.0483892597653988e-16 -3.2310786931882444e-17 -1.0483892597653988e-16 0.010326953754805739 0.999946675591239
12612338666.666666 0.02080678607328587 0.9997835153937699 -3.341048022215353e-17 -1.0447112285627235e-16 -3.341048022215353e-17 -1.0447112285627235e-16 0.02080611812227219 0.9997835292944701
12612956000.0 0.03128366488954028 0.999510546373025 -3.450601061276162e-17 -1.0409179292145551e-16 -3.450601061276162e-17 -1.0409179292145551e-16 0.03128299715357581 0.9995105672722593
12613573333.333334 0.041757107521049414 0.9991277916119141 -3.5597257369243454e-17 -1.0370098305369259e-16 -3.5597257369243454e-17 -1.0370098305369259e-16 0.041756440073453284 0.9991278195067016
12614190666.666666 0.05222596357012453 0.9986352931521076 -3.668410028279196e-17 -1.0329874139824814e-16 -3.668410028279196e-17 -1.0329874139824814e-16 0.0522252964841771 0.998635328038701
12614808000.0 0.06268908314280958 0.9980331050894741 -3.776641968345467e-17 -1.0288511735818342e-16 -3.776641968345467e-17 -1.0288511735818342e-16 0.06268841649174421 0.998033146963357
12615425333.333334 0.07314531697532671 0.9973212935681278 -3.884409645328461e-17 -1.0246016158834787e-16 -3.884409645328461e-17 -1.0246016158834787e-16 0.07314465083232184 0.997321342424016
12616042666.666666 0.0835935165601404 0.996499936773171 -3.9917012039436255e-17 -1.0202392598922932e-16 -3.9917012039436255e-17 -1.0202392598922932e-16 0.08359285099831164 0.9964999926050166
12616660000.0 0.09403253427222295 0.9955691249221057 -4.098504846716368e-17 -1.0157646370067733e-16 -4.098504846716368e-17 -1.0157646370067733e-16 0.09403186936461479 0.9955691877230934
12617277333.333334 0.10446122349510856 0.9945289602549185 -4.204808835278166e-17 -1.011178290954798e-16 -4.204808835278166e-17 -1.011178290954798e-16 0.10446055931468652 0.9945290300174686
12617894666.666666 0.11487843874666753 0.9933795570228696 -4.310601491652062e-17 -1.0064807777281726e-16 -4.310601491652062e-17 -1.0064807777281726e-16 0.11487777536631012 0.9933796337386387
12618512000.0 0.1252830358053494 0.9921210414758979 -4.415871199537236e-17 -1.0016726655155692e-16 -4.415871199537236e-17 -1.0016726655155692e-16 0.12528237329784017 0.9921211251357793
12619129333.333334 0.13567387183529878 0.9907535518488157 -4.5206064055761907e-17 -9.967545346345573e-17 -4.5206064055761907e-17 -9.967545346345573e-17 0.13567321027331827 0.9907536424429416
12619746666.666666 0.14604980551227903 0.989277238346081 -4.624795620624103e-17 -9.917269774618881e-17 -4.624795620624103e-17 -9.917269774618881e-17 0.14604914496839688 0.9892773358638235
12620364000.0 0.15640969714900657 0.9876922631253018 -4.728427421006229e-17 -9.865905983626421e-17 -4.728427421006229e-17 -9.865905983626421e-17 0.1564090376956733 0.9876923675552715
12620981333.333334 0.16675240882007974 0.9859988002794557 -4.831490449765283e-17 -9.81346013618179e-17 -4.831490449765283e-17 -9.81346013618179e-17 0.16675175052961916 0.9859989116095066
12621598666.666666 0.17707680448724963 0.9841970358177311 -4.9339734179059317e-17 -9.75993851352544e-17 -4.9339734179059317e-17 -9.75993851352544e-17 0.1770761474318509 0.9841971540349611
12622216000.0 0.18738175012403388 0.9822871676451231 -5.035865105628392e-17 -9.705347514577118e-17 -5.035865105628392e-17 -9.705347514577118e-17 0.18738109437574324 0.9822872927358741
12622833333.333334 0.1976661138404444 0.9802694055406612 -5.137154363552999e-17 -9.649693655175887e-17 -5.137154363552999e-17 -9.649693655175887e-17 0.19766545947115743 0.9802695374905209
12623450666.666666 0.20792876600703464 0.9781439711344212 -5.237830113937572e-17 -9.592983567306912e-17 -5.237830113937572e-17 -9.592983567306912e-17 0.2079281130884888 0.9781441099282275
12624068000.0 0.2181685793792298 0.9759110978831385 -5.3378813518871097e-17 -9.53522399831509e-17 -5.3378813518871097e-17 -9.53522399831509e-17 0.21816792798299572 0.9759112435049768
12624685333.333334 0.22838442922114066 0.9735710310445551 -5.43729714655538e-17 -9.47642181010572e-17 -5.43729714655538e-17 -9.47642181010572e-17 0.22838377941861504 0.9735711834777634
12625302666.666666 0.23857519342880024 0.9711240276505548 -5.536066642332148e-17 -9.416583978336025e-17 -5.536066642332148e-17 -9.416583978336025e-17 0.23857454529119768 0.9711241868777247
12625920000.0 0.2487397526539405 0.9685703564788064 -5.634179060030942e-17 -9.355717591588823e-17 -5.634179060030942e-17 -9.355717591588823e-17 0.2487391062522859 0.9685705224817851
12626537333.333334 0.25887699042638795 0.9659102980233724 -5.731623698058697e-17 -9.293829850539213e-17 -5.731623698058697e-17 -9.293829850539213e-17 0.2588763458315087 0.9659104707832651
12627154666.666666 0.2689857932769743 0.9631441444638394 -5.828389933581954e-17 -9.230928067105874e-17 -5.828389933581954e-17 -9.230928067105874e-17 0.268985150559492 0.96314432396101
12627772000.0 0.2790650508599735 0.9602721996331793 -5.924467223683398e-17 -9.167019663590204e-17 -5.924467223683398e-17 -9.167019663590204e-17 0.2790644100902972 0.9602723858472545
12628389333.333334 0.2891136560746803 0.9572947789844862 -6.01984510650523e-17 -9.102112171806168e-17 -6.01984510650523e-17 -9.102112171806168e-17 0.28911301732299766 0.9572949718943561
12629006666.666666 0.2991305051873948 0.9542122095562175 -6.114513202387893e-17 -9.036213232194903e-17 -6.114513202387893e-17 -9.036213232194903e-17 0.29912986852366535 0.9542124091400397
12629624000.0 0.3091144979524656 0.9510248299363269 -6.208461214995093e-17 -8.9693305929304e-17 -6.208461214995093e-17 -8.9693305929304e-17 0.30911386344641284 0.9510250361715282
12630241333.333334 0.3190645377331402 0.947732990225075 -6.30167893243214e-17 -8.901472109011356e-17 -6.30167893243214e-17 -8.901472109011356e-17 0.31906390545424346 0.9477332030883531
12630858666.666666 0.3289795316219655 0.9443370519965936 -6.394156228351397e-17 -8.832645741343628e-17 -6.394156228351397e-17 -8.832645741343628e-17 0.32897890163945287 0.9443372714639211
12631476000.0 0.3388583905611012 0.9408373882590785 -6.485883063053245e-17 -8.762859555807194e-17 -6.485883063053245e-17 -8.762859555807194e-17 0.338857762943942 0.9408376143057054
12632093333.333334 0.3487000294615925 0.937234383413941 -6.57684948456845e-17 -8.692121722317994e-17 -6.57684948456845e-17 -8.692121722317994e-17 0.34869940427848883 0.9372346160143953
12632710666.666666 0.35850336732271554 0.9335284332135247 -6.667045629737588e-17 -8.620440513873238e-17 -6.667045629737588e-17 -8.620440513873238e-17 0.3585027446420966 0.93352867234162
12633328000.0 0.36826732735082346 0.9297199447176051 -6.756461725278539e-17 -8.547824305586574e-17 -6.756461725278539e-17 -8.547824305586574e-17 0.36826670724083566 0.9297201903464377
12633945333.333334 0.37799083707748293 0.9258093362487163 -6.845088088840187e-17 -8.474281573714968e-17 -6.845088088840187e-17 -8.474281573714968e-17 0.37799021960598483 0.9258095883506734
12634562666.666666 0.3876728284772513 0.9217970373462216 -6.932915130050142e-17 -8.399820894671005e-17 -6.932915130050142e-17 -8.399820894671005e-17 0.38767221371180455 0.9217972958929814
12635180000.0 0.397312238085066 0.9176834887191008 -7.019933351547933e-17 -8.324450944027523e-17 -7.019933351547933e-17 -8.324450944027523e-17 0.3973116260929282 0.9176837536816359
12635797333.333334 0.406908007113054 0.9134691421975395 -7.106133350010244e-17 -8.248180495509129e-17 -7.106133350010244e-17 -8.248180495509129e-17 0.4069073979611714 0.9134694135461203
12636414666.666666 0.4164590815667245 0.909154460683346 -7.191505817163012e-17 -8.171018419975316e-17 -7.191505817163012e-17 -8.171018419975316e-17 0.4164584753217256 0.9091547383875461
12637032000.0 0.4259644123608708 0.904739918099054 -7.276041540784684e-17 -8.092973684390907e-17 -7.276041540784684e-17 -8.092973684390907e-17 0.4259638090890583 0.9047402021277513
12637649333.333334 0.43542295543479936 0.9002259993358607 -7.359731405697332e-17 -8.014055350787339e-17 -7.359731405697332e-17 -8.014055350787339e-17 0.43542235520214245 0.9002262896572413
12638266666.666666 0.4448336718668804 0.8956132002004291 -7.442566394745313e-17 -7.93427257521468e-17 -7.442566394745313e-17 -7.93427257521468e-17 0.4448330747390082 0.8956134967819908
12638884000.0 0.45419552798876456 0.890902027360378 -7.524537589764727e-17 -7.853634606681773e-17 -7.524537589764727e-17 -7.853634606681773e-17 0.45419493403095895 0.8909023301689347
12639501333.333334 0.46350749549892223 0.8860929982886339 -7.60563617254048e-17 -7.772150786087175e-17 -7.60563617254048e-17 -7.772150786087175e-17 0.46350690477611034 0.8860933072903187
12640118666.666666 0.4727685515754137 0.8811866412066797 -7.685853425750325e-17 -7.689830545141833e-17 -7.685853425750325e-17 -7.689830545141833e-17 0.47276796415216094 0.8811869563669484
12640736000.0 0.4819776789887386 0.8761834950262724 -7.765180733903123e-17 -7.606683405276102e-17 -7.765180733903123e-17 -7.606683405276102e-17 0.48197709492924157 0.8761838163099074
12641353333.333334 0.4911338662128143 0.8710841092906462 -7.843609584254547e-17 -7.522718976548196e-17 -7.843609584254547e-17 -7.522718976548196e-17 0.4911332855808946 0.8710844366617628
12641970666.666666 0.5002361075367096 0.865889044113821 -7.921131567722822e-17 -7.437946956531003e-17 -7.921131567722822e-17 -7.437946956531003e-17 0.5002355303958053 0.8658893775358675
12642588000.0 0.5092834031748344 0.8605988701192234 -7.997738379784806e-17 -7.352377129197553e-17 -7.997738379784806e-17 -7.352377129197553e-17 0.5092828295879949 0.8605992095549881
12643205333.333334 0.5182747593767828 0.8552141683769994 -8.073421821362402e-17 -7.266019363794852e-17 -8.073421821362402e-17 -7.266019363794852e-17 0.5182741894066599 0.8552145137886134
12643822666.666666 0.5272091885365581 0.8497355303401457 -8.148173799698518e-17 -7.178883613706781e-17 -8.148173799698518e-17 -7.178883613706781e-17 0.5272086222454012 0.8497358816890875
12644440000.0 0.5360857093010264 0.8441635577795581 -8.221986329216832e-17 -7.090979915312384e-17 -8.221986329216832e-17 -7.090979915312384e-17 0.5360851467506741 0.8441639150266572
12645057333.333334 0.5449033466775867 0.8384988627180071 -8.29485153237266e-17 -7.002318386831719e-17 -8.29485153237266e-17 -7.002318386831719e-17 0.544902787929461 0.8384992258234504
12645674666.666666 0.5536611321413631 0.8327420673628598 -8.366761640490144e-17 -6.912909227164384e-17 -8.366761640490144e-17 -6.912909227164384e-17 0.5536605772564628 0.8327424362861937
12646292000.0 0.5623581037417268 0.8268938040376363 -8.437708994588266e-17 -6.822762714717762e-17 -8.437708994588266e-17 -6.822762714717762e-17 0.5623575527806203 0.8268941787377736
12646909333.333334 0.5709933062076498 0.8209547151127657 -8.507686046191502e-17 -6.731889206230529e-17 -8.507686046191502e-17 -6.731889206230529e-17 0.5709927592304672 0.8209550955479857
12647526666.666666 0.5795657910528418 0.8149254529348796 -8.576685358130238e-17 -6.640299135584695e-17 -8.576685358130238e-17 -6.640299135584695e-17 0.5795652481192719 0.8149258390628388
12648144000.0 0.5880746166800036 0.8088066797551143 -8.644699605328282e-17 -6.548003012609743e-17 -8.644699605328282e-17 -6.548003012609743e-17 0.5880740778492839 0.8088070715328465
12648761333.333334 0.5965188484840158 0.8025990676565287 -8.71172157557607e-17 -6.455011421880729e-17 -8.71172157557607e-17 -6.455011421880729e-17 0.596518313814928 0.8025994650404523
12649378666.666666 0.6048975589546917 0.7963032984802217 -8.7777441702917e-17 -6.361335021507517e-17 -8.7777441702917e-17 -6.361335021507517e-17 0.6048970285055544 0.7963037014261427
12649996000.0 0.6132098277787443 0.7899200637503702 -8.842760405270815e-17 -6.266984541913798e-17 -8.842760405270815e-17 -6.266984541913798e-17 0.6132093016074072 0.7899204722134886
12650613333.333334 0.621454741940805 0.7834500645983212 -8.906763411420131e-17 -6.17197078461297e-17 -8.906763411420131e-17 -6.17197078461297e-17 0.6214542201046422 0.7834504785332357
12651230666.666666 0.6296313958235968 0.7768940116856707 -8.969746435479533e-17 -6.076304620974374e-17 -8.969746435479533e-17 -6.076304620974374e-17 0.6296308783795008 0.7768944310463832
12651848000.0 0.6377388913077185 0.7702526251259559 -9.03170284073243e-17 -5.979996990979866e-17 -9.03170284073243e-17 -5.979996990979866e-17 0.6377383783120941 0.770253049865877
12652465333.333334 0.645776337869962 0.7635266344058255 -9.092626107699596e-17 -5.883058901978082e-17 -9.092626107699596e-17 -5.883058901978082e-17 0.6457758293787185 0.7635270644777783
12653082666.666666 0.6537428526812122 0.7567167783048396 -9.152509834822029e-17 -5.785501427428088e-17 -9.152509834822029e-17 -5.785501427428088e-17 0.6537423487497607 0.7567172136610685
12653700000.0 0.6616375607036186 0.7498238048141647 -9.211347739130343e-17 -5.687335705636104e-17 -9.211347739130343e-17 -5.687335705636104e-17 0.6616370613868627 0.7498242454063365
12654317333.333334 0.6694595947864006 0.7428484710546656 -9.269133656898418e-17 -5.588572938489167e-17 -9.269133656898418e-17 -5.588572938489167e-17 0.6694591001387318 0.7428489168338771
12654934666.666666 0.6772080957612912 0.7357915431935809 -9.325861544286364e-17 -5.4892243901774687e-17 -9.325861544286364e-17 -5.4892243901774687e-17 0.6772076058365837 0.735791994110365
12655552000.0 0.6848822125369912 0.7286537963602889 -9.381525477969176e-17 -5.389301385911248e-17 -9.381525477969176e-17 -5.389301385911248e-17 0.6848817273885944 0.7286542523646179
12656169333.333334 0.692481102192335 0.721436014561454 -9.436119655748757e-17 -5.2888153106364426e-17 -9.436119655748757e-17 -5.2888153106364426e-17 0.6924806218730688 0.7214364756027466
12656786666.666666 0.7000039300691733 0.7141389905946444 -9.489638397156683e-17 -5.1877776077364685e-17 -9.489638397156683e-17 -5.1877776077364685e-17 0.7000034546313223 0.7141394566217715
12657404000.0 0.707449869863923 0.7067635259613663 -9.542076144040037e-17 -5.0861997777332913e-17 -9.542076144040037e-17 -5.0861997777332913e-17 0.7074493993592309 0.7067639969226563
12658021333.333334 0.7148181037183723 0.6993104307789889 -9.593427461134562e-17 -4.9840933769804795e-17 -9.593427461134562e-17 -4.9840933769804795e-17 0.7148176381980346 0.6993109066222325
12658638666.666666 0.7221078223093907 0.6917805236918819 -9.643687036622812e-17 -4.881470016352757e-17 -9.643687036622812e-17 -4.881470016352757e-17 0.7221073618240514 0.6917810043643389
12659256000.0 0.7293182249381049 0.6841746317812119 -9.692849682680988e-17 -4.778341359924449e-17 -9.692849682680988e-17 -4.778341359924449e-17 0.7293177695378501 0.6841751172296171
12659873333.333334 0.7364485196175486 0.6764935904744006 -9.740910336007745e-17 -4.674719123650481e-17 -9.740910336007745e-17 -4.674719123650481e-17 0.7364480693519008 0.6764940806449695
12660490666.666666 0.7434979231597364 0.6687382434532846 -9.787864058341595e-17 -4.570615074036924e-17 -9.787864058341595e-17 -4.570615074036924e-17 0.7434974780776491 0.6687387382917193
12661108000.0 0.750465661261858 0.6609094425612536 -9.833706036964622e-17 -4.4660410268049353e-17 -9.833706036964622e-17 -4.4660410268049353e-17 0.7504652214117117 0.6609099420127489
12661725333.333334 0.7573509685910649 0.6530080477099819 -9.87843158518899e-17 -4.3610088455564684e-17 -9.87843158518899e-17 -4.3610088455564684e-17 0.7573505340206592 0.6530085517192308
12662342666.666666 0.764153088868718 0.6450349267847616 -9.922036142832995e-17 -4.255530440426765e-17 -9.922036142832995e-17 -4.255530440426765e-17 0.7641526596252693 0.6450354352959626
12662960000.0 0.7708712749534424 0.6369909555491978 -9.964515276679499e-17 -4.149617766739439e-17 -9.964515276679499e-17 -4.149617766739439e-17 0.7708708510835769 0.63699146850606
12663577333.333334 0.7775047889230956 0.6288770175491203 -1.0005864680922027e-16 -4.043282823652571e-17 -1.0005864680922027e-16 -4.043282823652571e-17 0.7775043704728455 0.6288775348948706
12664194666.666666 0.7840529021559002 0.6206940040154525 -1.0046080177595676e-16 -3.936537652802417e-17 -1.0046080177595676e-16 -3.936537652802417e-17 0.7840524891706966 0.6206945256928404
12664812000.0 0.7905148954104514 0.612442813766337 -1.0085157716994133e-16 -3.829394336941163e-17 -1.0085157716994133e-16 -3.829394336941163e-17 0.7905144879351209 0.6124433397176419
12665429333.333334 0.7968900589047379 0.6041243531083893 -1.0123093378071314e-16 -3.7218649985732126e-17 -1.0123093378071314e-16 -3.7218649985732126e-17 0.7968896569834978 0.6041248832754268
12666046666.666666 0.8031776923939999 0.5957395357372841 -1.0159883368828929e-16 -3.6139617985864394e-17 -1.0159883368828929e-16 -3.6139617985864394e-17 0.8031772960704546 0.5957400700614137
12666664000.0 0.8093771052479036 0.5872892826370579 -1.0195524026690589e-16 -3.505696934876497e-17 -1.0195524026690589e-16 -3.505696934876497e-17 0.809376714565037 0.5872898210591873
12667281333.333334 0.8154876165260534 0.5787745219793994 -1.0230011818858876e-16 -3.3970826409744635e-17 -1.0230011818858876e-16 -3.3970826409744635e-17 0.8154872315262262 0.5787750644399918
12667898666.666666 0.8215085550530291 0.5701961890213841 -1.0263343342660126e-16 -3.2881311846644076e-17 -1.0263343342660126e-16 -3.2881311846644076e-17 0.8215081757779732 0.5701967354604652
12668516000.0 0.8274392594920843 0.5615552260027652 -1.029551532587397e-16 -3.178854866599082e-17 -1.029551532587397e-16 -3.178854866599082e-17 0.8274388859828994 0.5615557763599299
12669133333.333334 0.8332790784176436 0.5528525820426891 -1.0326524627046463e-16 -3.06926601891805e-17 -1.0326524627046463e-16 -3.06926601891805e-17 0.8332787107147916 0.5528531362571072
12669750666.666666 0.839027370387 0.5440892130352348 -1.0356368235791193e-16 -2.9593770038543734e-17 -1.0356368235791193e-16 -2.9593770038543734e-17 0.8390270085303019 0.5440897710456591
12670368000.0 0.8446835040107689 0.5352660815444177 -1.0385043273073781e-16 -2.8492002123440025e-17 -1.0385043273073781e-16 -2.8492002123440025e-17 0.8446831480393987 0.5352666432891893
