! Parameters = {f0=12700.012000; bw=77.238000; Q=6100.000000; N=10; m_0_1=1.162457; m_1_1=-1.327884; m_1_2=0.997269; m_2_2=-1.328533; m_2_3=0.634232; m_2_8=-0.004813; m_2_9=0.031891; m_3_3=-1.330470; m_3_4=0.522761; m_3_7=-0.004213; m_3_8=-0.101301; m_3_9=-0.004813; m_4_4=-1.333395; m_4_5=0.359096; m_4_6=-0.000696; m_4_7=-0.121850; m_4_8=-0.004213; m_5_5=-1.333013; m_5_6=0.766451; m_5_7=-0.000696; m_6_6=-1.333014; m_6_7=0.359438; m_7_7=-1.333381; m_7_8=0.522879; m_8_8=-1.330472; m_8_9=0.634545; m_9_9=-1.328538; m_9_10=0.998347; m_10_10=-1.327894; m_10_11=1.163252}
!
! Created with skrf (http://scikit-rf.org).
# Hz S RI R 50.0 
!freq ReS11 ImS11 ReS21 ImS21 ReS12 ImS12 ReS22 ImS22
12607400000.0 -0.9720464134649449 0.23478877756355748 5.597787951411419e-17 -3.24242862576786e-17 5.597787951411419e-17 -3.24242862576786e-17 -0.9720465573041294 0.23478818205574548
12608017333.333334 -0.9702959979142771 0.2419208061151207 5.572442784186282e-17 -3.2833003812517575e-17 5.572442784186282e-17 -3.2833003812517575e-17 -0.9702961461155195 0.2419202117087818
12608634666.666666 -0.9684932545087546 0.24903978792733472 5.5467996220994024e-17 -3.323974697162894e-17 5.5467996220994024e-17 -3.323974697162894e-17 -0.9684934070636372 0.24903919465441604
12609252000.0 -0.9666382804699919 0.2561453390750477 5.5208599983974766e-17 -3.3644494040413067e-17 5.5208599983974766e-17 -3.3644494040413067e-17 -0.966638437369859 0.25614474696743117
12609869333.333334 -0.9647311758363761 0.26323707635744714 5.4946254620970714e-17 -3.404722344299338e-17 5.4946254620970714e-17 -3.404722344299338e-17 -0.9647313370723427 0.26323648544694966
12610486666.666666 -0.9627720434577209 0.27031461731859113 5.4680975778930624e-17 -3.4447913723359425e-17 5.4680975778930624e-17 -3.4447913723359425e-17 -0.9627722090206674 0.2703140276369617
12611104000.0 -0.9607609889896319 0.27737758026833503 5.4412779260656034e-17 -3.484654354651192e-17 5.4412779260656034e-17 -3.484654354651192e-17 -0.9607611588702056 0.27737699184725295
12611721333.333334 -0.9586981208879132 0.2844255843025314 5.4141681023877967e-17 -3.524309169957773e-17 5.4141681023877967e-17 -3.524309169957773e-17 -0.9586982950765304 0.2844249971736052
12612338666.666666 -0.956583550402645 0.29145824932384706 5.386769718030628e-17 -3.563753709294674e-17 5.386769718030628e-17 -3.563753709294674e-17 -0.9565837288894908 0.29145766351861246
12612956000.0 -0.9544173915721902 0.29847519606223355 5.359084399467996e-17 -3.602985876138777e-17 5.359084399467996e-17 -3.602985876138777e-17 -0.9544175743472179 0.29847461161215155
12613573333.333334 -0.9521997612170817 0.3054760460952441 5.331113788381869e-17 -3.642003586514348e-17 5.331113788381869e-17 -3.642003586514348e-17 -0.9521999482700155 0.30547546303170003
12614190666.666666 -0.9499307789336963 0.3124604218685529 5.3028595415646653e-17 -3.680804769104676e-17 5.3028595415646653e-17 -3.680804769104676e-17 -0.9499309702540288 0.3124598402228535
12614808000.0 -0.947610567087804 0.3194279467162864 5.274323330822498e-17 -3.719387365360539e-17 5.274323330822498e-17 -3.719387365360539e-17 -0.9476107626648015 0.31942736651965975
12615425333.333334 -0.9452392508079782 0.3263782448813396 5.24550684287651e-17 -3.7577493296096067e-17 5.24550684287651e-17 -3.7577493296096067e-17 -0.9452394506306767 0.32637766616493225
12616042666.666666 -0.9428169579788419 0.3333109415356391 5.216411779264526e-17 -3.795888629163398e-17 5.216411779264526e-17 -3.795888629163398e-17 -0.9428171620360501 0.33331036433051464
12616660000.0 -0.9403438192341721 0.34022566280035754 5.1870398562409285e-17 -3.833803244425023e-17 5.1870398562409285e-17 -3.833803244425023e-17 -0.940344027514471 0.3402250871374949
12617277333.333334 -0.9378199679498448 0.3471220357661037 5.157392804676136e-17 -3.871491168995523e-17 5.157392804676136e-17 -3.871491168995523e-17 -0.9378201804415891 0.3471214616763958
12617894666.666666 -0.935245540236692 0.3539996885129001 5.127472369955905e-17 -3.9089504097787376e-17 5.127472369955905e-17 -3.9089504097787376e-17 -0.9352457569280105 0.35399911602715206
12618512000.0 -0.932620674933062 0.3608582501305071 5.097280311878168e-17 -3.9461789870875626e-17 5.097280311878168e-17 -3.9461789870875626e-17 -0.9326208958118583 0.3608576792794345
12619129333.333334 -0.9299455135974316 0.36769735073815973 5.0668184045513895e-17 -3.9831749347465436e-17 5.0668184045513895e-17 -3.9831749347465436e-17 -0.9299457386513846 0.36769678155238705
12619746666.666666 -0.9272202005007207 0.3745166215046481 5.0360884362905703e-17 -4.019936300195686e-17 5.0360884362905703e-17 -4.019936300195686e-17 -0.9272204297172846 0.3745160540147065
12620364000.0 -0.9244448826185225 0.38131569466818155 5.0050922095125024e-17 -4.056461144593482e-17 5.0050922095125024e-17 -4.056461144593482e-17 -0.92444511598493 0.3813151289045088
12620981333.333334 -0.9216197096231787 0.38809420355622304 4.973831540631928e-17 -4.0927475429171485e-17 4.973831540631928e-17 -4.0927475429171485e-17 -0.9216199471264385 0.38809363954916
12621598666.666666 -0.9187448338757059 0.39485178260526305 4.9423082599546324e-17 -4.1287935840649066e-17 4.9423082599546324e-17 -4.1287935840649066e-17 -0.9187450755026046 0.3948512203850528
12622216000.0 -0.9158204104175769 0.401588067380533 4.91052421157153e-17 -4.164597370955295e-17 4.91052421157153e-17 -4.164597370955295e-17 -0.9158206561546826 0.4015875069773204
12622833333.333334 -0.9128465969623555 0.4083026945956889 4.8784812532513836e-17 -4.200157020626566e-17 4.8784812532513836e-17 -4.200157020626566e-17 -0.9128468467960117 0.4083021360395162
12623450666.666666 -0.9098235538872242 0.41499530213229363 4.846181256332888e-17 -4.2354706643350925e-17 4.846181256332888e-17 -4.2354706643350925e-17 -0.9098238078035591 0.41499474545310205
12624068000.0 -0.9067514442242918 0.421665529059482 4.813626105616201e-17 -4.2705364476528344e-17 4.813626105616201e-17 -4.2705364476528344e-17 -0.9067517022092129 0.4216649742871081
12624685333.333334 -0.903630433651791 0.42831301565342145 4.7808176992529905e-17 -4.305352530564762e-17 4.7808176992529905e-17 -4.305352530564762e-17 -0.9036306956909876 0.4283124628175958
12625302666.666666 -0.9004606904852053 0.4349374034165834 4.7477579486378095e-17 -4.339917087563312e-17 4.7477579486378095e-17 -4.339917087563312e-17 -0.9004609565641498 0.43493685254692943
12625920000.0 -0.8972423856681443 0.4415383350971807 4.714448778295536e-17 -4.3742283077455e-17 4.714448778295536e-17 -4.3742283077455e-17 -0.8972426557720922 0.44153778622321277
12626537333.333334 -0.8939756927631237 0.44811545470843356 4.680892125771745e-17 -4.408284394905285e-17 4.680892125771745e-17 -4.408284394905285e-17 -0.8939759668771158 0.4481149078595559
12627154666.666666 -0.8906607879422689 0.4546684075476407 4.6470899415199265e-17 -4.442083567627796e-17 4.6470899415199265e-17 -4.442083567627796e-17 -0.8906610660511322 0.4546678627531457
12627772000.0 -0.8872978499776777 0.46119684021558954 4.6130441887881116e-17 -4.475624059382508e-17 4.6130441887881116e-17 -4.475624059382508e-17 -0.8872981320660215 0.4611962975046547
12628389333.333334 -0.8838870602319612 0.4677004006352303 4.578756843506778e-17 -4.5089041186136394e-17 4.578756843506778e-17 -4.5089041186136394e-17 -0.8838873462841851 0.4676998600369189
12629006666.666666 -0.8804286026482795 0.4741787380710467 4.5442298941736634e-17 -4.541922008832154e-17 4.5442298941736634e-17 -4.541922008832154e-17 -0.8804288926485709 0.4741781996143057
12629624000.0 -0.8769226637405615 0.48063150314769326 4.5094653417399877e-17 -4.574676008704809e-17 4.5094653417399877e-17 -4.574676008704809e-17 -0.8769229576728944 0.4806309668613501
12630241333.333334 -0.8733694325833775 0.48705834786896013 4.47446519949446e-17 -4.607164412143887e-17 4.47446519949446e-17 -4.607164412143887e-17 -0.873369730431517 0.4870578137817232
12630858666.666666 -0.8697691008017622 0.49345892563651905 4.4392314929481537e-17 -4.63938552839468e-17 4.4392314929481537e-17 -4.63938552839468e-17 -0.8697694025492626 0.4934583937769748
12631476000.0 -0.8661218625608719 0.4998328912686113 4.403766259716395e-17 -4.671337682124149e-17 4.403766259716395e-17 -4.671337682124149e-17 -0.86612216819108 0.4998323616652239
12632093333.333334 -0.862427914555507 0.5061799010186918 4.3680715494034763e-17 -4.7030192135056847e-17 4.3680715494034763e-17 -4.7030192135056847e-17 -0.8624282240515615 0.5061793736998005
12632710666.666666 -0.8586874559995705 0.5124996125938414 4.332149423483454e-17 -4.7344284783058766e-17 4.332149423483454e-17 -4.7344284783058766e-17 -0.858687769344404 0.5124990875876603
12633328000.0 -0.8549006886151864 0.5187916851734751 4.2960019551818515e-17 -4.765563847969049e-17 4.2960019551818515e-17 -4.765563847969049e-17 -0.8549010057915231 0.5187911625080891
12633945333.333334 -0.8510678166219552 0.5250557794274724 4.2596312293573013e-17 -4.7964237097004326e-17 4.2596312293573013e-17 -4.7964237097004326e-17 -0.8510681376123181 0.5250552591308397
12634562666.666666 -0.8471890467258798 0.5312915575346061 4.223039342381372e-17 -4.8270064665495095e-17 4.223039342381372e-17 -4.8270064665495095e-17 -0.8471893715125851 0.5312910396345528
12635180000.0 -0.8432645881082241 0.5374986832007315 4.186228402018468e-17 -4.85731053749185e-17 4.186228402018468e-17 -4.85731053749185e-17 -0.8432649166733857 0.5374981677249521
12635797333.333334 -0.8392946524142343 0.5436768216769238 4.149200527304896e-17 -4.8873343575102735e-17 4.149200527304896e-17 -4.8873343575102735e-17 -0.8392949847397649 0.5436763086529798
12636414666.666666 -0.8352794537417275 0.5498256397775335 4.111957848428194e-17 -4.9170763776744163e-17 4.111957848428194e-17 -4.9170763776744163e-17 -0.8352797898093379 0.5498251292328509
12637032000.0 -0.8312192086295407 0.5559448058981513 4.07450250660376e-17 -4.946535065221081e-17 4.07450250660376e-17 -4.946535065221081e-17 -0.8312195484207419 0.5559442978600201
12637649333.333334 -0.8271141360458566 0.5620339900334942 4.036836653953763e-17 -4.9757089036313837e-17 4.036836653953763e-17 -4.9757089036313837e-17 -0.8271144795419606 0.5620334845290664
12638266666.666666 -0.8229644573763925 0.568092863795201 3.998962453383379e-17 -5.0045963927086917e-17 3.998962453383379e-17 -5.0045963927086917e-17 -0.8229648045585143 0.5680923608514898
12638884000.0 -0.8187703964124637 0.5741211004295439 3.960882078457314e-17 -5.0331960486549415e-17 3.960882078457314e-17 -5.0331960486549415e-17 -0.8187707472615197 0.574120600073421
12639501333.333334 -0.814532179338894 0.5801183748350711 3.922597713275518e-17 -5.0615064041462385e-17 3.922597713275518e-17 -5.0615064041462385e-17 -0.8145325338356068 0.5801178770932672
12640118666.666666 -0.8102500347219214 0.5860843635800037 3.8841115523493714e-17 -5.089526008406773e-17 3.8841115523493714e-17 -5.089526008406773e-17 -0.8102503928468167 0.5860838684791045
12640736000.0 -0.8059241934966022 0.5920187449200444 3.845425800474295e-17 -5.1172534272840616e-17 3.845425800474295e-17 -5.1172534272840616e-17 -0.8059245552300129 0.5920182524864912
12641353333.333334 -0.8015548889547743 0.5979211988151548 3.8065426726069396e-17 -5.1446872433194475e-17 3.8065426726069396e-17 -5.1446872433194475e-17 -0.801555254276841 0.597920709075243
12641970666.666666 -0.7971423567320604 0.6037914069473912 3.767464393736768e-17 -5.1718260558214565e-17 3.767464393736768e-17 -5.1718260558214565e-17 -0.7971427256227314 0.6037909199272676
12642588000.0 -0.7926868347954236 0.6096290527377011 3.7281931987601694e-17 -5.198668480935895e-17 3.7281931987601694e-17 -5.198668480935895e-17 -0.7926872072344568 0.6096285684633633
12643205333.333334 -0.7881885634302543 0.6154338213631133 3.688731332353237e-17 -5.225213151715676e-17 3.688731332353237e-17 -5.225213151715676e-17 -0.7881889393972197 0.6154333398604096
12643822666.666666 -0.7836477852273597 0.6212053997737841 3.649081048843444e-17 -5.251458718190094e-17 3.649081048843444e-17 -5.251458718190094e-17 -0.7836481647016367 0.6212049210684092
12644440000.0 -0.7790647450699624 0.6269434767097645 3.609244612082173e-17 -5.277403847432181e-17 3.609244612082173e-17 -5.277403847432181e-17 -0.7790651280307453 0.6269430008272608
12645057333.333334 -0.774439690120483 0.6326477427178123 3.569224295316033e-17 -5.303047223625631e-17 3.569224295316033e-17 -5.303047223625631e-17 -0.7744400765467787 0.6326472696835668
12645674666.666666 -0.7697728698072078 0.6383178901680798 3.529022381057105e-17 -5.3283875481311764e-17 3.529022381057105e-17 -5.3283875481311764e-17 -0.7697732596778393 0.6383174200073235
12646292000.0 -0.7650645358107112 0.6439536132708571 3.488641160953165e-17 -5.3534235395516276e-17 3.488641160953165e-17 -5.3534235395516276e-17 -0.7650649291043181 0.6439531460086647
12646909333.333334 -0.7603149420505202 0.6495546080927814 3.448082935658988e-17 -5.378153933795e-17 3.448082935658988e-17 -5.378153933795e-17 -0.7603153387455582 0.6495541437540672
12647526666.666666 -0.7555243446712343 0.655120572573442 3.4073500147044575e-17 -5.402577484138417e-17 3.4073500147044575e-17 -5.402577484138417e-17 -0.755524744745979 0.6551201111829612
12648144000.0 -0.7506930020287336 0.6606512065416521 3.3664447163637687e-17 -5.4266929612900546e-17 3.3664447163637687e-17 -5.4266929612900546e-17 -0.7506934054612802 0.6606507481239985
12648761333.333334 -0.7458211746763354 0.6661462117315263 3.325369367524636e-17 -5.450499153449763e-17 3.325369367524636e-17 -5.450499153449763e-17 -0.7458215814446002 0.6661457563111308
12649378666.666666 -0.740909125350671 0.6716052917986547 3.2841263035565244e-17 -5.47399486636921e-17 3.2841263035565244e-17 -5.47399486636921e-17 -0.7409095354323919 0.6716048393997838
12649996000.0 -0.7359571189575324 0.6770281523360611 3.242717868177771e-17 -5.497178923411261e-17 3.242717868177771e-17 -5.497178923411261e-17 -0.735957532330272 0.6770277029828169
12650613333.333334 -0.7309654225575688 0.6824145008901022 3.201146413322796e-17 -5.52005016560816e-17 3.201146413322796e-17 -5.52005016560816e-17 -0.7309658391987134 0.6824140546064194
12651230666.666666 -0.7259343053519793 0.687764046976135 3.159414299010638e-17 -5.542607451717696e-17 3.159414299010638e-17 -5.542607451717696e-17 -0.7259347252387416 0.6877636037857809
12651848000.0 -0.7208640386678026 0.6930765020943919 3.117523893209321e-17 -5.564849658280548e-17 3.117523893209321e-17 -5.564849658280548e-17 -0.7208644617772225 0.6930760620209643
12652465333.333334 -0.7157548959434563 0.6983515797453486 3.0754775717036085e-17 -5.586775679674447e-17 3.0754775717036085e-17 -5.586775679674447e-17 -0.7157553222524027 0.6983511428122757
12653082666.666666 -0.7106071527139959 0.703588995445182 3.033277717960821e-17 -5.608384428168285e-17 3.033277717960821e-17 -5.608384428168285e-17 -0.7106075821991661 0.7035885616757193
12653700000.0 -0.7054210865960725 0.7087884667412904 2.990926722994653e-17 -5.629674833975978e-17 2.990926722994653e-17 -5.629674833975978e-17 -0.7054215192339962 0.7087880361585214
12654317333.333334 -0.7001969772731624 0.7139497132273249 2.948426985232664e-17 -5.650645845307295e-17 2.948426985232664e-17 -5.650645845307295e-17 -0.7001974130402007 0.7139492858541586
12654934666.666666 -0.6949351064804031 0.719072456558394 2.90578091037873e-17 -5.671296428420048e-17 2.90578091037873e-17 -5.671296428420048e-17 -0.6949355453527511 0.7190720324175646
12655552000.0 -0.6896357579893185 0.724156420466152 2.862990911278359e-17 -5.691625567669576e-17 2.862990911278359e-17 -5.691625567669576e-17 -0.6896361999430063 0.7241559995802166
12656169333.333334 -0.684299217592719 0.7292013307735015 2.8200594077835436e-17 -5.711632265557393e-17 2.8200594077835436e-17 -5.711632265557393e-17 -0.6842996626036122 0.7292009131648396
12656786666.666666 -0.6789257730890831 0.7342069154095753 2.776988826614979e-17 -5.731315542779864e-17 2.776988826614979e-17 -5.731315542779864e-17 -0.6789262211328856 0.7342065011003877
12657404000.0 -0.6735157142671413 0.7391729044243137 2.7337816012262366e-17 -5.750674438274775e-17 2.7337816012262366e-17 -5.750674438274775e-17 -0.6735161653193948 0.7391724934366205
12658021333.333334 -0.6680693328902033 0.744099030003058 2.690440171666645e-17 -5.76970800926733e-17 2.690440171666645e-17 -5.76970800926733e-17 -0.668069786926291 0.7440986223586988
12658638666.666666 -0.6625869226805312 0.7489850264809003 2.6469669844440268e-17 -5.788415331315072e-17 2.6469669844440268e-17 -5.788415331315072e-17 -0.6625873796756776 0.7489846222015331
12659256000.0 -0.6570687793032882 0.7538306303572039 2.6033644923872924e-17 -5.806795498351679e-17 2.6033644923872924e-17 -5.806795498351679e-17 -0.6570692392325588 0.7538302294643003
12659873333.333334 -0.6515152003508011 0.7586355803096163 2.5596351545077415e-17 -5.824847622730169e-17 2.5596351545077415e-17 -5.824847622730169e-17 -0.6515156631891077 0.7586351828244656
12660490666.666666 -0.6459264853264314 0.7633996172082458 2.515781435862746e-17 -5.842570835263929e-17 2.515781435862746e-17 -5.842570835263929e-17 -0.6459269510485305 0.7633992231519511
12661108000.0 -0.6403029356283337 0.7681224841297065 2.471805807414815e-17 -5.859964285268547e-17 2.471805807414815e-17 -5.859964285268547e-17 -0.640303404208829 0.7681220935231833
12661725333.333334 -0.6346448545334186 0.7728039263707895 2.427710745895396e-17 -5.87702714060051e-17 2.427710745895396e-17 -5.87702714060051e-17 -0.6346453259467625 0.7728035392347664
12662342666.666666 -0.6289525471807803 0.7774436914623856 2.3834987336640658e-17 -5.893758587696659e-17 2.3834987336640658e-17 -5.893758587696659e-17 -0.6289530214012743 0.7774433078174006
12662960000.0 -0.6232263205553497 0.782041529183006 2.339172258570148e-17 -5.910157831611516e-17 2.339172258570148e-17 -5.910157831611516e-17 -0.6232267975571462 0.7820411490494071
12663577333.333334 -0.617466483471314 0.7865971915722949 2.294733813813235e-17 -5.926224096053898e-17 2.294733813813235e-17 -5.926224096053898e-17 -0.6174669632284193 0.7865968149702406
12664194666.666666 -0.611673346555468 0.7911104329444073 2.2501858978028066e-17 -5.941956623422764e-17 2.2501858978028066e-17 -5.941956623422764e-17 -0.6116738290417407 0.7911100598938611
12664812000.0 -0.6058472222304558 0.7955810099012509 2.2055310140192873e-17 -5.957354674841342e-17 2.2055310140192873e-17 -5.957354674841342e-17 -0.605847707419611 0.7955806404219844
12665429333.333334 -0.5999884246979266 0.8000086813456183 2.1607716708730304e-17 -5.972417530190922e-17 2.1607716708730304e-17 -5.972417530190922e-17 -0.5999889125635355 0.8000083154572079
12666046666.666666 -0.5940972699216094 0.804393208494169 2.1159103815649553e-17 -5.987144488142964e-17 2.1159103815649553e-17 -5.987144488142964e-17 -0.5940977604371026 0.8043928462159966
12666664000.0 -0.5881740756101629 0.8087343548903958 2.0709496639440688e-17 -6.001534866191108e-17 2.0709496639440688e-17 -6.001534866191108e-17 -0.5881745687488292 0.8087339962416454
12667281333.333334 -0.5822191612002652 0.8130318864172019 2.0258920403690507e-17 -6.015588000680687e-17 2.0258920403690507e-17 -6.015588000680687e-17 -0.5822196569352558 0.813031531416861
12667898666.666666 -0.5762328478391849 0.8172855713096842 1.9807400375655552e-17 -6.0293032468386e-17 1.9807400375655552e-17 -6.0293032468386e-17 -0.5762333461435132 0.8172852199765414
12668516000.0 -0.570215458367459 0.8214951801676278 1.9354961864851982e-17 -6.042679978801481e-17 1.9354961864851982e-17 -6.042679978801481e-17 -0.5702159592140019 0.8214948325202713
12669133333.333334 -0.5641673173016899 0.8256604859677296 1.8901630221650568e-17 -6.055717589642584e-17 1.8901630221650568e-17 -6.055717589642584e-17 -0.564167820663191 0.8256601420245488
12669750666.666666 -0.558088750816816 0.8297812640760095 1.844743083585454e-17 -6.068415491398145e-17 1.844743083585454e-17 -6.068415491398145e-17 -0.5580892566658846 0.8297809238551904
12670368000.0 -0.5519800867286316 0.8338572922598371 1.7992389135282605e-17 -6.080773115092404e-17 1.7992389135282605e-17 -6.080773115092404e-17 -0.5519805950377465 0.8338569557793639
