! Parameters = {f0=12700.012000; bw=77.238000; Q=6100.000000; N=10; m_0_1=1.318814; m_1_1=1.017462; m_1_2=1.153626; m_2_2=1.016813; m_2_3=0.790589; m_2_8=0.003004; m_2_9=0.039708; m_3_3=1.014876; m_3_4=0.679118; m_3_7=0.003604; m_3_8=-0.093484; m_3_9=0.003004; m_4_4=1.011951; m_4_5=0.515453; m_4_6=0.007121; m_4_7=-0.114033; m_4_8=0.003604; m_5_5=1.012333; m_5_6=0.922808; m_5_7=0.007121; m_6_6=1.012332; m_6_7=0.515795; m_7_7=1.011965; m_7_8=0.679236; m_8_8=1.014874; m_8_9=0.790902; m_9_9=1.016808; m_9_10=1.154704; m_10_10=1.017452; m_10_11=1.319609}
!
! Created with skrf (http://scikit-rf.org).
# Hz S RI R 50.0 
!freq ReS11 ImS11 ReS21 ImS21 ReS12 ImS12 ReS22 ImS22
12607400000.0 -0.9005073984830533 0.43484068953709026 1.0246056248075181e-16 -9.315632406673998e-17 1.0246056248075181e-16 -9.315632406673998e-17 -0.9005077005828717 0.43484006392093033
12608017333.333334 -0.895239744790477 0.445584783567944 1.0131033264707534e-16 -9.43661759315889e-17 1.0131033264707534e-16 -9.43661759315889e-17 -0.8952400543394642 0.44558416164186476
12608634666.666666 -0.8898439073314942 0.4562650771041208 1.0014583135934073e-16 -9.556184130466976e-17 1.0014583135934073e-16 -9.556184130466976e-17 -0.8898442242846007 0.4562644589568065
12609252000.0 -0.8843206587023372 0.46688004090137936 9.896723340228852e-17 -9.674315201665142e-17 9.896723340228852e-17 -9.674315201665142e-17 -0.8843209830134586 0.4668794266209646
12609869333.333334 -0.8786707897424177 0.47742815506968633 9.777471554012038e-17 -9.790994204944597e-17 9.777471554012038e-17 -9.790994204944597e-17 -0.8786711213643995 0.47742754474374305
12610486666.666666 -0.8728951094212273 0.48790790929058964 9.65684564900764e-17 -9.906204755945491e-17 9.65684564900764e-17 -9.906204755945491e-17 -0.8728954483058721 0.4879073030061146
12611104000.0 -0.8669944447222012 0.49831780303401846 9.534863689564809e-17 -1.0019930690057669e-16 9.534863689564809e-17 -1.0019930690057669e-16 -0.8669947908202793 0.4983172008774227
12611721333.333334 -0.8609696405247026 0.5086563457724428 9.4115439299664e-17 -1.0132156064675077e-16 9.4115439299664e-17 -1.0132156064675077e-16 -0.8609699937859537 0.5086557478295365
12612338666.666666 -0.8548215594827487 0.5189220571948083 9.286904811697369e-17 -1.0242865161430025e-16 9.286904811697369e-17 -1.0242865161430025e-16 -0.854821919855893 0.5189214635507908
12612956000.0 -0.8485510819015658 0.5291134674183718 9.160964960692668e-17 -1.0352042488388538e-16 9.160964960692668e-17 -1.0352042488388538e-16 -0.8485514493343107 0.5291128781578186
12613573333.333334 -0.8421591056116601 0.539229117198968 9.033743184564778e-17 -1.045967278220733e-16 9.033743184564778e-17 -1.045967278220733e-16 -0.842159480050707 0.5392285324058184
12614190666.666666 -0.8356465458401177 0.5492675581401943 8.905258469794817e-17 -1.056574101026667e-16 8.905258469794817e-17 -1.056574101026667e-16 -0.835646927231169 0.5492669778977394
12614808000.0 -0.8290143350796267 0.5592273529006726 8.775529978907503e-17 -1.0670232372761007e-16 8.775529978907503e-17 -1.0670232372761007e-16 -0.8290147233673973 0.5592267772915452
12615425333.333334 -0.8222634229549561 0.5691070753998843 8.644577047618212e-17 -1.07731323047582e-16 8.644577047618212e-17 -1.07731323047582e-16 -0.822263818083176 0.5691065045060438
12616042666.666666 -0.8153947760869552 0.5789053110223762 8.512419181956536e-17 -1.0874426478223213e-16 8.512419181956536e-17 -1.0874426478223213e-16 -0.8153951779983825 0.5789047449251006
12616660000.0 -0.8084093779542247 0.5886206568202254 8.379076055366233e-17 -1.0974100804006649e-16 8.379076055366233e-17 -1.0974100804006649e-16 -0.8084097865906513 0.5886200956000972
12617277333.333334 -0.8013082287521791 0.598251721714076 8.244567505781388e-17 -1.1072141433798276e-16 8.244567505781388e-17 -1.1072141433798276e-16 -0.8013086440544392 0.5982511654509713
12617894666.666666 -0.7940923452499848 0.6077971266921137 8.108913532683616e-17 -1.1168534762042053e-16 8.108913532683616e-17 -1.1168534762042053e-16 -0.7940927671579657 0.6077965754651921
12618512000.0 -0.7867627606447742 0.6172555050077916 7.972134294126787e-17 -1.1263267427822457e-16 7.972134294126787e-17 -1.1263267427822457e-16 -0.7867631890974218 0.617254958895483
12619129333.333334 -0.7793205244139468 0.6266255023752079 7.834250103755812e-17 -1.1356326316703161e-16 7.834250103755812e-17 -1.1356326316703161e-16 -0.7793209593492764 0.6266249614552023
12619746666.666666 -0.7717667021647284 0.635905777163244 7.695281427788356e-17 -1.1447698562540317e-16 7.695281427788356e-17 -1.1447698562540317e-16 -0.7717671435198332 0.6359052415124812
12620364000.0 -0.764102375481593 0.6450950005876631 7.55524888198387e-17 -1.1537371549253138e-16 7.55524888198387e-17 -1.1537371549253138e-16 -0.764102823192653 0.6450944702823198
12620981333.333334 -0.7563286417715384 0.654191856901192 7.414173228593112e-17 -1.1625332912556926e-16 7.414173228593112e-17 -1.1625332912556926e-16 -0.7563290957738309 0.6541913320166735
12621598666.666666 -0.7484466141068523 0.6631950435820512 7.272075373281719e-17 -1.171157054166271e-16 7.272075373281719e-17 -1.171157054166271e-16 -0.7484470743347588 0.6631945241929778
12622216000.0 -0.7404574210657149 0.6721032715204714 7.12897636203905e-17 -1.1796072580936206e-16 7.12897636203905e-17 -1.1796072580936206e-16 -0.7404578874527327 0.6721027577006706
12622833333.333334 -0.7323622065706437 0.680915265203233 6.984897378065537e-17 -1.1878827431520493e-16 6.984897378065537e-17 -1.1878827431520493e-16 -0.7323626790493941 0.6809147570257262
12623450666.666666 -0.7241621297247586 0.6896297628962322 6.839859738643389e-17 -1.195982375291965e-16 6.839859738643389e-17 -1.195982375291965e-16 -0.7241626082269987 0.6896292604332279
12624068000.0 -0.7158583646457236 0.6982455168252507 6.693884891985963e-17 -1.2039050464545946e-16 6.693884891985963e-17 -1.2039050464545946e-16 -0.7158588491023538 0.6982450201481306
12624685333.333334 -0.7074521002976093 0.7067612933546316 6.546994414070331e-17 -1.211649674722805e-16 6.546994414070331e-17 -1.211649674722805e-16 -0.7074525906386849 0.7067608025339431
12625302666.666666 -0.6989445403208523 0.7151758731637152 6.399210005458444e-17 -1.2192152044677585e-16 6.399210005458444e-17 -1.2192152044677585e-16 -0.6989450364755921 0.7151753882691596
12625920000.0 -0.690336902859592 0.7234880514217472 6.25055348808727e-17 -1.2266006064924494e-16 6.25055348808727e-17 -1.2266006064924494e-16 -0.6903374047563898 0.7234875725221703
12626537333.333334 -0.681630420387616 0.7316966379600305 6.101046802061231e-17 -1.233804878170352e-16 6.101046802061231e-17 -1.233804878170352e-16 -0.6816309279540504 0.7316961651234138
12627154666.666666 -0.6728263395316499 0.7398004574425815 5.950712002413178e-17 -1.2408270435809857e-16 5.950712002413178e-17 -1.2408270435809857e-16 -0.6728268526944944 0.7397999907360306
12627772000.0 -0.6639259208928103 0.7477983495344483 5.799571255855358e-17 -1.247666153641228e-16 5.799571255855358e-17 -1.247666153641228e-16 -0.6639264395780458 0.7477978890241866
12628389333.333334 -0.6549304388663864 0.7556891690676086 5.647646837520559e-17 -1.254321286232482e-16 5.647646837520559e-17 -1.254321286232482e-16 -0.654930962999209 0.7556887148189647
12629006666.666666 -0.6458411814590472 0.7634717862052218 5.4949611276787103e-17 -1.2607915463243093e-16 5.4949611276787103e-17 -1.2607915463243093e-16 -0.6458417109638811 0.7634713382826213
12629624000.0 -0.636659450104654 0.7711450866031957 5.341536608448843e-17 -1.2670760660936818e-16 5.341536608448843e-17 -1.2670760660936818e-16 -0.6366599849051608 0.771144645070152
12630241333.333334 -0.6273865594777648 0.7787079715698711 5.18739586049143e-17 -1.2731740050404913e-16 5.18739586049143e-17 -1.2731740050404913e-16 -0.6273870994968562 0.7787075364889773
12630858666.666666 -0.6180238373056389 0.7861593582231423 5.0325615596920376e-17 -1.2790845500988714e-16 5.0325615596920376e-17 -1.2790845500988714e-16 -0.6180243824654869 0.7861589296560612
12631476000.0 -0.6085726241776386 0.7934981796458966 4.877056473825907e-17 -1.2848069157447453e-16 4.877056473825907e-17 -1.2848069157447453e-16 -0.6085731743996866 0.7934977576533527
12632093333.333334 -0.5990342733538798 0.8007233850383041 4.720903459221058e-17 -1.2903403440989283e-16 4.720903459221058e-17 -1.2903403440989283e-16 -0.5990348285588531 0.8007229696800733
12632710666.666666 -0.5894101505710869 0.8078339398685718 4.564125457399262e-17 -1.2956841050265743e-16 4.564125457399262e-17 -1.2956841050265743e-16 -0.5894107106790071 0.8078335312034763
12633328000.0 -0.5797016338470421 0.8148288260210726 4.406745491709929e-17 -1.300837496232397e-16 4.406745491709929e-17 -1.300837496232397e-16 -0.5797021987772356 0.8148284241069699
12633945333.333334 -0.5699101132834566 0.8217070419419857 4.2487866639567923e-17 -1.305799843351704e-16 4.2487866639567923e-17 -1.305799843351704e-16 -0.569910682954567 0.8217066468357607
12634562666.666666 -0.5600369908668144 0.8284676027827851 4.090272151009695e-17 -1.3105705000374974e-16 4.090272151009695e-17 -1.3105705000374974e-16 -0.5600375651968148 0.8284672145403421
12635180000.0 -0.5500836802676571 0.8351095405412403 3.931225201409025e-17 -1.3151488480434004e-16 3.931225201409025e-17 -1.3151488480434004e-16 -0.5500842591738621 0.8351091592174966
12635797333.333334 -0.5400516066381188 0.8416319042000471 3.7716691319603186e-17 -1.3195342973024912e-16 3.7716691319603186e-17 -1.3195342973024912e-16 -0.5400521900371955 0.8416315298489236
12636414666.666666 -0.5299422064080608 0.8480337598628761 3.6116273243221605e-17 -1.3237262860019617e-16 3.6116273243221605e-17 -1.3237262860019617e-16 -0.529942794216041 0.8480333925372902
12637032000.0 -0.5197569270791103 0.8543141908882765 3.451123221582243e-17 -1.3277242806537475e-16 3.451123221582243e-17 -1.3277242806537475e-16 -0.5197575192114026 0.8543138306401341
12637649333.333334 -0.5094972270175924 0.8604722980207994 3.2901803248292036e-17 -1.3315277761609205e-16 3.2901803248292036e-17 -1.3315277761609205e-16 -0.5094978233889946 0.8604719449009874
12638266666.666666 -0.49916457524566815 0.8665071995197867 3.128822189717418e-17 -1.335136295879939e-16 3.128822189717418e-17 -1.335136295879939e-16 -0.49916517577038005 0.866506853578168
12638884000.0 -0.48876045123099554 0.8724180312856241 2.967072423021782e-17 -1.338549391678824e-16 2.967072423021782e-17 -1.338549391678824e-16 -0.4887610558226304 0.872417692571029
12639501333.333334 -0.4782863446748436 0.8782039469834945 2.804954679189825e-17 -1.3417666439910863e-16 2.804954679189825e-17 -1.3417666439910863e-16 -0.47828695324644044 0.8782036155437121
12640118666.666666 -0.4677437552990642 0.8838641181644045 2.6424926568894118e-17 -1.344787661865469e-16 2.6424926568894118e-17 -1.344787661865469e-16 -0.4677443677631013 0.8838637940461797
12640736000.0 -0.45713419263068356 0.8893977343841752 2.4797100955410272e-17 -1.3476120830117093e-16 2.4797100955410272e-17 -1.3476120830117093e-16 -0.4571348088990903 0.8893974176331993
12641353333.333334 -0.4464591757867134 0.8948040033189725 2.3166307718665672e-17 -1.350239573841729e-16 2.3166307718665672e-17 -1.350239573841729e-16 -0.4464597957708827 0.8948036939798767
12641970666.666666 -0.43572023325583487 0.9000821508791808 2.1532784964091538e-17 -1.352669829507095e-16 2.1532784964091538e-17 -1.352669829507095e-16 -0.4357208568666366 0.9000818489955317
12642588000.0 -0.42491890267992105 0.9052314213200419 1.989677110067029e-17 -1.3549025739319761e-16 1.989677110067029e-17 -1.3549025739319761e-16 -0.42491952982771447 0.9052311269343343
12643205333.333334 -0.4140567306338219 0.9102510773498933 1.825850480617876e-17 -1.35693755984202e-16 1.825850480617876e-17 -1.35693755984202e-16 -0.4140573612284691 0.910250790503545
12643822666.666666 -0.4031352724038171 0.9151404002357838 1.661822499239809e-17 -1.3587745687890438e-16 1.661822499239809e-17 -1.3587745687890438e-16 -0.4031359063546946 0.9151401209691276
12644440000.0 -0.39215609176505234 0.9198986899063243 1.4976170770334246e-17 -1.360413411171489e-16 1.4976170770334246e-17 -1.360413411171489e-16 -0.39215672898106557 0.9198984182586043
12645057333.333334 -0.3811207607575806 0.9245252650519478 1.3332581415419214e-17 -1.3618539262506851e-16 1.3332581415419214e-17 -1.3618539262506851e-16 -0.3811214011471764 0.9245250010613146
12645674666.666666 -0.37003085946137887 0.9290194632224262 1.1687696332667268e-17 -1.3630959821629641e-16 1.1687696332667268e-17 -1.3630959821629641e-16 -0.37003150293255843 0.9290192069259294
12646292000.0 -0.35888797576976217 0.933380640921856 1.0041755021837303e-17 -1.364139475927532e-16 1.0041755021837303e-17 -1.364139475927532e-16 -0.35888862223009466 0.9333803923554403
12646909333.333334 -0.3476937051624715 0.937608173700616 8.394997042653414e-18 -1.3649843334501213e-16 8.394997042653414e-18 -1.3649843334501213e-16 -0.34769435451910696 0.9376079328991156
12647526666.666666 -0.33644965047693726 0.941701456244896 6.7476619799449695e-18 -1.3656305095225105e-16 6.7476619799449695e-18 -1.3656305095225105e-16 -0.3364503026366206 0.941701223242031
12648144000.0 -0.32515742167880474 0.9456599024633556 5.0999894088392526e-18 -1.3660779878177994e-16 5.0999894088392526e-18 -1.3660779878177994e-16 -0.3251580765478879 0.9456596772917246
12648761333.333334 -0.3138186356315187 0.9494829455710005 3.4522188599808012e-18 -1.3663267808815006e-16 3.4522188599808012e-18 -1.3663267808815006e-16 -0.3138192931159753 0.9494827282620787
12649378666.666666 -0.3024349158648171 0.9531700381703433 1.804589784755282e-18 -1.3663769301184592e-16 1.804589784755282e-18 -1.3663769301184592e-16 -0.30243557587025527 0.9531698287544764
12649996000.0 -0.29100789234210506 0.956720652329831 1.5734152051896291e-19 -1.3662285057755654e-16 1.5734152051896291e-19 -1.3662285057755654e-16 -0.2910085547737818 0.9567204508362335
12650613333.333334 -0.279539201227261 0.9601342796593797 -1.489286744114441e-18 -1.3658816069202944e-16 -1.489286744114441e-18 -1.3658816069202944e-16 -0.27953986599009445 0.9601340861161273
12651230666.666666 -0.26803048465030965 0.9634104313831832 -3.1350560039246307e-18 -1.3653363614150752e-16 -3.1350560039246307e-18 -1.3653363614150752e-16 -0.26803115164889385 0.9634102458172106
12651848000.0 -0.2564833904721325 0.9665486384097446 -4.7797274718118564e-18 -1.3645929258874644e-16 -4.7797274718118564e-18 -1.3645929258874644e-16 -0.25648405961075055 0.9665484608468423
12652465333.333334 -0.24489957204873827 0.9695484513989776 -6.4230626133080546e-18 -1.3636514856961815e-16 -6.4230626133080546e-18 -1.3636514856961815e-16 -0.24490024323137635 0.9695482818637879
12653082666.666666 -0.23328068799453158 0.9724094408265527 -8.064823181169812e-18 -1.3625122548929778e-16 -8.064823181169812e-18 -1.3625122548929778e-16 -0.2332813611248925 0.9724092793425657
12653700000.0 -0.22162840194454939 0.9751311970454619 -9.70477124989271e-18 -1.36117547618032e-16 -9.70477124989271e-18 -1.36117547618032e-16 -0.22162907692606656 0.9751310436350132
12654317333.333334 -0.20994438231661475 0.9777133303445876 -1.1342669250095824e-17 -1.3596414208649932e-16 -1.1342669250095824e-17 -1.3596414208649932e-16 -0.20994505905246597 0.9777131850288546
12654934666.666666 -0.19823030207230918 0.9801554710045399 -1.2978280002930156e-17 -1.3579103888075066e-16 -1.2978280002930156e-17 -1.3579103888075066e-16 -0.19823098046543033 0.980155333803538
12655552000.0 -0.18648783847712488 0.9824572693506527 -1.4611366754378085e-17 -1.3559827083673861e-16 -1.4611366754378085e-17 -1.3559827083673861e-16 -0.18648851843022418 0.9824571402832344
12656169333.333334 -0.17471867286094786 0.9846183958029218 -1.624169320944316e-17 -1.3538587363444008e-16 -1.624169320944316e-17 -1.3538587363444008e-16 -0.1747193542765198 0.9846182748867738
12656786666.666666 -0.1629244903767349 0.9866385409233175 -1.7869023566333128e-17 -1.351538857915598e-16 -1.7869023566333128e-17 -1.351538857915598e-16 -0.16292517315707383 0.9866384281749563
12657404000.0 -0.15110697975950407 0.9885174154600269 -1.949312255050013e-17 -1.3490234865683028e-16 -1.949312255050013e-17 -1.3490234865683028e-16 -0.15110766380671883 0.9885173108948
12658021333.333334 -0.13926783308445329 0.9902547503888949 -2.111375544862182e-17 -1.346313064028996e-16 -2.111375544862182e-17 -1.346313064028996e-16 -0.13926851830048045 0.9902546540209741
12658638666.666666 -0.1274087455248217 0.9918502969519147 -2.273068814244191e-17 -1.3434080601881941e-16 -2.273068814244191e-17 -1.3434080601881941e-16 -0.12740943181144052 0.9918502087943002
12659256000.0 -0.11553141510888855 0.9933038266928952 -2.4343687142606478e-17 -1.3403089730211046e-16 -2.4343687142606478e-17 -1.3403089730211046e-16 -0.11553210236773415 0.9933037467574066
12659873333.333334 -0.10363754247706668 0.9946151314901281 -2.5952519622285002e-17 -1.3370163285044205e-16 -2.5952519622285002e-17 -1.3370163285044205e-16 -0.10363823060964489 0.9946150597874099
12660490666.666666 -0.09172883063854163 0.9957840235861881 -2.7556953450735778e-17 -1.3335306805290009e-16 -2.7556953450735778e-17 -1.3335306805290009e-16 -0.09172951954624253 0.9957839601257022
12661108000.0 -0.07980698472683356 0.996810335614866 -2.915675722679082e-17 -1.329852610808441e-16 -2.915675722679082e-17 -1.329852610808441e-16 -0.07980767431094617 0.9968102804048965
12661725333.333334 -0.06787371175644277 0.9976939206250655 -3.0751700312131136e-17 -1.3259827287838417e-16 -3.0751700312131136e-17 -1.3259827287838417e-16 -0.06787440191816864 0.9976938736727121
12662342666.666666 -0.05593072037780969 0.9984346521018941 -3.2341552864532726e-17 -1.3219216715243833e-16 -3.2341552864532726e-17 -1.3219216715243833e-16 -0.055931411018277456 0.9984346134130745
12662960000.0 -0.04397972063294748 0.9990324239847572 -3.39260858709234e-17 -1.317670103624047e-16 -3.39260858709234e-17 -1.317670103624047e-16 -0.04398041165322676 0.9990323935642044
12663577333.333334 -0.03202242371053499 0.999487150682546 -3.550507118032917e-17 -1.313228717094346e-16 -3.550507118032917e-17 -1.313228717094346e-16 -0.03202311501165076 0.9994871285338102
12664194666.666666 -0.020060541700902542 0.9997987670858962 -3.7078281536678584e-17 -1.3085982312531096e-16 -3.7078281536678584e-17 -1.3085982312531096e-16 -0.020061233183849173 0.999798753211342
12664812000.0 -0.008095787350888306 0.9999672285765073 -3.8645490611464486e-17 -1.3037793926093543e-16 -3.8645490611464486e-17 -1.3037793926093543e-16 -0.008096478916643803 0.9999672229773152
12665429333.333334 0.003870126181455888 0.9999925110335333 -4.020647303626553e-17 -1.298772974744222e-16 -4.020647303626553e-17 -1.298772974744222e-16 0.0038694346319157443 0.9999925137096981
12666046666.666666 0.015835485571905193 0.9998746108370352 -4.1761004435075244e-17 -1.293579778188166e-16 -4.1761004435075244e-17 -1.293579778188166e-16 0.015834794137592638 0.9998746217873675
12666664000.0 0.02779857757586503 0.9996135448685011 -4.3308861456569844e-17 -1.2882006302939595e-16 -4.3308861456569844e-17 -1.2882006302939595e-16 0.027797886355766143 0.9996135640906259
12667281333.333334 0.03975768927316822 0.9992093505084261 -4.4849821806086164e-17 -1.2826363851062782e-16 -4.4849821806086164e-17 -1.2826363851062782e-16 0.03975699836622877 0.9992093779987852
12667898666.666666 0.05171110831364996 0.9986620856309631 -4.638366427754002e-17 -1.276887923227108e-16 -4.638366427754002e-17 -1.276887923227108e-16 0.05171041781876127 0.9986621213848158
12668516000.0 0.0636571231623284 0.997971828595631 -4.7910168785133374e-17 -1.270956151677469e-16 -4.7910168785133374e-17 -1.270956151677469e-16 0.06365643317831311 0.9979718726070523
12669133333.333334 0.07559402334421299 0.9971386782361046 -4.9429116394854604e-17 -1.2648420037555015e-16 -4.9429116394854604e-17 -1.2648420037555015e-16 0.07559333396981101 0.9971387304979885
12669750666.666666 0.08752009968950071 0.9961627538460524 -5.094028935586712e-17 -1.25854643889051e-16 -5.094028935586712e-17 -1.25854643889051e-16 0.087519411023355 0.9961628143501123
