! Parameters = {f0=12700.012000; bw=77.238000; Q=6100.000000; N=10; m_0_1=1.205300; m_1_1=-0.685241; m_1_2=1.040112; m_2_2=-0.685890; m_2_3=0.677075; m_2_8=-0.002671; m_2_9=0.034033; m_3_3=-0.687827; m_3_4=0.565604; m_3_7=-0.002071; m_3_8=-0.099159; m_3_9=-0.002671; m_4_4=-0.690752; m_4_5=0.401939; m_4_6=0.001446; m_4_7=-0.119708; m_4_8=-0.002071; m_5_5=-0.690370; m_5_6=0.809294; m_5_7=0.001446; m_6_6=-0.690371; m_6_7=0.402281; m_7_7=-0.690738; m_7_8=0.565722; m_8_8=-0.687829; m_8_9=0.677388; m_9_9=-0.685895; m_9_10=1.041190; m_10_10=-0.685251; m_10_11=1.206095}
!
! Created with skrf (http://scikit-rf.org).
# Hz S RI R 50.0 
!freq ReS11 ImS11 ReS21 ImS21 ReS12 ImS12 ReS22 ImS22
12607400000.0 -0.5510264048417407 0.8344878076802726 2.3505243870610354e-17 -7.719166253000018e-17 2.3505243870610354e-17 -7.719166253000018e-17 -0.5510269348553687 0.8344874577030732
12608017333.333334 -0.54382091638752 0.8392012934327968 2.2828405130899218e-17 -7.737805164354855e-17 2.2828405130899218e-17 -7.737805164354855e-17 -0.5438214493687558 0.8392009480489802
12608634666.666666 -0.5365751112213705 0.8438525641470873 2.2150103725012652e-17 -7.75585113903195e-17 2.2150103725012652e-17 -7.75585113903195e-17 -0.5365756471304125 0.8438522233818074
12609252000.0 -0.5292895265184222 0.8484412749965347 2.1470391550165902e-17 -7.773303043823629e-17 2.1470391550165902e-17 -7.773303043823629e-17 -0.5292900653152552 0.8484409388746007
12609869333.333334 -0.5219647024028744 0.8529670857924819 2.0789320589963344e-17 -7.790159790905571e-17 2.0789320589963344e-17 -7.790159790905571e-17 -0.5219652440472734 0.8529667543383572
12610486666.666666 -0.5146011819080778 0.8574296610093747 2.010694291044443e-17 -7.806420337901062e-17 2.010694291044443e-17 -7.806420337901062e-17 -0.5146017263596103 0.8574293342471727
12611104000.0 -0.507199510936006 0.8618286698097931 1.9423310656089303e-17 -7.822083687942619e-17 1.9423310656089303e-17 -7.822083687942619e-17 -0.507200058154036 0.8618283477632789
12611721333.333334 -0.49976023821712806 0.8661637860687783 1.8738476045875622e-17 -7.83714888972879e-17 1.8738476045875622e-17 -7.83714888972879e-17 -0.49976078816081815 0.8661634687613643
12612338666.666666 -0.49228391526948223 0.8704346883981535 1.8052491369277997e-17 -7.851615037578801e-17 1.8052491369277997e-17 -7.851615037578801e-17 -0.49228446789779673 0.8704343758528981
12612956000.0 -0.4847710963577877 0.8746410601703479 1.7365408982287998e-17 -7.865481271483115e-17 1.7365408982287998e-17 -7.865481271483115e-17 -0.4847716516294961 0.8746407524099546
12613573333.333334 -0.4772223384525764 0.8787825895417454 1.667728130343982e-17 -7.878746777150356e-17 1.667728130343982e-17 -7.878746777150356e-17 -0.47722289632625636 0.878782286588561
12614190666.666666 -0.4696382011886548 0.8828589694759443 1.598816080981245e-17 -7.891410786051155e-17 1.598816080981245e-17 -7.891410786051155e-17 -0.46963876162269513 0.8828586713519567
12614808000.0 -0.46201924682373674 0.8868698977664464 1.5298100033040355e-17 -7.903472575458334e-17 1.5298100033040355e-17 -7.903472575458334e-17 -0.462019809776341 0.8868696044932844
12615425333.333334 -0.45436604019673804 0.890815077059081 1.4607151555319273e-17 -7.914931468483636e-17 1.4607151555319273e-17 -7.914931468483636e-17 -0.4543666056259262 0.89081478865801
12616042666.666666 -0.4466791486858985 0.8946942148740438 1.3915368005409724e-17 -7.925786834110941e-17 1.3915368005409724e-17 -7.925786834110941e-17 -0.4466797165495113 0.8946939313659665
12616660000.0 -0.43895914216672016 0.8985070236275828 1.3222802054638586e-17 -7.936038087226042e-17 1.3222802054638586e-17 -7.936038087226042e-17 -0.4389597124224227 0.8985067450330382
12617277333.333334 -0.43120659296969377 0.9022532206533315 1.2529506412896817e-17 -7.945684688642966e-17 1.2529506412896817e-17 -7.945684688642966e-17 -0.43120716557497735 0.9022529469924913
12617894666.666666 -0.4234220758379959 0.9059325282232017 1.183553382464933e-17 -7.95472614512662e-17 1.183553382464933e-17 -7.95472614512662e-17 -0.4234226507501821 0.9059322595158704
12618512000.0 -0.4156061678845982 0.90954467356811 1.1140937064907587e-17 -7.963162009412417e-17 1.1140937064907587e-17 -7.963162009412417e-17 -0.4156067450608414 0.909544409833722
12619129333.333334 -0.4077594485498412 0.9130893888980258 1.0445768935258166e-17 -7.970991880221719e-17 1.0445768935258166e-17 -7.970991880221719e-17 -0.40776002794713256 0.9130891301556463
12619746666.666666 -0.39988249955822125 0.9165664114219496 9.75008225983639e-18 -7.978215402274462e-17 9.75008225983639e-18 -7.978215402274462e-17 -0.39988308113339105 0.9165661576902707
12620364000.0 -0.3919759048752611 0.9199754833673894 9.053929881322551e-18 -7.984832266298007e-17 9.053929881322551e-18 -7.984832266298007e-17 -0.3919764885849832 0.9199752346647315
12620981333.333334 -0.38404025066445274 0.9233163519993707 8.357364656958739e-18 -7.990842209032312e-17 8.357364656958739e-18 -7.990842209032312e-17 -0.38404083646524617 0.9233161083436783
12621598666.666666 -0.37607612524354045 0.9265887696392862 7.660439454522945e-18 -7.99624501323208e-17 7.660439454522945e-18 -7.99624501323208e-17 -0.3760767130917741 0.9265885310481285
12622216000.0 -0.36808411904103566 0.9297924936832008 6.963207148338044e-18 -8.001040507665054e-17 6.963207148338044e-18 -8.001040507665054e-17 -0.3680847088929305 0.9297922601737698
12622833333.333334 -0.36006482455239297 0.9329272866198605 6.265720615265915e-18 -8.005228567106998e-17 6.265720615265915e-18 -8.005228567106998e-17 -0.3600654163640257 0.9329270582089692
12623450666.666666 -0.3520188362961895 0.9359929160482564 5.568032730716625e-18 -8.008809112333115e-17 5.568032730716625e-18 -8.008809112333115e-17 -0.3520194300234962 0.9359926927523388
12624068000.0 -0.3439467507699186 0.9389891546949074 4.870196364638761e-18 -8.011782110106118e-17 4.870196364638761e-18 -8.011782110106118e-17 -0.3439473463686974 0.9389889365300167
12624685333.333334 -0.3358491664057403 0.941915780430719 4.172264377520849e-18 -8.014147573160737e-17 4.172264377520849e-18 -8.014147573160737e-17 -0.33584976383165505 0.9419155674125266
12625302666.666666 -0.32772668352638257 0.9447725762873512 3.474289616420149e-18 -8.015905560184685e-17 3.474289616420149e-18 -8.015905560184685e-17 -0.32772728273496604 0.9447723684311454
12625920000.0 -0.3195799043002355 0.9475593304734505 2.776324910937015e-18 -8.01705617579637e-17 2.776324910937015e-18 -8.01705617579637e-17 -0.31958050524689235 0.9475591277941351
12626537333.333334 -0.3114094326970825 0.9502758363902151 2.078423069258251e-18 -8.017599570518889e-17 2.078423069258251e-18 -8.017599570518889e-17 -0.3114100353370934 0.9502756389023091
12627154666.666666 -0.3032158744431658 0.9529218926467726 1.3806368741580727e-18 -8.017535940750786e-17 1.3806368741580727e-18 -8.017535940750786e-17 -0.3032164787316899 0.9529217003644083
12627772000.0 -0.2949998369761168 0.9554973030751609 6.830190790025242e-19 -8.016865528733216e-17 6.830190790025242e-19 -8.016865528733216e-17 -0.2950004428681956 0.955497116012084
12628389333.333334 -0.2867619294003012 0.9580018767447469 -1.437759619672421e-20 -8.01558862251369e-17 -1.437759619672421e-20 -8.01558862251369e-17 -0.28676253685086167 0.9580016949143144
12629006666.666666 -0.2785027624412575 0.9604354279765146 -7.115004687905979e-19 -8.013705555906381e-17 -7.115004687905979e-19 -8.013705555906381e-17 -0.2785033714051152 0.9604352513916935
12629624000.0 -0.2702229484007167 0.9627977763567308 -1.4082968974372089e-18 -8.011216708448979e-17 -1.4082968974372089e-18 -8.011216708448979e-17 -0.2702235588325801 0.9627976050301
12630241333.333334 -0.26192310111104755 0.9650887467503773 -2.104714286080506e-18 -8.008122505356094e-17 -2.104714286080506e-18 -8.008122505356094e-17 -0.26192371296552025 0.9650885806941231
12630858666.666666 -0.2536038358899125 0.9673081693140831 -2.800700087896631e-18 -8.004423417469287e-17 -2.800700087896631e-18 -8.004423417469287e-17 -0.2536044491214972 0.967308008540001
12631476000.0 -0.2452657694943494 0.9694558795088029 -3.496201809273677e-18 -8.000119961203524e-17 -3.496201809273677e-18 -8.000119961203524e-17 -0.24526638405745108 0.9694557240282939
12632093333.333334 -0.23690952007540345 0.9715317181119123 -4.1911670137312854e-18 -7.9952126984904e-17 -4.1911670137312854e-18 -7.9952126984904e-17 -0.2369101359243329 0.9715315679359858
12632710666.666666 -0.22853570713213645 0.9735355312290638 -4.885543325877612e-18 -7.989702236717829e-17 -4.885543325877612e-18 -7.989702236717829e-17 -0.22853632422111383 0.9735353863683346
12633328000.0 -0.2201449514655613 0.9754671703056268 -5.57927843535781e-18 -7.983589228666225e-17 -5.57927843535781e-18 -7.983589228666225e-17 -0.22014556974871913 0.9754670307703145
12633945333.333334 -0.211737875132866 0.9773264921376379 -6.272320100764272e-18 -7.97687437244153e-17 -6.272320100764272e-18 -7.97687437244153e-17 -0.21173849456425262 0.9773263579375654
12634562666.666666 -0.20331510140113143 0.9791133588824587 -6.964616153571941e-18 -7.969558411404628e-17 -6.964616153571941e-18 -7.969558411404628e-17 -0.2033157219347146 0.9791132300270525
12635180000.0 -0.1948772547012633 0.9808276380689629 -7.65611450205291e-18 -7.961642134097441e-17 -7.65611450205291e-18 -7.961642134097441e-17 -0.19487787629093387 0.9808275145672541
12635797333.333334 -0.18642496058153352 0.9824692026073975 -8.34676313518826e-18 -7.953126374165622e-17 -8.34676313518826e-18 -7.953126374165622e-17 -0.18642558318110827 0.9824690844680181
12636414666.666666 -0.17795884566131437 0.9840379307987747 -9.036510126560933e-18 -7.944012010277961e-17 -9.036510126560933e-18 -7.944012010277961e-17 -0.17795946922453987 0.9840378180299587
12637032000.0 -0.16947953758456863 0.9855337063439089 -9.725303638263293e-18 -7.934299966042197e-17 -9.725303638263293e-18 -7.934299966042197e-17 -0.16948016206512442 0.9855335989534912
12637649333.333334 -0.16098766497343012 0.9869564183520182 -1.0413091924773885e-17 -7.9239912099177e-17 -1.0413091924773885e-17 -7.9239912099177e-17 -0.16098829032493228 0.9869563163474342
12638266666.666666 -0.15248385738143225 0.9883059613489743 -1.1099823336834725e-17 -7.913086755124704e-17 -1.1099823336834725e-17 -7.913086755124704e-17 -0.152484483557437 0.9883058647372602
12638884000.0 -0.1439687452469475 0.9895822352851029 -1.1785446325328782e-17 -7.901587659550054e-17 -1.1785446325328782e-17 -7.901587659550054e-17 -0.1439693722009543 0.9895821440728936
12639501333.333334 -0.13544295984642116 0.9907851455426058 -1.2469909445128152e-17 -7.889495025649918e-17 -1.2469909445128152e-17 -7.889495025649918e-17 -0.13544358753187638 0.990785059736135
12640118666.666666 -0.12690713324759922 0.9919146029425708 -1.3153161358941888e-17 -7.876810000349042e-17 -1.3153161358941888e-17 -7.876810000349042e-17 -0.12690776161789966 0.9919145225476721
12640736000.0 -0.11836189826250025 0.992970523751607 -1.383515084117871e-17 -7.863533774936223e-17 -1.383515084117871e-17 -7.863533774936223e-17 -0.11836252727099632 0.9929704487737109
12641353333.333334 -0.10980788840089577 0.9939528296879978 -1.4515826781746237e-17 -7.849667584957496e-17 -1.4515826781746237e-17 -7.849667584957496e-17 -0.10980851800089536 0.9939527601321347
12641970666.666666 -0.10124573782289382 0.9948614479275696 -1.5195138189895648e-17 -7.835212710104876e-17 -1.5195138189895648e-17 -7.835212710104876e-17 -0.1012463679676653 0.9948613837983652
12642588000.0 -0.09267608129217784 0.9956963111090487 -1.5873034198020287e-17 -7.820170474102592e-17 -1.5873034198020287e-17 -7.820170474102592e-17 -0.09267671193495391 0.9956962524107278
12643205333.333334 -0.0840995541289203 0.9964573573390674 -1.6549464065454558e-17 -7.804542244589772e-17 -1.6549464065454558e-17 -7.804542244589772e-17 -0.08410018522290129 0.996457304075451
12643822666.666666 -0.0755167921625692 0.9971445301967604 -1.722437718227056e-17 -7.788329432999634e-17 -1.722437718227056e-17 -7.788329432999634e-17 -0.07551742366092642 0.9971444823712651
12644440000.0 -0.06692843168485142 0.99775777873793 -1.789772307304346e-17 -7.771533494435894e-17 -1.789772307304346e-17 -7.771533494435894e-17 -0.06692906354073101 0.9977577363535711
12645057333.333334 -0.05833510940257302 0.9982970574988349 -1.8569451400618583e-17 -7.754155927545639e-17 -1.8569451400618583e-17 -7.754155927545639e-17 -0.058335741569099056 0.998297020558223
12645674666.666666 -0.04973746239041578 0.9987623264995544 -1.923951196986426e-17 -7.736198274388964e-17 -1.923951196986426e-17 -7.736198274388964e-17 -0.04973809482069394 0.9987622950048972
12646292000.0 -0.04113612804350876 0.9991535512469691 -1.990785473142783e-17 -7.717662120304992e-17 -1.990785473142783e-17 -7.717662120304992e-17 -0.04113676069062966 0.9991535252000683
12646909333.333334 -0.032531744030542965 0.9994707027372904 -2.0574429785435372e-17 -7.698549093775831e-17 -2.0574429785435372e-17 -7.698549093775831e-17 -0.03253237684758583 0.9994706821395456
12647526666.666666 -0.023924948246213582 0.9997137574582332 -2.1239187385229e-17 -7.678860866285975e-17 -2.1239187385229e-17 -7.678860866285975e-17 -0.023925581186249552 0.9997137423106387
12648144000.0 -0.01531637876395715 0.9998826973907498 -2.1902077941067075e-17 -7.658599152179163e-17 -2.1902077941067075e-17 -7.658599152179163e-17 -0.015317011780052887 0.9998826876938972
12648761333.333334 -0.006706673788761116 0.9999775100103673 -2.256305202380454e-17 -7.637765708512223e-17 -2.256305202380454e-17 -7.637765708512223e-17 -0.0067073068339821955 0.9999775057644432
12649378666.666666 0.0019035283901501889 0.9999981882881142 -2.3222060368568517e-17 -7.616362334905544e-17 -2.3222060368568517e-17 -7.616362334905544e-17 0.0019028953627357665 0.9999981894929011
12649996000.0 0.010513589446777822 0.9999447306910448 -2.3879053878430716e-17 -7.594390873389993e-17 -2.3879053878430716e-17 -7.594390873389993e-17 0.01051295648409616 0.999944737345922
12650613333.333334 0.019122871065585946 0.9998171411823517 -2.4533983628048454e-17 -7.57185320825127e-17 -2.4533983628048454e-17 -7.57185320825127e-17 0.019122238214553767 0.9998171532862936
12651230666.666666 0.02773073498871033 0.9996154292210725 -2.518680086728929e-17 -7.548751265871194e-17 -2.518680086728929e-17 -7.548751265871194e-17 0.027730102296231466 0.9996154467726487
12651848000.0 0.03633654306356032 0.9993396097613828 -2.5837457024870765e-17 -7.525087014564825e-17 -2.5837457024870765e-17 -7.525087014564825e-17 0.03633591057652233 0.9993396327587617
12652465333.333334 0.044939657289873314 0.9989897032514959 -2.6485903711944738e-17 -7.500862464415918e-17 -2.6485903711944738e-17 -7.500862464415918e-17 0.0449390250551439 0.9989897316924407
12653082666.666666 0.05353943986701346 0.9985657356321458 -2.713209272568588e-17 -7.476079667108643e-17 -2.713209272568588e-17 -7.476079667108643e-17 0.05353880793143712 0.9985657695140178
12653700000.0 0.062135253241539776 0.9980677383346541 -2.7775976052885466e-17 -7.450740715755329e-17 -2.7775976052885466e-17 -7.450740715755329e-17 0.06213462165193422 0.9980677776544102
12654317333.333334 0.07072646015407426 0.9974957482786164 -2.841750587347905e-17 -7.42484774472315e-17 -2.841750587347905e-17 -7.42484774472315e-17 0.07072582895722691 0.9974957930328103
12654934666.666666 0.07931242368682952 0.9968498078691509 -2.9056634564108774e-17 -7.398402929455816e-17 -2.9056634564108774e-17 -7.398402929455816e-17 0.07931179292949422 0.9968498580539352
12655552000.0 0.08789250731082732 0.996129964993754 -2.9693314701647964e-17 -7.371408486292951e-17 -2.9693314701647964e-17 -7.371408486292951e-17 0.08789187703972078 0.9961300206048791
12656169333.333334 0.09646607493283324 0.9953362730187691 -3.032749906669093e-17 -7.343866672287341e-17 -3.032749906669093e-17 -7.343866672287341e-17 0.0964654451946315 0.9953363340515827
12656786666.666666 0.10503249094279749 0.9944687907854087 -3.095914064706528e-17 -7.315779785017458e-17 -3.095914064706528e-17 -7.315779785017458e-17 0.10503186178413249 0.9944688572348561
12657404000.0 0.11359112026083451 0.9935275826054004 -3.1588192641296086e-17 -7.287150162398324e-17 -3.1588192641296086e-17 -7.287150162398324e-17 0.11359049172829076 0.9935276544660278
12658021333.333334 0.12214132838436231 0.992512718256218 -3.2214608462067347e-17 -7.257980182488783e-17 -3.2214608462067347e-17 -7.257980182488783e-17 0.12214070052447333 0.9925127955221699
12658638666.666666 0.13068248143500039 0.9914242729759208 -3.28383417396514e-17 -7.228272263296454e-17 -3.28383417396514e-17 -7.228272263296454e-17 0.13068185429424542 0.9914243556409431
12659256000.0 0.13921394620584546 0.9902623274575466 -3.3459346325351414e-17 -7.198028862578345e-17 -3.3459346325351414e-17 -7.198028862578345e-17 0.13921331983064592 0.9902624155149848
12659873333.333334 0.14773509020816109 0.9890269678431572 -3.407757629488676e-17 -7.167252477640294e-17 -3.407757629488676e-17 -7.167252477640294e-17 0.1477344646448767 0.989027061285956
12660490666.666666 0.15624528171826724 0.9877182857174521 -3.469298595177873e-17 -7.135945645132712e-17 -3.469298595177873e-17 -7.135945645132712e-17 0.15624465701319346 0.9877183845381596
12661108000.0 0.16474388982465615 0.9863363781009425 -3.5305529830737855e-17 -7.104110940842389e-17 -3.5305529830737855e-17 -7.104110940842389e-17 0.16474326602402004 0.9863364822917081
12661725333.333334 0.17323028447437122 0.9848813474428139 -3.5915162700983863e-17 -7.07175097948383e-17 -3.5915162700983863e-17 -7.07175097948383e-17 0.17322966162432854 0.9848814569953903
12662342666.666666 0.18170383652002592 0.983353301613284 -3.652183956959698e-17 -7.038868414485202e-17 -3.652183956959698e-17 -7.038868414485202e-17 0.1817032146666574 0.9833534165190276
12662960000.0 0.1901639177663063 0.9817523538956309 -3.7125515684818046e-17 -7.00546593777311e-17 -3.7125515684818046e-17 -7.00546593777311e-17 0.1901632969556142 0.9817524741455013
12663577333.333334 0.19860990101657017 0.980078622977785 -3.772614653934059e-17 -6.971546279553819e-17 -3.772614653934059e-17 -6.971546279553819e-17 0.1986092812944749 0.9800787485623459
12664194666.666666 0.20704116011934523 0.9783322329435323 -3.832368787357978e-17 -6.937112208092018e-17 -3.832368787357978e-17 -6.937112208092018e-17 0.20704054153168228 0.9783323638529545
12664812000.0 0.2154570700147498 0.9765133132633173 -3.891809567893092e-17 -6.902166529486173e-17 -3.891809567893092e-17 -6.902166529486173e-17 0.21545645260726584 0.9765134494873764
12665429333.333334 0.22385700678085962 0.974621998784635 -3.950932620098982e-17 -6.866712087442063e-17 -3.950932620098982e-17 -6.866712087442063e-17 0.2238563905992095 0.9746221403127144
12666046666.666666 0.23224034767982432 0.9726584297220672 -4.009733594276104e-17 -6.830751763043218e-17 -4.009733594276104e-17 -6.830751763043218e-17 0.23223973276956744 0.9726585765431576
12666664000.0 0.24060647120433962 0.970622751646817 -4.0682081667866293e-17 -6.794288474517268e-17 -4.0682081667866293e-17 -6.794288474517268e-17 0.2406058576109369 0.9706229037495187
12667281333.333334 0.24895475712333584 0.9685151154760075 -4.12635204036859e-17 -6.757325177002431e-17 -4.12635204036859e-17 -6.757325177002431e-17 0.24895414489214615 0.96851527284853
12667898666.666666 0.25728458652823605 0.9663356774614283 -4.184160944452487e-17 -6.719864862308409e-17 -4.184160944452487e-17 -6.719864862308409e-17 0.25728397570451267 0.9663358400915911
12668516000.0 0.2655953418788387 0.9640845991779486 -4.2416306354738566e-17 -6.681910558675836e-17 -4.2416306354738566e-17 -6.681910558675836e-17 0.26559473250772625 0.9640847670531835
12669133333.333334 0.27388640704885253 0.9617620475116047 -4.2987568971819795e-17 -6.643465330534164e-17 -4.2987568971819795e-17 -6.643465330534164e-17 0.27388579917538375 0.9617622206189556
12669750666.666666 0.282157167371848 0.9593681946471531 -4.3555355409499764e-17 -6.60453227825455e-17 -4.3555355409499764e-17 -6.60453227825455e-17 0.28215656104093995 0.959368372973277
12670368000.0 0.2904070096867169 0.956903218055338 -4.4119624060800667e-17 -6.56511453790188e-17 -4.4119624060800667e-17 -6.56511453790188e-17 0.2904064049431681 0.9569034015865069
