! Parameters = {f0=12700.012000; bw=77.238000; Q=6100.000000; N=10; m_0_1=1.262758; m_1_1=0.176621; m_1_2=1.097570; m_2_2=0.175972; m_2_3=0.734533; m_2_8=0.000202; m_2_9=0.036906; m_3_3=0.174035; m_3_4=0.623062; m_3_7=0.000802; m_3_8=-0.096286; m_3_9=0.000202; m_4_4=0.171110; m_4_5=0.459397; m_4_6=0.004319; m_4_7=-0.116835; m_4_8=0.000802; m_5_5=0.171492; m_5_6=0.866752; m_5_7=0.004319; m_6_6=0.171491; m_6_7=0.459739; m_7_7=0.171124; m_7_8=0.623180; m_8_8=0.174033; m_8_9=0.734846; m_9_9=0.175967; m_9_10=1.098648; m_10_10=0.176611; m_10_11=1.263553}
!
! Created with skrf (http://scikit-rf.org).
# Hz S RI R 50.0 
!freq ReS11 ImS11 ReS21 ImS21 ReS12 ImS12 ReS22 ImS22
12607400000.0 0.4159108540829039 -0.9094053889525037 -1.5012814042683643e-17 1.0581667460875142e-16 -1.5012814042683643e-17 1.0581667460875142e-16 0.4159114591184353 -0.9094051122430524
12608017333.333334 0.40651399910424624 -0.9136445526199444 -1.3909065373706987e-17 1.0594629629956885e-16 -1.3909065373706987e-17 1.0594629629956885e-16 0.4065146069303716 -0.913644282175547
12608634666.666666 0.39707394331935 -0.9177866220078861 -1.2804245171693375e-17 1.0606441280653685e-16 -1.2804245171693375e-17 1.0606441280653685e-16 0.397074553871205 -0.9177863578566686
12609252000.0 0.3875916899360642 -0.9218311569329453 -1.1698473283154678e-17 1.0617101586756986e-16 -1.1698473283154678e-17 1.0617101586756986e-16 0.38759230314850035 -0.9218308991023604
12609869333.333334 0.37806824664668404 -0.9257777275768342 -1.0591869610506807e-17 1.0626609846815876e-16 -1.0591869610506807e-17 1.0626609846815876e-16 0.3780688624542778 -0.9257774760936635
12610486666.666666 0.3685046255209197 -0.9296259145320293 -9.484554099127661e-18 1.0634965484163652e-16 -9.484554099127661e-18 1.0634965484163652e-16 0.368505243857977 -0.9296256694223747
12611104000.0 0.35890184289796995 -0.9333753088464819 -8.376646724336927e-18 1.0642168046931628e-16 -8.376646724336927e-18 1.0642168046931628e-16 0.3589024636985349 -0.9333750701357663
12611721333.333334 0.34926091927907016 -0.9370255120668617 -7.268267478453384e-18 1.0648217208048856e-16 -7.268267478453384e-18 1.0648217208048856e-16 0.3492615424769315 -0.9370252797798253
12612338666.666666 0.3395828792185654 -0.9405761362810853 -6.1595363578130004e-18 1.0653112765228617e-16 -6.1595363578130004e-18 1.0653112765228617e-16 0.33958350474726356 -0.9405759104417836
12612956000.0 0.3298687512152154 -0.9440268041594692 -5.0505733497766675e-18 1.0656854640941638e-16 -5.0505733497766675e-18 1.0656854640941638e-16 0.32986937900804975 -0.9440265847912702
12613573333.333334 0.3201195676030544 -0.9473771489947697 -3.941498419816527e-18 1.0659442882375296e-16 -3.941498419816527e-18 1.0659442882375296e-16 0.3201201975930904 -0.9473769361203526
12614190666.666666 0.31033636444133733 -0.950626814741284 -2.8324314985219925e-18 1.0660877661379948e-16 -2.8324314985219925e-18 1.0660877661379948e-16 0.31033699656141284 -0.9506266083826328
12614808000.0 0.3005201814047557 -0.9537754560525648 -1.7234924686599968e-18 1.0661159274401461e-16 -1.7234924686599968e-18 1.0661159274401461e-16 0.3005208155874896 -0.953775256230972
12615425333.333334 0.29067206167271015 -0.9568227383182123 -6.14801152257627e-19 1.0660288142400389e-16 -6.14801152257627e-19 1.0660288142400389e-16 0.29067269785050803 -0.9568225450542714
12616042666.666666 0.28079305181863723 -0.9597683376993646 4.935227023460529e-19 1.065826481075779e-16 4.935227023460529e-19 1.065826481075779e-16 0.2807936899236999 -0.9597681510129719
12616660000.0 0.27088420169870947 -0.9626119411631454 1.6013594333866757e-18 1.0655089949167562e-16 1.6013594333866757e-18 1.0655089949167562e-16 0.2708848416630393 -0.9626117610734953
12617277333.333334 0.2609465643401552 -0.965353246515956 2.7085894785983378e-18 1.065076435151541e-16 2.7085894785983378e-18 1.065076435151541e-16 0.26094720609556354 -0.9653530730415405
12617894666.666666 0.25098119582967965 -0.9679919624354996 3.815093388054945e-18 1.0645288935744529e-16 3.815093388054945e-18 1.0645288935744529e-16 0.25098183930779466 -0.9679917955941066
12618512000.0 0.2409891552007144 -0.9705278085018852 4.920751837091253e-18 1.0638664743707688e-16 4.920751837091253e-18 1.0638664743707688e-16 0.24098980033298728 -0.9705276483105943
12619129333.333334 0.2309715043214464 -0.9729605152272696 6.025445639084291e-18 1.0630892941006403e-16 6.025445639084291e-18 1.0630892941006403e-16 0.23097215103915966 -0.9729603617024537
12619746666.666666 0.2209293077816168 -0.9752898240845956 7.129055758317718e-18 1.0621974816816393e-16 7.129055758317718e-18 1.0621974816816393e-16 0.22092995601589108 -0.9752896772419167
12620364000.0 0.21086363277930034 -0.9775154875350787 8.23146332279454e-18 1.0611911783699812e-16 8.23146332279454e-18 1.0611911783699812e-16 0.21086428246110187 -0.9775153473894874
12620981333.333334 0.20077554900790864 -0.9796372690544186 9.332549636969854e-18 1.06007053774047e-16 9.332549636969854e-18 1.06007053774047e-16 0.2007762000680567 -0.979637135620153
12621598666.666666 0.19066612854215229 -0.9816549431580187 1.043219619456207e-17 1.058835725665042e-16 1.043219619456207e-17 1.058835725665042e-16 0.19066678091132638 -0.981654816448602
12622216000.0 0.1805364457241652 -0.9835682954249346 1.1530284691248212e-17 1.0574869202900561e-16 1.1530284691248212e-17 1.0574869202900561e-16 0.18053709933291234 -0.9835681754531731
12622833333.333334 0.1703875770494716 -0.9853771225206298 1.2626697037383742e-17 1.0560243120122358e-16 1.2626697037383742e-17 1.0560243120122358e-16 0.17038823182821414 -0.985377009298614
12623450666.666666 0.16022060105247427 -0.9870812322186101 1.3721315370676033e-17 1.054448103453299e-16 1.3721315370676033e-17 1.054448103453299e-16 0.1602212569315169 -0.9870811257577112
12624068000.0 0.15003659819189316 -0.9886804434208402 1.4814022068825424e-17 1.0527585094332929e-16 1.4814022068825424e-17 1.0527585094332929e-16 0.15003725510143057 -0.988680343731711
12624685333.333334 0.13983665073583115 -0.9901745861770087 1.590469976216825e-17 1.0509557569425678e-16 1.590469976216825e-17 1.0509557569425678e-16 0.1398373086059552 -0.9901744932695795
12625302666.666666 0.1296218426469565 -0.9915635017025556 1.6993231346207014e-17 1.0490400851125716e-16 1.6993231346207014e-17 1.0490400851125716e-16 0.12962250140766382 -0.9915634155860359
12625920000.0 0.1193932594670834 -0.9928470423955801 1.8079499994229285e-17 1.0470117451851494e-16 1.8079499994229285e-17 1.0470117451851494e-16 0.11939391904828313 -0.9928469630784588
12626537333.333334 0.10915198820197956 -0.9940250718525064 1.9163389169760616e-17 1.0448710004807649e-16 1.9163389169760616e-17 1.0448710004807649e-16 0.10915264853350011 -0.9940249993425461
12627154666.666666 0.09889911720587614 -0.9950974648825728 2.0244782639070506e-17 1.042618126365278e-16 2.0244782639070506e-17 1.042618126365278e-16 0.09889977821747331 -0.9950973991868136
12627772000.0 0.08863573606555346 -0.9960641075211698 2.132356448364062e-17 1.0402534102154236e-16 2.132356448364062e-17 1.0402534102154236e-16 0.08863639768691747 -0.9960640486459257
12628389333.333334 0.07836293548485905 -0.9969248970419096 2.2399619112505294e-17 1.0377771513831867e-16 2.2399619112505294e-17 1.0377771513831867e-16 0.07836359764562235 -0.9969248449927713
12629006666.666666 0.06808180716857158 -0.9976797419675757 2.34728312746819e-17 1.0351896611586306e-16 2.34728312746819e-17 1.0351896611586306e-16 0.06808246979831616 -0.9976796967494065
12629624000.0 0.05779344370646816 -0.9983285620798261 2.4543086071435645e-17 1.03249126273171e-16 2.4543086071435645e-17 1.03249126273171e-16 0.05779410673473305 -0.998328523696764
12630241333.333334 0.04749893845724201 -0.9988712884277234 2.5610268968598835e-17 1.0296822911526073e-16 2.5610268968598835e-17 1.0296822911526073e-16 0.04749960181353075 -0.9988712568831791
12630858666.666666 0.03719938543239486 -0.9993078633350575 2.667426580876648e-17 1.0267630932909782e-16 2.667426580876648e-17 1.0267630932909782e-16 0.03720004904618301 -0.9993078386317137
12631476000.0 0.026895879179577222 -0.9996382404064902 2.773496282352554e-17 1.0237340277937461e-16 2.773496282352554e-17 1.0237340277937461e-16 0.026896542980319908 -0.9996382225463039
12632093333.333334 0.016589514666808903 -0.9998623845324643 2.8792246645567236e-17 1.0205954650418179e-16 2.8792246645567236e-17 1.0205954650418179e-16 0.016590178583948286 -0.9998623735166651
12632710666.666666 0.006281387165859735 -0.9999802718929505 2.984600432077776e-17 1.0173477871054883e-16 2.984600432077776e-17 1.0173477871054883e-16 0.006282051128832477 -0.9999802677220389
12633328000.0 -0.004027407864373964 -0.9999918899599735 3.089612332031981e-17 1.0139913876984704e-16 3.089612332031981e-17 1.0139913876984704e-16 -0.004026743926129157 -0.9999918926337251
12633945333.333334 -0.014335774893830602 -0.9998972374989444 3.1942491552579805e-17 1.0105266721309386e-16 3.1942491552579805e-17 1.0105266721309386e-16 -0.014335111050865504 -0.999897247016405
12634562666.666666 -0.024642618438076237 -0.999696324568787 3.2984997375132546e-17 1.0069540572611322e-16 3.2984997375132546e-17 1.0069540572611322e-16 -0.024641954760925608 -0.9996963409282774
12635180000.0 -0.0349468431744959 -0.9993891725208764 3.402352960663511e-17 1.0032739714457742e-16 3.402352960663511e-17 1.0032739714457742e-16 -0.03494617973367001 -0.9993891957199899
12635797333.333334 -0.04524735405880879 -0.9989758139967668 3.5057977538643557e-17 9.994868544893476e-17 3.5057977538643557e-17 9.994868544893476e-17 -0.04524669092478583 -0.9989758440323684
12636414666.666666 -0.05554305644141158 -0.9984562929247193 3.6088230947402493e-17 9.955931575920602e-17 3.6088230947402493e-17 9.955931575920602e-17 -0.05554239368463032 -0.9984563297929497
12637032000.0 -0.06583285618368012 -0.9978306645150401 3.711418010556336e-17 9.915933432966441e-17 3.711418010556336e-17 9.915933432966441e-17 -0.06583219387453232 -0.9978307082113136
12637649333.333334 -0.07611565977435841 -0.9970989952542032 3.813571579384445e-17 9.87487885433951e-17 3.813571579384445e-17 9.87487885433951e-17 -0.07611499798318147 -0.9970990457732101
12638266666.666666 -0.08639037444559747 -0.9962613628977964 3.9152729312645797e-17 9.832772690672997e-17 3.9152729312645797e-17 9.832772690672997e-17 -0.0863897132426669 -0.9962614202335027
12638884000.0 -0.0966559082891706 -0.9953178564622567 4.016511249357222e-17 9.78961990435746e-17 4.016511249357222e-17 9.78961990435746e-17 -0.09665524774469234 -0.9953179206079021
12639501333.333334 -0.1069111703726247 -0.9942685762153918 4.1172757710939423e-17 9.745425568959947e-17 4.1172757710939423e-17 9.745425568959947e-17 -0.10691051055672794 -0.9942686471634945
12640118666.666666 -0.1171550708548478 -0.9931136336657668 4.2175557893152955e-17 9.700194868633941e-17 4.2175557893152955e-17 9.700194868633941e-17 -0.11715441183757755 -0.9931137114081233
12640736000.0 -0.1273865211025661 -0.9918531515507788 4.317340653412782e-17 9.653933097513087e-17 4.317340653412782e-17 9.653933097513087e-17 -0.12738586295387572 -0.9918532360784647
12641353333.333334 -0.1376044338051592 -0.9904872638237137 4.416619770449124e-17 9.606645659099932e-17 4.416619770449124e-17 9.606645659099932e-17 -0.13760377659490278 -0.9904873551270841
12641970666.666666 -0.14780772309088777 -0.9890161156394335 4.515382606286972e-17 9.558338065636373e-17 4.515382606286972e-17 9.558338065636373e-17 -0.14780706688881282 -0.9890162137081232
12642588000.0 -0.1579953046420924 -0.9874398633389679 4.61361868670231e-17 9.509015937466374e-17 4.61361868670231e-17 9.509015937466374e-17 -0.15799464951783246 -0.9874399681618944
12643205333.333334 -0.16816609581025702 -0.9857586744329272 4.711317598491254e-17 9.458685002387213e-17 4.711317598491254e-17 9.458685002387213e-17 -0.16816544183332466 -0.9857587859982931
12643822666.666666 -0.17831901573140116 -0.983972727583651 4.8084689905746816e-17 9.407351094986975e-17 4.8084689905746816e-17 9.407351094986975e-17 -0.17831836297117998 -0.9839728458789423
12644440000.0 -0.1884529854406074 -0.9820822125862727 4.9050625750889956e-17 9.355020155974132e-17 4.9050625750889956e-17 9.355020155974132e-17 -0.18845233396634473 -0.9820823375982605
12645057333.333334 -0.19856692798682468 -0.9800873303485266 5.0010881284755375e-17 9.301698231492931e-17 5.0010881284755375e-17 9.301698231492931e-17 -0.1985662778676249 -0.9800874620632715
12645674666.666666 -0.20865976854726276 -0.9779882928694131 5.0965354925583494e-17 9.247391472429862e-17 5.0965354925583494e-17 9.247391472429862e-17 -0.2086591198520791 -0.9779884312722632
12646292000.0 -0.21873043454192045 -0.9757853232166028 5.191394575618953e-17 9.192106133706672e-17 5.191394575618953e-17 9.192106133706672e-17 -0.2187297873395483 -0.9757854682921977
12646909333.333334 -0.22877785574701334 -0.9734786555028443 5.285655353458253e-17 9.135848573565278e-17 5.285655353458253e-17 9.135848573565278e-17 -0.22877721010608262 -0.9734788072351157
12647526666.666666 -0.23880096440920962 -0.9710685348609841 5.3793078704541855e-17 9.07862525283998e-17 5.3793078704541855e-17 9.07862525283998e-17 -0.23880032039817775 -0.9710686932331584
12648144000.0 -0.24879869535885038 -0.9685552174179647 5.472342240612488e-17 9.020442734218106e-17 5.472342240612488e-17 9.020442734218106e-17 -0.24879805304599495 -0.9685553824125643
12648761333.333334 -0.2587699861232579 -0.9659389702675816 5.564748648604981e-17 8.961307681492862e-17 5.564748648604981e-17 8.961307681492862e-17 -0.25876934557666936 -0.9659391418664269
12649378666.666666 -0.2687137770394535 -0.9632200714421493 5.656517350803365e-17 8.901226858803276e-17 5.656517350803365e-17 8.901226858803276e-17 -0.2687131383270274 -0.9632202496263593
12649996000.0 -0.278629011366989 -0.9603988098828952 5.747638676306152e-17 8.840207129862875e-17 5.747638676306152e-17 8.840207129862875e-17 -0.2786283745564206 -0.9603989946328942
12650613333.333334 -0.2885146354002484 -0.9574754854092549 5.83810302795273e-17 8.778255457180682e-17 5.83810302795273e-17 8.778255457180682e-17 -0.2885140005590233 -0.9574756767047687
12651230666.666666 -0.2983695985801257 -0.954450408687094 5.927900883332694e-17 8.715378901269717e-17 5.927900883332694e-17 8.715378901269717e-17 -0.2983689657755138 -0.9544506065071555
12651848000.0 -0.30819285360615967 -0.951323901195549 6.017022795786068e-17 8.651584619845386e-17 6.017022795786068e-17 8.651584619845386e-17 -0.3081922229052079 -0.9513241055184996
12652465333.333334 -0.3179833565473964 -0.9480962951929924 6.105459395394326e-17 8.586879867014303e-17 6.105459395394326e-17 8.586879867014303e-17 -0.31798272801692173 -0.9480965059964849
12653082666.666666 -0.3277400669534125 -0.944767933681705 6.193201389960966e-17 8.521271992454185e-17 6.193201389960966e-17 8.521271992454185e-17 -0.32773944065999483 -0.9447681509427062
12653700000.0 -0.3374619479652351 -0.9413391703713045 6.280239565989643e-17 8.4547684405792e-17 6.280239565989643e-17 8.4547684405792e-17 -0.33746132397520967 -0.9413393940660962
12654317333.333334 -0.3471479664249909 -0.937810369641337 6.366564789643982e-17 8.387376749702277e-17 6.366564789643982e-17 8.387376749702277e-17 -0.3471473448044421 -0.9378105997455203
12654934666.666666 -0.35679709298605267 -0.9341819065024377 6.452168007706604e-17 8.319104551181595e-17 6.452168007706604e-17 8.319104551181595e-17 -0.3567964738008068 -0.9341821429909357
12655552000.0 -0.3664083022225069 -0.9304541665564441 6.537040248526625e-17 8.249959568559038e-17 6.537040248526625e-17 8.249959568559038e-17 -0.36640768553812486 -0.9304544094035029
12656169333.333334 -0.3759805727377027 -0.9266275459555773 6.621172622953545e-17 8.179949616692634e-17 6.621172622953545e-17 8.179949616692634e-17 -0.37597995861947303 -0.9266277951347702
12656786666.666666 -0.38551288727327415 -0.9227024513601613 6.704556325269798e-17 8.109082600873087e-17 6.704556325269798e-17 8.109082600873087e-17 -0.38551227578620667 -0.9227027068443913
12657404000.0 -0.39500423281692787 -0.9186792998955279 6.787182634106933e-17 8.037366515936507e-17 6.787182634106933e-17 8.037366515936507e-17 -0.39500362402574624 -0.9186795616570302
12658021333.333334 -0.4044536007102305 -0.9145585191076382 6.869042913356299e-17 7.964809445364648e-17 6.869042913356299e-17 7.964809445364648e-17 -0.40445299467936585 -0.914558787117985
12658638666.666666 -0.4138599867557465 -0.9103405469176685 6.950128613068513e-17 7.891419560377221e-17 6.950128613068513e-17 7.891419560377221e-17 -0.4138593835493302 -0.9103408211477697
12659256000.0 -0.42322239132383477 -0.9060258315754371 7.030431270344414e-17 7.817205119014089e-17 7.030431270344414e-17 7.817205119014089e-17 -0.42322179100569146 -0.9060261119955437
12659873333.333334 -0.4325398194588523 -0.9016148316117756 7.109942510215357e-17 7.742174465209246e-17 7.109942510215357e-17 7.742174465209246e-17 -0.43253922209249424 -0.9016151181914858
12660490666.666666 -0.44181128098471234 -0.8971080157898907 7.188654046512155e-17 7.666336027857325e-17 7.188654046512155e-17 7.666336027857325e-17 -0.4418106866333312 -0.8971083084981494
12661108000.0 -0.45103579061044347 -0.8925058630553864 7.266557682729756e-17 7.589698319865961e-17 7.266557682729756e-17 7.589698319865961e-17 -0.4510351993369048 -0.892506161860491
12661725333.333334 -0.4602123680346166 -0.8878088624855001 7.343645312873409e-17 7.512269937207452e-17 7.343645312873409e-17 7.512269937207452e-17 -0.4602117799014531 -0.8878091673551041
12662342666.666666 -0.46934003804965163 -0.8830175132370697 7.41990892230231e-17 7.434059557954604e-17 7.41990892230231e-17 7.434059557954604e-17 -0.46933945311905545 -0.8830178241381837
12662960000.0 -0.47841783064540244 -0.8781323244935092 7.49534058855959e-17 7.355075941311391e-17 7.49534058855959e-17 7.355075941311391e-17 -0.47841724897921983 -0.8781326413925074
12663577333.333334 -0.4874447811123415 -0.8731538154106457 7.569932482191164e-17 7.275327926636065e-17 7.569932482191164e-17 7.275327926636065e-17 -0.4874442027720655 -0.8731541382732674
12664194666.666666 -0.49641993014390684 -0.868082515061642 7.643676867557206e-17 7.194824432453051e-17 7.643676867557206e-17 7.194824432453051e-17 -0.49641935519067115 -0.8680828438529961
12664812000.0 -0.5053423239386461 -0.86291896238066 7.716566103629773e-17 7.113574455460051e-17 7.716566103629773e-17 7.113574455460051e-17 -0.5053417524332189 -0.8629192970652295
12665429333.333334 -0.5142110143014322 -0.8576637061056742 7.78859264478347e-17 7.031587069523477e-17 7.78859264478347e-17 7.031587069523477e-17 -0.5142104463042086 -0.8576640466473183
12666046666.666666 -0.5230250587441784 -0.8523173047201827 7.859749041571166e-17 6.948871424670451e-17 7.859749041571166e-17 6.948871424670451e-17 -0.5230244943151755 -0.8523176510821427
12666664000.0 -0.5317835205863409 -0.8468803263936551 7.930027941494276e-17 6.865436746067316e-17 7.930027941494276e-17 6.865436746067316e-17 -0.5317829597851912 -0.8468806785385579
12667281333.333334 -0.5404854690539515 -0.8413533489214612 7.999422089757302e-17 6.781292332995912e-17 7.999422089757302e-17 6.781292332995912e-17 -0.540484911939895 -0.8413537068113213
12667898666.666666 -0.5491299793789648 -0.8357369596631973 8.067924330014253e-17 6.69644755781917e-17 8.067924330014253e-17 6.69644755781917e-17 -0.5491294260108451 -0.8357373232594237
12668516000.0 -0.5577161328973687 -0.8300317554803743 8.135527605105092e-17 6.610911864938e-17 8.135527605105092e-17 6.610911864938e-17 -0.5577155833336248 -0.8300321247437726
12669133333.333334 -0.5662430171466674 -0.8242383426730799 8.202224957776647e-17 6.524694769746381e-17 8.202224957776647e-17 6.524694769746381e-17 -0.5662424714453288 -0.8242387175638579
12669750666.666666 -0.5747097259631607 -0.8183573369153457 8.2680095313979e-17 6.437805857572453e-17 8.2680095313979e-17 6.437805857572453e-17 -0.5747091841818397 -0.8183577173931156
12670368000.0 -0.583115359578003 -0.8123893631898711 8.332874570661461e-17 6.3502547826157e-17 8.332874570661461e-17 6.3502547826157e-17 -0.5831148217738916 -0.8123897492136576
