! Parameters = {f0=12700.012000; bw=77.238000; Q=6100.000000; N=10; m_0_1=1.193488; m_1_1=-0.862418; m_1_2=1.028300; m_2_2=-0.863067; m_2_3=0.665263; m_2_8=-0.003262; m_2_9=0.033442; m_3_3=-0.865004; m_3_4=0.553792; m_3_7=-0.002662; m_3_8=-0.099750; m_3_9=-0.003262; m_4_4=-0.867929; m_4_5=0.390127; m_4_6=0.000855; m_4_7=-0.120299; m_4_8=-0.002662; m_5_5=-0.867547; m_5_6=0.797482; m_5_7=0.000855; m_6_6=-0.867548; m_6_7=0.390469; m_7_7=-0.867915; m_7_8=0.553910; m_8_8=-0.865006; m_8_9=0.665576; m_9_9=-0.863072; m_9_10=1.029378; m_10_10=-0.862428; m_10_11=1.194283}
!
! Created with skrf (http://scikit-rf.org).
# Hz S RI R 50.0 
!freq ReS11 ImS11 ReS21 ImS21 ReS12 ImS12 ReS22 ImS22
12607400000.0 -0.9909770050821569 0.13403199393519147 6.931802610314173e-17 -3.115908708823745e-17 6.931802610314173e-17 -3.115908708823745e-17 -0.9909770893790807 0.13403137067719997
12608017333.333334 -0.989835956066987 0.14221385332237044 6.904191626735928e-17 -3.173056636059702e-17 6.904191626735928e-17 -3.173056636059702e-17 -0.989836045505372 0.1422132308125068
12608634666.666666 -0.9886273558795788 0.1503860073490754 6.876110007469552e-17 -3.229960911967608e-17 6.876110007469552e-17 -3.229960911967608e-17 -0.9886274504528164 0.15038538562974715
12609252000.0 -0.9873512870006843 0.15854789830816812 6.847559894552875e-17 -3.2866176649708033e-17 6.847559894552875e-17 -3.2866176649708033e-17 -0.9873513867018174 0.15854727742172484
12609869333.333334 -0.9860078365154427 0.1666989691929122 6.818543461836354e-17 -3.3430230422598744e-17 6.818543461836354e-17 -3.3430230422598744e-17 -0.9860079413371672 0.1666983491816428
12610486666.666666 -0.9845970961074475 0.17483866373495854 6.789062914819367e-17 -3.399173210053375e-17 6.789062914819367e-17 -3.399173210053375e-17 -0.9845972060421075 0.17483804464108757
12611104000.0 -0.9831191620524564 0.1829664264424466 6.759120490482777e-17 -3.4550643538601945e-17 6.759120490482777e-17 -3.4550643538601945e-17 -0.9831192770920503 0.18296580830813228
12611721333.333334 -0.981574135211884 0.19108170263760707 6.728718457122704e-17 -3.510692678733921e-17 6.728718457122704e-17 -3.510692678733921e-17 -0.98157425534806 0.1910810855049377
12612338666.666666 -0.9799621210258449 0.19918393849497845 6.697859114178934e-17 -3.566054409532118e-17 6.697859114178934e-17 -3.566054409532118e-17 -0.979962246249907 0.19918332240597011
12612956000.0 -0.9782832295059943 0.2072725810790355 6.666544792062179e-17 -3.6211457911721424e-17 6.666544792062179e-17 -3.6211457911721424e-17 -0.9782833598088986 0.2072719660756288
12613573333.333334 -0.976537575228053 0.21534707838175735 6.634777851981154e-17 -3.6759630888821116e-17 6.634777851981154e-17 -3.6759630888821116e-17 -0.9765377106004098 0.21534646450581474
12614190666.666666 -0.9747252773239106 0.22340687936066006 6.602560685764585e-17 -3.7305025884555987e-17 6.602560685764585e-17 -3.7305025884555987e-17 -0.9747254177559862 0.22340626665396304
12614808000.0 -0.972846459473566 0.2314514339760981 6.56989571568286e-17 -3.7847605965020264e-17 6.56989571568286e-17 -3.7847605965020264e-17 -0.9728466049552806 0.23145082248034396
12615425333.333334 -0.9709012498966549 0.23948019322891098 6.536785394267782e-17 -3.83873344069488e-17 6.536785394267782e-17 -3.83873344069488e-17 -0.9709014004175879 0.2394795829857109
12616042666.666666 -0.96888978134369 0.24749260919797472 6.503232204129582e-17 -3.892417470019928e-17 6.503232204129582e-17 -3.892417470019928e-17 -0.968889936893075 0.24749200024884968
12616660000.0 -0.9668121910870295 0.2554881350774263 6.469238657771815e-17 -3.9458090550218e-17 6.469238657771815e-17 -3.9458090550218e-17 -0.966812351653761 0.2554875274638056
12617277333.333334 -0.9646686209114922 0.26346622521409296 6.434807297405131e-17 -3.998904588047508e-17 6.434807297405131e-17 -3.998904588047508e-17 -0.9646687864841214 0.2634656189773103
12617894666.666666 -0.9624592171046912 0.2714263351446745 6.399940694758774e-17 -4.051700483488922e-17 6.399940694758774e-17 -4.051700483488922e-17 -0.9624593876714285 0.27142573032596534
12618512000.0 -0.960184130447011 0.279367921633036 6.364641450888226e-17 -4.104193178026514e-17 6.364641450888226e-17 -4.104193178026514e-17 -0.9601843059957279 0.2793673182735353
12619129333.333334 -0.9578435162013964 0.2872904427070082 6.328912195984802e-17 -4.156379130865285e-17 6.328912195984802e-17 -4.156379130865285e-17 -0.9578436967196269 0.28728984084774767
12619746666.666666 -0.9554375341026983 0.2951933576955941 6.292755589179498e-17 -4.208254823975009e-17 6.292755589179498e-17 -4.208254823975009e-17 -0.9554377195776362 0.29519275737749845
12620364000.0 -0.952966348346731 0.3030761272659732 6.256174318345978e-17 -4.25981676232696e-17 6.256174318345978e-17 -4.25981676232696e-17 -0.9529665387652345 0.3030755285298582
12620981333.333334 -0.9504301275791974 0.31093821345990197 6.219171099903884e-17 -4.3110614741257715e-17 6.219171099903884e-17 -4.3110614741257715e-17 -0.9504303229277878 0.31093761634647127
12621598666.666666 -0.9478290448840669 0.318779079730779 6.181748678616813e-17 -4.3619855110445447e-17 6.181748678616813e-17 -4.3619855110445447e-17 -0.9478292451489319 0.31877848428062217
12622216000.0 -0.9451632777717826 0.3265981909802077 6.143909827390218e-17 -4.412585448455574e-17 6.143909827390218e-17 -4.412585448455574e-17 -0.9451634829387746 0.3265975972337963
12622833333.333334 -0.942433008167181 0.3343950135944056 6.105657347067696e-17 -4.462857885658989e-17 6.105657347067696e-17 -4.462857885658989e-17 -0.9424332182218192 0.3343944215920909
12623450666.666666 -0.9396384223970863 0.3421690154805939 6.066994066225025e-17 -4.5127994461101533e-17 6.066994066225025e-17 -4.5127994461101533e-17 -0.9396386373245589 0.3421684252626047
12624068000.0 -0.9367797111775222 0.3499196661035259 6.027922840961222e-17 -4.5624067776468794e-17 6.027922840961222e-17 -4.5624067776468794e-17 -0.9367799309626847 0.34991907770996467
12624685333.333334 -0.9338570696007368 0.3576464365215562 5.988446554689398e-17 -4.611676552712564e-17 5.988446554689398e-17 -4.611676552712564e-17 -0.9338572942281169 0.3576458499923979
12625302666.666666 -0.9308706971219592 0.3653487994225831 5.948568117926115e-17 -4.660605468577253e-17 5.948568117926115e-17 -4.660605468577253e-17 -0.9308709265757525 0.3653482147976702
12625920000.0 -0.9278207975456446 0.37302622916037553 5.908290468075561e-17 -4.7091902475610554e-17 5.908290468075561e-17 -4.7091902475610554e-17 -0.927821031809722 0.373025646479418
12626537333.333334 -0.9247075790116769 0.3806782017901839 5.867616569217223e-17 -4.7574276372492234e-17 5.867616569217223e-17 -4.7574276372492234e-17 -0.9247078180695811 0.3806776210927545
12627154666.666666 -0.9215312539811625 0.38830419510449615 5.826549411887026e-17 -4.8053144107112124e-17 5.826549411887026e-17 -4.8053144107112124e-17 -0.9215314978161113 0.38830361643002853
12627772000.0 -0.9182920392218341 0.395903688668912 5.785092012858722e-17 -4.852847366715367e-17 5.785092012858722e-17 -4.852847366715367e-17 -0.9182922878167206 0.395903112056698
12628389333.333334 -0.9149901557933752 0.4034761638573712 5.743247414924847e-17 -4.900023329940286e-17 5.743247414924847e-17 -4.900023329940286e-17 -0.914990409130769 0.40347558934655775
12629006666.666666 -0.9116258290322369 0.41102110388778257 5.701018686672702e-17 -4.94683915118806e-17 5.701018686672702e-17 -4.94683915118806e-17 -0.9116260870943873 0.4110205315173702
12629624000.0 -0.9081992885363382 0.41853799385710977 5.658408922261467e-17 -4.9932917075923295e-17 5.658408922261467e-17 -4.9932917075923295e-17 -0.9081995513051716 0.4185374236659482
12630241333.333334 -0.9047107681493503 0.426026320776614 5.61542124119656e-17 -5.039377902825563e-17 5.61542124119656e-17 -5.039377902825563e-17 -0.9047110356064748 0.42602575280340077
12630858666.666666 -0.9011605059447617 0.4334855736068111 5.57205878810288e-17 -5.0850946673039787e-17 5.57205878810288e-17 -5.0850946673039787e-17 -0.9011607780714681 0.4334850078900891
12631476000.0 -0.8975487442095725 0.44091524329247705 5.528324732493794e-17 -5.130438958393143e-17 5.528324732493794e-17 -5.130438958393143e-17 -0.8975490209868338 0.4409146798706309
12632093333.333334 -0.8938757294278789 0.44831482279713014 5.484222268543493e-17 -5.1754077606062887e-17 5.484222268543493e-17 -5.1754077606062887e-17 -0.8938760108363524 0.4483142617083842
12632710666.666666 -0.8901417122639433 0.4556838071378656 5.4397546148527717e-17 -5.2199980858060246e-17 5.4397546148527717e-17 -5.2199980858060246e-17 -0.8901419982839731 0.4556832484202815
12633328000.0 -0.8863469475450982 0.4630216934197914 5.39492501421547e-17 -5.2642069734014826e-17 5.39492501421547e-17 -5.2642069734014826e-17 -0.8863472381567147 0.4630211371112648
12633945333.333334 -0.8824916942444327 0.4703279808701953 5.3497367333838326e-17 -5.3080314905430926e-17 5.3497367333838326e-17 -5.3080314905430926e-17 -0.8824919894273554 0.4703274270084542
12634562666.666666 -0.8785762154630159 0.47760217087292417 5.304193062831097e-17 -5.3514687323165427e-17 5.304193062831097e-17 -5.3514687323165427e-17 -0.8785765151966537 0.4776016194955255
12635180000.0 -0.8746007784120303 0.48484376700223286 5.2582973165124735e-17 -5.394515821934702e-17 5.2582973165124735e-17 -5.394515821934702e-17 -0.8746010826754851 0.484843218146561
12635797333.333334 -0.8705656543944891 0.4920522750567663 5.2120528316259863e-17 -5.437169910926163e-17 5.2120528316259863e-17 -5.437169910926163e-17 -0.8705659631665547 0.49205172876002956
12636414666.666666 -0.866471118786729 0.49922720309325885 5.1654629683702575e-17 -5.479428179323256e-17 5.1654629683702575e-17 -5.479428179323256e-17 -0.8664714320458938 0.49922665939248734
12637032000.0 -0.8623174510196209 0.5063680614601085 5.118531109701548e-17 -5.521287835847234e-17 5.118531109701548e-17 -5.521287835847234e-17 -0.8623177687440686 0.5063675203921509
12637649333.333334 -0.8581049345594963 0.5134743628307906 5.0712606610891465e-17 -5.562746118091536e-17 5.0712606610891465e-17 -5.562746118091536e-17 -0.8581052567271092 0.5134738244323135
12638266666.666666 -0.8538338568888216 0.5205456222370946 5.023655050269453e-17 -5.603800292702849e-17 5.023655050269453e-17 -5.603800292702849e-17 -0.8538341834771801 0.520545086544578
12638884000.0 -0.8495045094865155 0.5275813571023139 4.975717726997805e-17 -5.644447655560751e-17 4.975717726997805e-17 -5.644447655560751e-17 -0.8495048404729004 0.52758082415205
12639501333.333334 -0.8451171878081329 0.5345810872740606 4.9274521628004763e-17 -5.684685531953862e-17 4.9274521628004763e-17 -5.684685531953862e-17 -0.8451175231695283 0.5345805571021508
12640118666.666666 -0.8406721912657503 0.5415443350569619 4.878861850723974e-17 -5.72451127675501e-17 4.878861850723974e-17 -5.72451127675501e-17 -0.8406725309788425 0.5415438076993141
12640736000.0 -0.8361698232072368 0.5484706252457126 4.829950305081747e-17 -5.763922274595167e-17 4.829950305081747e-17 -5.763922274595167e-17 -0.8361701672484189 0.5484701007380401
12641353333.333334 -0.8316103908960176 0.5553594851567918 4.780721061204496e-17 -5.802915940031224e-17 4.780721061204496e-17 -5.802915940031224e-17 -0.8316107392413886 0.5553589635346092
12641970666.666666 -0.826994205489734 0.5622104446612923 4.731177675181674e-17 -5.84148971771769e-17 4.731177675181674e-17 -5.84148971771769e-17 -0.8269945581151018 0.5622099259599141
12642588000.0 -0.8223215820191139 0.5690230362168368 4.6813237236082214e-17 -5.879641082570791e-17 4.6813237236082214e-17 -5.879641082570791e-17 -0.822321938899996 0.5690225204713741
12643205333.333334 -0.8175928393665521 0.575796794899367 4.631162803326553e-17 -5.917367539933285e-17 4.631162803326553e-17 -5.917367539933285e-17 -0.8175932004781805 0.5757962821447272
12643822666.666666 -0.8128083002442251 0.5825312584350627 4.58069853116769e-17 -5.954666625736652e-17 4.58069853116769e-17 -5.954666625736652e-17 -0.812808665561543 0.5825307487059446
12644440000.0 -0.807968291172175 0.5892259672317235 4.529934543691607e-17 -5.991535906660678e-17 4.529934543691607e-17 -5.991535906660678e-17 -0.8079686606698417 0.5892254605626162
12645057333.333334 -0.8030731424559466 0.5958804644102501 4.478874496927167e-17 -6.027972980290229e-17 4.478874496927167e-17 -6.027972980290229e-17 -0.8030735161083392 0.5958799608354307
12645674666.666666 -0.7981231881641482 0.6024942958356881 4.4275220661084365e-17 -6.063975475271613e-17 4.4275220661084365e-17 -6.063975475271613e-17 -0.7981235659453612 0.6024937953892183
12646292000.0 -0.7931187661054798 0.6090670101484454 4.375880945411058e-17 -6.099541051465615e-17 4.375880945411058e-17 -6.099541051465615e-17 -0.793119147989331 0.609066512864172
12646909333.333334 -0.7880602178058538 0.6155981587948709 4.323954847689247e-17 -6.134667400097169e-17 4.323954847689247e-17 -6.134667400097169e-17 -0.788060603765882 0.6155976647064203
12647526666.666666 -0.7829478884850172 0.6220872960579552 4.271747504207497e-17 -6.169352243905546e-17 4.271747504207497e-17 -6.169352243905546e-17 -0.782948278494486 0.6220868051987326
12648144000.0 -0.7777821270329573 0.6285339790877931 4.219262664374649e-17 -6.20359333728986e-17 4.219262664374649e-17 -6.20359333728986e-17 -0.7777825210648561 0.6285334914909799
12648761333.333334 -0.7725632859861071 0.6349377679317819 4.1665040954757374e-17 -6.237388466453058e-17 4.1665040954757374e-17 -6.237388466453058e-17 -0.7725636840131542 0.6349372836303344
12649378666.666666 -0.7672917215033972 0.6412982255645165 4.113475582401995e-17 -6.270735449544111e-17 4.113475582401995e-17 -6.270735449544111e-17 -0.7672921234980409 0.6412977445911625
12649996000.0 -0.7619677933418054 0.647614917917789 4.06018092738044e-17 -6.303632136797434e-17 4.06018092738044e-17 -6.303632136797434e-17 -0.7619681992762251 0.6476144403050255
12650613333.333334 -0.756591864831802 0.6538874139102093 4.006623949702174e-17 -6.336076410670144e-17 4.006623949702174e-17 -6.336076410670144e-17 -0.7565922746779117 0.6538869396903015
12651230666.666666 -0.7511643028527403 0.6601152854764092 3.952808485449809e-17 -6.368066185976931e-17 3.952808485449809e-17 -6.368066185976931e-17 -0.75116471658219 0.6601148146813874
12651848000.0 -0.7456854778075607 0.6662981075965584 3.8987383872228755e-17 -6.399599410023115e-17 3.8987383872228755e-17 -6.399599410023115e-17 -0.7456858953917376 0.6662976402582163
12652465333.333334 -0.7401557635977147 0.6724354583251313 3.84441752386405e-17 -6.430674062734348e-17 3.84441752386405e-17 -6.430674062734348e-17 -0.740156185007746 0.6724349944750229
12653082666.666666 -0.7345755375975758 0.67852691881979 3.789849780182715e-17 -6.461288156784977e-17 3.789849780182715e-17 -6.461288156784977e-17 -0.7345759628043311 0.6785264584892294
12653700000.0 -0.7289451806286078 0.6845720733700515 3.735039056677277e-17 -6.491439737724104e-17 3.735039056677277e-17 -6.491439737724104e-17 -0.7289456096026993 0.6845716165901085
12654317333.333334 -0.7232650769335881 0.6905705094254285 3.679989269259342e-17 -6.521126884097834e-17 3.679989269259342e-17 -6.521126884097834e-17 -0.7232655096453744 0.690570056226928
12654934666.666666 -0.717535614150133 0.6965218176238535 3.6247043489724206e-17 -6.550347707571574e-17 3.6247043489724206e-17 -6.550347707571574e-17 -0.7175360505697206 0.6965213680373729
12655552000.0 -0.7117571832843592 0.7024255918194905 3.5691882417132436e-17 -6.579100353048086e-17 3.5691882417132436e-17 -6.579100353048086e-17 -0.7117576233816038 0.7024251458753572
12656169333.333334 -0.7059301786843187 0.70828142911033 3.513444907952156e-17 -6.607382998783157e-17 3.513444907952156e-17 -6.607382998783157e-17 -0.7059306224288293 0.7082809868386215
12656786666.666666 -0.7000549980128307 0.7140889298659523 3.457478322449046e-17 -6.635193856500823e-17 3.457478322449046e-17 -6.635193856500823e-17 -0.7000554453739695 0.7140884912964913
12657404000.0 -0.6941320422205599 0.7198476977545741 3.401292473972885e-17 -6.662531171503806e-17 3.401292473972885e-17 -6.662531171503806e-17 -0.6941324931674451 0.7198472629169276
12658021333.333334 -0.6881617155185542 0.7255573397701978 3.3448913650174026e-17 -6.689393222783162e-17 3.3448913650174026e-17 -6.689393222783162e-17 -0.6881621700200631 0.725556908693676
12658638666.666666 -0.6821444253507012 0.7312174662593931 3.288279011517236e-17 -6.71577832312488e-17 3.288279011517236e-17 -6.71577832312488e-17 -0.6821448833754715 0.731217038973047
12659256000.0 -0.6760805823658388 0.7368276909479672 3.2314594425620964e-17 -6.741684819214584e-17 3.2314594425620964e-17 -6.741684819214584e-17 -0.6760810438822699 0.7368272674805848
12659873333.333334 -0.6699706003898336 0.7423876309672273 3.174436700112068e-17 -6.76711109173899e-17 3.174436700112068e-17 -6.76711109173899e-17 -0.6699710653660903 0.7423872113473344
12660490666.666666 -0.6638148963973817 0.7478969068800716 3.1172148387103786e-17 -6.792055555485721e-17 3.1172148387103786e-17 -6.792055555485721e-17 -0.6638153648013967 0.7478964911359289
12661108000.0 -0.6576138904832606 0.753355142707154 3.0597979251952065e-17 -6.816516659440798e-17 3.0597979251952065e-17 -6.816516659440798e-17 -0.657614362282734 0.7533547308667538
12661725333.333334 -0.6513680058340775 0.7587619659521573 3.002190038413669e-17 -6.840492886882432e-17 3.002190038413669e-17 -6.840492886882432e-17 -0.6513684809964823 0.7587615580432238
12662342666.666666 -0.6450776686990971 0.7641170076274861 2.944395268930215e-17 -6.863982755474521e-17 2.944395268930215e-17 -6.863982755474521e-17 -0.6450781471916796 0.7641166036774723
12662960000.0 -0.6387433083611908 0.7694199022794035 2.8864177187391786e-17 -6.886984817355577e-17 2.8864177187391786e-17 -6.886984817355577e-17 -0.6387437901509732 0.7694195023154893
12663577333.333334 -0.6323653571076492 0.7746702880128816 2.8282615009737266e-17 -6.909497659226488e-17 2.8282615009737266e-17 -6.909497659226488e-17 -0.632365842161432 0.7746698920619728
12664194666.666666 -0.6259442502006174 0.7798678065163561 2.769930739614363e-17 -6.931519902435798e-17 2.769930739614363e-17 -6.931519902435798e-17 -0.6259447384849814 0.7798674146050811
12664812000.0 -0.6194804258473228 0.7850121030862296 2.711429569198502e-17 -6.953050203061708e-17 2.711429569198502e-17 -6.953050203061708e-17 -0.6194809173286319 0.7850117152409397
12665429333.333334 -0.6129743251702798 0.7901028266509906 2.652762134527507e-17 -6.974087251992526e-17 2.652762134527507e-17 -6.974087251992526e-17 -0.612974819814683 0.7901024428977567
12666046666.666666 -0.6064263921772102 0.7951396297951561 2.5939325903742953e-17 -6.994629775004168e-17 2.5939325903742953e-17 -6.994629775004168e-17 -0.6064268899506435 0.7951392501597664
12666664000.0 -0.5998370737305387 0.8001221687831367 2.534945101188944e-17 -7.014676532835644e-17 2.534945101188944e-17 -7.014676532835644e-17 -0.5998375745987287 0.8001217932910969
12667281333.333334 -0.5932068195171218 0.8050501035825207 2.4758038408069704e-17 -7.034226321261032e-17 2.4758038408069704e-17 -7.034226321261032e-17 -0.593207323445586 0.8050497322590507
12667898666.666666 -0.5865360820174691 0.8099230978873496 2.416512992152255e-17 -7.053277971160636e-17 2.416512992152255e-17 -7.053277971160636e-17 -0.5865365889715215 0.809922730757384
12668516000.0 -0.5798253164747963 0.8147408191411217 2.3570767469432352e-17 -7.071830348588299e-17 2.3570767469432352e-17 -7.071830348588299e-17 -0.5798258264195465 0.8147404562293048
12669133333.333334 -0.5730749808640933 0.819502938559383 2.2974993053986354e-17 -7.089882354836326e-17 2.2974993053986354e-17 -7.089882354836326e-17 -0.5730754937644496 0.8195025798900685
12669750666.666666 -0.5662855358607768 0.8242091311522328 2.2377848759388836e-17 -7.107432926499183e-17 2.2377848759388836e-17 -7.107432926499183e-17 -0.5662860516814502 0.8242087767494831
12670368000.0 -0.5594574448092773 0.828859075746487 2.1779376748916908e-17 -7.124481035533111e-17 2.1779376748916908e-17 -7.124481035533111e-17 -0.5594579635147829 0.8288587256340717
