! Parameters = {f0=12700.012000; bw=77.238000; Q=6100.000000; N=10; m_0_1=1.274169; m_1_1=0.347792; m_1_2=1.108981; m_2_2=0.347143; m_2_3=0.745944; m_2_8=0.000772; m_2_9=0.037476; m_3_3=0.345206; m_3_4=0.634473; m_3_7=0.001372; m_3_8=-0.095716; m_3_9=0.000772; m_4_4=0.342281; m_4_5=0.470808; m_4_6=0.004889; m_4_7=-0.116265; m_4_8=0.001372; m_5_5=0.342663; m_5_6=0.878163; m_5_7=0.004889; m_6_6=0.342662; m_6_7=0.471150; m_7_7=0.342295; m_7_8=0.634591; m_8_8=0.345204; m_8_9=0.746257; m_9_9=0.347138; m_9_10=1.110059; m_10_10=0.347782; m_10_11=1.274964}
!
! Created with skrf (http://scikit-rf.org).
# Hz S RI R 50.0 
!freq ReS11 ImS11 ReS21 ImS21 ReS12 ImS12 ReS22 ImS22
12607400000.0 -0.18092283151088756 -0.9834972948808276 5.107607469025982e-17 1.0056670445874831e-16 5.107607469025982e-17 1.0056670445874831e-16 -0.18092217128867066 -0.9834974163341841
12608017333.333334 -0.19138288838067521 -0.9815154558308761 5.214247021968801e-17 9.999303933662616e-17 5.214247021968801e-17 9.999303933662616e-17 -0.19138222952112524 -0.9815155842997834
12608634666.666666 -0.20182125382032046 -0.9794223713527362 5.320243909090989e-17 9.94080753815138e-17 5.320243909090989e-17 9.94080753815138e-17 -0.2018205963979758 -0.9794225068219476
12609252000.0 -0.2122367447405354 -0.9772182786776784 5.425586168720816e-17 9.881188442002879e-17 5.425586168720816e-17 9.881188442002879e-17 -0.21223608882976416 -0.9772184211311546
12609869333.333334 -0.2226281806446978 -0.9749034276186815 5.530261919288224e-17 9.820453954405582e-17 5.530261919288224e-17 9.820453954405582e-17 -0.22262752631968996 -0.9749035770395953
12610486666.666666 -0.23299438376240067 -0.9724780805421797 5.634259360659503e-17 9.758611510184607e-17 5.634259360659503e-17 9.758611510184607e-17 -0.23299373109715846 -0.9724782369129128
12611104000.0 -0.24333417918341052 -0.96994251233821 5.737566775467916e-17 9.695668668894185e-17 5.737566775467916e-17 9.695668668894185e-17 -0.24333352825174126 -0.9699426756403602
12611721333.333334 -0.253646394990335 -0.9672970103893783 5.840172530427145e-17 9.631633113900409e-17 5.840172530427145e-17 9.631633113900409e-17 -0.25364574586584254 -0.9672971806037598
12612338666.666666 -0.26392986239175353 -0.9645418745382145 5.942065077641052e-17 9.566512651446039e-17 5.942065077641052e-17 9.566512651446039e-17 -0.2639292151478292 -0.9645420516448587
12612956000.0 -0.27418341585468603 -0.9616774170531814 6.043232955900683e-17 9.500315209703083e-17 6.043232955900683e-17 9.500315209703083e-17 -0.27418277056450113 -0.9616776010313416
12613573333.333334 -0.2844058932364771 -0.9587039625933459 6.143664791966969e-17 9.433048837814047e-17 6.143664791966969e-17 9.433048837814047e-17 -0.2844052499729745 -0.9587041534214986
12614190666.666666 -0.2945961359166786 -0.9556218481715375 6.243349301850651e-17 9.364721704914723e-17 6.243349301850651e-17 9.364721704914723e-17 -0.2945954947525638 -0.955622045827384
12614808000.0 -0.30475298892839353 -0.952431423116138 6.342275292074641e-17 9.295342099147755e-17 6.342275292074641e-17 9.295342099147755e-17 -0.3047523499361279 -0.9524316275766099
12615425333.333334 -0.31487530108910167 -0.9491330490315201 6.440431660928486e-17 9.224918426661081e-17 6.440431660928486e-17 9.224918426661081e-17 -0.31487466434089223 -0.9491332602727778
12616042666.666666 -0.32496192513115874 -0.9457270997570454 6.537807399711157e-17 9.153459210593417e-17 6.537807399711157e-17 9.153459210593417e-17 -0.3249612906989522 -0.9457273177544853
12616660000.0 -0.3350117178318318 -0.9422139613247017 6.634391593963002e-17 9.080973090046608e-17 6.634391593963002e-17 9.080973090046608e-17 -0.33501108578730454 -0.9422141860529553
12617277333.333334 -0.34502354014292325 -0.9385940319153254 6.730173424685216e-17 9.007468819045642e-17 6.730173424685216e-17 9.007468819045642e-17 -0.3450229105574744 -0.9385942633482646
12617894666.666666 -0.3549962573196327 -0.9348677218135608 6.825142169548985e-17 8.932955265485212e-17 6.825142169548985e-17 8.932955265485212e-17 -0.35499563026437536 -0.9348679599242993
12618512000.0 -0.364928739049621 -0.9310354533611892 6.919287204094426e-17 8.85744141006227e-17 6.919287204094426e-17 8.85744141006227e-17 -0.36492811459537566 -0.9310356981220896
12619129333.333334 -0.3748198595806444 -0.9270976609094471 7.012598002912857e-17 8.780936345200066e-17 7.012598002912857e-17 8.780936345200066e-17 -0.37481923779792836 -0.927097912292117
12619746666.666666 -0.3846684978484365 -0.9230547907696758 7.105064140822862e-17 8.703449273955073e-17 7.105064140822862e-17 8.703449273955073e-17 -0.38466787880745845 -0.9230550487449775
12620364000.0 -0.3944735376037972 -0.9189073011627275 7.196675294031916e-17 8.624989508913638e-17 7.196675294031916e-17 8.624989508913638e-17 -0.3944729213744479 -0.9189075657007785
12620981333.333334 -0.4042338675387685 -0.9146556621671744 7.287421241283885e-17 8.54556647107809e-17 7.287421241283885e-17 8.54556647107809e-17 -0.404233254190613 -0.9146559332373512
12621598666.666666 -0.4139483814130084 -0.9103003556658502 7.377291864997735e-17 8.465189688737938e-17 7.377291864997735e-17 8.465189688737938e-17 -0.4139477710152787 -0.9103006332367919
12622216000.0 -0.42361597817893876 -0.9058418752913355 7.46627715239261e-17 8.383868796330171e-17 7.46627715239261e-17 8.383868796330171e-17 -0.42361537080052597 -0.9058421593309486
12622833333.333334 -0.4332355621066157 -0.9012807263699741 7.554367196599652e-17 8.301613533288368e-17 7.554367196599652e-17 8.301613533288368e-17 -0.4332349578160612 -0.9012810168454332
12623450666.666666 -0.4428060429078421 -0.8966174258646333 7.641552197760995e-17 8.218433742880446e-17 7.641552197760995e-17 8.218433742880446e-17 -0.4428054417733315 -0.8966177227423888
12624068000.0 -0.4523263358597699 -0.8918525023161048 7.727822464117907e-17 8.134339371033186e-17 7.727822464117907e-17 8.134339371033186e-17 -0.45232573794912395 -0.8918528055618836
12624685333.333334 -0.46179536192801873 -0.8869864957831051 7.813168413085261e-17 8.049340465145943e-17 7.813168413085261e-17 8.049340465145943e-17 -0.4617947673086866 -0.8869868053619164
12625302666.666666 -0.47121204788862064 -0.8820199577812479 7.897580572309442e-17 7.963447172896811e-17 7.897580572309442e-17 7.963447172896811e-17 -0.4712114566276714 -0.8820202736573863
12625920000.0 -0.4805753264500623 -0.8769534512203252 7.981049580721057e-17 7.876669741029789e-17 7.981049580721057e-17 7.876669741029789e-17 -0.48057473861417777 -0.8769537733573743
12626537333.333334 -0.489884136373925 -0.8717875503406756 8.063566189565622e-17 7.789018514139855e-17 8.063566189565622e-17 7.789018514139855e-17 -0.48988355202939304 -0.8717878787015149
12627154666.666666 -0.4991374225952208 -0.866522840648083 8.14512126342656e-17 7.700503933441566e-17 8.14512126342656e-17 7.700503933441566e-17 -0.4991368418079264 -0.8665231751948884
12627772000.0 -0.508334136342267 -0.86115991884724 8.225705781234393e-17 7.611136535527169e-17 8.225705781234393e-17 7.611136535527169e-17 -0.508333559177686 -0.8611602595414911
12628389333.333334 -0.5174732352551114 -0.8556993927743727 8.30531083725812e-17 7.520926951118924e-17 8.30531083725812e-17 7.520926951118924e-17 -0.5174726617783028 -0.8556997395768566
12629006666.666666 -0.5265536835040688 -0.8501418813281227 8.383927642089378e-17 7.429885903804048e-17 8.383927642089378e-17 7.429885903804048e-17 -0.5265531137796666 -0.8501422341989366
12629624000.0 -0.5355744519068495 -0.8444880143995539 8.461547523606132e-17 7.338024208766716e-17 8.461547523606132e-17 7.338024208766716e-17 -0.5355738859990566 -0.8444883732981122
12630241333.333334 -0.54453451804538 -0.838738432800661 8.538161927928299e-17 7.245352771503672e-17 8.538161927928299e-17 7.245352771503672e-17 -0.5445339560179611 -0.8387387976856995
12630858666.666666 -0.5534328663814445 -0.8328937881918927 8.613762420354698e-17 7.15188258653515e-17 8.613762420354698e-17 7.15188258653515e-17 -0.553432308297717 -0.8328941590214711
12631476000.0 -0.5622684883721918 -0.8269547430080284 8.688340686290464e-17 7.057624736100741e-17 8.688340686290464e-17 7.057624736100741e-17 -0.5622679342950206 -0.8269551197395378
12632093333.333334 -0.5710403825840384 -0.8209219703833603 8.761888532155387e-17 6.962590388851534e-17 8.761888532155387e-17 6.962590388851534e-17 -0.5710398325758286 -0.8209223529735276
12632710666.666666 -0.57974755480634 -0.8147961540752954 8.834397886280629e-17 6.866790798529647e-17 8.834397886280629e-17 6.866790798529647e-17 -0.5797470089290293 -0.8147965424801873
12633328000.0 -0.5883890181641923 -0.808577988386774 8.905860799793914e-17 6.770237302634671e-17 8.905860799793914e-17 6.770237302634671e-17 -0.5883884764792431 -0.8085783825618013
12633945333.333334 -0.5969637932300929 -0.802268178087703 8.97626944748263e-17 6.672941321090787e-17 8.97626944748263e-17 6.672941321090787e-17 -0.5969632557984879 -0.802268577987629
12634562666.666666 -0.6054709081349798 -0.7958674383350701 9.045616128650015e-17 6.574914354895157e-17 9.045616128650015e-17 6.574914354895157e-17 -0.6054703750172131 -0.7958678439140123
12635180000.0 -0.6139093986784947 -0.7893764945917962 9.113893267952246e-17 6.476167984762933e-17 9.113893267952246e-17 6.476167984762933e-17 -0.6139088699345658 -0.7893769058032339
12635797333.333334 -0.6222783084381981 -0.7827960825445652 9.181093416222466e-17 6.376713869761707e-17 9.181093416222466e-17 6.376713869761707e-17 -0.6222777841276048 -0.7827964993413433
12636414666.666666 -0.6305766888779032 -0.7761269480204923 9.24720925127877e-17 6.276563745938974e-17 9.24720925127877e-17 6.276563745938974e-17 -0.6305761690596343 -0.7761273703548267
12637032000.0 -0.6388035994553393 -0.7693698469024675 9.312233578719226e-17 6.175729424938382e-17 9.312233578719226e-17 6.175729424938382e-17 -0.6388030841878705 -0.7693702747259529
12637649333.333334 -0.646958107728577 -0.7625255450436279 9.376159332699224e-17 6.074222792611754e-17 9.376159332699224e-17 6.074222792611754e-17 -0.6469575970698612 -0.7625259783072406
12638266666.666666 -0.6550392894618663 -0.7555948181804296 9.438979576696386e-17 5.972055807619204e-17 9.438979576696386e-17 5.972055807619204e-17 -0.6550387834693286 -0.755595256834534
12638884000.0 -0.6630462287302994 -0.7485784518447947 9.500687504258259e-17 5.869240500024232e-17 9.500687504258259e-17 5.869240500024232e-17 -0.6630457274608311 -0.7485788958391496
12639501333.333334 -0.6709780180236691 -0.7414772412750462 9.561276439735909e-17 5.765788969879651e-17 9.561276439735909e-17 5.765788969879651e-17 -0.6709775215336192 -0.7414776905588093
12640118666.666666 -0.6788337583491934 -0.7342919913258831 9.620739839000742e-17 5.66171338580809e-17 9.620739839000742e-17 5.66171338580809e-17 -0.6788332666943662 -0.7342924458476194
12640736000.0 -0.6866125593337742 -0.7270235163768414 9.67907129014965e-17 5.557025983568915e-17 9.67907129014965e-17 5.557025983568915e-17 -0.6866120725694179 -0.7270239760845248
12641353333.333334 -0.6943135393243179 -0.7196726402405208 9.736264514187451e-17 5.451739064630312e-17 9.736264514187451e-17 5.451739064630312e-17 -0.6943130575051224 -0.7196731050815444
12641970666.666666 -0.7019358254882306 -0.7122401960686993 9.792313365702519e-17 5.345864994719237e-17 9.792313365702519e-17 5.345864994719237e-17 -0.7019353486683202 -0.7122406659898792
12642588000.0 -0.7094785539120528 -0.7047270262581714 9.847211833520242e-17 5.239416202375825e-17 9.847211833520242e-17 5.239416202375825e-17 -0.7094780821449799 -0.704727501205753
12643205333.333334 -0.716940869699418 -0.6971339823552327 9.900954041343302e-17 5.1324051774967e-17 9.900954041343302e-17 5.1324051774967e-17 -0.7169404030381561 -0.6971344622748966
12643822666.666666 -0.7243219270680256 -0.6894619249590836 9.953534248376476e-17 5.024844469871252e-17 9.953534248376476e-17 5.024844469871252e-17 -0.7243214655649661 -0.6894624097959535
12644440000.0 -0.7316208894454236 -0.6817117236243705 1.0004946849934193e-16 4.916746687714079e-17 1.0004946849934193e-16 4.916746687714079e-17 -0.7316204331523669 -0.6817122133230168
12645057333.333334 -0.7388369295637685 -0.6738842567626923 1.0055186378033307e-16 4.808124496189343e-17 1.0055186378033307e-16 4.808124496189343e-17 -0.7388364785319198 -0.6738847512671403
12645674666.666666 -0.7459692295537055 -0.6659804115429176 1.0104247501968994e-16 4.6989906159308253e-17 1.0104247501968994e-16 4.6989906159308253e-17 -0.745968783833669 -0.6659809107966537
12646292000.0 -0.7530169810371216 -0.6580010837905678 1.0152125028876871e-16 4.5893578215512934e-17 1.0152125028876871e-16 4.5893578215512934e-17 -0.7530165406788942 -0.6580015877365452
12646909333.333334 -0.759979385218558 -0.6499471778865152 1.0198813904275102e-16 4.479238940154872e-17 1.0198813904275102e-16 4.479238940154872e-17 -0.7599789502715243 -0.6499476864671612
12647526666.666666 -0.7668556529758617 -0.6418196066643553 1.0244309212593985e-16 4.3686468498358686e-17 1.0244309212593985e-16 4.3686468498358686e-17 -0.766855223488788 -0.6418201198215776
12648144000.0 -0.7736450049497157 -0.6336192913068361 1.0288606177687782e-16 4.257594478175784e-17 1.0288606177687782e-16 4.257594478175784e-17 -0.7736445809707453 -0.6336198089820295
12648761333.333334 -0.7803466716318245 -0.625347161241624 1.0331700163329931e-16 4.14609480073608e-17 1.0331700163329931e-16 4.14609480073608e-17 -0.7803462532084705 -0.6253476833756763
12649378666.666666 -0.7869598934521486 -0.6170041540359406 1.0373586673692574e-16 4.034160839544563e-17 1.0373586673692574e-16 4.034160839544563e-17 -0.7869594806312916 -0.6170046805692407
12649996000.0 -0.7934839208650879 -0.6085912152901897 1.041426135380974e-16 3.921805661577006e-17 1.041426135380974e-16 3.921805661577006e-17 -0.7934835136929685 -0.6085917461626342
12650613333.333334 -0.799918014434395 -0.6001092985308245 1.0453719990024335e-16 3.8090423772335953e-17 1.0453719990024335e-16 3.8090423772335953e-17 -0.7999176129566082 -0.6001098336818231
12651230666.666666 -0.8062614449168476 -0.5915593651024558 1.0491958510417388e-16 3.6958841388141913e-17 1.0491958510417388e-16 3.6958841388141913e-17 -0.806261049178339 -0.5915599044709396
12651848000.0 -0.8125134933451751 -0.5829423840585307 1.0528972985223016e-16 3.582344138983784e-17 1.0528972985223016e-16 3.582344138983784e-17 -0.8125131033902359 -0.5829429275829593
12652465333.333334 -0.8186734511093234 -0.5742593320517938 1.0564759627224546e-16 3.468435609239774e-17 1.0564759627224546e-16 3.468435609239774e-17 -0.8186730669815853 -0.5742598796701611
12653082666.666666 -0.8247406200367928 -0.5655111932235736 1.0599314792135271e-16 3.3541718183727956e-17 1.0599314792135271e-16 3.3541718183727956e-17 -0.8247402417792215 -0.5655117448734157
12653700000.0 -0.8307143124719408 -0.55669895909198 1.0632634978963349e-16 3.239566070920428e-17 1.0632634978963349e-16 3.239566070920428e-17 -0.8307139401268335 -0.5566995147103824
12654317333.333334 -0.8365938513536375 -0.5478236284399494 1.0664716830357543e-16 3.124631705626213e-17 1.0664716830357543e-16 3.124631705626213e-17 -0.836593484962617 -0.5478241879635539
12654934666.666666 -0.8423785702922576 -0.5388862072016655 1.0695557132939354e-16 3.009382093885033e-17 1.0695557132939354e-16 3.009382093885033e-17 -0.8423782098962677 -0.5388867705666773
12655552000.0 -0.8480678136451426 -0.5298877083486381 1.0725152817616551e-16 2.8938306381913744e-17 1.0725152817616551e-16 2.8938306381913744e-17 -0.8480674592844445 -0.5298882754908341
12656169333.333334 -0.8536609365907921 -0.520829151775086 1.0753500959879785e-16 2.777990770585873e-17 1.0753500959879785e-16 2.777990770585873e-17 -0.8536605883049585 -0.5208297226298205
12656786666.666666 -0.8591573052020992 -0.5117115641821004 1.0780598780083801e-16 2.6618759510935374e-17 1.0780598780083801e-16 2.6618759510935374e-17 -0.85915696303001 -0.5117121386843132
12657404000.0 -0.8645562965181371 -0.5025359789613739 1.0806443643710792e-16 2.545499666163663e-17 1.0806443643710792e-16 2.545499666163663e-17 -0.8645559604979769 -0.5025365570455986
12658021333.333334 -0.8698572986147424 -0.49330343607812654 1.0831033061617095e-16 2.4288754271066872e-17 1.0831033061617095e-16 2.4288754271066872e-17 -0.8698569687839933 -0.49330401767849624
12658638666.666666 -0.8750597106738817 -0.48401498195321 1.085436469026332e-16 2.3120167685278865e-17 1.085436469026332e-16 2.3120167685278865e-17 -0.8750593870693214 -0.48401556700346615
12659256000.0 -0.8801629430518337 -0.4746716693443574 1.0876436331927793e-16 2.194937246757428e-17 1.0876436331927793e-16 2.194937246757428e-17 -0.8801626257095305 -0.4746722577778567
12659873333.333334 -0.885166417345906 -0.4652745572270603 1.089724593490235e-16 2.0776504382828772e-17 1.089724593490235e-16 2.0776504382828772e-17 -0.885166106301216 -0.4652751489767831
12660490666.666666 -0.8900695664599981 -0.4558247106745473 1.0916791593671752e-16 1.9601699381775282e-17 1.0916791593671752e-16 1.9601699381775282e-17 -0.8900692617475588 -0.4558253056731042
12661108000.0 -0.8948718346690168 -0.4463232007367894 1.0935071549076671e-16 1.8425093585240847e-17 1.0935071549076671e-16 1.8425093585240847e-17 -0.8948715363227454 -0.4463237989164294
12661725333.333334 -0.8995726776816281 -0.43677110431956084 1.095208418845855e-16 1.7246823268441492e-17 1.095208418845855e-16 1.7246823268441492e-17 -0.8995723857347171 -0.4367717056121794
12662342666.666666 -0.9041715627021719 -0.42716950406195464 1.0967828045788616e-16 1.606702484520337e-17 1.0967828045788616e-16 1.606702484520337e-17 -0.9041712771870856 -0.42717010839910063
12662960000.0 -0.9086679684909266 -0.41751948821389984 1.0982301801779557e-16 1.488583485219256e-17 1.0982301801779557e-16 1.488583485219256e-17 -0.9086676894393954 -0.41752009552678354
12663577333.333334 -0.913061385423216 -0.4078221505127705 1.0995504283980156e-16 1.3703389933149512e-17 1.0995504283980156e-16 1.3703389933149512e-17 -0.9130611128662371 -0.40782276073227247
12664194666.666666 -0.9173513155471834 -0.3980785900593953 1.1007434466853114e-16 1.2519826823104753e-17 1.1007434466853114e-16 1.2519826823104753e-17 -0.9173510495150132 -0.39807920311607253
12664812000.0 -0.921537272640179 -0.3882899111935867 1.101809147183591e-16 1.1335282332593379e-17 1.101809147183591e-16 1.1335282332593379e-17 -0.9215370131623332 -0.3882905270176824
12665429333.333334 -0.9256187822639542 -0.3784572233687951 1.1027474567384697e-16 1.0149893331860686e-17 1.1027474567384697e-16 1.0149893331860686e-17 -0.9256185293692009 -0.3784578418902448
12666046666.666666 -0.9295953818183293 -0.36858164102659596 1.1035583169001088e-16 8.963796735101688e-18 1.1035583169001088e-16 8.963796735101688e-18 -0.9295951355346889 -0.36858226217503665
12666664000.0 -0.933466620593757 -0.3586642834700639 1.104241683924249e-16 7.777129484620024e-18 1.104241683924249e-16 7.777129484620024e-18 -0.933466380948498 -0.3586649071748419
12667281333.333334 -0.9372320598222676 -0.3487062747372532 1.1047975287714817e-16 6.590028535099744e-18 1.1047975287714817e-16 6.590028535099744e-18 -0.9372318268419028 -0.34870690092743156
12667898666.666666 -0.9408912727272644 -0.33870874347364066 1.1052258371048822e-16 5.4026308377906986e-18 1.1052258371048822e-16 5.4026308377906986e-18 -0.9408910464375488 -0.3387093720780081
12668516000.0 -0.9444438445719499 -0.32867282280404375 1.1055266092859253e-16 4.2150733247350424e-18 1.1055266092859253e-16 4.2150733247350424e-18 -0.9444436249978784 -0.32867345375112206
12669133333.333334 -0.9478893727062083 -0.3185996502045392 1.1056998603687073e-16 3.0274928930303956e-18 1.1056998603687073e-16 3.0274928930303956e-18 -0.9478891598720116 -0.31860028342259167
12669750666.666666 -0.9512274666123465 -0.3084903673732461 1.1057456200924947e-16 1.8400263890402996e-18 1.1057456200924947e-16 1.8400263890402996e-18 -0.95122726054149 -0.30849100279028596
12670368000.0 -0.9544577479493265 -0.29834612010100636 1.1056639328725667e-16 6.528105926763784e-19 1.1056639328725667e-16 6.528105926763784e-19 -0.9544575486645052 -0.29834675764480395
