! Parameters = {f0=12700.012000; bw=77.238000; Q=6100.000000; N=10; m_0_1=1.346441; m_1_1=1.431876; m_1_2=1.181253; m_2_2=1.431227; m_2_3=0.818216; m_2_8=0.004386; m_2_9=0.041090; m_3_3=1.429290; m_3_4=0.706745; m_3_7=0.004986; m_3_8=-0.092102; m_3_9=0.004386; m_4_4=1.426365; m_4_5=0.543080; m_4_6=0.008503; m_4_7=-0.112651; m_4_8=0.004986; m_5_5=1.426747; m_5_6=0.950435; m_5_7=0.008503; m_6_6=1.426746; m_6_7=0.543422; m_7_7=1.426379; m_7_8=0.706863; m_8_8=1.429288; m_8_9=0.818529; m_9_9=1.431222; m_9_10=1.182331; m_10_10=1.431866; m_10_11=1.347236}
!
! Created with skrf (http://scikit-rf.org).
# Hz S RI R 50.0 
!freq ReS11 ImS11 ReS21 ImS21 ReS12 ImS12 ReS22 ImS22
12607400000.0 0.13759354207748511 -0.9904887769068229 2.3391428633521527e-17 1.5479498716790392e-16 2.3391428633521527e-17 1.5479498716790392e-16 0.13759424456990474 -0.9904886793199807
12608017333.333334 0.12492146805952534 -0.9921666325863088 2.5376901580102832e-17 1.5445084524813474e-16 2.5376901580102832e-17 1.5445084524813474e-16 0.12492217170750078 -0.9921665439913219
12608634666.666666 0.11222898229377529 -0.9936823715519485 2.7357392998248477e-17 1.5408125049040147e-16 2.7357392998248477e-17 1.5408125049040147e-16 0.11222968698222538 -0.9936822919624126
12609252000.0 0.09951815869013582 -0.9950357461371558 2.9332576772091916e-17 1.5368627408360313e-16 2.9332576772091916e-17 1.5368627408360313e-16 0.09951886430382048 -0.9950356755651926
12609869333.333334 0.08679107415456411 -0.9962265352051702 3.130212779256696e-17 1.5326599139272092e-16 3.130212779256696e-17 1.5326599139272092e-16 0.08679178057810359 -0.9962264736614281
12610486666.666666 0.07404980825039316 -0.9972545441851249 3.326572201081168e-17 1.5282048194471132e-16 3.326572201081168e-17 1.5282048194471132e-16 0.07405051536828655 -0.9972544916787753
12611104000.0 0.061296442857745624 -0.9981196051039118 3.522303649151485e-17 1.5234982941368555e-16 3.522303649151485e-17 1.5234982941368555e-16 0.06129715055438991 -0.998119561642649
12611721333.333334 0.04853306183404102 -0.9988215766135685 3.7173749465840006e-17 1.5185412160545541e-16 3.7173749465840006e-17 1.5185412160545541e-16 0.04853376999374996 -0.9988215422036086
12612338666.666666 0.03576175067304714 -0.9993603440144103 3.911754038434392e-17 1.5133345044135513e-16 3.911754038434392e-17 1.5133345044135513e-16 0.035762459180070136 -0.9993603186604896
12612956000.0 0.02298459616428718 -0.9997358192737551 4.1054089969585357e-17 1.5078791194140568e-16 4.1054089969585357e-17 1.5078791194140568e-16 0.022985304902828234 -0.99973580297913
12613573333.333334 0.010203686052179143 -0.9999479410403075 4.298308026842557e-17 1.502176062068291e-16 4.298308026842557e-17 1.502176062068291e-16 0.010204394906415741 -0.9999479338067535
12614190666.666666 -0.002578891305265064 -0.9999966746541901 4.4904194704252456e-17 1.4962263740185088e-16 4.4904194704252456e-17 1.4962263740185088e-16 -0.0025781824511629807 -0.9999966764820023
12614808000.0 -0.015361047277556735 -0.9998820121526037 4.6817118128827125e-17 1.4900311373486988e-16 4.6817118128827125e-17 1.4900311373486988e-16 -0.015360338539407874 -0.999882023040597
12615425333.333334 -0.02814069330323292 -0.9996039722711265 4.8721536873925485e-17 1.4835914743895325e-16 4.8721536873925485e-17 1.4835914743895325e-16 -0.028139984796825737 -0.9996039922166361
12616042666.666666 -0.040915741230722655 -0.9991626004406604 5.061713880270584e-17 1.4769085475167424e-16 5.061713880270584e-17 1.4769085475167424e-16 -0.04091503307179636 -0.9991626294395402
12616660000.0 -0.053684103659998365 -0.9985579687799925 5.250361336080274e-17 1.469983558942948e-16 5.250361336080274e-17 1.469983558942948e-16 -0.053683395964224126 -0.998558006826619
12617277333.333334 -0.06644369428325253 -0.9977901760840281 5.438065162714716e-17 1.4628177505029364e-16 5.438065162714716e-17 1.4628177505029364e-16 -0.06644298716621448 -0.9977902231712995
12617894666.666666 -0.07919242822596392 -0.9968593478076426 5.624794636444673e-17 1.4554124034326584e-16 5.624794636444673e-17 1.4554124034326584e-16 -0.07919172180314035 -0.9968594039269809
12618512000.0 -0.09192822238772888 -0.9957656360451662 5.810519206949945e-17 1.447768838141269e-16 5.810519206949945e-17 1.447768838141269e-16 -0.09192751677447342 -0.9957657011865195
12619129333.333334 -0.10464899578229316 -0.9945092195055609 5.995208502299443e-17 1.439888413977584e-16 5.995208502299443e-17 1.439888413977584e-16 -0.10464829109381579 -0.9945092936574028
12619746666.666666 -0.11735266987774809 -0.993090303483206 6.178832333919563e-17 1.4317725289893967e-16 6.178832333919563e-17 1.4317725289893967e-16 -0.11735196622909648 -0.9930903866325397
12620364000.0 -0.13003716893632522 -0.9915091198243349 6.361360701521929e-17 1.423422619676791e-16 6.361360701521929e-17 1.423422619676791e-16 -0.1300364664423659 -0.9915092119566945
12620981333.333334 -0.14270042035316977 -0.9897659268891973 6.542763797990843e-17 1.4148401607395262e-16 6.542763797990843e-17 1.4148401607395262e-16 -0.1426997191285692 -0.9897660279886503
12621598666.666666 -0.15534035499544774 -0.9878610095097848 6.723012014252179e-17 1.406026664817508e-16 6.723012014252179e-17 1.406026664817508e-16 -0.1553396551546541 -0.9878611195589362
12622216000.0 -0.16795490753998607 -0.9857946789433574 6.902075944095471e-17 1.3969836822256196e-16 6.902075944095471e-17 1.3969836822256196e-16 -0.16795420919721007 -0.9857947979233516
12622833333.333334 -0.18054201681124435 -0.9835672728215042 7.07992638896611e-17 1.387712800682157e-16 7.07992638896611e-17 1.387712800682157e-16 -0.1805413200804407 -0.9835674007120273
12623450666.666666 -0.1930996261174312 -0.9811791550950879 7.256534362716605e-17 1.378215645031422e-16 7.256534362716605e-17 1.378215645031422e-16 -0.19309893111228035 -0.9811792918743732
12624068000.0 -0.20562568358728994 -0.9786307159746533 7.431871096327867e-17 1.3684938769599095e-16 7.431871096327867e-17 1.3684938769599095e-16 -0.20562499042117902 -0.9786308616194832
12624685333.333334 -0.21811814250497355 -0.9759223718667297 7.605908042589447e-17 1.3585491947066502e-16 7.605908042589447e-17 1.3585491947066502e-16 -0.21811745129097815 -0.9759225263524404
12625302666.666666 -0.23057496164436186 -0.9730545653058223 7.77861688073285e-17 1.348383332768109e-16 7.77861688073285e-17 1.348383332768109e-16 -0.23057427249522797 -0.9730547286063094
12625920000.0 -0.24299410560298032 -0.9700277648820217 7.949969521044713e-17 1.337998061596095e-16 7.949969521044713e-17 1.337998061596095e-16 -0.24299341863110488 -0.9700279369697405
12626537333.333334 -0.25537354513424276 -0.9668424651645021 8.119938109417696e-17 1.3273951872911168e-16 8.119938109417696e-17 1.3273951872911168e-16 -0.2553728604516566 -0.9668426460104772
12627154666.666666 -0.2677112574789726 -0.9634991866207412 8.288495031875957e-17 1.3165765512890772e-16 8.288495031875957e-17 1.3165765512890772e-16 -0.2677105751973211 -0.9634993761945678
12627772000.0 -0.28000522669640754 -0.9599984755313397 8.455612919058818e-17 1.3055440300421984e-16 8.455612919058818e-17 1.3055440300421984e-16 -0.2800045469269332 -0.9599986738011909
12628389333.333334 -0.29225344399299413 -0.9563409039009235 8.62126465064741e-17 1.2942995346952435e-16 8.62126465064741e-17 1.2942995346952435e-16 -0.29225276684651813 -0.9563411108335542
12629006666.666666 -0.30445390805105693 -0.9525270693645626 8.78542335976983e-17 1.282845010754723e-16 8.78542335976983e-17 1.282845010754723e-16 -0.30445323363796056 -0.9525272849253145
12629624000.0 -0.31660462535563993 -0.9485575950901546 8.94806243734337e-17 1.2711824377537988e-16 8.94806243734337e-17 1.2711824377537988e-16 -0.31660395378584794 -0.9485578192429656
12630241333.333334 -0.3287036105201357 -0.9444331296766483 9.109155536384901e-17 1.2593138289108542e-16 9.109155536384901e-17 1.2593138289108542e-16 -0.328702941903097 -0.9444333623840545
12630858666.666666 -0.3407488866107982 -0.9401543470480278 9.268676576267488e-17 1.2472412307832298e-16 9.268676576267488e-17 1.2472412307832298e-16 -0.34074822105546876 -0.9401545882711714
12631476000.0 -0.35273848546992703 -0.9357219463431345 9.426599746943284e-17 1.2349667229146772e-16 9.426599746943284e-17 1.2349667229146772e-16 -0.35273782308475166 -0.9357221960417698
12632093333.333334 -0.3646704480371371 -0.9311366518015475 9.582899513103017e-17 1.2224924174787613e-16 9.582899513103017e-17 1.2224924174787613e-16 -0.3646697889300322 -0.9311369099340482
12632710666.666666 -0.37654282466962313 -0.9263992126451871 9.737550618301809e-17 1.2098204589159946e-16 9.737550618301809e-17 1.2098204589159946e-16 -0.37654216894795944 -0.9263994791685541
12633328000.0 -0.3883536754608841 -0.9215104029558344 9.890528089036333e-17 1.1969530235658027e-16 9.890528089036333e-17 1.1969530235658027e-16 -0.3883530232314678 -0.9215106778256998
12633945333.333334 -0.40010107055732635 -0.9164710215487911 1.0041807238763922e-16 1.1838923192941296e-16 1.0041807238763922e-16 1.1838923192941296e-16 -0.4001004219263832 -0.9164713047194291
12634562666.666666 -0.41178309047401557 -0.9112818918421844 1.0191363671882222e-16 1.1706405851151961e-16 1.0191363671882222e-16 1.1706405851151961e-16 -0.41178244554717325 -0.9112821832665177
12635180000.0 -0.4233978264078987 -0.9059438617226062 1.0339173287655024e-16 1.15720009080858e-16 1.0339173287655024e-16 1.15720009080858e-16 -0.423397185290169 -0.9059441613522129
12635797333.333334 -0.4349433805501602 -0.9004578034063571 1.0485212284088994e-16 1.1435731365312301e-16 1.0485212284088994e-16 1.1435731365312301e-16 -0.4349427433459223 -0.900458111191479
12636414666.666666 -0.44641786639569964 -0.8948246132972172 1.0629457161756252e-16 1.1297620524249104e-16 1.0629457161756252e-16 1.1297620524249104e-16 -0.44641723320868326 -0.8948249291867694
12637032000.0 -0.4578194090521002 -0.8890452118396386 1.077188472757181e-16 1.1157691982182284e-16 1.077188472757181e-16 1.1157691982182284e-16 -0.4578187799853687 -0.8890455357812169
12637649333.333334 -0.46914614554536577 -0.8831205433686437 1.0912472098512304e-16 1.1015969628245163e-16 1.0912472098512304e-16 1.1015969628245163e-16 -0.469145520701299 -0.8831208753085332
12638266666.666666 -0.48039622512478086 -0.877051575955293 1.1051196705285197e-16 1.0872477639347437e-16 1.1051196705285197e-16 1.0872477639347437e-16 -0.4803956046050587 -0.8770519158384771
12638884000.0 -0.49156780956491475 -0.8708393012487178 1.1188036295943943e-16 1.072724047605875e-16 1.1188036295943943e-16 1.072724047605875e-16 -0.49156719347050054 -0.8708396490188871
12639501333.333334 -0.5026590734664304 -0.8644847343138419 1.1322968939449766e-16 1.0580282878446331e-16 1.1322968939449766e-16 1.0580282878446331e-16 -0.5026584618975548 -0.8644850899134047
12640118666.666666 -0.5136682045537053 -0.8579889134658886 1.1455973029175383e-16 1.0431629861871863e-16 1.1455973029175383e-16 1.0431629861871863e-16 -0.5136675976098506 -0.8579892768359801
12640736000.0 -0.5245934039718867 -0.8513529001001819 1.158702728636307e-16 1.0281306712733934e-16 1.158702728636307e-16 1.0281306712733934e-16 -0.5245928017517686 -0.8513532711806728
12641353333.333334 -0.5354328865797414 -0.8445777785193551 1.17161107635124e-16 1.0129338984183685e-16 1.17161107635124e-16 1.0129338984183685e-16 -0.5354322891812942 -0.8445781572488611
12641970666.666666 -0.5461848812422646 -0.8376646557556171 1.184320284772637e-16 9.97575249178146e-17 1.184320284772637e-16 9.97575249178146e-17 -0.5461842887626257 -0.8376650420715116
12642588000.0 -0.5568476311194522 -0.8306146613902609 1.19682832639916e-16 9.820573309122337e-17 1.19682832639916e-16 9.820573309122337e-17 -0.5568470436549462 -0.8306150552286836
12643205333.333334 -0.5674193939537445 -0.8234289473688475 1.2091332078404163e-16 9.66382776341731e-17 1.2091332078404163e-16 9.66382776341731e-17 -0.5674188115998667 -0.8234293486647158
12643822666.666666 -0.5778984423545607 -0.8161086878130722 1.2212329701339827e-16 9.505542431031409e-17 1.2212329701339827e-16 9.505542431031409e-17 -0.5778978652059622 -0.8161090965000904
12644440000.0 -0.5882830640804568 -0.8086550788289846 1.233125689056113e-16 9.345744132988507e-17 1.233125689056113e-16 9.345744132988507e-17 -0.5882824922309291 -0.8086554948396564
12645057333.333334 -0.5985715623190411 -0.801069338311451 1.244809475426905e-16 9.184459930433299e-17 1.244809475426905e-16 9.184459930433299e-17 -0.5985709958615002 -0.8010697615770896
12645674666.666666 -0.6087622559641332 -0.7933527057452205 1.2562824754094948e-16 9.02171712005596e-17 1.2562824754094948e-16 9.02171712005596e-17 -0.608761694990606 -0.7933531361959614
12646292000.0 -0.6188534798906358 -0.7855064420022623 1.2675428708036237e-16 8.857543229474515e-17 1.2675428708036237e-16 8.857543229474515e-17 -0.6188529244922435 -0.7855068795670731
12646909333.333334 -0.6288435852263362 -0.7775318291359473 1.2785888793321785e-16 8.691966012595116e-17 1.2785888793321785e-16 8.691966012595116e-17 -0.62884303549328 -0.7775322737426402
12647526666.666666 -0.6387309396214631 -0.7694301701714628 1.2894187549228452e-16 8.525013444920221e-17 1.2894187549228452e-16 8.525013444920221e-17 -0.638730395643011 -0.7694306217467078
12648144000.0 -0.6485139275154975 -0.7612027888928329 1.3000307879830783e-16 8.356713718829661e-17 1.3000307879830783e-16 8.356713718829661e-17 -0.648513389379968 -0.7612032473621676
12648761333.333334 -0.6581909504011 -0.7528510296266457 1.3104233056688016e-16 8.187095238829992e-17 1.3104233056688016e-16 8.187095238829992e-17 -0.6581904181958473 -0.7528514949144876
12649378666.666666 -0.6677604270850012 -0.7443762570226563 1.3205946721471113e-16 8.016186616767639e-17 1.3205946721471113e-16 8.016186616767639e-17 -0.6677599008964037 -0.7443767290523182
12649996000.0 -0.677220793946926 -0.7357798558303279 1.330543288852973e-16 7.844016667005794e-17 1.330543288852973e-16 7.844016667005794e-17 -0.6772202738603696 -0.7357803345240272
12650613333.333334 -0.6865705051946087 -0.7270632306729752 1.340267594739273e-16 7.670614401575623e-17 1.340267594739273e-16 7.670614401575623e-17 -0.6865699912944736 -0.727063715951848
12651230666.666666 -0.695808033116543 -0.7182278058181053 1.3497660665205336e-16 7.496009025297491e-17 1.3497660665205336e-16 7.496009025297491e-17 -0.695807525486192 -0.7182282976022211
12651848000.0 -0.7049318683316902 -0.7092750249446226 1.3590372189108817e-16 7.320229930861445e-17 1.3590372189108817e-16 7.320229930861445e-17 -0.7049313670534524 -0.7092755231529942
12652465333.333334 -0.7139405200360565 -0.7002063509069653 1.368079604854807e-16 7.143306693893006e-17 1.368079604854807e-16 7.143306693893006e-17 -0.7139400251912149 -0.7002068554575642
12653082666.666666 -0.7228325162460107 -0.6910232654963677 1.3768918157519102e-16 6.965269067983842e-17 1.3768918157519102e-16 6.965269067983842e-17 -0.7228320279147902 -0.6910237763061375
12653700000.0 -0.7316064040393213 -0.6817272691982164 1.38547248167557e-16 6.786146979686948e-17 1.38547248167557e-16 6.786146979686948e-17 -0.7316059223008736 -0.6817277861830855
12654317333.333334 -0.7402607497920789 -0.67231988094736 1.393820271584179e-16 6.605970523503986e-17 1.393820271584179e-16 6.605970523503986e-17 -0.7402602747244722 -0.6723204040222572
12654934666.666666 -0.7487941394132652 -0.6628026378795961 1.4019338935268e-16 6.424769956827928e-17 1.4019338935268e-16 6.424769956827928e-17 -0.7487936710934694 -0.6628031669584626
12655552000.0 -0.7572051785756865 -0.6531770950806267 1.4098120948418614e-16 6.242575694868496e-17 1.4098120948418614e-16 6.242575694868496e-17 -0.7572047170795615 -0.6531776300764316
12656169333.333334 -0.7654924929437319 -0.6434448253320516 1.4174536623489672e-16 6.059418305560706e-17 1.4174536623489672e-16 6.059418305560706e-17 -0.7654920383460154 -0.6434453661568055
12656786666.666666 -0.7736547283980465 -0.6336074188542524 1.424857422534768e-16 5.875328504434921e-17 1.424857422534768e-16 5.875328504434921e-17 -0.7736542807723421 -0.6336079654190221
12657404000.0 -0.781690551256719 -0.6236664830466442 1.4320222417316536e-16 5.690337149476417e-17 1.4320222417316536e-16 5.690337149476417e-17 -0.7816901106754836 -0.6236670352615674
12658021333.333334 -0.7895986484933403 -0.6136236422248527 1.4389470262900301e-16 5.5044752359578184e-17 1.4389470262900301e-16 5.5044752359578184e-17 -0.7895982150278729 -0.6136241999991526
12658638666.666666 -0.7973777279512997 -0.6034805373556172 1.4456307227436728e-16 5.317773891256467e-17 1.4456307227436728e-16 5.317773891256467e-17 -0.7973773016717305 -0.6034811005976184
12659256000.0 -0.8050265185552044 -0.5932388257883084 1.4520723179688337e-16 5.1302643696396755e-17 1.4520723179688337e-16 5.1302643696396755e-17 -0.80502609953048 -0.5932393944054491
12659873333.333334 -0.8125437705183157 -0.5829001809844304 1.4582708393360033e-16 4.941978047046547e-17 1.4582708393360033e-16 4.941978047046547e-17 -0.8125433588161943 -0.5829007548832819
12660490666.666666 -0.8199282555468773 -0.5724662922440569 1.4642253548552195e-16 4.7529464158443873e-17 1.4642253548552195e-16 4.7529464158443873e-17 -0.819927851233912 -0.5724668713303352
12661108000.0 -0.8271787670409029 -0.5619388644296596 1.4699349733148384e-16 4.5632010795595044e-17 1.4699349733148384e-16 4.5632010795595044e-17 -0.8271783701824332 -0.5619394486082429
12661725333.333334 -0.834294120291136 -0.5513196176878186 1.4753988444128438e-16 4.372773747611608e-17 1.4753988444128438e-16 4.372773747611608e-17 -0.834293730951278 -0.5513202068627626
12662342666.666666 -0.84127315267273 -0.54061028716802 1.4806161588820133e-16 4.181696230011932e-17 1.4806161588820133e-16 4.181696230011932e-17 -0.8412727709143636 -0.5406108812425727
12662960000.0 -0.8481147238353045 -0.5298126227389925 1.485586148607809e-16 3.9900004320601025e-17 1.485586148607809e-16 3.9900004320601025e-17 -0.8481143497200656 -0.529813221615611
12663577333.333334 -0.8548177158890595 -0.5189283887031177 1.490308086739562e-16 3.797718349022257e-17 1.490308086739562e-16 3.797718349022257e-17 -0.8548173494773311 -0.5189289922834853
12664194666.666666 -0.8613810335876838 -0.5079593635077695 1.494781287794771e-16 3.604882060797245e-17 1.494781287794771e-16 3.604882060797245e-17 -0.8613806749385806 -0.5079599716928086
12664812000.0 -0.8678036045070655 -0.4969073394551027 1.4990051077564838e-16 3.411523726570801e-17 1.4990051077564838e-16 3.411523726570801e-17 -0.8678032536784314 -0.4969079521449944
12665429333.333334 -0.874084379220794 -0.4857741224087619 1.5029789441638202e-16 3.217675579457904e-17 1.5029789441638202e-16 3.217675579457904e-17 -0.8740840362691877 -0.4857747395029604
12666046666.666666 -0.8802223314712608 -0.47456153149944874 1.5067022361954533e-16 3.023369921140062e-17 1.5067022361954533e-16 3.023369921140062e-17 -0.8802219964519488 -0.4745621528966984
12666664000.0 -0.886216458337872 -0.46327139882673857 1.510174464746443e-16 2.828639116479644e-17 1.510174464746443e-16 2.828639116479644e-17 -0.8862161313048197 -0.46327202442509086
12667281333.333334 -0.892065780400324 -0.4519055691608194 1.513395152497719e-16 2.6335155881472954e-17 1.513395152497719e-16 2.6335155881472954e-17 -0.8920654614061874 -0.45190619885764965
12667898666.666666 -0.8977693418991236 -0.4404658996401622 1.516363863979019e-16 2.4380318112204022e-17 1.516363863979019e-16 2.4380318112204022e-17 -0.897769030995239 -0.4404665333321854
12668516000.0 -0.9033262108915365 -0.4289542594684693 1.5190802056246145e-16 2.2422203077887292e-17 1.5190802056246145e-16 2.2422203077887292e-17 -0.9033259081279131 -0.4289548970517579
12669133333.333334 -0.9087354794038432 -0.41737252960930626 1.521543825822184e-16 2.046113641549233e-17 1.521543825822184e-16 2.046113641549233e-17 -0.9087351848291567 -0.4173731709793073
12669750666.666666 -0.9139962635797528 -0.40572260247865827 1.5237544149546835e-16 1.8497444123969268e-17 1.5237544149546835e-16 1.8497444123969268e-17 -0.9139959772413353 -0.4057232475302103
12670368000.0 -0.9191077038249105 -0.3940063816355064 1.5257117054352752e-16 1.6531452510110123e-17 1.5257117054352752e-16 1.6531452510110123e-17 -0.9191074257687446 -0.3940070302628567
