! Parameters = {f0=12700.012000; bw=77.238000; Q=6100.000000; N=10; m_0_1=1.246141; m_1_1=-0.072629; m_1_2=1.080953; m_2_2=-0.073278; m_2_3=0.717916; m_2_8=-0.000629; m_2_9=0.036075; m_3_3=-0.075215; m_3_4=0.606445; m_3_7=-0.000029; m_3_8=-0.097117; m_3_9=-0.000629; m_4_4=-0.078140; m_4_5=0.442780; m_4_6=0.003488; m_4_7=-0.117666; m_4_8=-0.000029; m_5_5=-0.077758; m_5_6=0.850135; m_5_7=0.003488; m_6_6=-0.077759; m_6_7=0.443122; m_7_7=-0.078126; m_7_8=0.606563; m_8_8=-0.075217; m_8_9=0.718229; m_9_9=-0.073283; m_9_10=1.082031; m_10_10=-0.072639; m_10_11=1.246936}
!
! Created with skrf (http://scikit-rf.org).
# Hz S RI R 50.0 
!freq ReS11 ImS11 ReS21 ImS21 ReS12 ImS12 ReS22 ImS22
12607400000.0 -0.8638569530480698 0.5037371980212845 6.762908624961012e-17 -7.18899873433172e-17 6.762908624961012e-17 -7.18899873433172e-17 -0.8638572837937143 0.5037366308264427
12608017333.333334 -0.8588699025566996 0.5121938016826013 6.690051093176977e-17 -7.254219363943625e-17 6.690051093176977e-17 -7.254219363943625e-17 -0.8588702388383496 0.5121932377897873
12608634666.666666 -0.8538000700473082 0.5206010376353862 6.616565509360191e-17 -7.318702495482552e-17 6.616565509360191e-17 -7.318702495482552e-17 -0.853800411832012 0.5206004770986257
12609252000.0 -0.8486479441748288 0.5289580955497954 6.542459330223724e-17 -7.382442090422945e-17 6.542459330223724e-17 -7.382442090422945e-17 -0.8486482914291053 0.5289575384227835
12609869333.333334 -0.8434140215260061 0.5372641699324086 6.467740070442976e-17 -7.445432185549865e-17 6.467740070442976e-17 -7.445432185549865e-17 -0.8434143742158515 0.5372636162685075
12610486666.666666 -0.8380988065716588 0.5455184602036771 6.39241530189764e-17 -7.507666893512969e-17 6.39241530189764e-17 -7.507666893512969e-17 -0.8380991646625489 0.5455179100559101
12611104000.0 -0.8327028116177816 0.5537201707755203 6.31649265290482e-17 -7.569140403375665e-17 6.31649265290482e-17 -7.569140403375665e-17 -0.8327031750746744 0.5537196241965662
12611721333.333334 -0.827226556756503 0.5618685111274794 6.239979807450281e-17 -7.629846981153957e-17 6.239979807450281e-17 -7.629846981153957e-17 -0.8272269255438433 0.5618679681696682
12612338666.666666 -0.8216705698156956 0.5699626958833192 6.16288450441247e-17 -7.68978097034906e-17 6.16288450441247e-17 -7.68978097034906e-17 -0.8216709438974177 0.5699621565986268
12612956000.0 -0.8160353863081415 0.5780019448866515 6.085214536780445e-17 -7.748936792473115e-17 6.085214536780445e-17 -7.748936792473115e-17 -0.8160357656476738 0.5780014093266952
12613573333.333334 -0.810321549380118 0.5859854832758529 6.00697775087093e-17 -7.807308947563744e-17 6.00697775087093e-17 -7.807308947563744e-17 -0.8103219339403842 0.5859849514918847
12614190666.666666 -0.8045296097587641 0.5939125415591432 5.928182045536279e-17 -7.864892014693976e-17 5.928182045536279e-17 -7.864892014693976e-17 -0.8045299995021892 0.5939120136020468
12614808000.0 -0.7986601256992153 0.6017823556884525 5.84883537136892e-17 -7.921680652473187e-17 5.84883537136892e-17 -7.921680652473187e-17 -0.798660520587729 0.6017818316087384
12615425333.333334 -0.7927136629306473 0.609594167133272 5.768945729901697e-17 -7.977669599539544e-17 5.768945729901697e-17 -7.977669599539544e-17 -0.7927140629256856 0.6095936469810709
12616042666.666666 -0.7866907946018785 0.6173472229535786 5.688521172803757e-17 -8.032853675044225e-17 5.688521172803757e-17 -8.032853675044225e-17 -0.7866911996643914 0.6173467067786391
12616660000.0 -0.7805921012260144 0.6250407758725706 5.607569801069611e-17 -8.087227779129269e-17 5.607569801069611e-17 -8.087227779129269e-17 -0.7805925113164661 0.6250402637242529
12617277333.333334 -0.774418170624524 0.6326740843486446 5.5260997642067917e-17 -8.14078689339491e-17 5.5260997642067917e-17 -8.14078689339491e-17 -0.774418585702897 0.6326735762759147
12617894666.666666 -0.7681695978707259 0.6402464126466928 5.4441192594170934e-17 -8.193526081360315e-17 5.4441192594170934e-17 -8.193526081360315e-17 -0.7681700178965262 0.6402459086981193
12618512000.0 -0.7618469852321094 0.6477570309094117 5.3616365307719753e-17 -8.245440488916893e-17 5.3616365307719753e-17 -8.245440488916893e-17 -0.7618474101643722 0.6477565311331633
12619129333.333334 -0.7554509421126863 0.6552052152271728 5.2786598683895754e-17 -8.296525344769613e-17 5.2786598683895754e-17 -8.296525344769613e-17 -0.7554513719099758 0.6552047196710088
12619746666.666666 -0.7489820849939213 0.662590247708182 5.195197607599585e-17 -8.346775960875187e-17 5.195197607599585e-17 -8.346775960875187e-17 -0.7489825196143379 0.6625897564194514
12620364000.0 -0.7424410373754599 0.6699114165475025 5.111258128109784e-17 -8.39618773286805e-17 5.111258128109784e-17 -8.39618773286805e-17 -0.7424414767766433 0.6699109295731388
12620981333.333334 -0.7358284297150729 0.6771680160956217 5.0268498531673057e-17 -8.444756140479029e-17 5.0268498531673057e-17 -8.444756140479029e-17 -0.7358288738542055 0.6771675334821371
12621598666.666666 -0.729144899367755 0.6843593469266106 4.941981248713673e-17 -8.492476747946796e-17 4.941981248713673e-17 -8.492476747946796e-17 -0.7291453482015674 0.684358868720093
12622216000.0 -0.7223910905244473 0.6914847159053708 4.85666082253963e-17 -8.539345204418726e-17 4.85666082253963e-17 -8.539345204418726e-17 -0.7223915440092212 0.6914842421514783
12622833333.333334 -0.7155676541497713 0.6985434362546279 4.770897123432104e-17 -8.585357244345715e-17 4.770897123432104e-17 -8.585357244345715e-17 -0.7155681122413452 0.698542966998586
12623450666.666666 -0.7086752479195254 0.7055348276208839 4.684698740322569e-17 -8.630508687865567e-17 4.684698740322569e-17 -8.630508687865567e-17 -0.7086757105732974 0.7055343629074786
12624068000.0 -0.7017145361570326 0.7124582161402531 4.598074301425955e-17 -8.674795441181063e-17 4.598074301425955e-17 -8.674795441181063e-17 -0.7017150033279664 0.7124577560138303
12624685333.333334 -0.6946861897692521 0.7193129345032732 4.511032473379435e-17 -8.718213496927538e-17 4.511032473379435e-17 -8.718213496927538e-17 -0.6946866614118794 0.7193124790077305
12625302666.666666 -0.6875908861821737 0.7260983220191626 4.4235819603805605e-17 -8.760758934530499e-17 4.4235819603805605e-17 -8.760758934530499e-17 -0.687591362250601 0.7260978711979489
12625920000.0 -0.6804293092752808 0.7328137246797406 4.335731503313331e-17 -8.802427920559004e-17 4.335731503313331e-17 -8.802427920559004e-17 -0.6804297897231912 0.7328132785758484
12626537333.333334 -0.6732021493159827 0.7394584952221276 4.2474898788819693e-17 -8.843216709064831e-17 4.2474898788819693e-17 -8.843216709064831e-17 -0.6732026340966418 0.7394580538780906
12627154666.666666 -0.6659101028928145 0.7460319931913857 4.158865898732818e-17 -8.88312164191735e-17 4.158865898732818e-17 -8.88312164191735e-17 -0.6659105919590766 0.7460315566492765
12627772000.0 -0.6585538728483407 0.7525335850022128 4.06986840857554e-17 -8.922139149128204e-17 4.06986840857554e-17 -8.922139149128204e-17 -0.6585543661526498 0.7525331533036347
12628389333.333334 -0.6511341682115342 0.7589626439998906 3.980506287306542e-17 -8.960265749165177e-17 3.980506287306542e-17 -8.960265749165177e-17 -0.6511346657059315 0.7589622171859775
12629006666.666666 -0.6436517041292906 0.7653185505208209 3.8907884461197024e-17 -8.997498049261383e-17 3.8907884461197024e-17 -8.997498049261383e-17 -0.6436522057654182 0.7653181286322323
12629624000.0 -0.6361072017975846 0.7716006919521773 3.8007238276232726e-17 -9.03383274571181e-17 3.8007238276232726e-17 -9.03383274571181e-17 -0.6361077075266889 0.7716002750290923
12630241333.333334 -0.6285013883918884 0.777808462791001 3.7103214049496647e-17 -9.069266624162845e-17 3.7103214049496647e-17 -9.069266624162845e-17 -0.6285018981648276 0.7778080508731179
12630858666.666666 -0.6208349969972866 0.7839412647024068 3.619590180863145e-17 -9.103796559892792e-17 3.619590180863145e-17 -9.103796559892792e-17 -0.6208355107645339 0.7839408578289374
12631476000.0 -0.6131087665374177 0.7899985065775733 3.5285391868644e-17 -9.137419518083565e-17 3.5285391868644e-17 -9.137419518083565e-17 -0.6131092842490654 0.7899981047872386
12632093333.333334 -0.6053234417037184 0.7959796045903413 3.437177482294744e-17 -9.170132554082741e-17 3.437177482294744e-17 -9.170132554082741e-17 -0.6053239633094835 0.7959792079213689
12632710666.666666 -0.5974797728833345 0.801883982253735 3.3455141534371555e-17 -9.20193281365692e-17 3.3455141534371555e-17 -9.20193281365692e-17 -0.5974802983325647 0.801883590743856
12633328000.0 -0.5895785160868657 0.8077110704754761 3.2535583126113836e-17 -9.232817533237542e-17 3.2535583126113836e-17 -9.232817533237542e-17 -0.5895790453285418 0.8077106841619193
12633945333.333334 -0.5816204328755371 0.813460307612795 3.161319097273097e-17 -9.262784040155304e-17 3.161319097273097e-17 -9.262784040155304e-17 -0.5816209658582803 0.8134599265322858
12634562666.666666 -0.5736062902877543 0.8191311395266035 3.0688056691072893e-17 -9.291829752867025e-17 3.0688056691072893e-17 -9.291829752867025e-17 -0.5736068269598297 0.8191307637153584
12635180000.0 -0.5655368607652628 0.8247230196348355 2.9760272131188584e-17 -9.319952181173675e-17 2.9760272131188584e-17 -9.319952181173675e-17 -0.5655374010745862 0.8247226491285616
12635797333.333334 -0.5574129220785142 0.8302354089652664 2.882992936723089e-17 -9.34714892642874e-17 2.882992936723089e-17 -9.34714892642874e-17 -0.5574134659726544 0.8302350437991536
12636414666.666666 -0.5492352572519767 0.8356677762072596 2.789712068835637e-17 -9.373417681737145e-17 2.789712068835637e-17 -9.373417681737145e-17 -0.549235804678163 0.8356674164159813
12637032000.0 -0.5410046544883375 0.8410195977632062 2.6961938589554333e-17 -9.398756232146718e-17 2.6961938589554333e-17 -9.398756232146718e-17 -0.5410052053934643 0.8410192433809147
12637649333.333334 -0.5327219070928148 0.8462903577988017 2.602447576252597e-17 -9.423162454828566e-17 2.602447576252597e-17 -9.423162454828566e-17 -0.5327224614234458 0.8462900088591238
12638266666.666666 -0.5243878133965058 0.8514795482928884 2.5084825086494287e-17 -9.446634319249922e-17 2.5084825086494287e-17 -9.446634319249922e-17 -0.5243883710988797 0.8514792048289225
12638884000.0 -0.5160031766795086 0.8565866690863723 2.4143079619028716e-17 -9.469169887337016e-17 2.4143079619028716e-17 -9.469169887337016e-17 -0.5160037376995443 0.8565863311306863
12639501333.333334 -0.5075688050935491 0.8616112279304038 2.319933258685303e-17 -9.490767313628875e-17 2.319933258685303e-17 -9.490767313628875e-17 -0.5075693693768515 0.8616108955150323
12640118666.666666 -0.4990855115840629 0.8665527405338382 2.2253677376635212e-17 -9.511424845422233e-17 2.2253677376635212e-17 -9.511424845422233e-17 -0.4990860790759277 0.8665524136902782
12640736000.0 -0.49055411381164377 0.8714107306100287 2.1306207525729592e-17 -9.531140822907928e-17 2.1306207525729592e-17 -9.531140822907928e-17 -0.4905546844570627 0.8714104093692374
12641353333.333334 -0.4819754340736259 0.8761847299225037 2.0357016713016636e-17 -9.54991367929586e-17 2.0357016713016636e-17 -9.54991367929586e-17 -0.4819760078172922 0.8761844143148954
12641970666.666666 -0.4733502992245083 0.8808742783302846 1.9406198749582934e-17 -9.567741940933924e-17 1.9406198749582934e-17 -9.567741940933924e-17 -0.4733508760108217 0.8808739683857271
12642588000.0 -0.46467954059633043 0.8854789238321907 1.8453847569516904e-17 -9.584624227415175e-17 1.8453847569516904e-17 -9.584624227415175e-17 -0.46468012036940315 0.8854786195800032
12643205333.333334 -0.45596399391859593 0.8899982226103795 1.7500057220625403e-17 -9.60055925167725e-17 1.7500057220625403e-17 -9.60055925167725e-17 -0.45596457662225737 0.8899979240793299
12643822666.666666 -0.447204499237694 0.8944317390731361 1.654492185516163e-17 -9.615545820092134e-17 1.654492185516163e-17 -9.615545820092134e-17 -0.4472050848154975 0.8944314462914388
12644440000.0 -0.43840190083588293 0.898779045896885 1.5588535720571256e-17 -9.629582832546423e-17 1.5588535720571256e-17 -9.629582832546423e-17 -0.4384024892311097 0.8987787588921969
12645057333.333334 -0.42955704715009196 0.9030397240672888 1.4630993150188936e-17 -9.64266928251304e-17 1.4630993150188936e-17 -9.64266928251304e-17 -0.42955763830575666 0.9030394428667065
12645674666.666666 -0.420670790689939 0.9072133629197335 1.3672388553973922e-17 -9.654804257113122e-17 1.3672388553973922e-17 -9.654804257113122e-17 -0.4206713845487972 0.9072130875497932
12646292000.0 -0.4117439879555902 0.9112995601789008 1.2712816409178593e-17 -9.665986937169508e-17 1.2712816409178593e-17 -9.665986937169508e-17 -0.4117445844601414 0.911299290665573
12646909333.333334 -0.40277749935535745 0.9152979219974645 1.175237125111298e-17 -9.676216597249774e-17 1.175237125111298e-17 -9.676216597249774e-17 -0.4027780984478521 0.9152976583661532
12647526666.666666 -0.3937721891225892 0.9192080629941382 1.0791147663802732e-17 -9.685492605701357e-17 1.0791147663802732e-17 -9.685492605701357e-17 -0.3937727907450344 0.9192078052696783
12648144000.0 -0.38472892523247443 0.9230296062907709 9.829240270703668e-18 -9.693814424676739e-17 9.829240270703668e-18 -9.693814424676739e-17 -0.38472952932663884 0.9230293544974257
12648761333.333334 -0.3756485793183055 0.9267621835487083 8.866743725424404e-18 -9.701181610149375e-17 8.866743725424404e-18 -9.701181610149375e-17 -0.3756491858257247 0.9267619377101657
12649378666.666666 -0.3665320265876744 0.9304054350042053 7.903752702413872e-18 -9.707593811920822e-17 7.903752702413872e-18 -9.707593811920822e-17 -0.36653263544965775 0.930405195143578
12649996000.0 -0.3573801457377752 0.9339590095032425 6.940361887661339e-18 -9.713050773618465e-17 6.940361887661339e-18 -9.713050773618465e-17 -0.357380756895411 0.9339587756430657
12650613333.333334 -0.3481938188710014 0.9374225645352579 5.976665969421068e-18 -9.717552332683886e-17 5.976665969421068e-18 -9.717552332683886e-17 -0.3481944322651619 0.937422336697485
12651230666.666666 -0.33897393140984483 0.940795766266189 5.0127596289155765e-18 -9.721098420352336e-17 5.0127596289155765e-18 -9.721098420352336e-17 -0.3389745469811927 0.9407955444721912
12651848000.0 -0.3297213720113675 0.9440782895707187 4.0487375310458444e-18 -9.723689061622757e-17 4.0487375310458444e-18 -9.723689061622757e-17 -0.3297219897003614 0.9440780738412823
12652465333.333334 -0.320437032481869 0.9472698180634935 3.084694315117944e-18 -9.725324375218819e-17 3.084694315117944e-18 -9.725324375218819e-17 -0.3204376522287699 0.9472696084188205
12653082666.666666 -0.3111218076907445 0.9503700441296931 2.12072458557847e-18 -9.726004573540625e-17 2.12072458557847e-18 -9.726004573540625e-17 -0.3111224294356198 0.9503698405893937
12653700000.0 -0.3017765954841763 0.9533786689546878 1.1569229027293881e-18 -9.72572996260734e-17 1.1569229027293881e-18 -9.72572996260734e-17 -0.301777219166907 0.953378471537783
12654317333.333334 -0.29240229659875794 0.9562954025527908 1.9338377348955286e-19 -9.724500941990645e-17 1.9338377348955286e-19 -9.724500941990645e-17 -0.2924029221590448 0.9562952112777114
12654934666.666666 -0.2829998145746238 0.9591199637952277 -7.697983578598383e-19 -9.722318004739026e-17 -7.697983578598383e-19 -9.722318004739026e-17 -0.2830004419519921 0.9591197786798101
12655552000.0 -0.2735700556681711 0.9618520804372912 -1.7325291189338315e-18 -9.719181737292923e-17 -1.7325291189338315e-18 -9.719181737292923e-17 -0.2735706848019765 0.9618519014987746
12656169333.333334 -0.2641139287650351 0.9644914891444765 -2.6947142184391496e-18 -9.715092819390782e-17 -2.6947142184391496e-18 -9.715092819390782e-17 -0.2641145595944704 0.9644913163995048
12656786666.666666 -0.2546323452922981 0.9670379355179277 -3.6562594554105865e-18 -9.710052023965987e-17 -3.6562594554105865e-18 -9.710052023965987e-17 -0.2546329777563986 0.9670377689825463
12657404000.0 -0.2451262191305858 0.9694911741189683 -4.617070728421102e-18 -9.704060217034637e-17 -4.617070728421102e-18 -9.704060217034637e-17 -0.24512685316823496 0.9694910138086219
12658021333.333334 -0.23559646652614732 0.9718509684927136 -5.577054044756493e-18 -9.697118357574321e-17 -5.577054044756493e-18 -9.697118357574321e-17 -0.23559710207608323 0.9718508144222462
12658638666.666666 -0.22604400600248917 0.9741170911908786 -6.536115529597929e-18 -9.689227497393842e-17 -6.536115529597929e-18 -9.689227497393842e-17 -0.22604464300330973 0.9741169433745304
12659256000.0 -0.21646975827164883 0.9762893237937437 -7.494161435203039e-18 -9.680388780993617e-17 -7.494161435203039e-18 -9.680388780993617e-17 -0.21647039666181836 0.9762891822451512
12659873333.333334 -0.20687464614578488 0.9783674569311306 -8.451098150018699e-18 -9.670603445417541e-17 -8.451098150018699e-18 -9.670603445417541e-17 -0.20687528586363982 0.9783673216633254
12660490666.666666 -0.19725959444803792 0.9803512903026277 -9.406832207829203e-18 -9.659872820095412e-17 -9.406832207829203e-18 -9.659872820095412e-17 -0.1972602354317927 0.9803511613280339
12661108000.0 -0.18762552992333598 0.9822406326969063 -1.0361270296872791e-17 -9.648198326676403e-17 -1.0361270296872791e-17 -9.648198326676403e-17 -0.18762617211108903 0.982240510027341
12661725333.333334 -0.177973381149237 0.9840353020101157 -1.1314319268914832e-17 -9.63558147885387e-17 -1.1314319268914832e-17 -9.63558147885387e-17 -0.17797402447897684 0.9840351856567873
12662342666.666666 -0.1683040784463452 0.9857351252634544 -1.2265886148342538e-17 -9.622023882180732e-17 -1.2265886148342538e-17 -9.622023882180732e-17 -0.16830472285595624 0.9857350152369609
12662960000.0 -0.15861855378858566 0.9873399386198494 -1.3215878141195354e-17 -9.607527233876391e-17 -1.3215878141195354e-17 -9.607527233876391e-17 -0.1586191992158544 0.9873398349301786
12663577333.333334 -0.14891774071343278 0.9888495873997415 -1.4164202644217887e-17 -9.592093322624292e-17 -1.4164202644217887e-17 -9.592093322624292e-17 -0.14891838709605343 0.988849490056268
12664194666.666666 -0.13920257423201443 0.9902639260959736 -1.51107672538467e-17 -9.57572402836103e-17 -1.51107672538467e-17 -9.57572402836103e-17 -0.13920322150759562 0.9902638351074619
12664812000.0 -0.12947399073879606 0.9915828183878546 -1.6055479775215197e-17 -9.558421322056175e-17 -1.6055479775215197e-17 -9.558421322056175e-17 -0.12947463884486626 0.9915827337624546
12665429333.333334 -0.11973292792152233 0.9928061371542637 -1.6998248231109708e-17 -9.540187265483444e-17 -1.6998248231109708e-17 -9.540187265483444e-17 -0.11973357679553592 0.9928060588995107
12666046666.666666 -0.10998032467075396 0.9939337644859172 -1.7938980870884764e-17 -9.521024010983509e-17 -1.7938980870884764e-17 -9.521024010983509e-17 -0.10998097425009759 0.9939336926087325
12666664000.0 -0.10021712098928863 0.9949655916967436 -1.8877586179422927e-17 -9.500933801216641e-17 -1.8877586179422927e-17 -9.500933801216641e-17 -0.10021777121128692 0.9949655262034323
12667281333.333334 -0.09044425790175592 0.9959015193343322 -1.9813972885959866e-17 -9.479918968908664e-17 -1.9813972885959866e-17 -9.479918968908664e-17 -0.09044490870367794 0.9959014602305865
12667898666.666666 -0.08066267736372018 0.9967414571895502 -2.07480499729875e-17 -9.457981936586154e-17 -2.07480499729875e-17 -9.457981936586154e-17 -0.08066332868278493 0.9967414044804422
12668516000.0 -0.07087332217097375 0.9974853243052152 -2.1679726685074593e-17 -9.435125216303912e-17 -2.1679726685074593e-17 -9.435125216303912e-17 -0.07087397394435664 0.997485277995202
12669133333.333334 -0.0610771358687234 0.9981330489839042 -2.2608912537634348e-17 -9.411351409364424e-17 -2.2608912537634348e-17 -9.411351409364424e-17 -0.06107778803356217 0.9981330090768259
12669750666.666666 -0.05127506266058994 0.9986845687948642 -2.3535517325737038e-17 -9.386663206026933e-17 -2.3535517325737038e-17 -9.386663206026933e-17 -0.0512757151539907 0.9986845352939429
12670368000.0 -0.04146804731748783 0.9991398305800376 -2.445945113283008e-17 -9.361063385209308e-17 -2.445945113283008e-17 -9.361063385209308e-17 -0.04146870007653114 0.9991398034878771
