! Parameters = {f0=12700.012000; bw=77.238000; Q=6100.000000; N=10; m_0_1=1.274369; m_1_1=0.350795; m_1_2=1.109181; m_2_2=0.350146; m_2_3=0.746144; m_2_8=0.000782; m_2_9=0.037486; m_3_3=0.348209; m_3_4=0.634673; m_3_7=0.001382; m_3_8=-0.095706; m_3_9=0.000782; m_4_4=0.345284; m_4_5=0.471008; m_4_6=0.004899; m_4_7=-0.116255; m_4_8=0.001382; m_5_5=0.345666; m_5_6=0.878363; m_5_7=0.004899; m_6_6=0.345665; m_6_7=0.471350; m_7_7=0.345298; m_7_8=0.634791; m_8_8=0.348207; m_8_9=0.746457; m_9_9=0.350141; m_9_10=1.110259; m_10_10=0.350785; m_10_11=1.275164}
!
! Created with skrf (http://scikit-rf.org).
# Hz S RI R 50.0 
!freq ReS11 ImS11 ReS21 ImS21 ReS12 ImS12 ReS22 ImS22
12607400000.0 -0.2982636693102147 -0.9544835166567466 6.289577982467036e-17 9.375760473434809e-17 6.289577982467036e-17 9.375760473434809e-17 -0.2982630284646084 -0.954483716912417
12608017333.333334 -0.3084138257738927 -0.9512522862371129 6.388665139669948e-17 9.305843127143128e-17 6.388665139669948e-17 9.305843127143128e-17 -0.3084131871290201 -0.9512524932975167
12608634666.666666 -0.31852898758966414 -0.9479131205257819 6.48697643349487e-17 9.234879546431296e-17 6.48697643349487e-17 9.234879546431296e-17 -0.3185283512177715 -0.947913334366761
12609252000.0 -0.3286080070252824 -0.9444663984063671 6.584500827503506e-17 9.162878326734674e-17 6.584500827503506e-17 9.162878326734674e-17 -0.3286073729983501 -0.9444666190029933
12609869333.333334 -0.3386497404494783 -0.9409125109665204 6.681227380334354e-17 9.089848179794833e-17 6.681227380334354e-17 9.089848179794833e-17 -0.33864910883921445 -0.9409127382931045
12610486666.666666 -0.34865304846159256 -0.9372518614536122 6.777145246925897e-17 9.015797932610415e-17 6.777145246925897e-17 9.015797932610415e-17 -0.3486524193394231 -0.9372520954837015
12611104000.0 -0.3586167960211506 -0.9334848652288615 6.872243679732237e-17 8.940736526371987e-17 6.872243679732237e-17 8.940736526371987e-17 -0.3586161694582133 -0.9334851059352474
12611721333.333334 -0.36853985257628175 -0.929611949720353 6.966512029920726e-17 8.864673015389058e-17 6.966512029920726e-17 8.864673015389058e-17 -0.3685392286434159 -0.9296121970750698
12612338666.666666 -0.37842109219226144 -0.9256335543744288 7.059939748563733e-17 8.787616565999712e-17 7.059939748563733e-17 8.787616565999712e-17 -0.3784204709600022 -0.9256338083487619
12612956000.0 -0.3882593936792698 -0.9215501306058334 7.152516387815973e-17 8.709576455469746e-17 7.152516387815973e-17 8.709576455469746e-17 -0.3882587752178382 -0.9215503911703181
12613573333.333334 -0.3980536407193701 -0.9173621417465829 7.244231602077471e-17 8.630562070881318e-17 7.244231602077471e-17 8.630562070881318e-17 -0.3980530250986662 -0.9173624088710104
12614190666.666666 -0.4078027219934369 -0.9130700629932875 7.335075149148961e-17 8.55058290800542e-17 7.335075149148961e-17 8.55058290800542e-17 -0.40780210928303173 -0.913070336646708
12614808000.0 -0.41750553130712287 -0.9086743813532874 7.425036891371253e-17 8.469648570165414e-17 7.425036891371253e-17 8.469648570165414e-17 -0.4175049215762502 -0.9086746615040123
12615425333.333334 -0.4271609677164002 -0.9041755955893801 7.514106796753522e-17 8.387768767087292e-17 7.514106796753522e-17 8.387768767087292e-17 -0.42716036103394933 -0.9041758822049881
12616042666.666666 -0.43676793565248195 -0.8995742161632314 7.60227494008881e-17 8.304953313738452e-17 7.60227494008881e-17 8.304953313738452e-17 -0.4367673320869887 -0.8995745092105689
12616660000.0 -0.4463253450461307 -0.8948707651774503 7.68953150405666e-17 8.221212129154618e-17 7.68953150405666e-17 8.221212129154618e-17 -0.4463247446657717 -0.8948710646226395
12617277333.333334 -0.4558321114513968 -0.8900657763163257 7.775866780313488e-17 8.136555235254971e-17 7.775866780313488e-17 8.136555235254971e-17 -0.45583151432398017 -0.8900660821247651
12617894666.666666 -0.46528715616841476 -0.8851597947854005 7.861271170567298e-17 8.050992755648167e-17 7.861271170567298e-17 8.050992755648167e-17 -0.46528656236137256 -0.8851601069217697
12618512000.0 -0.47468940636635193 -0.8801533772493187 7.945735187645325e-17 7.964534914421387e-17 7.945735187645325e-17 7.964534914421387e-17 -0.47468881594673373 -0.8801536956775846
12619129333.333334 -0.48403779520443735 -0.8750470917690369 8.02924945654046e-17 7.877192034926104e-17 8.02924945654046e-17 7.877192034926104e-17 -0.48403720823890073 -0.8750474164524531
12619746666.666666 -0.49333126195353727 -0.8698415177370834 8.111804715450888e-17 7.788974538546342e-17 8.111804715450888e-17 7.788974538546342e-17 -0.4933306785083422 -0.8698418486381997
12620364000.0 -0.5025687521163871 -0.8645372458118848 8.193391816803743e-17 7.699892943458541e-17 8.193391816803743e-17 7.699892943458541e-17 -0.5025681722573876 -0.8645375828925488
12620981333.333334 -0.511749217547044 -0.8591348778508586 8.274001728263337e-17 7.609957863382966e-17 8.274001728263337e-17 7.609957863382966e-17 -0.5117486413396809 -0.8591352210722205
12621598666.666666 -0.5208716165700639 -0.8536350268419819 8.353625533729748e-17 7.519180006320054e-17 8.353625533729748e-17 7.519180006320054e-17 -0.5208710440793562 -0.8536353761644976
12622216000.0 -0.5299349140985714 -0.8480383168343059 8.432254434320404e-17 7.427570173279943e-17 8.432254434320404e-17 7.427570173279943e-17 -0.5299343453891115 -0.8480386722177452
12622833333.333334 -0.5389380817517587 -0.8423453828671216 8.509879749339271e-17 7.335139257000106e-17 8.509879749339271e-17 7.335139257000106e-17 -0.5389375168877031 -0.8423457442705693
12623450666.666666 -0.5478800979714753 -0.8365568708979629 8.586492917230791e-17 7.241898240654393e-17 8.586492917230791e-17 7.241898240654393e-17 -0.5478795370165375 -0.8365572382798246
12624068000.0 -0.5567599481382594 -0.8306734377292356 8.662085496521574e-17 7.14785819654993e-17 8.662085496521574e-17 7.14785819654993e-17 -0.5567593911557042 -0.830673811047244
12624685333.333334 -0.5655766246864887 -0.8246957509336769 8.736649166746975e-17 7.053030284815194e-17 8.736649166746975e-17 7.053030284815194e-17 -0.5655760717391234 -0.8246961301448943
12625302666.666666 -0.5743291272184682 -0.8186244887787659 8.810175729361293e-17 6.957425752081306e-17 8.810175729361293e-17 6.957425752081306e-17 -0.5743285783686356 -0.8186248738395899
12625920000.0 -0.583016462618292 -0.8124603401495212 8.882657108638361e-17 6.861055930147485e-17 8.882657108638361e-17 6.861055930147485e-17 -0.5830159179278653 -0.8124607310156913
12626537333.333334 -0.5916376451642059 -0.8062040044705656 8.954085352552075e-17 6.763932234644641e-17 8.954085352552075e-17 6.763932234644641e-17 -0.5916371046945788 -0.806204401097165
12627154666.666666 -0.6001916966405907 -0.799856191626665 9.02445263364614e-17 6.666066163684684e-17 9.02445263364614e-17 6.666066163684684e-17 -0.6001911604526728 -0.799856593968129
12627772000.0 -0.6086776464491175 -0.7934176218820617 9.09375124988905e-17 6.567469296500826e-17 9.09375124988905e-17 6.567469296500826e-17 -0.6086771146033267 -0.7934180298921819
12628389333.333334 -0.6170945317184459 -0.7868890257990735 9.161973625510603e-17 6.468153292084264e-17 9.161973625510603e-17 6.468153292084264e-17 -0.6170940042747015 -0.7868894394310023
12629006666.666666 -0.6254413974140439 -0.7802711441547685 9.229112311828858e-17 6.368129887804666e-17 9.229112311828858e-17 6.368129887804666e-17 -0.6254408744317599 -0.7802715633610252
12629624000.0 -0.6337172964460771 -0.7735647278572735 9.295159988057369e-17 6.267410898028917e-17 9.295159988057369e-17 6.267410898028917e-17 -0.6337167779841555 -0.7735651525897501
12630241333.333334 -0.6419212897771428 -0.766770537860365 9.360109462100433e-17 6.166008212727107e-17 9.360109462100433e-17 6.166008212727107e-17 -0.6419207758939663 -0.7667709680703299
12630858666.666666 -0.6500524465285749 -0.7598893450773198 9.423953671331076e-17 6.063933796073502e-17 9.423953671331076e-17 6.063933796073502e-17 -0.6500519372820023 -0.7598897807154261
12631476000.0 -0.6581098440864414 -0.752921930293137 9.486685683356728e-17 5.961199685034961e-17 9.486685683356728e-17 5.961199685034961e-17 -0.6581093395337989 -0.7529223713094263
12632093333.333334 -0.6660925682058574 -0.7458690840762532 9.548298696765479e-17 5.857817987957968e-17 9.548298696765479e-17 5.857817987957968e-17 -0.6660920684039336 -0.7458695304201618
12632710666.666666 -0.6739997131148765 -0.7387316066887124 9.608786041860215e-17 5.753800883142866e-17 9.608786041860215e-17 5.753800883142866e-17 -0.6739992181199155 -0.7387320583090774
12633328000.0 -0.6818303816173702 -0.7315103079952696 9.668141181377035e-17 5.649160617410845e-17 9.668141181377035e-17 5.649160617410845e-17 -0.681829891485064 -0.7315107648403333
12633945333.333334 -0.6895836851946363 -0.724206007371664 9.726357711185795e-17 5.543909504667373e-17 9.726357711185795e-17 5.543909504667373e-17 -0.6895831999801212 -0.7242064693890822
12634562666.666666 -0.6972587441063262 -0.7168195336115577 9.783429360977453e-17 5.438059924454706e-17 9.783429360977453e-17 5.438059924454706e-17 -0.697258263864174 -0.7168200007484037
12635180000.0 -0.7048546874902405 -0.7093517248325103 9.839349994934553e-17 5.331624320498937e-17 9.839349994934553e-17 5.331624320498937e-17 -0.7048542122744546 -0.7093521970352822
12635797333.333334 -0.7123706534611667 -0.7018034283808631 9.89411361238643e-17 5.2246151992497634e-17 9.89411361238643e-17 5.2246151992497634e-17 -0.7123701833251735 -0.7018039055954889
12636414666.666666 -0.71980578920859 -0.6941755007356721 9.9477143484477e-17 5.117045128414916e-17 9.9477143484477e-17 5.117045128414916e-17 -0.7198053242052364 -0.6941759829075176
12637032000.0 -0.7271592510935841 -0.6864688074114087 1.0000146474642404e-16 5.0089267354853285e-17 1.0000146474642404e-16 5.0089267354853285e-17 -0.7271587912751273 -0.6864692944852809
12637649333.333334 -0.7344302047444499 -0.6786842228598282 1.0051404399510677e-16 4.900272706256789e-17 1.0051404399510677e-16 4.900272706256789e-17 -0.7344297501625554 -0.6786847147799849
12638266666.666666 -0.7416178251514138 -0.6708226303707341 1.0101482669200126e-16 4.791095783344055e-17 1.0101482669200126e-16 4.791095783344055e-17 -0.7416173758571475 -0.6708231270808883
12638884000.0 -0.7487212967602358 -0.6628849219717503 1.0150375968040932e-16 4.6814087646892446e-17 1.0150375968040932e-16 4.6814087646892446e-17 -0.7487208528040589 -0.6628854234150773
12639501333.333334 -0.7557398135647866 -0.6548719983270658 1.0198079119104997e-16 4.5712245020641923e-17 1.0198079119104997e-16 4.5712245020641923e-17 -0.7557393749965486 -0.6548725044462081
12640118666.666666 -0.7626725791982959 -0.646784768635473 1.0244587084747933e-16 4.4605558995691823e-17 1.0244587084747933e-16 4.4605558995691823e-17 -0.7626721460672311 -0.6467852793725496
12640736000.0 -0.7695188070242147 -0.6386241505266244 1.0289894967137513e-16 4.349415912119823e-17 1.0289894967137513e-16 4.349415912119823e-17 -0.7695183793789359 -0.6386246658232354
12641353333.333334 -0.7762777202247713 -0.6303910699577326 1.0333998008760918e-16 4.2378175439403554e-17 1.0333998008760918e-16 4.2378175439403554e-17 -0.7762772981132637 -0.6303915897549669
12641970666.666666 -0.7829485518897021 -0.6220864611078128 1.0376891592921088e-16 4.1257738470386987e-17 1.0376891592921088e-16 4.1257738470386987e-17 -0.7829481353593183 -0.6220869853462537
12642588000.0 -0.7895305451029938 -0.6137112662720079 1.0418571244212836e-16 4.013297919685639e-17 1.0418571244212836e-16 4.013297919685639e-17 -0.7895301342004494 -0.6137117948917421
12643205333.333334 -0.79602295302881 -0.6052664357546313 1.0459032628983901e-16 3.9004029048860885e-17 1.0459032628983901e-16 3.9004029048860885e-17 -0.7960225478001762 -0.6052669686952525
12643822666.666666 -0.8024250389962952 -0.5967529277612448 1.0498271555779712e-16 3.787101988844854e-17 1.0498271555779712e-16 3.787101988844854e-17 -0.802424639486995 -0.5967534649618625
12644440000.0 -0.8087360765830788 -0.5881717082900467 1.0536283975770653e-16 3.6734083994307306e-17 1.0536283975770653e-16 3.6734083994307306e-17 -0.8087356828378834 -0.5881722496892947
12645057333.333334 -0.814955349697718 -0.5795237510222454 1.0573065983163448e-16 3.559335404634282e-17 1.0573065983163448e-16 3.559335404634282e-17 -0.8149549617607389 -0.5795242965582854
12645674666.666666 -0.8210821526609513 -0.5708100372115769 1.060861381559524e-16 3.444896311023731e-17 1.060861381559524e-16 3.444896311023731e-17 -0.8210817705756372 -0.5708105868221083
12646292000.0 -0.8271157902858819 -0.5620315555728026 1.0642923854513139e-16 3.330104462190032e-17 1.0642923854513139e-16 3.330104462190032e-17 -0.827115414095014 -0.5620321091950684
12646909333.333334 -0.8330555779566476 -0.5531893021698262 1.0675992625532747e-16 3.2149732372018875e-17 1.0675992625532747e-16 3.2149732372018875e-17 -0.8330552077023324 -0.5531898597406198
12647526666.666666 -0.8389008417062631 -0.5442842803024406 1.07078167987845e-16 3.099516049042774e-17 1.07078167987845e-16 3.099516049042774e-17 -0.8389004774299316 -0.5442848417581148
12648144000.0 -0.8446509182930766 -0.5353175003925099 1.0738393189240669e-16 2.9837463430528234e-17 1.0738393189240669e-16 2.9837463430528234e-17 -0.8446505600354761 -0.5353180656689817
12648761333.333334 -0.8503051552759608 -0.5262899798694134 1.0767718757025761e-16 2.867677595366679e-17 1.0767718757025761e-16 2.867677595366679e-17 -0.8503048030771514 -0.5262905489021728
12649378666.666666 -0.8558629110883453 -0.5172027430546036 1.0795790607710484e-16 2.7513233113475244e-17 1.0795790607710484e-16 2.7513233113475244e-17 -0.855862564987697 -0.5172033157787211
12649996000.0 -0.8613235551110903 -0.508056821045261 1.0822605992589069e-16 2.6346970240167867e-17 1.0822605992589069e-16 2.6346970240167867e-17 -0.8613232151472765 -0.5080573973953945
12650613333.333334 -0.8666864677440057 -0.49885325159734295 1.0848162308939147e-16 2.5178122924837385e-17 1.0848162308939147e-16 2.5178122924837385e-17 -0.8666861339550006 -0.49885383150774554
12651230666.666666 -0.8719510404760302 -0.48959307900805793 1.0872457100264583e-16 2.4006827003730075e-17 1.0872457100264583e-16 2.4006827003730075e-17 -0.8719507128991034 -0.489593662412585
12651848000.0 -0.8771166759545618 -0.48027735399688 1.0895488056522374e-16 2.2833218542455567e-17 1.0895488056522374e-16 2.2833218542455567e-17 -0.8771163546262734 -0.48027794082899633
12652465333.333334 -0.8821827880529743 -0.4709071335867664 1.0917253014331218e-16 2.1657433820234977e-17 1.0917253014331218e-16 2.1657433820234977e-17 -0.8821824730091736 -0.47090772377955564
12653082666.666666 -0.8871488019371516 -0.46148348098420494 1.0937749957163839e-16 2.0479609314103027e-17 1.0937749957163839e-16 2.0479609314103027e-17 -0.8871484932129707 -0.46148407447037526
12653700000.0 -0.8920141541309092 -0.45200746545819626 1.0956977015522716e-16 1.9299881683062044e-17 1.0956977015522716e-16 1.9299881683062044e-17 -0.8920138517607589 -0.4520080621700883
12654317333.333334 -0.8967782925796861 -0.44248016221937825 1.0974932467097506e-16 1.8118387752296064e-17 1.0974932467097506e-16 1.8118387752296064e-17 -0.8967779965972538 -0.4424807620889741
12654934666.666666 -0.9014406767133354 -0.4329026522977518 1.0991614736906793e-16 1.693526449729718e-17 1.0991614736906793e-16 1.693526449729718e-17 -0.9014403871515806 -0.43290325525668155
12655552000.0 -0.9060007775074547 -0.42327602242001644 1.1007022397422144e-16 1.5750649028011772e-17 1.1007022397422144e-16 1.5750649028011772e-17 -0.9060004943986057 -0.4232766283995668
12656169333.333334 -0.9104580775433055 -0.41360136488649574 1.1021154168674822e-16 1.4564678573005755e-17 1.1021154168674822e-16 1.4564678573005755e-17 -0.9104578009188535 -0.4136019738176164
12656786666.666666 -0.9148120710666396 -0.4038797774469389 1.1034008918346205e-16 1.3377490463562716e-17 1.1034008918346205e-16 1.3377490463562716e-17 -0.9148118009573392 -0.40388038926025244
12657404000.0 -0.9190622640450313 -0.39411236317609394 1.104558566184059e-16 1.2189222117823539e-17 1.104558566184059e-16 1.2189222117823539e-17 -0.919062000480893 -0.394112977801902
12658021333.333334 -0.9232081742239507 -0.38430023034849153 1.1055883562341114e-16 1.1000011024900101e-17 1.1055883562341114e-16 1.1000011024900101e-17 -0.9232079172342407 -0.3843008477167839
12658638666.666666 -0.9272493311814324 -0.3744444923128256 1.1064901930848497e-16 9.809994729009117e-18 1.1064901930848497e-16 9.809994729009117e-18 -0.9272490807946682 -0.37444511235328776
12659256000.0 -0.9311852763815617 -0.36454626736536294 1.1072640226203103e-16 8.619310813558576e-18 1.1072640226203103e-16 8.619310813558576e-18 -0.9311850326255079 -0.36454689000738355
12659873333.333334 -0.9350155632264009 -0.3546066786232885 1.1079098055089375e-16 7.42809688529561e-18 1.1079098055089375e-16 7.42809688529561e-18 -0.9350153261280677 -0.3546073037959684
12660490666.666666 -0.9387397571066711 -0.3446268538972727 1.108427517202362e-16 6.236490558429643e-18 1.108427517202362e-16 6.236490558429643e-18 -0.9387395266923109 -0.3446274815294324
12661108000.0 -0.9423574354511628 -0.3346079255632349 1.10881714793248e-16 5.044629438729274e-18 1.10881714793248e-16 5.044629438729274e-18 -0.9423572117462669 -0.33460855558342284
12661725333.333334 -0.9458681877745458 -0.3245510304342306 1.1090787027067928e-16 3.85265110770199e-18 1.1090787027067928e-16 3.85265110770199e-18 -0.9458679708038416 -0.3245516627707312
12662342666.666666 -0.9492716157240518 -0.3144573096311668 1.1092122013020811e-16 2.6606931067040474e-18 1.1092122013020811e-16 2.6606931067040474e-18 -0.949271405511501 -0.31445794421200884
12662960000.0 -0.9525673331246288 -0.30432790845345764 1.1092176782563596e-16 1.468892921111627e-18 1.1092176782563596e-16 1.468892921111627e-18 -0.9525671296934227 -0.30432854520642183
12663577333.333334 -0.9557549660227643 -0.2941639762490429 1.1090951828591402e-16 2.7738796448568855e-19 1.1090951828591402e-16 2.7738796448568855e-19 -0.955754769395324 -0.29416461510167125
12664194666.666666 -0.9588341527289292 -0.2839666662839505 1.1088447791399939e-16 -9.136844372455633e-19 1.1088447791399939e-16 -9.136844372455633e-19 -0.9588339629269003 -0.2839673071635531
12664812000.0 -0.9618045438585797 -0.2737371356115457 1.1084665458554217e-16 -2.1041870615879456e-18 1.1084665458554217e-16 -2.1041870615879456e-18 -0.9618043609028323 -0.27373777844521036
12665429333.333334 -0.9646658023718618 -0.2634765449410557 1.107960576474026e-16 -3.2939828052676134e-18 1.107960576474026e-16 -3.2939828052676134e-18 -0.9646656262824869 -0.2634771896556553
12666046666.666666 -0.9674176036117824 -0.2531860585061132 1.1073269791600104e-16 -4.482934699978619e-18 1.1073269791600104e-16 -4.482934699978619e-18 -0.9674174344080894 -0.2531867050283143
12666664000.0 -0.9700596353411348 -0.24286684393232513 1.1065658767549525e-16 -5.670905928159077e-18 1.1065658767549525e-16 -5.670905928159077e-18 -0.9700594730416515 -0.2428674921885968
12667281333.333334 -0.9725915977778284 -0.232520072105172 1.1056774067579465e-16 -6.857759838665197e-18 1.1056774067579465e-16 -6.857759838665197e-18 -0.972591442400296 -0.23252072202179322
12667898666.666666 -0.9750132036289734 -0.22214691703687597 1.1046617213040128e-16 -8.043359962495469e-18 1.1046617213040128e-16 -8.043359962495469e-18 -0.9750130551903469 -0.22214756853994483
12668516000.0 -0.9773241781234779 -0.2117485557331893 1.1035189871408489e-16 -9.227570028456263e-18 1.1035189871408489e-16 -9.227570028456263e-18 -0.9773240366399226 -0.21174920874863087
12669133333.333334 -0.9795242590431655 -0.2013261680600924 1.1022493856039266e-16 -1.041025397877031e-17 1.1022493856039266e-16 -1.041025397877031e-17 -0.9795241245300567 -0.2013268225136676
12669750666.666666 -0.9816131967525952 -0.19088093660964256 1.100853112589872e-16 -1.1591275984714084e-17 1.100853112589872e-16 -1.1591275984714084e-17 -0.9816130692245155 -0.19088159242695632
12670368000.0 -0.9835907542273571 -0.18041404656589893 1.0993303785282083e-16 -1.277050046217876e-17 1.0993303785282083e-16 -1.277050046217876e-17 -0.9835906336980956 -0.18041470367240867
