! Parameters = {f0=12700.012000; bw=77.238000; Q=6100.000000; N=10; m_0_1=1.324620; m_1_1=1.104549; m_1_2=1.159432; m_2_2=1.103900; m_2_3=0.796395; m_2_8=0.003295; m_2_9=0.039999; m_3_3=1.101963; m_3_4=0.684924; m_3_7=0.003895; m_3_8=-0.093193; m_3_9=0.003295; m_4_4=1.099038; m_4_5=0.521259; m_4_6=0.007412; m_4_7=-0.113742; m_4_8=0.003895; m_5_5=1.099420; m_5_6=0.928614; m_5_7=0.007412; m_6_6=1.099419; m_6_7=0.521601; m_7_7=1.099052; m_7_8=0.685042; m_8_8=1.101961; m_8_9=0.796708; m_9_9=1.103895; m_9_10=1.160510; m_10_10=1.104539; m_10_11=1.325415}
!
! Created with skrf (http://scikit-rf.org).
# Hz S RI R 50.0 
!freq ReS11 ImS11 ReS21 ImS21 ReS12 ImS12 ReS22 ImS22
12607400000.0 0.6853080308967001 -0.7282533232250268 -6.39914438582593e-17 1.2691186901367243e-16 -6.39914438582593e-17 1.2691186901367243e-16 0.6853085390605823 -0.7282528450273702
12608017333.333334 0.6764184863034803 -0.7365175024306727 -6.242280781392886e-17 1.2765974379229676e-16 -6.242280781392886e-17 1.2765974379229676e-16 0.6764190002088233 -0.7365170304591089
12608634666.666666 0.6674292912937869 -0.7446731773891695 -6.084545496567304e-17 1.283882430435062e-16 -6.084545496567304e-17 1.283882430435062e-16 0.6674298108643232 -0.7446727117126164
12609252000.0 0.6583417701618796 -0.7527191466011287 -5.925962448057701e-17 1.2909726547138708e-16 -5.925962448057701e-17 1.2909726547138708e-16 0.6583422953205152 -0.7527186872875707
12609869333.333334 0.6491572616873799 -0.7606542247291803 -5.766555669899242e-17 1.297867127303572e-16 -5.766555669899242e-17 1.297867127303572e-16 0.6491577923562051 -0.760653771845658
12610486666.666666 0.6398771189383199 -0.7684772427723563 -5.606349309819531e-17 1.3045648943869368e-16 -5.606349309819531e-17 1.3045648943869368e-16 0.6398776550386202 -0.7684767963849555
12611104000.0 0.6305027090714176 -0.7761870482386387 -5.4453676255795385e-17 1.311065031916509e-16 -5.4453676255795385e-17 1.311065031916509e-16 0.630503250523687 -0.776186608412483
12611721333.333334 0.6210354131310359 -0.7837825053144352 -5.2836349813121665e-17 1.3173666457407638e-16 -5.2836349813121665e-17 1.3173666457407638e-16 0.6210359598549865 -0.7837820721136732
12612338666.666666 0.6114766258455742 -0.7912624950320344 -5.1211758438378164e-17 1.3234688717261026e-16 -5.1211758438378164e-17 1.3234688717261026e-16 0.6114771777601509 -0.7912620685198354
12612956000.0 0.6018277554218623 -0.7986259154345614 -4.9580147789641295e-17 1.329370875874386e-16 -4.9580147789641295e-17 1.329370875874386e-16 0.6018283124452527 -0.7986254956731016
12613573333.333334 0.5920902233379698 -0.8058716817381048 -4.794176447785181e-17 1.3350718544354186e-16 -4.794176447785181e-17 1.3350718544354186e-16 0.5920907853876167 -0.8058712687885596
12614190666.666666 0.5822654641336374 -0.8129987264916523 -4.629685602950954e-17 1.3405710340155268e-16 -4.629685602950954e-17 1.3405710340155268e-16 0.5822660311262515 -0.8129983204141883
12614808000.0 0.5723549251989148 -0.8200059997343634 -4.4645670849381653e-17 1.3458676716810428e-16 -4.4645670849381653e-17 1.3458676716810428e-16 0.5723554970504867 -0.8200056005881289
12615425333.333334 0.5623600665609766 -0.8268924691502171 -4.298845818301105e-17 1.3509610550575012e-16 -4.298845818301105e-17 1.3509610550575012e-16 0.5623606431867892 -0.8268920769933331
12616042666.666666 0.5522823606690997 -0.8336571202200432 -4.132546807915943e-17 1.3558505024240744e-16 -4.132546807915943e-17 1.3558505024240744e-16 0.5522829419837414 -0.8336567351095959
12616660000.0 0.5421232921776014 -0.8402989563710809 -3.965695135212205e-17 1.3605353628034614e-16 -3.965695135212205e-17 1.3605353628034614e-16 0.542123878094978 -0.8402985783631133
12617277333.333334 0.5318843577271647 -0.8468169991237599 -3.7983159543962303e-17 1.365015016047097e-16 -3.7983159543962303e-17 1.365015016047097e-16 0.5318849481605123 -0.8468166282732628
12617894666.666666 0.5215670657245448 -0.8532102882357295 -3.6304344886636774e-17 1.3692888729157646e-16 -3.6304344886636774e-17 1.3692888729157646e-16 0.521567660586443 -0.8532099245966337
12618512000.0 0.5111729361199405 -0.8594778818435804 -3.462076026400474e-17 1.3733563751556285e-16 -3.462076026400474e-17 1.3733563751556285e-16 0.5111735353223247 -0.8594775254687489
12619129333.333334 0.5007035001834841 -0.8656188566013426 -3.2932659173852636e-17 1.3772169955693567e-16 -3.2932659173852636e-17 1.3772169955693567e-16 0.5007041036376593 -0.8656185075425641
12619746666.666666 0.49016030027948626 -0.871632307816623 -3.124029568971291e-17 1.3808702380829027e-16 -3.124029568971291e-17 1.3808702380829027e-16 0.4901609078961393 -0.8716319661246027
12620364000.0 0.4795448896390632 -0.8775173495839659 -2.954392442268569e-17 1.3843156378074164e-16 -2.954392442268569e-17 1.3843156378074164e-16 0.4795455013282768 -0.8775170153083186
12620981333.333334 0.46885883213161056 -0.8832731149151946 -2.784380048323095e-17 1.3875527610964126e-16 -2.784380048323095e-17 1.3875527610964126e-16 0.4688594478028766 -0.8832727881044391
12621598666.666666 0.4581037020342425 -0.8888987558672419 -2.6140179442790768e-17 1.3905812055984798e-16 -2.6140179442790768e-17 1.3905812055984798e-16 0.4581043215964749 -0.8888984365687914
12622216000.0 0.44728108379983944 -0.8943934436670752 -2.4433317295451915e-17 1.3934006003050875e-16 -2.4433317295451915e-17 1.3934006003050875e-16 0.4472817071613876 -0.8943931319272317
12622833333.333334 0.4363925718236511 -0.8997563688337791 -2.272347041953316e-17 1.396010605593762e-16 -2.272347041953316e-17 1.396010605593762e-16 0.43639319889231426 -0.8997560646977276
12623450666.666666 0.42543977020858825 -0.9049867412977229 -2.101089553911411e-17 1.3984109132665788e-16 -2.101089553911411e-17 1.3984109132665788e-16 0.4254404008916278 -0.9049864448095224
12624068000.0 0.4144242925286243 -0.9100837905170918 -1.929584968555529e-17 1.4006012465838975e-16 -1.929584968555529e-17 1.4006012465838975e-16 0.414424926732779 -0.9100835017196713
12624685333.333334 0.4033477615911317 -0.9150467655913728 -1.757859015891966e-17 1.402581360293482e-16 -1.757859015891966e-17 1.402581360293482e-16 0.4033483992226302 -0.9150464845265239
12625302666.666666 0.3922118091981459 -0.9198749353718283 -1.5859374489516444e-17 1.4043510406547054e-16 -1.5859374489516444e-17 1.4043510406547054e-16 0.3922124501627217 -0.9198746620802002
12625920000.0 0.3810180759053975 -0.924567588569466 -1.4138460399222398e-17 1.4059101054582975e-16 -1.4138460399222398e-17 1.4059101054582975e-16 0.3810187201083018 -0.9245673230905576
12626537333.333334 0.36976821078119526 -0.9291240338595712 -1.2416105762988987e-17 1.4072584040411375e-16 -1.2416105762988987e-17 1.4072584040411375e-16 0.3697688581272119 -0.929123776231728
12627154666.666666 0.3584638711631475 -0.9335435999837066 -1.0692568570198047e-17 1.4083958172964914e-16 -1.0692568570198047e-17 1.4083958172964914e-16 0.3584645215566062 -0.9335433502441126
12627772000.0 0.3471067224139192 -0.9378256358486237 -8.968106886055272e-18 1.4093222576794645e-16 -8.968106886055272e-18 1.4093222576794645e-16 0.34710737575871026 -0.9378253940332972
12628389333.333334 0.3356984376763418 -0.941969510622012 -7.242978813067696e-18 1.4100376692077053e-16 -7.242978813067696e-18 1.4100376692077053e-16 0.33569909387593033 -0.9419692767658019
12629006666.666666 0.32424069762636587 -0.9459746138256445 -5.5174424523783565e-18 1.4105420274574763e-16 -5.5174424523783565e-18 1.4105420274574763e-16 0.3242413565838058 -0.9459743879622222
12629624000.0 0.31273519022586244 -0.9498403554251637 -3.7917558652605945e-18 1.4108353395549363e-16 -3.7917558652605945e-18 1.4108353395549363e-16 0.3127358518438114 -0.9498401375870226
12630241333.333334 0.3011836104737383 -0.9535661659170861 -2.0661770345411186e-18 1.41091764416275e-16 -2.0661770345411186e-18 1.41091764416275e-16 0.30118427465447056 -0.9535659561355306
12630858666.666666 0.2895876601564955 -0.9571514964126075 -3.409638261220898e-19 1.4107890114619825e-16 -3.409638261220898e-19 1.4107890114619825e-16 0.28958832680191793 -0.9571512947177545
12631476000.0 0.27794904759703815 -0.9605958187186263 1.383626049572582e-18 1.4104495431292928e-16 1.383626049572582e-18 1.4104495431292928e-16 0.2779497166087038 -0.9605956251393972
12632093333.333334 0.2662694874035683 -0.9638986254153751 3.1073350759803085e-18 1.4098993723094302e-16 3.1073350759803085e-18 1.4098993723094302e-16 0.26627015868269194 -0.9638984399794946
12632710666.666666 0.25455070021663845 -0.9670594299312875 4.8299059688151345e-18 1.4091386635830422e-16 4.8299059688151345e-18 1.4091386635830422e-16 0.2545513736641099 -0.9670592526652769
12633328000.0 0.2427944124556081 -0.97007776661469 6.5510817144653305e-18 1.4081676129297835e-16 6.5510817144653305e-18 1.4081676129297835e-16 0.24279508797200725 -0.9700775975438635
12633945333.333334 0.2310023560646354 -0.9729531908023099 8.270605608243431e-18 1.4069864476867746e-16 8.270605608243431e-18 1.4069864476867746e-16 0.23100303355024787 -0.9729530299507743
12634562666.666666 0.21917626825722572 -0.9756852788848697 9.988221292631242e-18 1.405595426502375e-16 9.988221292631242e-18 1.405595426502375e-16 0.2191769476120561 -0.975685126275517
12635180000.0 0.20731789126041192 -0.9782736283694582 1.170367279547006e-17 1.4039948392852947e-16 1.170367279547006e-17 1.4039948392852947e-16 0.20731857238419965 -0.9782734840239647
12635797333.333334 0.19542897205814563 -0.9807178579388188 1.3416704568050264e-17 1.4021850071490506e-16 1.3416704568050264e-17 1.4021850071490506e-16 0.1954296548503791 -0.9807177218776414
12636414666.666666 0.1835112621338464 -0.9830176075075422 1.5127061523103036e-17 1.4001662823518303e-16 1.5127061523103036e-17 1.4001662823518303e-16 0.183511946493778 -0.9830174797499145
12637032000.0 0.17156651721242755 -0.9851725382751018 1.683448907278388e-17 1.3979390482316326e-16 1.683448907278388e-17 1.3979390482316326e-16 0.17156720303908896 -0.9851724188390338
12637649333.333334 0.15959649700155865 -0.9871823327757848 1.853873316649105e-17 1.3955037191368779e-16 1.853873316649105e-17 1.3955037191368779e-16 0.159597184193775 -0.9871822216780584
12638266666.666666 0.14760296493250702 -0.989046694925443 2.0239540328608844e-17 1.3928607403523826e-16 2.0239540328608844e-17 1.3928607403523826e-16 0.14760365338891226 -0.9890465921816093
12638884000.0 0.13558768790029227 -0.9907653500651206 2.193665769618209e-17 1.3900105880207187e-16 2.193665769618209e-17 1.3900105880207187e-16 0.13558837751934413 -0.9907652556895004
12639501333.333334 0.12355243600347071 -0.9923380450015088 2.3629833056452435e-17 1.3869537690590075e-16 2.3629833056452435e-17 1.3869537690590075e-16 0.12355312668346531 -0.9923379590071864
12640118666.666666 0.1114989822833633 -0.9937645480442454 2.5318814884251603e-17 1.383690821071232e-16 2.5318814884251603e-17 1.383690821071232e-16 0.11149967392245057 -0.9937644704430703
12640736000.0 0.09942910246248271 -0.9950446490400885 2.7003352379422714e-17 1.380222312255719e-16 2.7003352379422714e-17 1.380222312255719e-16 0.09942979495868139 -0.995044579842674
12641353333.333334 0.08734457468369601 -0.9961781594037955 2.868319550386733e-17 1.3765488413085685e-16 2.868319550386733e-17 1.3765488413085685e-16 0.08734526793490818 -0.996178098619513
12641970666.666666 0.07524717924747537 -0.9971649121459841 3.035809501871921e-17 1.3726710373220657e-16 3.035809501871921e-17 1.3726710373220657e-16 0.07524787315150219 -0.9971648597829673
12642588000.0 0.06313869835013275 -0.9980047618976879 3.2027802521239064e-17 1.3685895596788772e-16 3.2027802521239064e-17 1.3685895596788772e-16 0.06313939280468907 -0.9980047179628283
12643205333.333334 0.051020915821038806 -0.9986975849317905 3.369207048159744e-17 1.3643050979417144e-16 3.369207048159744e-17 1.3643050979417144e-16 0.051021610723768394 -0.9986975494307381
12643822666.666666 0.03889561685982795 -0.9992432791812523 3.535065227954006e-17 1.3598183717384616e-16 3.535065227954006e-17 1.3598183717384616e-16 0.03889631210831846 -0.9992432521184126
12644440000.0 0.02676458777348646 -0.9996417642541375 3.700330224086793e-17 1.3551301306429425e-16 3.700330224086793e-17 1.3551301306429425e-16 0.026765283265284677 -0.9996417456326732
12645057333.333334 0.01462961571324963 -0.9998929814454602 3.8649775673769927e-17 1.3502411540512516e-16 3.8649775673769927e-17 1.3502411540512516e-16 0.014630311345876518 -0.9998929712672913
12645674666.666666 0.002492488411260772 -0.99999689374584 4.028982890500975e-17 1.3451522510536284e-16 4.028982890500975e-17 1.3451522510536284e-16 0.0024931840822265197 -0.9999968920116409
12646292000.0 -0.009645006083054597 -0.9999534858469505 4.192321931597291e-17 1.3398642603018594e-16 4.192321931597291e-17 1.3398642603018594e-16 -0.009644310476235434 -0.9999534925561525
12646909333.333334 -0.021781079665950616 -0.9997627641437712 4.354970537844706e-17 1.33437804987261e-16 4.354970537844706e-17 1.33437804987261e-16 -0.021780384225744038 -0.9997627792945626
12647526666.666666 -0.03391394444309837 -0.9994247567336516 4.51690466903282e-17 1.328694517126097e-16 4.51690466903282e-17 1.328694517126097e-16 -0.03391324927193582 -0.999424780322976
12648144000.0 -0.04604181299297955 -0.9989395134121629 4.678100401110257e-17 1.3228145885605625e-16 4.678100401110257e-17 1.3228145885605625e-16 -0.0460411181932428 -0.9989395454357209
12648761333.333334 -0.058162898629983195 -0.99830710566577 4.8385339297111304e-17 1.316739219662563e-16 4.8385339297111304e-17 1.316739219662563e-16 -0.05816220430398942 -0.9983071461180221
12649378666.666666 -0.07027541566782054 -0.9975276266612988 4.99818157366792e-17 1.3104693947527999e-16 4.99818157366792e-17 1.3104693947527999e-16 -0.07027472191780708 -0.997527675535463
12649996000.0 -0.0823775796825081 -0.9966011912322101 5.1570197785007563e-17 1.304006126827813e-16 5.1570197785007563e-17 1.304006126827813e-16 -0.08237688661061741 -0.9966012485202647
12650613333.333334 -0.09446760777539187 -0.995527935861673 5.3150251198890586e-17 1.2973504573973685e-16 5.3150251198890586e-17 1.2973504573973685e-16 -0.09446691548365667 -0.9955280015543575
12651230666.666666 -0.1065437188354654 -0.9943080186624856 5.472174307117951e-17 1.2905034563178273e-16 5.472174307117951e-17 1.2905034563178273e-16 -0.10654302742579343 -0.9943080927493028
12651848000.0 -0.11860413380224534 -0.9929416193537403 5.628444186510682e-17 1.2834662216210301e-16 5.628444186510682e-17 1.2834662216210301e-16 -0.11860344337640448 -0.9929417018229568
12652465333.333334 -0.13064707592752406 -0.9914289392343745 5.783811744830104e-17 1.2762398793394337e-16 5.783811744830104e-17 1.2762398793394337e-16 -0.13064638658712727 -0.9914290300730232
12653082666.666666 -0.14267077103703724 -0.9897702011535338 5.938254112664815e-17 1.2688255833268448e-16 5.938254112664815e-17 1.2688255833268448e-16 -0.1426700828835279 -0.9897703003474174
12653700000.0 -0.15467344779228748 -0.9879656494776806 6.091748567792724e-17 1.261224515075013e-16 6.091748567792724e-17 1.261224515075013e-16 -0.154672760926924 -0.987965757011371
12654317333.333334 -0.16665333795102003 -0.9860155500546592 6.24427253851283e-17 1.2534378835266152e-16 6.24427253851283e-17 1.2534378835266152e-16 -0.1666526524748613 -0.9860156659115018
12654934666.666666 -0.1786086766279187 -0.9839201901745047 6.39580360696491e-17 1.245466924883609e-16 6.39580360696491e-17 1.245466924883609e-16 -0.178607992641809 -0.9839203143366199
12655552000.0 -0.19053770255477764 -0.9816798785270876 6.54631951241817e-17 1.2373129024119302e-16 6.54631951241817e-17 1.2373129024119302e-16 -0.19053702015933208 -0.9816800109753747
12656169333.333334 -0.20243865833963667 -0.9792949451566971 6.695798154532024e-17 1.228977106242399e-16 6.695798154532024e-17 1.228977106242399e-16 -0.20243797763522606 -0.9792950858708365
12656786666.666666 -0.21430979072587722 -0.9767657414133845 6.844217596601456e-17 1.2204608531671643e-16 6.844217596601456e-17 1.2204608531671643e-16 -0.21430911181261394 -0.9767658903718425
12657404000.0 -0.22614935085054202 -0.974092639901199 6.991556068768238e-17 1.2117654864326925e-16 6.991556068768238e-17 1.2117654864326925e-16 -0.22614867382826406 -0.9740927970812261
12658021333.333334 -0.2379555945019484 -0.9712760344232907 7.137791971208424e-17 1.2028923755287527e-16 7.137791971208424e-17 1.2028923755287527e-16 -0.23795491947020578 -0.9712761998009303
12658638666.666666 -0.24972678237642726 -0.9683163399239564 7.28290387729395e-17 1.1938429159735352e-16 7.28290387729395e-17 1.1938429159735352e-16 -0.2497261094344672 -0.9683165134740466
12659256000.0 -0.26146118033499993 -0.9652139924273984 7.426870536728704e-17 1.1846185290948443e-16 7.426870536728704e-17 1.1846185290948443e-16 -0.26146050958175227 -0.9652141741235772
12659873333.333334 -0.2731570596585216 -0.9619694489735733 7.56967087865271e-17 1.1752206618077985e-16 7.56967087865271e-17 1.1752206618077985e-16 -0.2731563911925837 -0.9619696387882796
12660490666.666666 -0.28481269730227515 -0.9585831875508836 7.71128401471932e-17 1.1656507863887404e-16 7.71128401471932e-17 1.1656507863887404e-16 -0.2848120312218981 -0.9585833854553631
12661108000.0 -0.29642637615024997 -0.9550557070256378 7.851689242150866e-17 1.155910400244977e-16 7.851689242150866e-17 1.155910400244977e-16 -0.2964257125533239 -0.9550559129899485
12661725333.333334 -0.30799638526764295 -0.951387527068689 7.990866046752525e-17 1.1460010256817174e-16 7.990866046752525e-17 1.1460010256817174e-16 -0.3079957242516825 -0.9513877410617035
12662342666.666666 -0.3195210201531344 -0.947579188078816 8.12879410591004e-17 1.1359242096645e-16 8.12879410591004e-17 1.1359242096645e-16 -0.3195203618152648 -0.9475794100682288
12662960000.0 -0.33099858299002255 -0.9436312511031024 8.265453291548703e-17 1.1256815235786194e-16 8.265453291548703e-17 1.1256815235786194e-16 -0.33099792742696404 -0.9436314810554296
12663577333.333334 -0.3424273828962914 -0.9395442977542927 8.400823673066093e-17 1.1152745629847333e-16 8.400823673066093e-17 1.1152745629847333e-16 -0.342426730204347 -0.9395445356348836
12664194666.666666 -0.3538057361736331 -0.9353189301251432 8.534885520231948e-17 1.1047049473711217e-16 8.534885520231948e-17 1.1047049473711217e-16 -0.3538050864486737 -0.935319175898183
12664812000.0 -0.36513196655565433 -0.930955770699667 8.667619306060088e-17 1.0939743199022232e-16 8.667619306060088e-17 1.0939743199022232e-16 -0.3651313198931034 -0.9309560243281797
12665429333.333334 -0.3764044054547663 -0.9264554622614375 8.799005709646324e-17 1.0830843471639198e-16 8.799005709646324e-17 1.0830843471639198e-16 -0.3764037619495877 -0.9264557237072949
12666046666.666666 -0.3876213922077957 -0.9218186677989875 8.929025618972702e-17 1.0720367189055873e-16 8.929025618972702e-17 1.0720367189055873e-16 -0.3876207519544788 -0.9218189370229134
12666664000.0 -0.3987812743210803 -0.9170460704079512 9.057660133687027e-17 1.0608331477781407e-16 9.057660133687027e-17 1.0608331477781407e-16 -0.3987806374136262 -0.9170463473695274
12667281333.333334 -0.4098824077134684 -0.9121383731906136 9.184890567839378e-17 1.0494753690696342e-16 9.184890567839378e-17 1.0494753690696342e-16 -0.409881774245376 -0.9121386578482858
12667898666.666666 -0.42092315695871163 -0.9070962991522573 9.310698452592785e-17 1.0379651404369648e-16 9.310698452592785e-17 1.0379651404369648e-16 -0.42092252702296407 -0.9070965914633412
12668516000.0 -0.4319018955265502 -0.9019205910945722 9.435065538900028e-17 1.0263042416343563e-16 9.435065538900028e-17 1.0263042416343563e-16 -0.4319012692156013 -0.9019208910152614
12669133333.333334 -0.4428170060220241 -0.8966120115063705 9.557973800141336e-17 1.0144944742391323e-16 9.557973800141336e-17 1.0144944742391323e-16 -0.4428163834277849 -0.8966123189917408
12669750666.666666 -0.453666880423932 -0.8911713424511742 9.679405434733308e-17 1.0025376613738217e-16 9.679405434733308e-17 1.0025376613738217e-16 -0.4536662616377565 -0.891171657455191
12670368000.0 -0.4644499203217985 -0.8855993854519575 9.799342868701822e-17 9.904356474252948e-17 9.799342868701822e-17 9.904356474252948e-17 -0.4644493054344716 -0.8855997079274851
