! Parameters = {f0=12700.012000; bw=77.238000; Q=6100.000000; N=10; m_0_1=1.258153; m_1_1=0.107552; m_1_2=1.092965; m_2_2=0.106903; m_2_3=0.729928; m_2_8=-0.000029; m_2_9=0.036675; m_3_3=0.104966; m_3_4=0.618457; m_3_7=0.000571; m_3_8=-0.096517; m_3_9=-0.000029; m_4_4=0.102041; m_4_5=0.454792; m_4_6=0.004088; m_4_7=-0.117066; m_4_8=0.000571; m_5_5=0.102423; m_5_6=0.862147; m_5_7=0.004088; m_6_6=0.102422; m_6_7=0.455134; m_7_7=0.102055; m_7_8=0.618575; m_8_8=0.104964; m_8_9=0.730241; m_9_9=0.106898; m_9_10=1.094043; m_10_10=0.107542; m_10_11=1.258948}
!
! Created with skrf (http://scikit-rf.org).
# Hz S RI R 50.0 
!freq ReS11 ImS11 ReS21 ImS21 ReS12 ImS12 ReS22 ImS22
12607400000.0 -0.06910773862281853 0.9976092022742509 -2.2700177397137077e-17 -1.0206536250170161e-16 -2.2700177397137077e-17 -1.0206536250170161e-16 -0.06910839992931744 0.9976091564631092
12608017333.333334 -0.05895593572543275 0.9982605860408225 -2.3741648135778287e-17 -1.0180711578343013e-16 -2.3741648135778287e-17 -1.0180711578343013e-16 -0.05895659743133005 0.9982605469611365
12608634666.666666 -0.04879803186973763 0.9988086664048658 -2.4780210923304733e-17 -1.0153824952769946e-16 -2.4780210923304733e-17 -1.0153824952769946e-16 -0.04879869390652197 0.9988086340600206
12609252000.0 -0.03863507823013685 0.9992533866492413 -2.5815757553913487e-17 -1.0125879620105312e-16 -2.5815757553913487e-17 -1.0125879620105312e-16 -0.038635740529269366 0.9992533610419242
12609869333.333334 -0.028468126503658202 0.9995947007528598 -2.6848180181691007e-17 -1.0096878937176815e-16 -2.6848180181691007e-17 -1.0096878937176815e-16 -0.02846878899657958 0.9995946818850605
12610486666.666666 -0.018298228801177516 0.9998325733954501 -2.787737133178537e-17 -1.0066826370590088e-16 -2.787737133178537e-17 -1.0066826370590088e-16 -0.018298891419315125 0.9998325612684611
12611104000.0 -0.008126437538144848 0.9999669799612209 -2.890322391162656e-17 -1.0035725496319325e-16 -2.890322391162656e-17 -1.0035725496319325e-16 -0.008127100212919824 0.9999669745756385
12611721333.333334 0.0020461946737263806 0.9999979065414006 -2.9925631221988e-17 -1.0003579999289827e-16 -2.9925631221988e-17 -1.0003579999289827e-16 0.002045532010892084 0.9999979078971214
12612338666.666666 0.012218615135898768 0.9999253499356779 -3.094448696809923e-17 -9.970393672946434e-17 -3.094448696809923e-17 -9.970393672946434e-17 0.012217952553575228 0.9999253580319011
12612956000.0 0.022389771171748767 0.9997493176525324 -3.195968527068306e-17 -9.936170418811472e-17 -3.195968527068306e-17 -9.936170418811472e-17 0.022389108738491013 0.9997493324877605
12613573333.333334 0.03255861023533077 0.9994698279084626 -3.2971120676891225e-17 -9.900914246033323e-17 -3.2971120676891225e-17 -9.900914246033323e-17 0.0325579480196717 0.9994698494805008
12614190666.666666 0.04272408002066754 0.9990869096260924 -3.397868817128656e-17 -9.86462927092063e-17 -3.397868817128656e-17 -9.86462927092063e-17 0.04272341809111083 0.9990869379320495
12614808000.0 0.05288512857030544 0.9986006024311866 -3.4982283186690524e-17 -9.827319716468264e-17 -3.4982283186690524e-17 -9.827319716468264e-17 0.0528844669953185 0.9986006374674751
12615425333.333334 0.06304070438443035 0.998010956648544 -3.598180161502443e-17 -9.788989911870755e-17 -3.598180161502443e-17 -9.788989911870755e-17 0.06304004323243713 0.9980109984108788
12616042666.666666 0.07318975652948137 0.9973180332967924 -3.697713981809472e-17 -9.749644292024723e-17 -3.697713981809472e-17 -9.749644292024723e-17 0.07318909586885543 0.9973180817801945
12616660000.0 0.08333123474699063 0.9965219040820772 -3.7968194638297465e-17 -9.709287397021515e-17 -3.7968194638297465e-17 -9.709287397021515e-17 0.08333057464604786 0.9965219592808711
12617277333.333334 0.09346408956238052 0.9956226513906274 -3.8954863409311864e-17 -9.667923871627212e-17 -3.8954863409311864e-17 -9.667923871627212e-17 0.09346343008937233 0.9956227132984442
12617894666.666666 0.10358727239322724 0.9946203682802595 -3.993704396667773e-17 -9.625558464754308e-17 -3.993704396667773e-17 -9.625558464754308e-17 0.10358661361633337 0.9946204368900368
12618512000.0 0.11369973565830928 0.9935151584706983 -4.0914634658403155e-17 -9.582196028918909e-17 -4.0914634658403155e-17 -9.582196028918909e-17 0.11369907764563081 0.9935152337746812
12619129333.333334 0.12380043288542106 0.9923071363329043 -4.1887534355405473e-17 -9.537841519691967e-17 -4.1887534355405473e-17 -9.537841519691967e-17 0.12379977570497325 0.9923072183226451
12619746666.666666 0.1338883188200326 0.9909964268771976 -4.2855642461985296e-17 -9.492499995135844e-17 -4.2855642461985296e-17 -9.492499995135844e-17 0.13388766253973788 0.9909965155435573
12620364000.0 0.1439623495335404 0.989583165740308 -4.381885892621321e-17 -9.446176615231494e-17 -4.381885892621321e-17 -9.446176615231494e-17 0.14396169422122157 0.9895832610734592
12620981333.333334 0.15402148253084608 0.9880674991714014 -4.477708425020408e-17 -9.398876641297493e-17 -4.477708425020408e-17 -9.398876641297493e-17 0.15402082825421914 0.988067601160827
12621598666.666666 0.16406467685874393 0.9864495840168731 -4.573021950042021e-17 -9.350605435394383e-17 -4.573021950042021e-17 -9.350605435394383e-17 0.164064023685411 0.9864496926513685
12622216000.0 0.174090893213305 0.9847295877041682 -4.667816631782837e-17 -9.301368459722597e-17 -4.667816631782837e-17 -9.301368459722597e-17 0.17409024121074737 0.9847297029718411
12622833333.333334 0.18409909404756783 0.9829076882244298 -4.762082692805327e-17 -9.251171276007069e-17 -4.762082692805327e-17 -9.251171276007069e-17 0.18409844328313915 0.9829078101127044
12623450666.666666 0.19408824367887956 0.980984074114088 -4.8558104151410463e-17 -9.200019544874447e-17 -4.8558104151410463e-17 -9.200019544874447e-17 0.1940875942197989 0.9809842026097046
12624068000.0 0.2040573083960168 0.9789589444353634 -4.948990141292246e-17 -9.147919025217559e-17 -4.948990141292246e-17 -9.147919025217559e-17 0.2040566603093612 0.9789590795243777
12624685333.333334 0.2140052565664067 0.9768325087556073 -5.0416122752256526e-17 -9.094875573550267e-17 -5.0416122752256526e-17 -9.094875573550267e-17 0.21400460991910505 0.976832650423397
12625302666.666666 0.22393105874241206 0.9746049871257224 -5.1336672833539864e-17 -9.040895143355345e-17 -5.1336672833539864e-17 -9.040895143355345e-17 0.22393041360123767 0.9746051353569843
12625920000.0 0.2338336877683621 0.9722766100572796 -5.225145695520836e-17 -8.985983784416652e-17 -5.225145695520836e-17 -8.985983784416652e-17 0.23383304419992565 0.972276764836033
12626537333.333334 0.2437121188865401 0.9698476184987317 -5.3160381059671557e-17 -8.930147642147804e-17 -5.3160381059671557e-17 -8.930147642147804e-17 0.2437114769572831 0.9698477798083196
12627154666.666666 0.253565329843202 0.9673182638104877 -5.40633517429832e-17 -8.873392956906695e-17 -5.40633517429832e-17 -8.873392956906695e-17 0.25356468961939016 0.9673184316335801
12627772000.0 0.2633923009947492 0.9646888077388062 -5.49602762644386e-17 -8.815726063300188e-17 -5.49602762644386e-17 -8.815726063300188e-17 0.263391662542465 0.9646889820574003
12628389333.333334 0.2731920154126655 0.961959522388855 -5.585106255602307e-17 -8.757153389483807e-17 -5.585106255602307e-17 -8.757153389483807e-17 0.2731913787978018 0.9619597031842773
12629006666.666666 0.28296345898924813 0.9591306901964233 -5.67356192318962e-17 -8.697681456445012e-17 -5.67356192318962e-17 -8.697681456445012e-17 0.28296282427750113 0.9591308774493327
12629624000.0 0.29270562054233035 0.9562026038987532 -5.761385559769599e-17 -8.63731687728361e-17 -5.761385559769599e-17 -8.63731687728361e-17 0.292704987799193 0.9562027975891415
12630241333.333334 0.302417491919923 0.9531755665042462 -5.848568165984818e-17 -8.576066356477472e-17 -5.848568165984818e-17 -8.576066356477472e-17 0.30241686121067785 0.9531757666114408
12630858666.666666 0.31209806810446 0.950049891261133 -5.93510081347296e-17 -8.513936689143501e-17 -5.93510081347296e-17 -8.513936689143501e-17 0.3120974394941732 0.9500500977638009
12631476000.0 0.3217463473171804 0.9468259016249393 -6.020974645783337e-17 -8.450934760283827e-17 -6.020974645783337e-17 -8.450934760283827e-17 0.3217457208706943 0.9468261145010864
12632093333.333334 0.33136133112125443 0.9435039312251846 -6.106180879276072e-17 -8.387067544029448e-17 -6.106180879276072e-17 -8.387067544029448e-17 0.3313607069031811 0.9435041504521596
12632710666.666666 0.3409420245254841 0.940084323830736 -6.190710804020249e-17 -8.32234210286987e-17 -6.190710804020249e-17 -8.32234210286987e-17 0.34094140260019884 0.9400845493852332
12633328000.0 0.35048743608721306 0.9365674333142489 -6.274555784683665e-17 -8.256765586873828e-17 -6.274555784683665e-17 -8.256765586873828e-17 0.35048681651884755 0.9365676651723096
12633945333.333334 0.35999657801476437 0.9329536236156052 -6.357707261408738e-17 -8.190345232905356e-17 -6.357707261408738e-17 -8.190345232905356e-17 0.3599959608672001 0.932953861752621
12634562666.666666 0.3694684662698735 0.9292432687041724 -6.440156750686958e-17 -8.123088363825921e-17 -6.440156750686958e-17 -8.123088363825921e-17 0.3694678516067357 0.9292435130948886
12635180000.0 0.37890212066930884 0.9254367525401876 -6.521895846219798e-17 -8.055002387691695e-17 -6.521895846219798e-17 -8.055002387691695e-17 0.3789015085539587 0.9254370031587034
12635797333.333334 0.38829656498654 0.9215344690349254 -6.602916219775336e-17 -7.98609479693894e-17 -6.602916219775336e-17 -7.98609479693894e-17 0.3882959554820693 0.9215347258546984
12636414666.666666 0.3976508270524732 0.9175368220100555 -6.683209622031773e-17 -7.916373167564556e-17 -6.683209622031773e-17 -7.916373167564556e-17 0.3976502202216975 0.9175370850039047
12637032000.0 0.40696393885629106 0.913444225155757 -6.762767883416853e-17 -7.845845158294369e-17 -6.762767883416853e-17 -7.845845158294369e-17 0.40696333476174296 0.9134444942958655
12637649333.333334 0.41623493664559774 0.9092571019879155 -6.841582914936233e-17 -7.774518509744907e-17 -6.841582914936233e-17 -7.774518509744907e-17 0.4162343353495207 0.9092573772458327
12638266666.666666 0.4254628610259969 0.9049758858043677 -6.919646708992076e-17 -7.702401043577938e-17 -6.919646708992076e-17 -7.702401043577938e-17 0.4254622625903386 0.9049761671510124
12638884000.0 0.4346467570605793 0.9006010196399676 -6.99695134019572e-17 -7.629500661643997e-17 -6.99695134019572e-17 -7.629500661643997e-17 0.4346461615469852 0.9006013070456311
12639501333.333334 0.4437856743685874 0.8961329562208088 -7.073488966168377e-17 -7.5558253451206e-17 -7.073488966168377e-17 -7.5558253451206e-17 0.44378508183839493 0.8961332496551596
12640118666.666666 0.45287866722368997 0.8915721579174186 -7.149251828333483e-17 -7.481383153641903e-17 -7.149251828333483e-17 -7.481383153641903e-17 0.45287807773792194 0.8915724573495037
12640736000.0 0.4619247946523309 0.8869190966966658 -7.224232252704511e-17 -7.406182224415909e-17 -7.224232252704511e-17 -7.406182224415909e-17 0.4619242082716888 0.8869194020949145
12641353333.333334 0.47092312053034313 0.8821742540733041 -7.29842265065307e-17 -7.330230771344103e-17 -7.29842265065307e-17 -7.330230771344103e-17 0.47092253731520184 0.8821745654055323
12641970666.666666 0.47987271368043144 0.8773381210598373 -7.371815519680309e-17 -7.253537084121042e-17 -7.371815519680309e-17 -7.253537084121042e-17 0.4798721336908314 0.8773384382932486
12642588000.0 0.4887726479683536 0.8724111981157924 -7.444403444169126e-17 -7.176109527336009e-17 -7.444403444169126e-17 -7.176109527336009e-17 0.4887720712639962 0.8724115212169832
12643205333.333334 0.49762200239861154 0.8673939950960137 -7.516179096132586e-17 -7.097956539561551e-17 -7.516179096132586e-17 -7.097956539561551e-17 0.49762142903885276 0.8673943240309782
12643822666.666666 0.5064198612100591 0.8622870311977401 -7.587135235950075e-17 -7.019086632437258e-17 -7.587135235950075e-17 -7.019086632437258e-17 0.5064192912539024 0.8622873659318702
12644440000.0 0.5151653139703672 0.8570908349070367 -7.657264713095356e-17 -6.939508389744798e-17 -7.657264713095356e-17 -6.939508389744798e-17 0.5151647474764581 0.8570911754051285
12645057333.333334 0.5238574556703408 0.8518059439440564 -7.726560466853154e-17 -6.859230466477609e-17 -7.726560466853154e-17 -6.859230466477609e-17 0.5238568926969616 0.8518062901703131
12645674666.666666 0.5324953868176455 0.8464329052073495 -7.795015527027812e-17 -6.778261587901556e-17 -7.795015527027812e-17 -6.778261587901556e-17 0.5324948274227079 0.8464332571253851
12646292000.0 0.5410782135298882 0.8409722747172657 -7.86262301464342e-17 -6.696610548606948e-17 -7.86262301464342e-17 -6.696610548606948e-17 0.541077657770928 0.8409726322901085
12646909333.333334 0.5496050476269982 0.8354246175584923 -7.929376142628565e-17 -6.614286211560103e-17 -7.929376142628565e-17 -6.614286211560103e-17 0.5496044955611694 0.835424980748589
12647526666.666666 0.5580750067231893 0.8297905078215468 -7.99526821649723e-17 -6.531297507140942e-17 -7.99526821649723e-17 -6.531297507140942e-17 0.5580744584072582 0.8297908765907666
12648144000.0 0.5664872143184365 0.8240705285432585 -8.060292635017563e-17 -6.447653432176313e-17 -8.060292635017563e-17 -6.447653432176313e-17 0.5664866698087762 0.8240709028528977
12648761333.333334 0.5748407998889192 0.8182652716466072 -8.124442890868206e-17 -6.363363048969676e-17 -8.124442890868206e-17 -6.363363048969676e-17 0.574840259241503 0.8182656514573917
12649378666.666666 0.5831348989771781 0.8123753378794223 -8.18771257128797e-17 -6.278435484319926e-17 -8.18771257128797e-17 -6.278435484319926e-17 0.5831343622475738 0.8123757231515127
12649996000.0 0.591368653281757 0.8064013367520843 -8.250095358713279e-17 -6.192879928536348e-17 -8.250095358713279e-17 -6.192879928536348e-17 0.5913681205251232 0.8064017274450813
12650613333.333334 0.5995412107458167 0.8003438864746004 -8.31158503140682e-17 -6.106705634445406e-17 -8.31158503140682e-17 -6.106705634445406e-17 0.5995406820168935 0.8003442825475459
12651230666.666666 0.6076517256452831 0.7942036138926453 -8.372175464072847e-17 -6.019921916395343e-17 -8.372175464072847e-17 -6.019921916395343e-17 0.6076512009983897 0.7942040153040291
12651848000.0 0.615699358676664 0.7879811544224732 -8.43186062846728e-17 -5.932538149247573e-17 -8.43186062846728e-17 -5.932538149247573e-17 0.6156988381656914 0.7879815611302368
12652465333.333334 0.6236832770435383 0.7816771519854355 -8.490634593991576e-17 -5.844563767370226e-17 -8.490634593991576e-17 -5.844563767370226e-17 0.6236827607219448 0.7816775639469772
12653082666.666666 0.6316026545429198 0.7752922589412111 -8.54849152827931e-17 -5.756008263621279e-17 -8.54849152827931e-17 -5.756008263621279e-17 0.6316021424637247 0.775292676113389
12653700000.0 0.6394566716508195 0.7688271360202399 -8.605425697773775e-17 -5.666881188323461e-17 -8.605425697773775e-17 -5.666881188323461e-17 0.6394561638665983 0.7688275583593777
12654317333.333334 0.6472445156068113 0.7622824522555484 -8.66143146828949e-17 -5.577192148241835e-17 -8.66143146828949e-17 -5.577192148241835e-17 0.6472440121696892 0.7622828797174382
12654934666.666666 0.6549653804984247 0.7556588849132806 -8.716503305569275e-17 -5.486950805546273e-17 -8.716503305569275e-17 -5.486950805546273e-17 0.6549648814600725 0.7556593174531899
12655552000.0 0.6626184673443872 0.7489571194227361 -8.770635775826542e-17 -5.396166876774612e-17 -8.770635775826542e-17 -5.396166876774612e-17 0.662617972756016 0.7489575569954117
12656169333.333334 0.6702029841772896 0.7421778493054634 -8.823823546277142e-17 -5.3048501317903543e-17 -8.823823546277142e-17 -5.3048501317903543e-17 0.6702024940896439 0.7421782918651344
12656786666.666666 0.6777181461256013 0.7353217761034324 -8.876061385663171e-17 -5.2130103927303535e-17 -8.876061385663171e-17 -5.2130103927303535e-17 0.6777176605889552 0.7353222236038165
12657404000.0 0.6851631754948508 0.7283896093064757 -8.927344164762082e-17 -5.120657532953661e-17 -8.927344164762082e-17 -5.120657532953661e-17 0.6851626945590036 0.7283900617007849
12658021333.333334 0.6925373018482099 0.721382066278772 -8.977666856888219e-17 -5.0278014759798936e-17 -8.977666856888219e-17 -5.0278014759798936e-17 0.6925368255624785 0.7213825235197157
12658638666.666666 0.6998397620859689 0.7142998721848423 -9.027024538379994e-17 -4.934452194428574e-17 -9.027024538379994e-17 -4.934452194428574e-17 0.699839290499186 0.7143003342246339
12659256000.0 0.7070698005248801 0.7071437599141588 -9.075412389080413e-17 -4.8406197089457594e-17 -9.075412389080413e-17 -4.8406197089457594e-17 0.7070693336853862 0.7071442267045188
12659873333.333334 0.7142266689760259 0.6999144700056132 -9.122825692801758e-17 -4.746314087134779e-17 -9.122825692801758e-17 -4.746314087134779e-17 0.7142262069316653 0.699914941497775
12660490666.666666 0.7213096268223098 0.692612750570828 -9.16925983778188e-17 -4.6515454424776e-17 -9.16925983778188e-17 -4.6515454424776e-17 0.7213091696204267 0.6926132267155446
12661108000.0 0.7283179410953555 0.6852393572164769 -9.214710317130513e-17 -4.556323933249109e-17 -9.214710317130513e-17 -4.556323933249109e-17 0.728317488782788 0.6852398379640232
12661725333.333334 0.7352508865509604 0.6777950529664954 -9.259172729259957e-17 -4.460659761436004e-17 -9.259172729259957e-17 -4.460659761436004e-17 0.7352504391740369 0.6777955382666766
12662342666.666666 0.7421077457444245 0.67028060818284 -9.302642778309735e-17 -4.3645631716410586e-17 -9.302642778309735e-17 -4.3645631716410586e-17 0.7421073033489562 0.6702810979849927
12662960000.0 0.7488878091047491 0.6626968004858007 -9.345116274555813e-17 -4.268044449991698e-17 -9.345116274555813e-17 -4.268044449991698e-17 0.7488873717360303 0.6626972947388036
12663577333.333334 0.7555903750079568 0.6550444146736646 -9.386589134811297e-17 -4.1711139230388535e-17 -9.386589134811297e-17 -4.1711139230388535e-17 0.7555899427107547 0.6550449133259385
12664194666.666666 0.7622147498498442 0.6473242426413268 -9.42705738281376e-17 -4.073781956656219e-17 -9.42705738281376e-17 -4.073781956656219e-17 0.7622143226683987 0.6473247456408437
12664812000.0 0.7687602481176311 0.6395370832984955 -9.466517149602397e-17 -3.976058954933143e-17 -9.466517149602397e-17 -3.976058954933143e-17 0.7687598260956467 0.6395375905927813
12665429333.333334 0.7752261924609717 0.6316837424869295 -9.50496467388387e-17 -3.8779553590636716e-17 -9.50496467388387e-17 -3.8779553590636716e-17 0.7752257756416157 0.6316842540230717
12666046666.666666 0.7816119137620132 0.6237650328970926 -9.542396302384805e-17 -3.779481646236404e-17 -9.542396302384805e-17 -3.779481646236404e-17 0.7816115021879104 0.6237655486217449
12666664000.0 0.7879167512047126 0.6157817739839659 -9.578808490196267e-17 -3.680648328512627e-17 -9.578808490196267e-17 -3.680648328512627e-17 0.78791634491794 0.6157822938433535
12667281333.333334 0.7941400523431071 0.6077347918823768 -9.614197801102239e-17 -3.5814659517123377e-17 -9.614197801102239e-17 -3.5814659517123377e-17 0.7941396513851922 0.6077353158223028
12667898666.666666 0.8002811731688918 0.5996249193214461 -9.648560907900831e-17 -3.481945094286284e-17 -9.648560907900831e-17 -3.481945094286284e-17 0.8002807775808052 0.5996254472872963
12668516000.0 0.8063394781781117 0.5914529955383436 -9.681894592711132e-17 -3.3820963661917714e-17 -9.681894592711132e-17 -3.3820963661917714e-17 0.8063390880002648 0.5914535274750922
12669133333.333334 0.8123143404368215 0.5832198661915762 -9.714195747268796e-17 -3.2819304077654035e-17 -9.714195747268796e-17 -3.2819304077654035e-17 0.8123139557090627 0.5832204020437931
12669750666.666666 0.8182051416460191 0.5749263832734123 -9.745461373211634e-17 -3.181457888587787e-17 -9.745461373211634e-17 -3.181457888587787e-17 0.8182047624076276 0.5749269229852662
12670368000.0 0.8240112722056901 0.5665734050216167 -9.775688582351323e-17 -3.080689506352235e-17 -9.775688582351323e-17 -3.080689506352235e-17 0.8240108984953742 0.566573948536883
