! Parameters = {f0=12700.012000; bw=77.238000; Q=6100.000000; N=10; m_0_1=1.191687; m_1_1=-0.889445; m_1_2=1.026499; m_2_2=-0.890094; m_2_3=0.663462; m_2_8=-0.003352; m_2_9=0.033352; m_3_3=-0.892031; m_3_4=0.551991; m_3_7=-0.002752; m_3_8=-0.099840; m_3_9=-0.003352; m_4_4=-0.894956; m_4_5=0.388326; m_4_6=0.000765; m_4_7=-0.120389; m_4_8=-0.002752; m_5_5=-0.894574; m_5_6=0.795681; m_5_7=0.000765; m_6_6=-0.894575; m_6_7=0.388668; m_7_7=-0.894942; m_7_8=0.552109; m_8_8=-0.892033; m_8_9=0.663775; m_9_9=-0.890099; m_9_10=1.027577; m_10_10=-0.889455; m_10_11=1.192482}
!
! Created with skrf (http://scikit-rf.org).
# Hz S RI R 50.0 
!freq ReS11 ImS11 ReS21 ImS21 ReS12 ImS12 ReS22 ImS22
12607400000.0 -0.5783445280749849 -0.8157926249026574 5.920638930265856e-17 4.6530803451802706e-17 5.920638930265856e-17 4.6530803451802706e-17 -0.5783440157681536 -0.8157929880950255
12608017333.333334 -0.58502083439438 -0.8110182632495696 5.957871751289882e-17 4.602898518651643e-17 5.957871751289882e-17 4.602898518651643e-17 -0.585020325110723 -0.8110186306165773
12608634666.666666 -0.5916577292651626 -0.8061892652477054 5.994679809317361e-17 4.55241945403063e-17 5.994679809317361e-17 4.55241945403063e-17 -0.591657223038692 -0.8061896367641974
12609252000.0 -0.5982547655757192 -0.8013059562150935 6.031060737333798e-17 4.5016467420969915e-17 6.031060737333798e-17 4.5016467420969915e-17 -0.5982542624402363 -0.8013063318556353
12609869333.333334 -0.6048114988996104 -0.7963686651285633 6.067012198642267e-17 4.4505839924288925e-17 6.067012198642267e-17 4.4505839924288925e-17 -0.6048109988887066 -0.7963690448674469
12610486666.666666 -0.6113274875254925 -0.7913777246016044 6.102531887011495e-17 4.399234833148283e-17 6.102531887011495e-17 4.399234833148283e-17 -0.6113269906725441 -0.7913781084128471
12611104000.0 -0.6178022924869825 -0.786333470861868 6.137617526823942e-17 4.347602910662125e-17 6.137617526823942e-17 4.347602910662125e-17 -0.6178017988251507 -0.7863338587192162
12611721333.333334 -0.6242354775920093 -0.7812362437286949 6.172266873218515e-17 4.2956918894070523e-17 6.172266873218515e-17 4.2956918894070523e-17 -0.6242349871542366 -0.7812366356056243
12612338666.666666 -0.6306266094523977 -0.7760863865900602 6.206477712234637e-17 4.2435054515877494e-17 6.206477712234637e-17 4.2435054515877494e-17 -0.6306261222714068 -0.7760867824597794
12612956000.0 -0.6369752575130675 -0.770884246379445 6.240247860951715e-17 4.1910472969177625e-17 6.240247860951715e-17 4.1910472969177625e-17 -0.636974773621358 -0.7708846462148952
12613573333.333334 -0.6432809940808366 -0.7656301735526201 6.273575167626559e-17 4.1383211423590353e-17 6.273575167626559e-17 4.1383211423590353e-17 -0.6432805135106834 -0.7656305773264783
12614190666.666666 -0.6495433943534554 -0.7603245220638591 6.306457511830248e-17 4.085330721857863e-17 6.306457511830248e-17 4.085330721857863e-17 -0.6495429171369067 -0.7603249297485402
12614808000.0 -0.6557620364480946 -0.754967649342204 6.338892804581153e-17 4.032079786082285e-17 6.338892804581153e-17 4.032079786082285e-17 -0.6557615626169693 -0.754968060909861
12615425333.333334 -0.6619365014298711 -0.7495599162672889 6.370878988476316e-17 3.9785721021575256e-17 6.370878988476316e-17 3.9785721021575256e-17 -0.661936031015758 -0.7495603316898183
12616042666.666666 -0.6680663733399473 -0.7441016871451469 6.40241403782107e-17 3.9248114533996965e-17 6.40241403782107e-17 3.9248114533996965e-17 -0.6680659063741999 -0.7441021063941854
12616660000.0 -0.6741512392236321 -0.7385933296835859 6.433495958755281e-17 3.870801639050284e-17 6.433495958755281e-17 3.870801639050284e-17 -0.6741507757373698 -0.7385937527305165
12617277333.333334 -0.6801906891582045 -0.73303521496742 6.464122789378623e-17 3.8165464740076725e-17 6.464122789378623e-17 3.8165464740076725e-17 -0.6801902291823095 -0.7330356417833732
12617894666.666666 -0.6861843162804249 -0.7274277174335682 6.494292599872362e-17 3.7620497885596885e-17 6.494292599872362e-17 3.7620497885596885e-17 -0.6861838598455395 -0.7274281479894226
12618512000.0 -0.6921317168141713 -0.7217712148456132 6.524003492620711e-17 3.707315428112056e-17 6.524003492620711e-17 3.707315428112056e-17 -0.6921312639506969 -0.7217716491119994
12619129333.333334 -0.6980324900973319 -0.7160660882686473 6.5532536023272e-17 3.652347252920749e-17 6.5532536023272e-17 3.652347252920749e-17 -0.6980320408354257 -0.716066526215948
12619746666.666666 -0.7038862386090843 -0.7103127220433252 6.582041096131777e-17 3.597149137818023e-17 6.582041096131777e-17 3.597149137818023e-17 -0.7038857929786584 -0.7103131636416786
12620364000.0 -0.7096925679965519 -0.70451150376009 6.610364173723568e-17 3.541724971941275e-17 6.610364173723568e-17 3.541724971941275e-17 -0.7096921260272697 -0.7045119489793901
12620981333.333334 -0.7154510871012695 -0.6986628242331613 6.638221067451501e-17 3.486078658460872e-17 6.638221067451501e-17 3.486078658460872e-17 -0.7154506488225453 -0.6986632730430613
12621598666.666666 -0.7211614079857157 -0.6927670774740271 6.665610042434002e-17 3.430214114304456e-17 6.665610042434002e-17 3.430214114304456e-17 -0.721160973426714 -0.6927675298439432
12622216000.0 -0.7268231459593503 -0.6868246606650035 6.692529396665029e-17 3.3741352698830675e-17 6.692529396665029e-17 3.3741352698830675e-17 -0.7268227151489806 -0.6868251165641136
12622833333.333334 -0.7324359196045654 -0.6808359741324335 6.718977461118363e-17 3.3178460688153064e-17 6.718977461118363e-17 3.3178460688153064e-17 -0.732435492571482 -0.6808364335296806
12623450666.666666 -0.7379993508022848 -0.6748014213198211 6.74495259984954e-17 3.2613504676508923e-17 6.74495259984954e-17 3.2613504676508923e-17 -0.7379989275748852 -0.6748018841839165
12624068000.0 -0.7435130647576127 -0.6687214087604693 6.770453210095347e-17 3.204652435593628e-17 6.770453210095347e-17 3.204652435593628e-17 -0.7435126453640352 -0.6687218750598931
12624685333.333334 -0.7489766900249832 -0.6625963460501911 6.795477722371505e-17 3.1477559542224285e-17 6.795477722371505e-17 3.1477559542224285e-17 -0.7489762744931048 -0.6625968157531958
12625302666.666666 -0.7543898585330722 -0.6564266458198483 6.820024600566688e-17 3.090665017214748e-17 6.820024600566688e-17 3.090665017214748e-17 -0.7543894468905067 -0.6564271188944589
12625920000.0 -0.7597522056098563 -0.6502127237072528 6.844092342036411e-17 3.03338363006419e-17 6.844092342036411e-17 3.03338363006419e-17 -0.7597517978839538 -0.6502132001212716
12626537333.333334 -0.7650633700069182 -0.6439549983294659 6.867679477692019e-17 2.9759158098032765e-17 6.867679477692019e-17 2.9759158098032765e-17 -0.7650629662247619 -0.6439554780504733
12627154666.666666 -0.7703229939238971 -0.6376538912544715 6.8907845720895e-17 2.918265584720672e-17 6.8907845720895e-17 2.918265584720672e-17 -0.7703225941123015 -0.6376543742498277
12627772000.0 -0.7755307230326983 -0.6313098269726405 6.913406223515e-17 2.860436994079643e-17 6.913406223515e-17 2.860436994079643e-17 -0.7755303272182088 -0.6313103132094889
12628389333.333334 -0.7806862065011129 -0.6249232328684435 6.935543064067285e-17 2.802434087837897e-17 6.935543064067285e-17 2.802434087837897e-17 -0.7806858147100016 -0.6249237223137121
12629006666.666666 -0.7857890970167024 -0.6184945391913501 6.957193759739726e-17 2.744260926362045e-17 6.957193759739726e-17 2.744260926362045e-17 -0.7857887092749691 -0.618495031811754
12629624000.0 -0.790839050810071 -0.6120241790269972 6.978357010497934e-17 2.6859215801463886e-17 6.978357010497934e-17 2.6859215801463886e-17 -0.7908386671434403 -0.6120246747890414
12630241333.333334 -0.7958357276780262 -0.6055125882680155 6.999031550356281e-17 2.6274201295279613e-17 6.999031550356281e-17 2.6274201295279613e-17 -0.7958353481119439 -0.6055130871379952
12630858666.666666 -0.8007787910064611 -0.5989602055847073 7.019216147451554e-17 2.5687606644024073e-17 7.019216147451554e-17 2.5687606644024073e-17 -0.8007784155660966 -0.5989607075287134
12631476000.0 -0.8056679077932061 -0.592367472395271 7.038909604114663e-17 2.5099472839378842e-17 7.038909604114663e-17 2.5099472839378842e-17 -0.8056675365034467 -0.5923679773791897
12632093333.333334 -0.8105027486702377 -0.5857348328363569 7.058110756939059e-17 2.450984096291277e-17 7.058110756939059e-17 2.450984096291277e-17 -0.8105023815556889 -0.5857353408258725
12632710666.666666 -0.8152829879259699 -0.5790627337330099 7.076818476847704e-17 2.3918752183210805e-17 7.076818476847704e-17 2.3918752183210805e-17 -0.8152826250109554 -0.5790632446936095
12633328000.0 -0.8200083035272671 -0.5723516245684801 7.095031669157656e-17 2.332624775299793e-17 7.095031669157656e-17 2.332624775299793e-17 -0.8200079448358225 -0.5723521384654517
12633945333.333334 -0.8246783771410471 -0.5656019574540501 7.112749273641293e-17 2.2732369006286583e-17 7.112749273641293e-17 2.2732369006286583e-17 -0.8246780226969239 -0.5656024742524891
12634562666.666666 -0.8292928941557187 -0.5588141870986066 7.129970264586096e-17 2.2137157355493647e-17 7.129970264586096e-17 2.2137157355493647e-17 -0.8292925439823775 -0.558814706763415
12635180000.0 -0.8338515437024201 -0.551988770777936 7.146693650851863e-17 2.1540654288554878e-17 7.146693650851863e-17 2.1540654288554878e-17 -0.8338511978230326 -0.5519892932738268
12635797333.333334 -0.8383540186759618 -0.545126168303917 7.162918475925053e-17 2.0942901366051564e-17 7.162918475925053e-17 2.0942901366051564e-17 -0.8383536771134092 -0.5451266935954165
12636414666.666666 -0.8428000157554555 -0.5382268419936422 7.178643817971082e-17 2.0343940218323336e-17 7.178643817971082e-17 2.0343940218323336e-17 -0.8427996785323247 -0.5382273700450911
12637032000.0 -0.8471892354248389 -0.5312912566381282 7.193868789884465e-17 1.9743812542566915e-17 7.193868789884465e-17 1.9743812542566915e-17 -0.8471889025634227 -0.5312917874136851
12637649333.333334 -0.8515213819929932 -0.5243198794710998 7.208592539336031e-17 1.9142560099949866e-17 7.208592539336031e-17 1.9142560099949866e-17 -0.8515210535152878 -0.5243204129347427
12638266666.666666 -0.8557961636136605 -0.5173131801375127 7.222814248817947e-17 1.8540224712712812e-17 7.222814248817947e-17 1.8540224712712812e-17 -0.855795839541366 -0.517313716253043
12638884000.0 -0.8600132923051673 -0.5102716306618189 7.236533135686587e-17 1.7936848261260538e-17 7.236533135686587e-17 1.7936848261260538e-17 -0.8600129726596845 -0.5102721693928628
12639501333.333334 -0.8641724839697503 -0.5031957054162888 7.249748452202456e-17 1.733247268126849e-17 7.249748452202456e-17 1.733247268126849e-17 -0.8641721687721787 -0.5031962467262989
12640118666.666666 -0.8682734584126675 -0.49608588108910295 7.262459485567935e-17 1.6727139960780766e-17 7.262459485567935e-17 1.6727139960780766e-17 -0.8682731476838055 -0.4960864249413624
12640736000.0 -0.8723159393612856 -0.4889426366518696 7.274665557963298e-17 1.6120892137270114e-17 7.274665557963298e-17 1.6120892137270114e-17 -0.8723156331216296 -0.48894318300949424
12641353333.333334 -0.8762996544833579 -0.48176645332795076 7.28636602657861e-17 1.551377129477882e-17 7.28636602657861e-17 1.551377129477882e-17 -0.8762993527530978 -0.48176700215389034
12641970666.666666 -0.8802243354056595 -0.47455781455952234 7.297560283645319e-17 1.490581956095369e-17 7.297560283645319e-17 1.490581956095369e-17 -0.8802240382046818 -0.4745583658165649
12642588000.0 -0.8840897177319181 -0.46731720597528 7.308247756463691e-17 1.429707910416426e-17 7.308247756463691e-17 1.429707910416426e-17 -0.8840894250798004 -0.4673177596260528
12643205333.333334 -0.8878955410606925 -0.46004511535759834 7.318427907428749e-17 1.3687592130575836e-17 7.318427907428749e-17 1.3687592130575836e-17 -0.8878952529767046 -0.46004567136457114
12643822666.666666 -0.8916415490028854 -0.4527420326097188 7.328100234053603e-17 1.3077400881225083e-17 7.328100234053603e-17 1.3077400881225083e-17 -0.8916412655059887 -0.45274259093520686
12644440000.0 -0.8953274891990088 -0.4454084497227742 7.337264268990154e-17 1.2466547629111145e-17 7.337264268990154e-17 1.2466547629111145e-17 -0.8953272103078516 -0.4454090103289393
12645057333.333334 -0.8989531133361773 -0.43804486074264065 7.345919580047493e-17 1.185507467627519e-17 7.345919580047493e-17 1.185507467627519e-17 -0.8989528390690986 -0.438045423591496
12645674666.666666 -0.9025181771648461 -0.4306517617366603 7.354065770208079e-17 1.1243024350870866e-17 7.354065770208079e-17 1.1243024350870866e-17 -0.902517907539869 -0.43065232679007037
12646292000.0 -0.9060224405153449 -0.423229650760039 7.36170247764126e-17 1.063043900424017e-17 7.36170247764126e-17 1.063043900424017e-17 -0.9060221755501794 -0.4232302179797242
12646909333.333334 -0.9094656673138873 -0.4157790278226539 7.368829375714224e-17 1.0017361008009994e-17 7.368829375714224e-17 1.0017361008009994e-17 -0.9094654070259284 -0.4157795971701927
12647526666.666666 -0.9128476255986481 -0.40830039485501024 7.375446173000951e-17 9.403832751150629e-18 7.375446173000951e-17 9.403832751150629e-18 -0.9128473700049721 -0.40830096629184065
12648144000.0 -0.9161680875352981 -0.40079425567460486 7.381552613288459e-17 8.789896637055134e-18 7.381552613288459e-17 8.789896637055134e-18 -0.9161678366526658 -0.400794829162029
12648761333.333334 -0.9194268294323603 -0.3932611159519882 7.38714847558061e-17 8.175595080625241e-18 7.38714847558061e-17 8.175595080625241e-18 -0.9194265832772119 -0.3932616914511731
12649378666.666666 -0.9226236317562659 -0.3857014831767237 7.392233574099528e-17 7.56097050535127e-18 7.392233574099528e-17 7.56097050535127e-18 -0.9226233903447214 -0.3857020606487047
12649996000.0 -0.9257582791461987 -0.3781158666230685 7.396807758284827e-17 6.94606534037157e-18 7.396807758284827e-17 6.94606534037157e-18 -0.9257580424940585 -0.3781164460287523
12650613333.333334 -0.9288305604285726 -0.3705047773157442 7.400870912790002e-17 6.3309220175705455e-18 7.400870912790002e-17 6.3309220175705455e-18 -0.9288303285513133 -0.3705053586159106
12651230666.666666 -0.9318402686312126 -0.36286872799561465 7.404422957476678e-17 5.7155829686587785e-18 7.404422957476678e-17 5.7155829686587785e-18 -0.9318400415439886 -0.36286931115091986
12651848000.0 -0.9347872009974053 -0.355208233084881 7.407463847406461e-17 5.100090622235254e-18 7.407463847406461e-17 5.100090622235254e-18 -0.9347869787150461 -0.35520881805585997
12652465333.333334 -0.9376711589994514 -0.34752380865268917 7.409993572830188e-17 4.4844874008889236e-18 7.409993572830188e-17 4.4844874008889236e-18 -0.9376709415364631 -0.347524395399759
12653082666.666666 -0.9404919483520873 -0.33981597238026046 7.412012159174855e-17 3.868815718284929e-18 7.412012159174855e-17 3.868815718284929e-18 -0.9404917357226474 -0.3398165608637213
12653700000.0 -0.9432493790256031 -0.33208524352590596 7.41351966702826e-17 3.2531179762209745e-18 7.41351966702826e-17 3.2531179762209745e-18 -0.943249171243565 -0.33208583370594624
12654317333.333334 -0.9459432652585573 -0.3243321428903159 7.414516192120954e-17 2.637436561757331e-18 7.414516192120954e-17 2.637436561757331e-18 -0.9459430623374447 -0.32433273472701285
12654934666.666666 -0.9485734255703727 -0.31655719278123273 7.415001865306031e-17 2.0218138442772927e-18 7.415001865306031e-17 2.0218138442772927e-18 -0.9485732275233802 -0.31655778623455566
12655552000.0 -0.9511396827735596 -0.30876091697826274 7.414976852536408e-17 1.4062921725816308e-18 7.414976852536408e-17 1.4062921725816308e-18 -0.9511394896135538 -0.3087615120080768
12656169333.333334 -0.9536418639855754 -0.3009438406978351 7.41444135483968e-17 7.90913872002449e-19 7.41444135483968e-17 7.90913872002449e-19 -0.9536416757250906 -0.3009444372639023
12656786666.666666 -0.9560798006405475 -0.2931064905575744 7.41339560829063e-17 1.7572124148184144e-19 7.41339560829063e-17 1.7572124148184144e-19 -0.9560796172917879 -0.2931070886195577
12657404000.0 -0.9584533285006228 -0.2852493945408518 7.411839883981311e-17 -4.392434493254119e-19 7.411839883981311e-17 -4.392434493254119e-19 -0.9584531500754616 -0.2852499940583175
12658021333.333334 -0.9607622876669972 -0.2773730819613243 7.409774487988704e-17 -1.053937962939691e-18 7.409774487988704e-17 -1.053937962939691e-18 -0.9607621141769728 -0.2773736828937442
12658638666.666666 -0.9630065225906798 -0.2694780834273034 7.407199761340057e-17 -1.6683200969473657e-18 7.407199761340057e-17 -1.6683200969473657e-18 -0.9630063540469971 -0.26947868573405787
12659256000.0 -0.9651858820830433 -0.26156493080576365 7.404116079975743e-17 -2.2823476869091385e-18 7.404116079975743e-17 -2.2823476869091385e-18 -0.9651857184965742 -0.26156553444614483
12659873333.333334 -0.967300219325939 -0.2536341571867583 7.400523854709802e-17 -2.89597860922674e-18 7.400523854709802e-17 -2.89597860922674e-18 -0.9673000607072195 -0.2536347621199722
12660490666.666666 -0.9693493918815884 -0.24568629684750617 7.396423531188113e-17 -3.509170784024666e-18 7.396423531188113e-17 -3.509170784024666e-18 -0.9693492382408198 -0.24568690303267585
12661108000.0 -0.9713332617022532 -0.2377218852161244 7.391815589844027e-17 -4.121882178046671e-18 7.391815589844027e-17 -4.121882178046671e-18 -0.9713331130492996 -0.23772249261229253
12661725333.333334 -0.9732516951394263 -0.2297414588359704 7.386700545851896e-17 -4.734070807508024e-18 7.386700545851896e-17 -4.734070807508024e-18 -0.9732515514838151 -0.229742067402102
12662342666.666666 -0.9751045629529393 -0.22174555532908247 7.381078949077984e-17 -5.345694740974735e-18 7.381078949077984e-17 -5.345694740974735e-18 -0.9751044243038609 -0.22174616502406794
12662960000.0 -0.9768917403195974 -0.21373471336026598 7.374951384029153e-17 -5.956712102225478e-18 7.374951384029153e-17 -5.956712102225478e-18 -0.9768916066859031 -0.21373532414292343
12663577333.333334 -0.9786131068416174 -0.20570947260066552 7.368318469799103e-17 -6.5670810731106815e-18 7.368318469799103e-17 -6.5670810731106815e-18 -0.9786129782318204 -0.20571008442974392
12664194666.666666 -0.9802685465547358 -0.19767037369143714 7.36118086001235e-17 -7.176759896406545e-18 7.36118086001235e-17 -7.176759896406545e-18 -0.9802684229770099 -0.19767098652561904
12664812000.0 -0.9818579479360194 -0.18961795820732624 7.353539242765767e-17 -7.785706878661618e-18 7.353539242765767e-17 -7.785706878661618e-18 -0.9818578293981989 -0.18961857200523058
12665429333.333334 -0.9833812039113836 -0.1815527686201552 7.345394340567736e-17 -8.393880393050453e-18 7.345394340567736e-17 -8.393880393050453e-18 -0.9833810904209623 -0.1815533833403399
12666046666.666666 -0.9848382118627814 -0.1734753482624182 7.336746910275246e-17 -9.001238882188128e-18 7.336746910275246e-17 -9.001238882188128e-18 -0.9848381034269112 -0.17347596386338296
12666664000.0 -0.9862288736351624 -0.16538624129039783 7.327597743028076e-17 -9.60774086099316e-18 7.327597743028076e-17 -9.60774086099316e-18 -0.9862287702606568 -0.16538685773058745
12667281333.333334 -0.9875530955430434 -0.15728599264778761 7.31794766418142e-17 -1.0213344919481812e-17 7.31794766418142e-17 -1.0213344919481812e-17 -0.9875529972363721 -0.1572866098855942
12667898666.666666 -0.988810788376832 -0.14917514802886753 7.307797533235471e-17 -1.0818009725608174e-17 7.307797533235471e-17 -1.0818009725608174e-17 -0.9888106951441238 -0.14917576602263352
12668516000.0 -0.9900018674088582 -0.14105425384162992 7.297148243762999e-17 -1.1421694028074883e-17 7.297148243762999e-17 -1.1421694028074883e-17 -0.9900017792558996 -0.14105487254965104
12669133333.333334 -0.9911262523990388 -0.13292385717125055 7.286000723334798e-17 -1.2024356659128953e-17 7.286000723334798e-17 -1.2024356659128953e-17 -0.9911261693312717 -0.1329244765517781
12669750666.666666 -0.992183867600322 -0.1247845057429507 7.274355933442437e-17 -1.2625956537369351e-17 7.274355933442437e-17 -1.2625956537369351e-17 -0.9921837896228476 -0.12478512575419518
12670368000.0 -0.993174641763777 -0.11663674788521196 7.262214869418939e-17 -1.3226452670539333e-17 7.262214869418939e-17 -1.3226452670539333e-17 -0.9931745688813522 -0.11663736848534523
