! Parameters = {f0=12700.012000; bw=77.238000; Q=6100.000000; N=10; m_0_1=1.286582; m_1_1=0.533978; m_1_2=1.121394; m_2_2=0.533329; m_2_3=0.758357; m_2_8=0.001393; m_2_9=0.038097; m_3_3=0.531392; m_3_4=0.646886; m_3_7=0.001993; m_3_8=-0.095095; m_3_9=0.001393; m_4_4=0.528467; m_4_5=0.483221; m_4_6=0.005510; m_4_7=-0.115644; m_4_8=0.001993; m_5_5=0.528849; m_5_6=0.890576; m_5_7=0.005510; m_6_6=0.528848; m_6_7=0.483563; m_7_7=0.528481; m_7_8=0.647004; m_8_8=0.531390; m_8_9=0.758670; m_9_9=0.533324; m_9_10=1.122472; m_10_10=0.533968; m_10_11=1.287377}
!
! Created with skrf (http://scikit-rf.org).
# Hz S RI R 50.0 
!freq ReS11 ImS11 ReS21 ImS21 ReS12 ImS12 ReS22 ImS22
12607400000.0 -0.9850277736948441 -0.1723957222485482 1.1873488506407162e-16 -1.3684678098920619e-17 1.1873488506407162e-16 -1.3684678098920619e-17 -0.9850276568418596 -0.17239638991711737
12608017333.333334 -0.9868666178657625 -0.16153723577556628 1.1855242648607134e-16 -1.4999044502137412e-17 1.1855242648607134e-16 -1.4999044502137412e-17 -0.986866508378205 -0.1615379046577882
12608634666.666666 -0.9885857668825713 -0.1506591567645936 1.1835542729874359e-16 -1.6311047512069695e-17 1.1835542729874359e-16 -1.6311047512069695e-17 -0.9885856647729989 -0.150659826779226
12609252000.0 -0.9901850122330789 -0.13976280459692056 1.1814391747349954e-16 -1.7620526369784958e-17 1.1814391747349954e-16 -1.7620526369784958e-17 -0.9901849175131535 -0.1397634756625918
12609869333.333334 -0.9916641599479865 -0.1288495008700955 1.1791792875795014e-16 -1.8927320690323666e-17 1.1791792875795014e-16 -1.8927320690323666e-17 -0.9916640726284732 -0.12885017290531448
12610486666.666666 -0.9930230306243785 -0.11792056923791297 1.1767749467130296e-16 -2.023127048229504e-17 1.1767749467130296e-16 -2.023127048229504e-17 -0.9930229507151419 -0.1179212421610788
12611104000.0 -0.9942614594475586 -0.10697733524924949 1.1742265049953173e-16 -2.153221616746996e-17 1.1742265049953173e-16 -2.153221616746996e-17 -0.9942613869575644 -0.10697800897866162
12611721333.333334 -0.9953792962109432 -0.0960211261880803 1.1715343329034686e-16 -2.282999860023208e-17 1.1715343329034686e-16 -2.282999860023208e-17 -0.9953792311482578 -0.09602180064194855
12612338666.666666 -0.9963764053343523 -0.0850532709119032 1.1686988184793464e-16 -2.412445908704787e-17 1.1686988184793464e-16 -2.412445908704787e-17 -0.9963763477061399 -0.08505394600835747
12612956000.0 -0.9972526658804333 -0.07407509969070467 1.1657203672748877e-16 -2.5415439405840037e-17 1.1657203672748877e-16 -2.5415439405840037e-17 -0.9972526156929546 -0.07407577534780485
12613573333.333334 -0.9980079715693094 -0.06308794404584055 1.1625994022953562e-16 -2.6702781825265666e-17 1.1625994022953562e-16 -2.6702781825265666e-17 -0.9980079288279237 -0.06308862018158666
12614190666.666666 -0.9986422307914967 -0.05209313658825528 1.1593363639403188e-16 -2.7986329123989046e-17 1.1593363639403188e-16 -2.7986329123989046e-17 -0.9986421955006581 -0.05209381312059728
12614808000.0 -0.999155366619 -0.04109201085699369 1.1559317099426176e-16 -2.9265924609834616e-17 1.1559317099426176e-16 -2.9265924609834616e-17 -0.9991553387822605 -0.041092687703841495
12615425333.333334 -0.9995473168146491 -0.030085901157430275 1.1523859153051825e-16 -3.054141213889042e-17 1.1523859153051825e-16 -3.054141213889042e-17 -0.9995472964346549 -0.030086578236663643
12616042666.666666 -0.9998180338396458 -0.019076142399433844 1.1486994722357815e-16 -3.1812636134516673e-17 1.1486994722357815e-16 -3.1812636134516673e-17 -0.9998180209181391 -0.01907681962891243
12616660000.0 -0.9999674848593307 -0.008064069935430516 1.1448728900796028e-16 -3.3079441606310045e-17 1.1448728900796028e-16 -3.3079441606310045e-17 -0.9999674793971485 -0.008064747233003766
12617277333.333334 -0.9999956517471621 0.0029489806014734513 1.1409066952498159e-16 -3.4341674168958457e-17 1.1409066952498159e-16 -3.4341674168958457e-17 -0.9999956537442372 0.0029483033179562934
12617894666.666666 -0.9999025310869197 0.013961673459516342 1.1368014311560862e-16 -3.559918006101122e-17 1.1368014311560862e-16 -3.559918006101122e-17 -0.9999025405422806 0.013960996272196305
12618512000.0 -0.9996881341731157 0.024972672930490752 1.1325576581308622e-16 -3.685180616361322e-17 1.1325576581308622e-16 -3.685180616361322e-17 -0.9996881510848852 0.02497199592148915
12619129333.333334 -0.999352487009627 0.0359806435113796 1.1281759533538711e-16 -3.80994000190722e-17 1.1281759533538711e-16 -3.80994000190722e-17 -0.9993525113750242 0.03597996676278807
12619746666.666666 -0.9988956303065386 0.0469842500666209 1.1236569107743108e-16 -3.934180984941429e-17 1.1236569107743108e-16 -3.934180984941429e-17 -0.9988956621218795 0.046983573660491496
12620364000.0 -0.9983176194752034 0.05798215799004366 1.1190011410311128e-16 -4.057888457481651e-17 1.1190011410311128e-16 -4.057888457481651e-17 -0.998317658735901 0.05798148200837888
12620981333.333334 -0.9976185246215336 0.06897303336648429 1.1142092713712923e-16 -4.18104738319176e-17 1.1142092713712923e-16 -4.18104738319176e-17 -0.9976185713220977 0.06897235789122712
12621598666.666666 -0.9967984305374825 0.0799555431338583 1.109281945566054e-16 -4.303642799209363e-17 1.109281945566054e-16 -4.303642799209363e-17 -0.9967984846715222 0.07995486824688233
12622216000.0 -0.995857436690771 0.09092835524470327 1.1042198238250773e-16 -4.425659817958841e-17 1.1042198238250773e-16 -4.425659817958841e-17 -0.995857498250992 0.09092768102780258
12622833333.333334 -0.9947956572128099 0.10189013882782463 1.0990235827087148e-16 -4.5470836289569466e-17 1.0990235827087148e-16 -4.5470836289569466e-17 -0.994795726191021 0.10188946536270424
12623450666.666666 -0.9936132208848862 0.11283956434948893 1.0936939150383457e-16 -4.667899500604734e-17 1.0936939150383457e-16 -4.667899500604734e-17 -0.9936132972719961 0.11283889171775459
12624068000.0 -0.9923102711225096 0.12377530377499109 1.088231529804538e-16 -4.788092781974728e-17 1.088231529804538e-16 -4.788092781974728e-17 -0.9923103549085293 0.12377463205813956
12624685333.333334 -0.9908869659580244 0.13469603072964428 1.0826371520733395e-16 -4.907648904584887e-17 1.0826371520733395e-16 -4.907648904584887e-17 -0.990887057132068 0.13469536000905327
12625302666.666666 -0.9893434780214736 0.14560042065939938 1.0769115228909346e-16 -5.026553384155309e-17 1.0769115228909346e-16 -5.026553384155309e-17 -0.9893435765717616 0.145599751016318
12625920000.0 -0.9876799945196071 0.1564871509919206 1.0710553991857457e-16 -5.144791822367383e-17 1.0710553991857457e-16 -5.144791822367383e-17 -0.9876801004334663 0.15648648250745925
12626537333.333334 -0.9858967172132301 0.16735490129660335 1.0650695536692428e-16 -5.262349908598187e-17 1.0650695536692428e-16 -5.262349908598187e-17 -0.9858968304770938 0.16735423405172387
12627154666.666666 -0.983993862392708 0.1782023534448959 1.0589547747344807e-16 -5.379213421651368e-17 1.0589547747344807e-16 -5.379213421651368e-17 -0.9839939829921219 0.17820168752040208
12627772000.0 -0.9819716608516983 0.18902819177036825 1.0527118663527332e-16 -5.49536823147592e-17 1.0527118663527332e-16 -5.49536823147592e-17 -0.9819717887713191 0.18902752724689595
12628389333.333334 -0.9798303578592498 0.19983110322778372 1.0463416479685891e-16 -5.610800300867196e-17 1.0463416479685891e-16 -5.610800300867196e-17 -0.979830493082846 0.1998304401857905
12629006666.666666 -0.9775702131299419 0.2106097775529418 1.0398449543926978e-16 -5.72549568716435e-17 1.0398449543926978e-16 -5.72549568716435e-17 -0.9775703556403992 0.21060911607269792
12629624000.0 -0.9751915007924662 0.22136290742117906 1.0332226356930985e-16 -5.839440543927816e-17 1.0332226356930985e-16 -5.839440543927816e-17 -0.9751916505717888 0.22136224758275774
12630241333.333334 -0.9726945093563387 0.23208918860612712 1.0264755570844313e-16 -5.9526211226093e-17 1.0264755570844313e-16 -5.9526211226093e-17 -0.9726946663856512 0.23208853048939465
12630858666.666666 -0.9700795416769478 0.24278732013773419 1.0196045988155246e-16 -6.06502377420553e-17 1.0196045988155246e-16 -6.06502377420553e-17 -0.9700797059364958 0.24278666382233988
12631476000.0 -0.9673469149187427 0.25345600446035976 1.0126106560548837e-16 -6.176634950904032e-17 1.0126106560548837e-16 -6.176634950904032e-17 -0.9673470863878986 0.25345535002572706
12632093333.333334 -0.9644969605168582 0.2640939475897953 1.0054946387747865e-16 -6.287441207709148e-17 1.0054946387747865e-16 -6.287441207709148e-17 -0.9644971391741204 0.2640932951151115
12632710666.666666 -0.9615300241368736 0.27469985927037394 9.982574716333582e-17 -6.39742920405883e-17 9.982574716333582e-17 -6.39742920405883e-17 -0.9615302099598717 0.27469920883458093
12633328000.0 -0.9584464656328483 0.2852724531316 9.909000938547158e-17 -6.506585705430441e-17 9.909000938547158e-17 -6.506585705430441e-17 -0.9584466585983459 0.2852718048133851
12633945333.333334 -0.9552466590037454 0.29581044684392416 9.834234591078027e-17 -6.614897584926069e-17 9.834234591078027e-17 -6.614897584926069e-17 -0.9552468590876402 0.29580980072170954
12634562666.666666 -0.9519309923480211 0.3063125622744383 9.75828535383143e-17 -6.722351824849353e-17 9.75828535383143e-17 -6.722351824849353e-17 -0.9519311995253517 0.3063119184263726
12635180000.0 -0.9484998678165969 0.31677752564176204 9.681163048680105e-17 -6.828935518266252e-17 9.681163048680105e-17 -6.828935518266252e-17 -0.9485000820615435 0.31677688414571054
12635797333.333334 -0.9449537015640234 0.32720406767072746 9.60287763819859e-17 -6.93463587055213e-17 9.60287763819859e-17 -6.93463587055213e-17 -0.9449539228499111 0.32720342860426227
12636414666.666666 -0.9412929236980739 0.33759092374610994 9.523439224381666e-17 -7.039440200923027e-17 9.523439224381666e-17 -7.039440200923027e-17 -0.9412931519973763 0.33759028718650086
12637032000.0 -0.9375179782275154 0.3479368340661998 9.442858047344151e-17 -7.143335943955041e-17 9.442858047344151e-17 -7.143335943955041e-17 -0.9375182135118596 0.3479362000904056
12637649333.333334 -0.9336293230082948 0.35824054379549464 9.361144484006207e-17 -7.246310651086182e-17 9.361144484006207e-17 -7.246310651086182e-17 -0.9336295652484621 0.3582399124801526
12638266666.666666 -0.9296274296879928 0.36850080321692114 9.278309046761235e-17 -7.348351992104598e-17 9.278309046761235e-17 -7.348351992104598e-17 -0.9296276788539238 0.36850017463833845
12638884000.0 -0.9255127836486192 0.3787163678834111 9.194362382127884e-17 -7.449447756621364e-17 9.194362382127884e-17 -7.449447756621364e-17 -0.9255130397094191 0.3787157421175562
12639501333.333334 -0.9212858839477251 0.38888599876889235 9.109315269385604e-17 -7.549585855528501e-17 9.109315269385604e-17 -7.549585855528501e-17 -0.9212861468716637 0.38888537589138433
12640118666.666666 -0.916947243257987 0.39900846241827687 9.023178619197179e-17 -7.648754322438061e-17 9.023178619197179e-17 -7.648754322438061e-17 -0.9169475130125067 0.3990078425043778
12640736000.0 -0.9124973878047323 0.4090825310977729 8.935963472207366e-17 -7.746941315115345e-17 8.935963472207366e-17 -7.746941315115345e-17 -0.9124976643564492 0.4090819142223777
12641353333.333334 -0.9079368573025348 0.4191069829428 8.847680997640269e-17 -7.844135116879619e-17 8.847680997640269e-17 -7.844135116879619e-17 -0.907937140617245 0.41910636918042815
12641970666.666666 -0.903266204889397 0.4290806021070228 8.758342491866069e-17 -7.940324138006685e-17 8.758342491866069e-17 -7.940324138006685e-17 -0.9032664949320784 0.42907999153180865
12642588000.0 -0.898485997059829 0.4390021789094274 8.667959376963009e-17 -8.03549691710329e-17 8.667959376963009e-17 -8.03549691710329e-17 -0.8984862937946475 0.43900157159511133
12643205333.333334 -0.8935968135961174 0.4488705099810929 8.576543199260671e-17 -8.129642122469523e-17 8.576543199260671e-17 -8.129642122469523e-17 -0.8935971169864313 0.4488699060010131
12643822666.666666 -0.8885992474979545 0.4586843984112483 8.48410562786806e-17 -8.22274855344515e-17 8.48410562786806e-17 -8.22274855344515e-17 -0.8885995575063182 0.4586837978383313
12644440000.0 -0.8834939049105796 0.4684426538923169 8.39065845318922e-17 -8.314805141737124e-17 8.39065845318922e-17 -8.314805141737124e-17 -0.8834942214987479 0.4684420567990684
12645057333.333334 -0.8782814050512301 0.47814409286433446 8.296213585423116e-17 -8.405800952731723e-17 8.296213585423116e-17 -8.405800952731723e-17 -0.8782817281801647 0.4781434993228319
12645674666.666666 -0.872962380134115 0.48778753865838115 8.200783053049557e-17 -8.49572518678946e-17 8.200783053049557e-17 -8.49572518678946e-17 -0.8729627097639872 0.4877869487402636
12646292000.0 -0.8675374752934799 0.4973718216397413 8.104379001299428e-17 -8.584567180524477e-17 8.104379001299428e-17 -8.584567180524477e-17 -0.8675378113836774 0.4973712354162018
12646909333.333334 -0.8620073485057373 0.5068957793490977 8.00701369061602e-17 -8.672316408062024e-17 8.00701369061602e-17 -8.672316408062024e-17 -0.8620076910148669 0.5068951968908737
12647526666.666666 -0.8563726705093673 0.5163582566440427 7.908699495097168e-17 -8.758962482283838e-17 7.908699495097168e-17 -8.758962482283838e-17 -0.8563730193952626 0.5163576780214086
12648144000.0 -0.8506341247236494 0.5257581058390361 7.809448900926632e-17 -8.844495156053365e-17 7.809448900926632e-17 -8.844495156053365e-17 -0.8506344799433745 0.5257575311217944
12648761333.333334 -0.8447924071658138 0.535094186844531 7.709274504793108e-17 -8.928904323422643e-17 7.709274504793108e-17 -8.928904323422643e-17 -0.8447927686756684 0.5350936161020029
12649378666.666666 -0.8388482263666271 0.5443653673052544 7.608189012294977e-17 -9.012180020822445e-17 7.608189012294977e-17 -9.012180020822445e-17 -0.8388485941221524 0.5443648006062731
12649996000.0 -0.8328023032843771 0.553570522737669 7.506205236332222e-17 -9.094312428234371e-17 7.506205236332222e-17 -9.094312428234371e-17 -0.8328026772403625 0.5535699601505708
12650613333.333334 -0.8266553712174619 0.562708536666311 7.4033360954853e-17 -9.175291870345279e-17 7.4033360954853e-17 -9.175291870345279e-17 -0.8266557513279467 0.5627079782589257
12651230666.666666 -0.8204081757155882 0.5717783007589918 7.299594612384396e-17 -9.255108817681042e-17 7.299594612384396e-17 -9.255108817681042e-17 -0.8204085619338725 0.5717777465986371
12651848000.0 -0.8140614744890321 0.5807787149616991 7.194993912061622e-17 -9.333753887725955e-17 7.194993912061622e-17 -9.333753887725955e-17 -0.8140618667676774 0.5807781651151697
12652465333.333334 -0.8076160373170185 0.5897086876315927 7.089547220296419e-17 -9.411217846019367e-17 7.089547220296419e-17 -9.411217846019367e-17 -0.8076164356078579 0.5897081421651547
12653082666.666666 -0.8010726459543501 0.5985671356694384 6.98326786194693e-17 -9.487491607235617e-17 6.98326786194693e-17 -9.487491607235617e-17 -0.8010730502084907 0.5985665946488194
12653700000.0 -0.7944320940363352 0.6073529846513174 6.876169259267024e-17 -9.562566236247099e-17 6.876169259267024e-17 -9.562566236247099e-17 -0.7944325042041668 0.6073524481417
12654317333.333334 -0.7876951869828331 0.6160651689585283 6.768264930218489e-17 -9.63643294916361e-17 6.768264930218489e-17 -9.63643294916361e-17 -0.7876956030140322 0.6160646370245411
12654934666.666666 -0.7808627419003801 0.6247026319070864 6.659568486765654e-17 -9.709083114357544e-17 6.659568486765654e-17 -9.709083114357544e-17 -0.7808631637439182 0.6247021046127975
12655552000.0 -0.7739355874830816 0.6332643258758844 6.550093633161679e-17 -9.780508253467736e-17 6.550093633161679e-17 -9.780508253467736e-17 -0.7739360150872291 0.6332638032847925
12656169333.333334 -0.7669145639122597 0.6417492124335554 6.43985416422677e-17 -9.850700042382564e-17 6.43985416422677e-17 -9.850700042382564e-17 -0.7669149972245943 0.6417486946085829
12656786666.666666 -0.7598005227543747 0.6501562624646464 6.32886396361056e-17 -9.919650312207078e-17 6.32886396361056e-17 -9.919650312207078e-17 -0.7598009617217867 0.6501557494681313
12657404000.0 -0.7525943268578276 0.6584844562943257 6.217137002048446e-17 -9.987351050207946e-17 6.217137002048446e-17 -9.987351050207946e-17 -0.7525947714265256 0.6584839481880137
12658021333.333334 -0.7452968502482487 0.6667327838121201 6.104687335605585e-17 -1.0053794400740161e-16 6.104687335605585e-17 -1.0053794400740161e-16 -0.7452973003637696 0.6667322806571595
12658638666.666666 -0.7379089780226642 0.6749002445942422 5.991529103914562e-17 -1.0118972666152042e-16 5.991529103914562e-17 -1.0118972666152042e-16 -0.7379094336298749 0.674899746451173
12659256000.0 -0.7304316062418362 0.6829858480252651 5.877676528396208e-17 -1.0182878307674643e-16 5.877676528396208e-17 -1.0182878307674643e-16 -0.7304320672849449 0.6829853549540152
12659873333.333334 -0.7228656418218324 0.6909886134180003 5.763143910479422e-17 -1.0245503946286328e-16 5.763143910479422e-17 -1.0245503946286328e-16 -0.7228661082443918 0.6909881254778748
12660490666.666666 -0.7152120024240064 0.6989075701324629 5.647945629807792e-17 -1.0306842363559721e-16 5.647945629807792e-17 -1.0306842363559721e-16 -0.7152124741689239 0.6989070873821407
12661108000.0 -0.7074716163435031 0.7067417576938066 5.5320961424346227e-17 -1.0366886502489944e-16 5.5320961424346227e-17 -1.0366886502489944e-16 -0.7074720933530451 0.7067412801913304
12661725333.333334 -0.6996454223969428 0.714490225908531 5.4156099790163364e-17 -1.0425629468298898e-16 5.4156099790163364e-17 -1.0425629468298898e-16 -0.6996459046127435 0.7144897537113015
12662342666.666666 -0.6917343698083356 0.7221520349799513 5.298501742989976e-17 -1.0483064529223058e-16 5.298501742989976e-17 -1.0483064529223058e-16 -0.691734857171403 0.7221515681447206
12662960000.0 -0.6837394180940516 0.729726255622085 5.1807861087472326e-17 -1.053918511727854e-16 5.1807861087472326e-17 -1.053918511727854e-16 -0.683739910544775 0.7297257942049485
12663577333.333334 -0.6756615369464221 0.7372119691723811 5.062477819798611e-17 -1.0593984829006456e-16 5.062477819798611e-17 -1.0593984829006456e-16 -0.6756620344245807 0.737211513228773
12664194666.666666 -0.6675017061161075 0.7446082677031636 4.943591686930144e-17 -1.0647457426197717e-16 4.943591686930144e-17 -1.0647457426197717e-16 -0.6675022085608762 0.7446078172878482
12664812000.0 -0.6592609152933503 0.7519142541316762 4.824142586352524e-17 -1.0699596836597099e-16 4.824142586352524e-17 -1.0699596836597099e-16 -0.6592614226433064 0.7519138092987413
12665429333.333334 -0.6509401639877871 0.7591290423290198 4.7041454578425613e-17 -1.0750397154586742e-16 4.7041454578425613e-17 -1.0750397154586742e-16 -0.6509406761809206 0.7591286031318717
12666046666.666666 -0.6425404614074129 0.7662517572274596 4.5836153028794307e-17 -1.079985264184811e-16 4.5836153028794307e-17 -1.079985264184811e-16 -0.642540978381132 0.7662513237188164
12666664000.0 -0.6340628263359197 0.7732815349267855 4.462567182768778e-17 -1.0847957728005242e-16 4.462567182768778e-17 -1.0847957728005242e-16 -0.6340633480270588 0.7732811071586692
12667281333.333334 -0.6255082870094312 0.780217522798833 4.3410162167694335e-17 -1.0894707011243245e-16 4.3410162167694335e-17 -1.0894707011243245e-16 -0.6255088133542583 0.7802171008225648
12667898666.666666 -0.6168778809915726 0.7870588795910808 4.218977580203568e-17 -1.0940095258909986e-16 4.218977580203568e-17 -1.0940095258909986e-16 -0.6168784119257982 0.7870584634572744
12668516000.0 -0.6081726550476263 0.7938047755286816 4.0964665025649346e-17 -1.0984117408094834e-16 4.0964665025649346e-17 -1.0984117408094834e-16 -0.6081731905064104 0.7938043652872375
12669133333.333334 -0.599393665017772 0.8004543924149481 3.973498265627157e-17 -1.1026768566184148e-16 3.973498265627157e-17 -1.1026768566184148e-16 -0.5993942049357314 0.8004539881150463
12669750666.666666 -0.5905419756887783 0.8070069237307792 3.8500882015344455e-17 -1.1068044011400006e-16 3.8500882015344455e-17 -1.1068044011400006e-16 -0.5905425199999965 0.8070065254208756
12670368000.0 -0.5816186606650389 0.8134615747323458 3.7262516908958894e-17 -1.110793919331423e-16 3.7262516908958894e-17 -1.110793919331423e-16 -0.5816192093030726 0.8134611824601646
