! Parameters = {f0=12700.012000; bw=77.238000; Q=6100.000000; N=10; m_0_1=1.311006; m_1_1=0.900344; m_1_2=1.145818; m_2_2=0.899695; m_2_3=0.782781; m_2_8=0.002614; m_2_9=0.039318; m_3_3=0.897758; m_3_4=0.671310; m_3_7=0.003214; m_3_8=-0.093874; m_3_9=0.002614; m_4_4=0.894833; m_4_5=0.507645; m_4_6=0.006731; m_4_7=-0.114423; m_4_8=0.003214; m_5_5=0.895215; m_5_6=0.915000; m_5_7=0.006731; m_6_6=0.895214; m_6_7=0.507987; m_7_7=0.894847; m_7_8=0.671428; m_8_8=0.897756; m_8_9=0.783094; m_9_9=0.899690; m_9_10=1.146896; m_10_10=0.900334; m_10_11=1.311801}
!
! Created with skrf (http://scikit-rf.org).
# Hz S RI R 50.0 
!freq ReS11 ImS11 ReS21 ImS21 ReS12 ImS12 ReS22 ImS22
12607400000.0 0.43069809547419313 0.902496066780745 -8.947448178453412e-17 -9.932414670878294e-17 -8.947448178453412e-17 -9.932414670878294e-17 0.4306974721752608 0.9024963642373593
12608017333.333334 0.44125916109096136 0.8973797149217897 -9.062484815644164e-17 -9.824005277981376e-17 -9.062484815644164e-17 -9.824005277981376e-17 0.4412585413559193 0.897380019657368
12608634666.666666 0.4517594595103836 0.8921397820648383 -9.176209437014044e-17 -9.714264900920982e-17 -9.176209437014044e-17 -9.714264900920982e-17 0.45175884342422434 0.8921400940367038
12609252000.0 0.46219754470319313 0.8867769898177065 -9.288606659359291e-17 -9.60320940091792e-17 -9.288606659359291e-17 -9.60320940091792e-17 0.46219693235039805 0.8867773089821893
12609869333.333334 0.47257197920775373 0.8812920767075343 -9.399661291025688e-17 -9.490854816789902e-17 -9.399661291025688e-17 -9.490854816789902e-17 0.4725713706722827 0.8812924030199801
12610486666.666666 0.4828813343277949 0.8756857980792083 -9.50935833395411e-17 -9.377217362643062e-17 -9.50935833395411e-17 -9.377217362643062e-17 0.4828807296930736 0.8756861314939826
12611104000.0 0.4931241903295854 0.8699589259911084 -9.6176829857038e-17 -9.262313425534158e-17 -9.6176829857038e-17 -9.262313425534158e-17 0.49312358967849373 0.8699592664616017
12611721333.333334 0.5032991366369998 0.8641122491090284 -9.724620641440973e-17 -9.146159563116412e-17 -9.724620641440973e-17 -9.146159563116412e-17 0.5032985400518611 0.8641125965876651
12612338666.666666 0.5134047720260472 0.858146572597417 -9.830156895903731e-17 -9.028772501257468e-17 -9.830156895903731e-17 -9.028772501257468e-17 0.5134041795886178 0.8581469270356618
12612956000.0 0.5234397048178634 0.8520627180084813 -9.934277545339858e-17 -8.910169131633105e-17 -9.934277545339858e-17 -8.910169131633105e-17 0.5234391166093194 0.8520630793568439
12613573333.333334 0.5334025530700424 0.8458615231692314 -1.0036968589406945e-16 -8.790366509308184e-17 -1.0036968589406945e-16 -8.790366509308184e-17 0.5334019691709703 0.8458618913772762
12614190666.666666 0.5432919447673422 0.8395438420658751 -1.0138216233054644e-16 -8.669381850283448e-17 -1.0138216233054644e-16 -8.669381850283448e-17 0.5432913652577265 0.8395442170822255
12614808000.0 0.5531065180104069 0.8331105447263377 -1.0238006888369544e-16 -8.547232529029418e-17 -1.0238006888369544e-16 -8.547232529029418e-17 0.5531059429696205 0.8331109264986857
12615425333.333334 0.5628449212033685 0.8265625171004218 -1.0336327176393497e-16 -8.423936075995827e-17 -1.0336327176393497e-16 -8.423936075995827e-17 0.5628443507101609 0.8265629055755337
12616042666.666666 0.572505813240003 0.8199006609377844 -1.0433163928911718e-16 -8.299510175100429e-17 -1.0433163928911718e-16 -8.299510175100429e-17 0.5725052473724893 0.819901056061508
12616660000.0 0.5820878636883225 0.8131258936638145 -1.0528504190209571e-16 -8.173972661198869e-17 -1.0528504190209571e-16 -8.173972661198869e-17 0.5820873025239743 0.8131262953810894
12617277333.333334 0.5915897529739603 0.8062391482531844 -1.0622335218801551e-16 -8.047341517531162e-17 -1.0622335218801551e-16 -8.047341517531162e-17 0.5915891965895935 0.8062395565080462
12617894666.666666 0.6010101725616827 0.7992413731015112 -1.0714644489126018e-16 -7.91963487315327e-17 -1.0714644489126018e-16 -7.91963487315327e-17 0.6010096210334466 0.7992417878371002
12618512000.0 0.610347825135866 0.792133531894548 -1.080541969321393e-16 -7.790871000342557e-17 -1.080541969321393e-16 -7.790871000342557e-17 0.610347278539235 0.792133953053119
12619129333.333334 0.61960142477886 0.7849166034756944 -1.0894648742319758e-16 -7.661068311993816e-17 -1.0894648742319758e-16 -7.661068311993816e-17 0.619600883188621 0.7849170309986223
12619746666.666666 0.6287696971482107 0.7775915817110939 -1.0982319768528639e-16 -7.530245358986217e-17 -1.0982319768528639e-16 -7.530245358986217e-17 0.6287691606384552 0.7775920155388841
12620364000.0 0.6378513796522888 0.7701594753526604 -1.1068421126327443e-16 -7.398420827538034e-17 -1.1068421126327443e-16 -7.398420827538034e-17 0.6378508482964005 0.7701599154249555
12620981333.333334 0.6468452216238743 0.7626213078993886 -1.1152941394143632e-16 -7.265613536544959e-17 -1.1152941394143632e-16 -7.265613536544959e-17 0.6468446954945201 0.7626217541549768
12621598666.666666 0.6557499844926351 0.7549781174562088 -1.1235869375855804e-16 -7.13184243489514e-17 -1.1235869375855804e-16 -7.13184243489514e-17 0.6557494636617556 0.7549785698330332
12622216000.0 0.6645644419556049 0.7472309565910978 -1.1317194102269086e-16 -6.997126598771869e-17 -1.1317194102269086e-16 -6.997126598771869e-17 0.6645639264944033 0.7472314150262647
12622833333.333334 0.6732873801460187 0.7393808921901646 -1.1396904832559848e-16 -6.86148522893698e-17 -1.1396904832559848e-16 -6.86148522893698e-17 0.6732868701249516 0.7393813566199507
12623450666.666666 0.6819175978005207 0.7314290053106861 -1.147499105568587e-16 -6.724937648001505e-17 -1.147499105568587e-16 -6.724937648001505e-17 0.6819170932892901 0.7314294756705514
12624068000.0 0.6904539064246183 0.7233763910322185 -1.1551442491767432e-16 -6.587503297674166e-17 -1.1551442491767432e-16 -6.587503297674166e-17 0.6904534074921593 0.7233768672568112
12624685333.333334 0.6988951304564097 0.7152241583057233 -1.1626249093432857e-16 -6.44920173599881e-17 -1.1626249093432857e-16 -6.44920173599881e-17 0.6988946371708834 0.715224640328891
12625302666.666666 0.7072401074281698 0.7069734298011506 -1.169940104713006e-16 -6.310052634578768e-17 -1.169940104713006e-16 -6.310052634578768e-17 0.7072396198569528 0.706973917555949
12625920000.0 0.7154876881269668 0.6986253417523163 -1.177088877440937e-16 -6.170075775778056e-17 -1.177088877440937e-16 -6.170075775778056e-17 0.7154872063366414 0.6986258351710168
12626537333.333334 0.7236367367523554 0.6901810438009838 -1.1840702933166967e-16 -6.02929104991957e-17 -1.1840702933166967e-16 -6.02929104991957e-17 0.7236362608087021 0.6901815428150861
12627154666.666666 0.7316861310731372 0.6816416988382072 -1.190883441886015e-16 -5.887718452459273e-17 -1.190883441886015e-16 -5.887718452459273e-17 0.7316856610411252 0.6816422033784473
12627772000.0 0.7396347625819408 0.673008482844139 -1.1975274365686927e-16 -5.74537808115003e-17 -1.1975274365686927e-16 -5.74537808115003e-17 0.7396342985257183 0.6730089928404975
12628389333.333334 0.7474815366475478 0.6642825847264348 -1.204001414772968e-16 -5.602290133197526e-17 -1.204001414772968e-16 -5.602290133197526e-17 0.7474810786304351 0.6642831001081497
12629006666.666666 0.7552253726660463 0.6554652061560896 -1.210304538006909e-16 -5.4584749023937e-17 -1.210304538006909e-16 -5.4584749023937e-17 0.7552249207505238 0.655465726851662
12629624000.0 0.7628652042093498 0.6465575614022618 -1.2164359919859989e-16 -5.3139527762467906e-17 -1.2164359919859989e-16 -5.3139527762467906e-17 0.7628647584570537 0.6465580873394701
12630241333.333334 0.7703999791721986 0.6375608771649093 -1.222394986737575e-16 -5.168744233093218e-17 -1.222394986737575e-16 -5.168744233093218e-17 0.7703995396439088 0.6375614082708154
12630858666.666666 0.7778286599169341 0.628476392405983 -1.2281807567015698e-16 -5.0228698392037464e-17 -1.2281807567015698e-16 -5.0228698392037464e-17 0.7778282266725687 0.6284769286069456
12631476000.0 0.7851502234166127 0.6193053581785445 -1.2337925608282e-16 -4.8763502458691355e-17 -1.2337925608282e-16 -4.8763502458691355e-17 0.785149796515218 0.6193058994002274
12632093333.333334 0.7923636613955859 0.6100490374548538 -1.239229682671714e-16 -4.7292061864865466e-17 -1.239229682671714e-16 -4.7292061864865466e-17 0.7923632408953287 0.6100495836222362
12632710666.666666 0.7994679804685684 0.6007087049521768 -1.2444914304809332e-16 -4.581458473629342e-17 -1.2444914304809332e-16 -4.581458473629342e-17 0.799467566426729 0.6007092559895646
12633328000.0 0.8064622022774536 0.5912856469572143 -1.2495771372864732e-16 -4.4331279961019987e-17 -1.2495771372864732e-16 -4.4331279961019987e-17 0.8064617947504176 0.591286202788251
12633945333.333334 0.8133453636259266 0.5817811611491231 -1.2544861609839679e-16 -4.2842357159993065e-17 -1.2544861609839679e-16 -4.2842357159993065e-17 0.8133449626691754 0.5817817216967978
12634562666.666666 0.8201165166121265 0.572196556420785 -1.2592178844142915e-16 -4.134802665742685e-17 -1.2592178844142915e-16 -4.134802665742685e-17 0.820116122280233 0.5721971216074462
12635180000.0 0.8267747287592704 0.5625331526984421 -1.263771715439976e-16 -3.984849945115613e-17 -1.263771715439976e-16 -3.984849945115613e-17 0.8267743411058891 0.5625337224458065
12635797333.333334 0.8333190831440143 0.5527922807599919 -1.268147087018207e-16 -3.834398718287968e-17 -1.268147087018207e-16 -3.834398718287968e-17 0.8333187022218754 0.5527928549891562
12636414666.666666 0.8397486785226954 0.54297528205177 -1.2723434572702302e-16 -3.683470210834333e-17 -1.2723434572702302e-16 -3.683470210834333e-17 0.8397483043835973 0.542975860683222
12637032000.0 0.8460626294554808 0.5330835085037716 -1.2763603095472625e-16 -3.5320857067430766e-17 -1.2763603095472625e-16 -3.5320857067430766e-17 0.8460622621502816 0.5330840914573991
12637649333.333334 0.8522600664283294 0.5231183223434195 -1.280197152492857e-16 -3.3802665454184426e-17 -1.280197152492857e-16 -3.3802665454184426e-17 0.8522597060069417 0.523118909538524
12638266666.666666 0.8583401359726893 0.5130810959080412 -1.2838535201016533e-16 -3.228034118677871e-17 -1.2838535201016533e-16 -3.228034118677871e-17 0.8583397824840742 0.5130816872633486
12638884000.0 0.8643020007830545 0.5029732114558593 -1.2873289717746112e-16 -3.0754098677417416e-17 -1.2873289717746112e-16 -3.0754098677417416e-17 0.8643016542752114 0.5029738068895292
12639501333.333334 0.8701448398322907 0.492796060975582 -1.2906230923706649e-16 -2.922415280216973e-17 -1.2906230923706649e-16 -2.922415280216973e-17 0.8701445003522544 0.4927966604052209
12640118666.666666 0.8758678484845538 0.4825510459949822 -1.293735492254712e-16 -2.76907188708015e-17 -1.293735492254712e-16 -2.76907188708015e-17 0.8758675160783862 0.48255164933765465
12640736000.0 0.8814702386064732 0.47223957738722055 -1.2966658073423098e-16 -2.6154012596417623e-17 -1.2966658073423098e-16 -2.6154012596417623e-17 0.881469913319258 0.47224018455946
12641353333.333334 0.886951238675162 0.46186307517749087 -1.2994136991402819e-16 -2.4614250065299163e-17 -1.2994136991402819e-16 -2.4614250065299163e-17 0.8869509205509987 0.46186368609531225
12641970666.666666 0.8923100938849081 0.45142296834667095 -1.301978854784269e-16 -2.307164770644248e-17 -1.301978854784269e-16 -2.307164770644248e-17 0.8923097829669043 0.4514235829255809
12642588000.0 0.8975460662509246 0.44092069463487854 -1.3043609870723279e-16 -2.152642226123539e-17 -1.3043609870723279e-16 -2.152642226123539e-17 0.8975457625811927 0.4409213127898883
12643205333.333334 0.9026584347109484 0.43035770034355514 -1.3065598344950601e-16 -1.9978790753038903e-17 -1.3065598344950601e-16 -1.9978790753038903e-17 0.9026581383305975 0.43035832198919155
12643822666.666666 0.9076464952247257 0.4197354401359081 -1.3085751612621466e-16 -1.8428970456734026e-17 -1.3085751612621466e-16 -1.8428970456734026e-17 0.9076462061738578 0.41973606518622564
12644440000.0 0.9125095608707321 0.40905537683706933 -1.3104067573252293e-16 -1.6877178868274888e-17 -1.3104067573252293e-16 -1.6877178868274888e-17 0.9125092791884356 0.40905600520566215
12645057333.333334 0.9172469619409298 0.39831898123231274 -1.312054438397208e-16 -1.5323633674219406e-17 -1.312054438397208e-16 -1.5323633674219406e-17 0.9172466876652746 0.39831961283232653
12645674666.666666 0.9218580460328815 0.38752773186476736 -1.3135180459679544e-16 -1.3768552721211437e-17 -1.3135180459679544e-16 -1.3768552721211437e-17 0.9218577792009145 0.3875283666089114
12646292000.0 0.9263421781398054 0.37668311483130557 -1.3147974473164147e-16 -1.2212153985463768e-17 -1.3147974473164147e-16 -1.2212153985463768e-17 0.9263419187875442 0.37668375263186443
12646909333.333334 0.930698740737724 0.3657866235785942 -1.3158925355190393e-16 -1.0654655542287117e-17 -1.3158925355190393e-16 -1.0654655542287117e-17 0.9306984889001532 0.3657872643474403
12647526666.666666 0.9349271338707394 0.35483975869687817 -1.3168032294546824e-16 -9.096275535557568e-18 -1.3168032294546824e-16 -9.096275535557568e-18 0.9349268895818047 0.3548404023454837
12648144000.0 0.9390267752335828 0.3438440277134844 -1.3175294738058823e-16 -7.537232147167396e-18 -1.3175294738058823e-16 -7.537232147167396e-18 0.9390265385261887 0.3438446741529341
12648761333.333334 0.9429971002517901 0.33280094488527007 -1.3180712390564775e-16 -5.977743566587498e-18 -1.3180712390564775e-16 -5.977743566587498e-18 0.9429968711577917 0.33280159402627246
12649378666.666666 0.9468375621594107 0.3217120309901963 -1.318428521485686e-16 -4.418027960331959e-18 -1.318428521485686e-16 -4.418027960331959e-18 0.9468373407096132 0.32171268274309683
12649996000.0 0.9505476320744135 0.31057881311760355 -1.3186013431585576e-16 -2.8583034414789957e-18 -1.3186013431585576e-16 -2.8583034414789957e-18 0.9505474182985658 0.31057946739239667
12650613333.333334 0.9541267990714489 0.2994028244580968 -1.3185897519128107e-16 -1.298788039214946e-18 -1.3185897519128107e-16 -1.298788039214946e-18 0.95412659299824 0.2994034811644386
12651230666.666666 0.9575745702521874 0.28818560409248806 -1.318393821342101e-16 2.603003315718198e-19 -1.318393821342101e-16 2.603003315718198e-19 0.9575743719092445 0.28818626313970885
12651848000.0 0.9608904708132949 0.27692869677954673 -1.318013650775678e-16 1.8187439007591487e-18 -1.318013650775678e-16 1.8187439007591487e-18 0.9608902802271762 0.27692935807666275
12652465333.333334 0.9640740441117045 0.26563365274361744 -1.3174493652544626e-16 3.376325073318536e-18 -1.3174493652544626e-16 3.376325073318536e-18 0.9640738613078983 0.2656343161993445
12653082666.666666 0.9671248517275585 0.25430202746097275 -1.316701115503543e-16 4.932826459658745e-18 -1.316701115503543e-16 4.932826459658745e-18 0.9671246767304785 0.2543026929837381
12653700000.0 0.9700424735246246 0.24293538144543758 -1.3157690779010725e-16 6.488030905966267e-18 -1.3157690779010725e-16 6.488030905966267e-18 0.970042306357608 0.24293604894339277
12654317333.333334 0.9728265077080679 0.23153528003381552 -1.3146534544436423e-16 8.041721524392524e-18 -1.3146534544436423e-16 8.041721524392524e-18 0.9728263483933701 0.23153594941484898
12654934666.666666 0.9754765708798205 0.2201032931701848 -1.3133544727080276e-16 9.593681723319284e-18 -1.3133544727080276e-16 9.593681723319284e-18 0.9754764194386136 0.2201039643419346
12655552000.0 0.9779922980914495 0.20864099518939092 -1.3118723858094035e-16 1.1143695237496032e-17 -1.3118723858094035e-16 1.1143695237496032e-17 0.9779921545438207 0.20864166805925793
12656169333.333334 0.98037334289427 0.1971499646008777 -1.3102074723560414e-16 1.2691546158105199e-17 -1.3102074723560414e-16 1.2691546158105199e-17 0.9803732072592171 0.1971506390760378
12656786666.666666 0.982619377387189 0.18563178387072377 -1.3083600364003964e-16 1.4237018962832945e-17 -1.3083600364003964e-16 1.4237018962832945e-17 0.982619249682617 0.18563245985814064
12657404000.0 0.9847300922617951 0.1740880392039926 -1.3063304073866996e-16 1.5779898545818205e-17 -1.3063304073866996e-16 1.5779898545818205e-17 0.9847299725045169 0.17408871661043104
12658021333.333334 0.9867051968449789 0.1625203203261804 -1.3041189400950103e-16 1.73199702475618e-17 -1.3041189400950103e-16 1.73199702475618e-17 0.9867050850507113 0.16252099905821887
12658638666.666666 0.9885444191389225 0.15093022026454248 -1.3017260145817968e-16 1.88570198847169e-17 -1.3017260145817968e-16 1.88570198847169e-17 0.9885443153222835 0.15093090022858585
12659256000.0 0.9902475058586274 0.139319335128263 -1.2991520361168778e-16 2.039083377989394e-17 -1.2991520361168778e-16 2.039083377989394e-17 0.9902474100331345 0.13932001623055565
12659873333.333334 0.9918142224667358 0.1276892638890148 -1.2963974351170262e-16 2.1921198791275875e-17 -1.2963974351170262e-16 2.1921198791275875e-17 0.9918141346448058 0.1276899460356536
12660490666.666666 0.9932443532058388 0.11604160816073239 -1.2934626670760113e-16 2.344790234219902e-17 -1.2934626670760113e-16 2.344790234219902e-17 0.9932442733987854 0.11604229125767951
12661108000.0 0.9945377011282268 0.10437797197873812 -1.2903482124910885e-16 2.4970732450679852e-17 -1.2903482124910885e-16 2.4970732450679852e-17 0.9945376293462591 0.10437865593183418
12661725333.333334 0.9956940881229539 0.09269996157935403 -1.2870545767862232e-16 2.6489477758740832e-17 -1.2870545767862232e-16 2.6489477758740832e-17 0.9956940243751726 0.09270064629433061
12662342666.666666 0.9967133549404131 0.08100918517822081 -1.2835822902316252e-16 2.8003927561766084e-17 -1.2835822902316252e-16 2.8003927561766084e-17 0.9967132992348149 0.0810098705607141
12662960000.0 0.9975953612142492 0.06930725274908074 -1.2799319078600153e-16 2.9513871837658835e-17 -1.2799319078600153e-16 2.9513871837658835e-17 0.9975953135577202 0.06930793870464401
12663577333.333334 0.9983399854806884 0.057595775801977465 -1.2761040093793934e-16 3.101910127593253e-17 -1.2761040093793934e-16 3.101910127593253e-17 0.9983399458790075 0.05759646223609443
12664194666.666666 0.9989471251952637 0.045876367161443714 -1.2720991990824033e-16 3.251940730668381e-17 -1.2720991990824033e-16 3.251940730668381e-17 0.9989470936530983 0.045877053979541234
12664812000.0 0.9994166967469442 0.034150640744223686 -1.2679181057523033e-16 3.4014582129450836e-17 -1.2679181057523033e-16 3.4014582129450836e-17 0.9994166732678518 0.03415132785168506
12665429333.333334 0.9997486354696435 0.02242021133710074 -1.2635613825655237e-16 3.550441874195978e-17 -1.2635613825655237e-16 3.550441874195978e-17 0.9997486200560722 0.02242089863927867
12666046666.666666 0.9999428956511246 0.010686694374633599 -1.2590297069909733e-16 3.698871096870942e-17 -1.2590297069909733e-16 3.698871096870942e-17 0.9999428883044114 0.010687381776863172
12666664000.0 0.9999994505393035 -0.0010482942836511626 -1.2543237806857159e-16 3.8467253489521994e-17 -1.2543237806857159e-16 3.8467253489521994e-17 0.9999994512596729 -0.001047606876039432
12667281333.333334 0.9999182923459196 -0.012783138575272818 -1.2494443293876806e-16 3.993984186783835e-17 -1.2494443293876806e-16 3.993984186783835e-17 0.9999183011324863 -0.012782451256939905
12667898666.666666 0.9996994322476198 -0.024516222457804167 -1.2443921028047355e-16 4.1406272578982027e-17 -1.2443921028047355e-16 4.1406272578982027e-17 0.9996994490983884 -0.024515535323389546
12668516000.0 0.9993429003844129 -0.03624593013130819 -1.2391678745005582e-16 4.2866343038249163e-17 -1.2391678745005582e-16 4.2866343038249163e-17 0.9993429252962767 -0.036245243275416776
12669133333.333334 0.9988487458555233 -0.04797064626062763 -1.2337724417773959e-16 4.4319851628806964e-17 -1.2337724417773959e-16 4.4319851628806964e-17 0.9988487788242661 -0.04796995977781675
12669750666.666666 0.998217036712624 -0.059688756198150415 -1.2282066255551983e-16 4.576659772954818e-17 -1.2282066255551983e-16 4.576659772954818e-17 0.9982170777329212 -0.05968807018291686
12670368000.0 0.9974478599504701 -0.07139864620594065 -1.2224712702477857e-16 4.7206381742710805e-17 -1.2224712702477857e-16 4.7206381742710805e-17 0.9974479090158884 -0.07139796075270757
