! Parameters = {f0=12700.012000; bw=77.238000; Q=6100.000000; N=10; m_0_1=1.177072; m_1_1=-1.108665; m_1_2=1.011884; m_2_2=-1.109314; m_2_3=0.648847; m_2_8=-0.004083; m_2_9=0.032621; m_3_3=-1.111251; m_3_4=0.537376; m_3_7=-0.003483; m_3_8=-0.100571; m_3_9=-0.004083; m_4_4=-1.114176; m_4_5=0.373711; m_4_6=0.000034; m_4_7=-0.121120; m_4_8=-0.003483; m_5_5=-1.113794; m_5_6=0.781066; m_5_7=0.000034; m_6_6=-1.113795; m_6_7=0.374053; m_7_7=-1.114162; m_7_8=0.537494; m_8_8=-1.111253; m_8_9=0.649160; m_9_9=-1.109319; m_9_10=1.012962; m_10_10=-1.108675; m_10_11=1.177867}
!
! Created with skrf (http://scikit-rf.org).
# Hz S RI R 50.0 
!freq ReS11 ImS11 ReS21 ImS21 ReS12 ImS12 ReS22 ImS22
12607400000.0 0.9364071683520794 0.350915395870128 -6.966437737678385e-17 -4.9222500851986134e-18 -6.966437737678385e-17 -4.9222500851986134e-18 0.9364069506755575 0.35091597673282376
12608017333.333334 0.9391074638020995 0.3436235897476139 -6.968728056445648e-17 -4.373375322764349e-18 -6.968728056445648e-17 -4.373375322764349e-18 0.9391072506591966 0.3436241722568032
12608634666.666666 0.941750978905799 0.3363110074467053 -6.970586352336412e-17 -3.824444995935663e-18 -6.970586352336412e-17 -3.824444995935663e-18 0.9417507703089566 0.33631159156700857
12609252000.0 0.94433755383095 0.3289780911009507 -6.972012679663332e-17 -3.2754930759611745e-18 -6.972012679663332e-17 -3.2754930759611745e-18 0.9443373497923357 0.32897867679689513
12609869333.333334 0.9468670321880166 0.3216252840734165 -6.973007119425331e-17 -2.7265535221084152e-18 -6.973007119425331e-17 -2.7265535221084152e-18 0.946866832719519 0.32162587130943704
12610486666.666666 0.949339261039627 0.3142530309298262 -6.973569779292063e-17 -2.1776602795854064e-18 -6.973569779292063e-17 -2.1776602795854064e-18 0.9493390661528592 0.3142536196702683
12611104000.0 0.9517540909098968 0.30686177741146603 -6.973700793586863e-17 -1.6288472774322214e-18 -6.973700793586863e-17 -1.6288472774322214e-18 0.9517539006161916 0.3068623676205875
12611721333.333334 0.954111375793309 0.2994519704086923 -6.973400323267993e-17 -1.0801484264460903e-18 -6.973400323267993e-17 -1.0801484264460903e-18 0.9541111901037216 0.29945256205066567
12612338666.666666 0.9564109731636872 0.29202405793347996 -6.972668555908252e-17 -5.315976170786876e-19 -6.972668555908252e-17 -5.315976170786876e-19 0.956410792088995 0.2920246509723955
12612956000.0 0.958652743982786 0.284578489092416 -6.971505705672953e-17 1.677128264465269e-20 -6.971505705672953e-17 1.677128264465269e-20 0.958652567533484 0.28457908349228195
12613573333.333334 0.9608365527085947 0.2771157140598707 -6.969912013296298e-17 5.649244292035344e-19 -6.969912013296298e-17 5.649244292035344e-19 0.9608363808948973 0.27711630978461677
12614190666.666666 0.9629622673036738 0.2696361840503171 -6.967887746056071e-17 1.1128280056785823e-18 -6.967887746056071e-17 1.1128280056785823e-18 0.9629621001355152 0.26963678106379674
12614808000.0 0.9650297592430339 0.262140351291404 -6.965433197746735e-17 1.6604482238153427e-18 -6.965433197746735e-17 1.6604482238153427e-18 0.9650295967300664 0.26214094955739625
12615425333.333334 0.9670389035219696 0.25462866899639536 -6.962548688650875e-17 2.2077513261153123e-18 -6.962548688650875e-17 2.2077513261153123e-18 0.9670387456735627 0.25462926847860695
12616042666.666666 0.9689895786635918 0.24710159133684872 -6.959234565509052e-17 2.7547035879044546e-18 -6.959234565509052e-17 2.7547035879044546e-18 0.9689894254888329 0.24710219199891664
12616660000.0 0.9708816667261548 0.23955957341523937 -6.955491201488002e-17 3.3012713193988653e-18 -6.955491201488002e-17 3.3012713193988653e-18 0.9708815182338469 0.23956017522073256
12617277333.333334 0.9727150533102342 0.23200307123724992 -6.951318996147205e-17 3.847420867787273e-18 -6.951318996147205e-17 3.847420867787273e-18 0.9727149095088965 0.2320036741496718
12617894666.666666 0.9744896275655882 0.22443254168442023 -6.946718375403924e-17 4.3931186192807774e-18 -6.946718375403924e-17 4.3931186192807774e-18 0.9744894884634562 0.22443314566721104
12618512000.0 0.9762052821979162 0.2168484424863028 -6.941689791496436e-17 4.938331001190963e-18 -6.941689791496436e-17 4.938331001190963e-18 0.9762051478029391 0.21684904750284137
12619129333.333334 0.9778619134752968 0.20925123219298042 -6.936233722945928e-17 5.483024483975094e-18 -6.936233722945928e-17 5.483024483975094e-18 0.9778617837951397 0.20925183820658694
12619746666.666666 0.9794594212344758 0.20164137014728692 -6.930350674516558e-17 6.02716558329556e-18 -6.930350674516558e-17 6.02716558329556e-18 0.9794592962765177 0.20164197712122478
12620364000.0 0.9809977088869625 0.19401931645683915 -6.924041177173881e-17 6.570720862085573e-18 -6.924041177173881e-17 6.570720862085573e-18 0.9809975886582967 0.19401992435431747
12620981333.333334 0.9824766834247995 0.18638553196655186 -6.917305788041993e-17 7.11365693257374e-18 -6.917305788041993e-17 7.11365693257374e-18 0.9824765679322324 0.18638614075072732
12621598666.666666 0.9838962554262274 0.17874047823057945 -6.910145090358724e-17 7.655940458342187e-18 -6.910145090358724e-17 7.655940458342187e-18 0.9838961446762775 0.1787410878645587
12622216000.0 0.9852563390611002 0.17108461748435339 -6.902559693429351e-17 8.197538156368882e-18 -6.902559693429351e-17 8.197538156368882e-18 0.9852562330599991 0.1710852279311953
12622833333.333334 0.9865568520960423 0.16341841261680162 -6.894550232578738e-17 8.738416799061932e-18 -6.894550232578738e-17 8.738416799061932e-18 0.9865567508497352 0.16341902383951978
12623450666.666666 0.9877977158994427 0.15574232714227906 -6.886117369102082e-17 9.278543216277939e-18 -6.886117369102082e-17 9.278543216277939e-18 0.9877976194135845 0.15574293910384343
12624068000.0 0.9889788554462084 0.14805682517248453 -6.877261790213595e-17 9.817884297371239e-18 -6.877261790213595e-17 9.817884297371239e-18 0.9889787637261677 0.1480574378358243
12624685333.333334 0.9901001993222992 0.14036237138845703 -6.867984208993906e-17 1.0356406993213204e-17 -6.867984208993906e-17 1.0356406993213204e-17 0.9901001123731556 0.14036298471646266
12625302666.666666 0.9911616797290287 0.13265943101256403 -6.858285364336277e-17 1.0894078318185508e-17 -6.858285364336277e-17 1.0894078318185508e-17 0.9911615975555719 0.13266004496808909
12625920000.0 0.992163232487196 0.1249484697801766 -6.848166020890181e-17 1.1430865352235027e-17 -6.848166020890181e-17 1.1430865352235027e-17 0.9921631550939258 0.12494908432604042
12626537333.333334 0.9931047970409306 0.1172299539117062 -6.837626969004496e-17 1.1966735242849788e-17 -6.837626969004496e-17 1.1966735242849788e-17 0.9931047244320597 0.11723056901069628
12627154666.666666 0.9939863164613765 0.10950435008433304 -6.82666902466854e-17 1.2501655207069003e-17 -6.82666902466854e-17 1.2501655207069003e-17 0.9939862486408273 0.10950496569920708
12627772000.0 0.9948077374501373 0.10177212540370421 -6.815293029451143e-17 1.3035592533505339e-17 -6.815293029451143e-17 1.3035592533505339e-17 0.994807674421541 0.10177274149719212
12628389333.333334 0.9955690103424726 0.09403374737591749 -6.803499850439266e-17 1.3568514584305854e-17 -6.803499850439266e-17 1.3568514584305854e-17 0.9955689521091721 0.09403436391072405
12629006666.666666 0.9962700891103404 0.08628968387891602 -6.79129038017396e-17 1.410038879716373e-17 -6.79129038017396e-17 1.410038879716373e-17 0.9962700356753865 0.08629030081772293
12629624000.0 0.9969109313651362 0.07854040313459523 -6.778665536585415e-17 1.4631182687293618e-17 -6.778665536585415e-17 1.4631182687293618e-17 0.9969108827312915 0.07854102044006349
12630241333.333334 0.9974914983602928 0.07078637368015389 -6.765626262926358e-17 1.516086384940528e-17 -6.765626262926358e-17 1.516086384940528e-17 0.9974914545300272 0.07078699131492588
12630858666.666666 0.9980117549935966 0.06302806434001994 -6.752173527703845e-17 1.5689399959677426e-17 -6.752173527703845e-17 1.5689399959677426e-17 0.9980117159690909 0.06302868226672187
12631476000.0 0.9984716698093309 0.055265944197277976 -6.738308324609153e-17 1.6216758777737033e-17 -6.738308324609153e-17 1.6216758777737033e-17 0.9984716355924739 0.05526656237852199
12632093333.333334 0.9988712150001586 0.04750048256550565 -6.724031672447059e-17 1.674290814859844e-17 -6.724031672447059e-17 1.674290814859844e-17 0.9988711855925502 0.047501100963892255
12632710666.666666 0.9992103664088177 0.039732148960313456 -6.709344615062962e-17 1.72678160046213e-17 -6.709344615062962e-17 1.72678160046213e-17 0.9992103418117658 0.039732767538433626
12633328000.0 0.9994891035295775 0.03196141307089966 -6.694248221267958e-17 1.779145036748122e-17 -6.694248221267958e-17 1.779145036748122e-17 0.9994890837440992 0.03196203179133718
12633945333.333334 0.9997074095094783 0.024188744731708896 -6.67874358476388e-17 1.8313779350079098e-17 -6.67874358476388e-17 1.8313779350079098e-17 0.9997073945362985 0.024189363557042536
12634562666.666666 0.9998652711493463 0.0164146138941101 -6.662831824065357e-17 1.8834771158499127e-17 -6.662831824065357e-17 1.8834771158499127e-17 0.9998652609888995 0.016415232786916003
12635180000.0 0.9999626789045978 0.008639490597783588 -6.64651408242119e-17 1.9354394093929914e-17 -6.64651408242119e-17 1.9354394093929914e-17 0.9999626735570287 0.008640109520637488
12635797333.333334 0.9999996268858121 0.0008638449425003045 -6.629791527734094e-17 1.987261655458267e-17 -6.629791527734094e-17 1.987261655458267e-17 0.9999996263509741 0.0008644638579797634
12636414666.666666 0.9999761128590916 -0.0069118529403865495 -6.61266535247884e-17 2.038940703761054e-17 -6.61266535247884e-17 2.038940703761054e-17 0.9999761171365457 -0.006911234069699871
12637032000.0 0.9998921382461924 -0.014687132916451929 -6.595136773618692e-17 2.0904734141022487e-17 -6.595136773618692e-17 2.0904734141022487e-17 0.9998921473352103 -0.014686514127970004
12637649333.333334 0.999747708124442 -0.02246152487642527 -6.577207032521076e-17 2.1418566565571745e-17 -6.577207032521076e-17 2.1418566565571745e-17 0.9997477220240037 -0.022460906207551444
12638266666.666666 0.9995428312264294 -0.030234558764813173 -6.55887739487087e-17 2.1930873116663284e-17 -6.55887739487087e-17 2.1930873116663284e-17 0.9995428499352244 -0.030233940252939896
12638884000.0 0.9992775199394773 -0.03800576460823464 -6.540149150582864e-17 2.2441622706235402e-17 -6.540149150582864e-17 2.2441622706235402e-17 0.999277543455905 -0.03800514629074125
12639501333.333334 0.9989517903048966 -0.04577467254377982 -6.521023613712686e-17 2.295078435463586e-17 -6.521023613712686e-17 2.295078435463586e-17 0.998951818627066 -0.04577405445803025
12640118666.666666 0.9985656620170174 -0.053540812847447446 -6.501502122366107e-17 2.345832719249629e-17 -6.501502122366107e-17 2.345832719249629e-17 0.9985656951427454 -0.053540195030787885
12640736000.0 0.9981191584219815 -0.06130371596277204 -6.481586038606342e-17 2.39642204626116e-17 -6.481586038606342e-17 2.39642204626116e-17 0.9981191963487972 -0.06130309845252888
12641353333.333334 0.9976123065163631 -0.06906291252873216 -6.461276748361729e-17 2.446843352176616e-17 -6.461276748361729e-17 2.446843352176616e-17 0.9976123492415037 -0.06906229536220952
12641970666.666666 0.9970451369455023 -0.07681793340863935 -6.440575661329525e-17 2.4970935842614368e-17 -6.440575661329525e-17 2.4970935842614368e-17 0.9970451844659162 -0.076817316623117
12642588000.0 0.9964176840016772 -0.08456830971813453 -6.419484210880063e-17 2.5471697015507578e-17 -6.419484210880063e-17 2.5471697015507578e-17 0.9964177363140236 -0.0845676933508656
12643205333.333334 0.9957299856220168 -0.09231357285376462 -6.398003853959106e-17 2.5970686750322182e-17 -6.398003853959106e-17 2.5970686750322182e-17 0.9957300427226642 -0.09231295694197317
12643822666.666666 0.9949820833862107 -0.10005325452120148 -6.376136070987807e-17 2.6467874878305185e-17 -6.376136070987807e-17 2.6467874878305185e-17 0.9949821452712396 -0.10005263910208052
12644440000.0 0.9941740225139959 -0.10778688676361309 -6.353882365762976e-17 2.6963231353867792e-17 -6.353882365762976e-17 2.6963231353867792e-17 0.9941740891791957 -0.10778627187432202
12645057333.333334 0.9933058518624228 -0.11551400198987144 -6.331244265354417e-17 2.7456726256408944e-17 -6.331244265354417e-17 2.7456726256408944e-17 0.9933059233032986 -0.1155133876675344
12645674666.666666 0.9923776239229084 -0.12323413300288207 -6.30822332000169e-17 2.794832979211041e-17 -6.30822332000169e-17 2.794832979211041e-17 0.992377700134674 -0.12323351928458495
12646292000.0 0.9913893948180409 -0.130946813027915 -6.284821103008883e-17 2.843801229573582e-17 -6.284821103008883e-17 2.843801229573582e-17 0.9913894757956224 -0.13094619995070367
12646909333.333334 0.9903412242982121 -0.1386515757406583 -6.261039210638978e-17 2.892574423240168e-17 -6.261039210638978e-17 2.892574423240168e-17 0.9903413100362484 -0.13865096334153626
12647526666.666666 0.989233175737998 -0.14634795529546948 -6.23687926200561e-17 2.9411496199364345e-17 -6.23687926200561e-17 2.9411496199364345e-17 0.9892332662308406 -0.1463473436113956
12648144000.0 0.9880653161322979 -0.1540354863537381 -6.212342898964405e-17 2.989523892777854e-17 -6.212342898964405e-17 2.989523892777854e-17 0.988065411374011 -0.1540348754216243
12648761333.333334 0.9868377160923315 -0.16171370411168348 -6.187431786002459e-17 3.037694328445783e-17 -6.187431786002459e-17 3.037694328445783e-17 0.986837816076694 -0.1617130939683929
12649378666.666666 0.9855504498413445 -0.1693821443286553 -6.162147610126878e-17 3.085658027361699e-17 -6.162147610126878e-17 3.085658027361699e-17 0.9855505545618481 -0.16938153501099956
12649996000.0 0.9842035952101078 -0.17704034335525762 -6.136492080751541e-17 3.1334121038614015e-17 -6.136492080751541e-17 3.1334121038614015e-17 0.9842037046599592 -0.17703973489999497
12650613333.333334 0.9827972336322415 -0.18468783816121442 -6.110466929582411e-17 3.180953686368461e-17 -6.110466929582411e-17 3.180953686368461e-17 0.9827973478043616 -0.1846872306050473
12651230666.666666 0.9813314501392812 -0.19232416636342126 -6.084073910502449e-17 3.228279917564996e-17 -6.084073910502449e-17 3.228279917564996e-17 0.9813315690263061 -0.19232355974299412
12651848000.0 0.9798063333555012 -0.19994886625409752 -6.057314799453887e-17 3.275387954563907e-17 -6.057314799453887e-17 3.275387954563907e-17 0.9798064569497826 -0.19994826060599474
12652465333.333334 0.9782219754926159 -0.20756147682836668 -6.030191394320153e-17 3.322274969078463e-17 -6.030191394320153e-17 3.322274969078463e-17 0.9782221037862235 -0.20756087218911057
12653082666.666666 0.9765784723441756 -0.21516153781232616 -6.002705514806438e-17 3.368938147590878e-17 -6.002705514806438e-17 3.368938147590878e-17 0.9765786053288931 -0.21516093421837396
12653700000.0 0.9748759232797541 -0.22274858969093092 -5.974859002318052e-17 3.415374691521652e-17 -5.974859002318052e-17 3.415374691521652e-17 0.9748760609470822 -0.222747987178673
12654317333.333334 0.9731144312389812 -0.23032217373558125 -5.946653719838896e-17 3.4615818173953494e-17 -5.946653719838896e-17 3.4615818173953494e-17 0.9731145735801421 -0.23032157234134001
12654934666.666666 0.9712941027252882 -0.23788183203205587 -5.918091551807235e-17 3.5075567570079424e-17 -5.918091551807235e-17 3.5075567570079424e-17 0.9712942497312187 -0.23788123179208162
12655552000.0 0.9694150477994712 -0.24542710750811136 -5.889174403991104e-17 3.55329675759142e-17 -5.889174403991104e-17 3.55329675759142e-17 0.9694151994608291 -0.24542650845858163
12656169333.333334 0.9674773800730688 -0.25295754396103776 -5.859904203362535e-17 3.59879908197743e-17 -5.859904203362535e-17 3.59879908197743e-17 0.9674775363802298 -0.25295694613805414
12656786666.666666 0.9654812167014385 -0.26047268608543267 -5.830282897969434e-17 3.6440610087615214e-17 -5.830282897969434e-17 3.6440610087615214e-17 0.9654813776444988 -0.26047208952501927
12657404000.0 0.9634266783767313 -0.26797207950051055 -5.800312456807786e-17 3.6890798324638716e-17 -5.800312456807786e-17 3.6890798324638716e-17 0.963426843945509 -0.26797148423861183
12658021333.333334 0.9613138893205389 -0.27545527077779575 -5.769994869690948e-17 3.733852863691628e-17 -5.769994869690948e-17 3.733852863691628e-17 0.9613140595045724 -0.2754546768502742
12658638666.666666 0.9591429772764379 -0.28292180746831724 -5.739332147119385e-17 3.778377429297533e-17 -5.739332147119385e-17 3.778377429297533e-17 0.9591431520649879 -0.28292121491095074
12659256000.0 0.9569140735022179 -0.29037123813015714 -5.70832632014757e-17 3.822650872539946e-17 -5.70832632014757e-17 3.822650872539946e-17 0.956914252884268 -0.2903706469786378
12659873333.333334 0.9546273127619564 -0.2978031123556907 -5.676979440250759e-17 3.8666705532401735e-17 -5.676979440250759e-17 3.8666705532401735e-17 0.9546274967262117 -0.2978025226456213
12660490666.666666 0.9522828333179364 -0.30521698079860016 -5.645293579190559e-17 3.910433847938708e-17 -5.645293579190559e-17 3.910433847938708e-17 0.9522830218528292 -0.305216392565494
12661108000.0 0.9498807769221496 -0.31261239520150746 -5.613270828878172e-17 3.9539381500519714e-17 -5.613270828878172e-17 3.9539381500519714e-17 0.9498809700158345 -0.3126118084807841
12661725333.333334 0.9474212888078639 -0.31998890842261296 -5.580913301238037e-17 3.997180870025732e-17 -5.580913301238037e-17 3.997180870025732e-17 0.9474214864482229 -0.3199883232495978
12662342666.666666 0.9449045176807798 -0.32734607446294967 -5.548223128069135e-17 4.040159435488993e-17 -5.548223128069135e-17 4.040159435488993e-17 0.9449047198554196 -0.3273454908728707
12662960000.0 0.9423306157100148 -0.3346834484934008 -5.5152024609052454e-17 4.082871291406591e-17 -5.5152024609052454e-17 4.082871291406591e-17 0.9423308224062703 -0.33468286652138696
12663577333.333334 0.9396997385189712 -0.3420005868814084 -5.481853470874514e-17 4.125313900230062e-17 -5.481853470874514e-17 4.125313900230062e-17 0.9396999497239047 -0.3420000065624874
12664194666.666666 0.9370120451758599 -0.3492970472179832 -5.448178348557918e-17 4.167484742047155e-17 -5.448178348557918e-17 4.167484742047155e-17 0.9370122608762627 -0.3492964685870795
12664812000.0 0.9342676981841125 -0.35657238834437427 -5.4141793038456407e-17 4.2093813147316925e-17 -5.4141793038456407e-17 4.2093813147316925e-17 0.9342679183665042 -0.35657181143630634
12665429333.333334 0.9314668634725705 -0.36382617037868636 -5.379858565793127e-17 4.25100113409092e-17 -5.379858565793127e-17 4.25100113409092e-17 0.9314670881232039 -0.3638255952281662
12666046666.666666 0.9286097103854436 -0.37105795474253384 -5.345218382476845e-17 4.2923417340108776e-17 -5.345218382476845e-17 4.2923417340108776e-17 0.9286099394902996 -0.37105738138416267
12666664000.0 0.9256964116720292 -0.3782673041876332 -5.310261020845826e-17 4.333400666604338e-17 -5.310261020845826e-17 4.333400666604338e-17 0.9256966452168219 -0.37826673265590105
12667281333.333334 0.9227271434763458 -0.38545378282205706 -5.274988766576265e-17 4.374175502352427e-17 -5.274988766576265e-17 4.374175502352427e-17 0.922727381446523 -0.3854532131513403
12667898666.666666 0.9197020853264085 -0.3926169561367733 -5.2394039239221106e-17 4.414663830248699e-17 -5.2394039239221106e-17 4.414663830248699e-17 0.919702327707152 -0.3926163883613325
12668516000.0 0.9166214201234063 -0.39975639103183747 -5.2035088155646156e-17 4.4548632579418064e-17 -5.2035088155646156e-17 4.4548632579418064e-17 0.9166216668996313 -0.3997558251858149
12669133333.333334 0.9134853341306757 -0.4068716558424999 -5.167305782463124e-17 4.494771411874339e-17 -5.167305782463124e-17 4.494771411874339e-17 0.9134855852870335 -0.4068710919599178
12669750666.666666 0.9102940169623609 -0.4139623203654883 -5.130797183702346e-17 4.5343859374232163e-17 -5.130797183702346e-17 4.5343859374232163e-17 0.91029427248324 -0.4139617584802471
12670368000.0 0.9070476615720292 -0.4210279558848361 -5.093985396339244e-17 4.573704499038144e-17 -5.093985396339244e-17 4.573704499038144e-17 0.9070479214415561 -0.4210273960307125
