! Parameters = {f0=12700.012000; bw=77.238000; Q=6100.000000; N=10; m_0_1=1.340435; m_1_1=1.341786; m_1_2=1.175247; m_2_2=1.341137; m_2_3=0.812210; m_2_8=0.004085; m_2_9=0.040789; m_3_3=1.339200; m_3_4=0.700739; m_3_7=0.004685; m_3_8=-0.092403; m_3_9=0.004085; m_4_4=1.336275; m_4_5=0.537074; m_4_6=0.008202; m_4_7=-0.112952; m_4_8=0.004685; m_5_5=1.336657; m_5_6=0.944429; m_5_7=0.008202; m_6_6=1.336656; m_6_7=0.537416; m_7_7=1.336289; m_7_8=0.700857; m_8_8=1.339198; m_8_9=0.812523; m_9_9=1.341132; m_9_10=1.176325; m_10_10=1.341776; m_10_11=1.341230}
!
! Created with skrf (http://scikit-rf.org).
# Hz S RI R 50.0 
!freq ReS11 ImS11 ReS21 ImS21 ReS12 ImS12 ReS22 ImS22
12607400000.0 -0.5850064774396164 0.8110286193183909 5.039894189667585e-17 -1.439027374324793e-16 5.039894189667585e-17 -1.439027374324793e-16 -0.5850070500954045 0.811028206253319
12608017333.333334 -0.5747370914391975 0.818338118215091 4.8558735303188933e-17 -1.445025868176246e-16 4.8558735303188933e-17 -1.445025868176246e-16 -0.574737669227837 0.8183377124209522
12608634666.666666 -0.5643763860031862 0.8255175921334363 4.67114249630015e-17 -1.4507891764510234e-16 4.67114249630015e-17 -1.4507891764510234e-16 -0.564376968832375 0.8255171936739923
12609252000.0 -0.5539260073345148 0.8325659003335693 4.485731127918343e-17 -1.456316462705152e-16 4.485731127918343e-17 -1.456316462705152e-16 -0.5539265951111589 0.8325655092714097
12609869333.333334 -0.5433876158840216 0.8394819229165581 4.299669563312743e-17 -1.4616069288433803e-16 4.299669563312743e-17 -1.4616069288433803e-16 -0.54338820851425 0.8394815393130914
12610486666.666666 -0.5327628860870017 0.8462645610020859 4.1129880335671925e-17 -1.4666598152325746e-16 4.1129880335671925e-17 -1.4666598152325746e-16 -0.5327634834761809 0.8462641849175288
12611104000.0 -0.5220535060967737 0.8529127369032952 3.925716857795122e-17 -1.471474400809268e-16 3.925716857795122e-17 -1.471474400809268e-16 -0.5220541081495242 0.8529123683966651
12611721333.333334 -0.5112611775167901 0.8594253942978113 3.737886438233211e-17 -1.4760500031803863e-16 3.737886438233211e-17 -1.4760500031803863e-16 -0.5112617841370009 0.8594250334269153
12612338666.666666 -0.5003876151301264 0.8658014983956707 3.5495272553035407e-17 -1.4803859787182512e-16 3.5495272553035407e-17 -1.4803859787182512e-16 -0.5003882262209692 0.8658011452170966
12612956000.0 -0.48943454662687086 0.8720400361038206 3.360669862673389e-17 -1.484481722649063e-16 3.360669862673389e-17 -1.484481722649063e-16 -0.4894351620908177 0.8720396906729295
12613573333.333334 -0.4784037123299604 0.8781400161868929 3.171344882312804e-17 -1.488336669134931e-16 3.171344882312804e-17 -1.488336669134931e-16 -0.47840433206879746 0.8781396785578088
12614190666.666666 -0.46729686491826466 0.8841004694249204 2.98158299952708e-17 -1.4919502913499683e-16 2.98158299952708e-17 -1.4919502913499683e-16 -0.46729748883310884 0.8841001396505231
12614808000.0 -0.45611576914850455 0.8899204487671203 2.791414957993624e-17 -1.4953221015497831e-16 2.791414957993624e-17 -1.4953221015497831e-16 -0.45611639713981844 0.8899201268990355
12615425333.333334 -0.4448622015744487 0.8955990294825803 2.6008715547863202e-17 -1.4984516511347677e-16 2.6008715547863202e-17 -1.4984516511347677e-16 -0.44486283354205747 0.8955987155711732
12616042666.666666 -0.43353795026504377 0.9011353093069813 2.4099836353940493e-17 -1.5013385307070274e-16 2.4099836353940493e-17 -1.5013385307070274e-16 -0.4335385861081509 0.901135003401349
12616660000.0 -0.42214481451990304 0.9065284085861622 2.2187820887333997e-17 -1.5039823701209903e-16 2.2187820887333997e-17 -1.5039823701209903e-16 -0.4221454541371058 0.9065281107341243
12617277333.333334 -0.4106846045837748 0.9117774704157108 2.0272978421554607e-17 -1.5063828385276768e-16 2.0272978421554607e-17 -1.5063828385276768e-16 -0.41068524787308036 0.9117771806638014
12617894666.666666 -0.3991591413587607 0.9168816607771915 1.8355618564535123e-17 -1.5085396444125547e-16 1.8355618564535123e-17 -1.5085396444125547e-16 -0.3991597882176034 0.9168813791706549
12618512000.0 -0.38757025611483853 0.9218401686707309 1.6436051208535888e-17 -1.510452535627224e-16 1.6436051208535888e-17 -1.510452535627224e-16 -0.38757090644009545 0.9218398952535121
12619129333.333334 -0.3759197901992054 0.9266522062437391 1.4514586480238448e-17 -1.5121212994144856e-16 1.4514586480238448e-17 -1.5121212994144856e-16 -0.37592044388721263 0.9266519410584778
12619746666.666666 -0.36420959474355163 0.9313170089161595 1.2591534690615174e-17 -1.5135457624272986e-16 1.2591534690615174e-17 -1.5135457624272986e-16 -0.3642102516901218 0.9313167520041837
12620364000.0 -0.35244153036977804 0.9358338355020148 1.066720628487447e-17 -1.5147257907412663e-16 1.066720628487447e-17 -1.5147257907412663e-16 -0.35244219047021574 0.9358335869033338
12620981333.333334 -0.3406174668947334 0.9402019683270291 8.74191179248159e-18 -1.515661289860736e-16 8.74191179248159e-18 -1.515661289860736e-16 -0.34061813004385244 0.940201728080327
12621598666.666666 -0.3287392830326951 0.9444207133428155 6.815961777021812e-18 -1.5163522047186542e-16 6.815961777021812e-18 -1.5163522047186542e-16 -0.32873994912483584 0.9444204814854473
12622216000.0 -0.31680886609729125 0.9484894002370039 4.889666786206912e-18 -1.5167985196699867e-16 4.889666786206912e-18 -1.5167985196699867e-16 -0.31680953502633596 0.9484891768049865
12622833333.333334 -0.3048281117011964 0.952407382539892 2.9633373018520047e-18 -1.5170002584788175e-16 2.9633373018520047e-18 -1.5170002584788175e-16 -0.3048287833605869 0.952407167567899
12623450666.666666 -0.292798923455315 0.9561740377270305 1.0372836898912776e-18 -1.5169574842991153e-16 1.0372836898912776e-18 -1.5169574842991153e-16 -0.2927995977380708 0.9561738312483916
12624068000.0 -0.28072321266616107 0.9597887673182022 -8.881838495681376e-19 -1.516670299649152e-16 -8.881838495681376e-19 -1.516670299649152e-16 -0.28072388946489457 0.9597885693648919
12624685333.333334 -0.26860289803200493 0.9632509969725511 -2.8127553321460213e-18 -1.5161388463795858e-16 -2.8127553321460213e-18 -1.5161388463795858e-16 -0.2686035772389394 0.9632508075751866
12625302666.666666 -0.25643990533839633 0.9665601765797301 -4.73612103903467e-18 -1.5153633056352497e-16 -4.73612103903467e-18 -1.5153633056352497e-16 -0.25644058684538307 0.9665599957675672
12625920000.0 -0.24423616715174068 0.969715780347433 -6.6579715667822444e-18 -1.5143438978105922e-16 -6.6579715667822444e-18 -1.5143438978105922e-16 -0.24423685085027624 0.9697156081483601
12626537333.333334 -0.2319936225126189 0.9727173068848299 -8.57799787701444e-18 -1.5130808824988313e-16 -8.57799787701444e-18 -1.5130808824988313e-16 -0.231994308293862 0.9727171433253637
12627154666.666666 -0.21971421662753116 0.9755642792822806 -1.0495891346026383e-17 -1.5115745584348406e-16 -1.0495891346026383e-17 -1.5115745584348406e-16 -0.21971490438232022 0.9755641243875625
12627772000.0 -0.20739990055965754 0.9782562451871439 -1.2411343814425784e-17 -1.50982526343166e-16 -1.2411343814425784e-17 -1.50982526343166e-16 -0.20740059017852847 0.9782560989809375
12628389333.333334 -0.19505263091924427 0.9807927768755665 -1.432404763645867e-17 -1.5078333743109063e-16 -1.432404763645867e-17 -1.5078333743109063e-16 -0.1950533222924474 0.9807926393802524
12629006666.666666 -0.18267436955227542 0.9831734713205416 -1.6233695729490504e-17 -1.5055993068267141e-16 -1.6233695729490504e-17 -1.5055993068267141e-16 -0.18267506256979285 0.9831733425571129
12629624000.0 -0.17026708322920142 0.9853979502558468 -1.813998162315435e-17 -1.5031235155836367e-16 -1.813998162315435e-17 -1.5031235155836367e-16 -0.17026777778076504 0.985397830243909
12630241333.333334 -0.1578327433319955 0.9874658602362412 -2.0042599508526854e-17 -1.5004064939481816e-16 -2.0042599508526854e-17 -1.5004064939481816e-16 -0.15783343930710414 0.9874657489940066
12630858666.666666 -0.1453733255413697 0.9893768726935389 -2.1941244287075995e-17 -1.4974487739542614e-16 -2.1941244287075995e-17 -1.4974487739542614e-16 -0.14537402282930662 0.9893767702378239
12631476000.0 -0.1328908095224118 0.9911306839888888 -2.383561161961998e-17 -1.4942509262022417e-16 -2.383561161961998e-17 -1.4942509262022417e-16 -0.13289150801226285 0.9911305903351134
12632093333.333334 -0.12038717861043206 0.9927270154609598 -2.5725397974940574e-17 -1.4908135597521283e-16 -2.5725397974940574e-17 -1.4908135597521283e-16 -0.12038787819110273 0.9927269306231437
12632710666.666666 -0.10786441949566412 0.9941656134702442 -2.7610300678409065e-17 -1.4871373220103619e-16 -2.7610300678409065e-17 -1.4871373220103619e-16 -0.10786512005589763 0.9941655374610057
12633328000.0 -0.0953245219074324 0.9954462494393775 -2.949001796044618e-17 -1.4832228986104653e-16 -2.949001796044618e-17 -1.4832228986104653e-16 -0.09532522333582706 0.9954461822699299
12633945333.333334 -0.08276947829840074 0.9965687198894089 -3.1364249004699106e-17 -1.4790710132878085e-16 -3.1364249004699106e-17 -1.4790710132878085e-16 -0.08277018048342788 0.9965686615695601
12634562666.666666 -0.07020128352754156 0.9975328464721798 -3.3232693996164515e-17 -1.4746824277480668e-16 -3.3232693996164515e-17 -1.4746824277480668e-16 -0.0702019863575632 0.997532797010332
12635180000.0 -0.057621934543627365 0.9983384759986235 -3.5095054169080836e-17 -1.4700579415297085e-16 -3.5095054169080836e-17 -1.4700579415297085e-16 -0.057622637906913916 0.9983384354017693
12635797333.333334 -0.045033430067483976 0.9989854804631352 -3.6951031854649546e-17 -1.4651983918604089e-16 -3.6951031854649546e-17 -1.4651983918604089e-16 -0.04503413385223209 0.9989854487368585
12636414666.666666 -0.03243777027481273 0.9994737570638867 -3.8800330528519574e-17 -1.4601046535075526e-16 -3.8800330528519574e-17 -1.4601046535075526e-16 -0.03243847436916302 0.999473734212363
12637032000.0 -0.019836956478214388 0.999803228219176 -4.0642654858152094e-17 -1.4547776386225425e-16 -4.0642654858152094e-17 -1.4547776386225425e-16 -0.019837660770269144 0.9998032142451675
12637649333.333334 -0.007232990809031707 0.999973841579749 -4.247771074988318e-17 -1.4492182965793696e-16 -4.247771074988318e-17 -1.4492182965793696e-16 -0.0072336951868728 0.9999738364846094
12638266666.666666 0.005372124100369336 0.9999855700371156 -4.430520539585173e-17 -1.4434276138070497e-16 -4.430520539585173e-17 -1.4434276138070497e-16 0.005371419748662755 0.9999855738207869
12638884000.0 0.01797638543525069 0.9998384117278594 -4.6124847320610904e-17 -1.4374066136163927e-16 -4.6124847320610904e-17 -1.4374066136163927e-16 0.017975681221584376 0.999838424388873
12639501333.333334 0.03057779051632967 0.9995323900339321 -4.7936346427597557e-17 -1.431156356020654e-16 -4.7936346427597557e-17 -1.431156356020654e-16 0.030577086552576536 0.9995324115694103
12640118666.666666 0.04317433711809659 0.999067553578945 -4.973941404527137e-17 -1.4246779375506148e-16 -4.973941404527137e-17 -1.4246779375506148e-16 0.0431736335160789 0.9990675839845992
12640736000.0 0.05576402378740075 0.9984439762204204 -5.153376297314441e-17 -1.4179724910633903e-16 -5.153376297314441e-17 -1.4179724910633903e-16 0.055763320658872385 0.9984440154905533
12641353333.333334 0.0683448501605508 0.9976617570380939 -5.3319107527353657e-17 -1.411041185546174e-16 -5.3319107527353657e-17 -1.411041185546174e-16 0.06834414761717951 0.9976618051656012
12641970666.666666 0.08091481728188903 0.9967210203181449 -5.509516358617314e-17 -1.403885225913507e-16 -5.509516358617314e-17 -1.403885225913507e-16 0.08091411543523867 0.9967210772945146
12642588000.0 0.09347192792128947 0.9956219155334428 -5.68616486351279e-17 -1.3965058527993208e-16 -5.68616486351279e-17 -1.3965058527993208e-16 0.09347122688280235 0.9956219813487589
12643205333.333334 0.10601418689115628 0.9943646173198302 -5.861828181187189e-17 -1.3889043423431612e-16 -5.861828181187189e-17 -1.3889043423431612e-16 0.10601348677213533 0.9943646919627721
12643822666.666666 0.11853960136383333 0.9929493254483379 -6.036478395081354e-17 -1.3810820059706322e-16 -6.036478395081354e-17 -1.3810820059706322e-16 0.11853890227542463 0.9929494089061848
12644440000.0 0.1310461811880728 0.9913762647934579 -6.210087762737948e-17 -1.3730401901685513e-16 -6.210087762737948e-17 -1.3730401901685513e-16 0.13104548324124785 0.9913763570520895
12645057333.333334 0.14353193920513574 0.9896456852974288 -6.382628720202871e-17 -1.3647802762543506e-16 -6.382628720202871e-17 -1.3647802762543506e-16 0.14353124251067395 0.9896457863413287
12645674666.666666 0.15599489156464352 0.9877578619305142 -6.554073886395371e-17 -1.3563036801399877e-16 -6.554073886395371e-17 -1.3563036801399877e-16 0.1559941962331141 0.9877579717427694
12646292000.0 0.16843305803995698 0.9857130946472779 -6.724396067452334e-17 -1.3476118520901055e-16 -6.724396067452334e-17 -1.3476118520901055e-16 0.16843236418170224 0.9857132132095862
12646909333.333334 0.1808444623424771 0.9835117083389835 -6.893568261025441e-17 -1.338706276475519e-16 -6.893568261025441e-17 -1.338706276475519e-16 0.1808437700675942 0.9835118356316528
12647526666.666666 0.1932271324358234 0.981154052781944 -7.061563660563391e-17 -1.3295884715204263e-16 -7.061563660563391e-17 -1.3295884715204263e-16 0.19322644185414745 0.9811541887838987
12648144000.0 0.20557910084928113 0.9786405025819264 -7.228355659552455e-17 -1.3202599890446792e-16 -7.228355659552455e-17 -1.3202599890446792e-16 0.20557841207036745 0.9786406472707081
12648761333.333334 0.21789840499029842 0.9759714571146479 -7.393917855721001e-17 -1.31072241420088e-16 -7.393917855721001e-17 -1.31072241420088e-16 0.2178977181234051 0.9759716104664202
12649378666.666666 0.23018308745620936 0.9731473404623436 -7.55822405521244e-17 -1.3009773652060443e-16 -7.55822405521244e-17 -1.3009773652060443e-16 0.2301824026102801 0.9731475024518965
12649996000.0 0.24243119634541146 0.9701686013463524 -7.721248276726766e-17 -1.2910264930678432e-16 -7.721248276726766e-17 -1.2910264930678432e-16 0.24243051362905835 0.9701687719471059
12650613333.333334 0.2546407855674458 0.9670357130558307 -7.882964755619449e-17 -1.2808714813060333e-16 -7.882964755619449e-17 -1.2808714813060333e-16 0.25464010508893187 0.9670358922398394
12651230666.666666 0.2668099151521544 0.963749173372567 -8.043347947967644e-17 -1.270514045668562e-16 -8.043347947967644e-17 -1.270514045668562e-16 0.2668092370193765 0.9637493611105239
12651848000.0 0.2789366515580846 0.9603095044918424 -8.202372534598453e-17 -1.2599559338426267e-16 -8.202372534598453e-17 -1.2599559338426267e-16 0.2789359758785568 0.9603097007530861
12652465333.333334 0.29101906797959826 0.9567172529394934 -8.360013425079451e-17 -1.2491989251607051e-16 -8.360013425079451e-17 -1.2491989251607051e-16 0.2910183948604338 0.956717457692009
12653082666.666666 0.303055244652856 0.952972989485118 -8.51624576167086e-17 -1.238244830301614e-16 -8.51624576167086e-17 -1.238244830301614e-16 0.30305457420075105 0.9529732026955459
12653700000.0 0.31504326916122793 0.9490773090512762 -8.671044923238567e-17 -1.2270954909866132e-16 -8.671044923238567e-17 -1.2270954909866132e-16 0.31504260148244473 0.9490775306849161
12654317333.333334 0.3269812367387758 0.9450308306190786 -8.824386529127699e-17 -1.2157527796706562e-16 -8.824386529127699e-17 -1.2157527796706562e-16 0.3269805719391257 0.9450310606398963
12654934666.666666 0.33886725057306344 0.9408341971297913 -8.976246442995786e-17 -1.2042185992287862e-16 -8.976246442995786e-17 -1.2042185992287862e-16 0.3388665887578894 0.9408344355004213
12655552000.0 0.35069942210669697 0.9364880753826144 -9.126600776605165e-17 -1.1924948826377726e-16 -9.126600776605165e-17 -1.1924948826377726e-16 0.35069876338085865 0.9364883220643713
12656169333.333334 0.3624758713370255 0.931993155928877 -9.275425893573986e-17 -1.180583592653021e-16 -9.275425893573986e-17 -1.180583592653021e-16 0.36247521580488046 0.9319934108817561
12656786666.666666 0.3741947271152761 0.927350152962153 -9.422698413085065e-17 -1.1684867214808016e-16 -9.422698413085065e-17 -1.1684867214808016e-16 0.37419407488066453 0.9273504161448404
12657404000.0 0.38585412744343545 0.922559804204947 -9.568395213552244e-17 -1.156206290445878e-16 -9.568395213552244e-17 -1.156206290445878e-16 0.38585347860966346 0.9225600755748249
12658021333.333334 0.397452219770523 0.9176228707913113 -9.712493436244184e-17 -1.1437443496545091e-16 -9.712493436244184e-17 -1.1437443496545091e-16 0.3974515744403471 0.9176231503044668
12658638666.666666 0.40898716128652246 0.9125401371460857 -9.854970488860516e-17 -1.1311029776532873e-16 -9.854970488860516e-17 -1.1311029776532873e-16 0.4089865195621313 0.9125404247573139
12659256000.0 0.42045711921559975 0.9073124108600765 -9.995804049073396e-17 -1.1182842810826914e-16 -9.995804049073396e-17 -1.1182842810826914e-16 0.4204564811986001 0.9073127065228925
12659873333.333334 0.43186027110694764 0.9019405225619027 -1.0134972068011884e-16 -1.1052903943273042e-16 -1.0134972068011884e-16 -1.1052903943273042e-16 0.4318596368983469 0.9019408262285461
12660490666.666666 0.44319480512451137 0.8964253257859529 -1.027245277370692e-16 -1.0921234791612192e-16 -1.027245277370692e-16 -1.0921234791612192e-16 0.44319417482470197 0.8964256374073961
12661108000.0 0.45445892033501895 0.890767696836685 -1.040822467449636e-16 -1.0787857243885632e-16 -1.040822467449636e-16 -1.0787857243885632e-16 0.45445829404376326 0.8907680163626425
12661725333.333334 0.46565082699382715 0.8849685346495486 -1.0542266562368766e-16 -1.0652793454812265e-16 -1.0542266562368766e-16 -1.0652793454812265e-16 0.4656502048102398 0.8849688620284822
12662342666.666666 0.47676874682944226 0.879028760648073 -1.0674557516275593e-16 -1.0516065842109594e-16 -1.0674557516275593e-16 -1.0516065842109594e-16 0.47676812885197634 0.8790290958272031
12662960000.0 0.48781091332622106 0.8729493185973874 -1.0805076905386043e-16 -1.0377697082783276e-16 -1.0805076905386043e-16 -1.0377697082783276e-16 0.4878102996526512 0.8729496615226994
12663577333.333334 0.4987755720046976 0.8667311744544507 -1.0933804392297592e-16 -1.0237710109372776e-16 -1.0933804392297592e-16 -1.0237710109372776e-16 0.49877496273210603 0.8667315250707057
12664194666.666666 0.5096609807007513 0.8603753162143555 -1.1060719936197397e-16 -1.0096128106157926e-16 -1.1060719936197397e-16 -1.0096128106157926e-16 0.5096603759255112 0.8603756744650977
12664812000.0 0.5204654098420218 0.8538827537535706 -1.1185803795974704e-16 -9.952974505326455e-17 -1.1185803795974704e-16 -9.952974505326455e-17 0.520464809659782 0.8538831195811359
12665429333.333334 0.5311871427231104 0.8472545186692504 -1.1309036533284284e-16 -9.808272983102351e-17 -1.1309036533284284e-16 -9.808272983102351e-17 0.531186547228781 0.8472548920147774
12666046666.666666 0.5418244757779573 0.8404916641155626 -1.143039901555671e-16 -9.662047455840453e-17 -1.143039901555671e-16 -9.662047455840453e-17 0.5418238850656941 0.8404920449190006
12666664000.0 0.5523757188509058 0.833595264636113 -1.154987241896634e-16 -9.514322076074026e-17 -1.154987241896634e-16 -9.514322076074026e-17 0.552375133014096 0.8335956528362329
12667281333.333334 0.5628391954649126 0.8265664159934244 -1.1667438231337553e-16 -9.365121228538919e-17 -1.1667438231337553e-16 -9.365121228538919e-17 0.5628386145961605 0.8265668115278284
12667898666.666666 0.573213243088069 0.8194062349947453 -1.178307825500778e-16 -9.214469526152074e-17 -1.178307825500778e-16 -9.214469526152074e-17 0.5732126672791787 0.8194066377998748
12668516000.0 0.5834962133978949 0.8121158593144968 -1.1896774609635507e-16 -9.062391805958745e-17 -1.1896774609635507e-16 -9.062391805958745e-17 0.5834956427398589 0.8121162693256454
12669133333.333334 0.5936864725429148 0.8046964473137416 -1.200850973495677e-16 -8.90891312504467e-17 -1.200850973495677e-16 -8.90891312504467e-17 0.593685907125898 0.8046968644650637
12669750666.666666 0.6037824014026281 0.7971491778558651 -1.2118266393488734e-16 -8.754058756414192e-17 -1.2118266393488734e-16 -8.754058756414192e-17 0.6037818413159546 0.7971496020803884
