! Parameters = {f0=12700.012000; bw=77.238000; Q=6100.000000; N=10; m_0_1=1.234730; m_1_1=-0.243800; m_1_2=1.069542; m_2_2=-0.244449; m_2_3=0.706505; m_2_8=-0.001200; m_2_9=0.035504; m_3_3=-0.246386; m_3_4=0.595034; m_3_7=-0.000600; m_3_8=-0.097688; m_3_9=-0.001200; m_4_4=-0.249311; m_4_5=0.431369; m_4_6=0.002917; m_4_7=-0.118237; m_4_8=-0.000600; m_5_5=-0.248929; m_5_6=0.838724; m_5_7=0.002917; m_6_6=-0.248930; m_6_7=0.431711; m_7_7=-0.249297; m_7_8=0.595152; m_8_8=-0.246388; m_8_9=0.706818; m_9_9=-0.244454; m_9_10=1.070620; m_10_10=-0.243810; m_10_11=1.235525}
!
! Created with skrf (http://scikit-rf.org).
# Hz S RI R 50.0 
!freq ReS11 ImS11 ReS21 ImS21 ReS12 ImS12 ReS22 ImS22
12607400000.0 -0.9965616589732068 -0.08285444987689823 9.142199124176387e-17 -1.9014212920774588e-17 9.142199124176387e-17 -1.9014212920774588e-17 -0.9965616050685662 -0.0828550982317693
12608017333.333334 -0.997302346489324 -0.07340319943110515 9.121799404858035e-17 -1.988424673059702e-17 9.121799404858035e-17 -1.988424673059702e-17 -0.9973022987359279 -0.07340384823609278
12608634666.666666 -0.9979534017032449 -0.06394535189328325 9.100572346329465e-17 -2.075211889312605e-17 9.100572346329465e-17 -2.075211889312605e-17 -0.9979533601047826 -0.06394600109003504
12609252000.0 -0.99851476610161 -0.0544817572851761 9.07852021609578e-17 -2.161775079625982e-17 9.07852021609578e-17 -2.161775079625982e-17 -0.9985147306612178 -0.05448240681531017
12609869333.333334 -0.9989863892320024 -0.045013266144985874 9.055645356298225e-17 -2.2481064063752326e-17 9.055645356298225e-17 -2.2481064063752326e-17 -0.9989863599522623 -0.04501391595009609
12610486666.666666 -0.9993682287074752 -0.03554072945110195 9.031950183470777e-17 -2.334198056229152e-17 9.031950183470777e-17 -2.334198056229152e-17 -0.999368205590415 -0.03554137947276314
12611104000.0 -0.9996602502103734 -0.026064998545306903 9.007437188289388e-17 -2.4200422408567236e-17 9.007437188289388e-17 -2.4200422408567236e-17 -0.9996602332574671 -0.026065648725080198
12611721333.333334 -0.9998624274954019 -0.01658692505666005 8.982108935315827e-17 -2.505631197627571e-17 8.982108935315827e-17 -2.505631197627571e-17 -0.99986241670757 -0.016587575336098087
12612338666.666666 -0.9999747423919975 -0.007107360824701928 8.955968062733328e-17 -2.5909571903145875e-17 8.955968062733328e-17 -2.5909571903145875e-17 -0.9999747377696052 -0.007108011145354098
12612956000.0 -0.9999971848059552 0.00237284217721841 8.929017282076335e-17 -2.6760125097915962e-17 8.929017282076335e-17 -2.6760125097915962e-17 -0.9999971863488154 0.002372191873800682
12613573333.333334 -0.9999297527203376 0.011852831918087888 8.9012593779544e-17 -2.7607894747257302e-17 8.9012593779544e-17 -2.7607894747257302e-17 -0.9999297604277073 0.011852181690345912
12614190666.666666 -0.9997724521956551 0.02133175638620342 8.872697207767656e-17 -2.8452804322730735e-17 8.872697207767656e-17 -2.8452804322730735e-17 -0.9997724660662385 0.021331106292565984
12614808000.0 -0.9995252973693223 0.030808763665575698 8.843333701417639e-17 -2.929477758765081e-17 8.843333701417639e-17 -2.929477758765081e-17 -0.9995253174012703 0.03080811376445384
12615425333.333334 -0.9991883104543868 0.04028300201252336 8.813171861010397e-17 -3.0133738603961275e-17 8.813171861010397e-17 -3.0133738603961275e-17 -0.9991883366452956 0.04028235236230508
12616042666.666666 -0.9987615217375343 0.04975361993219488 8.782214760553561e-17 -3.0969611739065304e-17 8.782214760553561e-17 -3.0969611739065304e-17 -0.9987615540844476 0.049752970591239926
12616660000.0 -0.9982449695763624 0.05921976625521006 8.750465545646966e-17 -3.180232167262518e-17 8.750465545646966e-17 -3.180232167262518e-17 -0.998245008075769 0.05921911728184458
12617277333.333334 -0.9976387003959339 0.06868059021401639 8.717927433166268e-17 -3.2631793403345494e-17 8.717927433166268e-17 -3.2631793403345494e-17 -0.9976387450437737 0.06867994166652797
12617894666.666666 -0.9969427686846173 0.07813524151932379 8.684603710941701e-17 -3.3457952255685086e-17 8.684603710941701e-17 -3.3457952255685086e-17 -0.9969428194762757 0.07813459345595594
12618512000.0 -0.9961572369891628 0.08758287043680735 8.65049773742795e-17 -3.428072388660057e-17 8.65049773742795e-17 -3.428072388660057e-17 -0.9961572939194735 0.08758222291575435
12619129333.333334 -0.9952821759091109 0.09702262786308011 8.615612941370636e-17 -3.510003429218307e-17 8.615612941370636e-17 -3.510003429218307e-17 -0.9952822389723579 0.09702198094248193
12619746666.666666 -0.9943176640904308 0.10645366540228993 8.57995282146403e-17 -3.591580981432271e-17 8.57995282146403e-17 -3.591580981432271e-17 -0.994317733280345 0.10645301914022666
12620364000.0 -0.9932637882184434 0.11587513544233945 8.543520946003557e-17 -3.672797714731171e-17 8.543520946003557e-17 -3.672797714731171e-17 -0.9932638635282082 0.11587448989682655
12620981333.333334 -0.9921206430100532 0.12528619123092447 8.50632095253254e-17 -3.753646334440317e-17 8.50632095253254e-17 -3.753646334440317e-17 -0.9921207244323018 0.12528554645990725
12621598666.666666 -0.9908883312052208 0.13468598695174835 8.468356547481765e-17 -3.8341195824356175e-17 8.468356547481765e-17 -3.8341195824356175e-17 -0.9908884187320375 0.13468534301309684
12622216000.0 -0.989566963557731 0.14407367780051133 8.429631505803452e-17 -3.914210237793288e-17 8.429631505803452e-17 -3.914210237793288e-17 -0.9895670571806531 0.14407303475201513
12622833333.333334 -0.9881566588252382 0.15344842006086518 8.39014967059883e-17 -3.9939111174363605e-17 8.39014967059883e-17 -3.9939111174363605e-17 -0.9881567585352546 0.1534477779602281
12623450666.666666 -0.9866575437586053 0.1628093711801295 8.349914952740367e-17 -4.073215076776087e-17 8.349914952740367e-17 -4.073215076776087e-17 -0.9866576495461606 0.16280873008496483
12624068000.0 -0.9850697530904967 0.17215568984515697 8.308931330486284e-17 -4.152115010352858e-17 8.308931330486284e-17 -4.152115010352858e-17 -0.9850698649454885 0.1721550498129816
12624685333.333334 -0.9833934295232616 0.1814865360579451 8.26720284909066e-17 -4.23060385246997e-17 8.26720284909066e-17 -4.23060385246997e-17 -0.9833935474350444 0.1814858971461751
12625302666.666666 -0.9816287237161422 0.19080107121096343 8.224733620407807e-17 -4.308674577823332e-17 8.224733620407807e-17 -4.308674577823332e-17 -0.9816288476735271 0.19080043347690853
12625920000.0 -0.9797757942716869 0.20009845816277494 8.181527822488149e-17 -4.38632020213185e-17 8.181527822488149e-17 -4.38632020213185e-17 -0.9797759242629419 0.20009782166363313
12626537333.333334 -0.977834807721545 0.2093778613129937 8.13758969917171e-17 -4.4635337827573176e-17 8.13758969917171e-17 -4.4635337827573176e-17 -0.9778349437343989 0.20937722610584697
12627154666.666666 -0.9758059385114809 0.2186384466775256 8.092923559673401e-17 -4.540308419324667e-17 8.092923559673401e-17 -4.540308419324667e-17 -0.9758060805331213 0.21863781281933384
12627772000.0 -0.9736893689856542 0.2278793819636879 8.047533778161747e-17 -4.616637254339235e-17 8.047533778161747e-17 -4.616637254339235e-17 -0.9736895170027289 0.227878749511284
12628389333.333334 -0.9714852893703161 0.2370998366446225 8.001424793335817e-17 -4.692513473792996e-17 8.001424793335817e-17 -4.692513473792996e-17 -0.9714854433689373 0.237099205654708
12629006666.666666 -0.9691938977566289 0.24629898203432832 7.954601107991219e-17 -4.767930307775487e-17 7.954601107991219e-17 -4.767930307775487e-17 -0.9691940577223718 0.2462983525634674
12629624000.0 -0.9668154000829033 0.25547599136194454 7.907067288584586e-17 -4.8428810310734015e-17 7.907067288584586e-17 -4.8428810310734015e-17 -0.9668155660008083 0.2554753634665595
12630241333.333334 -0.9643500101160926 0.2646300398460567 7.858827964789953e-17 -4.917358963769956e-17 7.858827964789953e-17 -4.917358963769956e-17 -0.9643501819706662 0.2646294135824227
12630858666.666666 -0.9617979494325946 0.27376030476876956 7.809887829051308e-17 -4.9913574718369296e-17 7.809887829051308e-17 -4.9913574718369296e-17 -0.9617981272078123 0.27375968019300956
12631476000.0 -0.9591594473982648 0.28286596554992227 7.760251636126485e-17 -5.0648699677271895e-17 7.760251636126485e-17 -5.0648699677271895e-17 -0.9591596310775705 0.282865342718002
12632093333.333334 -0.9564347411478965 0.2919462038204814 7.709924202630364e-17 -5.1378899109551754e-17 7.709924202630364e-17 -5.1378899109551754e-17 -0.9564349307142068 0.29194558278820487
12632710666.666666 -0.9536240755638697 0.3010002034962577 7.658910406568493e-17 -5.210410808679322e-17 7.658910406568493e-17 -5.210410808679322e-17 -0.9536242709995726 0.30099958431926127
12633328000.0 -0.9507277032541033 0.3100271508513584 7.607215186865995e-17 -5.282426216278453e-17 7.607215186865995e-17 -5.282426216278453e-17 -0.9507279045410609 0.3100265335851064
12633945333.333334 -0.9477458845293941 0.319026234591185 7.554843542893294e-17 -5.3539297379205896e-17 7.554843542893294e-17 -5.3539297379205896e-17 -0.9477460916489453 0.31902561929096473
12634562666.666666 -0.944678887380031 0.3279966459253214 7.501800533983584e-17 -5.4249150271311494e-17 7.501800533983584e-17 -5.4249150271311494e-17 -0.9446791003129912 0.32799603264623767
12635180000.0 -0.9415269874516836 0.33693757864030466 7.448091278947433e-17 -5.495375787352948e-17 7.448091278947433e-17 -5.495375787352948e-17 -0.9415272061783482 0.3369369674372756
12635797333.333334 -0.9382904680206278 0.3458482291720834 7.393720955580311e-17 -5.565305772504017e-17 7.393720955580311e-17 -5.565305772504017e-17 -0.9382906925207738 0.34584762009983533
12636414666.666666 -0.9349696199683248 0.35472779667813087 7.338694800166468e-17 -5.634698787528446e-17 7.338694800166468e-17 -5.634698787528446e-17 -0.9349698502212124 0.354727189791193
12637032000.0 -0.9315647417552196 0.3635754831095802 7.283018106975901e-17 -5.703548688944656e-17 7.283018106975901e-17 -5.703548688944656e-17 -0.9315649777395946 0.3635748784622806
12637649333.333334 -0.9280761393939695 0.3723904932828169 7.22669622775798e-17 -5.771849385386427e-17 7.22669622775798e-17 -5.771849385386427e-17 -0.9280763810880628 0.37238989092927627
12638266666.666666 -0.9245041264218836 0.3811720349510767 7.169734571228381e-17 -5.839594838141042e-17 7.169734571228381e-17 -5.839594838141042e-17 -0.9245043738034167 0.38117143494520467
12638884000.0 -0.9208490238728104 0.38991931887549025 7.112138602552816e-17 -5.906779061680114e-17 7.112138602552816e-17 -5.906779061680114e-17 -0.9208492769189954 0.3899187212709803
12639501333.333334 -0.9171111602482335 0.39863155889614893 7.053913842824026e-17 -5.973396124187635e-17 7.053913842824026e-17 -5.973396124187635e-17 -0.9171114189357755 0.3986309637464733
12640118666.666666 -0.9132908714878211 0.40730797200257574 6.995065868535783e-17 -6.039440148080419e-17 6.995065868535783e-17 -6.039440148080419e-17 -0.9132911357929208 0.40730737936098105
12640736000.0 -0.9093885009390551 0.4159477784045167 6.935600311048357e-17 -6.104905310527808e-17 6.935600311048357e-17 -6.104905310527808e-17 -0.9093887708374109 0.415947188324019
12641353333.333334 -0.9054043993266585 0.42455020160137336 6.875522856055158e-17 -6.169785843959227e-17 6.875522856055158e-17 -6.169785843959227e-17 -0.9054046747934682 0.4245496141347533
12641970666.666666 -0.9013389247207851 0.43311446845263973 6.814839243038555e-17 -6.234076036573364e-17 6.814839243038555e-17 -6.234076036573364e-17 -0.9013392057307484 0.4331138836524377
12642588000.0 -0.8971924425050242 0.44163980924697355 6.753555264724669e-17 -6.297770232837965e-17 6.753555264724669e-17 -6.297770232837965e-17 -0.8971927290323449 0.4416392271654852
12643205333.333334 -0.8929653253435035 0.45012545777150315 6.691676766532408e-17 -6.360862833985408e-17 6.691676766532408e-17 -6.360862833985408e-17 -0.892965617361893 0.450124878460775
12643822666.666666 -0.8886579531473586 0.4585706513807673 6.629209646017228e-17 -6.423348298503693e-17 6.629209646017228e-17 -6.423348298503693e-17 -0.8886582506300367 0.4585700748925916
12644440000.0 -0.8842707130406503 0.4669746310651297 6.566159852312104e-17 -6.485221142620072e-17 6.566159852312104e-17 -6.485221142620072e-17 -0.8842710159603482 0.46697405745104
12645057333.333334 -0.8798039993255605 0.4753366415190215 6.502533385562062e-17 -6.546475940781341e-17 6.502533385562062e-17 -6.546475940781341e-17 -0.8798043076545242 0.4753360708302882
12645674666.666666 -0.8752582134469712 0.4836559312087998 6.4383362963562e-17 -6.607107326126475e-17 6.4383362963562e-17 -6.607107326126475e-17 -0.8752585271569624 0.483655363496425
12646292000.0 -0.8706337639562283 0.4919317524405635 6.373574685152218e-17 -6.667109990956906e-17 6.373574685152218e-17 -6.667109990956906e-17 -0.8706340830185294 0.49193118775527767
12646909333.333334 -0.8659310664746908 0.5001633614268821 6.308254701701283e-17 -6.726478687196628e-17 6.308254701701283e-17 -6.726478687196628e-17 -0.8659313908601042 0.5001627998191377
12647526666.666666 -0.8611505436561787 0.5083500183539895 6.242382544464266e-17 -6.785208226850835e-17 6.242382544464266e-17 -6.785208226850835e-17 -0.8611508733350325 0.5083494598739582
12648144000.0 -0.8562926251490158 0.5164909874482242 6.175964460024853e-17 -6.843293482457761e-17 6.175964460024853e-17 -6.843293482457761e-17 -0.8562929600911642 0.516490432145791
12648761333.333334 -0.8513577475574702 0.524585537042058 6.109006742501005e-17 -6.900729387532522e-17 6.109006742501005e-17 -6.900729387532522e-17 -0.8513580877322988 0.5245849849668186
12649378666.666666 -0.8463463544025198 0.5326329396398581 6.041515732949658e-17 -6.957510937007733e-17 6.041515732949658e-17 -6.957510937007733e-17 -0.8463466997789464 0.5326323908411127
12649996000.0 -0.8412588960819305 0.5406324719833655 5.973497818767228e-17 -7.013633187668238e-17 5.973497818767228e-17 -7.013633187668238e-17 -0.8412592466284077 0.5406319265101146
12650613333.333334 -0.8360958298297573 0.5485834151167202 5.90495943308759e-17 -7.069091258578839e-17 5.90495943308759e-17 -7.069091258578839e-17 -0.8360961855142762 0.548582873017661
12651230666.666666 -0.8308576196754057 0.5564850544508384 5.835907054176458e-17 -7.123880331505849e-17 5.835907054176458e-17 -7.123880331505849e-17 -0.8308579804655 0.5564845157743605
12651848000.0 -0.8255447364017137 0.5643366798279723 5.766347204818084e-17 -7.177995651335886e-17 5.766347204818084e-17 -7.177995651335886e-17 -0.8255451022644605 0.5643361446221525
12652465333.333334 -0.8201576575027907 0.5721375855852935 5.69628645170395e-17 -7.23143252648393e-17 5.69628645170395e-17 -7.23143252648393e-17 -0.8201580284048153 0.5721370538978926
12653082666.666666 -0.8146968671411103 0.5798870706183192 5.625731404813878e-17 -7.284186329298576e-17 5.625731404813878e-17 -7.284186329298576e-17 -0.814697243048587 0.5798865424967762
12653700000.0 -0.8091628561038277 0.587584438444154 5.554688716792316e-17 -7.336252496462002e-17 5.554688716792316e-17 -7.336252496462002e-17 -0.8091632369824855 0.5875839139355837
12654317333.333334 -0.8035561217589208 0.5952289972637396 5.4831650823257867e-17 -7.387626529380289e-17 5.4831650823257867e-17 -7.387626529380289e-17 -0.8035565075740458 0.5952284764149279
12654934666.666666 -0.7978771680102573 0.6028200600243541 5.411167237511901e-17 -7.438303994571272e-17 5.411167237511901e-17 -7.438303994571272e-17 -0.7978775587266939 0.6028195428817524
12655552000.0 -0.7921265052524025 0.6103569444812195 5.338701959225875e-17 -7.48828052404546e-17 5.338701959225875e-17 -7.48828052404546e-17 -0.7921269008345584 0.6103564310909417
12656169333.333334 -0.7863046503248358 0.6178389732587065 5.2657760644875946e-17 -7.537551815677957e-17 5.2657760644875946e-17 -7.537551815677957e-17 -0.7863050507366853 0.6178384636665253
12656786666.666666 -0.7804121264653464 0.6252654739114184 5.1923964098191034e-17 -7.586113633578604e-17 5.1923964098191034e-17 -7.586113633578604e-17 -0.7804125316704336 0.6252649681627607
12657404000.0 -0.7744494632630928 0.6326357789845128 5.118569890602962e-17 -7.633961808452874e-17 5.118569890602962e-17 -7.633961808452874e-17 -0.7744498732245341 0.6326352771244556
12658021333.333334 -0.7684171966109707 0.6399492260737346 5.04430344043583e-17 -7.681092237957621e-17 5.04430344043583e-17 -7.681092237957621e-17 -0.7684176112914584 0.6399487281470002
12658638666.666666 -0.7623158686575573 0.6472051578848153 4.9696040304792314e-17 -7.727500887050244e-17 4.9696040304792314e-17 -7.727500887050244e-17 -0.7623162880193638 0.6472046639357696
12659256000.0 -0.7561460277581337 0.6544029222928566 4.894478668806026e-17 -7.773183788332275e-17 4.894478668806026e-17 -7.773183788332275e-17 -0.7561464517631141 0.6544024323655026
12659873333.333334 -0.7499082284256717 0.6615418724006091 4.8189343997457433e-17 -7.818137042385358e-17 4.8189343997457433e-17 -7.818137042385358e-17 -0.7499086570352684 0.6615413865385853
12660490666.666666 -0.7436030312809307 0.6686213665967053 4.742978303226011e-17 -7.862356818101508e-17 4.742978303226011e-17 -7.862356818101508e-17 -0.7436034644561748 0.6686208848432792
12661108000.0 -0.7372310030018953 0.6756407686135093 4.666617494108452e-17 -7.905839353008371e-17 4.666617494108452e-17 -7.905839353008371e-17 -0.7372314407034117 0.6756402910115755
12661725333.333334 -0.7307927162731161 0.6825994475840097 4.58985912152733e-17 -7.948580953584838e-17 4.58985912152733e-17 -7.948580953584838e-17 -0.7307931584611271 0.6825989741760856
12662342666.666666 -0.7242887497340272 0.6894967780987475 4.512710368218509e-17 -7.990577995574128e-17 4.512710368218509e-17 -7.990577995574128e-17 -0.7242891963683562 0.6894963089269702
12662960000.0 -0.717719687927058 0.6963321402619013 4.4351784498514764e-17 -8.031826924286997e-17 4.4351784498514764e-17 -8.031826924286997e-17 -0.7177201389671317 0.6963316753680217
12663577333.333334 -0.711086121244999 0.7031049197471014 4.357270614355027e-17 -8.072324254900626e-17 4.357270614355027e-17 -8.072324254900626e-17 -0.7110865766498522 0.7031044591724821
12664194666.666666 -0.704388645878056 0.7098145078525181 4.278994141241568e-17 -8.1120665727501e-17 4.278994141241568e-17 -8.1120665727501e-17 -0.7043891056063368 0.7098140516381309
12664812000.0 -0.6976278637601954 0.7164603015556559 4.200356340928856e-17 -8.151050533613499e-17 4.200356340928856e-17 -8.151050533613499e-17 -0.6976283277701656 0.7164598497420752
12665429333.333334 -0.6908043825150375 0.7230417035675422 4.1213645540577325e-17 -8.189272863991022e-17 4.1213645540577325e-17 -8.189272863991022e-17 -0.6908048507645791 0.7230412561949437
12666046666.666666 -0.6839188154013526 0.7295581223863146 4.0420261508111074e-17 -8.226730361375747e-17 4.0420261508111074e-17 -8.226730361375747e-17 -0.6839192878479713 0.7295576794944718
12666664000.0 -0.6769717812577409 0.7360089723505792 3.9623485302244295e-17 -8.263419894520726e-17 3.9623485302244295e-17 -8.263419894520726e-17 -0.6769722578585681 0.7360085339788577
12667281333.333334 -0.6699639044472159 0.7423936736918467 3.8823391195008175e-17 -8.299338403696106e-17 3.8823391195008175e-17 -8.299338403696106e-17 -0.6699643851590144 0.7423932398792024
12667898666.666666 -0.6628958148010112 0.7487116525867209 3.8020053733180033e-17 -8.334482900942372e-17 3.8020053733180033e-17 -8.334482900942372e-17 -0.6628962995801779 0.7487112233716958
12668516000.0 -0.6557681475618873 0.7549623412085442 3.7213547731356073e-17 -8.368850470315665e-17 3.7213547731356073e-17 -8.368850470315665e-17 -0.6557686363644591 0.7549619166292646
12669133333.333334 -0.6485815433272527 0.7611451777782429 3.6403948265012144e-17 -8.402438268126092e-17 3.6403948265012144e-17 -8.402438268126092e-17 -0.6485820361089093 0.7611447578724145
12669750666.666666 -0.6413366479913795 0.7672596066150073 3.559133066352163e-17 -8.435243523170182e-17 3.559133066352163e-17 -8.435243523170182e-17 -0.6413371447074456 0.7672591914199111
12670368000.0 -0.6340341126874338 0.7733050781861529 3.477577050316259e-17 -8.467263536956274e-17 3.477577050316259e-17 -8.467263536956274e-17 -0.6340346132928868 0.773304667738644
