! Parameters = {f0=12700.012000; bw=77.238000; Q=6100.000000; N=10; m_0_1=1.151246; m_1_1=-1.496052; m_1_2=0.986058; m_2_2=-1.496701; m_2_3=0.623021; m_2_8=-0.005374; m_2_9=0.031330; m_3_3=-1.498638; m_3_4=0.511550; m_3_7=-0.004774; m_3_8=-0.101862; m_3_9=-0.005374; m_4_4=-1.501563; m_4_5=0.347885; m_4_6=-0.001257; m_4_7=-0.122411; m_4_8=-0.004774; m_5_5=-1.501181; m_5_6=0.755240; m_5_7=-0.001257; m_6_6=-1.501182; m_6_7=0.348227; m_7_7=-1.501549; m_7_8=0.511668; m_8_8=-1.498640; m_8_9=0.623334; m_9_9=-1.496706; m_9_10=0.987136; m_10_10=-1.496062; m_10_11=1.152041}
!
! Created with skrf (http://scikit-rf.org).
# Hz S RI R 50.0 
!freq ReS11 ImS11 ReS21 ImS21 ReS12 ImS12 ReS22 ImS22
12607400000.0 -0.9681858491586154 -0.25023221512999827 6.091044925010032e-17 -2.138164412391766e-18 6.091044925010032e-17 -2.138164412391766e-18 -0.9681856973316681 -0.2502328025704174
12608017333.333334 -0.9699167278835967 -0.24343693427956214 6.088180221734559e-17 -2.5701260728560076e-18 6.088180221734559e-17 -2.5701260728560076e-18 -0.9699165801868757 -0.24343752274136018
12608634666.666666 -0.971599914073204 -0.23662968320309466 6.085009538565974e-17 -3.001788876689081e-18 6.085009538565974e-17 -3.001788876689081e-18 -0.9715997705135668 -0.2366302726572373
12609252000.0 -0.9732353249622229 -0.22981079662525136 6.081533155256828e-17 -3.433131175165303e-18 6.081533155256828e-17 -3.433131175165303e-18 -0.973235185546322 -0.22981138704265808
12609869333.333334 -0.9748228801346313 -0.2229806098428248 6.077751366858565e-17 -3.864131344197203e-18 6.077751366858565e-17 -3.864131344197203e-18 -0.9748227448689167 -0.222981201194371
12610486666.666666 -0.9763625015275362 -0.21613945870836973 6.07366448370072e-17 -4.294767785408496e-18 6.07366448370072e-17 -4.294767785408496e-18 -0.9763623704182535 -0.21614005096488773
12611104000.0 -0.9778541134350773 -0.20928767961338296 6.069272831369183e-17 -4.725018927224304e-18 6.069272831369183e-17 -4.725018927224304e-18 -0.9778539864882649 -0.20928827274566306
12611721333.333334 -0.9792976425120686 -0.20242560947212285 6.064576750683953e-17 -5.154863225933759e-18 6.064576750683953e-17 -5.154863225933759e-18 -0.979297519733561 -0.20242620345091536
12612338666.666666 -0.980693017777643 -0.1955535857048764 6.059576597675918e-17 -5.584279166774906e-18 6.059576597675918e-17 -5.584279166774906e-18 -0.9806928991730691 -0.19555418050089293
12612956000.0 -0.9820401706187787 -0.188671946221201 6.054272743562892e-17 -6.0132452650090675e-18 6.054272743562892e-17 -6.0132452650090675e-18 -0.9820400561935609 -0.1886725418051156
12613573333.333334 -0.983339034793594 -0.18178102940366997 6.048665574725172e-17 -6.441740066976145e-18 6.048665574725172e-17 -6.441740066976145e-18 -0.9833389245529498 -0.18178162574612114
12614190666.666666 -0.9845895464346718 -0.17488117409092796 6.04275549267991e-17 -6.869742151182283e-18 6.04275549267991e-17 -6.869742151182283e-18 -0.9845894403836125 -0.1748817711625197
12614808000.0 -0.9857916440521747 -0.16797271956114085 6.036542914055118e-17 -7.29723012935112e-18 6.036542914055118e-17 -7.29723012935112e-18 -0.9857915421955038 -0.167973317332444
12615425333.333334 -0.9869452685368524 -0.16105600551539634 6.030028270562634e-17 -7.724182647500446e-18 6.030028270562634e-17 -7.724182647500446e-18 -0.9869451708791674 -0.16105660395695043
12616042666.666666 -0.9880503631629821 -0.15413137206083333 6.023212008970542e-17 -8.15057838699785e-18 6.023212008970542e-17 -8.15057838699785e-18 -0.988050269708674 -0.15413197114314772
12616660000.0 -0.9891068735911335 -0.14719915969402916 6.016094591074735e-17 -8.576396065622677e-18 6.016094591074735e-17 -8.576396065622677e-18 -0.9891067843443865 -0.1471997593875847
12617277333.333334 -0.9901147478708552 -0.14025970928420162 6.008676493669757e-17 -9.001614438625839e-18 6.008676493669757e-17 -9.001614438625839e-18 -0.9901146628356446 -0.1402603095594518
12617894666.666666 -0.9910739364432064 -0.13331336205655941 6.000958208519002e-17 -9.426212299778698e-18 6.000958208519002e-17 -9.426212299778698e-18 -0.9910738556233017 -0.1333139628839322
12618512000.0 -0.9919843921432268 -0.1263604595753272 5.992940242323864e-17 -9.850168482438372e-18 5.992940242323864e-17 -9.850168482438372e-18 -0.9919843155421898 -0.12636106092522634
12619129333.333334 -0.9928460702022244 -0.11940134372717541 5.984623116692638e-17 -1.0273461860585155e-17 5.984623116692638e-17 -1.0273461860585155e-17 -0.9928459978234078 -0.11940194556998164
12619746666.666666 -0.9936589282499971 -0.11243635670423983 5.976007368108182e-17 -1.0696071349881206e-17 5.976007368108182e-17 -1.0696071349881206e-17 -0.9936588600965468 -0.11243695901031273
12620364000.0 -0.9944229263169188 -0.10546584098726706 5.967093547895032e-17 -1.111797590871823e-17 5.967093547895032e-17 -1.111797590871823e-17 -0.9944228623917724 -0.10546644372694627
12620981333.333334 -0.9951380268358806 -0.09849013932900022 5.95788222218614e-17 -1.1539154539245749e-17 5.95788222218614e-17 -1.1539154539245749e-17 -0.9951379671417678 -0.098490742472607
12621598666.666666 -0.9958041946441568 -0.09150959473715564 5.948373971888143e-17 -1.1959586288430502e-17 5.948373971888143e-17 -1.1959586288430502e-17 -0.9958041391835982 -0.09151019825499423
12622216000.0 -0.996421396985135 -0.08452455045752826 5.938569392646641e-17 -1.2379250249079426e-17 5.938569392646641e-17 -1.2379250249079426e-17 -0.996421345760444 -0.08452515431988751
12622833333.333334 -0.9969896035099236 -0.07753534995717017 5.928469094810146e-17 -1.2798125560888648e-17 5.928469094810146e-17 -1.2798125560888648e-17 -0.9969895565232041 -0.0775359541343248
12623450666.666666 -0.9975087862788338 -0.07054233690758668 5.91807370339386e-17 -1.32161914114627e-17 5.91807370339386e-17 -1.32161914114627e-17 -0.9975087435319815 -0.0705429413697989
12624068000.0 -0.9979789197627702 -0.06354585516766742 5.907383858042205e-17 -1.3633427037354454e-17 5.907383858042205e-17 -1.3633427037354454e-17 -0.9979788812574721 -0.06354645988518828
12624685333.333334 -0.9983999808444766 -0.056546248766863115 5.896400212990834e-17 -1.4049811725093802e-17 5.896400212990834e-17 -1.4049811725093802e-17 -0.9983999465822113 -0.056546853709934085
12625302666.666666 -0.9987719488196691 -0.04954386188838273 5.885123437028334e-17 -1.4465324812196724e-17 5.885123437028334e-17 -1.4465324812196724e-17 -0.9987719188017065 -0.049544467027237075
12625920000.0 -0.9990948053980703 -0.04253903885195704 5.873554213456358e-17 -1.4879945688204748e-17 5.873554213456358e-17 -1.4879945688204748e-17 -0.9990947796254699 -0.042539644156821266
12626537333.333334 -0.9993685347042855 -0.035532124097276754 5.861693240049881e-17 -1.5293653795689742e-17 5.861693240049881e-17 -1.5293653795689742e-17 -0.9993685131779008 -0.0355327295383722
12627154666.666666 -0.999593123278601 -0.028523462166885734 5.849541229016296e-17 -1.570642863127232e-17 5.849541229016296e-17 -1.570642863127232e-17 -0.9995931059990751 -0.028524067714429936
12627772000.0 -0.9997685600776453 -0.021513397689068646 5.837098906953533e-17 -1.6118249746645242e-17 5.837098906953533e-17 -1.6118249746645242e-17 -0.9997685470454108 -0.021514003313276735
12628389333.333334 -0.9998948364749174 -0.014502275361274112 5.8243670148085e-17 -1.6529096749559107e-17 5.8243670148085e-17 -1.6529096749559107e-17 -0.999894827690201 -0.014502881032360459
12629006666.666666 -0.9999719462612273 -0.007490439932853088 5.811346307833367e-17 -1.693894930485426e-17 5.811346307833367e-17 -1.693894930485426e-17 -0.9999719417240459 -0.0074910456210326385
12629624000.0 -0.9999998856449955 -0.0004782361882488293 5.798037555542636e-17 -1.734778713543828e-17 5.798037555542636e-17 -1.734778713543828e-17 -0.9999998853551558 -0.0004788418637385956
12630241333.333334 -0.9999786532524345 0.006533991070013606 5.78444154166822e-17 -1.7755590023304757e-17 5.78444154166822e-17 -1.7755590023304757e-17 -0.9999786572095363 0.0065333854369930685
12630858666.666666 -0.9999082501276235 0.01354589703816818 5.77055906411488e-17 -1.8162337810512397e-17 5.77055906411488e-17 -1.8162337810512397e-17 -0.9999082583310569 0.01354529147739132
12631476000.0 -0.9997886797324542 0.02055713692836148 5.756390934913863e-17 -1.8568010400196847e-17 5.756390934913863e-17 -1.8568010400196847e-17 -0.9997886921814004 0.02055653146959628
12632093333.333334 -0.9996199479464596 0.027567365985407575 5.741937980177146e-17 -1.897258775753811e-17 5.741937980177146e-17 -1.897258775753811e-17 -0.9996199646398911 0.027566760658414083
12632710666.666666 -0.9994020630665271 0.03457623950379708 5.72720104005e-17 -1.9376049910755592e-17 5.72720104005e-17 -1.9376049910755592e-17 -0.9994020840032092 0.034575634338326
12633328000.0 -0.9991350358064879 0.04158341284481753 5.712180968662825e-17 -1.9778376952099438e-17 5.712180968662825e-17 -1.9778376952099438e-17 -0.9991350609849757 0.04158280787060866
12633945333.333334 -0.9988188792965917 0.04858854145327241 5.696878634083362e-17 -2.0179549038807392e-17 5.696878634083362e-17 -2.0179549038807392e-17 -0.9988189087152319 0.04858793670005323
12634562666.666666 -0.9984536090828623 0.055591280874452025 5.681294918266918e-17 -2.057954639409711e-17 5.681294918266918e-17 -2.057954639409711e-17 -0.9984536427397949 0.055590676371936314
12635180000.0 -0.9980392431263301 0.06259128677121305 5.665430717006756e-17 -2.0978349308128618e-17 5.665430717006756e-17 -2.0978349308128618e-17 -0.9980392810194865 0.06259068254909936
12635797333.333334 -0.9975758018021514 0.06958821494082502 5.649286939883436e-17 -2.137593813897448e-17 5.649286939883436e-17 -2.137593813897448e-17 -0.9975758439292525 0.06958761102879504
12636414666.666666 -0.9970633078986072 0.07658172133180996 5.632864510213851e-17 -2.1772293313576494e-17 5.632864510213851e-17 -2.1772293313576494e-17 -0.9970633542571691 0.07658111775952746
12637032000.0 -0.9965017866159784 0.08357146206103064 5.616164364998958e-17 -2.216739532871456e-17 5.616164364998958e-17 -2.216739532871456e-17 -0.996501837203308 0.08357085885813965
12637649333.333334 -0.9958912655653095 0.09055709343051459 5.5991874548714e-17 -2.2561224751957213e-17 5.5991874548714e-17 -2.2561224751957213e-17 -0.9958913203785051 0.09055649062663808
12638266666.666666 -0.9952317747670545 0.09753827194426917 5.581934744042481e-17 -2.295376222260835e-17 5.581934744042481e-17 -2.295376222260835e-17 -0.9952318338030104 0.09753766956900783
12638884000.0 -0.9945233466495949 0.10451465432534258 5.564407210247889e-17 -2.3344988452664146e-17 5.564407210247889e-17 -2.3344988452664146e-17 -0.9945234099049939 0.10451405240827279
12639501333.333334 -0.9937660160476421 0.11148589753261737 5.546605844693332e-17 -2.373488422775176e-17 5.546605844693332e-17 -2.373488422775176e-17 -0.9937660835189625 0.11148529610329028
12640118666.666666 -0.9929598202005446 0.11845165877756611 5.528531651999615e-17 -2.4123430408062326e-17 5.528531651999615e-17 -2.4123430408062326e-17 -0.9929598918840571 0.11845105786550604
12640736000.0 -0.99210479875042 0.1254115955414175 5.510185650146003e-17 -2.4510607929303437e-17 5.510185650146003e-17 -2.4510607929303437e-17 -0.9921048746421873 0.1254109951761203
12641353333.333334 -0.9912009937402447 0.1323653655916313 5.4915688704147226e-17 -2.4896397803608367e-17 5.4915688704147226e-17 -2.4896397803608367e-17 -0.9912010738361253 0.1323647658025632
12641970666.666666 -0.9902484496117703 0.1393126269989246 5.472682357332917e-17 -2.5280781120481528e-17 5.472682357332917e-17 -2.5280781120481528e-17 -0.9902485339074143 0.13931202781552043
12642588000.0 -0.9892472132033263 0.14625303815411253 5.4535271686154984e-17 -2.5663739047707048e-17 5.4535271686154984e-17 -2.5663739047707048e-17 -0.9892473016941792 0.14625243960577472
12643205333.333334 -0.9881973337475354 0.153186257784822 5.434104375106296e-17 -2.6045252832276503e-17 5.434104375106296e-17 -2.6045252832276503e-17 -0.9881974264288362 0.15318565990091876
12643822666.666666 -0.9870988628688835 0.1601119449723004 5.4144150607189143e-17 -2.642530380130257e-17 5.4144150607189143e-17 -2.642530380130257e-17 -0.9870989597356662 0.16011134778216446
12644440000.0 -0.9859518545811794 0.16702975916820734 5.39446032237735e-17 -2.6803873362922586e-17 5.39446032237735e-17 -2.6803873362922586e-17 -0.9859519556282716 0.16702916270113427
12645057333.333334 -0.9847563652849103 0.1739393602112755 5.3742412699555643e-17 -2.7180943007205134e-17 5.3742412699555643e-17 -2.7180943007205134e-17 -0.9847564705069363 0.1739387644965228
12645674666.666666 -0.983512453764469 0.18084040834406614 5.353759026216425e-17 -2.7556494307052234e-17 5.353759026216425e-17 -2.7556494307052234e-17 -0.983512563155847 0.18083981341085112
12646292000.0 -0.9822201811852237 0.1877325642298704 5.3330147267498483e-17 -2.793050891909988e-17 5.3330147267498483e-17 -2.793050891909988e-17 -0.9822202947401673 0.1877319701073692
12646909333.333334 -0.980879611090577 0.19461548896903172 5.3120095199111465e-17 -2.830296858459903e-17 5.3120095199111465e-17 -2.830296858459903e-17 -0.9808797288030963 0.1946148956863778
12647526666.666666 -0.9794908093987855 0.20148884411591766 5.2907445667576996e-17 -2.867385513031166e-17 5.2907445667576996e-17 -2.867385513031166e-17 -0.9794909312626869 0.2014882517022004
12648144000.0 -0.9780538443997452 0.2083522916954225 5.2692210409854756e-17 -2.904315046939281e-17 5.2692210409854756e-17 -2.904315046939281e-17 -0.9780539704086322 0.20835170017968585
12648761333.333334 -0.9765687867516228 0.21520549421964175 5.247440128865298e-17 -2.941083660226232e-17 5.247440128865298e-17 -2.941083660226232e-17 -0.9765689168988937 0.21520490363088227
12649378666.666666 -0.9750357094774006 0.22204811470435495 5.2254030291780864e-17 -2.9776895617479116e-17 5.2254030291780864e-17 -2.9776895617479116e-17 -0.9750358437562531 0.2220475250715212
12649996000.0 -0.9734546879612566 0.22887981668576393 5.203110953149474e-17 -3.014130969261068e-17 5.203110953149474e-17 -3.014130969261068e-17 -0.9734548263646843 0.22887922803775432
12650613333.333334 -0.97182579994487 0.23570026423695267 5.180565124383678e-17 -3.050406109510083e-17 5.180565124383678e-17 -3.050406109510083e-17 -0.9718259424656657 0.23569967660261473
12651230666.666666 -0.9701491255236219 0.24250912198432342 5.1577667787977044e-17 -3.0865132183116224e-17 5.1577667787977044e-17 -3.0865132183116224e-17 -0.9701492721543755 0.24250853539245162
12651848000.0 -0.9684247471426153 0.249306055124253 5.134717164553295e-17 -3.1224505406415975e-17 5.134717164553295e-17 -3.1224505406415975e-17 -0.968424897875716 0.24930546960358801
12652465333.333334 -0.9666527495926421 0.25609072943947286 5.1114175419900436e-17 -3.158216330718686e-17 5.1114175419900436e-17 -3.158216330718686e-17 -0.9666529044202773 0.25609014501869964
12653082666.666666 -0.9648332200060328 0.26286281131542033 5.087869183557092e-17 -3.19380885208886e-17 5.087869183557092e-17 -3.19380885208886e-17 -0.964833378920191 0.2628622280231674
12653700000.0 -0.9629662478523335 0.26962196775680886 5.064073373743694e-17 -3.229226377710073e-17 5.064073373743694e-17 -3.229226377710073e-17 -0.9629664108448018 0.26962138562164595
12654317333.333334 -0.9610519249339247 0.27636786640391875 5.040031409010576e-17 -3.264467190034476e-17 5.040031409010576e-17 -3.264467190034476e-17 -0.9610520919962905 0.27636728545435624
12654934666.666666 -0.9590903453815378 0.28310017554883066 5.0157445977193584e-17 -3.299529581092095e-17 5.0157445977193584e-17 -3.299529581092095e-17 -0.9590905165051903 0.2830995958133179
12655552000.0 -0.9570816056495436 0.2898185641520371 4.991214260061889e-17 -3.334411852573289e-17 4.991214260061889e-17 -3.334411852573289e-17 -0.9570817808256714 0.28981798565896055
12656169333.333334 -0.9550258045113165 0.29652270185833746 4.966441727989985e-17 -3.369112315909283e-17 4.966441727989985e-17 -3.369112315909283e-17 -0.9550259837309123 0.2965221246360205
12656786666.666666 -0.9529230430542861 0.3032122590134107 4.9414283451426585e-17 -3.40362929235499e-17 4.9414283451426585e-17 -3.40362929235499e-17 -0.9529232263081421 0.30321168309011065
12657404000.0 -0.950773424675035 0.30988690667977836 4.916175466774727e-17 -3.4379611130684905e-17 4.916175466774727e-17 -3.4379611130684905e-17 -0.9507736119537474 0.3098863320836863
12658021333.333334 -0.948577055074151 0.3165463166531974 4.890684459683227e-17 -3.472106119192383e-17 4.890684459683227e-17 -3.472106119192383e-17 -0.9485772463681197 0.31654574341243674
12658638666.666666 -0.9463340422511077 0.32319016147855484 4.864956702134922e-17 -3.506062661932214e-17 4.864956702134922e-17 -3.506062661932214e-17 -0.946334237550534 0.3231895896211789
12659256000.0 -0.9440444964988531 0.3298181144662658 4.838993583791294e-17 -3.5398291026371423e-17 4.838993583791294e-17 -3.5398291026371423e-17 -0.9440446957937437 0.32981754402025754
12659873333.333334 -0.9417085303984691 0.3364298497080946 4.812796505634959e-17 -3.573403812877301e-17 4.812796505634959e-17 -3.573403812877301e-17 -0.9417087336786353 0.3364292807013649
12660490666.666666 -0.9393262588136283 0.3430250420932084 4.786366879894597e-17 -3.6067851745220115e-17 4.786366879894597e-17 -3.6067851745220115e-17 -0.939326466068686 0.34302447455359447
12661108000.0 -0.9368977988848884 0.3496033673243236 4.759706129968764e-17 -3.639971579818092e-17 4.759706129968764e-17 -3.639971579818092e-17 -0.9368980101042594 0.34960280127958804
12661725333.333334 -0.9344232700240084 0.3561645019334382 4.7328156903506606e-17 -3.672961431465749e-17 4.7328156903506606e-17 -3.672961431465749e-17 -0.9344234851969203 0.3561639374112672
12662342666.666666 -0.9319027939080092 0.3627081232979241 4.705697006550786e-17 -3.7057531426959114e-17 4.705697006550786e-17 -3.7057531426959114e-17 -0.9319030130234967 0.3627075603259263
12662960000.0 -0.9293364944732294 0.36923390965628444 4.678351535020232e-17 -3.7383451373455374e-17 4.678351535020232e-17 -3.7383451373455374e-17 -0.9293367175201336 0.3692333482619895
12663577333.333334 -0.9267244979092113 0.3757415401240282 4.6507807430729277e-17 -3.770735849933026e-17 4.6507807430729277e-17 -3.770735849933026e-17 -0.9267247248761817 0.37574098033488573
12664194666.666666 -0.9240669326525373 0.3822306947093431 4.6229861088073574e-17 -3.8029237257330596e-17 4.6229861088073574e-17 -3.8029237257330596e-17 -0.9240671635280329 0.38223013655272137
12664812000.0 -0.921363929380453 0.3887010543289888 4.5949691210283164e-17 -3.8349072208502144e-17 4.5949691210283164e-17 -3.8349072208502144e-17 -0.9213641641527399 0.3887004978321727
12665429333.333334 -0.9186156210044701 0.39515230082390684 4.5667312791669587e-17 -3.866684802293445e-17 4.5667312791669587e-17 -3.866684802293445e-17 -0.9186158596616251 0.3951517460140971
12666046666.666666 -0.9158221426638671 0.4015841169747875 4.538274093202098e-17 -3.898254948047905e-17 4.538274093202098e-17 -3.898254948047905e-17 -0.9158223851937762 0.401583563879099
12666664000.0 -0.9129836317189639 0.40799618651785 4.5095990835786675e-17 -3.929616147148889e-17 4.5095990835786675e-17 -3.929616147148889e-17 -0.912983878109325 0.40799563516331133
12667281333.333334 -0.9101002277444591 0.4143881941601858 4.4807077811286125e-17 -3.960766899751867e-17 4.4807077811286125e-17 -3.960766899751867e-17 -0.9101004779827813 0.4143876445737371
12667898666.666666 -0.9071720725225003 0.42075982559541925 4.451601726988458e-17 -3.991705717205123e-17 4.451601726988458e-17 -3.991705717205123e-17 -0.9071723265961035 0.4207592778039107
12668516000.0 -0.9041993100356955 0.42711076751918575 4.422282472518091e-17 -4.022431122119872e-17 4.422282472518091e-17 -4.022431122119872e-17 -0.904199567931714 0.4271102215493771
12669133333.333334 -0.9011820864601436 0.4334407076443071 4.3927515792189717e-17 -4.0529416484399556e-17 4.3927515792189717e-17 -4.0529416484399556e-17 -0.901182348165524 0.4334401635228658
12669750666.666666 -0.8981205501581139 0.43974933471642985 4.363010618650792e-17 -4.083235841512019e-17 4.363010618650792e-17 -4.083235841512019e-17 -0.8981208156596168 0.43974879246992976
