! Parameters = {f0=12700.012000; bw=77.238000; Q=6100.000000; N=10; m_0_1=1.303799; m_1_1=0.792236; m_1_2=1.138611; m_2_2=0.791587; m_2_3=0.775574; m_2_8=0.002254; m_2_9=0.038958; m_3_3=0.789650; m_3_4=0.664103; m_3_7=0.002854; m_3_8=-0.094234; m_3_9=0.002254; m_4_4=0.786725; m_4_5=0.500438; m_4_6=0.006371; m_4_7=-0.114783; m_4_8=0.002854; m_5_5=0.787107; m_5_6=0.907793; m_5_7=0.006371; m_6_6=0.787106; m_6_7=0.500780; m_7_7=0.786739; m_7_8=0.664221; m_8_8=0.789648; m_8_9=0.775887; m_9_9=0.791582; m_9_10=1.139689; m_10_10=0.792226; m_10_11=1.304594}
!
! Created with skrf (http://scikit-rf.org).
# Hz S RI R 50.0 
!freq ReS11 ImS11 ReS21 ImS21 ReS12 ImS12 ReS22 ImS22
12607400000.0 0.6941802950606336 -0.7198011655654257 -5.965798348698184e-17 1.1479639776581286e-16 -5.965798348698184e-17 1.1479639776581286e-16 0.6941807894598695 -0.7198006887636925
12608017333.333334 0.685840758050279 -0.7277516434861783 -5.830969225903548e-17 1.154587094720948e-16 -5.830969225903548e-17 1.154587094720948e-16 0.6858412578858739 -0.7277511724355621
12608634666.666666 0.6774101702105213 -0.7356055065693613 -5.69540681534037e-17 1.1610519662290466e-16 -5.69540681534037e-17 1.1610519662290466e-16 0.6774106754155903 -0.7356050413318327
12609252000.0 0.6688896507692081 -0.7433617121520724 -5.559129676986202e-17 1.167357782732201e-16 -5.559129676986202e-17 1.167357782732201e-16 0.6688901612761584 -0.7433612527888227
12609869333.333334 0.6602803308933017 -0.7510192305362409 -5.422156459875478e-17 1.1735037565336478e-16 -5.422156459875478e-17 1.1735037565336478e-16 0.6602808466338432 -0.7510187771076758
12610486666.666666 0.6515833535388124 -0.7585770451252327 -5.2845058995569196e-17 1.1794891217874648e-16 -5.2845058995569196e-17 1.1794891217874648e-16 0.6515838744439683 -0.7585765976909654
12611104000.0 0.6427998732988315 -0.7660341525590235 -5.146196815526624e-17 1.185313134593597e-16 -5.146196815526624e-17 1.185313134593597e-16 0.6428003992989447 -0.7660337111778645
12611721333.333334 0.6339310562505449 -0.7733895628471347 -5.007248108667548e-17 1.1909750730891312e-16 -5.007248108667548e-17 1.1909750730891312e-16 0.6339315872752901 -0.773389127577086
12612338666.666666 0.6249780798002399 -0.780642299500238 -4.8676787586656385e-17 1.1964742375371672e-16 -4.8676787586656385e-17 1.1964742375371672e-16 0.62497861577863 -0.7806418703984828
12612956000.0 0.6159421325268987 -0.7877913996598535 -4.727507821421707e-17 1.2018099504124274e-16 -4.727507821421707e-17 1.2018099504124274e-16 0.6159426733872972 -0.7877909767827529
12613573333.333334 0.6068244140247405 -0.7948359142259147 -4.5867544264567897e-17 1.2069815564837413e-16 -4.5867544264567897e-17 1.2069815564837413e-16 0.6068249596948695 -0.7948354976289963
12614190666.666666 0.5976261347436547 -0.8017749079830153 -4.4454377743024774e-17 1.2119884228937334e-16 -4.4454377743024774e-17 1.2119884228937334e-16 0.597626685150606 -0.8017744977209698
12614808000.0 0.5883485158286393 -0.8086074597244646 -4.303577133886095e-17 1.216829939235333e-16 -4.303577133886095e-17 1.216829939235333e-16 0.588349070898881 -0.8086070558511336
12615425333.333334 0.578992788957658 -0.8153326623745962 -4.161191839909072e-17 1.2215055176251738e-16 -4.161191839909072e-17 1.2215055176251738e-16 0.5789933486170474 -0.8153322649429697
12616042666.666666 0.5695601961781279 -0.8219496231091944 -4.0183012902143916e-17 1.2260145927740525e-16 -4.0183012902143916e-17 1.2260145927740525e-16 0.5695607603519205 -0.8219492321714018
12616660000.0 0.5600519897420274 -0.8284574634740219 -3.874924943148282e-17 1.230356622054249e-16 -3.874924943148282e-17 1.230356622054249e-16 0.5600525583548864 -0.828457079081325
12617277333.333334 0.5504694319396255 -0.8348553195014579 -3.731082314914075e-17 1.2345310855637862e-16 -3.731082314914075e-17 1.2345310855637862e-16 0.5504700049156322 -0.834854941704245
12617894666.666666 0.5408137949320446 -0.8411423418251011 -3.5867929769217886e-17 1.2385374861875373e-16 -3.5867929769217886e-17 1.2385374861875373e-16 0.5408143721947093 -0.8411419706728802
12618512000.0 0.5310863605819923 -0.8473176957927813 -3.442076553123552e-17 1.2423753496554556e-16 -3.442076553123552e-17 1.2423753496554556e-16 0.531086942054263 -0.8473173313341741
12619129333.333334 0.5212884202841783 -0.8533805615769793 -3.2969527173574486e-17 1.2460442245973002e-16 -3.2969527173574486e-17 1.2460442245973002e-16 0.5212890058884516 -0.8533802038597124
12619746666.666666 0.5114212747932984 -0.8593301342840315 -3.1514411906683816e-17 1.2495436825947331e-16 -3.1514411906683816e-17 1.2495436825947331e-16 0.5114218644514306 -0.8593297833549336
12620364000.0 0.5014862340516111 -0.8651656240608195 -3.005561738635985e-17 1.2528733182299595e-16 -3.005561738635985e-17 1.2528733182299595e-16 0.5014868276849272 -0.8651652799658124
12620981333.333334 0.49148461701513113 -0.8708862561995707 -2.859334168695135e-17 1.2560327491313316e-16 -2.859334168695135e-17 1.2560327491313316e-16 0.49148521454443705 -0.8708859189836654
12621598666.666666 0.4814177514783089 -0.87649127124084 -2.712778327447234e-17 1.2590216160159377e-16 -2.712778327447234e-17 1.2590216160159377e-16 0.48141835282390044 -0.8764909409481295
12622216000.0 0.47128697389787544 -0.8819799250742598 -2.5659140979722382e-17 1.2618395827289366e-16 -2.5659140979722382e-17 1.2618395827289366e-16 0.47128757897955 -0.8819796017479138
12622833333.333334 0.46109362921537 -0.8873514890373562 -2.4187613971343523e-17 1.2644863362798305e-16 -2.4187613971343523e-17 1.2644863362798305e-16 0.46109423795243654 -0.8873511727196154
12623450666.666666 0.45083907067868634 -0.8926052500122289 -2.2713401728863564e-17 1.266961586875547e-16 -2.2713401728863564e-17 1.266961586875547e-16 0.45083968298997634 -0.892604940744399
12624068000.0 0.44052465966231935 -0.8977405105202791 -2.1236704015679352e-17 1.2692650679504506e-16 -2.1236704015679352e-17 1.2692650679504506e-16 0.4405252754661987 -0.8977402083427277
12624685333.333334 0.4301517654864789 -0.9027565888148805 -1.9757720852008654e-17 1.2713965361931998e-16 -1.9757720852008654e-17 1.2713965361931998e-16 0.43015238470085676 -0.9027562937670278
12625302666.666666 0.4197217652358356 -0.9076528189716209 -1.82766524878939e-17 1.2733557715703542e-16 -1.82766524878939e-17 1.2733557715703542e-16 0.41972238777817666 -0.9076525310919373
12625920000.0 0.40923604357596005 -0.9124285509770662 -1.6793699376058877e-17 1.2751425773470123e-16 -1.6793699376058877e-17 1.2751425773470123e-16 0.40923666936329633 -0.9124282703030692
12626537333.333334 0.39869599257014166 -0.9170831508147574 -1.530906214487212e-17 1.276756780104155e-16 -1.530906214487212e-17 1.276756780104155e-16 0.3986966215190812 -0.9170828773830013
12627154666.666666 0.3881030114942963 -0.9216160005495094 -1.3822941571220721e-17 1.2781982297529104e-16 -1.3822941571220721e-17 1.2781982297529104e-16 0.38810364352103577 -0.9216157343955841
12627772000.0 0.37745850665106956 -0.9260264984095 -1.2335538553374864e-17 1.2794667995456811e-16 -1.2335538553374864e-17 1.2794667995456811e-16 0.37745914167140576 -0.9260262395680263
12628389333.333334 0.3667638911835068 -0.9303140588660085 -1.0847054083923056e-17 1.2805623860840513e-16 -1.0847054083923056e-17 1.2805623860840513e-16 0.36676452911284757 -0.9303138073706344
12629006666.666666 0.35602058488705307 -0.9344781127113123 -9.357689222581341e-18 1.2814849093236404e-16 -9.357689222581341e-18 1.2814849093236404e-16 0.35602122564042754 -0.9344778685947047
12629624000.0 0.3452300140213517 -0.9385181071341306 -7.867645069135308e-18 1.2822343125757175e-16 -7.867645069135308e-18 1.2822343125757175e-16 0.34523065751342324 -0.9385178704279763
12630241333.333334 0.33439361112074084 -0.942433505793085 -6.377122736288853e-18 1.2828105625057278e-16 -6.377122736288853e-18 1.2828105625057278e-16 0.334394257265817 -0.9424332765280822
12630858666.666666 0.3235128148042588 -0.94622378888783 -4.886323322583855e-18 1.283213649128653e-16 -4.886323322583855e-18 1.283213649128653e-16 0.3235134635163035 -0.946223567093686
12631476000.0 0.3125890695842533 -0.9498884532282019 -3.395447885266593e-18 1.2834435858012303e-16 -3.395447885266593e-18 1.2834435858012303e-16 0.3125897207768983 -0.949888238933631
12632093333.333334 0.3016238256750949 -0.9534270123008557 -1.904697413257973e-18 1.2835004092110232e-16 -1.904697413257973e-18 1.2835004092110232e-16 0.3016244792616508 -0.9534268055335723
12632710666.666666 0.29061853880051597 -0.9568389963339016 -4.142728000778077e-19 1.2833841793623625e-16 -4.142728000778077e-19 1.2833841793623625e-16 0.29061919469398473 -0.9568387971206197
12633328000.0 0.27957466999997294 -0.9601239523593925 1.0756251832220345e-18 1.2830949795591462e-16 1.0756251832220345e-18 1.2830949795591462e-16 0.27957532811305785 -0.9601237607258192
12633945333.333334 0.26849368543519464 -0.9632814442732928 2.5647959150098637e-18 1.282632916384502e-16 2.5647959150098637e-18 1.282632916384502e-16 0.26849434568031366 -0.9632812602441276
12634562666.666666 0.25737705619526857 -0.9663110528934628 4.053038950083276e-18 1.2819981196773358e-16 4.053038950083276e-18 1.2819981196773358e-16 0.2573777184845645 -0.9663108764923919
12635180000.0 0.2462262581013944 -0.9692123760152883 5.54015404660381e-18 1.2811907425057378e-16 5.54015404660381e-18 1.2811907425057378e-16 0.24622692234674773 -0.9692122072649842
12635797333.333334 0.23504277151093078 -0.971985028465086 7.025941193004619e-18 1.2802109611372818e-16 7.025941193004619e-18 1.2802109611372818e-16 0.23504343762397104 -0.9719848673872039
12636414666.666666 0.22382808112097644 -0.9746286421512128 8.510200634838405e-18 1.2790589750062142e-16 8.510200634838405e-18 1.2790589750062142e-16 0.22382874901309333 -0.9746284887663851
12637032000.0 0.21258367577109796 -0.9771428661129672 9.992732901616613e-18 1.277735006677513e-16 9.992732901616613e-18 1.277735006677513e-16 0.2125843453534542 -0.9771427204408051
12637649333.333334 0.20131104824581378 -0.9795273665671551 1.1473338833559832e-17 1.2762393018078693e-16 1.1473338833559832e-17 1.2762393018078693e-16 0.20131171942935633 -0.9795272286262442
12638266666.666666 0.19001169507627652 -0.981781826952432 1.2951819608332271e-17 1.274572129103549e-16 1.2951819608332271e-17 1.274572129103549e-16 0.19001236777174818 -0.9817816967603279
12638884000.0 0.17868711634176201 -0.9839059479712889 1.442797676768034e-17 1.2727337802751957e-16 1.442797676768034e-17 1.2727337802751957e-16 0.17868779045971386 -0.9839058255445182
12639501333.333334 0.16733881547038382 -0.9858994476298194 1.5901612244051728e-17 1.2707245699895163e-16 1.5901612244051728e-17 1.2707245699895163e-16 0.1673394909211868 -0.9858993329838762
12640118666.666666 0.15596829903969692 -0.9877620612751226 1.737252838710443e-17 1.2685448358179524e-16 1.737252838710443e-17 1.2685448358179524e-16 0.15596897573355364 -0.987761954424466
12640736000.0 0.1445770765762382 -0.9894935416305071 1.8840527990253638e-17 1.2661949381821277e-16 1.8840527990253638e-17 1.2661949381821277e-16 0.14457775442319518 -0.9894934425885608
12641353333.333334 0.13316666035579874 -0.9910936588282153 2.0305414316950577e-17 1.2636752602965409e-16 2.0305414316950577e-17 1.2636752602965409e-16 0.1331673392657582 -0.9910935676073644
12641970666.666666 0.12173856520206766 -0.992562200440031 2.176699112712157e-17 1.2609862081078524e-16 2.176699112712157e-17 1.2609862081078524e-16 0.1217392450847995 -0.992562117051622
12642588000.0 0.11029430828580784 -0.9938989715054396 2.3225062703360874e-17 1.2581282102313928e-16 2.3225062703360874e-17 1.2581282102313928e-16 0.11029498905096159 -0.9938988959597771
12643205333.333334 0.09883540892343959 -0.9951037945575082 2.4679433877121855e-17 1.255101717884512e-16 2.4679433877121855e-17 1.255101717884512e-16 0.09883609048055651 -0.9951037268638555
12643822666.666666 0.08736338837511343 -0.9961765096464751 2.6129910054795326e-17 1.2519072048169635e-16 2.6129910054795326e-17 1.2519072048169635e-16 0.08736407063363845 -0.9961764498130516
12644440000.0 0.07587976964306141 -0.9971169743609475 2.7576297243703887e-17 1.2485451672382725e-16 2.7576297243703887e-17 1.2485451672382725e-16 0.07588045251235524 -0.9971169223949291
12645057333.333334 0.06438607726926524 -0.9979250638468254 2.901840207800868e-17 1.2450161237420997e-16 2.901840207800868e-17 1.2450161237420997e-16 0.06438676065861632 -0.9979250197543427
12645674666.666666 0.05288383713308962 -0.9986006708238764 3.045603184452165e-17 1.2413206152276207e-16 3.045603184452165e-17 1.2413206152276207e-16 0.05288452095172622 -0.9986006346100136
12646292000.0 0.04137457624851082 -0.999143705599986 3.188899450844424e-17 1.237459204817862e-16 3.188899450844424e-17 1.237459204817862e-16 0.041375260405613075 -0.9991436772687813
12646909333.333334 0.02985982256176227 -0.999554096083046 3.3317098738930916e-17 1.2334324777752692e-16 3.3317098738930916e-17 1.2334324777752692e-16 0.0298605069664743 -0.9995540756374917
12647526666.666666 0.018341104748203857 -0.9998317877905416 3.474015393464623e-17 1.2292410414140668e-16 3.474015393464623e-17 1.2292410414140668e-16 0.01834178930964572 -0.9998317752325816
12648144000.0 0.006819952009434654 -0.9999767438567783 3.615797024913975e-17 1.2248855250098732e-16 3.615797024913975e-17 1.2248855250098732e-16 0.006820636636714501 -0.99997673918731
12648761333.333334 -0.004702106129749176 -0.999988945037774 3.757035861613415e-17 1.2203665797063318e-16 3.757035861613415e-17 1.2203665797063318e-16 -0.004701421527523061 -0.9999889482566474
12649378666.666666 -0.0162235400240983 -0.9998683897138166 3.897713077469484e-17 1.215684878418844e-16 3.897713077469484e-17 1.215684878418844e-16 -0.016222855537805454 -0.9998684008198353
12649996000.0 -0.02774282011152289 -0.9996150938896803 4.0378099294301926e-17 1.2108411157353376e-16 4.0378099294301926e-17 1.2108411157353376e-16 -0.027742135832018563 -0.9996151128805991
12650613333.333334 -0.03925841711575619 -0.9992290911924954 4.1773077599772637e-17 1.2058360078142332e-16 4.1773077599772637e-17 1.2058360078142332e-16 -0.03925773313385933 -0.999229118065024
12651230666.666666 -0.05076880224940671 -0.9987104328672934 4.3161879996052567e-17 1.2006702922795918e-16 4.3161879996052567e-17 1.2006702922795918e-16 -0.05076811865588788 -0.9987104676170951
12651848000.0 -0.06227244741717246 -0.9980591877701898 4.4544321692943e-17 1.195344728113158e-16 4.4544321692943e-17 1.195344728113158e-16 -0.06227176430274184 -0.9980592303918836
12652465333.333334 -0.07376782541845225 -0.9972754423592555 4.592021882959802e-17 1.189860095543937e-16 4.592021882959802e-17 1.189860095543937e-16 -0.07376714287374757 -0.9972754928464149
12653082666.666666 -0.08525341015009386 -0.9963593006830397 4.7289388498951783e-17 1.1842171959347177e-16 4.7289388498951783e-17 1.1842171959347177e-16 -0.0852527282656683 -0.9963593590281946
12653700000.0 -0.09672767680927981 -0.9953108843667364 4.8651648772024e-17 1.1784168516657138e-16 4.8651648772024e-17 1.1784168516657138e-16 -0.09672699567559025 -0.9953109505613759
12654317333.333334 -0.10818910209556062 -0.9941303325960699 5.000681872200717e-17 1.1724599060157353e-16 5.000681872200717e-17 1.1724599060157353e-16 -0.10818842180295525 -0.9941304066306399
12654934666.666666 -0.1196361644133398 -0.9928178020987941 5.1354718448286384e-17 1.1663472230402742e-16 5.1354718448286384e-17 1.1663472230402742e-16 -0.11963548505204642 -0.9928178839627018
12655552000.0 -0.13106734407399045 -0.991373467123871 5.2695169100297875e-17 1.160079687446886e-16 5.2695169100297875e-17 1.160079687446886e-16 -0.1310666657341046 -0.9913735568054859
12656169333.333334 -0.14248112349718312 -0.989797519418389 5.4027992901154017e-17 1.1536582044682085e-16 5.4027992901154017e-17 1.1536582044682085e-16 -0.1424804462686556 -0.9897976169050419
12656786666.666666 -0.1538759874127509 -0.9880901682020555 5.535301317126021e-17 1.1470836997316166e-16 5.535301317126021e-17 1.1470836997316166e-16 -0.1538753113853765 -0.9880902734800441
12657404000.0 -0.16525042306168525 -0.986251640139447 5.667005435164219e-17 1.1403571191267672e-16 5.667005435164219e-17 1.1403571191267672e-16 -0.16524974832509054 -0.986251753194036
12658021333.333334 -0.17660292039702247 -0.9842821793099059 5.797894202718936e-17 1.133479428670128e-16 5.797894202718936e-17 1.133479428670128e-16 -0.17660224704065378 -0.9842823001253286
12658638666.666666 -0.18793197228417488 -0.9821820471751643 5.927950294969266e-17 1.1264516143670526e-16 5.927950294969266e-17 1.1264516143670526e-16 -0.1879313003972865 -0.9821821757346242
12659256000.0 -0.19923607470129392 -0.9799515225445773 6.05715650607672e-17 1.1192746820709403e-16 6.05715650607672e-17 1.1192746820709403e-16 -0.1992354043729369 -0.9799516588302546
12659873333.333334 -0.2105137269386907 -0.9775909015381627 6.185495751454502e-17 1.1119496573401053e-16 6.185495751454502e-17 1.1119496573401053e-16 -0.2105130582576999 -0.9775910455312107
12660490666.666666 -0.22176343179803854 -0.9751004975472899 6.312951070022184e-17 1.1044775852919164e-16 6.312951070022184e-17 1.1044775852919164e-16 -0.22176276485302177 -0.9751006492278419
12661108000.0 -0.23298369579155526 -0.9724806411929876 6.439505626447481e-17 1.0968595304540792e-16 6.439505626447481e-17 1.0968595304540792e-16 -0.2329830306708812 -0.9724808005401582
12661725333.333334 -0.24417302933958185 -0.9697316802822044 6.565142713359617e-17 1.0890965766139799e-16 6.565142713359617e-17 1.0890965766139799e-16 -0.24417236613136842 -0.9697318472740926
12662342666.666666 -0.2553299469690291 -0.9668539797614781 6.689845753555476e-17 1.0811898266648534e-16 6.689845753555476e-17 1.0811898266648534e-16 -0.2553292857611317 -0.9668541543751702
12662960000.0 -0.2664529675101425 -0.963847921668588 6.813598302180862e-17 1.0731404024498265e-16 6.813598302180862e-17 1.0731404024498265e-16 -0.26645230839014233 -0.9638481038801602
12663577333.333334 -0.2775406142933051 -0.9607139050817939 6.936384048895194e-17 1.0649494446033321e-16 6.936384048895194e-17 1.0649494446033321e-16 -0.27753995734849835 -0.9607140948663184
12664194666.666666 -0.2885914153450512 -0.9574523460668711 7.058186820016976e-17 1.0566181123900801e-16 7.058186820016976e-17 1.0566181123900801e-16 -0.28859076066243583 -0.957452543398414
12664812000.0 -0.2996039035834805 -0.9540636776218643 7.178990580649691e-17 1.0481475835415967e-16 7.178990580649691e-17 1.0481475835415967e-16 -0.299603251249746 -0.9540638824734942
12665429333.333334 -0.31057661701305245 -0.9505483496195983 7.298779436789951e-17 1.0395390540902152e-16 7.298779436789951e-17 1.0395390540902152e-16 -0.3105759671145685 -0.9505485619633884
12666046666.666666 -0.3215080989185444 -0.9469068287480028 7.417537637411124e-17 1.030793738201003e-16 7.417537637411124e-17 1.030793738201003e-16 -0.32150745154134824 -0.9469070485550328
12666664000.0 -0.3323968980587361 -0.9431395984480488 7.535249576534494e-17 1.0219128680007549e-16 7.535249576534494e-17 1.0219128680007549e-16 -0.33239625328852235 -0.9431398256884118
12667281333.333334 -0.3432415688586985 -0.9392471588497009 7.651899795271367e-17 1.0128976934052849e-16 7.651899795271367e-17 1.0128976934052849e-16 -0.3432409267808074 -0.9392473934925066
12667898666.666666 -0.3540406716019478 -0.93523002670544 7.76747298385178e-17 1.0037494819438402e-16 7.76747298385178e-17 1.0037494819438402e-16 -0.3540400323013538 -0.9352302687188173
12668516000.0 -0.36479277262168347 -0.9310887353216132 7.881953983629412e-17 9.944695185814284e-17 7.881953983629412e-17 9.944695185814284e-17 -0.3647921361829842 -0.931088984672717
12669133333.333334 -0.37549644449072056 -0.9268238344877857 7.99532778906256e-17 9.850591055390903e-17 7.99532778906256e-17 9.850591055390903e-17 -0.3754958109981253 -0.9268240911427992
12669750666.666666 -0.38615026621136533 -0.9224358904036138 8.107579549680497e-17 9.755195621113811e-17 8.107579549680497e-17 9.755195621113811e-17 -0.38614963574868383 -0.922436154327753
12670368000.0 -0.39675282340392837 -0.917925485603721 8.218694572021369e-17 9.658522244821571e-17 8.218694572021369e-17 9.658522244821571e-17 -0.3967521960545606 -0.9179257567612421
