! Parameters = {f0=12700.012000; bw=77.238000; Q=6100.000000; N=10; m_0_1=1.285380; m_1_1=0.515960; m_1_2=1.120192; m_2_2=0.515311; m_2_3=0.757155; m_2_8=0.001333; m_2_9=0.038037; m_3_3=0.513374; m_3_4=0.645684; m_3_7=0.001933; m_3_8=-0.095155; m_3_9=0.001333; m_4_4=0.510449; m_4_5=0.482019; m_4_6=0.005450; m_4_7=-0.115704; m_4_8=0.001933; m_5_5=0.510831; m_5_6=0.889374; m_5_7=0.005450; m_6_6=0.510830; m_6_7=0.482361; m_7_7=0.510463; m_7_8=0.645802; m_8_8=0.513372; m_8_9=0.757468; m_9_9=0.515306; m_9_10=1.121270; m_10_10=0.515950; m_10_11=1.286175}
!
! Created with skrf (http://scikit-rf.org).
# Hz S RI R 50.0 
!freq ReS11 ImS11 ReS21 ImS21 ReS12 ImS12 ReS22 ImS22
12607400000.0 -0.6224311883766607 -0.7826745273329383 9.735618996736453e-17 6.818069480853714e-17 9.735618996736453e-17 6.818069480853714e-17 -0.6224306583599573 -0.7826749488347057
12608017333.333334 -0.6309854247076853 -0.7757946853428952 9.808551155649578e-17 6.708602779062771e-17 9.808551155649578e-17 6.708602779062771e-17 -0.6309848993756367 -0.7757951126165569
12608634666.666666 -0.6394636227593762 -0.7688213545208499 9.88025353112214e-17 6.598357362031705e-17 9.88025353112214e-17 6.598357362031705e-17 -0.639463102174827 -0.7688217875143536
12609252000.0 -0.6478647608479853 -0.7617553752033532 9.950717824954126e-17 6.487347034021995e-17 9.950717824954126e-17 6.487347034021995e-17 -0.6478642450732022 -0.761755813863963
12609869333.333334 -0.6561878265761548 -0.7545975988916748 1.0019935893771996e-16 6.375585687535955e-17 1.0019935893771996e-16 6.375585687535955e-17 -0.656187315672818 -0.7545980431659762
12610486666.666666 -0.6644318169545711 -0.7473488881494829 1.0087899749963989e-16 6.263087301583024e-17 1.0087899749963989e-16 6.263087301583024e-17 -0.6644313109837674 -0.7473493379833901
12611104000.0 -0.6725957385233667 -0.7400101164984336 1.0154601562598809e-16 6.14986593993156e-17 1.0154601562598809e-16 6.14986593993156e-17 -0.6725952375455849 -0.7400105718371982
12611721333.333334 -0.6806786074713126 -0.7325821683133796 1.0220033658320435e-16 6.035935749358169e-17 1.0220033658320435e-16 6.035935749358169e-17 -0.6806781115464315 -0.7325826291015933
12612338666.666666 -0.6886794497546864 -0.7250659387155084 1.0284188522227265e-16 5.921310957880894e-17 1.0284188522227265e-16 5.921310957880894e-17 -0.6886789589419708 -0.7250664048971115
12612956000.0 -0.6965973012146311 -0.7174623334644908 1.0347058798730633e-16 5.806005872984588e-17 1.0347058798730633e-16 5.806005872984588e-17 -0.6965968155727243 -0.7174628049827804
12613573333.333334 -0.7044312076931571 -0.7097722688495088 1.0408637292390319e-16 5.690034879842808e-17 1.0408637292390319e-16 5.690034879842808e-17 -0.7044307272800736 -0.709772745647144
12614190666.666666 -0.7121802251483337 -0.7019966715786403 1.0468916968734993e-16 5.573412439522454e-17 1.0468916968734993e-16 5.573412439522454e-17 -0.7121797500214518 -0.7019971535976492
12614808000.0 -0.7198434197679251 -0.6941364786672994 1.052789095505928e-16 5.456153087185608e-17 1.052789095505928e-16 5.456153087185608e-17 -0.7198429499839817 -0.6941369658490879
12615425333.333334 -0.727419868082028 -0.6861926373252235 1.0585552541201891e-16 5.3382714302810244e-17 1.0585552541201891e-16 5.3382714302810244e-17 -0.7274194036971091 -0.6861931296105799
12616042666.666666 -0.7349086570742294 -0.678166104842443 1.0641895180303222e-16 5.2197821467280206e-17 1.0641895180303222e-16 5.2197821467280206e-17 -0.7349081981437666 -0.6781666021715476
12616660000.0 -0.7423088842917202 -0.6700578484738474 1.0696912489543476e-16 5.1006999830910056e-17 1.0696912489543476e-16 5.1006999830910056e-17 -0.7423084308704802 -0.6700583507862768
12617277333.333334 -0.7496196579540366 -0.6618688453226159 1.075059825085897e-16 4.981039752748962e-17 1.075059825085897e-16 4.981039752748962e-17 -0.749619210096119 -0.6618693525573537
12617894666.666666 -0.7568400970604398 -0.6536000822225806 1.0802946411638751e-16 4.860816334056356e-17 1.0802946411638751e-16 4.860816334056356e-17 -0.7568396548192672 -0.6536005943180224
12618512000.0 -0.7639693314962844 -0.6452525556190692 1.0853951085402074e-16 4.7400446684933545e-17 1.0853951085402074e-16 4.7400446684933545e-17 -0.7639688949245984 -0.6452530725130317
12619129333.333334 -0.7710065021376149 -0.6368272714491268 1.0903606552452078e-16 4.6187397588164745e-17 1.0903606552452078e-16 4.6187397588164745e-17 -0.771006071287468 -0.6368277930788538
12619746666.666666 -0.7779507609548633 -0.6283252450201006 1.0951907260511862e-16 4.4969166671953375e-17 1.0951907260511862e-16 4.4969166671953375e-17 -0.7779503358776136 -0.628325771322272
12620364000.0 -0.784801271115111 -0.6197475008871968 1.0998847825339138e-16 4.374590513344427e-17 1.0998847825339138e-16 4.374590513344427e-17 -0.7848008518614165 -0.6197480317979353
12620981333.333334 -0.791557207082667 -0.6110950727303468 1.1044423031317645e-16 4.2517764726544406e-17 1.1044423031317645e-16 4.2517764726544406e-17 -0.7915567937024786 -0.6110956081852263
12621598666.666666 -0.7982177547187995 -0.6023690032293312 1.1088627832031385e-16 4.128489774308528e-17 1.1088627832031385e-16 4.128489774308528e-17 -0.7982173472613554 -0.6023695431633842
12622216000.0 -0.8047821113797399 -0.593570343938263 1.1131457350815427e-16 4.0047456993989345e-17 1.1131457350815427e-16 4.0047456993989345e-17 -0.80478170989356 -0.5935708882859887
12622833333.333334 -0.8112494860134399 -0.5847001551588218 1.117290688128665e-16 3.8805595790354996e-17 1.117290688128665e-16 3.8805595790354996e-17 -0.8112490905463196 -0.5847007038541935
12623450666.666666 -0.8176190992548324 -0.5757595058125714 1.1212971887852816e-16 3.755946792450693e-17 1.1212971887852816e-16 3.755946792450693e-17 -0.8176187098538376 -0.5757600587890459
12624068000.0 -0.8238901835198373 -0.5667494733120348 1.1251648006201445e-16 3.630922765096966e-17 1.1251648006201445e-16 3.630922765096966e-17 -0.8238898002312979 -0.5667500305025588
12624685333.333334 -0.8300619830978712 -0.5576711434308306 1.1288931043767447e-16 3.505502966738819e-17 1.1288931043767447e-16 3.505502966738819e-17 -0.8300616059673764 -0.5576717047678499
12625302666.666666 -0.8361337542427411 -0.5485256101730883 1.1324816980177622e-16 3.379702909546973e-17 1.1324816980177622e-16 3.379702909546973e-17 -0.8361333833151336 -0.5485261755885559
12625920000.0 -0.8421047652625753 -0.5393139756411679 1.1359301967677308e-16 3.253538146176837e-17 1.1359301967677308e-16 3.253538146176837e-17 -0.8421044005819459 -0.5393145450665515
12626537333.333334 -0.8479742966076937 -0.5300373499032937 1.1392382331532414e-16 3.12702426785371e-17 1.1392382331532414e-16 3.12702426785371e-17 -0.8479739382173758 -0.5300379232695844
12627154666.666666 -0.8537416409574051 -0.5206968508596702 1.1424054570412194e-16 3.000176902447262e-17 1.1424054570412194e-16 3.000176902447262e-17 -0.8537412888999698 -0.5206974280973914
12627772000.0 -0.8594061033054642 -0.5112936041074024 1.1454315356750458e-16 2.873011712542226e-17 1.1454315356750458e-16 2.873011712542226e-17 -0.8594057576227164 -0.5112941851466183
12628389333.333334 -0.8649670010434709 -0.5018287428054359 1.148316153708381e-16 2.7455443935124828e-17 1.148316153708381e-16 2.7455443935124828e-17 -0.864966661776442 -0.501829327575758
12629006666.666666 -0.8704236640434203 -0.4923034075375137 1.1510590132371006e-16 2.61779067158076e-17 1.1510590132371006e-16 2.61779067158076e-17 -0.8704233312323656 -0.49230399596811236
12629624000.0 -0.8757754347382857 -0.48271874617502397 1.1536598338288136e-16 2.489766301887088e-17 1.1536598338288136e-16 2.489766301887088e-17 -0.8757751084226784 -0.4827193381946345
12630241333.333334 -0.8810216682013454 -0.473075913738524 1.1561183525504332e-16 2.3614870665456412e-17 1.1561183525504332e-16 2.3614870665456412e-17 -0.8810213484198713 -0.47307650927545625
12630858666.666666 -0.8861617322238053 -0.463376072258727 1.1584343239934783e-16 2.2329687727046185e-17 1.1584343239934783e-16 2.2329687727046185e-17 -0.8861614190143609 -0.4633766712408746
12631476000.0 -0.8911950073911868 -0.4536203906360939 1.1606075202973245e-16 2.1042272505978773e-17 1.1606075202973245e-16 2.1042272505978773e-17 -0.8911947007908719 -0.45362099299094205
12632093333.333334 -0.8961208871577283 -0.44381004450042255 1.1626377311701614e-16 1.975278351602426e-17 1.1626377311701614e-16 1.975278351602426e-17 -0.8961205872028415 -0.44381065015505655
12632710666.666666 -0.9009387779195497 -0.4339462160690529 1.1645247639078993e-16 1.846137946288154e-17 1.1645247639078993e-16 1.846137946288154e-17 -0.9009384846455875 -0.4339468249501686
12633328000.0 -0.9056480990863617 -0.42403009400404484 1.166268443410926e-16 1.7168219224646354e-17 1.166268443410926e-16 1.7168219224646354e-17 -0.9056478125280113 -0.4240307060379559
12633945333.333334 -0.9102482831511919 -0.41406287326941915 1.1678686121985833e-16 1.5873461832345353e-17 1.1678686121985833e-16 1.5873461832345353e-17 -0.9102480033423272 -0.4140634883820666
12634562666.666666 -0.9147387757588967 -0.40404575498690043 1.169325130421604e-16 1.4577266450379643e-17 1.169325130421604e-16 1.4577266450379643e-17 -0.9147385027325757 -0.4040463731038614
12635180000.0 -0.9191190357729424 -0.3939799462912247 1.1706378758723303e-16 1.3279792356995995e-17 1.1706378758723303e-16 1.3279792356995995e-17 -0.9191187695614026 -0.39398056733772197
12635797333.333334 -0.9233885353406261 -0.38386666018464527 1.171806743992781e-16 1.1981198924741851e-17 1.171806743992781e-16 1.1981198924741851e-17 -0.9233882759752795 -0.38386728408555526
12636414666.666666 -0.9275467599566407 -0.373707115390861 1.172831647880542e-16 1.0681645600933088e-17 1.172831647880542e-16 1.0681645600933088e-17 -0.9275465074680734 -0.37370774207072444
12637032000.0 -0.9315932085251345 -0.36350253620802175 1.1737125182925183e-16 9.381291888090203e-18 1.1737125182925183e-16 9.381291888090203e-18 -0.9315929629431002 -0.36350316559105156
12637649333.333334 -0.9355273934200943 -0.35325415236119045 1.174449303646511e-16 8.080297324392154e-18 1.174449303646511e-16 8.080297324392154e-18 -0.9355271547735106 -0.3532547843712807
12638266666.666666 -0.939348840544053 -0.34296319885428367 1.1750419700206148e-16 6.778821464150041e-18 1.1750419700206148e-16 6.778821464150041e-18 -0.9393486088609991 -0.3429638334150198
12638884000.0 -0.9430570893852659 -0.3326309158211403 1.175490501150483e-16 5.477023858256519e-18 1.175490501150483e-16 5.477023858256519e-18 -0.94305686469298 -0.33263155285580753
12639501333.333334 -0.9466516930732047 -0.32225854837607537 1.175794898424415e-16 4.175064034656531e-18 1.175794898424415e-16 4.175064034656531e-18 -0.94665147539808 -0.32225918780766877
12640118666.666666 -0.9501322184323528 -0.3118473464639967 1.1759551808762912e-16 2.8731014788519466e-18 1.1759551808762912e-16 2.8731014788519466e-18 -0.9501320077999337 -0.31184798821522974
12640736000.0 -0.9534982460345512 -0.30139856470934623 1.175971385176353e-16 1.5712956143253527e-18 1.175971385176353e-16 1.5712956143253527e-18 -0.9534980424695318 -0.3013992087026607
12641353333.333334 -0.956749370249328 -0.2909134622655563 1.1758435656198183e-16 2.6980578316298136e-19 1.1758435656198183e-16 2.6980578316298136e-19 -0.9567491737755484 -0.2909141084231313
12641970666.666666 -0.9598851992929667 -0.2803933026627459 1.1755717941133545e-16 -1.0312087735187943e-18 1.1755717941133545e-16 -1.0312087735187943e-18 -0.9598850099334082 -0.2803939509065068
12642588000.0 -0.9629053552756184 -0.2698393536557521 1.1751561601593963e-16 -2.331588934989892e-18 1.1751561601593963e-16 -2.331588934989892e-18 -0.9629051730524057 -0.26984000390738144
12643205333.333334 -0.9658094742468908 -0.2592528870712236 1.174596770838318e-16 -3.631175720324056e-18 1.174596770838318e-16 -3.631175720324056e-18 -0.9658092991812843 -0.2592535392521688
12643822666.666666 -0.9685972062396788 -0.24863517865440726 1.1738937507884577e-16 -4.9298103078317725e-18 1.1738937507884577e-16 -4.9298103078317725e-18 -0.9685970383520761 -0.24863583268589146
12644440000.0 -0.9712682153123406 -0.23798750791544193 1.1730472421840057e-16 -6.227334054419356e-18 1.1730472421840057e-16 -6.227334054419356e-18 -0.9712680546222702 -0.23798816371847253
12645057333.333334 -0.9738221795891736 -0.22731115797516657 1.172057404710756e-16 -7.52358851494199e-18 1.172057404710756e-16 -7.52358851494199e-18 -0.9738220261152979 -0.22731181547054594
12645674666.666666 -0.9762587912992154 -0.2166074154104979 1.1709244155397254e-16 -8.818415461518365e-18 1.1709244155397254e-16 -8.818415461518365e-18 -0.9762586450593225 -0.21660807451883146
12646292000.0 -0.9785777568133627 -0.20587757009919114 1.1696484692986037e-16 -1.0111656902850995e-17 1.1696484692986037e-16 -1.0111656902850995e-17 -0.9785776178243695 -0.20587823074089825
12646909333.333334 -0.9807787966796842 -0.19512291506476365 1.168229778041169e-16 -1.1403155103410348e-17 1.168229778041169e-16 -1.1403155103410348e-17 -0.9807786649576304 -0.19512357716008633
12647526666.666666 -0.9828616456571483 -0.1843447463204253 1.166668571214486e-16 -1.269275260268989e-17 1.166668571214486e-16 -1.269275260268989e-17 -0.9828615212171978 -0.18434540978943834
12648144000.0 -0.9848260527476019 -0.17354436271281592 1.1649650956240326e-16 -1.3980292234366705e-17 1.1649650956240326e-16 -1.3980292234366705e-17 -0.9848259356040391 -0.17354502747543632
12648761333.333334 -0.9866717812259612 -0.16272306576576342 1.1631196153967234e-16 -1.526561714541206e-17 1.1631196153967234e-16 -1.526561714541206e-17 -0.9866716713921891 -0.16272373174176014
12649378666.666666 -0.9883986086687653 -0.15188215952333045 1.1611324119418246e-16 -1.6548570815169506e-17 1.1611324119418246e-16 -1.6548570815169506e-17 -0.9883985061573055 -0.15188282663233396
12649996000.0 -0.9900063269809948 -0.14102295039255439 1.1590037839097358e-16 -1.782899707439794e-17 1.1590037839097358e-16 -1.782899707439794e-17 -0.9900062318034861 -0.14102361855406678
12650613333.333334 -0.9914947424211367 -0.13014674698610085 1.1567340471486984e-16 -1.910674012425435e-17 1.1567340471486984e-16 -1.910674012425435e-17 -0.9914946545883327 -0.1301474161195051
12651230666.666666 -0.9928636756245165 -0.11925485996467886 1.1543235346594734e-16 -2.0381644555187612e-17 1.1543235346594734e-16 -2.0381644555187612e-17 -0.9928635951462839 -0.11925552998924861
12651848000.0 -0.9941129616249487 -0.10834860187881487 1.151772596547805e-16 -2.165355536585621e-17 1.151772596547805e-16 -2.165355536585621e-17 -0.9941128885102672 -0.10834927271372431
12652465333.333334 -0.9952424498745825 -0.09742928701093467 1.1490815999749452e-16 -2.2922317981909704e-17 1.1490815999749452e-16 -2.2922317981909704e-17 -0.9952423841315451 -0.09742995857526833
12653082666.666666 -0.9962520042620485 -0.08649823121701194 1.1462509291060597e-16 -2.4187778274743652e-17 1.1462509291060597e-16 -2.4187778274743652e-17 -0.9962519458978573 -0.0864989034297742
12653700000.0 -0.997141503128894 -0.07555675176760153 1.143280985056494e-16 -2.544978258022496e-17 1.143280985056494e-16 -2.544978258022496e-17 -0.9971414521498617 -0.0755574245477266
12654317333.333334 -0.9979108392841924 -0.06460616718966512 1.1401721858361652e-16 -2.6708177717271875e-17 1.1401721858361652e-16 -2.6708177717271875e-17 -0.9979107956957425 -0.06460684045602684
12654934666.666666 -0.9985599200175003 -0.05364779710728322 1.136924966291704e-16 -2.796281100646188e-17 1.136924966291704e-16 -2.796281100646188e-17 -0.9985598838241636 -0.05364847077870465
12655552000.0 -0.9990886671100176 -0.042682962082658565 1.133539778046687e-16 -2.9213530288505683e-17 1.133539778046687e-16 -2.9213530288505683e-17 -0.9990886383154342 -0.042683636077921895
12656169333.333334 -0.9994970168440036 -0.031712983457234646 1.1300170894398622e-16 -3.0460183942654184e-17 1.1300170894398622e-16 -3.0460183942654184e-17 -0.9994969954509216 -0.03171365769509099
12656786666.666666 -0.9997849200104699 -0.020739183192180693 1.1263573854612158e-16 -3.170262090507706e-17 1.1263573854612158e-16 -3.170262090507706e-17 -0.9997849060207454 -0.020739857591359847
12657404000.0 -0.9999523419151042 -0.0097628837092278 1.1225611676861566e-16 -3.294069068712123e-17 1.1225611676861566e-16 -3.294069068712123e-17 -0.9999523353297003 -0.009763558188448039
12658021333.333334 -0.9999992623824484 0.001214592268749271 1.1186289542076216e-16 -3.417424339351395e-17 1.1186289542076216e-16 -3.417424339351395e-17 -0.9999992632014377 0.0012139177907713702
12658638666.666666 -0.9999256757583369 0.012191921876959081 1.1145612795662824e-16 -3.5403129740461135e-17 1.1145612795662824e-16 -3.5403129740461135e-17 -0.9999256839808972 0.012191247481498873
12659256000.0 -0.9997315909105701 0.02316778226850616 1.1103586946785458e-16 -3.662720107372682e-17 1.1103586946785458e-16 -3.662720107372682e-17 -0.9997316065349893 0.02316710803682113
12659873333.333334 -0.99941703122785 0.03414085077337719 1.1060217667628859e-16 -3.784630938653687e-17 1.1060217667628859e-16 -3.784630938653687e-17 -0.9994170542515242 0.0341401767866972
12660490666.666666 -0.9989820346169669 0.04510980505794612 1.1015510792640133e-16 -3.9060307337456745e-17 1.1015510792640133e-16 -3.9060307337456745e-17 -0.9989820650363984 0.0451091313974635
12661108000.0 -0.998426653498214 0.05607332328458021 1.0969472317750254e-16 -4.026904826819607e-17 1.0969472317750254e-16 -4.026904826819607e-17 -0.9984266913090176 0.05607265003144016
12661725333.333334 -0.9977509547990949 0.06703008427053364 1.0922108399578717e-16 -4.147238622125092e-17 1.0922108399578717e-16 -4.147238622125092e-17 -0.9977509999959929 0.06702941150582432
12662342666.666666 -0.9969550199462371 0.07797876764747169 1.0873425354616095e-16 -4.267017595752836e-17 1.0873425354616095e-16 -4.267017595752836e-17 -0.9969550725230633 0.07797809545221449
12662960000.0 -0.9960389448555904 0.08891805402044267 1.0823429658388579e-16 -4.386227297384176e-17 1.0823429658388579e-16 -4.386227297384176e-17 -0.9960390048052895 0.08891738247558247
12663577333.333334 -0.9950028399208689 0.0998466251268747 1.077212794460391e-16 -4.5048533520296886e-17 1.077212794460391e-16 -4.5048533520296886e-17 -0.9950029072354982 0.09984595431327012
12664194666.666666 -0.9938468300002341 0.1107631639955486 1.0719527004277193e-16 -4.622881461760716e-17 1.0719527004277193e-16 -4.622881461760716e-17 -0.9938469046709648 0.11076249399396235
12664812000.0 -0.9925710544012716 0.12166635510513343 1.0665633784838384e-16 -4.7402974074291946e-17 1.0665633784838384e-16 -4.7402974074291946e-17 -0.9925711364183873 0.12166568599622228
12665429333.333334 -0.9911756668641792 0.13255488454285644 1.0610455389220731e-16 -4.8570870503778084e-17 1.0610455389220731e-16 -4.8570870503778084e-17 -0.991175756217082 0.132554216407162
12666046666.666666 -0.9896608355432701 0.14342744016267092 1.0553999074931526e-16 -4.973236334137521e-17 1.0553999074931526e-16 -4.973236334137521e-17 -0.9896609322204771 0.1434267730806095
12666664000.0 -0.9880267429866639 0.15428271174368843 1.0496272253101344e-16 -5.088731286120684e-17 1.0496272253101344e-16 -5.088731286120684e-17 -0.9880268469758113 0.15428204579554156
12667281333.333334 -0.9862735861143409 0.16511939114767574 1.0437282487519769e-16 -5.2035580192927124e-17 1.0437282487519769e-16 -5.2035580192927124e-17 -0.9862736974021857 0.16511872641358052
12667898666.666666 -0.9844015761943766 0.17593617247697663 1.037703749364805e-16 -5.317702733842854e-17 1.037703749364805e-16 -5.317702733842854e-17 -0.984401694766797 0.1759355090369161
12668516000.0 -0.9824109388174748 0.1867317522318809 1.0315545137615607e-16 -5.4311517188390907e-17 1.0315545137615607e-16 -5.4311517188390907e-17 -0.982411064659473 0.18673109016567446
12669133333.333334 -0.9803019138698369 0.19750482946742662 1.025281343519981e-16 -5.5438913538692124e-17 1.025281343519981e-16 -5.5438913538692124e-17 -0.9803020469655397 0.19750416885472
12669750666.666666 -0.9780747555041754 0.20825410595056307 1.0188850550784899e-16 -5.655908110675742e-17 1.0188850550784899e-16 -5.655908110675742e-17 -0.9780748958368388 0.20825344687081954
