! Parameters = {f0=12700.012000; bw=77.238000; Q=6100.000000; N=10; m_0_1=1.261757; m_1_1=0.161606; m_1_2=1.096569; m_2_2=0.160957; m_2_3=0.733532; m_2_8=0.000152; m_2_9=0.036856; m_3_3=0.159020; m_3_4=0.622061; m_3_7=0.000752; m_3_8=-0.096336; m_3_9=0.000152; m_4_4=0.156095; m_4_5=0.458396; m_4_6=0.004269; m_4_7=-0.116885; m_4_8=0.000752; m_5_5=0.156477; m_5_6=0.865751; m_5_7=0.004269; m_6_6=0.156476; m_6_7=0.458738; m_7_7=0.156109; m_7_8=0.622179; m_8_8=0.159018; m_8_9=0.733845; m_9_9=0.160952; m_9_10=1.097647; m_10_10=0.161596; m_10_11=1.262552}
!
! Created with skrf (http://scikit-rf.org).
# Hz S RI R 50.0 
!freq ReS11 ImS11 ReS21 ImS21 ReS12 ImS12 ReS22 ImS22
12607400000.0 0.8591906625187453 -0.5116555535127366 -7.216822345053314e-17 7.81419039390397e-17 -7.216822345053314e-17 7.81419039390397e-17 0.8591910026587041 -0.5116549823368838
12608017333.333334 0.8538859252107361 -0.5204602066698572 -7.134021475295885e-17 7.887047809870379e-17 -7.134021475295885e-17 7.887047809870379e-17 0.8538862711869432 -0.5204596390482975
12608634666.666666 0.8484909644769921 -0.5292098668777153 -7.050486117767332e-17 7.959028827873128e-17 -7.050486117767332e-17 7.959028827873128e-17 0.848491316252321 -0.5292093028700736
12609252000.0 0.8430063503607426 -0.5379036096284227 -6.96622553865369e-17 8.030126054492494e-17 -6.96622553865369e-17 8.030126054492494e-17 0.8430067078974581 -0.5379030492939367
12609869333.333334 0.8374326623781692 -0.5465405163224748 -6.881249078446695e-17 8.100332194178455e-17 -6.881249078446695e-17 8.100332194178455e-17 0.8374330256379311 -0.5465399597199884
12610486666.666666 0.8317704894572975 -0.5551196743656212 -6.795566150910912e-17 8.169640049996483e-17 -6.795566150910912e-17 8.169640049996483e-17 0.8317708584011648 -0.5551191215535777
12611104000.0 0.8260204298755077 -0.5636401772656983 -6.709186242041908e-17 8.238042524363457e-17 -6.709186242041908e-17 8.238042524363457e-17 0.8260208044639417 -0.5636396283021348
12611721333.333334 0.8201830911965965 -0.5721011247279814 -6.622118909021589e-17 8.305532619769082e-17 -6.622118909021589e-17 8.305532619769082e-17 0.8201834713894673 -0.5721005796705235
12612338666.666666 0.8142590902064124 -0.5805016227505756 -6.534373779162082e-17 8.37210343948971e-17 -6.534373779162082e-17 8.37210343948971e-17 0.814259475963001 -0.5805010816564296
12612956000.0 0.8082490528476618 -0.5888407837188961 -6.445960548842424e-17 8.437748188290962e-17 -6.445960548842424e-17 8.437748188290962e-17 0.808249444126666 -0.5888402466448445
12613573333.333334 0.8021536141539876 -0.5971177264991565 -6.356888982442837e-17 8.502460173115725e-17 -6.356888982442837e-17 8.502460173115725e-17 0.8021540109135257 -0.5971171935015519
12614190666.666666 0.7959734181826053 -0.605331576531842 -6.267168911266073e-17 8.566232803765428e-17 -6.267168911266073e-17 8.566232803765428e-17 0.7959738203802199 -0.6053310476665997
12614808000.0 0.7897091179463815 -0.6134814659239298 -6.176810232457125e-17 8.629059593566283e-17 -6.176810232457125e-17 8.629059593566283e-17 0.7897095255390459 -0.6134809412465242
12615425333.333334 0.7833613753448725 -0.6215665335405502 -6.08582290791233e-17 8.690934160026901e-17 -6.08582290791233e-17 8.690934160026901e-17 0.7833617882889934 -0.621566013106007
12616042666.666666 0.7769308610942807 -0.6295859250961101 -5.994216963184666e-17 8.75185022548259e-17 -5.994216963184666e-17 8.75185022548259e-17 0.7769312793457043 -0.6295854089590018
12616660000.0 0.7704182546566573 -0.6375387932444699 -5.902002486381425e-17 8.811801617728997e-17 -5.902002486381425e-17 8.811801617728997e-17 0.7704186781706728 -0.6375382814589095
12617277333.333334 0.763824244168053 -0.6454242976685406 -5.8091896270553e-17 8.870782270644296e-17 -5.8091896270553e-17 8.870782270644296e-17 0.7638246728993976 -0.6454237902881753
12617894666.666666 0.7571495263659711 -0.6532416051688772 -5.715788595092122e-17 8.928786224797982e-17 -5.715788595092122e-17 8.928786224797982e-17 0.7571499602688369 -0.6532411022468848
12618512000.0 0.7503948065154424 -0.6609898897520883 -5.621809659585945e-17 8.985807628052176e-17 -5.621809659585945e-17 8.985807628052176e-17 0.7503952455434778 -0.6609893913411695
12619129333.333334 0.7435607983348308 -0.6686683327177195 -5.527263147717115e-17 9.041840736145513e-17 -5.527263147717115e-17 9.041840736145513e-17 0.7435612424411483 -0.6686678388700941
12619746666.666666 0.7366482239202022 -0.6762761227450206 -5.4321594436168826e-17 9.096879913270032e-17 -5.4321594436168826e-17 9.096879913270032e-17 0.7366486730573815 -0.6762756335124199
12620364000.0 0.729657813669097 -0.6838124559785813 -5.336508987230404e-17 9.150919632633573e-17 -5.336508987230404e-17 9.150919632633573e-17 0.7296582677891923 -0.6838119714122453
12620981333.333334 0.7225903062034167 -0.6912765361132105 -5.2403222731740356e-17 9.203954477010586e-17 -5.2403222731740356e-17 9.203954477010586e-17 0.7225907652579588 -0.6912760562638801
12621598666.666666 0.7154464482912599 -0.6986675744781976 -5.143609849584749e-17 9.25597913928213e-17 -5.143609849584749e-17 9.25597913928213e-17 0.7154469122312644 -0.6986670993961109
12622216000.0 0.708226994768077 -0.7059847901205828 -5.04638231696667e-17 9.306988422962591e-17 -5.04638231696667e-17 9.306988422962591e-17 0.7082274635440479 -0.70598431985547
12622833333.333334 0.7009327084569531 -0.7132274098876363 -4.9486503270321496e-17 9.356977242714423e-17 -4.9486503270321496e-17 9.356977242714423e-17 0.7009331820188868 -0.7132269444887118
12623450666.666666 0.6935643600879647 -0.7203946685085879 -4.850424581536764e-17 9.405940624851368e-17 -4.850424581536764e-17 9.405940624851368e-17 0.6935648383853587 -0.7203942080245492
12624068000.0 0.6861227282167252 -0.7274858086755117 -4.751715831109621e-17 9.453873707829295e-17 -4.751715831109621e-17 9.453873707829295e-17 0.6861232111985811 -0.7274853531545317
12624685333.333334 0.6786085991420574 -0.7345000811234002 -4.6525348740783486e-17 9.500771742725058e-17 -4.6525348740783486e-17 9.500771742725058e-17 0.6786090867568856 -0.7344996306131214
12625302666.666666 0.6710227668231978 -0.7414367447090584 -4.552892555294e-17 9.546630093700828e-17 -4.552892555294e-17 9.546630093700828e-17 0.6710232590190268 -0.7414362992565916
12625920000.0 0.6633660327954767 -0.7482950664898285 -4.4527997649419706e-17 9.591444238460714e-17 -4.4527997649419706e-17 9.591444238460714e-17 0.6633665295198533 -0.7482946261417434
12626537333.333334 0.6556392060859713 -0.755074321800698 -4.3522674373590745e-17 9.635209768689927e-17 -4.3522674373590745e-17 9.635209768689927e-17 0.6556397072859708 -0.7550738866030215
12627154666.666666 0.6478431031279691 -0.7617737943309351 -4.2513065498395426e-17 9.677922390484729e-17 -4.2513065498395426e-17 9.677922390484729e-17 0.6478436087501989 -0.7617733643291457
12627772000.0 0.6399785476744414 -0.7683927761999981 -4.149928121436865e-17 9.719577924769898e-17 -4.149928121436865e-17 9.719577924769898e-17 0.6399790576650456 -0.7683923514390194
12628389333.333334 0.6320463707113888 -0.7749305680319938 -4.048143211768481e-17 9.760172307700671e-17 -4.048143211768481e-17 9.760172307700671e-17 0.6320468850160575 -0.7749301485561936
12629006666.666666 0.6240474103696728 -0.781386479029892 -3.9459629198058416e-17 9.799701591056798e-17 -3.9459629198058416e-17 9.799701591056798e-17 0.6240479289336439 -0.781386064883074
12629624000.0 0.6159825118367814 -0.7877598270482411 -3.843398382670653e-17 9.838161942619791e-17 -3.843398382670653e-17 9.838161942619791e-17 0.615983034604849 -0.7877594182736419
12630241333.333334 0.6078525272672646 -0.7940499386654634 -3.740460774421133e-17 9.875549646540243e-17 -3.740460774421133e-17 9.875549646540243e-17 0.6078530541837828 -0.794049535305747
12630858666.666666 0.5996583156929112 -0.800256149254829 -3.6371613048397784e-17 9.911861103690467e-17 -3.6371613048397784e-17 9.911861103690467e-17 0.5996588467018029 -0.8002557513520848
12631476000.0 0.5914007429316938 -0.8063778030549125 -3.5335112182102044e-17 9.947092832007358e-17 -3.5335112182102044e-17 9.947092832007358e-17 0.5914012779764537 -0.8063774106506477
12632093333.333334 0.5830806814966664 -0.8124142532385857 -3.429521792100326e-17 9.981241466819022e-17 -3.429521792100326e-17 9.981241466819022e-17 0.5830812205203689 -0.8124138663737236
12632710666.666666 0.5746990105035035 -0.8183648619815731 -3.325204336135668e-17 1.0014303761161104e-16 -3.325204336135668e-17 1.0014303761161104e-16 0.5746995534488084 -0.8183644806964472
12633328000.0 0.5662566155775837 -0.8242290005298565 -3.220570190769966e-17 1.004627658608018e-16 -3.220570190769966e-17 1.004627658608018e-16 0.5662571623867416 -0.8242286248642068
12633945333.333334 0.5577543887605753 -0.8300060492659946 -3.115630726058367e-17 1.0077156930922601e-16 -3.115630726058367e-17 1.0077156930922601e-16 0.5577549393754337 -0.8300056792589627
12634562666.666666 0.549193228416157 -0.8356953977746103 -3.010397340421085e-17 1.0106941903612773e-16 -3.010397340421085e-17 1.0106941903612773e-16 0.5491937827781689 -0.8356950334647388
12635180000.0 0.5405740391349837 -0.841296444906976 -2.9048814594090564e-17 1.0135628730917084e-16 -2.9048814594090564e-17 1.0135628730917084e-16 0.5405745971852101 -0.8412960863321991
12635797333.333334 0.5318977316391424 -0.8468085988444861 -2.79909453446485e-17 1.0163214758695605e-16 -2.79909453446485e-17 1.0163214758695605e-16 0.531898293318261 -0.8468082460421295
12636414666.666666 0.5231652226860996 -0.8522312771610947 -2.6930480416845082e-17 1.0189697452140201e-16 -2.6930480416845082e-17 1.0189697452140201e-16 0.5231657879344105 -0.8522309301678704
12637032000.0 0.5143774349715424 -0.8575639068850339 -2.5867534805713807e-17 1.0215074396001087e-16 -2.5867534805713807e-17 1.0215074396001087e-16 0.5143780037289748 -0.857563565737037
12637649333.333334 0.5055352970320782 -0.862805924559234 -2.4802223727937558e-17 1.0239343294799031e-16 -2.4802223727937558e-17 1.0239343294799031e-16 0.5055358692381958 -0.8628055892919377
12638266666.666666 0.4966397431470501 -0.8679567763009044 -2.3734662609374037e-17 1.026250197302542e-16 -2.3734662609374037e-17 1.026250197302542e-16 0.4966403187410586 -0.8679564469491579
12638884000.0 0.487691713239918 -0.8730159178600015 -2.2664967072583767e-17 1.0284548375328812e-16 -2.2664967072583767e-17 1.0284548375328812e-16 0.48769229216067034 -0.8730155944580245
12639501333.333334 0.47869215277877003 -0.877982814676832 -2.159325292431002e-17 1.0305480566689326e-16 -2.159325292431002e-17 1.0305480566689326e-16 0.47869273496477505 -0.8779824972582142
12640118666.666666 0.4696420126766741 -0.8828569419384029 -2.051963614299345e-17 1.0325296732578924e-16 -2.051963614299345e-17 1.0325296732578924e-16 0.46964259806610054 -0.8828566305360969
12640736000.0 0.46054224919074893 -0.8876377846341118 -1.9444232866190872e-17 1.0343995179110273e-16 -1.9444232866190872e-17 1.0343995179110273e-16 0.4605428377214327 -0.8876374792804304
12641353333.333334 0.45139382382182586 -0.892324837609789 -1.836715937811729e-17 1.0361574333170107e-16 -1.836715937811729e-17 1.0361574333170107e-16 0.4513944154312789 -0.8923245383364063
12641970666.666666 0.442197703212181 -0.8969176056214412 -1.728853209701519e-17 1.0378032742542545e-16 -1.728853209701519e-17 1.0378032742542545e-16 0.44219829783759423 -0.8969173124593823
12642588000.0 0.4329548590437438 -0.9014156033873827 -1.6208467562634876e-17 1.0393369076017093e-16 -1.6208467562634876e-17 1.0393369076017093e-16 0.4329554566219965 -0.9014153163670258
12643205333.333334 0.4236662679353557 -0.9058183556395593 -1.512708242365983e-17 1.0407582123484609e-16 -1.512708242365983e-17 1.0407582123484609e-16 0.42366686840302115 -0.9058180747906303
12643822666.666666 0.41433291133957634 -0.9101253971737621 -1.4044493425118977e-17 1.0420670796020082e-16 -1.4044493425118977e-17 1.0420670796020082e-16 0.41433351463292917 -0.9101251225253324
12644440000.0 0.40495577543895644 -0.9143362728987954 -1.2960817395817523e-17 1.0432634125952207e-16 -1.2960817395817523e-17 1.0432634125952207e-16 0.40495638149397833 -0.914336004479278
12645057333.333334 0.3955358510418864 -0.9184505378845378 -1.1876171235760564e-17 1.0443471266919873e-16 -1.1876171235760564e-17 1.0443471266919873e-16 0.39553645979427376 -0.918450275721685
12645674666.666666 0.3860741334779856 -0.9224677574089248 -1.0790671903547367e-17 1.0453181493915979e-16 -1.0790671903547367e-17 1.0453181493915979e-16 0.38607474486315585 -0.9224675015298242
12646292000.0 0.37657162249259113 -0.9263875070040206 -9.704436403770043e-18 1.0461764203317979e-16 -9.704436403770043e-18 1.0461764203317979e-16 0.37657223644569054 -0.9263872574350952
12646909333.333334 0.3670293221415709 -0.9302093725006887 -8.617581774471814e-18 1.046921891290493e-16 -8.617581774471814e-18 1.046921891290493e-16 0.3670299385974804 -0.9302091292676911
12647526666.666666 0.35744824068494285 -0.9339329500724701 -7.530225074511366e-18 1.0475545261862342e-16 -7.530225074511366e-18 1.0475545261862342e-16 0.3574488595782847 -0.9339327132004801
12648144000.0 0.34782939048033756 -0.9375578462782469 -6.442483370992287e-18 1.0480743010773339e-16 -6.442483370992287e-18 1.0480743010773339e-16 0.3478300117454838 -0.9375576157916716
12648761333.333334 0.33817378787624486 -0.9410836781037377 -5.354473726690738e-18 1.0484812041596984e-16 -5.354473726690738e-18 1.0484812041596984e-16 0.338174411447323 -0.9410834540263063
12649378666.666666 0.32848245310446583 -0.9445100730020302 -4.266313187476476e-18 1.048775235763361e-16 -4.266313187476476e-18 1.048775235763361e-16 0.32848307891536593 -0.9445098553567921
12649996000.0 0.3187564101722558 -0.9478366689329573 -3.178118769740613e-18 1.0489564083477043e-16 -3.178118769740613e-18 1.0489564083477043e-16 0.3187570381566382 -0.9478364577422809
12650613333.333334 0.3089966867542895 -0.9510631144012996 -2.0900074478255408e-18 1.0490247464953968e-16 -2.0900074478255408e-18 1.0490247464953968e-16 0.30899731684559084 -0.9510629096868682
12651230666.666666 0.2992043140840198 -0.9541890684939439 -1.0020961414970144e-18 1.0489802869050104e-16 -1.0020961414970144e-18 1.0489802869050104e-16 0.29920494621546107 -0.9541888702767548
12651848000.0 0.2893803268445531 -0.9572142009159532 8.549829663261404e-20 1.048823078382351e-16 8.549829663261404e-20 1.048823078382351e-16 0.2893809609491464 -0.9572140092163172
12652465333.333334 0.2795257630595123 -0.9601381920254111 1.1726590935945054e-18 1.0485531818304878e-16 1.1726590935945054e-18 1.0485531818304878e-16 0.2795263990700672 -0.9601380068629449
12653082666.666666 0.26964166398346584 -0.9629607328671587 2.2592695685966652e-18 1.0481706702384922e-16 2.2592695685966652e-18 1.0481706702384922e-16 0.2696423018325975 -0.9629605542607887
12653700000.0 0.25972907399147027 -0.9656815252055722 3.3452131455424484e-18 1.0476756286688673e-16 3.3452131455424484e-18 1.0476756286688673e-16 0.2597297136116061 -0.9656813531735301
12654317333.333334 0.24978904046921185 -0.9683002815559328 4.4303733654793475e-18 1.047068154243714e-16 4.4303733654793475e-18 1.047068154243714e-16 0.24978968179259842 -0.9683001161157524
12654934666.666666 0.2398226137020073 -0.9708167252148914 5.514633899083923e-18 1.0463483561295782e-16 5.514633899083923e-18 1.0463483561295782e-16 0.23982325666071833 -0.9708165663834101
12655552000.0 0.22983084676393953 -0.9732305902896793 6.597878559127916e-18 1.0455163555210144e-16 6.597878559127916e-18 1.0455163555210144e-16 0.22983149128988256 -0.9732304380830348
12656169333.333334 0.21981479540667034 -0.9755416217261835 7.679991312867767e-18 1.0445722856228947e-16 7.679991312867767e-18 1.0445722856228947e-16 0.21981544143159348 -0.9755414761598096
12656786666.666666 0.2097755179477205 -0.9777495753359309 8.760856294483972e-18 1.0435162916313839e-16 8.760856294483972e-18 1.0435162916313839e-16 0.20977616540322075 -0.9777494364245614
12657404000.0 0.19971407515872996 -0.9798542178218765 9.840357817453192e-18 1.0423485307136754e-16 9.840357817453192e-18 1.0423485307136754e-16 0.19971472397625945 -0.9798540855795386
12658021333.333334 0.18963153015342865 -0.981855326803036 1.0918380386902087e-17 1.0410691719864317e-16 1.0918380386902087e-17 1.0410691719864317e-16 0.18963218026430254 -0.9818552012430519
12658638666.666666 0.17952894827527954 -0.9837526908379965 1.199480871194485e-17 1.0396783964929613e-16 1.199480871194485e-17 1.0396783964929613e-16 0.1795295996106828 -0.9837525719729806
12659256000.0 0.16940739698474355 -0.9855461094472853 1.3069527718008513e-17 1.0381763971790822e-16 1.3069527718008513e-17 1.0381763971790822e-16 0.16940804947573865 -0.9855459972891437
12659873333.333334 0.15926794574668474 -0.9872353931345146 1.4142422559091994e-17 1.0365633788677765e-16 1.4142422559091994e-17 1.0365633788677765e-16 0.15926859932421858 -0.9872352876944421
12660490666.666666 0.14911166591748093 -0.9888203634063877 1.521337863000468e-17 1.0348395582325704e-16 1.521337863000468e-17 1.0348395582325704e-16 0.14911232051239276 -0.988820264694872
12661108000.0 0.13893963063137377 -0.9903008527916375 1.6282281578633123e-17 1.033005163769559e-16 1.6282281578633123e-17 1.033005163769559e-16 0.13894028617440168 -0.9903007608184505
12661725333.333334 0.12875291468755518 -0.9916767048586381 1.734901731807597e-17 1.0310604357683307e-16 1.734901731807597e-17 1.0310604357683307e-16 0.12875357110934413 -0.9916766196328408
12662342666.666666 0.11855259443637785 -0.9929477742319741 1.8413472038833554e-17 1.0290056262814885e-16 1.8413472038833554e-17 1.0290056262814885e-16 0.11855325166748648 -0.992947695761913
12662960000.0 0.1083397476655969 -0.9941139266078012 1.9475532220916143e-17 1.026840999093e-16 1.9475532220916143e-17 1.026840999093e-16 0.10834040563650538 -0.9941138549011094
12663577333.333334 0.09811545348657386 -0.9951750387680307 2.0535084645919336e-17 1.0245668296853023e-16 2.0535084645919336e-17 1.0245668296853023e-16 0.0981161121276907 -0.9951749738316241
12664194666.666666 0.08788079222019775 -0.9961309985933464 2.1592016409088532e-17 1.0221834052051026e-16 2.1592016409088532e-17 1.0221834052051026e-16 0.08788145146186761 -0.9961309404334262
12664812000.0 0.07763684528285038 -0.99698170507505 2.2646214931315923e-17 1.0196910244280035e-16 2.2646214931315923e-17 1.0196910244280035e-16 0.0776375050553612 -0.9969816536971005
12665429333.333334 0.0673846950719428 -0.9977270683257465 2.3697567971118076e-17 1.0170899977218451e-16 2.3697567971118076e-17 1.0170899977218451e-16 0.06738535530553326 -0.9977270237345351
12666046666.666666 0.05712542485180192 -0.9983670095888226 2.4745963636538057e-17 1.0143806470089039e-16 2.4745963636538057e-17 1.0143806470089039e-16 0.05712608547666882 -0.9983669717883997
12666664000.0 0.04686011863884212 -0.9989014612467951 2.579129039708016e-17 1.0115633057266749e-16 2.579129039708016e-17 1.0115633057266749e-16 0.0468607795851476 -0.9989014302404915
12667281333.333334 0.0365898610875359 -0.9993303668284192 2.6833437095500502e-17 1.0086383187876902e-16 2.6833437095500502e-17 1.0086383187876902e-16 0.03659052228541508 -0.9993303426188496
12667898666.666666 0.0263157373753535 -0.9996536810146897 2.787229295963638e-17 1.0056060425379069e-16 2.787229295963638e-17 1.0056060425379069e-16 0.026316398754921685 -0.9996536636037501
12668516000.0 0.016038833088213734 -0.9998713696436137 2.890774761416044e-17 1.002466844713944e-16 2.890774761416044e-17 1.002466844713944e-16 0.016039494579573814 -0.9998713590324806
12669133333.333334 0.005760234105977658 -0.9999834097138172 2.993969109224839e-17 9.99221104399248e-17 2.993969109224839e-17 9.99221104399248e-17 0.00576089563922754 -0.9999834059029487
12669750666.666666 -0.004518973512458221 -0.9999897893869824 3.096801384728051e-17 9.958692119788041e-17 3.096801384728051e-17 9.958692119788041e-17 -0.004518312007218239 -0.999989792376119
12670368000.0 -0.01479770364397418 -0.9998905079890963 3.1992606764427865e-17 9.924115690928393e-17 3.1992606764427865e-17 9.924115690928393e-17 -0.014797042236634025 -0.9998905177772588
