! Parameters = {f0=12700.012000; bw=77.238000; Q=6100.000000; N=10; m_0_1=1.296992; m_1_1=0.690134; m_1_2=1.131804; m_2_2=0.689485; m_2_3=0.768767; m_2_8=0.001913; m_2_9=0.038617; m_3_3=0.687548; m_3_4=0.657296; m_3_7=0.002513; m_3_8=-0.094575; m_3_9=0.001913; m_4_4=0.684623; m_4_5=0.493631; m_4_6=0.006030; m_4_7=-0.115124; m_4_8=0.002513; m_5_5=0.685005; m_5_6=0.900986; m_5_7=0.006030; m_6_6=0.685004; m_6_7=0.493973; m_7_7=0.684637; m_7_8=0.657414; m_8_8=0.687546; m_8_9=0.769080; m_9_9=0.689480; m_9_10=1.132882; m_10_10=0.690124; m_10_11=1.297787}
!
! Created with skrf (http://scikit-rf.org).
# Hz S RI R 50.0 
!freq ReS11 ImS11 ReS21 ImS21 ReS12 ImS12 ReS22 ImS22
12607400000.0 -0.9860655634448738 -0.16635715971354817 1.2448896618888427e-16 -1.5121303356609022e-17 1.2448896618888427e-16 -1.5121303356609022e-17 -0.9860654497757487 -0.16635783347461186
12608017333.333334 -0.9878856484256493 -0.15518358687197095 1.24283997587196e-16 -1.6537417336319475e-17 1.24283997587196e-16 -1.6537417336319475e-17 -0.9878855423964187 -0.1551842618436221
12608634666.666666 -0.9895791245593876 -0.1439901254812028 1.2406292988544776e-16 -1.7950823935060917e-17 1.2406292988544776e-16 -1.7950823935060917e-17 -0.989579026182892 -0.14399080157682176
12609252000.0 -0.9911457748078438 -0.13277821011135157 1.238257981625091e-16 -1.9361340242027244e-17 1.238257981625091e-16 -1.9361340242027244e-17 -0.9911456840959417 -0.13277888724418327
12609869333.333334 -0.9925853983869656 -0.12154927769758388 1.2357263957411862e-16 -2.0768783794202782e-17 1.2357263957411862e-16 -2.0768783794202782e-17 -0.9925853153505315 -0.12154995578074859
12610486666.666666 -0.9938978107925953 -0.11030476735619069 1.2330349334724082e-16 -2.217297259989791e-17 1.2330349334724082e-16 -2.217297259989791e-17 -0.9938977354415188 -0.1103054463026955
12611104000.0 -0.9950828438241753 -0.09904612019966863 1.230184007741425e-16 -2.3573725162291382e-17 1.230184007741425e-16 -2.3573725162291382e-17 -0.9950827761673618 -0.09904679992241862
12611721333.333334 -0.9961403456062531 -0.08777477915250519 1.227174052062233e-16 -2.4970860502790563e-17 1.227174052062233e-16 -2.4970860502790563e-17 -0.996140285651619 -0.08777545956431432
12612338666.666666 -0.9970701806079618 -0.07649218876605315 1.2240055204755753e-16 -2.6364198184433968e-17 1.2240055204755753e-16 -2.6364198184433968e-17 -0.997070128362438 -0.07649286977965579
12612956000.0 -0.9978722296604119 -0.06519979503322568 1.220678887481836e-16 -2.775355833514751e-17 1.220678887481836e-16 -2.775355833514751e-17 -0.997872185129938 -0.06520047656128737
12613573333.333334 -0.9985463899719258 -0.053899045203514594 1.2171946479713888e-16 -2.9138761670887404e-17 1.2171946479713888e-16 -2.9138761670887404e-17 -0.9985463531614541 -0.0538997271586437
12614190666.666666 -0.9990925751412383 -0.042591387597311535 1.2135533171520916e-16 -3.0519629518794484e-17 1.2135533171520916e-16 -3.0519629518794484e-17 -0.9990925460547312 -0.04259206989207022
12614808000.0 -0.9995107151685655 -0.03127827142026019 1.209755430474348e-16 -3.189598384017643e-17 1.209755430474348e-16 -3.189598384017643e-17 -0.9995106938089933 -0.031278953967175546
12615425333.333334 -0.9998007564645687 -0.019961146577580646 1.2058015435535399e-16 -3.3267647253419967e-17 1.2058015435535399e-16 -3.3267647253419967e-17 -0.9998007428339143 -0.019961829289156144
12616042666.666666 -0.9999626618572294 -0.008641463488333008 1.2016922320897733e-16 -3.4634443056835524e-17 1.2016922320897733e-16 -3.4634443056835524e-17 -0.9999626559564819 -0.008642146277059495
12616660000.0 -0.9999964105966098 0.0026793271006410576 1.1974280917851473e-16 -3.599619525137047e-17 1.1974280917851473e-16 -3.599619525137047e-17 -0.99999641242577 0.002678644322274031
12617277333.333334 -0.9999019983575126 0.013999774300591242 1.1930097382583782e-16 -3.735272856324583e-17 1.1930097382583782e-16 -3.735272856324583e-17 -0.9999020079155897 0.013999091620084246
12617894666.666666 -0.9996794372400398 0.02531842726657928 1.1884378069569972e-16 -3.8703868466449167e-17 1.1884378069569972e-16 -3.8703868466449167e-17 -0.9996794545250521 0.025317744771411764
12618512000.0 -0.9993287557680309 0.03663383538390434 1.1837129530667163e-16 -4.0049441205209237e-17 1.1837129530667163e-16 -4.0049441205209237e-17 -0.9993287807770074 0.036633153161523456
12619129333.333334 -0.9988499988854198 0.047944548453532895 1.1788358514186436e-16 -4.1389273816247054e-17 1.1788358514186436e-16 -4.1389273816247054e-17 -0.9988500316143999 0.04794386659134228
12619746666.666666 -0.9982432279504705 0.059249116878157246 1.1738071963937013e-16 -4.2723194150995685e-17 1.1738071963937013e-16 -4.2723194150995685e-17 -0.9982432683945045 0.05924843546350582
12620364000.0 -0.9975085207279025 0.07054609184814818 1.1686277018245503e-16 -4.4051030897702104e-17 1.1686277018245503e-16 -4.4051030897702104e-17 -0.9975085688810534 0.07054541096831903
12620981333.333334 -0.9966459713789447 0.0818340255268961 1.1632981008952535e-16 -4.537261360334815e-17 1.1632981008952535e-16 -4.537261360334815e-17 -0.9966460272342861 0.08183334526909508
12621598666.666666 -0.9956556904492533 0.09311147123656625 1.1578191460381508e-16 -4.668777269553419e-17 1.1578191460381508e-16 -4.668777269553419e-17 -0.9956557539988741 0.09311079168791114
12622216000.0 -0.9945378048547449 0.10437698364353562 1.1521916088285334e-16 -4.7996339504170245e-17 1.1521916088285334e-16 -4.7996339504170245e-17 -0.9945378760897486 0.10437630489104473
12622833333.333334 -0.9932924578653276 0.1156291189436001 1.1464162798766346e-16 -4.929814628310023e-17 1.1464162798766346e-16 -4.929814628310023e-17 -0.9932925367758336 0.11562844107418122
12623450666.666666 -0.9919198090865661 0.1268664350468173 1.1404939687174798e-16 -5.059302623152942e-17 1.1404939687174798e-16 -5.059302623152942e-17 -0.9919198956617101 0.12686575814725642
12624068000.0 -0.9904200344391872 0.1380874917626371 1.134425503697968e-16 -5.188081351539806e-17 1.134425503697968e-16 -5.188081351539806e-17 -0.9904201286671255 0.1380868159195877
12624685333.333334 -0.988793326136541 0.14929085098442207 1.1282117318617696e-16 -5.316134328857223e-17 1.1282117318617696e-16 -5.316134328857223e-17 -0.9887934280044498 0.14929017628439364
12625302666.666666 -0.9870398926600159 0.16047507687339127 1.1218535188319326e-16 -5.44344517138791e-17 1.1218535188319326e-16 -5.44344517138791e-17 -0.9870400021540927 0.1604744034027383
12625920000.0 -0.9851599587322353 0.1716387360432302 1.1153517486907265e-16 -5.569997598408221e-17 1.1153517486907265e-16 -5.569997598408221e-17 -0.9851600758377017 0.17163806388814115
12626537333.333334 -0.9831537652883252 0.1827803977433174 1.1087073238576729e-16 -5.695775434260664e-17 1.1087073238576729e-16 -5.695775434260664e-17 -0.9831538899894301 0.18277972698980383
12627154666.666666 -0.9810215694450324 0.19389863404217714 1.1019211649647564e-16 -5.82076261042145e-17 1.1019211649647564e-16 -5.82076261042145e-17 -0.9810217017250521 0.1938979647760627
12627772000.0 -0.9787636444677028 0.20499202001081976 1.0949942107294526e-16 -5.944943167550394e-17 1.0949942107294526e-16 -5.944943167550394e-17 -0.978763784308944 0.20499135231772886
12628389333.333334 -0.9763802797353599 0.2160591339048607 1.0879274178257953e-16 -6.068301257519611e-17 1.0879274178257953e-16 -6.068301257519611e-17 -0.9763804271191605 0.2160584678702076
12629006666.666666 -0.9738717807035143 0.22709855734720522 1.0807217607525114e-16 -6.190821145438763e-17 1.0807217607525114e-16 -6.190821145438763e-17 -0.9738719356102515 0.22709789305618408
12629624000.0 -0.9712384688651177 0.23810887550941556 1.0733782316994902e-16 -6.312487211653932e-17 1.0733782316994902e-16 -6.312487211653932e-17 -0.9712386312742023 0.23810821304698795
12630241333.333334 -0.9684806817092655 0.2490886772933951 1.0658978404117015e-16 -6.433283953735945e-17 1.0658978404117015e-16 -6.433283953735945e-17 -0.9684808515991515 0.24908801674428044
12630858666.666666 -0.9655987726780464 0.2600365555118517 1.058281614050952e-16 -6.553195988451824e-17 1.058281614050952e-16 -6.553195988451824e-17 -0.9655989500262293 0.26003589696051554
12631476000.0 -0.9625931111211136 0.2709511070691396 1.0505305970552619e-16 -6.67220805372227e-17 1.0505305970552619e-16 -6.67220805372227e-17 -0.9625932959041376 0.2709504505997837
12632093333.333334 -0.9594640822484665 0.28183093314064295 1.0426458509965092e-16 -6.790305010555476e-17 1.0426458509965092e-16 -6.790305010555476e-17 -0.959464274441923 0.2818302788371936
12632710666.666666 -0.9562120870810594 0.29267463935213406 1.0346284544353724e-16 -6.907471844972542e-17 1.0346284544353724e-16 -6.907471844972542e-17 -0.9562122866595943 0.29267398729823196
12633328000.0 -0.9528375423993216 0.30348083595877806 1.0264795027743173e-16 -7.023693669912532e-17 1.0264795027743173e-16 -7.023693669912532e-17 -0.9528377493366359 0.30348018623776757
12633945333.333334 -0.9493408806898416 0.31424813802289037 1.0182001081086197e-16 -7.138955727117983e-17 1.0182001081086197e-16 -7.138955727117983e-17 -0.9493410949586967 0.3142474907178087
12634562666.666666 -0.9457225500898855 0.3249751655916227 1.009791399075109e-16 -7.253243389005255e-17 1.009791399075109e-16 -7.253243389005255e-17 -0.9457227716621045 0.32497452078518907
12635180000.0 -0.9419830143300035 0.3356605438736841 1.0012545206987432e-16 -7.366542160518287e-17 1.0012545206987432e-16 -7.366542160518287e-17 -0.9419832431764783 0.33565990164829
12635797333.333334 -0.9381227526745293 0.3463029034157529 9.925906342372477e-17 -7.47883768096237e-17 9.925906342372477e-17 -7.47883768096237e-17 -0.9381229887652214 0.3463022638534508
12636414666.666666 -0.9341422598602664 0.35690088027766526 9.83800917023817e-17 -7.590115725818338e-17 9.83800917023817e-17 -7.590115725818338e-17 -0.9341425031642104 0.35690024346015753
12637032000.0 -0.9300420460329551 0.36745311620756577 9.74886562307376e-17 -7.700362208543659e-17 9.74886562307376e-17 -7.700362208543659e-17 -0.9300422965182676 0.3674524822161966
12637649333.333334 -0.9258226366819649 0.3779582588157992 9.658487790912426e-17 -7.809563182349557e-17 9.658487790912426e-17 -7.809563182349557e-17 -0.9258228943158422 0.3779576277315412
12638266666.666666 -0.9214845725729633 0.3884149617481792 9.566887919696966e-17 -7.917704841960636e-17 9.566887919696966e-17 -7.917704841960636e-17 -0.9214848373216898 0.38841433365162514
12638884000.0 -0.9170284096785505 0.398821884858699 9.474078409624098e-17 -8.024773525357676e-17 9.474078409624098e-17 -8.024773525357676e-17 -0.9170286815075023 0.3988212598300508
12639501333.333334 -0.9124547191070228 0.40917769438123214 9.380071813471036e-17 -8.130755715498795e-17 9.380071813471036e-17 -8.130755715498795e-17 -0.9124549979806721 0.40917707250029084
12640118666.666666 -0.9077640870292853 0.4194810631002372 9.284880834904829e-17 -8.235638042019091e-17 9.284880834904829e-17 -8.235638042019091e-17 -0.9077643729112055 0.4194804444463928
12640736000.0 -0.9029571146034693 0.4297306705214254 9.188518326764048e-17 -8.339407282920226e-17 9.188518326764048e-17 -8.339407282920226e-17 -0.9029574074563383 0.42973005517364643
12641353333.333334 -0.8980344178982054 0.4399252030402988 9.09099728933701e-17 -8.442050366223021e-17 9.09099728933701e-17 -8.442050366223021e-17 -0.8980347176838118 0.4399245910771222
12641970666.666666 -0.8929966278134546 0.45006335411096887 8.992330868604754e-17 -8.543554371618437e-17 8.992330868604754e-17 -8.543554371618437e-17 -0.8929969344927023 0.4500627456104905
12642588000.0 -0.8878443899996967 0.46014382441350143 8.892532354478029e-17 -8.643906532084625e-17 8.892532354478029e-17 -8.643906532084625e-17 -0.8878447035326104 0.4601432194533658
12643205333.333334 -0.8825783647752223 0.470165322020363 8.791615179009845e-17 -8.743094235490399e-17 8.791615179009845e-17 -8.743094235490399e-17 -0.8825786851209515 0.47016472067775295
12643822666.666666 -0.8771992270414253 0.4801265625621476 8.689592914592137e-17 -8.84110502617589e-17 8.689592914592137e-17 -8.84110502617589e-17 -0.8771995541582505 0.48012596491377485
12644440000.0 -0.8717076661964255 0.49002626939195604 8.586479272135568e-17 -8.937926606511408e-17 8.586479272135568e-17 -8.937926606511408e-17 -0.8717080000417651 0.49002567551405235
12645057333.333334 -0.8661043860466118 0.4998631737492162 8.482288099232162e-17 -9.033546838435269e-17 8.482288099232162e-17 -9.033546838435269e-17 -0.8661047265770238 0.4998625837175214
12645674666.666666 -0.860390104716547 0.5096360149220882 8.377033378298493e-17 -9.12795374497239e-17 8.377033378298493e-17 -9.12795374497239e-17 -0.8603904518877384 0.5096354288118427
12646292000.0 -0.8545655545567367 0.5193435404093847 8.270729224702522e-17 -9.221135511730767e-17 8.270729224702522e-17 -9.221135511730767e-17 -0.8545659083235675 0.5193429582953187
12646909333.333334 -0.8486314820499969 0.5289845060807005 8.163389884879152e-17 -9.31308048837158e-17 8.163389884879152e-17 -9.31308048837158e-17 -0.848631842366486 0.5289839280370248
12647526666.666666 -0.8425886477156862 0.5385576763360342 8.055029734421066e-17 -9.403777190064879e-17 8.055029734421066e-17 -9.403777190064879e-17 -0.8425890145350182 0.5385571024364308
12648144000.0 -0.8364378260121579 0.5480618242642636 7.945663276158985e-17 -9.493214298918192e-17 7.945663276158985e-17 -9.493214298918192e-17 -0.8364381992866877 0.5480612545818762
12648761333.333334 -0.8301798052376254 0.5574957318001964 7.835305138225391e-17 -9.58138066538366e-17 7.835305138225391e-17 -9.58138066538366e-17 -0.8301801849188862 0.5574951664076211
12649378666.666666 -0.8238153874291035 0.5668581898807267 7.72397007210325e-17 -9.668265309642242e-17 7.72397007210325e-17 -9.668265309642242e-17 -0.823815773467812 0.5668576288500028
12649996000.0 -0.8173453882596046 0.5761479985998165 7.611672950655355e-17 -9.753857422968639e-17 7.611672950655355e-17 -9.753857422968639e-17 -0.8173457806056676 0.5761474420024174
12650613333.333334 -0.8107706369335324 0.5853639673623676 7.498428766143236e-17 -9.838146369069607e-17 7.498428766143236e-17 -9.838146369069607e-17 -0.8107710355360535 0.5853634152691918
12651230666.666666 -0.8040919760806099 0.5945049150365342 7.384252628231746e-17 -9.92112168539927e-17 7.384252628231746e-17 -9.92112168539927e-17 -0.8040923808878953 0.5945043675178955
12651848000.0 -0.7973102616476028 0.6035696701054889 7.269159761972564e-17 -1.0002773084456055e-16 7.269159761972564e-17 -1.0002773084456055e-16 -0.7973106726071686 0.6035691272311082
12652465333.333334 -0.7904263627888182 0.6125570708172888 7.153165505781411e-17 -1.0083090455050473e-16 7.153165505781411e-17 -1.0083090455050473e-16 -0.7904267798473976 0.6125565326562851
12653082666.666666 -0.7834411617547711 0.6214659653337044 7.036285309398849e-17 -1.0162063863551516e-16 7.036285309398849e-17 -1.0162063863551516e-16 -0.7834415848583207 0.6214654319545857
12653700000.0 -0.7763555537788314 0.6302952118781965 6.918534731831801e-17 -1.02396835551131e-16 6.918534731831801e-17 -1.02396835551131e-16 -0.7763559828725396 0.6302946833488525
12654317333.333334 -0.7691704469628096 0.6390436788818503 6.799929439291277e-17 -1.0315939954870296e-16 6.799929439291277e-17 -1.0315939954870296e-16 -0.7691708819911003 0.6390431552695409
12654934666.666666 -0.761886762160355 0.64771024512866 6.680485203109955e-17 -1.0390823669116371e-16 6.680485203109955e-17 -1.0390823669116371e-16 -0.7618872030668978 0.6477097265000089
12655552000.0 -0.7545054328590126 0.6562937998991405 6.560217897647177e-17 -1.0464325486455593e-16 6.560217897647177e-17 -1.0464325486455593e-16 -0.7545058795867301 0.6562932863201266
12656169333.333334 -0.7470274050606404 0.664793243112612 6.439143498186976e-17 -1.0536436378928263e-16 6.439143498186976e-17 -1.0536436378928263e-16 -0.7470278575517147 0.664792734648561
12656786666.666666 -0.7394536371600395 0.6732074854683406 6.317278078816359e-17 -1.0607147503116121e-16 6.317278078816359e-17 -1.0607147503116121e-16 -0.7394540953559197 0.6732069821839162
12657404000.0 -0.7317850998222748 0.6815354485849735 6.194637810297874e-17 -1.0676450201219476e-16 6.194637810297874e-17 -1.0676450201219476e-16 -0.7317855636636836 0.6815349505441685
12658021333.333334 -0.724022775858099 0.6897760651389331 6.071238957925244e-17 -1.0744336002112747e-16 6.071238957925244e-17 -1.0744336002112747e-16 -0.7240232452850426 0.6897755724050629
12658638666.666666 -0.7161676600982512 0.6979282790009406 5.947097879372777e-17 -1.0810796622372437e-16 5.947097879372777e-17 -1.0810796622372437e-16 -0.7161681350500242 0.6979277916366331
12659256000.0 -0.7082207592656187 0.7059910453717166 5.822231022527096e-17 -1.0875823967283742e-16 5.822231022527096e-17 -1.0875823967283742e-16 -0.7082212396808156 0.7059905634389072
12659873333.333334 -0.700183091846475 0.713963330915621 5.69665492331574e-17 -1.0939410131818163e-16 5.69665492331574e-17 -1.0939410131818163e-16 -0.7001835776629958 0.7139628544755425
12660490666.666666 -0.6920556879599087 0.7218441138931281 5.570386203519234e-17 -1.1001547401589102e-16 5.570386203519234e-17 -1.1001547401589102e-16 -0.6920561791149663 0.7218436430063028
12661108000.0 -0.68383958922568 0.7296323842918919 5.443441568572547e-17 -1.1062228253782446e-16 5.443441568572547e-17 -1.1062228253782446e-16 -0.6838400856558101 0.7296319190181251
12661725333.333334 -0.6755358486308889 0.7373271439560344 5.315837805364024e-17 -1.1121445358058083e-16 5.315837805364024e-17 -1.1121445358058083e-16 -0.6755363502719566 0.7373266843544057
12662342666.666666 -0.6671455303948577 0.744927406714226 5.187591780013908e-17 -1.1179191577431331e-16 5.187591780013908e-17 -1.1179191577431331e-16 -0.6671460371820672 0.744926952843083
12662960000.0 -0.6586697098329057 0.7524321985059206 5.058720435651289e-17 -1.1235459969124995e-16 5.058720435651289e-17 -1.1235459969124995e-16 -0.6586702217008082 0.7524317504228706
12663577333.333334 -0.6501094732183894 0.7598405575063263 4.92924079018e-17 -1.1290243785396734e-16 4.92924079018e-17 -1.1290243785396734e-16 -0.6501099901008912 0.7598401152682296
12664194666.666666 -0.6414659176435453 0.7671515342496175 4.799169934033151e-17 -1.1343536474341996e-16 4.799169934033151e-17 -1.1343536474341996e-16 -0.6414664394739157 0.7671510979125784
12664812000.0 -0.6327401508789494 0.7743641917505615 4.66852502792224e-17 -1.1395331680669577e-16 4.66852502792224e-17 -1.1395331680669577e-16 -0.6327406775898318 0.7743637613699249
12665429333.333334 -0.6239332912313963 0.781477605624738 4.537323300575779e-17 -1.1445623246452384e-16 4.537323300575779e-17 -1.1445623246452384e-16 -0.6239338227548133 0.781477181255078
12666046666.666666 -0.6150464674007684 0.7884908642068429 4.405582046473839e-17 -1.1494405211850582e-16 4.405582046473839e-17 -1.1494405211850582e-16 -0.6150470036681333 0.7884904459019582
12666664000.0 -0.6060808183350906 0.795403068667757 4.273318623566459e-17 -1.154167181581206e-16 4.273318623566459e-17 -1.154167181581206e-16 -0.6060813592772163 0.7954026564806654
12667281333.333334 -0.5970374930849691 0.8022133331294327 4.140550450995801e-17 -1.1587417496742513e-16 4.140550450995801e-17 -1.1587417496742513e-16 -0.597038038632075 0.8022129271123614
12667898666.666666 -0.5879176506559638 0.8089207847787022 4.0072950068033345e-17 -1.1631636893152167e-16 4.0072950068033345e-17 -1.1631636893152167e-16 -0.5879182007376864 0.808920384983083
12668516000.0 -0.5787224598601143 0.8155245639790848 3.87356982563062e-17 -1.1674324844276176e-16 3.87356982563062e-17 -1.1674324844276176e-16 -0.5787230144055164 0.8155241704555484
12669133333.333334 -0.569453099166422 0.8220238243807629 3.739392496419536e-17 -1.1715476390666545e-16 3.739392496419536e-17 -1.1715476390666545e-16 -0.5694536581040006 0.8220234371791294
12669750666.666666 -0.5601107565494218 0.8284177330293292 3.604780660100071e-17 -1.1755086774759814e-16 3.604780660100071e-17 -1.1755086774759814e-16 -0.560111319807118 0.8284173521986042
12670368000.0 -0.5506966293372076 0.8347054704723436 3.469752007273877e-17 -1.179315144141759e-16 3.469752007273877e-17 -1.179315144141759e-16 -0.5506971968424164 0.8347050960607124
