! Parameters = {f0=12700.012000; bw=77.238000; Q=6100.000000; N=10; m_0_1=1.256351; m_1_1=0.080525; m_1_2=1.091163; m_2_2=0.079876; m_2_3=0.728126; m_2_8=-0.000119; m_2_9=0.036585; m_3_3=0.077939; m_3_4=0.616655; m_3_7=0.000481; m_3_8=-0.096607; m_3_9=-0.000119; m_4_4=0.075014; m_4_5=0.452990; m_4_6=0.003998; m_4_7=-0.117156; m_4_8=0.000481; m_5_5=0.075396; m_5_6=0.860345; m_5_7=0.003998; m_6_6=0.075395; m_6_7=0.453332; m_7_7=0.075028; m_7_8=0.616773; m_8_8=0.077937; m_8_9=0.728439; m_9_9=0.079871; m_9_10=1.092241; m_10_10=0.080515; m_10_11=1.257146}
!
! Created with skrf (http://scikit-rf.org).
# Hz S RI R 50.0 
!freq ReS11 ImS11 ReS21 ImS21 ReS12 ImS12 ReS22 ImS22
12607400000.0 -0.9158812989909987 0.4014491825354588 7.921214521423719e-17 -6.686959521499517e-17 7.921214521423719e-17 -6.686959521499517e-17 -0.9158815647281925 0.4014485762720603
12608017333.333334 -0.9117720262603334 0.41069669115900165 7.851003718709614e-17 -6.766145291334765e-17 7.851003718709614e-17 -6.766145291334765e-17 -0.9117722981055622 0.41069608764526633
12608634666.666666 -0.9075693857610363 0.41990214339672444 7.780002230491339e-17 -6.84459492504015e-17 7.780002230491339e-17 -6.84459492504015e-17 -0.9075696636858647 0.4199015426941809
12609252000.0 -0.9032738078542395 0.4290645965869589 7.708217764402061e-17 -6.922300536898292e-17 7.708217764402061e-17 -6.922300536898292e-17 -0.9032740918296143 0.4290639987568427
12609869333.333334 -0.8988857324180805 0.4381831124713027 7.635658106622517e-17 -6.999254321789836e-17 7.635658106622517e-17 -6.999254321789836e-17 -0.8988860224143309 0.4381825175745488
12610486666.666666 -0.894405608802739 0.4472567572905179 7.562331121041403e-17 -7.075448555972401e-17 7.562331121041403e-17 -7.075448555972401e-17 -0.8944059047895802 0.44725616538775503
12611104000.0 -0.889833895784236 0.456284601880534 7.488244748402893e-17 -7.150875597856453e-17 7.488244748402893e-17 -7.150875597856453e-17 -0.8898341977307731 0.4562840130320783
12611721333.333334 -0.8851710615177044 0.46526572176708575 7.4134070054527e-17 -7.225527888765617e-17 7.4134070054527e-17 -7.225527888765617e-17 -0.8851713693924363 0.4652651360329353
12612338666.666666 -0.8804175834892761 0.47419919726074095 7.33782598407048e-17 -7.299397953694479e-17 7.33782598407048e-17 -7.299397953694479e-17 -0.880417897260096 0.4741986147005681
12612956000.0 -0.87557394846719 0.4830841135510488 7.261509850398781e-17 -7.372478402053095e-17 7.261509850398781e-17 -7.372478402053095e-17 -0.8755742681013915 0.4830835342241957
12613573333.333334 -0.8706406524520848 0.49191956079997023 7.184466843964497e-17 -7.444761928402713e-17 7.184466843964497e-17 -7.444761928402713e-17 -0.870640977916365 0.49191898476544255
12614190666.666666 -0.8656182006260167 0.500704634235398 7.106705276790268e-17 -7.516241313184983e-17 7.106705276790268e-17 -7.516241313184983e-17 -0.8656185318864776 0.5007040615518576
12614808000.0 -0.860507107300878 0.5094384342435327 7.028233532500515e-17 -7.586909423440082e-17 7.028233532500515e-17 -7.586909423440082e-17 -0.8605074443230321 0.5094378649692931
12615425333.333334 -0.8553078958656599 0.5181200664611294 6.949060065421311e-17 -7.65675921351474e-17 6.949060065421311e-17 -7.65675921351474e-17 -0.8553082386144327 0.5181195006541488
12616042666.666666 -0.850021098732885 0.5267486418670339 6.869193399671255e-17 -7.72578372576273e-17 6.869193399671255e-17 -7.72578372576273e-17 -0.8500214471726204 0.5267480795849109
12616660000.0 -0.8446472572840324 0.5353232768733199 6.788642128246762e-17 -7.793976091234703e-17 6.788642128246762e-17 -7.793976091234703e-17 -0.8446476113784926 0.5353227181732849
12617277333.333334 -0.8391869218141632 0.543843093415644 6.707414912098969e-17 -7.861329530359866e-17 6.707414912098969e-17 -7.861329530359866e-17 -0.8391872815265377 0.5438425383545565
12617894666.666666 -0.8336406514755956 0.5523072190431453 6.625520479207504e-17 -7.927837353615052e-17 6.625520479207504e-17 -7.927837353615052e-17 -0.8336410167685001 0.5523066676774859
12618512000.0 -0.8280090142204853 0.5607147870080197 6.542967623641811e-17 -7.993492962189044e-17 6.542967623641811e-17 -7.993492962189044e-17 -0.8280093850559692 0.5607142393938855
12619129333.333334 -0.8222925867429021 0.5690649363539237 6.459765204622958e-17 -8.058289848631421e-17 6.459765204622958e-17 -8.058289848631421e-17 -0.8222929630824505 0.5690643925470221
12619746666.666666 -0.8164919544195547 0.5773568120044689 6.375922145572197e-17 -8.122221597497167e-17 6.375922145572197e-17 -8.122221597497167e-17 -0.8164923362240931 0.577356272060112
12620364000.0 -0.8106077112499394 0.5855895648506412 6.291447433157769e-17 -8.185281885977756e-17 6.291447433157769e-17 -8.185281885977756e-17 -0.8106080984798368 0.5855890288237396
12620981333.333334 -0.8046404597955956 0.5937623518376361 6.206350116335333e-17 -8.247464484522611e-17 6.206350116335333e-17 -8.247464484522611e-17 -0.8046408524106705 0.5937618197826949
12621598666.666666 -0.7985908111182732 0.6018743360513766 6.120639305379202e-17 -8.308763257452843e-17 6.120639305379202e-17 -8.308763257452843e-17 -0.7985912090777961 0.6018738080224885
12622216000.0 -0.7924593847173725 0.6099246868041913 6.034324170909713e-17 -8.369172163563459e-17 6.034324170909713e-17 -8.369172163563459e-17 -0.7924597879800698 0.6099241628550308
12622833333.333334 -0.7862468084665707 0.6179125797197847 5.94741394291534e-17 -8.428685256714865e-17 5.94741394291534e-17 -8.428685256714865e-17 -0.7862472169906309 0.6179120599036042
12623450666.666666 -0.7799537185495313 0.6258371968176604 5.859917909768161e-17 -8.487296686415073e-17 5.859917909768161e-17 -8.487296686415073e-17 -0.779954132292608 0.6258366811872831
12624068000.0 -0.7735807593946857 0.6336977265969709 5.771845417232844e-17 -8.545000698392144e-17 5.771845417232844e-17 -8.545000698392144e-17 -0.7735811783139024 0.6336972152047873
12624685333.333334 -0.7671285836092421 0.6414933641196191 5.683205867469538e-17 -8.60179163515667e-17 5.683205867469538e-17 -8.60179163515667e-17 -0.7671290076611957 0.6414928570175795
12625302666.666666 -0.7605978519124618 0.6492233110925515 5.594008718036432e-17 -8.657663936550605e-17 5.594008718036432e-17 -8.657663936550605e-17 -0.7605982810532292 0.649222808332163
12625920000.0 -0.7539892330678406 0.6568867759497045 5.5042634808783756e-17 -8.712612140291369e-17 5.5042634808783756e-17 -8.712612140291369e-17 -0.7539896672529808 0.6568862775820233
12626537333.333334 -0.7473034038148049 0.6644829739328424 5.413979721318813e-17 -8.766630882499965e-17 5.413979721318813e-17 -8.766630882499965e-17 -0.747303842999365 0.6644824800084708
12627154666.666666 -0.7405410487993246 0.6720111271720322 5.3231670570401494e-17 -8.819714898222742e-17 5.3231670570401494e-17 -8.819714898222742e-17 -0.7405414929378443 0.672010637741112
12627772000.0 -0.7337028605037049 0.6794704647654003 5.2318351570615086e-17 -8.871859021941052e-17 5.2318351570615086e-17 -8.871859021941052e-17 -0.733703309550222 0.6794699798776096
12628389333.333334 -0.7267895391758672 0.6868602228578669 5.139993740714101e-17 -8.92305818806891e-17 5.139993740714101e-17 -8.92305818806891e-17 -0.7267899930839201 0.6868597425624122
12629006666.666666 -0.7198017927574666 0.6941796447195524 5.04765257660593e-17 -8.973307431443443e-17 5.04765257660593e-17 -8.973307431443443e-17 -0.7198022514801009 0.6941791690651663
12629624000.0 -0.7127403368115344 0.701427980823126 4.954821481586831e-17 -9.022601887801746e-17 4.954821481586831e-17 -9.022601887801746e-17 -0.7127408003013076 0.7014275098580605
12630241333.333334 -0.7056058944491237 0.7086044889206391 4.8615103197071234e-17 -9.070936794248071e-17 4.8615103197071234e-17 -9.070936794248071e-17 -0.7056063626581092 0.708604022692661
12630858666.666666 -0.6983991962553004 0.7157084341194939 4.767729001172277e-17 -9.118307489710016e-17 4.767729001172277e-17 -9.118307489710016e-17 -0.6983996691350935 0.715707972675881
12631476000.0 -0.6911209802142297 0.7227390889577988 4.6734874812903284e-17 -9.164709415385426e-17 4.6734874812903284e-17 -9.164709415385426e-17 -0.6911214577159526 0.7227386323453343
12632093333.333334 -0.6837719916337865 0.7296957334786821 4.578795759419672e-17 -9.210138115176022e-17 4.578795759419672e-17 -9.210138115176022e-17 -0.6837724737080921 0.7296952817436498
12632710666.666666 -0.676352983069133 0.7365776553041189 4.4836638779103427e-17 -9.25458923611137e-17 4.4836638779103427e-17 -9.25458923611137e-17 -0.6763534696662106 0.7365772084922978
12633328000.0 -0.6688647142455705 0.7433841497079545 4.3881019210388825e-17 -9.298058528763146e-17 4.3881019210388825e-17 -9.298058528763146e-17 -0.6688652053151528 0.7433837078646173
12633945333.333334 -0.6613079519808475 0.7501145196879772 4.292120013944508e-17 -9.340541847645856e-17 4.292120013944508e-17 -9.340541847645856e-17 -0.6613084474722124 0.7501140828578807
12634562666.666666 -0.6536834701066546 0.7567680760372694 4.195728321556144e-17 -9.382035151609088e-17 4.195728321556144e-17 -9.382035151609088e-17 -0.6536839699686331 0.7567676442646545
12635180000.0 -0.6459920493893204 0.7633441374148454 4.098937047520004e-17 -9.42253450421681e-17 4.098937047520004e-17 -9.42253450421681e-17 -0.6459925535703007 0.7633437107434305
12635797333.333334 -0.6382344774498573 0.7698420304154191 4.001756433120343e-17 -9.462036074117023e-17 4.001756433120343e-17 -9.462036074117023e-17 -0.6382349858977908 0.7698416088883963
12636414666.666666 -0.630411548683419 0.7762610896382751 3.9041967561996824e-17 -9.500536135399117e-17 3.9041967561996824e-17 -9.500536135399117e-17 -0.6304120613458245 0.7762606732983041
12637032000.0 -0.6225240641777297 0.7826006577555831 3.8062683300712973e-17 -9.538031067941794e-17 3.8062683300712973e-17 -9.538031067941794e-17 -0.6225245810017 0.7826002466447894
12637649333.333334 -0.6145728316312716 0.788860085579533 3.7079815024338786e-17 -9.574517357747721e-17 3.7079815024338786e-17 -9.574517357747721e-17 -0.6145733525634797 0.7888596797395037
12638266666.666666 -0.6065586652704676 0.795038732128905 3.60934665427896e-17 -9.6099915972686e-17 3.60934665427896e-17 -9.6099915972686e-17 -0.6065591902571693 0.7950383316006813
12638884000.0 -0.5984823857663417 0.8011359646946679 3.510374198797204e-17 -9.644450485718277e-17 3.510374198797204e-17 -9.644450485718277e-17 -0.5984829147533834 0.8011355695187438
12639501333.333334 -0.5903448201503702 0.8071511589048576 3.4110745802798576e-17 -9.677890829375333e-17 3.4110745802798576e-17 -9.677890829375333e-17 -0.5903453530831946 0.8071507691211761
12640118666.666666 -0.5821468017300644 0.8130836987883132 3.311458273022059e-17 -9.710309541872743e-17 3.311458273022059e-17 -9.710309541872743e-17 -0.5821473385537149 0.8130833144362599
12640736000.0 -0.5738891700031796 0.8189329768380865 3.2115357802146197e-17 -9.741703644479227e-17 3.2115357802146197e-17 -9.741703644479227e-17 -0.5738897106623067 0.8189325979564875
12641353333.333334 -0.5655727705723226 0.8246983940732358 3.111317632845983e-17 -9.772070266365155e-17 3.111317632845983e-17 -9.772070266365155e-17 -0.5655733150111896 0.8246980207003539
12641970666.666666 -0.5571984550579013 0.8303793601005002 3.0108143885875386e-17 -9.80140664486159e-17 3.0108143885875386e-17 -9.80140664486159e-17 -0.5571990032203895 0.830378992274029
12642588000.0 -0.5487670810110509 0.8359752931746485 2.91003663068801e-17 -9.829710125704405e-17 2.91003663068801e-17 -9.829710125704405e-17 -0.5487676328406662 0.8359749309317113
12643205333.333334 -0.5402795118259381 0.8414856202579787 2.808994966860037e-17 -9.856978163268753e-17 2.808994966860037e-17 -9.856978163268753e-17 -0.5402800672658169 0.841485263635123
12643822666.666666 -0.5317366166511588 0.8469097770791214 2.7077000281637908e-17 -9.883208320792306e-17 2.7077000281637908e-17 -9.883208320792306e-17 -0.5317371756440726 0.8469094261123161
12644440000.0 -0.523139270300901 0.852247208190716 2.6061624678936522e-17 -9.908398270585686e-17 2.6061624678936522e-17 -9.908398270585686e-17 -0.5231398327892633 0.8522468629153467
12645057333.333334 -0.5144883531652409 0.8574973670263637 2.5043929604585225e-17 -9.932545794232722e-17 2.5043929604585225e-17 -9.932545794232722e-17 -0.5144889190911134 0.8574970274772302
12645674666.666666 -0.5057847511201362 0.8626597159565111 2.402402200262047e-17 -9.955648782778764e-17 2.402402200262047e-17 -9.955648782778764e-17 -0.505785320425234 0.8626593821678237
12646292000.0 -0.49702935543644183 0.867733726343666 2.300200900579217e-17 -9.97770523690798e-17 2.300200900579217e-17 -9.97770523690798e-17 -0.4970299280621385 0.8677333983490401
12646909333.333334 -0.48822306268897997 0.8727188785963218 2.197799792435697e-17 -9.9987132671082e-17 2.197799792435697e-17 -9.9987132671082e-17 -0.48822363857631673 0.8727185564287785
12647526666.666666 -0.4793667746645141 0.8776146622223044 2.0952096234820475e-17 -1.0018671093825078e-16 2.0952096234820475e-17 -1.0018671093825078e-16 -0.4793673537542029 0.877614345914264
12648144000.0 -0.4704613982693246 0.8824205758810821 1.9924411568672408e-17 -1.0037577047604694e-16 1.9924411568672408e-17 -1.0037577047604694e-16 -0.47046198050175553 0.8824202654643617
12648761333.333334 -0.4615078454365878 0.8871361274349658 1.8895051701118284e-17 -1.0055429569224311e-16 1.8895051701118284e-17 -1.0055429569224311e-16 -0.46150843075183473 0.8871358229407761
12649378666.666666 -0.45250703303289364 0.8917608339995629 1.7864124539815072e-17 -1.0072227209811459e-16 1.7864124539815072e-17 -1.0072227209811459e-16 -0.45250762137072104 0.8917605354585054
12649996000.0 -0.44345988276428233 0.8962942219932684 1.683173811355443e-17 -1.0087968630952234e-16 1.683173811355443e-17 -1.0087968630952234e-16 -0.4434604740641507 0.8962939294353319
12650613333.333334 -0.4343673210818295 0.9007358271857653 1.5798000560974987e-17 -1.0102652604787367e-16 1.5798000560974987e-17 -1.0102652604787367e-16 -0.4343679152829019 0.9007355406403225
12651230666.666666 -0.4252302790870325 0.9050851947454412 1.4763020119270506e-17 -1.011627801409676e-16 1.4763020119270506e-17 -1.011627801409676e-16 -0.42523087612818167 0.9050849142412483
12651848000.0 -0.41604969243610546 0.9093418792861402 1.3726905112837537e-17 -1.0128843852373212e-16 1.3726905112837537e-17 -1.0128843852373212e-16 -0.4160502922559187 0.9093416048513305
12652465333.333334 -0.4068265012444221 0.9135054449126462 1.2689763942001867e-17 -1.0140349223883462e-16 1.2689763942001867e-17 -1.0140349223883462e-16 -0.4068271037812075 0.9135051765747273
12653082666.666666 -0.39756164999026966 0.9175754652653065 1.16517050716897e-17 -1.0150793343718389e-16 1.16517050716897e-17 -1.0150793343718389e-16 -0.3975622551820642 0.9175752030511612
12653700000.0 -0.38825608741777196 0.9215515235638602 1.0612837020067578e-17 -1.0160175537831911e-16 1.0612837020067578e-17 -1.0160175537831911e-16 -0.3882566952023465 0.9215512674997419
12654317333.333334 -0.37891076644025407 0.9254332126498855 9.573268347276518e-18 -1.0168495243067332e-16 9.573268347276518e-18 -1.0168495243067332e-16 -0.37891137675511993 0.925432962761414
12654934666.666666 -0.3695266440422966 0.9292201350286516 8.533107644067924e-18 -1.0175752007173119e-16 8.533107644067924e-18 -1.0175752007173119e-16 -0.3695272568247123 0.9292198913408127
12655552000.0 -0.36010468118179095 0.9329119029098029 7.492463520484093e-18 -1.0181945488806659e-16 7.492463520484093e-18 -1.0181945488806659e-16 -0.3601052963687681 0.9329116654469439
12656169333.333334 -0.3506458426916642 0.9365081382470101 6.45144459456722e-18 -1.0187075457526373e-16 6.45144459456722e-18 -1.0187075457526373e-16 -0.3506464602199747 0.9365079070328399
12656786666.666666 -0.3411510971809751 0.9400084727767328 5.410159481002475e-18 -1.0191141793772696e-16 5.410159481002475e-18 -1.0191141793772696e-16 -0.341151716987157 0.9400082478343172
12657404000.0 -0.33162141693575004 0.9434125480559147 4.368716779838221e-18 -1.0194144488837051e-16 4.368716779838221e-18 -1.0194144488837051e-16 -0.3316220389561149 0.943412329407676
12658021333.333334 -0.3220577778193937 0.9467200154987019 3.32722506516298e-18 -1.0196083644819627e-16 3.32722506516298e-18 -1.0196083644819627e-16 -0.32205840199003205 0.9467198031664154
12658638666.666666 -0.312461159172918 0.949930536412082 2.2857928738271318e-18 -1.0196959474575427e-16 2.2857928738271318e-18 -1.0196959474575427e-16 -0.3124617854297063 0.9499303304168729
12659256000.0 -0.30283254371427837 0.9530437820306933 1.2445286941120718e-18 -1.0196772301649007e-16 1.2445286941120718e-18 -1.0196772301649007e-16 -0.3028331719928864 0.953043582393038
12659873333.333334 -0.29317291743814616 0.9560594335503593 2.0354095449286688e-19 -1.0195522560197497e-16 2.0354095449286688e-19 -1.0195522560197497e-16 -0.29317354767404236 0.9560592402900797
12660490666.666666 -0.2834832695148318 0.9589771821607697 -8.370619876406393e-19 -1.0193210794902272e-16 -8.370619876406393e-19 -1.0193210794902272e-16 -0.2834839016432906 0.9589769952970331
12661108000.0 -0.273764592188774 0.9617967290771696 -1.8771718572798783e-18 -1.0189837660869077e-16 -1.8771718572798783e-18 -1.0189837660869077e-16 -0.27376522614488275 0.9617965486284873
12661725333.333334 -0.2640178806772043 0.9645177855708758 -2.9166804729850403e-18 -1.0185403923516812e-16 -2.9166804729850403e-18 -1.0185403923516812e-16 -0.2640185163958689 0.9645176115550991
12662342666.666666 -0.2542441330680967 0.9671400729988817 -3.955479758159809e-18 -1.0179910458454661e-16 -3.955479758159809e-18 -1.0179910458454661e-16 -0.25424477048404914 0.9671399054332016
12662960000.0 -0.2444443502179885 0.969663322832381 -4.993461752247092e-18 -1.0173358251348012e-16 -4.993461752247092e-18 -1.0173358251348012e-16 -0.24444498926579392 0.9696631617333281
12663577333.333334 -0.23461953564949156 0.9720872766842724 -6.030518621943021e-18 -1.0165748397772808e-16 -6.030518621943021e-18 -1.0165748397772808e-16 -0.23462017626355386 0.9720871220677123
12664194666.666666 -0.22477069544855496 0.9744116863356072 -7.066542672361512e-18 -1.0157082103058642e-16 -7.066542672361512e-18 -1.0157082103058642e-16 -0.224771337563124 0.9744115382167398
12664812000.0 -0.21489883816132904 0.9766363137610332 -8.101426358208969e-18 -1.0147360682120354e-16 -8.101426358208969e-18 -1.0147360682120354e-16 -0.2148994817105076 0.9766361721543921
12665429333.333334 -0.20500497469102635 0.9787609311531394 -9.135062294927504e-18 -1.0136585559278358e-16 -9.135062294927504e-18 -1.0136585559278358e-16 -0.20500561960877667 0.97876079607259
12666046666.666666 -0.19509011819443023 0.9807853209457773 -1.0167343269799768e-17 -1.0124758268067774e-16 -1.0167343269799768e-17 -1.0124758268067774e-16 -0.19509076441458106 0.9807851924045158
12666664000.0 -0.18515528397786757 0.9827092758364012 -1.1198162253092026e-17 -1.0111880451035695e-16 -1.1198162253092026e-17 -1.0111880451035695e-16 -0.18515593143412046 0.9827091538469517
12667281333.333334 -0.17520148939365582 0.9845325988072074 -1.2227412409073137e-17 -1.0097953859528207e-16 -1.2227412409073137e-17 -1.0097953859528207e-16 -0.17520213801959234 0.9845324833814229
12667898666.666666 -0.16522975373553336 0.9862551031453893 -1.3254987107103959e-17 -1.0082980353465174e-16 -1.3254987107103959e-17 -1.0082980353465174e-16 -0.1652304034646221 0.9862549942944505
12668516000.0 -0.1552410981344491 0.9878766124622246 -1.4280779932672163e-17 -1.0066961901103996e-16 -1.4280779932672163e-17 -1.0066961901103996e-16 -0.15524174890005144 0.9878765101966347
12669133333.333334 -0.14523654545413478 0.9893969607111079 -1.53046846983489e-17 -1.004990057879304e-16 -1.53046846983489e-17 -1.004990057879304e-16 -0.14523719718951325 0.9893968650406988
12669750666.666666 -0.13521712018613913 0.990815992204605 -1.632659545480034e-17 -1.0031798570712592e-16 -1.632659545480034e-17 -1.0031798570712592e-16 -0.13521777282446304 0.99081590313853
12670368000.0 -0.1251838483449152 0.9921335616303817 -1.7346406501715994e-17 -1.0012658168605608e-16 -1.7346406501715994e-17 -1.0012658168605608e-16 -0.12518450181926796 0.9921334791771168
