! Parameters = {f0=12700.012000; bw=77.238000; Q=6100.000000; N=10; m_0_1=1.285981; m_1_1=0.524969; m_1_2=1.120793; m_2_2=0.524320; m_2_3=0.757756; m_2_8=0.001363; m_2_9=0.038067; m_3_3=0.522383; m_3_4=0.646285; m_3_7=0.001963; m_3_8=-0.095125; m_3_9=0.001363; m_4_4=0.519458; m_4_5=0.482620; m_4_6=0.005480; m_4_7=-0.115674; m_4_8=0.001963; m_5_5=0.519840; m_5_6=0.889975; m_5_7=0.005480; m_6_6=0.519839; m_6_7=0.482962; m_7_7=0.519472; m_7_8=0.646403; m_8_8=0.522381; m_8_9=0.758069; m_9_9=0.524315; m_9_10=1.121871; m_10_10=0.524959; m_10_11=1.286776}
!
! Created with skrf (http://scikit-rf.org).
# Hz S RI R 50.0 
!freq ReS11 ImS11 ReS21 ImS21 ReS12 ImS12 ReS22 ImS22
12607400000.0 -0.859704096636782 -0.5107923905323521 1.1553888689713209e-16 2.926785110008797e-17 1.1553888689713209e-16 2.926785110008797e-17 -0.8597037505738563 -0.5107929729832468
12608017333.333334 -0.8652683754795245 -0.5013089251099002 1.158335027772031e-16 2.797995763620065e-17 1.158335027772031e-16 2.797995763620065e-17 -0.8652680358582908 -0.501309511301905
12608634666.666666 -0.8707280456972439 -0.4917648527864495 1.161137719643411e-16 2.668913088563784e-17 1.161137719643411e-16 2.668913088563784e-17 -0.8707277125581276 -0.4917654426483318
12609252000.0 -0.8760824472305132 -0.48216132741481266 1.1637966564832044e-16 2.5395530563551767e-17 1.1637966564832044e-16 2.5395530563551767e-17 -0.8760821206131542 -0.48216192087490445
12609869333.333334 -0.8813309327466796 -0.47249951003539287 1.1663115679582661e-16 2.4099316663187207e-17 1.1663115679582661e-16 2.4099316663187207e-17 -0.8813306126899243 -0.4725001070215974
12610486666.666666 -0.8864728677179441 -0.46278056873613804 1.168682201530717e-16 2.28006494361682e-17 1.168682201530717e-16 2.28006494361682e-17 -0.8864725542598423 -0.4627811691759397
12611104000.0 -0.89150763049833 -0.4530056785108476 1.170908322482109e-16 2.1499689372654333e-17 1.170908322482109e-16 2.1499689372654333e-17 -0.8915073236761297 -0.45300628233132006
12611721333.333334 -0.8964346123985443 -0.44317602111767046 1.172989713935135e-16 2.019659718161196e-17 1.172989713935135e-16 2.019659718161196e-17 -0.896434312248689 -0.44317662824548665
12612338666.666666 -0.9012532177598103 -0.43329278493578327 1.1749261768733843e-16 1.8891533770936493e-17 1.1749261768733843e-16 1.8891533770936493e-17 -0.9012529243179318 -0.43329339529722233
12612956000.0 -0.9059628640257661 -0.42335716482191543 1.1767175301587586e-16 1.7584660227624418e-17 1.1767175301587586e-16 1.7584660227624418e-17 -0.9059625773266823 -0.42335777834287364
12613573333.333334 -0.9105629818128897 -0.4133703619659242 1.178363610546665e-16 1.6276137797961486e-17 1.178363610546665e-16 1.6276137797961486e-17 -0.9105627018906002 -0.41337097857192284
12614190666.666666 -0.9150530149793584 -0.4033335837455209 1.179864272699139e-16 1.4966127867602002e-17 1.179864272699139e-16 1.4966127867602002e-17 -0.9150527418670406 -0.4033342033617159
12614808000.0 -0.9194324206923221 -0.3932480435802261 1.1812193891956223e-16 1.3654791941739186e-17 1.1812193891956223e-16 1.3654791941739186e-17 -0.9194321544223265 -0.39324866613141657
12615425333.333334 -0.9237006694934469 -0.38311496078485063 1.1824288505416368e-16 1.2342291625194991e-17 1.1824288505416368e-16 1.2342291625194991e-17 -0.9237004100972925 -0.3831155861954879
12616042666.666666 -0.9278572453630144 -0.3729355604218751 1.183492565175178e-16 1.1028788602562351e-17 1.183492565175178e-16 1.1028788602562351e-17 -0.9278569928713886 -0.3729361886160729
12616660000.0 -0.9319016457822242 -0.3627110731535544 1.1844104594709757e-16 9.714444618291884e-18 1.1844104594709757e-16 9.714444618291884e-18 -0.9319014002249739 -0.3627117040550967
12617277333.333334 -0.9358333817940354 -0.3524427350928941 1.1851824777424855e-16 8.399421456829266e-18 1.1851824777424855e-16 8.399421456829266e-18 -0.9358331432001691 -0.3524433686252457
12617894666.666666 -0.9396519780621536 -0.3421317876545547 1.1858085822417245e-16 7.083880922721998e-18 1.1858085822417245e-16 7.083880922721998e-18 -0.9396517464598342 -0.3421324237408698
12618512000.0 -0.9433569729286865 -0.33177947740426206 1.1862887531568818e-16 5.767984820731313e-18 1.1862887531568818e-16 5.767984820731313e-18 -0.9433567483452279 -0.33178011596739315
12619129333.333334 -0.9469479184697359 -0.321387055908686 1.186622988607734e-16 4.451894935982338e-18 1.186622988607734e-16 4.451894935982338e-18 -0.9469477009316029 -0.3213876968711943
12619746666.666666 -0.9504243805497243 -0.3109557795836776 1.1868113046388527e-16 3.135773014097309e-18 1.1868113046388527e-16 3.135773014097309e-18 -0.9504241700825247 -0.3109564228678411
12620364000.0 -0.9537859388738371 -0.30048690954244806 1.1868537352106298e-16 1.8197807413246604e-18 1.1868537352106298e-16 1.8197807413246604e-18 -0.9537857355023237 -0.30048755507027236
12620981333.333334 -0.9570321870387509 -0.289981711443404 1.186750332188093e-16 5.040797247472204e-19 1.186750332188093e-16 5.040797247472204e-19 -0.9570319907868147 -0.2899823591366307
12621598666.666666 -0.9601627325818615 -0.2794414553368057 1.1865011653275296e-16 -8.111685275562364e-19 1.1865011653275296e-16 -8.111685275562364e-19 -0.9601625434725323 -0.2794421051169227
12622216000.0 -0.9631771970287217 -0.26886741551127774 1.1861063222609216e-16 -2.1258026263126117e-18 1.1861063222609216e-16 -2.1258026263126117e-18 -0.9631770150841622 -0.26886806729952806
12622833333.333334 -0.9660752159387508 -0.2582608703398848 1.1855659084781945e-16 -3.439661320806827e-18 1.1855659084781945e-16 -3.439661320806827e-18 -0.9660750411802557 -0.2582615240572763
12623450666.666666 -0.9688564389493304 -0.24762310212547237 1.1848800473072738e-16 -4.7525835186431305e-18 1.1848800473072738e-16 -4.7525835186431305e-18 -0.9688562713973233 -0.24762375769278752
12624068000.0 -0.9715205298181377 -0.236955396945721 1.184048879891967e-16 -6.064408305455658e-18 1.184048879891967e-16 -6.064408305455658e-18 -0.9715203694921699 -0.2369560542835265
12624685333.333334 -0.9740671664638618 -0.22625904449741596 1.1830725651676433e-16 -7.37497496462979e-18 1.1830725651676433e-16 -7.37497496462979e-18 -0.974067013382608 -0.2262597035260721
12625302666.666666 -0.9764960410050155 -0.21553533794102195 1.1819512798347955e-16 -8.68412299690072e-18 1.1819512798347955e-16 -8.68412299690072e-18 -0.9764958951862744 -0.2155359985806927
12625920000.0 -0.9788068597973146 -0.20478557374370884 1.1806852183303401e-16 -9.991692140055485e-18 1.1806852183303401e-16 -9.991692140055485e-18 -0.9788067212580036 -0.2047862359143708
12626537333.333334 -0.9809993434690331 -0.19401105152322035 1.1792745927968577e-16 -1.129752238844702e-17 1.1792745927968577e-16 -1.129752238844702e-17 -0.9809992122251896 -0.1940117151446733
12627154666.666666 -0.9830732269548708 -0.18321307389036687 1.1777196330495838e-16 -1.2601454012589986e-17 1.1777196330495838e-16 -1.2601454012589986e-17 -0.9830731030216469 -0.18321373888224263
12627772000.0 -0.9850282595279803 -0.17239294629159724 1.1760205865412698e-16 -1.3903327578661154e-17 1.1760205865412698e-16 -1.3903327578661154e-17 -0.9850281429196442 -0.1723936125733702
12628389333.333334 -0.9868642048302464 -0.16155197685137018 1.1741777183249386e-16 -1.520298396793946e-17 1.1741777183249386e-16 -1.520298396793946e-17 -0.9868640955601782 -0.16155264434236632
12629006666.666666 -0.9885808409009172 -0.15069147621366918 1.17219131101439e-16 -1.650026439626292e-17 1.17219131101439e-16 -1.650026439626292e-17 -0.9885807389816103 -0.1506921448330765
12629624000.0 -0.9901779602033762 -0.13981275738394194 1.1700616647427003e-16 -1.779501043335037e-17 1.1700616647427003e-16 -1.779501043335037e-17 -0.9901778656464326 -0.13981342705081973
12630241333.333334 -0.9916553696502876 -0.12891713556999645 1.1677890971184479e-16 -1.9087064022162027e-17 1.1677890971184479e-16 -1.9087064022162027e-17 -0.9916552824664185 -0.12891780620328536
12630858666.666666 -0.9930128906268836 -0.11800592802338945 1.165373943179958e-16 -2.0376267498116953e-17 1.165373943179958e-16 -2.0376267498116953e-17 -0.9930128108259089 -0.11800659954192128
12631476000.0 -0.994250359012634 -0.10708045387963985 1.1628165553472292e-16 -2.1662463608364185e-17 1.1628165553472292e-16 -2.1662463608364185e-17 -0.9942502866034789 -0.1070811262021472
12632093333.333334 -0.9953676252010086 -0.0961420339993115 1.1601173033719913e-16 -2.2945495530863406e-17 1.1601173033719913e-16 -2.2945495530863406e-17 -0.9953675601917051 -0.09614270704443786
12632710666.666666 -0.9963645541176067 -0.0851919908080722 1.1572765742854368e-16 -2.422520689352106e-17 1.1572765742854368e-16 -2.422520689352106e-17 -0.9963644965152899 -0.08519266449438152
12633328000.0 -0.997241025236498 -0.07423164813661699 1.1542947723439542e-16 -2.5501441793207358e-17 1.1542947723439542e-16 -2.5501441793207358e-17 -0.9972409750474083 -0.07423232238260376
12633945333.333334 -0.9979969325947642 -0.06326233106093189 1.1511723189727565e-16 -2.677404481471507e-17 1.1511723189727565e-16 -2.677404481471507e-17 -0.9979968898242435 -0.0632630057850308
12634562666.666666 -0.9986321848053176 -0.05228536574203941 1.1479096527074484e-16 -2.80428610496445e-17 1.1479096527074484e-16 -2.80428610496445e-17 -0.9986321494578123 -0.05228604086263546
12635180000.0 -0.9991467050679629 -0.041302079265499225 1.1445072291334251e-16 -2.930773611525141e-17 1.1445072291334251e-16 -2.930773611525141e-17 -0.9991466771470211 -0.04130275470093739
12635797333.333334 -0.9995404311786673 -0.030313799481137032 1.140965520823319e-16 -3.056851617317735e-17 1.140965520823319e-16 -3.056851617317735e-17 -0.9995404106869398 -0.030314475149732237
12636414666.666666 -0.9998133155370879 -0.019321854842539798 1.137285017272299e-16 -3.1825047948141874e-17 1.137285017272299e-16 -3.1825047948141874e-17 -0.999813302476324 -0.01932253066258668
12637032000.0 -0.9999653251523247 -0.008327574246193362 1.1334662248313593e-16 -3.307717874653848e-17 1.1334662248313593e-16 -3.307717874653848e-17 -0.9999653195233784 -0.00832825013597631
12637649333.333334 -0.9999964416469102 0.0026677131288648493 1.129509666638527e-16 -3.432475647496838e-17 1.129509666638527e-16 -3.432475647496838e-17 -0.9999964434497359 0.002667037251061913
12638266666.666666 -0.9999066612590303 0.01366267798196742 1.125415882548077e-16 -3.5567629658676865e-17 1.125415882548077e-16 -3.5567629658676865e-17 -0.9999066704926844 0.013662002197851148
12638884000.0 -0.9996959948429788 0.02465599105144057 1.1211854290577324e-16 -3.6805647459903564e-17 1.1211854290577324e-16 -3.6805647459903564e-17 -0.9996960115056179 0.02465531544269828
12639501333.333334 -0.9993644678678419 0.035646323275279786 1.1168188792337453e-16 -3.8038659696182485e-17 1.1168188792337453e-16 -3.8038659696182485e-17 -0.9993644919567276 0.035645647923569675
12640118666.666666 -0.9989121204144336 0.04663234595171646 1.1123168226342017e-16 -3.926651685848441e-17 1.1123168226342017e-16 -3.926651685848441e-17 -0.998912151925928 0.04663167093865764
12640736000.0 -0.9983390071704199 0.0576127309003938 1.1076798652299034e-16 -4.04890701293896e-17 1.1076798652299034e-16 -4.04890701293896e-17 -0.9983390460999881 0.057612056307556433
12641353333.333334 -0.9976451974237475 0.06858615062205996 1.1029086293239149e-16 -4.1706171400992276e-17 1.1029086293239149e-16 -4.1706171400992276e-17 -0.9976452437659601 0.06858547653095556
12641970666.666666 -0.9968307750542305 0.07955127845988265 1.0980037534684234e-16 -4.291767329290249e-17 1.0980037534684234e-16 -4.291767329290249e-17 -0.9968308288027601 0.07955060495195401
12642588000.0 -0.9958958385234342 0.09050678875932737 1.0929658923801869e-16 -4.4123429170004326e-17 1.0929658923801869e-16 -4.4123429170004326e-17 -0.9958958996710601 0.09050611591593888
12643205333.333334 -0.9948405008627588 0.10145135702865246 1.0877957168537293e-16 -4.5323293160197157e-17 1.0877957168537293e-16 -4.5323293160197157e-17 -0.9948405694013662 0.10145068493108018
12643822666.666666 -0.9936648896597677 0.11238366009906467 1.0824939136726617e-16 -4.651712017201387e-17 1.0824939136726617e-16 -4.651712017201387e-17 -0.9936649655803489 0.11238298882848657
12644440000.0 -0.9923691470427856 0.12330237628446032 1.077061185519196e-16 -4.7704765912112264e-17 1.077061185519196e-16 -4.7704765912112264e-17 -0.9923692303354419 0.12330170592194657
12645057333.333334 -0.9909534296636932 0.13420618554144007 1.071498250881607e-16 -4.888608690269229e-17 1.071498250881607e-16 -4.888608690269229e-17 -0.9909535203176362 0.13420551616794313
12645674666.666666 -0.9894179086790178 0.14509376962867299 1.0658058439598019e-16 -5.0060940498803287e-17 1.0658058439598019e-16 -5.0060940498803287e-17 -0.9894180066825687 0.14509310132501768
12646292000.0 -0.9877627697291796 0.15596381226669045 1.0599847145689432e-16 -5.1229184905550714e-17 1.0599847145689432e-16 -5.1229184905550714e-17 -0.9877628750697734 0.1559631451135646
12646909333.333334 -0.9859882129161293 0.16681499929645807 1.0540356280414953e-16 -5.2390679195132035e-17 1.0540356280414953e-16 -5.2390679195132035e-17 -0.985988325580315 0.16681433337440243
12647526666.666666 -0.984094452779106 0.17764601883862013 1.0479593651270069e-16 -5.3545283323840774e-17 1.0479593651270069e-16 -5.3545283323840774e-17 -0.9840945727525485 0.17764535422801878
12648144000.0 -0.9820817182686904 0.18845556145212955 1.0417567218901899e-16 -5.4692858148921595e-17 1.0417567218901899e-16 -5.4692858148921595e-17 -0.9820818455361722 0.18845489823320008
12648761333.333334 -0.9799502527191497 0.19924232029238675 1.0354285096072766e-16 -5.58332654452881e-17 1.0354285096072766e-16 -5.58332654452881e-17 -0.9799503872645742 0.19924165854517098
12649378666.666666 -0.9777003138190475 0.21000499126915229 1.0289755546605053e-16 -5.69663679221303e-17 1.0289755546605053e-16 -5.69663679221303e-17 -0.9777004556254378 0.21000433107350597
12649996000.0 -0.9753321735800129 0.22074227320454048 1.0223986984305455e-16 -5.809202923944475e-17 1.0223986984305455e-16 -5.809202923944475e-17 -0.9753323226295181 0.2207416146401243
12650613333.333334 -0.9728461183039179 0.23145286799005074 1.0156987971874986e-16 -5.921011402437413e-17 1.0156987971874986e-16 -5.921011402437413e-17 -0.972846274577812 0.23145221113632022
12651230666.666666 -0.9702424485482717 0.24213548074347832 1.0088767219798713e-16 -6.03204878874658e-17 1.0088767219798713e-16 -6.03204878874658e-17 -0.9702426120269578 0.24213482567967456
12651848000.0 -0.967521479089804 0.25278881996579333 1.001933358521799e-16 -6.142301743879678e-17 1.001933358521799e-16 -6.142301743879678e-17 -0.9675216497528157 0.25278816677093324
12652465333.333334 -0.9646835388864824 0.26341159769697553 9.948696070785768e-17 -6.251757030396167e-17 9.948696070785768e-17 -6.251757030396167e-17 -0.9646837167124875 0.2634109464498425
12653082666.666666 -0.9617289710377667 0.2740025296716438 9.876863823505638e-17 -6.360401513990958e-17 9.876863823505638e-17 -6.360401513990958e-17 -0.9617291560045678 0.2740018804507778
12653700000.0 -0.9586581327430008 0.2845603354747858 9.803846133549003e-17 -6.468222165072159e-17 9.803846133549003e-17 -6.468222165072159e-17 -0.9586583248275417 0.2845596883584746
12654317333.333334 -0.9554713952584016 0.29508373869595594 9.729652433062335e-17 -6.575206060314128e-17 9.729652433062335e-17 -6.575206060314128e-17 -0.9554715944367652 0.29508309376222486
12654934666.666666 -0.9521691438520272 0.30557146708408034 9.654292294950394e-17 -6.681340384207778e-17 9.654292294950394e-17 -6.681340384207778e-17 -0.9521693500994431 0.30557082441068345
12655552000.0 -0.9487517777572662 0.31602225270105033 9.577775431646183e-17 -6.786612430591409e-17 9.577775431646183e-17 -6.786612430591409e-17 -0.9487519910481111 0.3160216123654609
12656169333.333334 -0.9452197101245804 0.3264348320749867 9.500111693866165e-17 -6.891009604165151e-17 9.500111693866165e-17 -6.891009604165151e-17 -0.9452199304323817 0.32643419415438746
12656786666.666666 -0.9415733679715385 0.33680794635304345 9.421311069343307e-17 -6.994519421999068e-17 9.421311069343307e-17 -6.994519421999068e-17 -0.9415735952689787 0.33680731092431815
12657404000.0 -0.9378131921311634 0.34714034145368117 9.34138368154963e-17 -7.097129515018738e-17 9.34138368154963e-17 -7.097129515018738e-17 -0.9378134263900825 0.3471397085934045
12658021333.333334 -0.9339396371986922 0.3574307682181198 9.26033978839809e-17 -7.198827629482475e-17 9.26033978839809e-17 -7.198827629482475e-17 -0.933939878390092 0.357430138002549
12658638666.666666 -0.9299531714765906 0.3676779825614409 9.178189780933054e-17 -7.299601628437696e-17 9.178189780933054e-17 -7.299601628437696e-17 -0.9299534195706359 0.3676773550665053
12659256000.0 -0.9258542769179128 0.37788074562304547 9.094944181998634e-17 -7.399439493170537e-17 9.094944181998634e-17 -7.399439493170537e-17 -0.9258545318839386 0.3778801209243387
12659873333.333334 -0.9216434490680455 0.3880378239164027 9.010613644898535e-17 -7.498329324631222e-17 9.010613644898535e-17 -7.498329324631222e-17 -0.9216437108745588 0.3880372020891728
12660490666.666666 -0.917321197004885 0.39814798947796454 8.925208952035504e-17 -7.596259344850485e-17 8.925208952035504e-17 -7.596259344850485e-17 -0.917321465619568 0.398147370597105
12661108000.0 -0.9128880432770924 0.4082100200160961 8.838741013535304e-17 -7.693217898340435e-17 8.838741013535304e-17 -7.693217898340435e-17 -0.9128883186668084 0.4082094041561371
12661725333.333334 -0.9083445238411658 0.41822269905827136 8.751220865860604e-17 -7.789193453474112e-17 8.751220865860604e-17 -7.789193453474112e-17 -0.9083448059719617 0.41822208629337043
12662342666.666666 -0.9036911879964287 0.4281848160986375 8.662659670403557e-17 -7.884174603856558e-17 8.662659670403557e-17 -7.884174603856558e-17 -0.9036914768335398 0.4281842065025708
12662960000.0 -0.8989285983187694 0.43809516674402305 8.573068712067087e-17 -7.978150069675976e-17 8.573068712067087e-17 -7.978150069675976e-17 -0.8989288938266244 0.43809456039017675
12663577333.333334 -0.8940573305925229 0.4479525528597788 8.482459397831095e-17 -8.071108699039272e-17 8.482459397831095e-17 -8.071108699039272e-17 -0.8940576327347469 0.44795194982113967
12664194666.666666 -0.8890779737409564 0.45775578271442413 8.390843255304779e-17 -8.163039469290994e-17 8.390843255304779e-17 -8.163039469290994e-17 -0.8890782824803769 0.45775518306357144
12664812000.0 -0.8839911297549717 0.46750367112392827 8.298231931262345e-17 -8.253931488318207e-17 8.298231931262345e-17 -8.253931488318207e-17 -0.8839914450536205 0.467503074933024
12665429333.333334 -0.8787974136204104 0.4771950395948162 8.204637190167887e-17 -8.3437739958355e-17 8.204637190167887e-17 -8.3437739958355e-17 -0.878797735439532 0.47719444693559776
12666046666.666666 -0.8734974532436726 0.48682871646672454 8.110070912684154e-17 -8.432556364655743e-17 8.110070912684154e-17 -8.432556364655743e-17 -0.8734977815437261 0.4868281274104951
12666664000.0 -0.8680918893757584 0.4964035370541247 8.014545094167476e-17 -8.520268101943885e-17 8.014545094167476e-17 -8.520268101943885e-17 -0.8680922241164241 0.49640295167174514
12667281333.333334 -0.8625813755348868 0.5059183437869814 7.918071843151483e-17 -8.6068988504518e-17 7.918071843151483e-17 -8.6068988504518e-17 -0.8625817166750689 0.505917762148861
12667898666.666666 -0.8569665779274608 0.5153719863507505 7.820663379815523e-17 -8.692438389737759e-17 7.820663379815523e-17 -8.692438389737759e-17 -0.8569669254252944 0.515371408526839
12668516000.0 -0.8512481753674056 0.5247633218256423 7.722332034438485e-17 -8.776876637370003e-17 7.722332034438485e-17 -8.776876637370003e-17 -0.8512485291802628 0.5247627478854231
12669133333.333334 -0.8454268591943552 0.5340912148243863 7.623090245845911e-17 -8.860203650107333e-17 7.623090245845911e-17 -8.860203650107333e-17 -0.8454272192788467 0.5340906448368644
12669750666.666666 -0.8395033331898006 0.5433545376299302 7.522950559835942e-17 -8.942409625069671e-17 7.522950559835942e-17 -8.942409625069671e-17 -0.8395036995017846 0.5433539716636275
