! Parameters = {f0=12700.012000; bw=77.238000; Q=6100.000000; N=10; m_0_1=1.227723; m_1_1=-0.348905; m_1_2=1.062535; m_2_2=-0.349554; m_2_3=0.699498; m_2_8=-0.001550; m_2_9=0.035154; m_3_3=-0.351491; m_3_4=0.588027; m_3_7=-0.000950; m_3_8=-0.098038; m_3_9=-0.001550; m_4_4=-0.354416; m_4_5=0.424362; m_4_6=0.002567; m_4_7=-0.118587; m_4_8=-0.000950; m_5_5=-0.354034; m_5_6=0.831717; m_5_7=0.002567; m_6_6=-0.354035; m_6_7=0.424704; m_7_7=-0.354402; m_7_8=0.588145; m_8_8=-0.351493; m_8_9=0.699811; m_9_9=-0.349559; m_9_10=1.063613; m_10_10=-0.348915; m_10_11=1.228518}
!
! Created with skrf (http://scikit-rf.org).
# Hz S RI R 50.0 
!freq ReS11 ImS11 ReS21 ImS21 ReS12 ImS12 ReS22 ImS22
12607400000.0 0.3859598955404945 0.9225155603209114 -5.70304632172171e-17 -6.991367665512263e-17 -5.70304632172171e-17 -6.991367665512263e-17 0.3859592987538181 0.9225158100028943
12608017333.333334 0.39449777562712796 0.9188968957533179 -5.767117566368307e-17 -6.93631249869642e-17 -5.767117566368307e-17 -6.93631249869642e-17 0.39449718121051564 0.9188971509460632
12608634666.666666 0.40300173279670587 0.915199215123509 -5.830658203927055e-17 -6.880670896243226e-17 -5.830658203927055e-17 -6.880670896243226e-17 0.40300114080103766 0.9151994758045355
12609252000.0 0.4114710357929029 0.9114228363955724 -5.893662873827084e-17 -6.824447964011637e-17 -5.893662873827084e-17 -6.824447964011637e-17 0.41147044626884477 0.9114231025419273
12609869333.333334 0.4199049563392586 0.9075680843008755 -5.956126264556698e-17 -6.767648856794375e-17 -5.956126264556698e-17 -6.767648856794375e-17 0.4199043693372591 0.9075683558891382
12610486666.666666 0.42830276920185484 0.9036352903101218 -6.018043114107928e-17 -6.710278777848609e-17 -6.018043114107928e-17 -6.710278777848609e-17 0.4283021847721412 0.9036355673164075
12611104000.0 0.43666375225175696 0.8996247926048128 -6.079408210421516e-17 -6.65234297841811e-17 -6.079408210421516e-17 -6.65234297841811e-17 0.43666317044432973 0.8996250750047715
12611721333.333334 0.4449871865269534 0.8955369360482357 -6.140216391819713e-17 -6.593846757258229e-17 -6.140216391819713e-17 -6.593846757258229e-17 0.4449866073915836 0.895537223817058
12612338666.666666 0.45327235629423357 0.8913720721557913 -6.200462547441947e-17 -6.534795460150227e-17 -6.200462547441947e-17 -6.534795460150227e-17 0.4532717798804566 0.8913723652682067
12612956000.0 0.4615185491109095 0.8871305590646721 -6.260141617671993e-17 -6.475194479415055e-17 -6.260141617671993e-17 -6.475194479415055e-17 0.4615179754680225 0.8871308574949541
12613573333.333334 0.46972505588577423 0.8828127615032205 -6.319248594558944e-17 -6.415049253424948e-17 -6.319248594558944e-17 -6.415049253424948e-17 0.4697244850628314 0.8828130652251881
12614190666.666666 0.47789117094025646 0.8784190507594802 -6.37777852223859e-17 -6.354365266106149e-17 -6.37777852223859e-17 -6.354365266106149e-17 0.4778906029860645 0.8784193597464998
12614808000.0 0.4860161920691497 0.8739498046492371 -6.43572649734567e-17 -6.293148046442116e-17 -6.43572649734567e-17 -6.293148046442116e-17 0.48601562703226353 0.8739501188742239
12615425333.333334 0.49409942060081985 0.8694054074836259 -6.493087669422484e-17 -6.231403167971933e-17 -6.493087669422484e-17 -6.231403167971933e-17 0.4940988585295397 0.8694057269190495
12616042666.666666 0.5021401614574602 0.8647862500359903 -6.549857241324334e-17 -6.169136248283377e-17 -6.549857241324334e-17 -6.169136248283377e-17 0.5021396023998259 0.8647865746538734
12616660000.0 0.5101377232147848 0.8600927295083189 -6.606030469617422e-17 -6.106352948505047e-17 -6.606030469617422e-17 -6.106352948505047e-17 0.5101371672185723 0.8600930592802415
12617277333.333334 0.5180914181614356 0.855325249497118 -6.661602664974767e-17 -6.043058972791942e-17 -6.661602664974767e-17 -6.043058972791942e-17 0.5180908652741534 0.8553255843942202
12617894666.666666 0.5260005623581688 0.8504842199586807 -6.716569192564397e-17 -5.979260067810462e-17 -6.716569192564397e-17 -5.979260067810462e-17 0.5260000126270528 0.8504845599516638
12618512000.0 0.5338644756967386 0.8455700571737876 -6.770925472435365e-17 -5.914962022216834e-17 -6.770925472435365e-17 -5.914962022216834e-17 0.5338639291687489 0.8455704022329187
12619129333.333334 0.5416824819582348 0.8405831837120007 -6.824666979896154e-17 -5.850170666135185e-17 -6.824666979896154e-17 -5.850170666135185e-17 0.541681938680052 0.8405835338071137
12619746666.666666 0.5494539088712799 0.835524028395298 -6.877789245890532e-17 -5.784891870629228e-17 -6.877789245890532e-17 -5.784891870629228e-17 0.5494533688893005 0.8355243834957976
12620364000.0 0.5571780881700052 0.8303930262610915 -6.930287857366742e-17 -5.719131547172526e-17 -6.930287857366742e-17 -5.719131547172526e-17 0.5571775515303375 0.8303933863359537
12620981333.333334 0.5648543556512274 0.8251906185250001 -6.982158457641891e-17 -5.65289564711528e-17 -6.982158457641891e-17 -5.65289564711528e-17 0.564853822399688 0.8251909835427773
12621598666.666666 0.5724820512317328 0.8199172525428065 -7.03339674676179e-17 -5.586190161146991e-17 -7.03339674676179e-17 -5.586190161146991e-17 0.5724815214138417 0.8199176224716282
12622216000.0 0.5800605190050805 0.8145733817719506 -7.083998481855765e-17 -5.519021118755892e-17 -7.083998481855765e-17 -5.519021118755892e-17 0.5800599926660596 0.8145737565795288
12622833333.333334 0.5875891072978683 0.8091594657326387 -7.133959477485811e-17 -5.4513945876858193e-17 -7.133959477485811e-17 -5.4513945876858193e-17 0.587588584482635 0.8091598453862678
12623450666.666666 0.5950671687258371 0.8036759699682777 -7.183275605989683e-17 -5.383316673391138e-17 -7.183275605989683e-17 -5.383316673391138e-17 0.5950666494790008 0.8036763544348382
12624068000.0 0.6024940602495858 0.7981233660054091 -7.231942797821699e-17 -5.3147935184847305e-17 -7.231942797821699e-17 -5.3147935184847305e-17 0.6024935446154458 0.7981237552513717
12624685333.333334 0.6098691432298211 0.7925021313131972 -7.279957041885394e-17 -5.2458313021867975e-17 -7.279957041885394e-17 -5.2458313021867975e-17 0.6098686312523612 0.7925025253046247
12625302666.666666 0.617191783482205 0.7868127492624216 -7.327314385861622e-17 -5.176436239769918e-17 -7.327314385861622e-17 -5.176436239769918e-17 0.6171912752050909 0.7868131479649725
12625920000.0 0.624461351332049 0.7810557090837932 -7.374010936533495e-17 -5.106614581997971e-17 -7.374010936533495e-17 -5.106614581997971e-17 0.6244608467986229 0.7810561124627237
12626537333.333334 0.6316772216682985 0.7752315058260042 -7.420042860101821e-17 -5.036372614568272e-17 -7.420042860101821e-17 -5.036372614568272e-17 0.6316767209215775 0.7752319138461722
12627154666.666666 0.6388387739973587 0.7693406403131107 -7.46540638249949e-17 -4.96571665754481e-17 -7.46540638249949e-17 -4.96571665754481e-17 0.6388382770800293 0.769341052938978
12627772000.0 0.645945392496512 0.7633836191014077 -7.510097789699029e-17 -4.894653064790496e-17 -7.510097789699029e-17 -4.894653064790496e-17 0.6459448994509276 0.7633840362970443
12628389333.333334 0.6529964660667217 0.7573609544360002 -7.554113428012171e-17 -4.823188223401031e-17 -7.554113428012171e-17 -4.823188223401031e-17 0.652995976934899 0.7573613761650863
12629006666.666666 0.6599913883853329 0.7512731642066263 -7.597449704389271e-17 -4.751328553127677e-17 -7.597449704389271e-17 -4.751328553127677e-17 0.6599909032089476 0.7512735904324557
12629624000.0 0.6669295579581449 0.7451207719031793 -7.640103086707802e-17 -4.6790805058062457e-17 -7.640103086707802e-17 -4.6790805058062457e-17 0.6669290767785285 0.7451212025886631
12630241333.333334 0.6738103781710895 0.738904306570729 -7.682070104059648e-17 -4.6064505647765687e-17 -7.682070104059648e-17 -4.6064505647765687e-17 0.6738099010292262 0.7389047416783984
12630858666.666666 0.6806332573415586 0.7326243027640124 -7.723347347030041e-17 -4.53344524430422e-17 -7.723347347030041e-17 -4.53344524430422e-17 0.6806327842780813 0.7326247422560218
12631476000.0 0.6873976087694488 0.7262813005013129 -7.763931467973168e-17 -4.460071088996031e-17 -7.763931467973168e-17 -4.460071088996031e-17 0.6873971398246358 0.7262817443394443
12632093333.333334 0.6941028507872785 0.7198758452183331 -7.803819181280538e-17 -4.386334673216272e-17 -7.803819181280538e-17 -4.386334673216272e-17 0.6941023860010487 0.7198762933639965
12632710666.666666 0.7007484068104736 0.7134084877210383 -7.8430072636443e-17 -4.312242600499576e-17 -7.8430072636443e-17 -4.312242600499576e-17 0.7007479462223868 0.7134089401352793
12633328000.0 0.7073337053868907 0.7068797841383556 -7.881492554316672e-17 -4.2378015029583946e-17 -7.881492554316672e-17 -4.2378015029583946e-17 0.7073332490361397 0.7068802407818553
12633945333.333334 0.7138581802459086 0.7002902958743861 -7.919271955360917e-17 -4.163018040693558e-17 -7.919271955360917e-17 -4.163018040693558e-17 0.7138577281713203 0.7002907567074673
12634562666.666666 0.7203212703471701 0.6936405895600952 -7.956342431898409e-17 -4.087898901199488e-17 -7.956342431898409e-17 -4.087898901199488e-17 0.720320822587197 0.6936410545427217
12635180000.0 0.7267224199287372 0.6869312370046625 -7.992701012350407e-17 -4.0124507987665554e-17 -7.992701012350407e-17 -4.0124507987665554e-17 0.7267219765214605 0.6869317060964487
12635797333.333334 0.7330610785550485 0.6801628151461563 -8.028344788673384e-17 -3.9366804738829023e-17 -8.028344788673384e-17 -3.9366804738829023e-17 0.7330606395381689 0.6801632883063641
12636414666.666666 0.7393367011640106 0.6733359060021633 -8.063270916588144e-17 -3.860594692635358e-17 -8.063270916588144e-17 -3.860594692635358e-17 0.7393362665748483 0.6733363831897105
12637032000.0 0.7455487481141412 0.6664510966194542 -8.0974766158055e-17 -3.784200246103768e-17 -8.0974766158055e-17 -3.784200246103768e-17 0.7455483179896317 0.6664515777929155
12637649333.333334 0.7516966852307418 0.6595089790237518 -8.130959170243474e-17 -3.7075039497590984e-17 -8.130959170243474e-17 -3.7075039497590984e-17 0.7516962596074342 0.6595094641413639
12638266666.666666 0.7577799838519846 0.6525101501686557 -8.163715928241027e-17 -3.630512642855059e-17 -8.163715928241027e-17 -3.630512642855059e-17 0.7577795627660365 0.6525106391883201
12638884000.0 0.7637981208743151 0.6454552118843733 -8.195744302764802e-17 -3.553233187820388e-17 -8.195744302764802e-17 -3.553233187820388e-17 0.7637977043614907 0.6454557047636598
12639501333.333334 0.7697505787973952 0.6383447708260102 -8.227041771610284e-17 -3.475672469649132e-17 -8.227041771610284e-17 -3.475672469649132e-17 0.7697501668930619 0.6383452675221609
12640118666.666666 0.7756368457686245 0.6311794384213846 -8.257605877597478e-17 -3.397837395288756e-17 -8.257605877597478e-17 -3.397837395288756e-17 0.7756364385077503 0.6311799388913182
12640736000.0 0.7814564156272994 0.6239598308182751 -8.287434228761912e-17 -3.3197348930234464e-17 -8.287434228761912e-17 -3.3197348930234464e-17 0.781456013044449 0.6239603350185889
12641353333.333334 0.7872087879478276 0.6166865688318087 -8.316524498536154e-17 -3.241371911865249e-17 -8.316524498536154e-17 -3.241371911865249e-17 0.7872083900771608 0.6166870767187848
12641970666.666666 0.792893468083087 0.6093602778906837 -8.344874425930709e-17 -3.162755420930659e-17 -8.344874425930709e-17 -3.162755420930659e-17 0.7928930749583553 0.6093607894202909
12642588000.0 0.7985099672067276 0.601981587983675 -8.372481815704771e-17 -3.0838924088265425e-17 -8.372481815704771e-17 -3.0838924088265425e-17 0.7985095788612703 0.6019821031115731
12643205333.333334 0.8040578023553463 0.5945511336052838 -8.399344538533572e-17 -3.004789883028446e-17 -8.399344538533572e-17 -3.004789883028446e-17 0.8040574188220884 0.5945516522868272
12643822666.666666 0.8095364964699457 0.5870695537012652 -8.425460531169206e-17 -2.925454869259144e-17 -8.425460531169206e-17 -2.925454869259144e-17 0.8095361177813964 0.5870700758915082
12644440000.0 0.8149455784370099 0.5795374916136182 -8.450827796594887e-17 -2.845894410867991e-17 -8.450827796594887e-17 -2.845894410867991e-17 0.8149452046252575 0.5795380172673167
12645057333.333334 0.8202845831288963 0.5719555950254255 -8.475444404174729e-17 -2.766115568205164e-17 -8.475444404174729e-17 -2.766115568205164e-17 0.8202842142256084 0.5719561240970432
12645674666.666666 0.8255530514439544 0.5643245159050003 -8.499308489796236e-17 -2.6861254179984583e-17 -8.499308489796236e-17 -2.6861254179984583e-17 0.8255526874803705 0.5643250483487099
12646292000.0 0.8307505303460578 0.5566449104497234 -8.522418256008715e-17 -2.6059310527236193e-17 -8.522418256008715e-17 -2.6059310527236193e-17 0.8307501713529922 0.5566454462194133
12646909333.333334 0.8358765729033119 0.548917439029997 -8.54477197215349e-17 -2.5255395799807832e-17 -8.54477197215349e-17 -2.5255395799807832e-17 0.835876218911148 0.5489179780792741
12647526666.666666 0.8409307383267551 0.5411427661320585 -8.566367974489939e-17 -2.4449581218642708e-17 -8.566367974489939e-17 -2.4449581218642708e-17 0.8409303893654422 0.5411433084142514
12648144000.0 0.8459125920081161 0.5333215603010509 -8.587204666315444e-17 -2.3641938143318333e-17 -8.587204666315444e-17 -2.3641938143318333e-17 0.8459122481071693 0.5333221057692157
12648761333.333334 0.8508217055572362 0.5254544940834662 -8.607280518078594e-17 -2.283253806575852e-17 -8.607280518078594e-17 -2.283253806575852e-17 0.8508213667457328 0.5254550426903898
12649378666.666666 0.8556576568388607 0.5175422439693843 -8.626594067486766e-17 -2.2021452603926627e-17 -8.626594067486766e-17 -2.2021452603926627e-17 0.8556573231454364 0.5175427956675873
12649996000.0 0.8604200300089689 0.5095854903342533 -8.645143919608741e-17 -2.1208753495473465e-17 -8.645143919608741e-17 -2.1208753495473465e-17 0.8604197014618162 0.5095860450759954
12650613333.333334 0.8651084155505879 0.5015849173802855 -8.662928746969866e-17 -2.0394512591433402e-17 -8.662928746969866e-17 -2.0394512591433402e-17 0.8651080921774559 0.5015854751175701
12651230666.666666 0.8697224103088373 0.4935412130779181 -8.679947289642253e-17 -1.957880184987899e-17 -8.679947289642253e-17 -1.957880184987899e-17 0.8697220921370262 0.4935417737624949
12651848000.0 0.8742616175258389 0.4854550691062358 -8.69619835532911e-17 -1.876169332955841e-17 -8.69619835532911e-17 -1.876169332955841e-17 0.8742613045821997 0.4854556326896067
12652465333.333334 0.8787256468746599 0.4773271807937881 -8.711680819442128e-17 -1.7943259183573737e-17 -8.711680819442128e-17 -1.7943259183573737e-17 0.8787253391855914 0.47732774722720994
12653082666.666666 0.8831141144928438 0.469158247058876 -8.726393625173959e-17 -1.7123571653008972e-17 -8.726393625173959e-17 -1.7123571653008972e-17 0.8831138120842889 0.4691588162933645
12653700000.0 0.8874266430156424 0.46094897034902316 -8.740335783564563e-17 -1.6302703060550028e-17 -8.740335783564563e-17 -1.6302703060550028e-17 0.8874263459130897 0.4609495423353596
12654317333.333334 0.8916628616081752 0.4527000565811276 -8.753506373560636e-17 -1.5480725804160002e-17 -8.753506373560636e-17 -1.5480725804160002e-17 0.8916625698366537 0.4527006312698607
12654934666.666666 0.895822405997557 0.4444122150803062 -8.765904542070537e-17 -1.4657712350665613e-17 -8.765904542070537e-17 -1.4657712350665613e-17 0.8958221195816346 0.44441279242175696
12655552000.0 0.8999049185041118 0.4360861585190995 -8.777529504012122e-17 -1.3833735229402336e-17 -8.777529504012122e-17 -1.3833735229402336e-17 0.899904637467893 0.43608673846336565
12656169333.333334 0.9039100480721066 0.4277226028562414 -8.788380542354921e-17 -1.3008867025841644e-17 -8.788380542354921e-17 -1.3008867025841644e-17 0.9039097724392328 0.4277231853532025
12656786666.666666 0.9078374503000304 0.4193222672749166 -8.798457008156662e-17 -1.2183180375193396e-17 -8.798457008156662e-17 -1.2183180375193396e-17 0.9078371800936748 0.4193228522742367
12657404000.0 0.9116867874701048 0.41088587412111943 -8.807758320593234e-17 -1.1356747956043706e-17 -8.807758320593234e-17 -1.1356747956043706e-17 0.9116865227129717 0.41088646157225284
12658021333.333334 0.9154577285774371 0.40241414884131094 -8.81628396698332e-17 -1.0529642483949132e-17 -8.81628396698332e-17 -1.0529642483949132e-17 0.9154574692917603 0.40241473869350575
12658638666.666666 0.919149949358328 0.39390781992037166 -8.824033502806291e-17 -9.701936705085091e-18 -8.824033502806291e-17 -9.701936705085091e-18 0.9191496955658688 0.3939084121226749
12659256000.0 0.9227631323183539 0.38536761881851955 -8.831006551715068e-17 -8.873703389818979e-18 -8.831006551715068e-17 -8.873703389818979e-18 0.9227628840403999 0.3853682133197811
12659873333.333334 0.9262969667595291 0.3767942799087221 -8.837202805542127e-17 -8.0450153263563e-18 -8.837202805542127e-17 -8.0450153263563e-18 0.9262967240168895 0.3767948766575985
12660490666.666666 0.9297511488069908 0.36818854041362753 -8.842622024299873e-17 -7.215945314365268e-18 -8.842622024299873e-17 -7.215945314365268e-18 0.9297509116199989 0.3681891393585878
12661108000.0 0.9331253814353155 0.35955114034172453 -8.847264036175394e-17 -6.386566158555048e-18 -8.847264036175394e-17 -6.386566158555048e-18 0.9331251498238239 0.3595517414310536
12661725333.333334 0.9364193744938231 0.35088282242428764 -8.851128737518577e-17 -5.556950662339054e-18 -8.851128737518577e-17 -5.556950662339054e-18 0.9364191484772036 0.3508834256060913
12662342666.666666 0.9396328447317294 0.34218433205100873 -8.854216092824757e-17 -4.727171621437957e-18 -8.854216092824757e-17 -4.727171621437957e-18 0.9396326243288708 0.3421849372732177
12662960000.0 0.9427655158223659 0.3334564172062442 -8.856526134711265e-17 -3.8973018175009576e-18 -8.856526134711265e-17 -3.8973018175009576e-18 0.9427653010516726 0.33345702441661906
12663577333.333334 0.945817118387025 0.3246998284044845 -8.858058963887924e-17 -3.0674140117534224e-18 -8.858058963887924e-17 -3.0674140117534224e-18 0.9458169092664144 0.3247004375506196
12664194666.666666 0.9487873900180884 0.3159153186258948 -8.858814749121732e-17 -2.2375809386135476e-18 -8.858814749121732e-17 -2.2375809386135476e-18 0.948787186564992 0.3159159296552237
12664812000.0 0.9516760753015701 0.307103643251649 -8.858793727195513e-17 -1.4078752993390382e-18 -8.858793727195513e-17 -1.4078752993390382e-18 0.951675877532929 0.30710425611144815
12665429333.333334 0.9544829258391497 0.2982655599987587 -8.857996202860641e-17 -5.783697556766462e-19 -8.857996202860641e-17 -5.783697556766462e-19 0.9544827337714145 0.298266174636152
12666046666.666666 0.9572077002694154 0.28940182885526644 -8.85642254878388e-17 2.5086307648990324e-19 -8.85642254878388e-17 2.5086307648990324e-19 0.9572075139185466 0.2894024452172308
12666664000.0 0.9598501642887791 0.28051321201440943 -8.854073205488199e-17 1.0797506335031142e-18 -8.854073205488199e-17 1.0797506335031142e-18 0.9598499836702419 0.28051383004777797
12667281333.333334 0.9624100906714727 0.27160047380953695 -8.850948681287793e-17 1.9082204102249465e-18 -8.850948681287793e-17 1.9082204102249465e-18 0.9624099158002389 0.27160109346100464
12667898666.666666 0.9648872592891543 0.26266438064819764 -8.847049552217073e-17 2.736199966408024e-18 -8.847049552217073e-17 2.736199966408024e-18 0.964887090179701 0.26266500186432556
12668516000.0 0.9672814571298853 0.2537057009460428 -8.84237646195381e-17 3.56361693299577e-18 -8.84237646195381e-17 3.56361693299577e-18 0.9672812937961917 0.25370632367326257
12669133333.333334 0.9695924783163196 0.24472520506121628 -8.836930121736433e-17 4.3903990184289554e-18 -8.836930121736433e-17 4.3903990184289554e-18 0.9695923207718671 0.24472582924583486
12669750666.666666 0.9718201241235346 0.23572366522764546 -8.830711310275305e-17 5.2164740149656246e-18 -8.830711310275305e-17 5.2164740149656246e-18 0.9718199723813055 0.23572429081584964
12670368000.0 0.9739642029960646 0.22670185548882768 -8.82372087365828e-17 6.0417698049560245e-18 -8.82372087365828e-17 6.0417698049560245e-18 0.9739640570685416 0.226702482426689
12670985333.333334 0.9760245305643374 0.21766055163143733 -8.815959725250312e-17 6.8662143671348644e-18 -8.815959725250312e-17 6.8662143671348644e-18 0.9760243904635012 0.21766117986491634
