! Parameters = {f0=12700.012000; bw=77.238000; Q=6100.000000; N=10; m_0_1=1.170866; m_1_1=-1.201758; m_1_2=1.005678; m_2_2=-1.202407; m_2_3=0.642641; m_2_8=-0.004393; m_2_9=0.032311; m_3_3=-1.204344; m_3_4=0.531170; m_3_7=-0.003793; m_3_8=-0.100881; m_3_9=-0.004393; m_4_4=-1.207269; m_4_5=0.367505; m_4_6=-0.000276; m_4_7=-0.121430; m_4_8=-0.003793; m_5_5=-1.206887; m_5_6=0.774860; m_5_7=-0.000276; m_6_6=-1.206888; m_6_7=0.367847; m_7_7=-1.207255; m_7_8=0.531288; m_8_8=-1.204346; m_8_9=0.642954; m_9_9=-1.202412; m_9_10=1.006756; m_10_10=-1.201768; m_10_11=1.171661}
!
! Created with skrf (http://scikit-rf.org).
# Hz S RI R 50.0 
!freq ReS11 ImS11 ReS21 ImS21 ReS12 ImS12 ReS22 ImS22
12607400000.0 -0.5683032213738098 -0.8228192077096893 5.2645217696621535e-17 4.242824359466394e-17 5.2645217696621535e-17 4.242824359466394e-17 -0.5683027136530949 -0.8228195583810453
12608017333.333334 -0.5745338570927977 -0.8184808165460707 5.295917587860195e-17 4.20143983055258e-17 5.295917587860195e-17 4.20143983055258e-17 -0.57453335207382 -0.8184811710446798
12608634666.666666 -0.5807313752655319 -0.8140952461365037 5.326988573486247e-17 4.1598235678089104e-17 5.326988573486247e-17 4.1598235678089104e-17 -0.5807308729771352 -0.8140956044415574
12609252000.0 -0.5868954186518052 -0.8096627492761246 5.3577330207597264e-17 4.117978117170846e-17 5.3577330207597264e-17 4.117978117170846e-17 -0.5868949191226741 -0.8096631113665977
12609869333.333334 -0.5930256319410734 -0.8051835814649609 5.388149243826276e-17 4.075906037092839e-17 5.388149243826276e-17 4.075906037092839e-17 -0.5930251351997303 -0.8051839473196117
12610486666.666666 -0.5991216617727502 -0.8006580008933332 5.4182355768484876e-17 4.033609898393863e-17 5.4182355768484876e-17 4.033609898393863e-17 -0.5991211678475545 -0.800658370490706
12611104000.0 -0.6051831567567605 -0.7960862684268416 5.4479903740982714e-17 3.99109228409818e-17 5.4479903740982714e-17 3.99109228409818e-17 -0.6051826656759054 -0.7960866417452658
12611721333.333334 -0.6112097674936334 -0.7914686475914434 5.477412010043556e-17 3.948355789281712e-17 5.477412010043556e-17 3.948355789281712e-17 -0.6112092792851469 -0.7914690246090373
12612338666.666666 -0.6172011465946926 -0.7868054045582346 5.506498879438228e-17 3.905403020911523e-17 5.506498879438228e-17 3.905403020911523e-17 -0.6172006612864331 -0.7868057852529045
12612956000.0 -0.6231569487022327 -0.7820968081279792 5.5352493974079166e-17 3.8622365976886936e-17 5.5352493974079166e-17 3.8622365976886936e-17 -0.6231564663218894 -0.782097192477422
12613573333.333334 -0.6290768305091609 -0.7773431297158284 5.563661999535252e-17 3.818859149889665e-17 5.563661999535252e-17 3.818859149889665e-17 -0.6290763510842511 -0.7773435176975323
12614190666.666666 -0.6349604507789415 -0.7725446433355513 5.591735141944851e-17 3.7752733192055295e-17 5.591735141944851e-17 3.7752733192055295e-17 -0.6349599743368101 -0.772545034926798
12614808000.0 -0.6408074703653099 -0.767701625583705 5.619467301385417e-17 3.7314817585830745e-17 5.619467301385417e-17 3.7314817585830745e-17 -0.6408069969331267 -0.7677020207615698
12615425333.333334 -0.6466175522316675 -0.7628143556238157 5.646856975312233e-17 3.687487132062858e-17 5.646856975312233e-17 3.687487132062858e-17 -0.6466170818364263 -0.7628147543651697
12616042666.666666 -0.6523903614706845 -0.7578831151701428 5.673902681967307e-17 3.643292114618277e-17 5.673902681967307e-17 3.643292114618277e-17 -0.6523898941392015 -0.7578835174516537
12616660000.0 -0.6581255653234308 -0.7529081884715864 5.700602960458298e-17 3.59889939199407e-17 5.700602960458298e-17 3.59889939199407e-17 -0.6581251010823429 -0.7529085942697201
12617277333.333334 -0.6638228331987291 -0.7478898622951529 5.726956370837173e-17 3.554311660542612e-17 5.726956370837173e-17 3.554311660542612e-17 -0.6638223720744927 -0.7478902715861759
12617894666.666666 -0.6694818366920411 -0.7428284259095774 5.752961494176127e-17 3.509531627062113e-17 5.752961494176127e-17 3.509531627062113e-17 -0.6694813787109302 -0.7428288386695563
12618512000.0 -0.6751022496045672 -0.7377241710684986 5.778616932643758e-17 3.464562008631613e-17 5.778616932643758e-17 3.464562008631613e-17 -0.6751017947926713 -0.7377245872733017
12619129333.333334 -0.6806837479618987 -0.7325773919937691 5.803921309578572e-17 3.4194055324479374e-17 5.803921309578572e-17 3.4194055324479374e-17 -0.6806832963451238 -0.7325778116190703
12619746666.666666 -0.6862260100327401 -0.727388385358466 5.828873269562046e-17 3.374064935660617e-17 5.828873269562046e-17 3.374064935660617e-17 -0.6862255616368041 -0.7273888083797432
12620364000.0 -0.6917287163476157 -0.7221574502696276 5.853471478490877e-17 3.328542965205444e-17 5.853471478490877e-17 3.328542965205444e-17 -0.6917282711980492 -0.7221578766621659
12620981333.333334 -0.6971915497169359 -0.7168848882513481 5.877714623646173e-17 3.282842377640704e-17 5.877714623646173e-17 3.282842377640704e-17 -0.6971911078390789 -0.7168853179902401
12621598666.666666 -0.7026141952496293 -0.711571003227061 5.901601413763127e-17 3.2369659389797153e-17 5.901601413763127e-17 3.2369659389797153e-17 -0.7026137566686318 -0.7115714362872095
12622216000.0 -0.7079963403711302 -0.7062161015021796 5.925130579098946e-17 3.1909164245237274e-17 5.925130579098946e-17 3.1909164245237274e-17 -0.7079959051119495 -0.7062165378582985
12622833333.333334 -0.7133376748413764 -0.7008204917464591 5.948300871498702e-17 3.144696618695648e-17 5.948300871498702e-17 3.144696618695648e-17 -0.7133372429287752 -0.7008209313730742
12623450666.666666 -0.7186378907727521 -0.6953844849761461 5.971111064460805e-17 3.098309314871846e-17 5.971111064460805e-17 3.098309314871846e-17 -0.7186374622312985 -0.6953849278475979
12624068000.0 -0.7238966826477768 -0.6899083945361107 5.993559953200971e-17 3.0517573152135885e-17 5.993559953200971e-17 3.0517573152135885e-17 -0.723896257501842 -0.6899088406265546
12624685333.333334 -0.7291137473368732 -0.6843925360816214 6.015646354714559e-17 3.005043430498736e-17 6.015646354714559e-17 3.005043430498736e-17 -0.7291133256106299 -0.6843929853650295
12625302666.666666 -0.7342887841155828 -0.6788372275604143 6.037369107837617e-17 2.958170479953203e-17 6.037369107837617e-17 2.958170479953203e-17 -0.7342883658330053 -0.6788376800105782
12625920000.0 -0.739421494682139 -0.6732427891941222 6.058727073307304e-17 2.911141291080198e-17 6.058727073307304e-17 2.911141291080198e-17 -0.7394210798670003 -0.6732432447846537
12626537333.333334 -0.7445115831745233 -0.6676095434599593 6.079719133819948e-17 2.8639586994915124e-17 6.079719133819948e-17 2.8639586994915124e-17 -0.7445111718503933 -0.6676100021642902
12627154666.666666 -0.7495587561874826 -0.6619378150721756 6.100344194088589e-17 2.816625548736661e-17 6.100344194088589e-17 2.816625548736661e-17 -0.7495583483777285 -0.6619382768635622
12627772000.0 -0.7545627227896871 -0.656227930963064 6.120601180899128e-17 2.7691446901315812e-17 6.120601180899128e-17 2.7691446901315812e-17 -0.7545623185174721 -0.6562283958145873
12628389333.333334 -0.7595231945401838 -0.6504802202644788 6.14048904316447e-17 2.7215189825887337e-17 6.14048904316447e-17 2.7215189825887337e-17 -0.7595227938284633 -0.6504806881490451
12629006666.666666 -0.7644398855052418 -0.6446950142886039 6.160006751978349e-17 2.673751292444347e-17 6.160006751978349e-17 2.673751292444347e-17 -0.764439488376765 -0.6446954851789486
12629624000.0 -0.769312512274764 -0.6388726465089433 6.179153300666989e-17 2.6258444932872146e-17 6.179153300666989e-17 2.6258444932872146e-17 -0.7693121187520708 -0.6388731203776301
12630241333.333334 -0.7741407939785857 -0.6330134525411418 6.197927704840046e-17 2.577801465785937e-17 6.197927704840046e-17 2.577801465785937e-17 -0.7741404040840055 -0.6330139293605657
12630858666.666666 -0.7789244523026996 -0.6271177701235945 6.216329002439215e-17 2.5296250975178856e-17 6.216329002439215e-17 2.5296250975178856e-17 -0.7789240660583517 -0.6271182498659836
12631476000.0 -0.7836632115053573 -0.6211859390979164 6.23435625378745e-17 2.4813182827932554e-17 6.23435625378745e-17 2.4813182827932554e-17 -0.7836628289331472 -0.6211864217353326
12632093333.333334 -0.7883567984328497 -0.615218301389481 6.25200854163449e-17 2.4328839224846353e-17 6.25200854163449e-17 2.4328839224846353e-17 -0.7883564195544702 -0.6152187868938221
12632710666.666666 -0.7930049425353105 -0.6092152009876467 6.269284971202392e-17 2.384324923852883e-17 6.269284971202392e-17 2.384324923852883e-17 -0.7930045673722397 -0.6092156893306492
12633328000.0 -0.7976073758823468 -0.6031769839258857 6.286184670230274e-17 2.335644200371078e-17 6.286184670230274e-17 2.335644200371078e-17 -0.7976070044558442 -0.6031774750791228
12633945333.333334 -0.802163833178442 -0.5971039982618767 6.302706789015831e-17 2.286844671553365e-17 6.302706789015831e-17 2.286844671553365e-17 -0.8021634655095523 -0.5971044921967646
12634562666.666666 -0.8066740517782048 -0.5909965940575159 6.318850500457391e-17 2.2379292627783228e-17 6.318850500457391e-17 2.2379292627783228e-17 -0.8066736878877528 -0.5909970907453124
12635180000.0 -0.8111377717016233 -0.5848551233585773 6.334615000093574e-17 2.1889009051149077e-17 6.334615000093574e-17 2.1889009051149077e-17 -0.8111374116102138 -0.584855622770384
12635797333.333334 -0.8155547356489314 -0.5786799401745774 6.349999506141755e-17 2.1397625351477894e-17 6.349999506141755e-17 2.1397625351477894e-17 -0.8155543793769494 -0.5786804422813426
12636414666.666666 -0.819924689015496 -0.5724714004583051 6.365003259535407e-17 2.0905170948017017e-17 6.365003259535407e-17 2.0905170948017017e-17 -0.8199243365831027 -0.5724719052308239
12637032000.0 -0.8242473799065373 -0.566229862085231 6.379625523960169e-17 2.0411675311653677e-17 6.379625523960169e-17 2.0411675311653677e-17 -0.8242470313336719 -0.566230369494148
12637649333.333334 -0.8285225591515364 -0.5599556848330416 6.393865585887926e-17 1.9917167963169934e-17 6.393865585887926e-17 1.9917167963169934e-17 -0.8285222144579134 -0.5599561948488523
12638266666.666666 -0.8327499803187259 -0.5536492303607142 6.407722754610434e-17 1.9421678471468215e-17 6.407722754610434e-17 1.9421678471468215e-17 -0.8327496395238354 -0.5536497429537675
12638884000.0 -0.8369293997291719 -0.5473108621878598 6.42119636227071e-17 1.892523645182383e-17 6.42119636227071e-17 1.892523645182383e-17 -0.8369290628522748 -0.5473113773283573
12639501333.333334 -0.8410605764709381 -0.5409409456735762 6.434285763893855e-17 1.8427871564106145e-17 6.434285763893855e-17 1.8427871564106145e-17 -0.8410602435310699 -0.5409414633315769
12640118666.666666 -0.8451432724128412 -0.5345398479956055 6.446990337415725e-17 1.7929613511029082e-17 6.446990337415725e-17 1.7929613511029082e-17 -0.8451429434288071 -0.5345403681410255
12640736000.0 -0.8491772522183695 -0.5281079381288545 6.459309483711233e-17 1.7430492036359145e-17 6.459309483711233e-17 1.7430492036359145e-17 -0.8491769272087459 -0.5281084607314701
12641353333.333334 -0.853162283358995 -0.5216455868245379 6.471242626619964e-17 1.6930536923177304e-17 6.471242626619964e-17 1.6930536923177304e-17 -0.8531619623421273 -0.5216461118539863
12641970666.666666 -0.8570981361277716 -0.515153166588492 6.482789212971709e-17 1.6429777992083516e-17 6.482789212971709e-17 1.6429777992083516e-17 -0.8570978191217726 -0.5151536940142735
12642588000.0 -0.8609845836525454 -0.5086310516597513 6.493948712610025e-17 1.5928245099429695e-17 6.493948712610025e-17 1.5928245099429695e-17 -0.8609842706752954 -0.5086315814512314
12643205333.333334 -0.8648214019089279 -0.5020796179891468 6.504720618414358e-17 1.5425968135549037e-17 6.504720618414358e-17 1.5425968135549037e-17 -0.864821092978074 -0.5020801501155574
12643822666.666666 -0.8686083697333874 -0.4954992432173417 6.515104446320999e-17 1.4922977022978714e-17 6.515104446320999e-17 1.4922977022978714e-17 -0.8686080648663405 -0.4954997776477832
12644440000.0 -0.8723452688358055 -0.48889030665338196 6.525099735342709e-17 1.4419301714679448e-17 6.525099735342709e-17 1.4419301714679448e-17 -0.8723449680497409 -0.48889084335682476
12645057333.333334 -0.8760318838121776 -0.4822531892526358 6.534706047586575e-17 1.3914972192270654e-17 6.534706047586575e-17 1.3914972192270654e-17 -0.8760315871240344 -0.4822537281979228
12645674666.666666 -0.879668002156987 -0.47558827359490896 6.543922968271143e-17 1.3410018464238724e-17 6.543922968271143e-17 1.3410018464238724e-17 -0.8796677095834662 -0.47558881475075654
12646292000.0 -0.8832534142755081 -0.46889594386229116 6.552750105741907e-17 1.290447056414973e-17 6.552750105741907e-17 1.290447056414973e-17 -0.8832531258330715 -0.46889648719729143
12646909333.333334 -0.8867879134958052 -0.46217658581716137 6.561187091484827e-17 1.2398358548898812e-17 6.561187091484827e-17 1.2398358548898812e-17 -0.8867876292006749 -0.46217713129978366
12647526666.666666 -0.8902712960806756 -0.45543058677990134 6.56923358013964e-17 1.1891712496897367e-17 6.56923358013964e-17 1.1891712496897367e-17 -0.8902710159488336 -0.4554311343784949
12648144000.0 -0.8937033612394846 -0.44865833560639423 6.576889249510817e-17 1.1384562506308004e-17 6.576889249510817e-17 1.1384562506308004e-17 -0.8937030852866702 -0.4486588852891885
12648761333.333334 -0.8970839111395793 -0.44186022266590985 6.58415380057766e-17 1.0876938693256821e-17 6.58415380057766e-17 1.0876938693256821e-17 -0.8970836393812918 -0.4418607744010185
12649378666.666666 -0.9004127509177895 -0.43503663981843016 6.591026957502746e-17 1.0368871190056385e-17 6.591026957502746e-17 1.0368871190056385e-17 -0.9004124833692829 -0.43503719357385084
12649996000.0 -0.9036896886916798 -0.42818798039200673 6.597508467639226e-17 9.860390143419206e-18 6.597508467639226e-17 9.860390143419206e-18 -0.9036894253679647 -0.42818853613562396
12650613333.333334 -0.9069145355705374 -0.4213146391602438 6.603598101536744e-17 9.351525712669114e-18 6.603598101536744e-17 9.351525712669114e-18 -0.9069142764863796 -0.42131519685983077
12651230666.666666 -0.9100871056662979 -0.4144170123194647 6.609295652945711e-17 8.84230806797137e-18 6.609295652945711e-17 8.84230806797137e-18 -0.9100868508362161 -0.4144175719426845
12651848000.0 -0.9132072161042818 -0.4074954974658226 6.614600938820587e-17 8.332767388536549e-18 6.614600938820587e-17 8.332767388536549e-18 -0.9132069655425492 -0.40749605898023106
12652465333.333334 -0.916274687033714 -0.40055049357243394 6.619513799321528e-17 7.822933860843355e-18 6.619513799321528e-17 7.822933860843355e-18 -0.9162744407543566 -0.40055105694548104
12653082666.666666 -0.9192893416380555 -0.3935824009664585 6.624034097814726e-17 7.312837676861778e-18 6.624034097814726e-17 7.312837676861778e-18 -0.9192890996548505 -0.39358296616549004
12653700000.0 -0.922251006145275 -0.38659162130584085 6.628161720871478e-17 6.802509032257664e-18 6.628161720871478e-17 6.802509032257664e-18 -0.9222507684717516 -0.3865921882981012
12654317333.333334 -0.9251595098377886 -0.37957855755634184 6.63189657826577e-17 6.291978124624321e-18 6.63189657826577e-17 6.291978124624321e-18 -0.9251592764872253 -0.3795791263089745
12654934666.666666 -0.9280146850623221 -0.3725436139682575 6.635238602970493e-17 5.781275151697542e-18 6.635238602970493e-17 5.781275151697542e-18 -0.9280144560477473 -0.37254418444830806
12655552000.0 -0.9308163672396487 -0.3654871960529329 6.638187751152521e-17 5.270430309560159e-18 6.638187751152521e-17 5.270430309560159e-18 -0.9308161425738393 -0.3654877682273503
12656169333.333334 -0.9335643948739479 -0.3584097105597029 6.640744002165961e-17 4.7594737908944616e-18 6.640744002165961e-17 4.7594737908944616e-18 -0.9335641745694297 -0.3584102843953421
12656786666.666666 -0.9362586095621926 -0.3513115654522639 6.642907358544574e-17 4.248435783171393e-18 6.642907358544574e-17 4.248435783171393e-18 -0.9362583936312385 -0.3513121409158872
12657404000.0 -0.9388988560032948 -0.344193169885102 6.644677845992467e-17 3.737346466887915e-18 6.644677845992467e-17 3.737346466887915e-18 -0.9388986444579239 -0.34419374694338095
12658021333.333334 -0.941484982007 -0.3370549341800691 6.6460555133735e-17 3.226236013792262e-18 6.6460555133735e-17 3.226236013792262e-18 -0.941484774858977 -0.3370555127995864
12658638666.666666 -0.944016838502687 -0.3298972698026503 6.647040432699455e-17 2.7151345851047666e-18 6.647040432699455e-17 2.7151345851047666e-18 -0.9440166357635243 -0.32989784994990273
12659256000.0 -0.946494279547985 -0.32272058933819414 6.647632699116702e-17 2.2040723297399525e-18 6.647632699116702e-17 2.2040723297399525e-18 -0.946494081228938 -0.322721170979593
12659873333.333334 -0.9489171623371617 -0.3155253064681817 6.647832430891586e-17 1.6930793825376383e-18 6.647832430891586e-17 1.6930793825376383e-18 -0.9489169684492297 -0.31552588957005556
12660490666.666666 -0.9512853472093287 -0.3083118359464625 6.647639769394408e-17 1.1821858624974426e-18 6.647639769394408e-17 1.1821858624974426e-18 -0.9512851577632552 -0.308312420475059
12661108000.0 -0.9535986976565565 -0.3010805935751585 6.647054879082097e-17 6.714218709960048e-19 6.647054879082097e-17 6.714218709960048e-19 -0.9535985126628285 -0.30108117949664676
12661725333.333334 -0.955857080331682 -0.293831996180886 6.64607794747951e-17 1.6081749003429895e-19 6.64607794747951e-17 1.6081749003429895e-19 -0.9558568998005271 -0.2938325834613575
12662342666.666666 -0.9580603650560162 -0.28656646159064536 6.644709185159362e-17 -3.4959721954346904e-19 6.644709185159362e-17 -3.4959721954346904e-19 -0.9580601889974067 -0.28656705019611745
12662960000.0 -0.9602084248268821 -0.2792844086076586 6.642948825720826e-17 -8.59792219798792e-19 6.642948825720826e-17 -8.59792219798792e-19 -0.9602082532505277 -0.27928499850407446
12663577333.333334 -0.9623011358248659 -0.2719862569874146 6.640797125766775e-17 -1.3697374974759778e-18 6.640797125766775e-17 -1.3697374974759778e-18 -0.9623009687402205 -0.2719868481406473
12664194666.666666 -0.9643383774210224 -0.2646724274132863 6.638254364879696e-17 -1.87940306574691e-18 6.638254364879696e-17 -1.87940306574691e-18 -0.9643382148372782 -0.26467301978913926
12664812000.0 -0.9663200321837949 -0.2573433414723609 6.635320845596217e-17 -2.388758965981882e-18 6.635320845596217e-17 -2.388758965981882e-18 -0.9663198741098852 -0.25734393503657077
12665429333.333334 -0.9682459858857763 -0.24999942163119468 6.631996893380315e-17 -2.8977752695010906e-18 6.631996893380315e-17 -2.8977752695010906e-18 -0.9682458323303718 -0.25000001634943264
12666046666.666666 -0.9701161275103045 -0.24264109121140584 6.628282856595282e-17 -3.4064220793123915e-18 6.628282856595282e-17 -3.4064220793123915e-18 -0.9701159784818155 -0.24264168704927996
12666664000.0 -0.9719303492578841 -0.23526877436519034 6.62417910647406e-17 -3.9146695318935955e-18 6.62417910647406e-17 -3.9146695318935955e-18 -0.971930204764459 -0.2352693712882475
12667281333.333334 -0.973688546552352 -0.2278828960510659 6.619686037088636e-17 -4.422487798908068e-18 6.619686037088636e-17 -4.422487798908068e-18 -0.9736884066018775 -0.227883494024794
12667898666.666666 -0.9753906180469504 -0.2204838820091829 6.614804065317822e-17 -4.92984708896278e-18 6.614804065317822e-17 -4.92984708896278e-18 -0.9753904826470511 -0.22048448099901272
12668516000.0 -0.9770364656301542 -0.2130721587368674 6.609533630813672e-17 -5.4367176493634635e-18 6.609533630813672e-17 -5.4367176493634635e-18 -0.9770363347881893 -0.21307275870817388
12669133333.333334 -0.9786259944313054 -0.20564815346409038 6.603875195966955e-17 -5.9430697678217146e-18 6.603875195966955e-17 -5.9430697678217146e-18 -0.9786258681543739 -0.20564875438219613
12669750666.666666 -0.9801591128261037 -0.19821229412878807 6.597829245870721e-17 -6.4488737742247826e-18 6.597829245870721e-17 -6.4488737742247826e-18 -0.9801589911210384 -0.19821289595896388
12670368000.0 -0.9816357324418978 -0.19076500935210916 6.591396288283068e-17 -6.954100042345875e-18 6.591396288283068e-17 -6.954100042345875e-18 -0.981635615315269 -0.19076561205957704
