! Parameters = {f0=12700.012000; bw=77.238000; Q=6100.000000; N=10; m_0_1=1.284179; m_1_1=0.497942; m_1_2=1.118991; m_2_2=0.497293; m_2_3=0.755954; m_2_8=0.001273; m_2_9=0.037977; m_3_3=0.495356; m_3_4=0.644483; m_3_7=0.001873; m_3_8=-0.095215; m_3_9=0.001273; m_4_4=0.492431; m_4_5=0.480818; m_4_6=0.005390; m_4_7=-0.115764; m_4_8=0.001873; m_5_5=0.492813; m_5_6=0.888173; m_5_7=0.005390; m_6_6=0.492812; m_6_7=0.481160; m_7_7=0.492445; m_7_8=0.644601; m_8_8=0.495354; m_8_9=0.756267; m_9_9=0.497288; m_9_10=1.120069; m_10_10=0.497932; m_10_11=1.284974}
!
! Created with skrf (http://scikit-rf.org).
# Hz S RI R 50.0 
!freq ReS11 ImS11 ReS21 ImS21 ReS12 ImS12 ReS22 ImS22
12607400000.0 0.05381874608066193 -0.9985507210803694 2.7424749669891138e-17 1.1496905435392503e-16 2.7424749669891138e-17 1.1496905435392503e-16 0.05381942165592642 -0.9985506846687557
12608017333.333334 0.0428894795553809 -0.9990798229087042 2.868563869284957e-17 1.1463709573865943e-16 2.868563869284957e-17 1.1463709573865943e-16 0.04289015545552142 -0.9990797938927704
12608634666.666666 0.03195507792613156 -0.9994893060931437 2.994254341460783e-17 1.1429131779655815e-16 2.994254341460783e-17 1.1429131779655815e-16 0.03195575407019552 -0.9994892844756391
12609252000.0 0.021016850355900063 -0.9997791216068362 3.1195312476321015e-17 1.1393176800792531e-16 3.1195312476321015e-17 1.1393176800792531e-16 0.021017526662913594 -0.9997791073896239
12609869333.333334 0.010076106465632718 -0.9999492347506013 3.2443795081503325e-17 1.135584955097338e-16 3.2443795081503325e-17 1.135584955097338e-16 0.010076782854610403 -0.9999492279346592
12610486666.666666 -0.0008658438222507877 -0.9999996251570776 3.368784101412575e-17 1.1317155108900595e-16 3.368784101412575e-17 1.1317155108900595e-16 -0.0008651674322962604 -0.9999996257424967
12611104000.0 -0.011807690441090698 -0.9999302867931682 3.492730065670707e-17 1.1277098717597672e-16 3.492730065670707e-17 1.1277098717597672e-16 -0.011807014131138823 -0.9999302947791543
12611721333.333334 -0.022748123336527315 -0.9997412279607588 3.61620250082093e-17 1.1235685783709354e-16 3.61620250082093e-17 1.1235685783709354e-16 -0.0227474471875401 -0.9997412433456316
12612338666.666666 -0.03368583262343758 -0.999432471295728 3.7391865701976245e-17 1.1192921876778227e-16 3.7391865701976245e-17 1.1192921876778227e-16 -0.03368515671634979 -0.9994324940769208
12612956000.0 -0.04461950874299321 -0.9990040537652262 3.861667502350767e-17 1.114881272850418e-16 3.861667502350767e-17 1.114881272850418e-16 -0.04461883315870278 -0.9990040839392879
12613573333.333334 -0.055547842618998186 -0.9984560266632656 3.983630592815098e-17 1.1103364231984555e-16 3.983630592815098e-17 1.1103364231984555e-16 -0.05554716743835647 -0.9984560642258599
12614190666.666666 -0.0664695258150206 -0.9977884556045667 4.1050612058764276e-17 1.1056582440932724e-16 4.1050612058764276e-17 1.1056582440932724e-16 -0.06646885111882274 -0.997788500550474
12614808000.0 -0.07738325069085136 -0.9970014205167091 4.2259447763210075e-17 1.1008473568880289e-16 4.2259447763210075e-17 1.1008473568880289e-16 -0.0773825765598266 -0.9970014728398259
12615425333.333334 -0.08828771055920834 -0.9960950156305536 4.34626681118226e-17 1.0959043988357789e-16 4.34626681118226e-17 1.0959043988357789e-16 -0.08828703707401026 -0.9960950753238929
12616042666.666666 -0.09918159984201408 -0.9950693494689696 4.4660128914729974e-17 1.0908300230058175e-16 4.4660128914729974e-17 1.0908300230058175e-16 -0.09918092708321113 -0.9950694165246635
12616660000.0 -0.11006361422679657 -0.9939245448338389 4.5851686739111455e-17 1.0856248981980342e-16 4.5851686739111455e-17 1.0856248981980342e-16 -0.11006294227486244 -0.9939246192431397
12617277333.333334 -0.12093245082296594 -0.9926607387913406 4.7037198926358084e-17 1.0802897088553508e-16 4.7037198926358084e-17 1.0802897088553508e-16 -0.12093177975826959 -0.9926608205446192
12617894666.666666 -0.1317868083174688 -0.9912780826555759 4.8216523609087084e-17 1.0748251549745098e-16 4.8216523609087084e-17 1.0748251549745098e-16 -0.13178613822026533 -0.9912781717423262
12618512000.0 -0.1426253871311293 -0.9897767419703873 4.9389519728129424e-17 1.0692319520146518e-16 4.9389519728129424e-17 1.0692319520146518e-16 -0.14262471808155014 -0.9897768383792269
12619129333.333334 -0.15344688957365424 -0.9881568964896162 5.0556047049336515e-17 1.0635108308044062e-16 5.0556047049336515e-17 1.0635108308044062e-16 -0.15344622165169747 -0.9881570002082857
12619746666.666666 -0.1642500199993702 -0.9864187401555317 5.1715966180322386e-17 1.0576625374469445e-16 5.1715966180322386e-17 1.0576625374469445e-16 -0.164249353284891 -0.9864188511708982
12620364000.0 -0.17503348496243323 -0.9845624810755921 5.286913858711192e-17 1.05168783322314e-16 5.286913858711192e-17 1.05168783322314e-16 -0.1750328195351346 -0.984562599373651
12620981333.333334 -0.1857959933712712 -0.9825883414975987 5.401542661060635e-17 1.0455874944932801e-16 5.401542661060635e-17 1.0455874944932801e-16 -0.18579532931069423 -0.9825884670634752
12621598666.666666 -0.19653625664355712 -0.9804965577830231 5.5154693483022475e-17 1.0393623125965432e-16 5.5154693483022475e-17 1.0393623125965432e-16 -0.19653559402907128 -0.9804966906009728
12622216000.0 -0.20725298886029334 -0.9782873803787386 5.628680334417246e-17 1.0330130937489239e-16 5.628680334417246e-17 1.0330130937489239e-16 -0.2072523277710874 -0.9782875204321506
12622833333.333334 -0.2179449069199405 -0.9759610737870025 5.741162125762076e-17 1.026540658939416e-16 5.741162125762076e-17 1.026540658939416e-16 -0.21794424743501276 -0.9759612210584012
12623450666.666666 -0.22861073069176333 -0.9735179165338448 5.852901322673174e-17 1.0199458438244016e-16 5.852901322673174e-17 1.0199458438244016e-16 -0.22861007288991247 -0.9735180710048932
12624068000.0 -0.2392491831693226 -0.9709582011356784 5.963884621062273e-17 1.0132294986201467e-16 5.963884621062273e-17 1.0132294986201467e-16 -0.23924852712913797 -0.9709583627871785
12624685333.333334 -0.2498589906234782 -0.9682822340642409 6.074098813995624e-17 1.0063924879937716e-16 6.074098813995624e-17 1.0063924879937716e-16 -0.24985833642333058 -0.9682824028761368
12625302666.666666 -0.26043888275442306 -0.96549033571002 6.183530793260362e-17 9.994356909525676e-17 6.183530793260362e-17 9.994356909525676e-17 -0.2604382304724555 -0.9654905116614019
12625920000.0 -0.2709875928444085 -0.9625828403437359 6.29216755092525e-17 9.923600007311548e-17 6.29216755092525e-17 9.923600007311548e-17 -0.2709869425585262 -0.9625830234128386
12626537333.333334 -0.28150385790882737 -0.9595600960764609 6.399996180877898e-17 9.851663246776354e-17 6.399996180877898e-17 9.851663246776354e-17 -0.2815032096966896 -0.9595602862406722
12627154666.666666 -0.291986418847708 -0.9564224648178811 6.507003880357229e-17 9.778555841375617e-17 6.507003880357229e-17 9.778555841375617e-17 -0.2919857727867179 -0.9564226620537403
12627772000.0 -0.3024340205965706 -0.9531703222329228 6.613177951472652e-17 9.704287143362304e-17 6.613177951472652e-17 9.704287143362304e-17 -0.302433376763866 -0.9531705265161239
12628389333.333334 -0.31284541227642343 -0.9498040576968574 6.718505802701635e-17 9.628866642599033e-17 6.718505802701635e-17 9.628866642599033e-17 -0.31284477074886813 -0.9498042690022549
12629006666.666666 -0.32321934734377283 -0.9463240742486082 6.822974950385905e-17 9.552303965345717e-17 6.822974950385905e-17 9.552303965345717e-17 -0.32321870819794724 -0.9463242925502177
12629624000.0 -0.3335545837396553 -0.9427307885425649 6.926573020202631e-17 9.474608873038844e-17 6.926573020202631e-17 9.474608873038844e-17 -0.3335539470518467 -0.9427310138135656
12630241333.333334 -0.3438498840385879 -0.9390246307986126 7.029287748629203e-17 9.395791261049701e-17 7.029287748629203e-17 9.395791261049701e-17 -0.3438492498847824 -0.9390248630113541
12630858666.666666 -0.35410401559637733 -0.9352060447507495 7.13110698439063e-17 9.315861157429047e-17 7.13110698439063e-17 9.315861157429047e-17 -0.35410338405225006 -0.9352062838767522
12631476000.0 -0.36431575069821004 -0.9312754875937734 7.232018689894884e-17 9.234828721634575e-17 7.232018689894884e-17 9.234828721634575e-17 -0.36431512183911613 -0.9312757336037324
12632093333.333334 -0.3744838667051107 -0.9272334299287369 7.332010942649887e-17 9.152704243245927e-17 7.332010942649887e-17 9.152704243245927e-17 -0.3744832406060767 -0.9272336827925263
12632710666.666666 -0.38460714620059583 -0.9230803557065085 7.431071936670997e-17 9.069498140660555e-17 7.431071936670997e-17 9.069498140660555e-17 -0.3846065229363104 -0.9230806153931851
12633328000.0 -0.3946843771365111 -0.9188167621697946 7.529189983870789e-17 8.985220959776568e-17 7.529189983870789e-17 8.985220959776568e-17 -0.3946837567813163 -0.9188170286476011
12633945333.333334 -0.4047143529780158 -0.9144431597936558 7.626353515434303e-17 8.899883372660515e-17 7.626353515434303e-17 8.899883372660515e-17 -0.4047137356058984 -0.9144434330300256
12634562666.666666 -0.4146958728480155 -0.9099600722244038 7.722551083178971e-17 8.81349617620047e-17 7.722551083178971e-17 8.81349617620047e-17 -0.41469525853259737 -0.9099603521859634
12635180000.0 -0.4246277416709931 -0.9053680362168817 7.817771360900375e-17 8.726070290743688e-17 7.817771360900375e-17 8.726070290743688e-17 -0.42462713048552303 -0.9053683228694558
12635797333.333334 -0.43450877031619667 -0.9006676015701509 7.912003145703108e-17 8.637616758719244e-17 7.912003145703108e-17 8.637616758719244e-17 -0.43450816233354167 -0.9006678948787666
12636414666.666666 -0.4443377757397552 -0.8958593310617846 8.005235359312687e-17 8.548146743249549e-17 8.005235359312687e-17 8.548146743249549e-17 -0.44433717103239234 -0.8958596309906769
12637032000.0 -0.4541135811265561 -0.8909438003803808 8.097457049376454e-17 8.457671526743443e-17 8.097457049376454e-17 8.457671526743443e-17 -0.45411297976656245 -0.8909441068929937
12637649333.333334 -0.46383501603111515 -0.8859215980566433 8.188657390746186e-17 8.366202509477566e-17 8.188657390746186e-17 8.366202509477566e-17 -0.46383441809016046 -0.8859219111156372
12638266666.666666 -0.47350091651758663 -0.8807933253929815 8.278825686743807e-17 8.273751208164874e-17 8.278825686743807e-17 8.273751208164874e-17 -0.47350032206692416 -0.880793644960237
12638884000.0 -0.4831101252991968 -0.8755595963914818 8.367951370412919e-17 8.180329254507797e-17 8.367951370412919e-17 8.180329254507797e-17 -0.48310953440965515 -0.8755599224281039
12639501333.333334 -0.49266149187690367 -0.8702210376803378 8.45602400575423e-17 8.08594839373759e-17 8.45602400575423e-17 8.08594839373759e-17 -0.4926609046188779 -0.8702213701466597
12640118666.666666 -0.5021538726768214 -0.8647782884390026 8.543033288940697e-17 7.990620483144622e-17 8.543033288940697e-17 7.990620483144622e-17 -0.502153289120265 -0.8647786272945925
12640736000.0 -0.5115861311877334 -0.859232000321327 8.62896904952453e-17 7.894357490586606e-17 8.62896904952453e-17 7.894357490586606e-17 -0.5115855514021498 -0.8592323455249917
12641353333.333334 -0.5209571380963993 -0.8535828373779721 8.713821251615111e-17 7.797171492997412e-17 8.713821251615111e-17 7.797171492997412e-17 -0.5209565621508343 -0.8535831888877643
12641970666.666666 -0.5302657714233845 -0.8478314759765544 8.797579995052643e-17 7.699074674869464e-17 8.797579995052643e-17 7.699074674869464e-17 -0.530265199386417 -0.8478318337497738
12642588000.0 -0.5395109166570978 -0.8419786047208321 8.880235516556558e-17 7.600079326732727e-17 8.880235516556558e-17 7.600079326732727e-17 -0.5395103485968316 -0.8419789687140324
12643205333.333334 -0.5486914668873495 -0.8360249243681845 8.961778190860636e-17 7.500197843617232e-17 8.961778190860636e-17 7.500197843617232e-17 -0.5486909028714068 -0.8360252945371816
12643822666.666666 -0.5578063229378121 -0.8299711477457619 9.042198531829083e-17 7.39944272350544e-17 9.042198531829083e-17 7.39944272350544e-17 -0.5578057630333234 -0.8299715240456343
12644440000.0 -0.5668543934976913 -0.8238179996650868 9.121487193556638e-17 7.297826565771223e-17 9.121487193556638e-17 7.297826565771223e-17 -0.5668538377712883 -0.823818382050184
12645057333.333334 -0.5758345952522473 -0.8175662168353712 9.199634971449176e-17 7.195362069609384e-17 9.199634971449176e-17 7.195362069609384e-17 -0.5758340437700555 -0.8175666052593188
12645674666.666666 -0.5847458530125939 -0.8112165477752492 9.276632803288788e-17 7.092062032451436e-17 9.276632803288788e-17 7.092062032451436e-17 -0.5847453058402243 -0.8112169421909549
12646292000.0 -0.5935870998445463 -0.8047697527230759 9.352471770282293e-17 6.987939348368047e-17 9.352471770282293e-17 6.987939348368047e-17 -0.5935865570470868 -0.8047701530827335
12646909333.333334 -0.6023572771961508 -0.7982266035460477 9.427143098086199e-17 6.883007006468101e-17 9.427143098086199e-17 6.883007006468101e-17 -0.6023567388381603 -0.7982270098011451
12647526666.666666 -0.6110553350245228 -0.7915878836477283 9.500638157820104e-17 6.777278089278366e-17 9.500638157820104e-17 6.777278089278366e-17 -0.6110548011700208 -0.7915882957490512
12648144000.0 -0.6196802319216063 -0.7848543878742125 9.572948467059719e-17 6.670765771115263e-17 9.572948467059719e-17 6.670765771115263e-17 -0.6196797026340685 -0.7848548057718531
12648761333.333334 -0.6282309352388418 -0.7780269224189816 9.644065690809257e-17 6.563483316449693e-17 9.644065690809257e-17 6.563483316449693e-17 -0.6282304105811897 -0.7780273460623414
12649378666.666666 -0.636706421210667 -0.7711063047264796 9.713981642459212e-17 6.455444078256415e-17 9.713981642459212e-17 6.455444078256415e-17 -0.6367059012452629 -0.7711067340642787
12649996000.0 -0.645105675077273 -0.7640933633941059 9.782688284723677e-17 6.346661496355929e-17 9.782688284723677e-17 6.346661496355929e-17 -0.645105159865911 -0.764093798374387
12650613333.333334 -0.6534276912060956 -0.7569889380730026 9.850177730559797e-17 6.237149095745692e-17 9.850177730559797e-17 6.237149095745692e-17 -0.653427180809994 -0.7569893786431378
12651230666.666666 -0.6616714732120025 -0.7497938793677085 9.916442244067354e-17 6.126920484923599e-17 9.916442244067354e-17 6.126920484923599e-17 -0.6616709676917979 -0.7497943254744064
12651848000.0 -0.6698360340768722 -0.7425090487340795 9.981474241373086e-17 6.015989354196298e-17 9.981474241373086e-17 6.015989354196298e-17 -0.6698355334926108 -0.7425095003233899
12652465333.333334 -0.677920396267634 -0.7351353183762527 1.0045266291490901e-16 5.904369473986647e-17 1.0045266291490901e-16 5.904369473986647e-17 -0.6779199006787658 -0.7351357753935754
12653082666.666666 -0.6859235918531852 -0.7276735711423392 1.0107811117167519e-16 5.792074693125447e-17 1.0107811117167519e-16 5.792074693125447e-17 -0.6859231013185563 -0.7276740335324289
12653700000.0 -0.6938446626205528 -0.7201247004184702 1.0169101595707941e-16 5.679118937135528e-17 1.0169101595707941e-16 5.679118937135528e-17 -0.6938441771983979 -0.720125168125444
12654317333.333334 -0.7016826601893873 -0.712489610022045 1.022913075977969e-16 5.565516206511327e-17 1.022913075977969e-16 5.565516206511327e-17 -0.7016821799373236 -0.7124900829893884
12654934666.666666 -0.7094366461255964 -0.7047692140934405 1.0287891798201693e-16 5.451280574983068e-17 1.0287891798201693e-16 5.451280574983068e-17 -0.7094361711006175 -0.7047696922640161
12655552000.0 -0.7171056920537626 -0.6969644369865036 1.0345378056710602e-16 5.336426187778473e-17 1.0345378056710602e-16 5.336426187778473e-17 -0.71710522231223 -0.6969649203025557
12656169333.333334 -0.7246888797681762 -0.6890762131579984 1.0401583038708783e-16 5.220967259874758e-17 1.0401583038708783e-16 5.220967259874758e-17 -0.7246884153658122 -0.6890767015611605
12656786666.666666 -0.7321853013428479 -0.6811054870556431 1.04565004059934e-16 5.104918074241642e-17 1.04565004059934e-16 5.104918074241642e-17 -0.7321848423347322 -0.6811059804869463
12657404000.0 -0.7395940592401786 -0.6730532130050754 1.0510123979465191e-16 4.988292980078227e-17 1.0510123979465191e-16 4.988292980078227e-17 -0.7395936056807392 -0.6730537114049545
12658021333.333334 -0.7469142664185164 -0.664920355095489 1.0562447739818681e-16 4.871106391040465e-17 1.0562447739818681e-16 4.871106391040465e-17 -0.7469138183615226 -0.6649208584037888
12658638666.666666 -0.7541450464381458 -0.6567078870644301 1.0613465828210366e-16 4.753372783466227e-17 1.0613465828210366e-16 4.753372783466227e-17 -0.754144603936704 -0.6567083952204148
12659256000.0 -0.7612855335664764 -0.6484167921809447 1.0663172546910518e-16 4.635106694586263e-17 1.0663172546910518e-16 4.635106694586263e-17 -0.7612850966730226 -0.6484173051233033
12659873333.333334 -0.7683348728815768 -0.6400480631279746 1.0711562359932487e-16 4.5163227207341567e-17 1.0711562359932487e-16 4.5163227207341567e-17 -0.7683344416478705 -0.64004858079483
12660490666.666666 -0.7752922203744266 -0.6316027018836384 1.075862989364205e-16 4.397035515550126e-17 1.075862989364205e-16 4.397035515550126e-17 -0.7752917948515441 -0.6316032242125529
12661108000.0 -0.7821567430502051 -0.6230817196009821 1.0804369937349928e-16 4.27725978817093e-17 1.0804369937349928e-16 4.27725978817093e-17 -0.7821563232885341 -0.623082246528966
12661725333.333334 -0.7889276190278248 -0.6144861364871542 1.0848777443879376e-16 4.157010301425637e-17 1.0848777443879376e-16 4.157010301425637e-17 -0.7889272050770586 -0.6144866679506736
12662342666.666666 -0.7956040376384249 -0.6058169816811488 1.0891847530118021e-16 4.036301870014877e-17 1.0891847530118021e-16 4.036301870014877e-17 -0.7956036295475569 -0.6058175176161336
12662960000.0 -0.8021851995223975 -0.5970752931306338 1.0933575477547482e-16 3.915149358689363e-17 1.0933575477547482e-16 3.915149358689363e-17 -0.8021847973397143 -0.5970758334724843
12663577333.333334 -0.8086703167251612 -0.5882621174675863 1.0973956732752568e-16 3.7935676804240035e-17 1.0973956732752568e-16 3.7935676804240035e-17 -0.8086699204982373 -0.5882626621511813
12664194666.666666 -0.8150586127913995 -0.5793785098831166 1.1012986907911006e-16 3.6715717945843725e-17 1.1012986907911006e-16 3.6715717945843725e-17 -0.8150582225670913 -0.5793790588428218
12664812000.0 -0.8213493228580769 -0.5704255340010651 1.1050661781262883e-16 3.5491767050882456e-17 1.1050661781262883e-16 3.5491767050882456e-17 -0.8213489386825183 -0.5704260871707406
12665429333.333334 -0.827541693746079 -0.5614042617505606 1.10869772975588e-16 3.4263974585649257e-17 1.10869772975588e-16 3.4263974585649257e-17 -0.827541315664675 -0.5614048190635689
12666046666.666666 -0.8336349840502134 -0.5523157732379386 1.1121929568488097e-16 3.303249142509204e-17 1.1121929568488097e-16 3.303249142509204e-17 -0.8336346121076355 -0.5523163346271527
12666664000.0 -0.8396284642281999 -0.5431611566170906 1.1155514873087921e-16 3.179746883425961e-17 1.1155514873087921e-16 3.179746883425961e-17 -0.8396280984683799 -0.5431617220149024
12667281333.333334 -0.8455214166878436 -0.5339415079594417 1.1187729658128704e-16 3.055905844981522e-17 1.1187729658128704e-16 3.055905844981522e-17 -0.8455210571539685 -0.533942077297769
12667898666.666666 -0.8513131358730167 -0.524657931122625 1.1218570538482212e-16 2.9317412261407915e-17 1.1218570538482212e-16 2.9317412261407915e-17 -0.8513127826075233 -0.5246585043329206
12668516000.0 -0.8570029283481727 -0.5153115376182427 1.1248034297467833e-16 2.807268259303916e-17 1.1248034297467833e-16 2.807268259303916e-17 -0.8570025813927458 -0.5153121146315034
12669133333.333334 -0.8625901128812897 -0.5059034464789353 1.1276117887176935e-16 2.6825022084457407e-17 1.1276117887176935e-16 2.6825022084457407e-17 -0.8625897722768517 -0.5059040272257084
12669750666.666666 -0.8680740205254847 -0.4964347841243007 1.1302818428779203e-16 2.5574583672412565e-17 1.1302818428779203e-16 2.5574583672412565e-17 -0.8680736863121953 -0.4964353685346939
12670368000.0 -0.8734539946991103 -0.4869066842260311 1.1328133212805992e-16 2.4321520571974413e-17 1.1328133212805992e-16 2.4321520571974413e-17 -0.8734536669163596 -0.4869072722297198
