! Parameters = {f0=12700.012000; bw=77.238000; Q=6100.000000; N=10; m_0_1=1.212307; m_1_1=-0.580136; m_1_2=1.047119; m_2_2=-0.580785; m_2_3=0.684082; m_2_8=-0.002321; m_2_9=0.034383; m_3_3=-0.582722; m_3_4=0.572611; m_3_7=-0.001721; m_3_8=-0.098809; m_3_9=-0.002321; m_4_4=-0.585647; m_4_5=0.408946; m_4_6=0.001796; m_4_7=-0.119358; m_4_8=-0.001721; m_5_5=-0.585265; m_5_6=0.816301; m_5_7=0.001796; m_6_6=-0.585266; m_6_7=0.409288; m_7_7=-0.585633; m_7_8=0.572729; m_8_8=-0.582724; m_8_9=0.684395; m_9_9=-0.580790; m_9_10=1.048197; m_10_10=-0.580146; m_10_11=1.213102}
!
! Created with skrf (http://scikit-rf.org).
# Hz S RI R 50.0 
!freq ReS11 ImS11 ReS21 ImS21 ReS12 ImS12 ReS22 ImS22
12607400000.0 -0.4864351967595031 -0.8737166585074266 5.972432049580456e-17 5.84695313396242e-17 5.972432049580456e-17 5.84695313396242e-17 -0.4864346386146843 -0.8737169692501345
12608017333.333334 -0.49412009639608223 -0.8693936567156247 6.023088065228725e-17 5.792396235654769e-17 6.023088065228725e-17 5.792396235654769e-17 -0.49411954104006345 -0.8693939723521185
12608634666.666666 -0.5017665801563027 -0.8650030630223728 6.073246422188645e-17 5.737401188555268e-17 6.073246422188645e-17 5.737401188555268e-17 -0.5017660276319857 -0.865003383527635
12609252000.0 -0.5093740535565132 -0.860545218778912 6.122903337235426e-17 5.681972526049483e-17 6.122903337235426e-17 5.681972526049483e-17 -0.5093735039065747 -0.8605455441275482
12609869333.333334 -0.516941925145889 -0.8560204705649863 6.17205506838752e-17 5.62611481412912e-17 6.17205506838752e-17 5.62611481412912e-17 -0.5169413784127788 -0.8560208007312297
12610486666.666666 -0.5244696065524909 -0.8514291701618604 6.220697915185822e-17 5.569832651018675e-17 6.220697915185822e-17 5.569832651018675e-17 -0.5244690627784275 -0.8514295051195709
12611104000.0 -0.5319565125290798 -0.8467716745249211 6.268828218972039e-17 5.513130666796898e-17 6.268828218972039e-17 5.513130666796898e-17 -0.5319559717560475 -0.8467720142475889
12611721333.333334 -0.5394020609984476 -0.842048345756029 6.316442363161228e-17 5.4560135230184983e-17 6.316442363161228e-17 5.4560135230184983e-17 -0.5394015232681941 -0.842048690216778
12612338666.666666 -0.5468056730988431 -0.8372595510752687 6.36353677351238e-17 5.3984859123319584e-17 6.36353677351238e-17 5.3984859123319584e-17 -0.546805138452874 -0.8372599002468544
12612956000.0 -0.5541667732288994 -0.8324056627924321 6.41010791839635e-17 5.340552558093864e-17 6.41010791839635e-17 5.340552558093864e-17 -0.554166241708478 -0.8324060166472489
12613573333.333334 -0.5614847890923411 -0.8274870582781151 6.456152309056592e-17 5.282218213985568e-17 6.456152309056592e-17 5.282218213985568e-17 -0.5614842607384826 -0.8274874167881945
12614190666.666666 -0.568759151742523 -0.8225041199343408 6.501666499871479e-17 5.223487663621345e-17 6.501666499871479e-17 5.223487663621345e-17 -0.5687586265959933 -0.8225044830713563
12614808000.0 -0.5759892956267366 -0.817457235164785 6.546647088609383e-17 5.1643657201589457e-17 6.546647088609383e-17 5.1643657201589457e-17 -0.5759887737280475 -0.8174576029000524
12615425333.333334 -0.583174658630013 -0.8123467963447677 6.591090716681073e-17 5.104857225906821e-17 6.591090716681073e-17 5.104857225906821e-17 -0.5831741400194198 -0.812347168649248
12616042666.666666 -0.5903146821190121 -0.8071732007906165 6.634994069389929e-17 5.04496705192756e-17 6.634994069389929e-17 5.04496705192756e-17 -0.5903141668365114 -0.8071735776349193
12616660000.0 -0.5974088109852702 -0.8019368507289119 6.678353876176342e-17 4.9847000976419756e-17 6.678353876176342e-17 4.9847000976419756e-17 -0.5974082990705952 -0.8019372320832956
12617277333.333334 -0.6044564936885403 -0.7966381532650791 6.721166910860875e-17 4.9240612904281015e-17 6.721166910860875e-17 4.9240612904281015e-17 -0.6044559851811588 -0.7966385390994553
12617894666.666666 -0.6114571822994889 -0.7912775203518733 6.763429991881488e-17 4.863055585221155e-17 6.763429991881488e-17 4.863055585221155e-17 -0.6114566772386002 -0.7912779106358078
12618512000.0 -0.6184103325424789 -0.7858553687572162 6.805139982529415e-17 4.801687964108423e-17 6.805139982529415e-17 4.801687964108423e-17 -0.6184098309670102 -0.7858557634599322
12619129333.333334 -0.6253154038377248 -0.7803721200319138 6.846293791179314e-17 4.7399634359250474e-17 6.846293791179314e-17 4.7399634359250474e-17 -0.6253149057863284 -0.7803725191222936
12619746666.666666 -0.6321718593433665 -0.7748282004768476 6.886888371516952e-17 4.677887035846081e-17 6.886888371516952e-17 4.677887035846081e-17 -0.6321713648544177 -0.7748286039234363
12620364000.0 -0.6389791659973857 -0.7692240411096922 6.926920722764046e-17 4.6154638249754715e-17 6.926920722764046e-17 4.6154638249754715e-17 -0.6389786751089784 -0.7692244488806984
12620981333.333334 -0.6457367945586702 -0.7635600776317041 6.966387889896084e-17 4.5526988899380374e-17 6.966387889896084e-17 4.5526988899380374e-17 -0.6457363073086148 -0.7635604896950033
12621598666.666666 -0.6524442196485593 -0.7578367503935277 7.005286963860892e-17 4.489597342462891e-17 7.005286963860892e-17 4.489597342462891e-17 -0.65244373607438 -0.7578371667166662
12622216000.0 -0.6591009197914052 -0.7520545043611963 7.043615081790228e-17 4.426164318969981e-17 7.043615081790228e-17 4.426164318969981e-17 -0.6591004399303361 -0.7520549249113904
12622833333.333334 -0.6657063774553079 -0.7462137890813672 7.081369427208501e-17 4.3624049801534255e-17 7.081369427208501e-17 4.3624049801534255e-17 -0.6657059013442918 -0.7462142138255098
12623450666.666666 -0.6722600790922051 -0.7403150586465073 7.118547230238327e-17 4.298324510562347e-17 7.118547230238327e-17 4.298324510562347e-17 -0.6722596067678888 -0.7403154875511674
12624068000.0 -0.6787615151778393 -0.7343587716595501 7.155145767801466e-17 4.233928118181109e-17 7.155145767801466e-17 4.233928118181109e-17 -0.6787610466765719 -0.7343592046909765
12624685333.333334 -0.6852101802515387 -0.7283453911980864 7.191162363817338e-17 4.1692210340056805e-17 7.191162363817338e-17 4.1692210340056805e-17 -0.6852097156093687 -0.7283458283222107
12625302666.666666 -0.6916055729551398 -0.7222753847787097 7.22659438939527e-17 4.1042085116226117e-17 7.22659438939527e-17 4.1042085116226117e-17 -0.691605112207812 -0.7222758259611487
12625920000.0 -0.697947196072442 -0.7161492243202219 7.261439263025794e-17 4.0388958267812437e-17 7.261439263025794e-17 4.0388958267812437e-17 -0.6979467392553953 -0.7161496695262802
12626537333.333334 -0.7042345565674137 -0.7099673861073751 7.295694450766002e-17 3.9732882769682836e-17 7.295694450766002e-17 3.9732882769682836e-17 -0.704234103715777 -0.7099678353020475
12627154666.666666 -0.7104671656228068 -0.7037303507535652 7.329357466421559e-17 3.907391180979745e-17 7.329357466421559e-17 3.907391180979745e-17 -0.7104667167713986 -0.7037308039015409
12627772000.0 -0.7166445386781222 -0.6974386031635057 7.362425871726683e-17 3.841209878488066e-17 7.362425871726683e-17 3.841209878488066e-17 -0.716644093861446 -0.697439060229169
12628389333.333334 -0.7227661954671605 -0.6910926324956495 7.39489727651628e-17 3.7747497296152436e-17 7.39489727651628e-17 3.7747497296152436e-17 -0.722765754719403 -0.6910930934430843
12629006666.666666 -0.7288316600555013 -0.6846929321240167 7.426769338898979e-17 3.7080161144953043e-17 7.426769338898979e-17 3.7080161144953043e-17 -0.7288312234105285 -0.6846933969170078
12629624000.0 -0.7348404608774238 -0.6782399995999171 7.458039765422409e-17 3.64101443284292e-17 7.458039765422409e-17 3.64101443284292e-17 -0.7348400283687816 -0.6782404682019554
12630241333.333334 -0.7407921307726308 -0.6717343366132075 7.488706311236382e-17 3.57375010351706e-17 7.488706311236382e-17 3.57375010351706e-17 -0.7407917024335382 -0.6717348089874897
12630858666.666666 -0.7466862070223926 -0.6651764489534735 7.51876678025198e-17 3.5062285640837404e-17 7.51876678025198e-17 3.5062285640837404e-17 -0.7466857828857425 -0.6651769250629083
12631476000.0 -0.7525222313858669 -0.65856684647033 7.54821902529682e-17 3.438455270376975e-17 7.54821902529682e-17 3.438455270376975e-17 -0.7525218114842217 -0.6585673262775379
12632093333.333334 -0.7582997501353275 -0.6519060430342252 7.577060948265617e-17 3.3704356960604525e-17 7.577060948265617e-17 3.3704356960604525e-17 -0.7582993345009166 -0.6519065265015428
12632710666.666666 -0.7640183140917006 -0.6451945564961904 7.605290500267561e-17 3.302175332185975e-17 7.605290500267561e-17 3.302175332185975e-17 -0.7640179027564199 -0.6451950435856748
12633328000.0 -0.769677478659435 -0.6384329086476467 7.632905681769724e-17 3.233679686750949e-17 7.632905681769724e-17 3.233679686750949e-17 -0.7696770716548428 -0.6384333993210767
12633945333.333334 -0.7752768038610459 -0.6316216251798563 7.659904542736058e-17 3.1649542842555424e-17 7.659904542736058e-17 3.1649542842555424e-17 -0.7752764012183587 -0.6316221193987346
12634562666.666666 -0.7808158543712642 -0.6247612356431163 7.686285182762375e-17 3.0960046652589406e-17 7.686285182762375e-17 3.0960046652589406e-17 -0.7808154561213599 -0.6247617333686757
12635180000.0 -0.7862941995509968 -0.6178522734054611 7.712045751208227e-17 3.026836385932328e-17 7.712045751208227e-17 3.026836385932328e-17 -0.7862938057244065 -0.6178527745986646
12635797333.333334 -0.7917114134807661 -0.6108952756112362 7.737184447323528e-17 2.9574550176138496e-17 7.737184447323528e-17 2.9574550176138496e-17 -0.791711024107674 -0.6108957802327805
12636414666.666666 -0.797067074993699 -0.6038907831394923 7.761699520372104e-17 2.887866146360377e-17 7.761699520372104e-17 2.887866146360377e-17 -0.7970666901039415 -0.6038912911498127
12637032000.0 -0.8023607677085036 -0.5968393405616466 7.785589269751127e-17 2.8180753724982474e-17 7.785589269751127e-17 2.8180753724982474e-17 -0.8023603873315642 -0.5968398519209176
12637649333.333334 -0.8075920800616286 -0.5897414960994118 7.8088520451058e-17 2.7480883101752922e-17 7.8088520451058e-17 2.7480883101752922e-17 -0.8075917042266376 -0.589742010767552
12638266666.666666 -0.8127606053394162 -0.5825978015819707 7.831486246441181e-17 2.6779105869085984e-17 7.831486246441181e-17 2.6779105869085984e-17 -0.8127602340751486 -0.5825983195186456
12638884000.0 -0.8178659417095892 -0.5754088124032576 7.853490324228705e-17 2.607547843134949e-17 7.853490324228705e-17 2.607547843134949e-17 -0.8178655750444604 -0.5754093335678817
12639501333.333334 -0.8229076922526373 -0.5681750874785687 7.87486277950992e-17 2.5370057317568565e-17 7.87486277950992e-17 2.5370057317568565e-17 -0.8229073302147041 -0.5681756118303106
12640118666.666666 -0.8278854649924512 -0.5608971892014367 7.895602163994904e-17 2.4662899176915802e-17 7.895602163994904e-17 2.4662899176915802e-17 -0.8278851076094075 -0.560897716699221
12640736000.0 -0.8327988729271683 -0.5535756833993685 7.91570708015814e-17 2.3954060774144143e-17 7.91570708015814e-17 2.3954060774144143e-17 -0.8327985202263426 -0.5535762140018787
12641353333.333334 -0.8376475340588242 -0.5462111392904866 7.935176181328383e-17 2.3243598985080324e-17 7.935176181328383e-17 2.3243598985080324e-17 -0.837647186067179 -0.5462116729561692
12641970666.666666 -0.8424310714233426 -0.5388041294388526 7.954008171776346e-17 2.2531570792043155e-17 7.954008171776346e-17 2.2531570792043155e-17 -0.8424307281674711 -0.5388046661259199
12642588000.0 -0.8471491131197915 -0.5313552297100221 7.97220180679745e-17 2.1818033279289424e-17 7.97220180679745e-17 2.1818033279289424e-17 -0.8471487746259179 -0.5313557693764563
12643205333.333334 -0.8518012923391935 -0.5238650192264427 7.989755892790067e-17 2.1103043628464487e-17 7.989755892790067e-17 2.1103043628464487e-17 -0.8518009586331664 -0.5238655618299973
12643822666.666666 -0.8563872473932186 -0.5163340803221367 8.00666928733087e-17 2.0386659114006347e-17 8.00666928733087e-17 2.0386659114006347e-17 -0.8563869185005146 -0.5163346258203423
12644440000.0 -0.8609066217421162 -0.5087629984977454 8.022940899244911e-17 1.9668937098587125e-17 8.022940899244911e-17 1.9668937098587125e-17 -0.8609062976878338 -0.5087635468479108
12645057333.333334 -0.8653590640225645 -0.5011523623747886 8.038569688672035e-17 1.894993502853597e-17 8.038569688672035e-17 1.894993502853597e-17 -0.865358744831424 -0.5011529135340054
12645674666.666666 -0.8697442280748724 -0.4935027636500969 8.053554667129642e-17 1.8229710429236323e-17 8.053554667129642e-17 1.8229710429236323e-17 -0.8697439137712143 -0.4935033175752427
12646292000.0 -0.8740617729700946 -0.4858147970494674 8.067894897570892e-17 1.7508320900537026e-17 8.067894897570892e-17 1.7508320900537026e-17 -0.8740614635778747 -0.485815353697208
12646909333.333334 -0.8783113630363035 -0.47808906028181697 8.081589494438645e-17 1.6785824112170948e-17 8.081589494438645e-17 1.6785824112170948e-17 -0.8783110585790964 -0.4780896196086121
12647526666.666666 -0.8824926678847946 -0.4703261539925441 8.09463762371587e-17 1.606227779913983e-17 8.09463762371587e-17 1.606227779913983e-17 -0.8824923683857869 -0.4703267159546486
12648144000.0 -0.8866053624358465 -0.4625266817166778 8.107038502971419e-17 1.5337739757121123e-17 8.107038502971419e-17 1.5337739757121123e-17 -0.8866050679178383 -0.46252724627014646
12648761333.333334 -0.890649126943837 -0.4546912498322576 8.118791401402095e-17 1.461226783785577e-17 8.118791401402095e-17 1.461226783785577e-17 -0.8906488374292388 -0.4546918169329478
12649378666.666666 -0.8946236470222072 -0.4468204675129882 8.129895639870065e-17 1.3885919944558594e-17 8.129895639870065e-17 1.3885919944558594e-17 -0.8946233625330374 -0.44682103711656346
12649996000.0 -0.8985286136678651 -0.43891494668095465 8.140350590937006e-17 1.3158754027280297e-17 8.140350590937006e-17 1.3158754027280297e-17 -0.8985283342257501 -0.4389155187428883
12650613333.333334 -0.9023637232852713 -0.4309753019589202 8.150155678893426e-17 1.24308280783091e-17 8.150155678893426e-17 1.24308280783091e-17 -0.9023634489114434 -0.43097587643449914
12651230666.666666 -0.906128677709896 -0.4230021506228496 8.159310379783869e-17 1.1702200127573227e-17 8.159310379783869e-17 1.1702200127573227e-17 -0.9061284084251907 -0.4230027274671772
12651848000.0 -0.9098231842316178 -0.41499611255345553 8.167814221428812e-17 1.097292823798653e-17 8.167814221428812e-17 1.097292823798653e-17 -0.9098229200564731 -0.4149966917214554
12652465333.333334 -0.913446955617275 -0.40695781018844257 8.175666783441333e-17 1.0243070500872174e-17 8.175666783441333e-17 1.0243070500872174e-17 -0.9134466965717302 -0.4069583916348622
12653082666.666666 -0.9169997101330838 -0.39888786847393587 8.182867697240479e-17 9.512685031327894e-18 8.182867697240479e-17 9.512685031327894e-18 -0.9169994562367771 -0.39888845215335006
12653700000.0 -0.9204811715666207 -0.3907869148157117 8.189416646060312e-17 8.781829963605022e-18 8.189416646060312e-17 8.781829963605022e-18 -0.920480922838787 -0.39078750068252555
12654317333.333334 -0.9238910692480994 -0.38265557903085995 8.195313364954604e-17 8.050563446508782e-18 8.195313364954604e-17 8.050563446508782e-18 -0.9238908257075725 -0.382656167039314
12654934666.666666 -0.9272291380716153 -0.37449449329837864 8.200557640797811e-17 7.318943638766645e-18 8.200557640797811e-17 7.318943638766645e-18 -0.9272288997368214 -0.3744950834025505
12655552000.0 -0.9304951185156558 -0.3663042921102292 8.205149312281612e-17 6.587028704420951e-18 8.205149312281612e-17 6.587028704420951e-18 -0.930494885404616 -0.36630488426403823
12656169333.333334 -0.9336887566632738 -0.3580856122220364 8.209088269907518e-17 5.854876808220651e-18 8.209088269907518e-17 5.854876808220651e-18 -0.9336885287936008 -0.3580862063792475
12656786666.666666 -0.9368098042218489 -0.34983909260353013 8.21237445597531e-17 5.122546111005391e-18 8.21237445597531e-17 5.122546111005391e-18 -0.9368095816107472 -0.34983968871775695
12657404000.0 -0.939858018542422 -0.3415653743887885 8.215007864567469e-17 4.390094765091763e-18 8.215007864567469e-17 4.390094765091763e-18 -0.9398578012066838 -0.3415659724134964
12658021333.333334 -0.942833162638497 -0.3332651008265505 8.216988541529382e-17 3.657580909668984e-18 8.216988541529382e-17 3.657580909668984e-18 -0.9428329505945043 -0.33326570071506156
12658638666.666666 -0.945735005204489 -0.324938917230154 8.218316584445469e-17 2.9250626662138056e-18 8.218316584445469e-17 2.9250626662138056e-18 -0.9457347984682114 -0.32493951893565004
12659256000.0 -0.9485633206337748 -0.31658747092717826 8.21899214261139e-17 2.192598133850189e-18 8.21899214261139e-17 2.192598133850189e-18 -0.9485631192207654 -0.31658807440270376
12659873333.333334 -0.9513178890361139 -0.3082114112094363 8.219015417001898e-17 1.4602453847920011e-18 8.219015417001898e-17 1.4602453847920011e-18 -0.9513176929615126 -0.3082120164079033
12660490666.666666 -0.9539984962548169 -0.29981138928230977 8.218386660234825e-17 7.280624597312201e-19 8.218386660234825e-17 7.280624597312201e-19 -0.9539983055333454 -0.2998119961565005
12661108000.0 -0.9566049338834073 -0.2913880582140641 8.217106176530885e-17 -3.892636755553455e-21 8.217106176530885e-17 -3.892636755553455e-21 -0.9566047485293712 -0.29138866671663544
12661725333.333334 -0.9591369992817733 -0.28294207288523826 8.215174321669434e-17 -7.355619407749023e-19 8.215174321669434e-17 -7.355619407749023e-19 -0.9591368193090595 -0.28294268296872527
12662342666.666666 -0.9615944955919512 -0.27447408993764977 8.212591502940135e-17 -1.4668875337144265e-18 8.212591502940135e-17 -1.4668875337144265e-18 -0.9615943210140256 -0.27447470155446885
12662960000.0 -0.9639772317534497 -0.2659847677232603 8.209358179090626e-17 -2.1978115467978402e-18 8.209358179090626e-17 -2.1978115467978402e-18 -0.9639770625833586 -0.2659853808257135
12663577333.333334 -0.9662850225180505 -0.25747476625318294 8.20547486027001e-17 -2.92827616567168e-18 8.20547486027001e-17 -2.92827616567168e-18 -0.966284858768418 -0.2574753807934614
12664194666.666666 -0.9685176884642666 -0.24894474714617826 8.200942107968444e-17 -3.65822363494859e-18 8.200942107968444e-17 -3.65822363494859e-18 -0.9685175301472947 -0.24894536307636608
12664812000.0 -0.9706750560112652 -0.24039537357729698 8.195760534952544e-17 -4.38759626277914e-18 8.195760534952544e-17 -4.38759626277914e-18 -0.9706749031387325 -0.24039599084937496
12665429333.333334 -0.9727569574323502 -0.23182731022637648 8.189930805196804e-17 -5.116336425395825e-18 8.189930805196804e-17 -5.116336425395825e-18 -0.9727568100156105 -0.23182792879222572
12666046666.666666 -0.9747632308680206 -0.22324122322631024 8.183453633811152e-17 -5.844386571635988e-18 8.183453633811152e-17 -5.844386571635988e-18 -0.9747630889180015 -0.22324184303771558
12666664000.0 -0.9766937203385655 -0.21463778011117393 8.176329786963975e-17 -6.571689227517641e-18 8.176329786963975e-17 -6.571689227517641e-18 -0.9766935838657708 -0.2146384011198288
12667281333.333334 -0.9785482757561595 -0.20601764976449494 8.168560081801922e-17 -7.298187000714462e-18 8.168560081801922e-17 -7.298187000714462e-18 -0.9785481447706653 -0.2060182719220041
12667898666.666666 -0.9803267529365454 -0.1973815023671941 8.160145386364872e-17 -8.023822585115461e-18 8.160145386364872e-17 -8.023822585115461e-18 -0.980326627447998 -0.1973821256250772
12668516000.0 -0.9820290136102808 -0.18873000934525733 8.151086619497411e-17 -8.748538765315644e-18 8.151086619497411e-17 -8.748538765315644e-18 -0.9820288936279012 -0.18873063365495382
12669133333.333334 -0.9836549254333998 -0.1800638433180099 8.141384750756297e-17 -9.472278421111748e-18 8.141384750756297e-17 -9.472278421111748e-18 -0.9836548109659803 -0.18006446863088232
12669750666.666666 -0.9852043619977979 -0.17138367804534957 8.131040800313627e-17 -1.0194984532009482e-17 8.131040800313627e-17 -1.0194984532009482e-17 -0.9852042530536985 -0.1713843043126867
12670368000.0 -0.9866772028410138 -0.16269018837555801 8.120055838856403e-17 -1.0916600181688662e-17 8.120055838856403e-17 -1.0916600181688662e-17 -0.9866770994281657 -0.1626908155485794
