! Parameters = {f0=12700.012000; bw=77.238000; Q=6100.000000; N=10; m_0_1=1.320816; m_1_1=1.047492; m_1_2=1.155628; m_2_2=1.046843; m_2_3=0.792591; m_2_8=0.003104; m_2_9=0.039808; m_3_3=1.044906; m_3_4=0.681120; m_3_7=0.003704; m_3_8=-0.093384; m_3_9=0.003104; m_4_4=1.041981; m_4_5=0.517455; m_4_6=0.007221; m_4_7=-0.113933; m_4_8=0.003704; m_5_5=1.042363; m_5_6=0.924810; m_5_7=0.007221; m_6_6=1.042362; m_6_7=0.517797; m_7_7=1.041995; m_7_8=0.681238; m_8_8=1.044904; m_8_9=0.792904; m_9_9=1.046838; m_9_10=1.156706; m_10_10=1.047482; m_10_11=1.321611}
!
! Created with skrf (http://scikit-rf.org).
# Hz S RI R 50.0 
!freq ReS11 ImS11 ReS21 ImS21 ReS12 ImS12 ReS22 ImS22
12607400000.0 0.0884324799627654 0.9960821735617224 -5.138159080706134e-17 -1.2993978833185916e-16 -5.138159080706134e-17 -1.2993978833185916e-16 0.08843178690059016 0.9960822350917506
12608017333.333334 0.10040388115937283 0.9949467627204701 -5.2941489636333046e-17 -1.2928251984556753e-16 -5.2941489636333046e-17 -1.2928251984556753e-16 0.1004031889210904 0.9949468325766382
12608634666.666666 0.11236076359011811 0.9936674789914653 -5.449300880048029e-17 -1.28606537232866e-16 -5.449300880048029e-17 -1.28606537232866e-16 0.11236007227574309 0.9936675571628567
12609252000.0 0.12430139824671646 0.9922445073638461 -5.603592393370305e-17 -1.2791194700540456e-16 -5.603592393370305e-17 -1.2791194700540456e-16 0.12430070795611986 0.9922445938383422
12609869333.333334 0.13622405847039948 0.9906780536045312 -5.757001202032345e-17 -1.2719885836297524e-16 -5.757001202032345e-17 -1.2719885836297524e-16 0.13622336930329493 0.9906781483688168
12610486666.666666 0.1481270202014284 0.988968344228497 -5.909505142694888e-17 -1.2646738317645142e-16 -5.909505142694888e-17 -1.2646738317645142e-16 0.14812633225735697 0.9889684472680573
12611104000.0 0.16000856222882054 0.9871156264659553 -6.061082193449553e-17 -1.2571763597030664e-16 -6.061082193449553e-17 -1.2571763597030664e-16 0.16000787560713683 0.987115737765081
12611721333.333334 0.17186696643868032 0.9851201682266868 -6.211710476986617e-17 -1.249497339048106e-16 -6.211710476986617e-17 -1.249497339048106e-16 0.17186628123853795 0.9851202877684758
12612338666.666666 0.1837005180630383 0.982982258061243 -6.361368263752163e-17 -1.2416379675778877e-16 -6.361368263752163e-17 -1.2416379675778877e-16 0.1836998343833759 0.9829823858276043
12612956000.0 0.1955075059277848 0.9807022051192231 -6.510033975079089e-17 -1.2335994690602065e-16 -6.510033975079089e-17 -1.2335994690602065e-16 0.19550682386731108 0.9807023410908762
12613573333.333334 0.20728622269985905 0.9782803391046113 -6.657686186286309e-17 -1.2253830930630782e-16 -6.657686186286309e-17 -1.2253830930630782e-16 0.20728554235703922 0.9782804832610926
12614190666.666666 0.2190349651343886 0.975717010228061 -6.804303629769612e-17 -1.2169901147608984e-16 -6.804303629769612e-17 -1.2169901147608984e-16 0.2190342866074298 0.9757171625477248
12614808000.0 0.23075203432095553 0.9730125891562501 -6.949865198054273e-17 -1.2084218347376722e-16 -6.949865198054273e-17 -1.2084218347376722e-16 0.23075135770779262 0.9730127496162728
12615425333.333334 0.24243573592912593 0.970167466958314 -7.094349946830649e-17 -1.199679578786172e-16 -7.094349946830649e-17 -1.199679578786172e-16 0.2424350613274077 0.9701676355346974
12616042666.666666 0.2540843804535683 0.9671820550492732 -7.237737097961903e-17 -1.1907646977036372e-16 -7.237737097961903e-17 -1.1907646977036372e-16 0.2540837079606427 0.9671822317168464
12616660000.0 0.26569628345830576 0.9640567851305506 -7.380006042468205e-17 -1.1816785670837628e-16 -7.380006042468205e-17 -1.1816785670837628e-16 0.26569561317120693 0.9640569698629774
12617277333.333334 0.2772697658204567 0.9607921091275041 -7.521136343481879e-17 -1.1724225871053104e-16 -7.521136343481879e-17 -1.1724225871053104e-16 0.27726909783588977 0.9607923018972835
12617894666.666666 0.2888031539726039 0.9573884991241983 -7.66110773917761e-17 -1.1629981823171323e-16 -7.66110773917761e-17 -1.1629981823171323e-16 0.28880248838693207 0.9573886999026704
12618512000.0 0.3002947801454816 0.9538464472949437 -7.799900145679365e-17 -1.1534068014194486e-16 -7.799900145679365e-17 -1.1534068014194486e-16 0.3002941170547114 0.9538466560522926
12619129333.333334 0.31174298260845873 0.9501664658333249 -7.937493659931873e-17 -1.1436499170422242e-16 -7.937493659931873e-17 -1.1436499170422242e-16 0.31174232210822667 0.9501666825385846
12619746666.666666 0.3231461059102134 0.9463490868780263 -8.073868562554003e-17 -1.1337290255194795e-16 -8.073868562554003e-17 -1.1337290255194795e-16 0.32314544809577234 0.9463493114990849
12620364000.0 0.3345025011182226 0.9423948624358384 -8.209005320657457e-17 -1.1236456466606508e-16 -8.209005320657457e-17 -1.1236456466606508e-16 0.33450184608442735 0.942395094939442
12620981333.333334 0.3458105260566666 0.9383043643020215 -8.342884590637499e-17 -1.1134013235185947e-16 -8.342884590637499e-17 -1.1134013235185947e-16 0.3458098738979608 0.9383046046537795
12621598666.666666 0.35706854554453826 0.9340781839774002 -8.475487220938889e-17 -1.1029976221539604e-16 -8.475487220938889e-17 -1.1029976221539604e-16 0.3570678963549405 0.934078432141791
12622216000.0 0.3682749316316659 0.9297169325829772 -8.606794254789716e-17 -1.0924361313964897e-16 -8.606794254789716e-17 -1.0924361313964897e-16 0.3682742855047569 0.9297171885233544
12622833333.333334 0.3794280638343098 0.925221240771501 -8.736786932904624e-17 -1.0817184626031424e-16 -8.736786932904624e-17 -1.0817184626031424e-16 0.3794274208632172 0.9252215044500945
12623450666.666666 0.3905263293693558 0.9205917586363171 -8.865446696159402e-17 -1.0708462494129306e-16 -8.865446696159402e-17 -1.0708462494129306e-16 0.3905256896467423 0.9205920300142434
12624068000.0 0.4015681233876357 0.9158291556173241 -8.992755188235945e-17 -1.0598211474984888e-16 -8.992755188235945e-17 -1.0598211474984888e-16 0.40156748700568584 0.9158294346545908
12624685333.333334 0.4125518492061258 0.910934120404113 -9.11869425823735e-17 -1.0486448343144347e-16 -9.11869425823735e-17 -1.0486448343144347e-16 0.4125512162565313 0.9109344070596228
12625302666.666666 0.4234759185384136 0.9059073608365581 -9.243245963263824e-17 -1.0373190088433345e-16 -9.243245963263824e-17 -1.0373190088433345e-16 0.4234752891123608 0.905907655068116
12625920000.0 0.4343387517248638 0.9007496038022429 -9.366392570971944e-17 -1.0258453913373098e-16 -9.366392570971944e-17 -1.0258453913373098e-16 0.43433812591302134 0.9007499055665642
12626537333.333334 0.44513877796065654 0.8954615951315299 -9.488116562086037e-17 -1.0142257230580359e-16 -9.488116562086037e-17 -1.0142257230580359e-16 0.4451381558531614 0.8954619043842438
12627154666.666666 0.4558744355230854 0.8900440994896363 -9.608400632887975e-17 -1.0024617660128215e-16 -9.608400632887975e-17 -1.0024617660128215e-16 0.45587381720953024 0.8900444161852947
12627772000.0 0.46654417199754045 0.8844979002659862 -9.727227697672494e-17 -9.905553026878873e-17 -9.727227697672494e-17 -9.905553026878873e-17 0.46654355756696014 0.8844982243580678
12628389333.333334 0.47714644450161287 0.8788237994611202 -9.844580891163995e-17 -9.785081357793104e-17 -9.844580891163995e-17 -9.785081357793104e-17 0.4771458340424722 0.8788241309020389
12629006666.666666 0.4876797199086795 0.8730226175704743 -9.96044357090955e-17 -9.663220879201571e-17 -9.96044357090955e-17 -9.663220879201571e-17 0.4876791135088604 0.8730229563115864
12629624000.0 0.49814247506917203 0.8670951934659591 -1.0074799319628343e-16 -9.539990014058119e-17 -1.0074799319628343e-16 -9.539990014058119e-17 0.49814187281596156 0.8670955394575713
12630241333.333334 0.5085331970310817 0.861042384274525 -1.0187631947534578e-16 -9.415407379157648e-17 -1.0187631947534578e-16 -9.415407379157648e-17 0.5085325990111577 0.8610427374658982
12630858666.666666 0.5188503832585364 0.8548650652543242 -1.0298925494621227e-16 -9.289491782331824e-17 -1.0298925494621227e-16 -9.289491782331824e-17 0.5188497895579574 0.8548654255936858
12631476000.0 0.5290925418494452 0.8485641296679373 -1.0408664232915322e-16 -9.162262219611145e-17 -1.0408664232915322e-16 -9.162262219611145e-17 0.5290919525536356 0.8485644971024842
12632093333.333334 0.5392581917507631 0.8421404886534717 -1.0516832668689301e-16 -9.033737872370451e-17 -1.0516832668689301e-16 -9.033737872370451e-17 0.5392576069445026 0.8421408631293807
12632710666.666666 0.5493458629729058 0.8355950710926703 -1.0623415544644901e-16 -8.903938104439971e-17 -1.0623415544644901e-16 -8.903938104439971e-17 0.5493452827403168 0.8355954525551054
12633328000.0 0.5593540968024074 0.8289288234765234 -1.0728397842059445e-16 -8.772882459192568e-17 -1.0728397842059445e-16 -8.772882459192568e-17 0.559353521226943 0.8289292118696444
12633945333.333334 0.5692814460126421 0.8221427097685451 -1.0831764782894453e-16 -8.640590656608382e-17 -1.0831764782894453e-16 -8.640590656608382e-17 0.5692808751770728 0.8221431050355137
12634562666.666666 0.5791264750731924 0.8152377112653156 -1.0933501831869014e-16 -8.507082590313407e-17 -1.0933501831869014e-16 -8.507082590313407e-17 0.5791259090595963 0.8152381133483064
12635180000.0 0.5888877603575025 0.8082148264545354 -1.1033594698497878e-16 -8.372378324592614e-17 -1.1033594698497878e-16 -8.372378324592614e-17 0.5888871992472525 0.8082152352947433
12635797333.333334 0.5985638903486239 0.8010750708707214 -1.1132029339091956e-16 -8.236498091380065e-17 -1.1132029339091956e-16 -8.236498091380065e-17 0.5985633342223746 0.8010754864083681
12636414666.666666 0.6081534658433254 0.7938194769483566 -1.122879195872104e-16 -8.099462287226925e-17 -1.122879195872104e-16 -8.099462287226925e-17 0.6081529147810043 0.793819899122703
12637032000.0 0.6176551001545374 0.7864490938725137 -1.1323869013141235e-16 -7.96129147024361e-17 -1.1323869013141235e-16 -7.96129147024361e-17 0.6176545542353321 0.7864495226218671
12637649333.333334 0.6270674193117839 0.7789649874272083 -1.1417247210683844e-16 -7.822006357021101e-17 -1.1417247210683844e-16 -7.822006357021101e-17 0.6270668786141292 0.7789654226889299
12638266666.666666 0.636389062259857 0.7713682398412774 -1.150891351410516e-16 -7.681627819531689e-17 -1.150891351410516e-16 -7.681627819531689e-17 0.6363885268614262 0.7713686815517942
12638884000.0 0.6456186810557261 0.7636599496318208 -1.159885514240051e-16 -7.540176882005434e-17 -1.159885514240051e-16 -7.540176882005434e-17 0.6456181510334186 0.7636603977266334
12639501333.333334 0.6547549410633394 0.7558412314454355 -1.1687059572578828e-16 -7.39767471778662e-17 -1.1687059572578828e-16 -7.39767471778662e-17 0.6547544164932698 0.7558416858591275
12640118666.666666 0.6637965211465588 0.7479132158970956 -1.1773514541397468e-16 -7.25414264617204e-17 -1.1773514541397468e-16 -7.25414264617204e-17 0.6637960021040449 0.7479136765633425
12640736000.0 0.6727421138606245 0.7398770494062841 -1.185820804706363e-16 -7.109602129219962e-17 -1.185820804706363e-16 -7.109602129219962e-17 0.6727416004201785 0.7398775162578648
12641353333.333334 0.681590425640493 0.7317338940318552 -1.1941128350886673e-16 -6.964074768556279e-17 -1.1941128350886673e-16 -6.964074768556279e-17 0.6815899178758096 0.7317343670006606
12641970666.666666 0.6903401769885305 0.7234849273034338 -1.202226397890234e-16 -6.817582302142882e-17 -1.202226397890234e-16 -6.817582302142882e-17 0.6903396749724762 0.7234854063204769
12642588000.0 0.6989901026592965 0.7151313420513445 -1.210160372345002e-16 -6.670146601039793e-17 -1.210160372345002e-16 -6.670146601039793e-17 0.6989896064638997 0.7151318270467704
12643205333.333334 0.7075389518424205 0.7066743462342029 -1.2179136644713753e-16 -6.521789666143278e-17 -1.2179136644713753e-16 -6.521789666143278e-17 0.7075384615388624 0.7066748371373001
12643822666.666666 0.7159854883436425 0.6981151627640864 -1.2254852072221957e-16 -6.372533624908564e-17 -1.2254852072221957e-16 -6.372533624908564e-17 0.7159850040022423 0.6981156595032939
12644440000.0 0.7243284907634395 0.6894550293298087 -1.2328739606307273e-16 -6.222400728054948e-17 -1.2328739606307273e-16 -6.222400728054948e-17 0.7243280124536505 0.6894555318327312
12645057333.333334 0.7325667526736762 0.6806951982179353 -1.2400789119526398e-16 -6.071413346253816e-17 -1.2400789119526398e-16 -6.071413346253816e-17 0.732566280464071 0.6806957064113495
12645674666.666666 0.7406990827920346 0.671836936131715 -1.2470990758039168e-16 -5.919593966800654e-17 -1.2470990758039168e-16 -5.919593966800654e-17 0.7406986167502966 0.6718374499415813
12646292000.0 0.748724305154487 0.6628815240076773 -1.2539334942948952e-16 -5.766965190266985e-17 -1.2539334942948952e-16 -5.766965190266985e-17 0.7487238453474035 0.6628820433591538
12646909333.333334 0.756641259284986 0.653830256830809 -1.2605812371597311e-16 -5.613549727147712e-17 -1.2605812371597311e-16 -5.613549727147712e-17 0.7566408057784344 0.6538307816482576
12647526666.666666 0.764448800363536 0.6446844434469944 -1.2670414018823026e-16 -5.4593703944818773e-17 -1.2670414018823026e-16 -5.4593703944818773e-17 0.7644483532224772 0.6446849736539951
12648144000.0 0.7721457993916843 0.6354454063738191 -1.2733131138177103e-16 -5.304450112465149e-17 -1.2733131138177103e-16 -5.304450112465149e-17 0.7721453586801514 0.6354459418931795
12648761333.333334 0.7797311433557721 0.6261144816093225 -1.2793955263096996e-16 -5.1488119010474666e-17 -1.2793955263096996e-16 -5.1488119010474666e-17 0.7797307091368638 0.6261150223630905
12649378666.666666 0.7872037353877788 0.6166930184389461 -1.2852878208038404e-16 -4.992478876519547e-17 -1.2852878208038404e-16 -4.992478876519547e-17 0.7872033077236477 0.6166935643484192
12649996000.0 0.7945624949240914 0.60718237924022 -1.2909892069567589e-16 -4.8354742480811386e-17 -1.2909892069567589e-16 -4.8354742480811386e-17 0.7945620738759361 0.6071829302259584
12650613333.333334 0.8018063578616851 0.5975839392858466 -1.2964989227410048e-16 -4.6778213144017286e-17 -1.2964989227410048e-16 -4.6778213144017286e-17 0.8018059434897429 0.5975844952676846
12651230666.666666 0.8089342767119313 0.5878990865449238 -1.30181623454571e-16 -4.5195434601698504e-17 -1.30181623454571e-16 -4.5195434601698504e-17 0.8089338690754668 0.5878996474419806
12651848000.0 0.8159452207522196 0.5781292214820342 -1.3069404372732956e-16 -4.360664152624101e-17 -1.3069404372732956e-16 -4.360664152624101e-17 0.8159448199095191 0.5781297872127265
12652465333.333334 0.8228381761749176 0.5682757568548445 -1.3118708544315748e-16 -4.2012069380841245e-17 -1.3118708544315748e-16 -4.2012069380841245e-17 0.8228377821832784 0.5682763273368984
12653082666.666666 0.829612146233875 0.5583401175099578 -1.3166068382218862e-16 -4.0411954384643707e-17 -1.3166068382218862e-16 -4.0411954384643707e-17 0.8296117591495991 0.5583406926604201
12653700000.0 0.836266151388785 0.5483237401765498 -1.3211477696230136e-16 -3.8806533477761474e-17 -1.3211477696230136e-16 -3.8806533477761474e-17 0.8362657712671687 0.5483243199117996
12654317333.333334 0.8427992294465854 0.5382280732589612 -1.3254930584705986e-16 -3.719604428629545e-17 -1.3254930584705986e-16 -3.719604428629545e-17 0.8427988563419139 0.5382286574947236
12654934666.666666 0.8492104357007421 0.528054576627044 -1.3296421435326005e-16 -3.5580725087157114e-17 -1.3296421435326005e-16 -3.5580725087157114e-17 0.8492100696662813 0.5280551652784021
12655552000.0 0.8554988430679149 0.5178047214049624 -1.333594492580263e-16 -3.396081477288497e-17 -1.333594492580263e-16 -3.396081477288497e-17 0.8554984841559015 0.5178053143863678
12656169333.333334 0.8616635422217879 0.5074799897588204 -1.3373496024548333e-16 -3.233655281638105e-17 -1.3373496024548333e-16 -3.233655281638105e-17 0.8616631904834253 0.5074805869841083
12656786666.666666 0.8677036417247758 0.4970818746820015 -1.3409069991301078e-16 -3.070817923552268e-17 -1.3409069991301078e-16 -3.070817923552268e-17 0.8677032972102242 0.4970824760644011
12657404000.0 0.8736182681568366 0.48661187977941966 -1.3442662377705442e-16 -2.907593455776497e-17 -1.3442662377705442e-16 -2.907593455776497e-17 0.8736179309152075 0.48661248523156764
12658021333.333334 0.8794065662418008 0.4760715190500434 -1.3474269027851832e-16 -2.7440059784637087e-17 -1.3474269027851832e-16 -2.7440059784637087e-17 0.8794062363211487 0.4760721284839968
12658638666.666666 0.8850676989709656 0.4654623166681163 -1.350388607877108e-16 -2.580079635624734e-17 -1.350388607877108e-16 -2.580079635624734e-17 0.8850673764182821 0.4654629299953647
12659256000.0 0.8906008477243202 0.45478580676240676 -1.3531509960887982e-16 -2.415838611564244e-17 -1.3531509960887982e-16 -2.415838611564244e-17 0.890600532585526 0.454786423893885
12659873333.333334 0.8960052123887133 0.44404353319473916 -1.3557137398429618e-16 -2.2513071273213252e-17 -1.3557137398429618e-16 -2.2513071273213252e-17 0.8960049047086538 0.4440441540408415
12660490666.666666 0.9012800114736161 0.43323704933665186 -1.3580765409791415e-16 -2.0865094371026513e-17 -1.3580765409791415e-16 -2.0865094371026513e-17 0.9012797112960543 0.43323767380724426
12661108000.0 0.9064244822242373 0.42236791784454153 -1.3602391307860492e-16 -1.921469824706339e-17 -1.3602391307860492e-16 -1.921469824706339e-17 0.9064241895918455 0.422368545848974
12661725333.333334 0.9114378807316451 0.4114377104340555 -1.3622012700293896e-16 -1.7562125999560194e-17 -1.3622012700293896e-16 -1.7562125999560194e-17 0.9114375956860015 0.4114383418811761
12662342666.666666 0.9163194820404651 0.40044800765256006 -1.3639627489755365e-16 -1.590762095118945e-17 -1.3639627489755365e-16 -1.590762095118945e-17 0.9163192046220463 0.4004486424507281
12662960000.0 0.921068580253694 0.3894003986506122 -1.3655233874107642e-16 -1.4251426613307202e-17 -1.3655233874107642e-16 -1.4251426613307202e-17 0.9210683105018705 0.3894010367077115
12663577333.333334 0.92568448863472 0.37829648095229307 -1.3668830346561906e-16 -1.2593786650139978e-17 -1.3668830346561906e-16 -1.2593786650139978e-17 0.9256842265877497 0.37829712217574507
12664194666.666666 0.9301665397066716 0.3671378602240958 -1.3680415695783406e-16 -1.093494484300604e-17 -1.3680415695783406e-16 -1.093494484300604e-17 0.9301662854016951 0.3671385045208732
12664812000.0 0.9345140853489284 0.355926150042767 -1.3689989005954106e-16 -9.275145054494586e-18 -1.3689989005954106e-16 -9.275145054494586e-18 0.9345138388219623 0.3559267973194073
12665429333.333334 0.938726496890848 0.34466297166195065 -1.369754965679183e-16 -7.614631192662537e-18 -1.369754965679183e-16 -7.614631192662537e-18 0.9387262581767815 0.3446636218245694
12666046666.666666 0.9428031652026182 0.3333499537779093 -1.3703097323525894e-16 -5.95364717526195e-18 -1.3703097323525894e-16 -5.95364717526195e-18 0.9428029343352066 0.3333506067322138
12666664000.0 0.9467435007834838 0.3219887322936078 -1.3706631976829839e-16 -4.292436893898182e-18 -1.3706631976829839e-16 -4.292436893898182e-18 0.9467432777953444 0.3219893879449108
12667281333.333334 0.9505469338467959 0.3105809500826902 -1.3708153882710208e-16 -2.631244178342176e-18 -1.3708153882710208e-16 -2.631244178342176e-18 0.9505467187694048 0.31058160833592424
12667898666.666666 0.9542129144025432 0.2991282567515412 -1.3707663602352668e-16 -9.703127607372101e-19 -1.3707663602352668e-16 -9.703127607372101e-19 0.9542127072662289 0.2991289175112715
12668516000.0 0.9577409123368671 0.2876323084007712 -1.3705161991924548e-16 6.90113760131054e-19 -1.3705161991924548e-16 6.90113760131054e-19 0.9577407131708072 0.2876329715712101
12669133333.333334 0.9611304174886337 0.2760947673860103 -1.3700650202334312e-16 2.349791954437542e-18 -1.3700650202334312e-16 2.349791954437542e-18 0.9611302263208505 0.27609543287103067
12669750666.666666 0.9643809397233228 0.26451730207714536 -1.3694129678947826e-16 4.008478597053461e-18 -1.3694129678947826e-16 4.008478597053461e-18 0.9643807565806786 0.2645179697802947
12670368000.0 0.9674920090038183 0.25290158661733897 -1.3685602161261608e-16 5.665930703086144e-18 -1.3685602161261608e-16 5.665930703086144e-18 0.9674918339120128 0.25290225644185355
